t,iq,id,vq,vd,ia,ib,va,vb,theta_e,omega,r
0,0,0,0,0,0,0,0,0,0,0,0
0.01,0.000666381070509843,0.000376012797271075,-0.0327237233642158,-0.0188165270834803,-0.000667099752136416,0.000374736274658586,0.0327596889538612,-0.018753840725231,1.5727108983446,-0.00154479715525416,0
0.02,0.000764852261468873,0.000430275966547051,-0.0376387959717274,-0.0215319803661456,-0.000765669596410921,0.000428819843750247,0.0376796984082889,-0.0214603231231451,1.57269910570651,-0.00167306049100462,0
0.03,0.000802233629238981,0.000451465425527177,-0.0395037515338044,-0.0225923566377459,-0.000803085820473308,0.000449947765060675,0.0395463982685861,-0.0225176230467166,1.57268711559039,-0.00165084928223834,0
0.04,0.000783328291904517,0.000441503661245311,-0.0386169089859398,-0.0220938350888686,-0.000784156823287923,0.000440030421996088,0.0386583715870327,-0.0220212060251337,1.57267607519077,-0.0015006739074994,0
0.05,0.000801857836570324,0.0004525533743581,-0.0395565123300532,-0.0226468041507312,-0.000802702348208232,0.000451053751667286,0.0395987746169167,-0.0225728255829407,1.57266552717567,-0.00144621176083877,0
0.06,0.000802731382145718,0.000453627959240212,-0.039631959316768,-0.0227005638963811,-0.000803573399736429,0.000452134701745012,0.0396740967026159,-0.0226268391811829,1.57265557179234,-0.0013543903614478,0
0.07,0.000819250696369835,0.000463724744612666,-0.0404687949732521,-0.0232058393168693,-0.000820107225949676,0.000462208264977672,0.0405116585628253,-0.0231309287638119,1.57264641600579,-0.00130817582320764,0
0.08,0.000802633575810467,0.000454711664766073,-0.0396862143377855,-0.0227548051274378,-0.000803469482840724,0.000453232992219554,0.0397280458380239,-0.022681691708164,1.57263764341624,-0.00118496750759028,0
0.09,0.000800033856783597,0.000453829564298348,-0.0395858171399121,-0.0227106682332848,-0.000800864496242315,0.000452362138214294,0.0396273849918233,-0.0226380593016872,1.57262957956863,-0.00110254721208139,0
0.1,0.000798960606455107,0.000453740918929835,-0.039558097909609,-0.0227062272828347,-0.000799787694118403,0.000452281457186973,0.0395994879630712,-0.0226339660843727,1.572622081777,-0.00102918159274914,0
0.11,0.000798102161977737,0.00045372986053694,-0.0395391640206267,-0.0227056771500199,-0.000798926073765263,0.000452277543057834,0.0395803951068374,-0.0226337268137088,1.57261510124891,-0.000961220013089441,0
0.12,0.000797317641575079,0.00045372653638018,-0.0395222566138631,-0.0227055054210594,-0.00079813860885134,0.00045228083360148,0.0395633402988407,-0.0226338429939754,1.57260860134976,-0.000897973641899925,0
0.13,0.000832279608505793,0.000473917842234447,-0.0412504134484946,-0.0237159144609225,-0.000833134119337531,0.000472414020874049,0.0412931757421527,-0.0236413799410531,1.57260226957841,-0.000923273056183013,0
0.14,0.000857357148305232,0.000488878388894189,-0.0425654197676813,-0.0244645784401107,-0.000858235729907183,0.000487334372672954,0.0426093865234597,-0.0243879219767829,1.57259630606034,-0.00092800242254437,0
0.15,0.000801598781112092,0.000457149457260608,-0.0397903115229714,-0.022876786598321,-0.000802417780235699,0.000455710366478176,0.0398312966011588,-0.0228053517234606,1.57259068532085,-0.00073931906165122,0
0.16,0.000795248397999557,0.000454052277650123,-0.0394962089041241,-0.0227217968611864,-0.000796059648959912,0.000452628457631586,0.0395368062062289,-0.0226510822127848,1.57258582272725,-0.000677983745188703,0
0.17,0.000794104357942258,0.000453748560643656,-0.0394551192220446,-0.022706609737297,-0.00079491303672215,0.000452330356750733,0.0394955877989355,-0.0226361459397186,1.57258133370687,-0.000632839344909897,0
0.18,0.000793538279538376,0.0004537174837937,-0.0394412219836679,-0.0227050606177006,-0.000794345014957677,0.000452303607552163,0.0394815932961318,-0.0226347865025776,1.57257715775745,-0.000592055141549424,0
0.19,0.000793063472529254,0.000453713105195261,-0.0394308334250437,-0.0227048412111347,-0.00079386844232354,0.000452303161130762,0.0394711163581024,-0.0226347390632524,1.57257326968741,-0.000554209444675927,0
0.2,0.000792626908131281,0.000453711423667264,-0.0394214305512154,-0.0227047527111816,-0.000793430238112031,0.000452305127883175,0.0394616313953267,-0.0226348101383593,1.57256964929956,-0.000518982599277,0
0.21,0.00079222096097649,0.000453710091311291,-0.039412701692037,-0.0227046758199099,-0.000793022764432224,0.000452307188822472,0.0394528261076756,-0.0226348817286551,1.57256627812805,-0.000486182050213323,0
0.22,0.000791842911574457,0.000453708873180802,-0.0394045704485235,-0.0227046192316628,-0.000792643293620063,0.000452309128022909,0.0394446237231918,-0.0226349633536982,1.5725631390135,-0.000455639496294458,0
0.23,0.000791490939202813,0.000453707740870842,-0.0393970007554064,-0.022704562595813,-0.000792289997681496,0.000452310933474009,0.0394369877790724,-0.0226350353678092,1.57256021598202,-0.00042719937260548,0
0.24,0.000791163181216408,0.000453706686499839,-0.0393899505784438,-0.0227045059140774,-0.000791961007233261,0.000452312612812432,0.0394298759045129,-0.0226350984431111,1.57255749415908,-0.00040071694309933,0
0.25,0.000790857907673207,0.000453705704536194,-0.0393833809861771,-0.022704469498177,-0.000791654586062334,0.000452314174909875,0.039423248890379,-0.0226351735143174,1.5725549596944,-0.000376057447316832,0
0.26,0.000798066935378807,0.000457962435096985,-0.0397430113980155,-0.0229174736286926,-0.000798870035405236,0.000456560063777503,0.0397832006348103,-0.0228476366339068,1.57255265279229,-0.000371824833007256,0
0.27,0.000777617067047758,0.000446321806775085,-0.038752114205709,-0.0223349582760121,-0.000778398706747697,0.000444957201875018,0.0387912294825626,-0.0222669538068116,1.57255029943863,-0.00029986909500656,0
0.28,0.000776919908233867,0.000446031790128056,-0.0386572717893916,-0.0223204477420252,-0.000777700130585427,0.000444669999552892,0.0386963162348201,-0.0222526888141225,1.57254825355881,-0.000278866721948426,0
0.29,0.000788458203230159,0.000452953978055067,-0.0392942037147938,-0.0226668466959571,-0.000789249717740241,0.000451573391071475,0.0393338131482649,-0.0225980425686634,1.57254644367377,-0.000289856315033932,0
0.3,0.00078075976046611,0.00044888911655663,-0.0389225052424821,-0.0224634381135207,-0.000781543595763688,0.000447523016667137,0.0389617303806835,-0.022395335049379,1.57254515430125,-0.000258961285915986,0
0.31,0.000788548224590543,0.00045323173037606,-0.0393081846265718,-0.0226807456189786,-0.000789338908222291,0.000451853285803054,0.0393477524649536,-0.0226120316740051,1.57254352935923,-0.00026257371621072,0
0.32,0.00078919520665656,0.000453654856537534,-0.039344929221186,-0.0227019128765422,-0.000789985919916881,0.000452276518739212,0.0393844985230666,-0.0226331964106004,1.57254196246026,-0.000249361066136612,0
0.33,0.000789106194457397,0.000453695628588179,-0.0393453956620004,-0.0227039636363611,-0.000789896316528726,0.000452318603050338,0.0393849353897853,-0.0226353040391112,1.57254049778787,-0.000235323037501719,0
0.34,0.000788951213439451,0.000453699132514048,-0.0393423106720108,-0.0227041275763435,-0.000789740724690482,0.000452323454838386,0.0393818198056457,-0.0226355270937425,1.57253913334788,-0.000222069753346814,0
0.35,0.000788799042359392,0.000453699033074589,-0.0393390532840605,-0.0227041284405278,-0.000789587978954328,0.000452324623838599,0.0393785336638649,-0.0226355836685073,1.57253786276808,-0.0002097097636864,0
0.36,0.000788656650135275,0.000453698612423942,-0.0393359854260842,-0.0227041118073999,-0.0007894450510566,0.000452325385182223,0.0393754390008322,-0.0226356189642733,1.57253667964298,-0.000198198592385242,0
0.37,0.000788523920380072,0.000453698188691515,-0.0393331210156913,-0.0227040936825564,-0.000789311822444839,0.000452326062019785,0.0393725496259141,-0.02263564920068,1.5725355779585,-0.000187479591240729,0
0.38,0.000788400387432457,0.000453697790972835,-0.0393304559439465,-0.0227040740673376,-0.00078918782497361,0.000452326688744652,0.0393698613033081,-0.0226356746082849,1.57253455210893,-0.000177498417120933,0
0.39,0.000788285352805749,0.000453697420299849,-0.0393279732078967,-0.0227040558745443,-0.000789072357798117,0.000452327271777574,0.0393673569170037,-0.0226356983361396,1.57253359687442,-0.000168204300772123,0
0.4,0.000788178292625725,0.000453697075089125,-0.0393256633102081,-0.0227040361955507,-0.000788964894843558,0.000452327814328638,0.0393650268546037,-0.0226357176845148,1.57253270739412,-0.000159549950206866,0
0.41,0.00078807856661342,0.000453696753617687,-0.0393235097942625,-0.0227040179431231,-0.000788864793781633,0.000452328319399253,0.0393628545621216,-0.0226357357738241,1.57253187914168,-0.000151491326982754,0
0.42,0.000787985767312564,0.000453696454256881,-0.0393215067447831,-0.0227039996634725,-0.000788771645247565,0.000452328789428537,0.0393608340263686,-0.0226357513272178,1.57253110790257,-0.000143987423877764,0
0.43,0.000787899370851509,0.000453696175487144,-0.0393196414803744,-0.0227039799033311,-0.000788684923592673,0.000452329226932645,0.0393589524746138,-0.0226357630685854,1.57253038975212,-0.000137000056406428,0
0.44,0.000787818695033831,0.000453695915893483,-0.039317892412136,-0.0227039803578663,-0.000788603944966266,0.000452329634588402,0.039357188272886,-0.0226357928748981,1.57252972103615,-0.000130493668531383,0
0.45,0.000787743707276784,0.000453695674157428,-0.0393162696286743,-0.0227039620057584,-0.000788528675244055,0.000452330013840769,0.0393555513650924,-0.0226358018418414,1.57252909835152,-0.000124435151736724,0
0.46,0.000787674074624346,0.000453695449051616,-0.0393147673454537,-0.0227039436320768,-0.000788458780035313,0.000452330366558219,0.0393540359275655,-0.0226358088896235,1.57252851852992,-0.000118793676550066,0
0.47,0.000787608882041681,0.000453695239432234,-0.0393133499561059,-0.0227039425626418,-0.000788393342969904,0.000452330695526136,0.0393526063172008,-0.0226358315222216,1.57252797862059,-0.000113540535666173,0
0.48,0.000787548446199442,0.000453695044234614,-0.0393120427390423,-0.0227039241504667,-0.000788332679473563,0.000452331001312353,0.0393512876901832,-0.0226358351573533,1.57252747587636,-0.000108648997861927,0
0.49,0.000787491984768607,0.00045369486246703,-0.0393108153390892,-0.0227039244966163,-0.000788276006059507,0.000452331286309768,0.0393500496959794,-0.0226358560495507,1.57252700773885,-0.00010409417197397,0
0.5,0.000787439581583367,0.000453694693205913,-0.0393096801565132,-0.0227039060507166,-0.00078822340548274,0.000452331551338825,0.0393489046159219,-0.0226358567210126,1.57252657182598,-9.9852880237238e-05,0
0.51,4.47632835353002,-0.0177433240113418,3.15590359406453,0.895445810709559,-0.348043661519429,4.46281256203304,0.660101403550787,3.21338090365537,0.0738661901680529,22.6832335050736,616.779894418753
0.52,4.28459264404656,0.00687970282673034,4.50445213457445,-0.32876741120256,-1.38849717462806,4.0533760067108,-1.77743883223685,4.15197401737988,0.331631095878775,47.5533710140911,616.779894418753
0.53,4.10965026171612,0.0252472227221103,4.9908930795339,-1.23997998631077,-2.84592737685993,2.96488786660098,-4.3674447921744,2.71514089599404,0.771072090090945,72.4907639408382,616.779894418753
0.54,3.91064420900879,0.0129314745779514,6.26360455477605,-0.622633249884542,-3.84980443003629,0.687249010884475,-6.2771234058824,0.467050243331915,1.39744858639214,98.2132169255982,616.779894418753
0.55,3.73878067007097,0.0203592189722739,7.29138680949494,-0.986349875578907,-3.031784783167,-2.18796170561793,-5.30763287160545,-5.09570809436575,2.20136665948507,120.656436765012,616.779894418753
0.56,3.6072154396491,0.0489390434763651,6.54722664155935,-2.41129588682132,0.0378585851349448,-3.60734874742529,2.56811308356383,-6.48731991964125,-3.11753203427554,142.865211136313,616.779894418753
0.57,3.51917452342318,0.0687749289276687,3.65377755864884,-3.400864783049,3.18791486893912,-1.49215217238613,4.72010279407819,1.62376147694299,-1.98903091551901,164.274742189046,616.779894418753
0.58,3.35410545442148,0.0137340598780868,5.02307292563157,-0.649240243432294,2.19785887184731,2.533698562028,2.78372697140533,4.23126915458889,-0.710443644494924,185.035495236248,616.779894418753
0.59,3.23097618110772,0.0188384394274841,4.72500197488877,-0.890847413125882,-2.10915090738476,2.44766100993654,-3.77665933680925,2.97591952677947,0.717078260494104,204.154808762591,616.779894418753
0.6,3.10329007651169,0.0273192571351759,4.63894085556466,-1.31819361534711,-2.36128651132965,-2.01382264665958,-2.63880698149938,-4.03659564278601,2.28574559481545,223.286025856356,616.779894418753
0.61,2.92302537904795,0.0551868315438488,7.50924626435562,-2.71743156983099,2.15488460994104,-1.97575182418579,7.42803855671696,-2.93214204897702,-2.29397697738701,241.601968973571,616.779894418753
0.62,2.83032524103117,0.0341474279667127,6.33769783518263,-1.66546775202255,1.28839805375218,2.52030503549521,1.32452821645576,6.41761806957365,-0.460508853499729,258.970550229195,616.779894418753
0.63,2.73638044337175,0.0444508059301987,5.46589822219176,-2.18057720105024,-2.72586510460618,0.243748305646511,-5.61027569320846,-1.77644784648846,1.49785594726038,275.595585362088,616.779894418753
0.64,2.59143728792905,0.00367253227616257,7.31663214456127,-0.140266908662743,1.08801462360664,-2.35197467749559,3.20851352665166,-6.57709827308262,-2.70689603466088,291.598600514443,616.779894418753
0.65,2.47562949134262,0.00716813917975367,7.90908568820937,-0.315715457123726,1.22195391337567,2.15304932461161,3.60889591629644,7.04479828942206,-0.513318667113136,306.973539695609,616.779894418753
0.66,2.3358845985693,0.0380026849958766,9.88998310547642,-1.85982251555287,-2.28796127540917,-0.472265035894275,-9.24644837665467,-3.97163669459163,1.79061823647822,321.741939077819,616.779894418753
0.67,2.31908223540865,-0.0116820715588956,5.92790030298328,0.630945985153854,2.02731430929499,-1.12617741795494,4.85830199900376,-3.45470643105418,-2.08289133122341,335.880031212199,616.779894418753
0.68,2.23097204316048,0.0617496895113566,5.75537855588771,-3.03774878756148,-0.870962627638125,2.05486578218045,-5.15478631099939,3.97246499114047,0.428570701775432,349.355136633902,616.779894418753
0.69,2.11565199674125,0.00355737500679709,7.13730981713669,-0.117963097244562,-0.223386680256985,-2.10382851423683,-0.624351067206414,-7.11092767949341,3.03748944189881,362.325326629371,616.779894418753
0.7,2.03463393284951,0.0351807900947853,6.97306556271563,-1.70471923327367,1.08175046877682,1.72359764794325,2.14478889181904,6.85051761662967,-0.54318611694089,374.903015627228,616.779894418753
0.71,1.94287464448476,-0.00138779819806734,7.42574257399246,0.11113090725556,-1.51173308284702,-1.22042078661069,-5.85097694863069,-4.57384647756611,2.2492578305515,386.971136752305,616.779894418753
0.72,1.85649863920866,0.0218853352595162,7.87832321677787,-1.03974822524609,1.70762856601809,0.728746077726697,6.78975655197406,4.12895374699802,-1.1556486716429,398.294901240785,616.779894418753
0.73,1.75585116157574,0.0217627324914756,9.17370455391057,-1.0501922568862,-1.71294948174808,-0.386381923893134,-8.67940693386389,-3.15081803588506,1.8050425140627,409.425267450512,616.779894418753
0.74,1.68293470604437,0.0108223617579991,9.18436121661725,-0.497382017290708,1.66956804449189,0.211964367605004,9.03778422706639,1.70831381584802,-1.4380837466374,419.963004052038,616.779894418753
0.75,1.62714642791567,0.00601074874767937,8.55920651655352,-0.242407637229175,-1.6185033764245,-0.167596084326953,-8.48451071857531,-1.15406044988121,1.6776726439425,430.06531355439,616.779894418753
0.76,1.60977336690247,0.0303017164516651,6.0534300366365,-1.47487176334649,1.59535252413028,0.217114740539602,5.75536002096262,2.38643938868661,-1.41671391585928,439.873898482229,616.779894418753
0.77,1.47339364025833,0.00699372466036419,9.71718869851292,-0.294493449985828,-1.42143812482062,-0.387880637109852,-9.28330888463659,-2.88628805683341,1.84193625067332,449.175482962166,616.779894418753
0.78,1.43557240703869,0.0292389810242694,8.49539138996705,-1.42111152146103,1.30205384799172,0.605292351506405,7.00394998573029,5.01357331875622,-1.11527673587647,458.175471667252,616.779894418753
0.79,1.33896908792665,0.021952968646066,10.4047365027492,-1.07316928730456,-1.03473848557386,-0.850080241934728,-7.23547359184425,-7.55368492277642,2.2749287556433,466.813880656422,616.779894418753
0.8,1.32969458229873,0.0107907311553386,8.03032939338566,-0.489604875544164,0.711264578186042,1.12352428629349,3.82435752206091,7.07814895603974,-0.556263268117786,474.965138373281,616.779894418753
0.81,1.26498479888669,0.020858223178481,8.52924287949214,-1.01353534034183,-0.255412428669967,-1.23910697607974,-0.588038496610736,-8.56909847708573,2.95480092170673,482.944835192893,616.779894418753
0.82,1.2249900935362,0.0300172438451364,7.94715319578807,-1.4759836077767,-0.261272532512696,1.19717936331374,-3.31809670043549,7.37061773627619,0.239370192043245,490.504048683511,616.779894418753
0.83,1.14550036642148,0.0483955727941193,9.40759594433978,-2.37526032986176,0.718939849566372,-0.893106216327766,7.98894985809883,-5.50648737866129,-2.42159429381906,497.717885664831,616.779894418753
0.84,1.14779497867093,-0.0183374391009215,6.86329727505912,0.950350961114181,-1.09598890673745,0.341435046595145,-6.22211560219373,3.04849042446617,1.25281918079459,504.734918302128,616.779894418753
0.85,1.09244049016464,0.0255875310672535,7.3370691964943,-1.26134982943176,1.06108321335686,0.261119437479413,6.75149775976891,3.13701542651426,-1.30608520927222,511.425490886018,616.779894418753
0.86,1.05735553787216,0.0202759473517639,6.87403004430288,-0.972279382449289,-0.676845725283931,-0.812583356754743,-3.53853746482893,-5.97296985238639,2.46625118173453,517.800499423406,616.779894418753
0.87,1.01708527187825,0.0511315535055359,6.74734829674792,-2.51384346400953,0.0497643990518388,1.01715308121371,-2.52291059550862,6.74396323583105,0.00134414361599274,523.918522650502,616.779894418753
0.88,0.974678271871461,0.014263018086488,6.80650234314471,-0.679121795181599,-0.742009254805404,-0.632157759682188,-4.66806566772992,-4.99988434683106,2.29105622176253,529.821850934434,616.779894418753
0.89,0.897527913512448,0.0106291236477376,8.67684842585883,-0.510530021825841,0.0889686188866733,0.893170710814526,0.249159855854723,8.68828284960525,-0.0874402580228784,535.523967124495,616.779894418753
0.9,0.899632603832517,0.0218530007655282,6.6945057805684,-1.07958871244026,0.574132507494405,-0.692956159767066,5.20935496071302,-4.3410298694419,-2.42541168884149,540.913227861705,616.779894418753
0.91,0.815503239914973,-0.0340935242059258,9.10220972787485,1.71428862009587,-0.815861607564892,-0.0240362227945257,-9.08038162012744,1.82638359499353,1.55846656007873,546.079187725031,616.779894418753
0.92,0.75930043794958,-0.0196684399003406,10.1670710233909,1.00231442171126,0.476294873467771,0.591664766660021,7.34264356838544,7.1034887782197,-0.703684731086534,551.023115739186,616.779894418753
0.93,0.727657497088432,0.0230745840421308,10.0729164319028,-1.11699037544147,0.130116244812735,-0.716301355808818,3.20562678175979,-9.61432628315634,-2.93020166525695,555.775629439279,616.779894418753
0.94,0.706996578415081,0.0158744242486473,9.49556172337776,-0.757345448474197,-0.642009054954791,0.296513966942392,-9.00978934552637,3.09240367999407,1.16057862911883,560.308616521816,616.779894418753
0.95,0.668671180089432,0.0509380847396822,9.86357521779139,-2.51515480970163,0.589917936808626,0.318924228290349,6.93462410824621,7.45165137879679,-0.999148267075188,564.67594052797,616.779894418753
0.96,0.676902526576054,0.00886927756665354,7.96725413238087,-0.411293802402062,0.000619484590877855,-0.676960346555425,0.522927434616539,-7.96070649502667,-3.12757556665481,568.851465117972,616.779894418753
0.97,0.614966027604957,0.0422306527821998,9.62875358045009,-2.08523519502657,-0.514880118869935,0.33891755093992,-9.41101544455777,2.91442783988609,1.05721028202964,572.887450207136,616.779894418753
