t,iq,id,vq,vd,ia,ib,va,vb,theta_e,omega,r
0,0,0,0,0,0,0,0,0,0,0,0
0.01,0.00178415266558764,0.000839128142142547,-0.0876155080374009,-0.0420166547624645,0.000759576398402868,-0.0018194450989377,-0.0367580367941018,0.089948447774953,-2.30648584708087,-0.00471101051810533,0
0.02,0.00159783374421592,0.000928130963489917,-0.0801859050539628,-0.0464731804922094,0.000561707964892759,-0.0017603931156761,-0.0282588040459474,0.08826650479246,-2.30649030694811,-0.000661836325457222,0
0.03,0.00167920229527918,0.000960287274678132,-0.0840411949096262,-0.0480832827326435,0.00060044663364643,-0.0018388408953801,-0.030036189729977,0.092047551986405,-2.30649301778241,-0.00112973961152578,0
0.04,0.00161837852071572,0.000941870741206079,-0.0810555094507394,-0.0471611548933525,0.000567720423545269,-0.00178436628811006,-0.0284419010821196,0.0893601052261501,-2.30648914911747,-0.00129425518107064,0
0.05,0.00168102502214677,0.000960619750669006,-0.0841383438337999,-0.0480999376980729,0.000601574351666988,-0.00184031076991778,-0.0300970121953597,0.0921251038890356,-2.3064932672109,-0.00108754022923472,0
0.06,0.00166682656043769,0.000961073560357491,-0.0834998254458919,-0.048122666395935,0.00059074333512431,-0.00183111864252565,-0.0296083725179539,0.091713445837494,-2.30649340146606,-0.000836369100367357,0
0.07,0.00175211097238149,0.000988007093198612,-0.0874229516341323,-0.0494712599223824,0.000635893391628323,-0.0019083213749874,-0.0316117141510439,0.095346093570552,-2.30649416503034,-0.00190678874215462,0
0.08,0.00166046623359025,0.000961736283338835,-0.0832359196298732,-0.0481558663965363,0.000585582423974147,-0.00182734178968149,-0.0293903995688049,0.0915609643801208,-2.30649386293255,-0.000611819218503281,0
0.09,0.0016664564771189,0.000961100746903707,-0.0834709046174473,-0.048124020565043,0.000590451096662278,-0.00183089031301187,-0.0295860415577254,0.0916950348598233,-2.30649319792245,-0.000887610430994033,0
0.1,0.00166783366981367,0.000961085287772993,-0.0835391361990192,-0.0481232498296862,0.000591482289075941,-0.0018318031505179,-0.0296371340572825,0.0917402568991353,-2.30649329746185,-0.000880551019348086,0
0.11,0.00166749827725682,0.000961084910908135,-0.0835239509350497,-0.0481232301509716,0.000591233890244099,-0.00183157778913607,-0.0296258892651054,0.0917300514837732,-2.30649329967322,-0.000874884986308714,0
0.12,0.0016675115486035,0.000961084903874992,-0.0835243521944848,-0.04812323020692,0.000591243738811978,-0.00183158668877508,-0.0296261869549412,0.0917303207318465,-2.3064932969652,-0.000875841187331205,0
0.13,0.0017806785192466,0.00100714693619107,-0.0888945185271644,-0.0504296581035151,0.000644221538404242,-0.00194168471937166,-0.0320591971348663,0.0970442874139513,-2.30649721720203,-0.00148472589721457,0
0.14,0.00184578507605509,0.00106469739323578,-0.0925819823089622,-0.053311311404259,0.000653871139053164,-0.00202804231209905,-0.0328592743233613,0.10165523824595,-2.30649491066969,-0.00310849009556225,0
0.15,0.00165321525129837,0.000963592565694808,-0.0829420018102451,-0.0482487963321212,0.000578959881577074,-0.00182385217474227,-0.029110075258544,0.0914326283677283,-2.30649450685375,-0.000322920463457773,0
0.16,0.00166520536329811,0.000961145768215512,-0.0834075888975485,-0.0481262701034987,0.000589493549325328,-0.00183008399944352,-0.0295376017743745,0.0916542079841173,-2.30649309056957,-0.000898735760831069,0
0.17,0.00166818198449675,0.000961086379240921,-0.0835546164309728,-0.0481233050455781,0.000591739785502827,-0.00183203771468139,-0.0296485735374526,0.0917506866602698,-2.30649329679072,-0.000885968790950914,0
0.18,0.00166748011646875,0.000961084935284943,-0.0835229424623469,-0.0481232336525316,0.000591220405326702,-0.0018315656209854,-0.0296251390293443,0.0917293773675407,-2.30649330230387,-0.000873865256640268,0
0.19,0.00166750572783741,0.00096108490474851,-0.0835237344040421,-0.0481232307756271,0.000591239423653017,-0.00183158278284779,-0.0296257286026938,0.0917299065400198,-2.30649329656718,-0.000875852117004286,0
0.2,0.00166751911559941,0.000961084903543839,-0.0835243314582456,-0.0481232308313261,0.000591249348445733,-0.00183159176692619,-0.0296261711387387,0.0917303072863606,-2.30649329722767,-0.000875868108579561,0
0.21,0.00166751667087766,0.000961084903474448,-0.0835241733320399,-0.0481232309159511,0.000591247535985188,-0.00183159012623809,-0.0296260538489715,0.0917302012312654,-2.30649329727156,-0.000875818014673534,0
0.22,0.00166751667087766,0.000961084903491291,-0.0835241223265689,-0.0481232309961097,0.000591247536019268,-0.00183159012623592,-0.0296260159838708,0.0917301670599809,-2.30649329724678,-0.000875824579301418,0
0.23,0.00166751667087766,0.000961084903491417,-0.0835240725189693,-0.0481232310762682,0.000591247536019736,-0.00183159012623584,-0.0296259790045827,0.0917301336933179,-2.30649329724648,-0.00087582487558785,0
0.24,0.00166751667087766,0.000961084903493004,-0.0835240229305966,-0.0481232311564268,0.000591247536022335,-0.00183159012623583,-0.029625942187977,0.0917301004737287,-2.30649329724448,-0.000875824676301573,0
0.25,0.00166751667087766,0.000961084903495025,-0.0835239732543576,-0.0481232312365853,0.00059124753602531,-0.00183159012623593,-0.0296259053062641,0.0917300671951611,-2.30649329724212,-0.000875824696809739,0
0.26,0.00170335675301065,0.000970563043616721,-0.0852082933887024,-0.0485978122698247,0.000611455466423453,-0.00186266987473423,-0.0305560164753551,0.0932122871556435,-2.30649424714575,-0.00115006453937218,0
0.27,0.00160097730875148,0.000936373662217304,-0.0805177854653631,-0.04688591010258,0.000558500841048,-0.00176861550060494,-0.0282275656579818,0.0887953088818197,-2.30649367860567,0.000232095093880071,0
0.28,0.00162927679722124,0.000929822046549044,-0.0810387352410715,-0.0465578371092401,0.000583876924589175,-0.00178275058747556,-0.0288339035422853,0.0889017143382354,-2.30649419796121,-4.8840747759356e-05,0
0.29,0.0016673640226909,0.000960328251896234,-0.0834964248497681,-0.0480853319514825,0.000591642822305319,-0.0018309265158298,-0.0296309494501143,0.0916834714998402,-2.30649293562608,-0.000974457985800272,0
0.3,0.00167821940461792,0.000956734527263868,-0.0838897552191856,-0.0479054063515524,0.000602105645779376,-0.00183554627209873,-0.0300434629221493,0.0918139930734291,-2.30649114971941,-0.00163637748485336,0
0.31,0.00167245512139383,0.000960979390718205,-0.0837630847634841,-0.0481179580896047,0.000594979061154841,-0.00183482626950044,-0.0298066890529149,0.0918866342158119,-2.30649355359725,-0.000878573992926672,0
0.32,0.00166657359026258,0.000961082334073464,-0.0834818616002011,-0.0481231054653155,0.000590550065619682,-0.00183095532567712,-0.0295947682040691,0.0917017131290819,-2.3064933133528,-0.000857117036731007,0
0.33,0.00166752842882303,0.000961084847753276,-0.083523869936243,-0.048123228940726,0.000591256305882116,-0.00183159797069897,-0.0296258310290686,0.0917299959045297,-2.30649328875752,-0.000878353927387074,0
0.34,0.00166753785846621,0.000961084901654731,-0.0835247693912594,-0.0481232319138861,0.00059126324365104,-0.00183160434436971,-0.0296264950128329,0.0917306020091186,-2.30649329795603,-0.000875924574671678,0
0.35,0.00166751352766397,0.000961084903415501,-0.0835235738415051,-0.0481232320384972,0.000591245205764801,-0.00183158801677005,-0.0296256086555587,0.0917297997429193,-2.30649329726993,-0.00087574989716728,0
0.36,0.00166751667087766,0.000961084903564773,-0.0835236599741662,-0.0481232321129134,0.000591247536164286,-0.00183159012622767,-0.0296256724730579,0.0917298575982355,-2.30649329714068,-0.000875832669207685,0
0.37,0.00166751678729298,0.000961084903544057,-0.0835236173289022,-0.0481232321928592,0.000591247622426074,-0.00183159020435787,-0.0296256408008647,0.0917298290390366,-2.30649329717243,-0.000875825394537753,0
0.38,0.00166751667087766,0.000961084903546508,-0.0835235621008473,-0.0481232322732304,0.000591247536125693,-0.00183159012623054,-0.0296255998032455,0.0917297920347327,-2.30649329716845,-0.000875824409346747,0
0.39,0.00166751667087766,0.000961084903548664,-0.083523512287186,-0.048123232353389,0.000591247536129421,-0.00183159012623047,-0.0296255628196949,0.091729758663927,-2.30649329716562,-0.000875824721323761,0
0.4,0.00166751667087766,0.000961084903550037,-0.0835234625562884,-0.0481232324335475,0.000591247536132453,-0.00183159012623021,-0.0296255258974412,0.091729725348684,-2.30649329716346,-0.000875824701770002,0
0.41,0.00166751667087766,0.000961084903551489,-0.0835234128057787,-0.0481232325137061,0.000591247536135724,-0.00183159012622992,-0.0296254889606622,0.0917296920202745,-2.30649329716114,-0.000875824696961465,0
0.42,0.00166751667087766,0.000961084903552895,-0.0835233630356526,-0.0481232325938646,0.000591247536139025,-0.00183159012622959,-0.0296254520093405,0.0917296586787004,-2.30649329715883,-0.000875824698109555,0
0.43,0.00166751667087766,0.000961084903555051,-0.0835233132686468,-0.0481232326740232,0.000591247536141911,-0.00183159012622979,-0.0296254150603363,0.091729625339219,-2.30649329715646,-0.0008758246980548,0
0.44,0.00166751667087766,0.000961084903556664,-0.0835232634820245,-0.0481232327541817,0.000591247536145044,-0.00183159012622962,-0.0296253780967835,0.0917295919865746,-2.30649329715416,-0.000875824698040028,0
0.45,0.00166751667087766,0.000961084903558269,-0.0835232136985234,-0.0481232328343403,0.000591247536147979,-0.00183159012622952,-0.0296253411355342,0.0917295586360283,-2.30649329715197,-0.00087582469804356,0
0.46,0.00166751667087766,0.000961084903560031,-0.0835231638954049,-0.0481232329144988,0.000591247536151012,-0.00183159012622946,-0.0296253041597517,0.0917295252723133,-2.30649329714967,-0.000875824698037025,0
0.47,0.00166751667087766,0.000961084903561831,-0.0835231140954076,-0.0481232329946574,0.000591247536154049,-0.00183159012622943,-0.0296252671862844,0.0917294919106926,-2.30649329714735,-0.000875824698037115,0
0.48,0.00166751667087766,0.000961084903563324,-0.0835230642757934,-0.0481232330748159,0.00059124753615735,-0.00183159012622915,-0.0296252301982769,0.0917294585359058,-2.306493297145,-0.00087582469804055,0
0.49,0.00166751667087766,0.000961084903564865,-0.0835230144592999,-0.0481232331549745,0.000591247536160561,-0.00183159012622892,-0.0296251932125801,0.0917294251632144,-2.30649329714268,-0.000875824698038144,0
0.5,0.00166751667087766,0.000961084903566557,-0.08352296462319,-0.048123233235133,0.000591247536163728,-0.00183159012622878,-0.0296251562123433,0.0917293917773574,-2.30649329714033,-0.000875824698034193,0
0.51,2.41628683611333,-0.053805440571757,10.4031318226468,2.72843048695953,-1.13945246517564,2.13142796721232,-2.26493084341053,10.5137801439874,0.468675569044101,137.658276708689,730.740533977907
0.52,1.66619989681734,-0.0656358563863975,21.9604092237795,3.28468155024963,-1.51473651318418,-0.697211200013543,-21.5495026497817,-5.35421718923134,1.96279846270352,264.585662669718,730.740533977907
0.53,1.24384140798836,-0.0598438320506872,24.1637010894291,2.9752121566845,1.14086939540344,-0.499139013795526,20.324514990751,-13.4033737583974,-2.03128817115113,357.873304081712,730.740533977907
0.54,0.891197154523505,-0.0624404686852827,27.3625785177837,3.11876546998609,-0.716497610326252,0.533631291021432,-18.7158077692565,20.2028696165394,0.860696734853103,428.648682322418,730.740533977907
0.55,0.64046223215052,-0.0442330045643107,28.9877660914438,2.2866086551111,0.582594357772917,-0.269689161434373,24.3031725701775,-15.9648039492523,-2.0732894639554,482.798539418136,730.740533977907
0.56,0.285344712444686,0.0428900176211816,38.3432890505775,-2.21116030848752,-0.287294087889805,0.026893597662843,-38.1600547712097,-4.34824849614725,1.62665094583988,524.82989340675,730.740533977907
0.57,0.259829184775198,-0.0394034919082848,33.2419324818683,2.05653325539795,0.134349073615189,0.225863159577322,22.6754258068079,24.3942712258349,-0.687110466417804,557.002223813101,730.740533977907
0.58,0.113952599705673,0.0181430079696406,35.5939775557048,-0.913184343928033,0.0220861461685889,-0.113254429782183,13.0790286784264,-33.1165238621283,-2.79110619508796,582.142056708346,730.740533977907
0.59,0.0619937031773852,-0.0772660013970681,34.416645109407,3.79069811606744,-0.0635128441914908,-0.0760221864211026,-34.3347583146494,4.47204922475624,1.55097625710262,601.466636428092,730.740533977907
0.6,-0.253697415487904,0.0139327096878594,47.2159984440578,-0.749371647372444,-0.0526100879782806,-0.248573284299431,11.5714024841045,45.7822532373191,-0.263433751652234,616.781999770721,730.740533977907
0.61,-0.253760075126611,0.0990157433974329,45.1195391825739,-4.87924322133908,-0.272193575315089,0.01043794644546,43.3202025716238,-13.5255269625357,-1.98114979890105,628.266671569586,730.740533977907
0.62,-0.154343173100984,-0.0466139560561484,38.5010872746198,2.39731480605523,0.112948814745203,0.115053210427779,-19.9999701887527,-32.9860884625053,2.6587283589647,637.490821200973,730.740533977907
0.63,-0.260907807791602,0.0934918351359454,42.5100229689612,-4.65514593216654,0.273981095123108,-0.0418086942973459,-39.610653383967,16.1173377133632,1.0752885848496,644.862875602343,730.740533977907
0.64,-0.314841904757201,-0.00500080707734199,44.2512073145111,0.241843185200472,-0.143820633777066,-0.280117936524119,19.8006537283678,39.5747640403243,-0.45845068010802,650.491760455272,730.740533977907
0.65,-0.226141181392508,-0.0587124837191505,39.1786621956019,2.90595942271768,-0.187192830246056,0.139806416056425,35.1762974758425,-17.4940066163987,-1.95826418859512,654.792333833496,730.740533977907
0.66,-0.375094855016403,-0.0602370677412736,46.0020417312861,2.95281884856697,0.163162580517994,0.343078164429846,-15.7542225375427,-43.321027859886,2.85689971068819,658.682631917812,730.740533977907
0.67,-0.320342925292874,-0.0472673005456195,42.8350179326409,2.28786340226721,0.309011149004624,-0.0967775659794561,-41.9503405824346,8.95779019930912,1.41378293774737,661.721582807825,730.740533977907
0.68,-0.376518521161836,-0.0692958256915122,45.2936916131942,3.3758287648728,-0.0719834915020829,-0.37601394280975,3.6992708894951,45.2684229312996,-0.00714295930543417,664.395470822648,730.740533977907
0.69,-0.383245463319241,-0.0315195954343933,45.3454269547419,1.4750404261484,-0.383355163046004,-0.0301560776146236,44.9979999135,5.79340087955788,-1.41023523472039,666.6988695544,730.740533977907
0.7,-0.380519776987531,-0.178652623035133,45.0827299576372,8.83669709630553,0.041135717940549,0.418353813303392,6.74619537462612,-45.4425857976025,-2.80065693827373,668.090437831907,730.740533977907
0.71,-0.388400035180927,-0.131220514857655,45.3456649057149,6.45737548272761,0.40116225824489,0.0845118536532805,-42.3290285936986,-17.4980102348856,2.10423677186601,669.516494252449,730.740533977907
0.72,-0.397067385411433,0.0185912474567928,45.6830270071966,-1.04692610382584,0.280276946555412,-0.281874043269411,-31.4366346133939,33.1628257992453,0.735769903535142,671.087958066559,730.740533977907
0.73,-0.430768468138535,0.0391172267627508,47.3223037666979,-2.07708196884079,-0.21995833753089,-0.372437861022044,25.9653690181228,39.6170962470197,-0.624031802636067,672.167257188618,730.740533977907
0.74,-0.346740595341299,-0.0782240166647469,43.0978196966792,3.80209117943557,-0.288085903306313,0.208217553431479,38.1345686893666,-20.4360620184073,-1.97475239908103,673.247418668496,730.740533977907
0.75,-0.490160229077702,-0.0163086801476817,48,0.696123916819316,0.102421479558963,0.47961741392762,-9.14300225860489,-47.126320652123,2.96446434555114,674.17063226518,730.740533977907
0.76,-0.507574229028332,-0.078070367402387,48,3.78867009086405,-0.306415581032057,0.41211172264428,31.5017253572549,-36.4142186593848,-2.34963337609884,675.114224483393,730.740533977907
0.77,-0.424458772417049,0.0214041065819739,46.9170904353916,-1.18841298977263,0.19882313930071,0.375623141644616,-22.9883098676182,-40.9165407847162,2.60438449636327,676.334293556322,730.740533977907
0.78,-0.435899848084238,-0.0598363208968542,47.3799864332337,2.87960236065845,0.401217873534617,-0.180591474922526,-44.6345414965686,16.1527994341541,1.28427059203621,677.641711249103,730.740533977907
0.79,-0.461726553715257,0.0253436549411188,48,-1.38671805707563,0.0124563434448399,-0.462253773115512,-0.0474690939627274,48.0200034741246,-0.0278933988941008,678.607029195487,730.740533977907
0.8,-0.508572905577699,0.00446080266208759,48,-0.343400234024794,-0.493205831500693,-0.124154366906054,46.5679154124239,11.642473013156,-1.33296172579616,679.371663983815,730.740533977907
0.81,-0.524302233679826,-0.0883366481518825,48,4.30240359488165,-0.177340594243686,0.501244959357858,19.5443505263,-44.0514362898461,-2.63461975048632,679.739967491207,730.740533977907
0.82,-0.508610187954001,-0.0159113789541668,48,0.675771288019104,0.372632818078123,0.346528899461479,-34.5861177523737,-33.2904960259328,2.35118655062274,680.455047952456,730.740533977907
0.83,-0.368435307640398,-0.00166413240293981,44.0916726058961,-0.0324705547011389,0.320455617593554,-0.181811832413248,-38.4631965896474,21.5559540644479,1.05924379684121,681.259583892545,730.740533977907
0.84,-0.512967505692537,-0.0800579518612803,48,3.88623329218445,-0.19358268896211,-0.481737148335942,14.601810863389,45.8899763424552,-0.227274799148747,681.878464999881,730.740533977907
0.85,-0.386359171448955,-0.0761625185325472,45.0635693009505,3.69588637537053,-0.39030997140661,0.0522710705124225,45.2055322447603,-0.919080360555325,-1.509292875463,682.404882455475,730.740533977907
0.86,-0.432192625180428,0.017070301409123,47.3464456728916,-0.975218614636419,-0.166037392400001,0.399391342890099,17.3501190021161,-44.063707740212,-2.78707971452281,683.269843106122,730.740533977907
0.87,-0.480243027149312,0.020225032162863,48,-1.13553208589948,0.368735137484005,0.30834528606122,-37.394082193119,-30.115976657787,2.22514903986305,684.154606978288,730.740533977907
0.88,-0.418509847674793,-0.104529252040294,46.6680859548228,5.11436224104462,0.28313332272574,-0.325441820753209,-35.3200283537719,30.9283453309112,0.96074704735395,684.604252200079,730.740533977907
0.89,-0.445439516346808,0.0654211867557448,48,-3.39610633377854,-0.0692757787887447,-0.444856337341642,10.9551494491125,46.8563575065107,-0.300311660998421,685.380884364093,730.740533977907
0.9,-0.46243733864084,-0.0268314027654894,48,1.22445334847629,-0.462786399979554,0.0199239639015815,48.0129313566425,-0.507650022094394,-1.55586521284383,685.722238653894,730.740533977907
0.91,-0.347358455964249,-0.0186438193260053,43.152935021256,0.822037134380226,-0.0962923482608379,0.334265272792944,13.3740638558663,-41.0363980141807,-2.80749321636187,686.766172612564,730.740533977907
0.92,-0.47030629806135,-0.0261761254935883,48,1.19795789968627,0.387787905330591,0.26738314086969,-38.6754576299693,-28.4542453816978,2.23004665041204,687.257946287742,730.740533977907
0.93,-0.369863468382274,-0.00835877067468853,44.4126722258484,0.315162737380028,0.303937177588908,-0.210929007891864,-36.876027411974,24.7536539545785,0.986711869517775,687.40499030108,730.740533977907
0.94,-0.3976878078015,-0.0826483449468551,45.8780218754376,4.04030984219657,-0.179972222841724,-0.364137804137151,15.4442302393904,43.3888551028577,-0.2541252226544,687.900348696206,730.740533977907
0.95,-0.453494925657624,-0.023088073481003,48,1.06308449050594,-0.4538877426978,-0.013289987320306,47.931050269867,2.78290651324078,-1.4906568428964,688.731214474788,730.740533977907
0.96,-0.376554802333518,0.0228629953875506,44.7597978087322,-1.22542552271465,-0.174488971336435,0.33446948231562,19.3785091345183,-40.3660073739489,-2.72138676752157,689.443752453522,730.740533977907
0.97,-0.254141577531588,-0.0506554639023267,38.6459814773845,2.47214996081788,-0.250079771930237,0.0679266157314247,38.3862437519752,-5.11074362427456,-1.6392757832476,690.400258628349,730.740533977907
0.98,-0.379435538398327,-0.0891239202300499,44.8669197203039,4.40578569172002,-0.0206005472137829,0.389217186685395,8.323798590475,-44.3076269932702,-2.85801035563351,691.236485705605,730.740533977907
