t,iq,id,vq,vd,ia,ib,va,vb,theta_e,omega,r
0,0,0,0,0,0,0,0,0,0,0,0
0.01,0.000826885794052713,0.000470980642209609,-0.0407791156528697,-0.0235879931127273,0.000117223396492137,0.000944363043038645,-0.00611423745034046,-0.046711302624922,0.394256351390829,-0.0011836286499914,0
0.02,0.00091600324117549,0.000522250559647572,-0.0452757235793605,-0.0261557363090557,0.000130337169889831,0.00104633637375431,-0.00675819611613496,-0.0518492089887529,0.394247652108405,-0.0012527949026553,0
0.03,0.000944078253806202,0.000538357382139904,-0.0466753922183242,-0.0269624214238208,0.000134433842889672,0.00107844330500041,-0.00696583446829745,-0.0534513008067193,0.394238872501588,-0.00123004700398421,0
0.04,0.000927508556046999,0.000529350521952338,-0.0458875818881658,-0.0265113298892575,0.000132490932301611,0.00105968403285576,-0.00685237102659203,-0.0525506022358839,0.394230838989659,-0.00114601134005033,0
0.05,0.000943252871336179,0.000538453445193993,-0.0466811643731324,-0.0269672246256683,0.000134856758521942,0.00107771598605856,-0.0069689046619672,-0.053458363976604,0.394222924291583,-0.001111194788218,0
0.06,0.000943018093587145,0.000538580739884569,-0.0466914733532848,-0.0269735885529745,0.000135072582262085,0.00107754709211635,-0.00697122365327027,-0.0534702740230658,0.394215391290073,-0.00105528792308705,0
0.07,0.000969244204611913,0.000553750107956937,-0.047995654177361,-0.0277333160441143,0.00013901323558334,0.00110758694041089,-0.00717215240470557,-0.0549661702195017,0.394208322336544,-0.00104238986225473,0
0.08,0.000942539351704868,0.000538794251970104,-0.046708205745549,-0.0269842865576287,0.000135468556984572,0.00107718519556146,-0.00697541744476382,-0.0534897350569625,0.394201501064855,-0.000952131907249556,0
0.09,0.00094173716855606,0.000538579101114066,-0.0466874381716269,-0.0269735258289564,0.000135584883993852,0.0010763610370267,-0.00697380006309379,-0.0534663828153248,0.394195108018971,-0.000903783655886277,0
0.1,0.000941346367929226,0.000538574096988596,-0.0466858182498028,-0.026973262823678,0.000135736867863762,0.00107599746517506,-0.00697450292160845,-0.0534647439160173,0.394189056606541,-0.000858569861499168,0
0.11,0.000940981736396914,0.00053857219017905,-0.0466845450181705,-0.0269731707314429,0.000135881309910911,0.00107565928708105,-0.00697521317827767,-0.0534634930020359,0.394183327663701,-0.00081577372265269,0
0.12,0.000940636662636792,0.000538570425017575,-0.0466833448507208,-0.026973081589949,0.000136018039459253,0.00107533926122957,-0.00697588176450823,-0.0534623128055359,0.394177903993228,-0.000775258140940722,0
0.13,0.000985285178433343,0.00056414040026009,-0.0488845072761704,-0.0282536970230977,0.000142485986540449,0.00112638315758255,-0.00731323833903414,-0.0559864536482124,0.394172491554476,-0.000802137536049592,0
0.14,0.0010508921167661,0.000602268077987677,-0.0522294236055147,-0.0301632281045925,0.000152499949530872,0.00120160095049779,-0.00779204344976543,-0.0598081689966424,0.394167425701098,-0.000862927349303757,0
0.15,0.000941330099959707,0.00053947310446447,-0.0467616293169481,-0.0270182948794683,0.000136601678578306,0.00107632410032493,-0.00698838351591088,-0.0535518508588089,0.394162575998612,-0.000663252352980748,0
0.16,0.000939411500833473,0.000538576962869796,-0.046680214891036,-0.0269734191696804,0.000136515706650561,0.00107420788242777,-0.00697844599401543,-0.053459415405382,0.394158253987536,-0.000628507245035131,0
0.17,0.000939126588898712,0.000538562883050994,-0.0466780894728033,-0.026972712346484,0.000136616511416286,0.00107393885197677,-0.00697882811127255,-0.053457152995184,0.394154166329808,-0.000597934870624886,0
0.18,0.000938880094479294,0.000538561441314783,-0.0466772136370648,-0.0269726370119341,0.000136713995853952,0.00107371017561451,-0.00697930176236307,-0.0534562883785212,0.394150296547727,-0.000569026497126535,0
0.19,0.000938647104241934,0.000538560245657624,-0.0466764015599729,-0.026972570415743,0.000136806298495041,0.0010734940899682,-0.00697974796775981,-0.0534554874238988,0.394146632971616,-0.000541659057872849,0
0.2,0.000938426313200059,0.000538559116004547,-0.0466756208806258,-0.0269725262004675,0.000136893766275129,0.00107328931956526,-0.00698019233972807,-0.0534547254143843,0.394143164612431,-0.000515749925262537,0
0.21,0.000938217420931143,0.00053855804647164,-0.0466748874415291,-0.0269724596125331,0.00013697652052795,0.00107309558343239,-0.00698058802920825,-0.0534539997193439,0.394139881067912,-0.000491221384328593,0
0.22,0.000938019680120874,0.000538557033832966,-0.0466741930120044,-0.0269724153933186,0.000137054856034013,0.00107291218905488,-0.00698098003501822,-0.0534533198522061,0.394136772489999,-0.000467999868884145,0
0.23,0.000937832416688721,0.000538556075066155,-0.0466735315902743,-0.0269723711691774,0.000137129039048918,0.00107273851167579,-0.00698135050275096,-0.0534526716147467,0.394133829555779,-0.000446015732897568,0
0.24,0.000937655048558077,0.000538555167310119,-0.0466729002052336,-0.0269723269401738,0.000137199300091427,0.0010725740116082,-0.00698170104580406,-0.0534520522023462,0.394131043438186,-0.000425203041489212,0
0.25,0.000937487284687897,0.000538554307854295,-0.0466723090503871,-0.0269722797951544,0.000137265757534075,0.00107241841800134,-0.00698202550901093,-0.0534514698510196,0.394128405781746,-0.000405499373177317,0
0.26,0.000946131468206942,0.000543522312795772,-0.0471025956597957,-0.0272210870324174,0.000138536158310595,0.00108230725419302,-0.0070466591832219,-0.0539442924828212,0.394125927691587,-0.0004001554701123,0
0.27,0.000911097392141593,0.000523617370731174,-0.0453947792815292,-0.0262241909393557,0.000133612962581659,0.0010423153002469,-0.00678212368193712,-0.051984584011084,0.394123475935176,-0.000329661367880154,0
0.28,0.000900817768638984,0.000517583290152733,-0.044788984836066,-0.0259219790940474,0.000131991190830098,0.00103050639982695,-0.00673582192652263,-0.0513091694122187,0.394121213226655,-0.000297595178911566,0
0.29,0.000936356116374788,0.000538252523570478,-0.0466435593211642,-0.0269571620240617,0.000137431357169238,0.00107125682162079,-0.00697959916327512,-0.0534190547095181,0.394119188632465,-0.000335830863686618,0
0.3,0.000933711695726654,0.000536860493273836,-0.046518830977099,-0.0268874490213776,0.000137163231124179,0.001068280378928,-0.0069632125421073,-0.0532771078554995,0.394117559838985,-0.000319862549542399,0
0.31,0.000936629255558482,0.000538526065355196,-0.0466671614615535,-0.0269708512383453,0.000137582837716027,0.00107161357223628,-0.00698336500917648,-0.0534460792626388,0.394115648273503,-0.000310129506937086,0
0.32,0.000936559315590141,0.000538549214413697,-0.0466689819955114,-0.0269720194618111,0.000137633015691213,0.00107155763305388,-0.0069838417283578,-0.0534481961253973,0.394113831076968,-0.000296623194527936,0
0.33,0.000936450549897031,0.000538548991818535,-0.0466686219312419,-0.0269720149618934,0.000137676418529196,0.00107145688330058,-0.00698406779039644,-0.0534478499208803,0.394112110598923,-0.000283772006126451,0
0.34,0.000936346906459609,0.000538548465614583,-0.0466682470088739,-0.0269719929920327,0.000137717475590381,0.00107136075902066,-0.00698427852608039,-0.0534474839287469,0.394110481796441,-0.000271604633448772,0
0.35,0.000936248991778837,0.000538547962930994,-0.0466679012893311,-0.0269719486906069,0.000137756261318608,0.0010712699451826,-0.00698445278872484,-0.0534471369313788,0.394108939786195,-0.000260085595631093,0
0.36,0.0009361560585472,0.000538547486947786,-0.0466675611447512,-0.0269719237933033,0.000137793070606643,0.00107118375237174,-0.00698463843462985,-0.0534468031059702,0.394107479943339,-0.000249180359961264,0
0.37,0.000936068189385,0.000538547036307549,-0.0466672436927868,-0.0269719017969125,0.000137827875207177,0.00107110225576741,-0.0069848138869638,-0.0534464918903825,0.394106097889771,-0.000238856219652346,0
0.38,0.000935984976835458,0.000538546609662815,-0.0466669408083137,-0.0269718797917722,0.000137860834810447,0.00107102507807537,-0.00698497980074481,-0.0534461946362101,0.394104789479937,-0.000229082210515667,0
0.39,0.00093590593083206,0.000538546205736877,-0.0466666396329155,-0.0269718800918857,0.000137892140649687,0.00107095176577998,-0.00698516192661575,-0.0534459080115439,0.394103550790166,-0.000219829018313199,0
0.4,0.000935831216600792,0.000538545823320817,-0.0466663594359861,-0.0269718580686952,0.000137921732173701,0.00107088247047705,-0.00698531185679043,-0.0534456326461748,0.394102378105033,-0.000211068890843143,0
0.41,0.000935760693320894,0.000538545461269472,-0.0466661036046386,-0.0269718360372481,0.000137949666190943,0.00107081706122762,-0.00698544908316131,-0.0534453802116293,0.394101267907725,-0.000202775554703645,0
0.42,0.00093569389533108,0.000538545118499232,-0.0466658587038263,-0.0269718139985948,0.0001379761240953,0.00107075510720185,-0.00698557894355725,-0.0534451382799559,0.394100216868088,-0.000194924136497022,0
0.43,0.000935630706216027,0.000538544793984002,-0.0466656282947255,-0.0269717919526839,0.000138001153036547,0.00107069650008868,-0.00698570023904297,-0.0534449101173403,0.394099221834355,-0.000187491088225905,0
0.44,0.000935570519494742,0.000538544486751763,-0.0466653908553287,-0.0269717922060554,0.000138024988206658,0.00107064067912112,-0.00698584198974015,-0.0534446843959398,0.394098279821704,-0.00018045411666912,0
0.45,0.000935513849637493,0.000538544195882849,-0.0466651805015717,-0.0269717701457158,0.000138047434253866,0.00107058811859584,-0.00698595005388575,-0.0534444754664335,0.394097388005191,-0.00017379211652064,0
0.46,0.000935460206578396,0.000538543920505832,-0.0466649806678501,-0.0269717480791556,0.000138068681426312,0.00107053836531658,-0.00698605153275803,-0.0534442765799848,0.394096543709975,-0.000167485107088425,0
0.47,0.000935409216667523,0.00053854365979624,-0.0466647801543638,-0.02697174830849,0.000138088875159078,0.00107049107361555,-0.00698617145468566,-0.0534440859410784,0.394095744404014,-0.000161514172370449,0
0.48,0.000935361277958978,0.000538543412972864,-0.0466646059715198,-0.0269717262289178,0.000138107864467706,0.00107044661040786,-0.00698625839099652,-0.053443911345813,0.394094987689701,-0.000155861404321282,0
0.49,0.00093531552673758,0.000538543179296761,-0.0466644216769319,-0.0269717264440233,0.000138125982753832,0.0010704041775945,-0.00698636764038457,-0.0534437362560583,0.394094271297463,-0.000150509849142322,0
0.5,0.000935272477472334,0.000538542958067517,-0.0466642593623344,-0.0269717043532758,0.00013814303413823,0.00107036424964609,-0.00698644581369454,-0.0534435731631788,0.394093593079054,-0.000145443456432269,0
0.51,2.65635605815205,-0.0289495159110166,7.1227604184002,1.45213731582992,-0.165268564677478,2.65136792687888,1.08459423878312,7.18791166467374,0.0513550018439183,15.6562372153479,317.475311138854
0.52,2.54939810580233,0.00704716791687471,5.77659084561564,-0.348330888170224,-0.569609915990432,2.48495973972407,-1.64552205146901,5.54820632127475,0.228094537730195,32.4328189320602,317.475311138854
0.53,2.44855768994274,-0.0638811245310015,4.40195637599496,3.20672138564047,-1.28261502089331,2.0867233326984,0.568306081479563,5.41639272754847,0.525042265487973,48.5162867966752,317.475311138854
0.54,2.3158780965512,-0.0121762596371133,4.7281019410355,0.619766461981229,-1.87537591460345,1.35882478572832,-3.4478082380658,3.29418833489314,0.938518076832478,64.2717536693802,317.475311138854
0.55,2.15877039354829,-0.0730385425920338,6.17409363169793,3.66766323002724,-2.15482377441924,0.149528398514225,-5.76383417160107,4.28362012603249,1.46769448620086,80.1687182883325,317.475311138854
0.56,2.01321830589188,-0.000531676469722298,7.29013380342198,0.0328762760297882,-1.72553605471965,-1.03709862294797,-6.26631769659319,-3.72564011234101,2.11170861023051,95.1841127765373,317.475311138854
0.57,1.933923081951,-0.0127784767146346,5.93639268286846,0.649685930370585,-0.528090787103002,-1.86046819294148,-2.28250616637164,-5.5184250918003,2.8584115285152,108.292017128417,317.475311138854
0.58,1.80923376483813,-0.0126228724625118,7.28499056217749,0.646737896166302,0.964705299825882,-1.53063053583398,3.2917318182924,-6.5309921936712,-2.58619188631856,120.483748385982,317.475311138854
0.59,1.68035806109634,-0.0114949111600875,8.64502218724554,0.581952110414135,1.67508973019682,-0.13345314632169,8.56263366563309,-1.32528547300192,-1.6571383038315,133.107171415316,317.475311138854
0.6,1.6014425783376,-0.0615819598601048,7.82362763557642,3.09317551252609,0.903915428966518,1.32338488988241,7.14297769440438,4.44463201949134,-0.637682776023682,144.669778970148,317.475311138854
0.61,1.57385118242709,-0.0212422324772567,5.02949167375577,1.08085828561615,-0.719052898949137,1.40015060096427,-1.26899308193164,4.98534830157065,0.460935739189105,155.050279874143,317.475311138854
0.62,1.42852202372942,0.000583460505791777,7.91586668001752,-0.0240016660990209,-1.4254428905084,-0.0937447524142657,-7.89700593971085,-0.546642994978087,1.63687554631291,165.818650302607,317.475311138854
0.63,1.39878603525056,-0.0368978868059243,5.51529592531654,1.86144685263003,-0.315400935188658,-1.36326302544478,-3.1862755452371,-4.87145991247013,2.88786309376134,175.273807191802,317.475311138854
0.64,1.37357450111042,-0.0123459595137532,3.07448235284011,0.631546090066639,1.2071281842411,-0.65551573560658,2.38216039923353,-2.04367415067258,-2.07726620653504,184.492455522915,317.475311138854
0.65,1.25899389306738,-0.0556034683002167,5.18436262177849,2.79542538195137,0.760266124072671,1.00506357463371,5.45986121140002,2.20950999373196,-0.691743668236987,193.213247975516,317.475311138854
0.66,1.185881633521,0.014427950591172,5.57804611442748,-0.703666083320146,-0.801203202935291,0.874412283815208,-4.33109427673465,3.58488030170199,0.753900906146288,201.303194030571,317.475311138854
0.67,1.08523509594685,0.0475689933200339,7.33105183637657,-2.37362599473685,-0.868141069277419,-0.652938822887802,-4.15187231112611,-6.49156203872651,2.25945223562689,209.181668310472,317.475311138854
0.68,1.08142217190834,0.0102488569648007,4.58996433635045,-0.494649997882088,0.669871555429807,-0.849029476632047,3.2624951596652,-3.26627870251987,-2.46412741243696,216.437188708372,317.475311138854
0.69,0.992883195542172,0.0449528222277942,6.10426103493432,-2.24124540599568,0.776211772186784,0.620752028538716,3.11243592924978,5.70945937360353,-0.850982040383196,223.428740643759,317.475311138854
0.7,0.935940523514193,-0.0671449621158694,6.25553021227502,3.36444969473564,-0.724653372405598,0.596129683336401,-2.21630567604496,6.74827156651414,0.810783532026458,230.064255365173,317.475311138854
0.71,0.884813266910428,-0.0170143356651416,6.24349295691834,0.86585884332319,-0.501072400684878,-0.729459014743613,-4.33748697145976,-4.57352409112128,2.52047939978712,236.19777404817,317.475311138854
0.72,0.902337698015128,-0.019699484439299,2.88054826706448,0.987900827703465,0.82531280953268,-0.365321991355144,2.18846711304062,-2.11757362549807,-2.00934658792385,242.243068900467,317.475311138854
0.73,0.746099274884311,0.0169762905374326,8.46242152193381,-0.833152932242777,0.17482474521586,0.725526450850357,0.980531755826186,8.44661348110648,-0.21370549420202,247.62838556482,317.475311138854
0.74,0.712358461915798,0.015046550978169,7.89158478575855,-0.749032382464611,-0.712199409256784,-0.0212832895405868,-7.8431467873548,-1.15030796433066,1.62179034854103,253.015589946565,317.475311138854
0.75,0.74304877234453,0.00549059379896233,4.32503224889417,-0.27521529067775,0.251555858658088,-0.699193302798139,1.75248070708661,-3.96364211067127,-2.78884258582616,257.965576496984,317.475311138854
0.76,0.701842871395796,0.0415718897148487,4.42217044302469,-2.06774910766855,0.567565979154346,0.414946379005924,2.09236650459089,4.41057594990624,-0.880339276439542,262.609879160616,317.475311138854
0.77,0.612974920835004,-0.0238117771027058,6.96926981640938,1.19270648841535,-0.5467644618647,0.278125650638831,-5.50284654570502,4.43981423438473,1.06140575303022,267.13884322707,317.475311138854
0.78,0.633429266340907,0.00560712788076301,4.22770208425727,-0.26848985755334,-0.0731854464796167,-0.629212178651868,-0.184296258118827,-4.23220824228743,3.03465191812966,271.277963450898,317.475311138854
0.79,0.531718129160493,0.0154039481724914,7.63171096543614,-0.759790910514085,0.508687999833191,0.155556964880852,6.9872767066195,3.16200232649987,-1.24506460969965,275.208527406357,317.475311138854
0.8,0.553711025794502,-0.0689945910072422,4.91247059997749,3.45495623428699,-0.440680930081793,0.342281275469317,-1.03686348839274,5.91557301391165,0.786453787285643,279.057790801647,317.475311138854
0.81,0.504943357015228,-0.035521519131331,5.88070920604601,1.78272692332682,-0.113704070575443,-0.493255467734297,-3.42462095869916,-5.10223748354259,2.84480088796148,282.55447959612,317.475311138854
0.82,0.508867114874292,-0.00986968673999353,4.27492752640333,0.508184987434511,0.494930290530141,0.118689337484805,4.28451706472671,0.419727125070962,-1.3548237854672,285.841859194162,317.475311138854
0.83,0.477832236041041,-0.0264594312498211,4.44643349447299,1.32657366999861,-0.34588805835546,0.330734332038776,-2.07049842610866,4.15254196729984,0.752473154743847,289.076419594297,317.475311138854
0.84,0.411068578909443,0.0249281962044964,6.52088612738299,-1.25526280236788,-0.129519620895996,-0.390926411662856,-0.459108551683875,-6.62471583745862,2.8822283266936,292.044479869276,317.475311138854
0.85,0.372553482971178,0.0467066475342092,7.25106232622726,-2.32421622459825,0.368268342619172,0.0731849466923948,6.14784973534533,4.49264171163608,-1.24990661120739,294.818008709443,317.475311138854
0.86,0.407273900240574,0.0186459457827295,4.35604805119845,-0.926906191168307,-0.313065118958859,0.261170313019258,-4.02963988046123,1.89639451206029,0.921275716451242,297.48733304119,317.475311138854
0.87,0.315109004925502,0.0290289872924849,7.86897743025219,-1.45956121445035,-0.0385710401073563,-0.314083813580713,1.22027018689937,-7.9096185374208,3.11126388600846,300.024127801043,317.475311138854
0.88,0.275372269194856,0.0267246725629511,8.84296849130754,-1.34105301732443,0.241474956664766,0.13503310730658,6.50063768838636,6.14314451871872,-0.964169969463744,302.350780065752,317.475311138854
0.89,0.330668388250541,0.00414417723402964,5.10229445994159,-0.193938058646707,-0.313606545573768,0.104927078327977,-4.9177796300387,1.3734861618956,1.26045454353551,304.581602967665,317.475311138854
0.9,0.308211491636533,-0.00827082140968988,5.29592794245096,0.417775995718191,0.116128900899325,-0.285616540906724,1.47128684501394,-5.10457682613555,-2.78224641936981,306.677196847921,317.475311138854
0.91,0.297152603159319,-0.0312801451339578,4.97580575126948,1.55987813981919,0.122400692427889,0.272573270034196,3.85059816114523,3.51635556888622,-0.526948722852501,308.656044126384,317.475311138854
0.92,0.241083220388829,0.0294628043139676,6.95754649004015,-1.47751919804905,-0.242574392185745,-0.0121177657515003,-6.6032702602236,-2.6433573371983,1.74231675712629,310.504454003822,317.475311138854
0.93,0.22875809161618,0.0300383984118065,6.79579311680818,-1.49170133152079,0.157733312313769,-0.168382813985128,6.19873903632549,-3.15968531794748,-2.25827467871193,312.241624363528,317.475311138854
0.94,0.259817930511006,0.0312094531897081,4.49641416101248,-1.55875947433076,0.0216436151590239,0.260789073594487,-1.72288929713441,4.43611585466263,0.0367446524505181,313.893794789166,317.475311138854
0.95,0.238376671661568,-0.012115823159005,4.86781293344364,0.600439680616625,-0.162251148002549,-0.175056550106308,-3.90505536406689,-2.96760394403171,2.34335715082557,315.441064841466,317.475311138854
0.96,0.165451908060453,-0.019422186985546,7.85770788211946,0.961551473155192,0.166231991127711,0.0108848681141667,7.79783651765513,-1.36451458041802,-1.62226360802598,316.88246555582,317.475311138854
0.97,0.181254594895371,-0.0205480821028373,6.42908015185663,1.04242234638781,-0.133204103239747,0.124627921144841,-3.37660023603093,5.56940632323423,0.705764662992531,318.273812396075,317.475311138854
