t,iq,id,vq,vd,ia,ib,va,vb,theta_e,omega,r
0,0,0,0,0,0,0,0,0,0,0,0
0.01,0.00157003310472043,0.000821262027966717,-0.0757157496159739,-0.0411216115407758,0.000753855265070902,-0.00160348916673078,-0.0354385237326352,0.0785364419315694,-2.22017654252442,-0.0120127731841386,0
0.02,0.00167668946511486,0.000908346131275682,-0.0821889837409706,-0.0454820362626261,0.000786019136214578,-0.0017373986802502,-0.0379513182787629,0.0859263761127653,-2.22024813360085,-0.0084844398033781,0
0.03,0.00169831283875316,0.000939980397807979,-0.0838152890203699,-0.0470659654478233,0.000784025439507887,-0.00177570655141595,-0.0382844775856219,0.0881731623176795,-2.22029547612229,-0.00560859322033095,0
0.04,0.00163135929544672,0.000921834105919359,-0.0810041412071855,-0.0461573620931185,0.000741638021088514,-0.0017207801473031,-0.0365931778929028,0.0857502903773933,-2.22031939120245,-0.00329190233074112,0
0.05,0.00165570921867051,0.000940302616556816,-0.0823605172042536,-0.0470821095070931,0.000749830161708927,-0.00175022762979153,-0.0371125889440892,0.0873077062558462,-2.22033629570684,-0.0024495123396744,0
0.06,0.0016465150426543,0.000940758287103181,-0.0820654761243291,-0.04710493965491,0.000742214755424887,-0.00174503730540919,-0.036862926636085,0.0871478189700015,-2.22034656145636,-0.00167189875249829,0
0.07,0.00169189239094163,0.000967090907940628,-0.0842507032493548,-0.0484234570465898,0.000762415083874808,-0.00179345697651987,-0.0378051955113036,0.089519715050406,-2.22035184561786,-0.0018275535019997,0
0.08,0.00163841611465777,0.000941420903007154,-0.081813251365864,-0.047138123329013,0.000735347522157996,-0.00174067363484519,-0.0366411538842738,0.0870220467011909,-2.22035623316081,-0.000945529321124677,0
0.09,0.00163447517307497,0.000940782398152737,-0.0816511613849106,-0.0471061405611754,0.000732592436636964,-0.00173778276371208,-0.0365312724728966,0.0868986004811638,-2.22035790608281,-0.000791705965970918,0
0.1,0.00163339984389981,0.000940766233311204,-0.0816128020300491,-0.0471053461016434,0.00073174429451905,-0.00173712015797103,-0.0365011264462159,0.0868747998829865,-2.22035881670061,-0.000719849461621417,0
0.11,0.00163284289657355,0.000940765664333787,-0.0815934449337075,-0.0471052883633426,0.000731300222789185,-0.00173678321739605,-0.0364857017765469,0.086863064727285,-2.2203593301226,-0.000679876658159861,0
0.12,0.00163252985577048,0.00094076555561187,-0.0815825530370359,-0.0471052863740496,0.000731050494966551,-0.0017365940039102,-0.0364770040245123,0.0868564858937875,-2.22035962040685,-0.00065730009859247,0
0.13,0.00171993562959648,0.000985859016955056,-0.0857042953322337,-0.0493631884974553,0.000773375391275143,-0.00182537313320785,-0.038393366767558,0.0911476823911711,-2.22036304307047,-0.00140172869330773,0
0.14,0.00181015276545067,0.00104168382542204,-0.090536622383594,-0.0521583878629498,0.00081145171311486,-0.00192439713772848,-0.0405507897606728,0.0962964738029234,-2.22036437947426,-0.00231464361143599,0
0.15,0.00163420494390949,0.00094327169881674,-0.0817372702996037,-0.0472307920604456,0.000730858396582329,-0.00173960722596566,-0.0365237897467404,0.0870502260607256,-2.22036550628974,-0.00028851854221681,0
0.16,0.00162897451881256,0.000940826654049713,-0.0814637114840689,-0.0471083684351408,0.000728175965980798,-0.00173449489433637,-0.036380185975408,0.0867871922219824,-2.22036324611655,-0.00037924062750945,0
0.17,0.00163015275498716,0.000940766347363436,-0.0815002656828249,-0.0471053241374319,0.000729153163843316,-0.00173515849091115,-0.0364112590663084,0.0868068262388952,-2.22036184081576,-0.000484794624549284,0
0.18,0.00163099992561011,0.000940765109657211,-0.0815292666421853,-0.0471052880512114,0.00072982994304016,-0.00173566932424656,-0.0364344451967131,0.0868243092964629,-2.2203610405028,-0.0005468681344719,0
0.19,0.00163148747297722,0.000940765226559335,-0.0815460270936574,-0.0471052868223716,0.000730218915411435,-0.00173596397472994,-0.0364478324002172,0.086834429201228,-2.22036058765886,-0.000582076770705244,0
0.2,0.00163176337728955,0.000940765312957609,-0.0815554804386629,-0.047105286161803,0.000730439023479457,-0.00173613073427838,-0.0364553831871292,0.0868401370948138,-2.2203603315514,-0.000601992775629953,0
0.21,0.00163191937382058,0.000940765362317352,-0.0815607917603144,-0.047105285823233,0.000730563472554359,-0.00173622502059968,-0.0364596256281804,0.0868433440403511,-2.22036018671451,-0.0006132560094729,0
0.22,0.00163200784946504,0.000940765390242985,-0.0815637752132919,-0.0471052856659767,0.000730634055256708,-0.00173627849652459,-0.0364620087026586,0.0868451454376405,-2.22036010480389,-0.000619625677953311,0
0.23,0.00163205767522584,0.000940765406035429,-0.0815654189657176,-0.0471052885229074,0.000730673804767785,-0.00173630861182071,-0.0364633199961934,0.0868461402293424,-2.22036005848031,-0.000623227896039622,0
0.24,0.00163208584773368,0.000940765414966748,-0.0815663152465532,-0.0471052885276004,0.000730696279967956,-0.00173632563962268,-0.0364640360198275,0.0868466813834202,-2.22036003228185,-0.000625265046623465,0
0.25,0.00163210191304807,0.000940765420018108,-0.0815667957688233,-0.0471052885648149,0.000730709096217028,-0.00173633534974748,-0.0364644199469591,0.0868469715113845,-2.22036001746492,-0.000626417109712471,0
0.26,0.00165162083901304,0.000950065969526429,-0.0824766491569691,-0.0475709770625591,0.000740627696458665,-0.00175554759478422,-0.0369073172048627,0.0877681346024168,-2.22035997063995,-0.000846041685193856,0
0.27,0.0015879773484553,0.000916690414004613,-0.0795214497078568,-0.0458998376085256,0.000710130392997073,-0.00169047573164388,-0.0355646314378571,0.0846499441631098,-2.22036102743933,-7.04284645972221e-05,0
0.28,0.00158203098422602,0.00091045765434132,-0.0786799444765498,-0.0455877552643475,0.000709164930959866,-0.00168191565665361,-0.0350832653047444,0.0838924405917001,-2.22036097568997,-7.86483337260997e-06,0
0.29,0.00163025180023442,0.000940012288535531,-0.0814765376741442,-0.0470675715098715,0.000729691771379225,-0.00173461637071337,-0.0364153801232886,0.086762333818769,-2.2203597378192,-0.000624293575522855,0
0.3,0.00162378011675006,0.000936431121033117,-0.0811242285376021,-0.0468882742785816,0.000726710785943072,-0.00172784737334817,-0.0362436003104491,0.0864063201228996,-2.22035586168692,-0.000807595653934364,0
0.31,0.00163431032236741,0.000940658539895794,-0.0816360558767075,-0.0470999323386185,0.000732536870391494,-0.00173758408486973,-0.0365230381010641,0.0868845034127235,-2.2203574466165,-0.000820108117677267,0
0.32,0.00163366259311658,0.000940763243359552,-0.081620105016606,-0.0471051929201308,0.000731955813420895,-0.00173727649941054,-0.0365070583487943,0.0868790851337781,-2.22035854586216,-0.000740579795142436,0
0.33,0.00163300715858616,0.000940765640100933,-0.0815976817945433,-0.0471052838614789,0.000731431314172148,-0.00173688243765563,-0.0364890918676998,0.0868656181500173,-2.22035917641614,-0.000691805010709115,0
0.34,0.0016326234536891,0.000940765583359158,-0.08158436354306,-0.0471052878825368,0.000731125165799423,-0.00173665057403716,-0.0364784524621294,0.0868575789853195,-2.22035953340079,-0.000664054885148311,0
0.35,0.00163240587345292,0.00094076551615904,-0.081576771526941,-0.0471052885472504,0.000730951586241068,-0.00173651906717123,-0.0364723886371003,0.0868529949338695,-2.2203597353011,-0.000648354135284484,0
0.36,0.00163228282245792,0.00094076547727977,-0.0815724449170068,-0.0471052889581211,0.000730853420083286,-0.00173644469364423,-0.0364689329851166,0.0868503825235863,-2.22035984948087,-0.000639474620945525,0
0.37,0.00163221332251089,0.000940765455270443,-0.0815699695097016,-0.0471052892251489,0.00073079797513974,-0.00173640268703544,-0.0364669559303761,0.0868488878683578,-2.22035991405153,-0.000634453004281355,0
0.38,0.00163217385771685,0.000940765442822813,-0.0815685285346816,-0.047105289411511,0.00073076649156119,-0.00173637883396316,-0.0364658051290538,0.086848017790536,-2.22035995056667,-0.000631613145270114,0
0.39,0.00163215162239041,0.000940765435783576,-0.081567684708694,-0.0471052895515864,0.000730748752910891,-0.00173636539465514,-0.0364651312720307,0.0868475082762267,-2.22035997121575,-0.000630007129103056,0
0.4,0.00163213904953567,0.000940765431803116,-0.081567174563132,-0.0471052896657114,0.000730738722678502,-0.00173635779546529,-0.0364647239356295,0.0868472002369757,-2.22035998289233,-0.000629098884047152,0
0.41,0.00163213194820105,0.000940765429552282,-0.0815668534375584,-0.0471052897651433,0.00073073305744392,-0.00173635350333332,-0.0364644675744626,0.0868470063276404,-2.22035998949458,-0.000628585247203652,0
0.42,0.0016321278736648,0.000940765428279818,-0.0815666358576505,-0.0471052898564468,0.000730729806984521,-0.00173635104060914,-0.0364642939257956,0.0868468749356453,-2.22035999322718,-0.000628294771840313,0
0.43,0.00163212566177368,0.000940765427560236,-0.0815664843680037,-0.0471052899427501,0.000730728042321527,-0.00173634970373992,-0.0364641730519079,0.0868467834544657,-2.22035999533714,-0.000628130500256161,0
0.44,0.00163212438120515,0.00094076542715411,-0.081566364143645,-0.0471052900265534,0.000730727020719883,-0.0017363489297496,-0.0364640771573152,0.0868467108482801,-2.22035999652893,-0.000628037600294179,0
0.45,0.00163212356629789,0.000940765426924635,-0.0815662585584015,-0.0471052901091068,0.000730726370740835,-0.00173634843717082,-0.0364639929663767,0.0868466470764828,-2.22035999720175,-0.000627985062884764,0
0.46,0.00163212321705193,0.000940765426795126,-0.0815661713441437,-0.04710529019041,0.000730726092039183,-0.00173634822610734,-0.0364639234313725,0.0868465944044782,-2.22035999758114,-0.000627955351573594,0
0.47,0.00163212298422129,0.000940765426722522,-0.0815660871889228,-0.0471052902714007,0.00073072590629767,-0.00173634808538071,-0.0364638563469932,0.0868465435764125,-2.22035999779495,-0.000627938549037314,0
0.48,0.00163212286780596,0.000940765426681683,-0.0815660072760433,-0.0471052903520789,0.000730725813407738,-0.001736348015023,-0.0364637926493707,0.0868464953105933,-2.22035999791448,-0.000627929046751788,0
0.49,0.00163212275139064,0.000940765426659119,-0.0815659264673297,-0.0471052904327571,0.000730725720598817,-0.00173634794464111,-0.0364637282429573,0.0868464465010054,-2.22035999798099,-0.000627923672952549,0
0.5,0.00163212275139064,0.000940765426646599,-0.0815658509477122,-0.0471052905131228,0.000730725720543217,-0.00173634794465772,-0.0364636680513093,0.0868464008891216,-2.22035999801738,-0.000627920633922217,0
0.51,2.32965692134197,-0.0761576132615013,4.89114273205371,3.82084748595405,-0.780654446918442,2.19628777434122,2.15341058643316,5.82108027624434,0.308836446820972,92.130677085979,647.975068669367
0.52,1.92200639871377,0.00631276657581442,8.50328638818299,-0.298591712427215,-1.86066615175783,0.481736358832524,-8.3127073969365,1.81491932137646,1.3207383651244,182.073327295861,647.975068669367
0.53,1.61618123537181,-0.0205897630945809,8.31239431550476,1.03141718668718,-0.267227174704144,-1.59406880686245,-2.49358836509912,-7.99635777931877,2.96275956447839,264.576528314122,647.975068669367
0.54,1.41032176358603,-0.053012113341806,6.18885964940782,2.66759485120239,1.25306521421089,0.649342228674515,6.73549544307315,0.226157437575124,-1.13026352031329,329.623142985687,647.975068669367
0.55,1.11769269307916,-0.0253188119120355,10.6638492411127,1.28031881442615,-1.11590711868042,0.0680389658765245,-10.5198146254371,2.16573247428984,1.48725094933404,384.160658737288,647.975068669367
0.56,1.03591131493354,0.0185280319964773,5.84550767564419,-0.909081770059313,1.00440634799958,-0.254211385416042,5.89882158100632,-0.447541736739012,-1.80080306421656,430.599423972812,647.975068669367
0.57,0.748440300664295,0.00650226067930537,12.6464194312191,-0.335771590044873,-0.746362068761858,0.0561143953537915,-12.6408523349625,0.503506938056303,1.50444116065332,470.367585237762,647.975068669367
0.58,0.589684681311775,-0.0350595928966861,14.5767635079097,1.78700235704422,0.539722405309534,0.240118561620592,14.2745798180718,3.45134507215764,-1.21158264447542,502.108963093354,647.975068669367
0.59,0.500198393484328,-0.012041085657504,13.7740745004405,0.622675311616302,-0.258364572861329,-0.428475399618575,-7.9197347787923,-11.2867468262989,2.57491264754483,529.698366724058,647.975068669367
0.6,0.417160888916518,0.117108976997884,13.4066267140133,-5.86781116691276,0.00459258673533591,0.43326277001629,-9.15244412608236,11.4193526199335,0.263084565521036,553.037936710655,647.975068669367
0.61,0.365582470334306,0.0679329214939033,12.212192399753,-3.42130761854641,0.325341875519375,-0.180050238744541,12.6674228442781,-0.615944407856453,-1.89253484103753,572.821728823228,647.975068669367
0.62,0.298115608776792,-0.0692802263361792,12.418595927465,3.46250333055829,-0.158924375121519,-0.261563967223668,-11.1588171540631,-6.45687647752111,2.36726818237014,589.147529296297,647.975068669367
0.63,0.231679022356174,0.0555355320895733,13.0710459808255,-2.74948911996926,-0.0517669300294727,0.232550101439901,-8.20665710734934,10.5386295397493,0.45430390228092,602.638009568689,647.975068669367
0.64,0.208217055126504,-0.0811262759457876,11.9093929071213,4.08773559787727,0.187327982711681,0.121836125954324,12.4923392378021,-1.57628744269978,-1.36567675613932,614.527131647344,647.975068669367
0.65,0.173475347411133,0.0424999335736191,11.7765322803819,-2.11453498124818,-0.0367817439555112,-0.174777126148608,2.50002434576141,-11.7007627532738,-3.10875627050413,623.896434810499,647.975068669367
0.66,0.13805754682935,0.0185055788700143,11.9695253872937,-0.926436626757143,-0.136237463385028,0.0290120019348118,-12.0053220239678,-0.00811919320334897,1.49422701978939,631.750418880699,647.975068669367
0.67,0.0723247620440263,0.0219984486359132,13.9474388338596,-1.11416292862965,0.0314547059496257,0.0687415770893752,0.757348901092386,13.9713575467025,-0.133867956191074,638.201121516519,647.975068669367
0.68,0.0642349663548842,-0.085228558412275,13.2355180477102,4.24587530314518,0.0760714502077979,0.0748543421247573,12.4671220157391,-6.14632115381174,-1.71840714537026,643.490029682457,647.975068669367
0.69,0.0589084537093311,-0.0542015324919171,12.5624953333963,2.68626299734407,0.0464057996713957,-0.0652266341286674,-4.23681851925213,-12.1277230644266,3.01615658816382,648.054201284777,647.975068669367
0.7,0.0754867017610779,-0.0498858919322969,10.8894788364483,2.46823242310315,-0.0789092487485642,-0.0442738615729862,-10.6815471139205,3.25230255004205,1.49813171658955,651.887888027831,647.975068669367
0.71,0.0174846287361842,-0.0725631359986714,13.0854268271985,3.60418390401744,-0.0726618498462062,0.0170697546828085,3.52936163605604,13.1058057099089,0.00571351992021281,655.038848981594,647.975068669367
0.72,-0.0185756244797779,-0.0019802079135084,14.2680667842063,0.114263251706104,-0.0186808726026873,6.8554074915848e-06,14.200303971214,1.39361148617055,-1.46496188887749,657.797035058239,647.975068669367
0.73,-0.0093994115377757,0.0683150620743041,13.264557657901,-3.39123697474381,-0.0686974861935969,-0.00599600151376422,6.25044581579116,-12.1811701072807,-2.91780138614321,660.087755658403,647.975068669367
0.74,-0.0485476614297431,0.0957607834114355,14.784571600481,-4.76651887685511,0.0120636006985399,0.10668398477773,-12.1904500328946,-9.62788593662517,1.92740325542407,661.863010839803,647.975068669367
0.75,-0.0356996464949238,-0.00768040851366267,13.8295064756391,0.410940595305754,0.0103684556139648,-0.0350135482774955,-6.26723316904691,12.3347440158851,0.499809381116753,662.982979618433,647.975068669367
0.76,-0.0355879542171797,0.0561180101691552,13.5006697984014,-2.787854126703,0.00574878304461902,-0.0662018507612543,9.0419736578774,10.4059083220781,-0.919015245272457,664.267954855598,647.975068669367
0.77,-0.0934400493521794,0.027807340703445,16.1895109333065,-1.37691990090588,-0.0868585006202266,0.0442706662468648,12.6770649769041,-10.1630800569764,-2.33141302988327,664.844388931124,647.975068669367
0.78,-0.0618957094734791,-0.00348497465138274,14.373705808641,0.184132079684994,0.0377001730168313,0.049213015087953,-8.23804039235568,-11.7801533856756,2.54413607111901,665.612409188756,647.975068669367
0.79,0.00143082027757788,0.0995758144745029,11.0532550580453,-4.98219833993306,0.0402220131216217,0.0911020292604476,-12.1239524693439,0.0807725060082909,1.1406609873615,665.925063343772,647.975068669367
0.8,-0.0868196739418445,0.093007472623053,15.3550432306762,-4.66203651932049,0.0675550986554632,-0.107816299290723,-0.556859636709454,16.0375136622987,-0.260062525045908,666.080983592646,647.975068669367
0.81,-0.0461945303525386,-0.0842801707294544,13.1802211247291,4.20926852738562,-0.038532323820053,0.0880473840253313,12.7546351780699,-5.36241101620669,-1.65966387009635,666.32024138916,647.975068669367
0.82,-0.123616574571096,-0.0167194029779978,16.9644826676416,0.818157392195507,0.00634004814694773,0.124580896345011,0.601095533497623,-16.9735599642127,-3.0580034809849,666.257051385735,647.975068669367
0.83,-0.0840258624281322,-0.0703388558810512,14.9088655336285,3.49809878305533,0.0990938430938342,-0.0467793807605579,-15.3087944381736,-0.389588816026142,1.82670283685086,666.178876695985,647.975068669367
0.84,-0.0859954691667002,0.00209347635751323,14.9030212180411,-0.133584120745294,0.037631892647397,-0.0773527246852698,-6.31311272604454,13.5004627272902,0.428448002100355,666.280299739845,647.975068669367
0.85,-0.100967634585965,-0.0511499338154917,15.5612990276536,2.52888534673346,-0.112191312844153,-0.0149628969628049,14.2611548010195,6.72077021377269,-0.969297749294912,666.238770136045,647.975068669367
0.86,-0.0314735320633048,0.0078178384319306,12.047558014843,-0.424160878549762,-0.0275681622730671,0.0170791758341404,8.71357037341636,-8.33050166072972,-2.36891575760394,666.165493817737,647.975068669367
0.87,-0.131669875467184,0.020934558473144,16.9696825870376,-1.08256575203366,0.0603741160463567,0.118870425067088,-9.08867097161114,-14.3714347120278,2.51397317066354,666.127435736605,647.975068669367
0.88,-0.0482992848944928,0.00826425772180261,12.7499872398908,-0.43047792201494,0.0469823807944172,-0.0139203007115553,-11.6288569852742,5.24568118310293,1.11328470284859,665.897122255433,647.975068669367
0.89,-0.123328340139553,0.099997448978147,16.5242660804412,-4.98441766973018,0.0603812238763137,-0.146845078524658,-0.0305977591757403,17.2596307255014,-0.291190020734157,665.476549958527,647.975068669367
0.9,-0.0736886069116876,0.0575045582745559,13.9985747183835,-2.85119317192141,-0.0803560205008755,-0.0477461514700389,14.2464628564313,1.06192877826146,-1.69732309953263,665.246525129012,647.975068669367
0.91,-0.0716304705340858,-0.00276750806981962,13.8841713646267,0.166619160532455,0.000203067730568974,0.0716836255594529,0.330210902532489,-13.881244079218,-3.10580878083424,665.145051387944,647.975068669367
0.92,-0.00179514901962401,-0.0207476761632327,10.3612106402125,1.0659632028785,0.00583493819475858,-0.0199910510589208,-10.368773971395,-0.989691775687902,1.76847678698106,664.911602930186,647.975068669367
0.93,0.0280222380182421,0.0294406410251807,8.81724064103146,-1.45063848083234,0.017732639377895,0.0365725398108758,-4.45299225333254,7.74718945913218,0.358612830185657,664.874354839607,647.975068669367
0.94,-0.0229693254806766,0.114437323519119,11.3633255481872,-5.71312575661419,0.0366156186589588,-0.110827737491471,7.05248765737887,10.584299280892,-1.05361998467241,664.409884727481,647.975068669367
0.95,-0.17889159922711,-0.0219250230994696,19.141848138134,1.10539526046311,-0.0944930646296678,0.153473032317859,11.0804708317694,-15.6478565615724,-2.46775808300903,664.107934803541,647.975068669367
0.96,-0.120907416474156,0.0164453413282154,16.2521030607852,-0.822075723444961,0.0697365935847882,0.100129217139887,-10.3958601397562,-12.5192952816079,2.39805605985386,663.718670815238,647.975068669367
0.97,0.0506070561764262,-0.0361010631906875,7.65439144823981,1.80493632005357,-0.062139666525938,-0.00173860357390166,-5.34655526921134,5.76730875847684,0.979131572028085,663.58624826802,647.975068669367
