t,iq,id,vq,vd,ia,ib,va,vb,theta_e,omega,r
0,0,0,0,0,0,0,0,0,0,0,0
0.01,0.000532364896966311,0.000300703463905085,-0.0256309516517925,-0.0150487627252183,0.000611386411283121,-6.45080032356927e-06,-0.0297111657638267,0.000810907572325593,-1.06717826227062,-0.00200683148737722,0
0.02,0.000605842713664863,0.000341421055440534,-0.0293048012820882,-0.0170864758102868,0.000695391494395934,-6.66335656585146e-06,-0.0339122612196224,0.000823148085274471,-1.06719348245484,-0.00215594586408497,0
0.03,0.000634036992501275,0.000357466045619415,-0.0307088818523677,-0.0178894600027818,0.000727828390772906,-7.12146163124258e-06,-0.0355295189932004,0.000849402098901358,-1.06720889972252,-0.00212409704732811,0
0.04,0.000618931358568624,0.000349473037126143,-0.0300488349184939,-0.0174894439072265,0.000710740718474859,-7.42033689360671e-06,-0.0347583646164921,0.000818057045632793,-1.06722306989712,-0.00193256076140092,0
0.05,0.000633553970044743,0.000358146822637764,-0.0307999624509386,-0.0179235270761341,0.000727733634363157,-7.97100630859195e-06,-0.0356257091597873,0.000836275487138107,-1.06723664182028,-0.00186418669191323,0
0.06,0.000634113678354572,0.000358883939049536,-0.0308792570058122,-0.0179604091759414,0.000728579452156827,-8.35587690998661e-06,-0.0357129475941642,0.000830773816827184,-1.06724945770439,-0.00174721375111151,0
0.07,0.000647863708457604,0.000367207763155343,-0.0315815804993267,-0.0183769883211958,0.000744639213205497,-9.02043317634033e-06,-0.0365291002809867,0.000857180992809412,-1.06726125801406,-0.00169186407209856,0
0.08,0.000634021795450156,0.000359651804243059,-0.0309698781576183,-0.0179988388718973,0.000728869286118877,-9.08961790642968e-06,-0.0358108452380781,0.000821533425166191,-1.06727257449074,-0.00153186556756662,0
0.09,0.00063212842208441,0.00035900491024101,-0.0309226411782658,-0.0179664735096473,0.000726898669278329,-9.44416144904776e-06,-0.0357538456775377,0.000816349851140281,-1.0672829874043,-0.00142753654420338,0
0.1,0.000631369190726709,0.0003589475775651,-0.0309263843671498,-0.0179636033391865,0.00072620590601316,-9.76731848354617e-06,-0.0357557315611209,0.00081237644068561,-1.06729268267409,-0.00133436785629791,0
0.11,0.000630753443480319,0.000358940684287228,-0.0309342466557238,-0.0179632503568736,0.000725663157653313,-1.00649353443493e-05,-0.0357624405002249,0.000808596938378578,-1.06730172028951,-0.00124788217178927,0
0.12,0.00063018764190366,0.000358938228696514,-0.0309419666428894,-0.0179631263884184,0.000725166299125433,-1.03418876714837e-05,-0.0357691358556031,0.000805064916251942,-1.06731014582423,-0.00116728698174001,0
0.13,0.000658352706631919,0.000375178894951353,-0.0323150751964308,-0.0187759056325822,0.000757671983897279,-1.09842780215024e-05,-0.0373639940448523,0.000854790202826642,-1.06731837246788,-0.0012021952728758,0
0.14,0.000679642105990799,0.000387835452867227,-0.0334823817833105,-0.0194092960724781,0.000782425957449032,-1.18047382987008e-05,-0.038692037757068,0.000846686552450085,-1.0673261123932,-0.00121443017157832,0
0.15,0.000633242885490555,0.000361398051442037,-0.0311828760939149,-0.0180862316122537,0.000729028968492051,-1.10393256098756e-05,-0.0360395273674286,0.000797497682063799,-1.06733341635055,-0.000962957973395459,0
0.16,0.000628624701201176,0.000359141297449382,-0.0309892689611021,-0.017973294495152,0.000723894953213989,-1.12952735783687e-05,-0.0358154507302296,0.000792208775184815,-1.06733974402152,-0.000885842555705526,0
0.17,0.000627849054640518,0.000358947475622464,-0.0309764408561816,-0.0179635926779009,0.000723121970894236,-1.15039505722104e-05,-0.0357995290080694,0.000790109368663165,-1.06734559921404,-0.000828321146229645,0
0.18,0.000627448280534327,0.000358929729182723,-0.0309797916376464,-0.0179627122076914,0.000722762298129168,-1.16857023627498e-05,-0.0358020349535095,0.000787916845874313,-1.06735105390602,-0.000776007680512074,0
0.19,0.000627104314842847,0.000358927085390345,-0.0309843239736419,-0.0179625674716395,0.000722459674022435,-1.18530052190066e-05,-0.0358059311200722,0.000785785531458459,-1.06735613886972,-0.000727356523360382,0
0.2,0.000626785967220546,0.000358925806239394,-0.0309886575457054,-0.0179625166288056,0.000722180150370696,-1.20088925281553e-05,-0.0358096987733501,0.00078382006037757,-1.06736087947485,-0.000682010703534339,0
0.21,0.000626489735211006,0.000358924714618572,-0.03099272352422,-0.0179624566305811,0.000721920091416515,-1.21540403961089e-05,-0.0358132278862999,0.00078196420518848,-1.06736529906958,-0.000639736446960726,0
0.22,0.000626213584844427,0.000358923705323786,-0.0309965137652326,-0.0179623980642407,0.000721677664793949,-1.22893541171868e-05,-0.0358165164126177,0.000780231940631284,-1.0673694193941,-0.000600324855458178,0
0.23,0.000625956006023852,0.000358922764915607,-0.0310000395000125,-0.0179623529432093,0.000721451541259461,-1.24155654863043e-05,-0.0358195799667834,0.000778629091391803,-1.06737326071344,-0.000563582002581128,0
0.24,0.000625715947710244,0.000358921888080557,-0.0310033289595502,-0.0179623092419215,0.000721240797576057,-1.25331908983449e-05,-0.0358224374583489,0.000777132176136253,-1.06737684192002,-0.000529327168944299,0
0.25,0.000625491958014833,0.000358921070478956,-0.031006384855483,-0.0179622789647739,0.000721044159842564,-1.2642940003021e-05,-0.0358250970376441,0.000775751028403167,-1.06738018062741,-0.000497391879327676,0
0.26,0.000631372146186314,0.000362376073162701,-0.0312985085996208,-0.0181351783278568,0.000727861575513392,-1.28348070454365e-05,-0.0361643876433435,0.000786384082805604,-1.06738322734286,-0.000492318174889686,0
0.27,0.000614300341707843,0.000352660751985897,-0.0304994357000042,-0.0176489810456612,0.000708220794934032,-1.25627002128629e-05,-0.0352298941850641,0.000746100313621812,-1.06738632875089,-0.000395942667064374,0
0.28,0.000613650174797489,0.000352354303121639,-0.0303624074856509,-0.0176336341056713,0.000707503416283926,-1.26098336189887e-05,-0.035102459571305,0.000798856772082379,-1.06738903483348,-0.00036820395191004,0
0.29,0.000623710313694859,0.000358358290061306,-0.0309678353260103,-0.0179341031112737,0.00071921190362125,-1.30175709908061e-05,-0.0357777287010173,0.000770070244257617,-1.06739142988281,-0.000385726076019467,0
0.3,0.000618067860741694,0.000355374176810032,-0.0307065916836957,-0.0177847689411824,0.000712829833553704,-1.31268587644005e-05,-0.0354768518787097,0.000765349525740734,-1.06739315074418,-0.000347402153390706,0
0.31,0.000623878487978723,0.000358615048388011,-0.0309917843198029,-0.0179469556799342,0.000719483026899953,-1.31641443259326e-05,-0.035804903930758,0.000769914288665024,-1.06739531633627,-0.000350247705628718,0
0.32,0.000624283049345615,0.000358891061664387,-0.0310195597260554,-0.0179607648406648,0.000719970524554411,-1.32122524838366e-05,-0.0358358937551896,0.000768685909029228,-1.06739739777743,-0.000332490592698222,0
0.33,0.000624202139520887,0.000358914174747818,-0.0310236933074388,-0.017961930469842,0.000719910775808785,-1.32729307898725e-05,-0.0358400753692322,0.000767782628882928,-1.06739934398358,-0.000314071412228687,0
0.34,0.000624085135685598,0.000358915742268843,-0.0310255713945006,-0.0179620017249392,0.000719809018410362,-1.33320533758867e-05,-0.0358417534592587,0.000767004098871852,-1.06740115892508,-0.000296729152219525,0
0.35,0.000623972034906895,0.000358915499080313,-0.031027129397726,-0.0179619961791866,0.000719709807841748,-1.33876182465515e-05,-0.0358431142199402,0.000766308306539057,-1.06740285101637,-0.000280545653161584,0
0.36,0.000623866268277264,0.000358915126913292,-0.0310285650740564,-0.0179619818743294,0.000719616960766052,-1.34394493642413e-05,-0.0358443636930017,0.000765659749831985,-1.06740442853329,-0.000265456588149869,0
0.37,0.000623767774294601,0.000358914767513658,-0.0310299077052485,-0.0179619526695781,0.000719530491618842,-1.3487706201249e-05,-0.0358455245591549,0.000765039201234163,-1.06740589922974,-0.000251389139794009,0
0.38,0.000623675861085061,0.000358914431367593,-0.0310311534991245,-0.0179619368566432,0.00071944979934285,-1.3532736960703e-05,-0.0358466071385976,0.000764473530809719,-1.06740727033909,-0.000238274247954789,0
0.39,0.000623590117890145,0.000358914117871873,-0.0310323107769312,-0.0179619224740994,0.000719374523776698,-1.35747441610828e-05,-0.0358476129446509,0.000763948487851869,-1.06740854860445,-0.000226047421652561,0
0.4,0.00062351019546116,0.000358913825577669,-0.0310333889582186,-0.0179619080679294,0.000719304358233165,-1.3613899573063e-05,-0.0358485495218816,0.000763458479572952,-1.06740974031285,-0.000214648527079408,0
0.41,0.000623435744549357,0.000358913553059326,-0.03103439563338,-0.0179618921841913,0.000719238996038665,-1.36503746752237e-05,-0.0358494228130203,0.000762998780449982,-1.0674108513253,-0.000204021501452743,0
0.42,0.000623366186394884,0.000358913298980167,-0.0310353252471095,-0.0179618925970373,0.000719177929523628,-1.36844514481136e-05,-0.0358502365216053,0.000762587835160176,-1.06741188710629,-0.000194114078165061,0
0.43,0.000623301456165047,0.000358913062093716,-0.0310361963384393,-0.017961878126978,0.000719121101241317,-1.37161637651243e-05,-0.0358509918421284,0.000762189571041816,-1.06741285275,-0.000184877529800423,0
0.44,0.000623241149717283,0.000358912841237083,-0.0310370090036884,-0.0179618636385941,0.000719068156567817,-1.374570900166e-05,-0.0358516960257592,0.000761817132284745,-1.0674137530056,-0.00017626642848759,0
0.45,0.000623184917802802,0.000358912635326584,-0.0310377646866343,-0.0179618476780933,0.000719018789004242,-1.37732578873785e-05,-0.0358523496323672,0.000761468707439499,-1.06741459230095,-0.000168238422476349,0
0.46,0.000623132414492906,0.000358912443351118,-0.031038463792498,-0.0179618480130689,0.000718972694997306,-1.37989793948182e-05,-0.0358529615845436,0.000761159812415323,-1.06741537476375,-0.000160754027836341,0
0.47,0.000623083516746343,0.00035891226436799,-0.0310391165985522,-0.0179618334758852,0.0007189297662688,-1.38229348344333e-05,-0.0358535258467273,0.000760858325843428,-1.06741610424263,-0.000153776434266728,0
0.48,0.00062303799504396,0.000358912097498763,-0.0310397269671068,-0.0179618189245024,0.000718889801303911,-1.38452367470474e-05,-0.0358540529666509,0.000760575527965688,-1.06741678432523,-0.000147271324052589,0
0.49,0.000622995387036376,0.000358911941923431,-0.0310402861080869,-0.0179618192134414,0.000718852394668845,-1.38661098625282e-05,-0.0358545424075983,0.000760328790709796,-1.06741741835627,-0.000141206703281196,0
0.5,0.000622955860722903,0.000358911796878542,-0.0310408157374139,-0.0179618046356296,0.000718817693117879,-1.38854747231345e-05,-0.0358549988590041,0.000760081728121068,-1.06741800945443,-0.000135552744487954,0
0.51,4.69465381143604,0.00153272729215889,5.26824363951924,-0.0656656562041582,-0.608125012823536,4.65510050667676,-0.749240399513774,5.2151070791956,0.130227142116055,40.4017530779511,680.939898715067
0.52,4.70114823695814,-0.00821860470019242,4.94462626778801,0.435902642153446,-2.64356598670018,3.88746976390554,-2.41243913823903,4.33814216523941,0.595443671210293,86.7676651605109,680.939898715067
0.53,4.69583118147984,0.00652002084557779,5.21165821962336,-0.291209647946826,-4.63552089151893,0.750212676460311,-5.19199395939703,0.537943475478431,1.41173598392262,136.966903513876,680.939898715067
0.54,4.63134715218933,0.0435787427706953,8.43705770623484,-2.13243198107138,-2.43201417320545,-3.94164719530319,-2.53727216054935,-8.3242692697638,2.5981728013371,185.45161427695,680.939898715067
0.55,4.27256652331549,-0.0154602626423485,6.87965156081933,0.826081173625431,3.56552681008359,-2.35416275615182,5.26973545190612,-4.4991003512509,-2.15796656175815,231.822539798798,680.939898715067
0.56,3.91022663359857,0.0145116906921086,5.76873773955898,-0.661729386155818,1.17637593098932,3.7291047966314,1.08325235210421,5.70462840419732,-0.301866226983532,273.168554517414,680.939898715067
0.57,3.55431336621467,0.031058576222035,5.63627196098988,-1.4908320613386,-3.42705143963991,-0.943094147193796,-5.01287949636773,-2.97677359035783,1.84807827307537,312.024945527862,680.939898715067
0.58,3.22431356206766,0.032077108589079,6.02728934824635,-1.54370327419542,2.89412653541162,-1.42170970470599,6.10278458102007,-1.2113038610973,-2.01746294734936,347.067745905323,680.939898715067
0.59,2.92172324433591,0.0488642819460094,6.577887728251,-2.38501139904245,-1.71532176321587,2.36569771593517,-5.85697400491295,3.82788999904797,0.644084002726222,378.798805295198,680.939898715067
0.6,2.62979554951231,0.0237677330414099,7.9276520025986,-1.12899792166381,0.968810450658194,-2.44495313821434,4.03269597055648,-6.9180680677834,-2.75528638056316,407.578393322223,680.939898715067
0.61,2.40054760671173,0.0675248006881565,7.38163405769729,-3.31662011598841,-0.715136696893571,2.29254616432332,-5.53256039687261,5.90586706678132,0.330496048183312,433.728943145964,680.939898715067
0.62,2.19762918602502,0.0197113935306699,6.58791983491918,-0.923176822374671,0.954641326414226,-1.97955108956703,3.74266083958987,-5.49958480582778,-2.6832753078896,457.653546724096,680.939898715067
0.63,2.0136741057302,-0.0169297605732799,5.6248826806608,0.891962968750355,-1.3901717494755,1.45691198356031,-3.19826475825891,4.71232486623098,0.753553642737921,479.704048384691,680.939898715067
0.64,1.80877993829358,0.0210086799418837,6.76810258008166,-1.00088727115992,1.67889633488242,-0.673374581139349,6.67228949258937,-1.51312286056334,-1.94062053584164,499.273700151935,680.939898715067
0.65,1.64824448120371,0.0334021075183718,6.56065257546874,-1.61714528157319,-1.61716506881766,-0.320316579029471,-6.06219019080298,-2.98448842655675,1.78660071272493,517.301527563291,680.939898715067
0.66,1.52238619047719,0.0159944379514022,5.18955337618865,-0.761312567429202,0.925710282178275,1.20870840506321,2.50271032584579,4.6095012847966,-0.643073323907192,533.780330924251,680.939898715067
0.67,1.39901186712317,0.0219666966728194,4.59738048501499,-1.04915730553083,0.232866561088478,-1.37967021597228,1.86787548558895,-4.32985906769276,-2.95868407451129,548.507870407161,680.939898715067
0.68,1.23551778943653,-0.00423448488037931,6.42185510044442,0.244269289869834,-1.11033113806073,0.54192887238927,-5.6535566913771,3.05568112774594,1.11330395474498,562.176767199196,680.939898715067
0.69,1.13740988727217,0.00995853834758259,5.71451865763026,-0.457565617480279,0.964562592382443,0.602842790059706,4.57332552060264,3.45684588393944,-1.00344836567861,574.415907343301,680.939898715067
0.7,1.03030801995359,-0.00737373965570193,5.84009031563284,0.402122397233374,0.117915998002208,-1.02356475390292,0.227028196051251,-5.8495141264299,-3.03405365947903,585.612881114952,680.939898715067
0.71,0.887493308579098,0.0104430745183656,8.28750699891577,-0.506938214336605,-0.851516690342732,0.250345274862198,-8.11521252445561,1.75587137716616,1.2966202422481,595.846622780561,680.939898715067
0.72,0.810078688940994,0.0495163349912183,7.8799319342856,-2.44388576791061,0.488348037264533,0.648224917915996,2.31062824587833,7.92003169469158,-0.584599953017318,605.01407073195,680.939898715067
0.73,0.779553040309512,0.0210812195918714,5.48500746233451,-1.03172056072749,0.510302952289018,-0.589693358755545,4.46166159336121,-3.35310751447349,-2.40120679101156,613.447693386731,680.939898715067
0.74,0.720126749369867,0.022282632217595,4.88572137007426,-1.10459515343813,-0.624347347443198,-0.35954059659126,-3.57587175675824,-3.50764093633001,2.12421419344939,621.191722834482,680.939898715067
0.75,0.616055371304904,0.00351108414696097,6.85638827198132,-0.147161638683291,-0.248178748667364,0.563865105264913,-2.93213300302984,6.19954133276053,0.420322152551311,628.113433718832,680.939898715067
0.76,0.56145844483483,-0.0191608165484737,6.64090965292774,0.981352749328026,0.523774751988403,0.203132300106697,6.59330894563171,1.26214554803136,-1.23494419161283,634.410805502881,680.939898715067
0.77,0.509416330554052,-0.0207137698731692,6.52600345053729,1.04650198653025,0.168253942599353,-0.481274006047789,0.900527009292366,-6.5477430118913,-2.84591259040974,640.220588371127,680.939898715067
0.78,0.446016153670105,-0.0135405165421206,7.29652209346102,0.677940023354751,-0.422727602701243,-0.142881520279432,-7.17755562612059,-1.47700120838667,1.86639063422418,645.394659301943,680.939898715067
0.79,0.38931960440636,-0.00141318553016423,7.94661563467676,0.0911752942520308,-0.128045336272566,0.367663083987654,-2.50011742217809,7.54363479066243,0.331501252739585,650.051182546312,680.939898715067
0.8,0.439660018377715,-0.0103948436536658,3.41699912501622,0.541584748323231,0.400832195885554,0.180948985286024,3.35782908890884,0.833175173451298,-1.17038964847745,654.336490557714,680.939898715067
0.81,0.387501351270279,0.0207261983977783,4.15066608969343,-1.02537145656174,0.167401707555633,-0.350090760866057,2.88809625144309,-3.15250942178812,-2.64212797246864,658.325175964174,680.939898715067
0.82,0.330558863367448,0.00271038435285852,5.29863082458738,-0.134389235524713,-0.269403736478657,-0.19156757320971,-4.21411493869651,-3.21477594325754,2.19711901812293,661.935037544323,680.939898715067
0.83,0.291846490797162,0.0607797488829792,5.71751720487357,-3.04759820755958,-0.297396632416483,-0.0205862840802157,-4.67764653391524,-4.48302138367602,1.84523217107397,665.146605532968,680.939898715067
0.84,0.26142824111767,0.0298912762961411,5.87155887321792,-1.49788937974379,-0.0864304722770237,0.248531662197116,-3.89585804473205,4.6412462002042,0.448525808854656,668.046362335267,680.939898715067
0.85,0.218834649050995,-0.024346263900201,6.73796601817092,1.23347904341447,0.160519921422244,0.150713964242757,6.1316753054432,3.05355768918597,-0.927692976930911,670.698092595927,680.939898715067
0.86,0.229921362943101,0.0104775883887696,5.02255622237551,-0.512033088132049,0.166806842173033,-0.158584647429436,4.12936953468234,-2.90457503540576,-2.2853924362885,673.113584081457,680.939898715067
0.87,0.164966082735842,-0.0162834304984227,7.23165543769013,0.818808959864694,-0.0624407115968469,-0.153558184729063,-4.09339625887567,-6.01759051033307,2.65699847563144,675.293634832172,680.939898715067
0.88,0.173805842412136,-0.013055226978374,5.83773472558886,0.650792343687068,-0.171941879783174,0.0285464495984623,-5.51673521117421,2.01700520840637,1.33130011053371,677.270354029494,680.939898715067
0.89,0.148424161528782,0.0152850298842807,6.23667269002854,-0.774150395517028,0.0123849810865157,0.148694236968256,-0.895738430132813,6.22037360149776,0.0195205461714945,679.083934364557,680.939898715067
0.9,0.153519032820954,-0.00602366917462559,5.19633590386866,0.289628314559617,0.145329972086119,0.0498355018240449,5.06080827678589,1.21408853550498,-1.27966636773915,680.701027810841,680.939898715067
0.91,0.0909888600708179,-0.0229683789949007,7.61187173149442,1.14004564103592,0.0686892258830003,-0.063939888475305,3.17536184481289,-7.01123187998196,-2.56766566446462,682.160852336289,680.939898715067
0.92,0.127763551143851,0.0524691037486471,5.10466133569875,-2.61452871339841,-0.122675525803639,-0.063460595788839,-1.30963382003909,-5.58374309963955,2.43786513431698,683.52836579004,680.939898715067
0.93,0.111057736506385,-0.0024472267117623,5.32885962444015,0.132345963170103,-0.103204354365934,0.0410934422555604,-4.85454530933624,2.20173799316751,1.16983174955811,684.758233069719,680.939898715067
0.94,0.0923358381666622,-0.018481634843515,5.71584618144772,0.930458481960367,-0.0101325011887125,0.0936205653480569,1.43894609174553,5.60946385153454,-0.0897364117874826,685.860425836248,680.939898715067
0.95,0.0951455183098075,0.0219313220230583,5.08454409123835,-1.09715200144042,0.0976401095218876,0.000248098115228045,4.70255550917552,2.22312905903696,-1.34170937768002,686.834261597663,680.939898715067
0.96,0.057288612990289,-0.0191966625300115,6.5327862858496,0.954329303787873,0.0464945609865509,-0.0385843599054093,2.62998235907354,-6.05567782065846,-2.58681406149435,687.720173936882,680.939898715067
