t,iq,id,vq,vd,ia,ib,va,vb,theta_e,omega,r
0,0,0,0,0,0,0,0,0,0,0,0
0.01,0.00140469597943635,0.000776236146137563,-0.0696759216560478,-0.0388582199566923,0.000211048213916341,-0.00159096574463999,-0.0101828049089958,0.0791265176853356,-2.50487069074338,-0.00275173831737011,0
0.02,0.00155478923404902,0.0008619475410707,-0.0772545035585004,-0.0431489242244509,0.000231337550259239,-0.00176261341868052,-0.0112370999275556,0.0877713823920752,-2.50489019723258,-0.00265076509999671,0
0.03,0.00160878139910169,0.000895755842586301,-0.0799939786973994,-0.0448413532527995,0.00023622190238952,-0.0018261312473244,-0.0115034067649814,0.0909805211140369,-2.50490805779615,-0.00237371619973779,0
0.04,0.00156442697366816,0.000876542163747793,-0.0778607152776615,-0.043879551840886,0.000225275012536856,-0.00177904724206377,-0.011007177535467,0.0886935628780848,-2.50492261197165,-0.00195248853100413,0
0.05,0.00159440251789488,0.000896365696468432,-0.079393450666796,-0.044871890487935,0.000227133053349405,-0.00181493840858335,-0.0111193370520632,0.0905161140806697,-2.50493547762131,-0.00173319100094551,0
0.06,0.00158995953254291,0.000897210258173769,-0.079218027924813,-0.0449141593120191,0.000223792613395715,-0.00181187042270849,-0.0109800638488521,0.0904003089202521,-2.50494648028709,-0.00147910465029188,0
0.07,0.00162748382792097,0.000921159224004873,-0.0811085617454714,-0.0461130423654727,0.000226826796253011,-0.00185628325710683,-0.0111391336558025,0.0926333156376095,-2.50495556445731,-0.00136045657973811,0
0.08,0.00158235989562365,0.000898264454906865,-0.078911097999363,-0.0449669377641482,0.00021839602343301,-0.00180639005953196,-0.0107536109909616,0.0901850693297118,-2.50496359578052,-0.00108233050223258,0
0.09,0.00157650055993462,0.000897277047300923,-0.0786479399199966,-0.0449175027418451,0.000215694851024101,-0.00180109295882498,-0.0106363260006368,0.0899441441975587,-2.50497017233796,-0.000923369069024022,0
0.1,0.00157320504019399,0.000897231185524453,-0.0785072571678833,-0.0449152393249056,0.000213762657955787,-0.00179841692186019,-0.0105540160087264,0.0898297328156177,-2.50497569976393,-0.000793371413799651,0
0.11,0.00157051484480485,0.000897226305335837,-0.0783929787614951,-0.0449149629947744,0.000212158960695812,-0.00179625179085101,-0.01048588459394,0.0897377247550034,-2.50498035287148,-0.00068412066505329,0
0.12,0.00156825359812327,0.000897223643266476,-0.0782969448826551,-0.0449148452866107,0.000210809817594033,-0.00179443273344779,-0.0104285382857208,0.0896604734222442,-2.504984270339,-0.000592151461108774,0
0.13,0.00164350918981743,0.000939859806992203,-0.0820310368073935,-0.0470492222417718,0.000221255370653932,-0.0018802938533034,-0.0109316966712566,0.0939319877418721,-2.50498815950038,-0.000672308920653261,0
0.14,0.00171527573867852,0.000983104951748907,-0.0856795927458686,-0.0492140595091135,0.00022913768909357,-0.00196371131414198,-0.0113595419916411,0.0981528250851936,-2.50499141573155,-0.000758797848229038,0
0.15,0.00157018527606472,0.000900905778000426,-0.0784324811350324,-0.0450991670418755,0.000208979289180796,-0.00179817704320194,-0.0103599953317263,0.0898791380777253,-2.5049942751724,-0.000374319234736035,0
0.16,0.00156186168418107,0.000897374301518143,-0.0780282092105227,-0.0449224035432288,0.000206867822483543,-0.00178938488357285,-0.0102616532296746,0.0894489924241503,-2.50499602686461,-0.00031701748771808,0
0.17,0.00156065751689406,0.000897221722930433,-0.0779744776004275,-0.0449147371694029,0.00020627210505961,-0.00178832617936731,-0.010235747675454,0.0894012429532193,-2.5049974682029,-0.00028235509973296,0
0.18,0.0015599390802537,0.000897214408793667,-0.0779438259031096,-0.044914376286341,0.000205848737636528,-0.00178774436837686,-0.0102177083280332,0.089376393024828,-2.50499867997423,-0.000253864845911291,0
0.19,0.00155934939933097,0.000897213453850302,-0.0779187677033656,-0.044914323523298,0.000205497140576612,-0.00178726983306346,-0.0102027635045938,0.0893562221383372,-2.50499970008821,-0.000229913944246691,0
0.2,0.00155885347005735,0.000897212873234474,-0.0778976950274068,-0.0449143222142251,0.000205201263110646,-0.0017868708746368,-0.0101901609830862,0.0893392850300745,-2.50500055892669,-0.00020975126888393,0
0.21,0.00155843631666215,0.000897212393930112,-0.0778799705151199,-0.0449142864192085,0.000204952376366925,-0.00178653529389566,-0.0101795886919452,0.0893250183657718,-2.50500128199008,-0.000192776227043419,0
0.22,0.00155808528716567,0.000897211990756938,-0.0778650549636325,-0.0449142475276448,0.000204742940913904,-0.00178625290666974,-0.0101706989282359,0.089313007444466,-2.50500189074329,-0.000178484794832646,0
0.23,0.00155778935941816,0.000897211651300843,-0.0778524758792895,-0.0449142485295393,0.000204566382069218,-0.00178601484620748,-0.010163174623242,0.0893028980665581,-2.50500240325802,-0.000166452712712404,0
0.24,0.00155753999779929,0.000897211365483299,-0.0778418726552826,-0.0449142493863676,0.000204417606573783,-0.00178581424600087,-0.010156832243519,0.0892943766157705,-2.50500283474858,-0.000156322797061004,0
0.25,0.00155733064574882,0.000897211124831375,-0.0778329731865626,-0.044914210079735,0.00020429270068158,-0.00178564583138926,-0.0101515410665501,0.0892872006287625,-2.50500319802427,-0.000147794332062858,0
0.26,0.00157382005139557,0.00090631658362223,-0.078648711220549,-0.0453700380220592,0.000206772540864763,-0.00180431827022501,-0.0102698958421165,0.0902141306346655,-2.50500344153341,-0.00017886983187788,0
0.27,0.00152168416562036,0.000876960241326419,-0.0760746349026604,-0.0439004818709979,0.000199385396161619,-0.00174494338835519,-0.00992138640303031,0.0872706621718929,-2.50500395796006,-5.2059836203277e-05,0
0.28,0.00151755270433137,0.000874057805264284,-0.0757874426499009,-0.0437551554593217,0.000199262968900774,-0.00173989583785689,-0.00986750503835622,0.0869533348239125,-2.50500418050484,-3.79778946593086e-05,0
0.29,0.00155478128275767,0.000896216098802312,-0.0777107810433746,-0.0448643936645787,0.000203575643143212,-0.00178300451218858,-0.0101188768963835,0.0891593384879982,-2.50500415178487,-0.000120980693195526,0
0.3,0.00154516557184821,0.000891303914786829,-0.0772327612067494,-0.0446185056020032,0.000201810835881798,-0.00177235202470052,-0.0100325048732528,0.0886287723696031,-2.50500342991861,-0.000115732200976765,0
0.31,0.00155645984319548,0.0008969571243975,-0.0777916800318304,-0.0449015102772263,0.000203978499200272,-0.00178479469361368,-0.0101371665406558,0.0892464506962465,-2.50500364410461,-0.000135964712870156,0
0.32,0.00155690759178326,0.000897199778747632,-0.0778147245371846,-0.0449136648493387,0.000204049125749299,-0.00178529903562907,-0.0101410708952874,0.0892722091476031,-2.50500387662264,-0.000131793749779374,0
0.33,0.00155682272567146,0.000897210075777872,-0.0778113148221064,-0.0449141890316281,0.000203990042234023,-0.00178523695399625,-0.0101386047475594,0.0892697809142968,-2.50500407504234,-0.000127201179894524,0
0.34,0.00155672804274161,0.00089721041289825,-0.0778072949664825,-0.0449141726659479,0.000203933187884361,-0.00178516105126414,-0.0101362133574356,0.0892665404003109,-2.50500424222932,-0.000123279546931592,0
0.35,0.00155664678484713,0.000897210338862562,-0.0778038322710306,-0.044914173002878,0.000203884691936902,-0.00178509569416616,-0.010134142102943,0.0892637575751126,-2.50500438299223,-0.000119975080341648,0
0.36,0.00155657844905336,0.000897210261159199,-0.0778009189222767,-0.044914173298995,0.000203843920291049,-0.00178504072136943,-0.0101323994304489,0.0892614162450085,-2.50500450150223,-0.000117192877666396,0
0.37,0.00155652082346917,0.000897210195078435,-0.0777984595857248,-0.0449141735612423,0.000203809539495393,-0.00178499436404054,-0.0101309283480107,0.0892594397887894,-2.50500460127662,-0.0001148505094855,0
0.38,0.00155647227828006,0.000897210139415121,-0.0777963856592912,-0.0449141737947839,0.000203780576374828,-0.00178495531148989,-0.010129687805995,0.0892577730747877,-2.50500468527757,-0.000112878448758578,0
0.39,0.00155643141650218,0.000897210092549862,-0.0777946381399811,-0.0449141740040377,0.000203756197332849,-0.0017849224399107,-0.0101286425034938,0.0892563686849963,-2.50500475599861,-0.000111218153486468,0
0.4,0.00155639707398231,0.000897210053092943,-0.0777931679492549,-0.0449141741926896,0.000203735707700318,-0.00178489481277738,-0.0101277630750608,0.0892551871774839,-2.50500481553915,-0.000109820336308167,0
0.41,0.00155636808656724,0.000897210019873483,-0.0777919245640229,-0.0449141743643922,0.000203718413225022,-0.0017848714936262,-0.0101270193261984,0.0892541879453085,-2.50500486566691,-0.000108643501742534,0
0.42,0.00155634375576502,0.000897209991905476,-0.0777908795368093,-0.0449141745213653,0.000203703896820743,-0.00178485192049756,-0.0101263942115179,0.0892533481294622,-2.50500490786981,-0.00010765271438134,0
0.43,0.0015563231502531,0.000897209968358799,-0.0777899917542897,-0.0449141746665535,0.000203691603288638,-0.00178483534425051,-0.0101258631767723,0.0892526346839992,-2.50500494340068,-0.000106818561795379,0
0.44,0.00155630592078551,0.000897209948534834,-0.0777892483416073,-0.0449141748010759,0.000203681323695967,-0.00178482148384632,-0.0101254184733564,0.0892520372672426,-2.50500497331447,-0.000106116281404319,0
0.45,0.00155629136887031,0.000897209931844491,-0.0777886182348756,-0.0449141749271334,0.000203672641709304,-0.00178480977743842,-0.010125041554156,0.0892515309101361,-2.50500499849903,-0.000105525025371937,0
0.46,0.00155627914526154,0.000897209917792868,-0.0777880872140778,-0.0449141750458171,0.000203665348780756,-0.00178479994404636,-0.0101247238983849,0.0892511041861822,-2.50500501970208,-0.0001050272417239,0
0.47,0.00155626878429792,0.000897209905962769,-0.0777876347475212,-0.044914175158608,0.000203659167307629,-0.00178479160909878,-0.0101244532435043,0.0892507405925126,-2.50500503755302,-0.000104608153295931,0
0.48,0.00155626016956412,0.000897209896002686,-0.0777872573135026,-0.0449141752658706,0.000203654027422776,-0.00178478467888185,-0.0101242274484155,0.0892504373028119,-2.50500505258185,-0.000104255319066185,0
0.49,0.00155625283539886,0.000897209887617268,-0.0777869335825568,-0.0449141753690804,0.000203649651752652,-0.00178477877885922,-0.010124033792702,0.0892501771708372,-2.50500506523474,-0.000103958264827808,0
0.5,0.00155624666538681,0.000897209880557897,-0.077786659346405,-0.044914175468613,0.000203645970623323,-0.00178477381534669,-0.0101238697409165,0.0892499568166168,-2.50500507588715,-0.000103708172253705,0
0.51,2.34810168560245,-0.0255224541634185,3.01211711423067,1.27984306232067,-0.139294799305637,2.34410534756482,1.13235475774896,3.07060588102982,0.0484846707787771,14.7791395122785,630.00883065909
0.52,2.26225273024801,-0.00553683468299287,5.45887290007204,0.282169427179146,-0.491678647717919,2.20818255120159,-0.897811026610756,5.39192435826688,0.21664063821102,31.0313159084735,630.00883065909
0.53,2.28820636759356,-0.0583330141682737,2.30343275023757,2.92952883996591,-1.15462069866678,1.97639625668739,1.45548069821242,3.43067305294313,0.503237232191863,47.2441897766283,630.00883065909
0.54,2.17430002413914,-0.106862485986942,6.04523490407531,5.36316442716008,-1.78209361791767,1.2502569827279,-1.4804122233076,7.94460681011258,0.90991138949797,63.7809930064419,630.00883065909
0.55,2.15194678816236,0.0549389946347942,5.01043362137201,-2.74620482551341,-2.12668358394704,0.333331975639858,-5.32405046650322,-2.07378220842378,1.44084768149856,81.1255204010104,630.00883065909
0.56,2.13288957939392,-0.0240564783609478,4.01251325248161,1.21241493937622,-1.83435930474896,-1.08854150730196,-4.08048652656914,-0.959084090708876,2.09508359254931,97.0475398208164,630.00883065909
0.57,2.07359972181756,0.0195994884319032,5.24498995101902,-0.962303009148924,-0.593673033457725,-1.98689513452868,-0.529424893373564,-5.30619034241931,2.86069396346871,111.786607560982,630.00883065909
0.58,1.92686007348307,0.105234020049179,10.7144395808044,-5.25460643942932,0.991611491322892,-1.65546688038006,10.3526120057273,-5.93578377494256,-2.54735457809245,127.300440762683,630.00883065909
0.59,1.95469235493233,-0.0097910599368628,7.44381545215238,0.502508028583784,1.95440041625878,0.0351721511015114,7.44971298983631,-0.405806818027908,-1.55781084090515,142.287292060198,630.00883065909
0.6,1.92139327608169,0.12169846070883,7.45195076651474,-6.06272783848183,0.968628450511826,1.66382738334537,-2.08721002915517,9.37719538904124,-0.463951004784067,156.227128125894,630.00883065909
0.61,1.8769380865921,0.0781698527386968,7.81480955920693,-3.90299726188174,-1.20265663319674,1.4431299766151,-8.14025973752354,3.16872331997944,0.73638152080728,170.982990698572,630.00883065909
0.62,1.80109979655333,0.0800429778848636,9.9891814744809,-3.97308022447424,-1.64371681379,-0.740649979084024,-7.12473230921985,-8.05029828777664,2.03855658734836,184.367897519621,630.00883065909
0.63,1.84109486697659,0.0162634911692322,6.23244238624321,-0.797576531354341,0.529829901994157,-1.76328531023922,2.60793689193638,-5.71647895027047,-2.84086325821413,198.267015552302,630.00883065909
0.64,1.74338815054792,-0.0222006424467164,9.51160116783971,1.12574652815442,1.6922346084343,0.419806076674885,9.51730359114697,1.07647311886665,-1.34036098272835,211.445166287169,630.00883065909
0.65,1.65145168290417,-0.0357894855356643,12.479176920162,1.82438198711815,-0.455711276385493,1.58773448057823,-1.41800010050805,12.531859477132,0.257838113690177,224.274395806628,630.00883065909
0.66,1.65302433956185,-0.0271584137565597,10.7637216287245,1.37205928377423,-1.52611550015203,-0.635766094422618,-10.5094220614407,-2.70042550598339,1.94909498154188,237.1655940725,630.00883065909
0.67,1.57735726560505,0.0972111960748997,13.0012944411919,-4.86258335145085,0.797261567253712,-1.36450721998072,11.2766501842233,-8.09416670319013,-2.55125688562491,249.553096876359,630.00883065909
0.68,1.51159355081941,0.0231034812271412,14.7664905001041,-1.11370673493988,0.965711920247134,1.16312051001443,8.3904104837116,12.2020734424907,-0.677648680052078,261.477196108961,630.00883065909
0.69,1.57394666916058,-0.00845539579720633,10.1110364486495,0.457363142057015,-1.51201896717796,0.437239355472346,-9.56843241217503,3.29959698800769,1.2839272506972,273.408167776916,630.00883065909
0.7,1.53453677305695,0.0441035670484483,10.5636407646785,-2.1885000562931,0.246012428164774,-1.5153303658539,4.14094198287531,-9.9615580205123,-2.95191510094446,285.136988401487,630.00883065909
0.71,1.53463747012297,0.0761550204812314,9.07973161934895,-3.80355876672257,1.17432867869826,0.990890461270428,4.04673065028312,8.97399334830244,-0.820333293190069,296.60902608222,630.00883065909
0.72,1.49789300138623,-0.0286585037332154,9.47643299865833,1.43795231731439,-1.47954565351718,0.235476989526594,-9.07530494915479,3.08372004643367,1.39383493625594,307.722277446106,630.00883065909
0.73,1.3894665738796,0.00365435758283428,13.4852849038095,-0.182845663932496,0.719691372586048,-1.18856007104532,7.17131736131363,-11.4218452439636,-2.59449757415181,318.549214319714,630.00883065909
0.74,1.34375541483633,0.00313367264720699,14.3867617578235,-0.156950771009653,0.29777885113901,1.31034964441578,3.00227213763658,14.0708887221975,-0.221124342958024,329.123699496537,630.00883065909
0.75,1.31232599894183,0.0794522397722774,14.5831550833372,-3.97789535026138,-1.08653634205725,-0.740237099375833,-9.09951811549569,-12.0702457998195,2.22931801166755,339.488694817107,630.00883065909
0.76,1.25503122774692,0.0240737909101589,16.10353144832,-1.20736748914563,1.25492437598511,0.0291159850790153,16.037925439135,1.88849383626805,-1.52841962826666,349.589985520645,630.00883065909
0.77,1.18013386864396,-0.00487053982653274,18.5305497310143,0.238940212774315,-1.03757721194672,0.562292805687246,-16.1406869517707,9.10585473658637,1.07004396655683,359.469661958217,630.00883065909
0.78,1.2408524169681,0.077829038601301,14.1897317827625,-3.89876888951424,0.634838114790681,-1.06899609351681,11.2159795057867,-9.52631569109255,-2.5430570807299,369.133755556774,630.00883065909
0.79,1.26558247435586,0.0807367203311575,11.674144779227,-4.03768114267658,-0.168547428214532,1.25690460332071,-6.24464932315049,10.6579960671392,0.197009802545174,378.537479044252,630.00883065909
0.8,1.1212631035758,0.08897862443037,17.6364882645265,-4.44049897978116,-0.240513258158497,-1.09877273159464,2.00282502528818,-18.0762950134229,3.00528859244063,387.724431375118,630.00883065909
0.81,1.15835215273591,0.067442730008764,14.5596040306314,-3.34199151642391,0.516160760900519,1.03918540236358,2.63343959977679,14.7042841613917,-0.40284476019137,396.683378921704,630.00883065909
0.82,1.15183616659986,0.0490711686372952,13.6808171549132,-2.40367484501603,-0.694678232796158,-0.920085152123485,-5.79307407886791,-12.6246862734675,2.53746637840112,405.454626783776,630.00883065909
0.83,1.03608252353713,0.0225294266444549,18.2720495529863,-1.08374934284656,0.716254779431364,0.74896839825571,11.539268673888,14.2087151416564,-0.741333765687143,414.164487176712,630.00883065909
0.84,0.998465118940978,0.0462665840737742,18.9747028250822,-2.32503352287853,-0.759120610025396,-0.650237718052673,-12.2313116242047,-14.6914990431299,2.32539516556738,422.584627590281,630.00883065909
0.85,1.09692213778525,-0.0362240826257877,12.8982359934303,1.83401597465926,0.785259915294642,0.766757605737886,10.7581745129574,7.3477743219481,-0.830330444175574,430.746062512853,630.00883065909
0.86,0.982282245729091,0.0227393603047103,17.5167486294163,-1.08687202948092,-0.710411737629093,-0.678756695598995,-11.6129106575153,-13.1589543435333,2.35655677297162,438.670439161565,630.00883065909
0.87,0.880512254811573,0.0895078240954703,21.4960142497403,-4.49465228711324,0.624424528194261,0.627222042052925,10.0578917434371,19.5222780813201,-0.681856833483294,446.579467125903,630.00883065909
0.88,0.905447186752478,0.0899043682573654,19.13790125651,-4.49576417530291,-0.529304750506551,-0.740103968723943,-5.64296701272008,-18.8315714510823,2.61972214980027,454.266413936546,630.00883065909
0.89,0.898519683748362,-0.0503700684943553,18.414425431126,2.57227902038241,0.222844948055623,0.871903030737633,8.00390321740008,16.7822887772703,-0.30622810421387,461.678422067186,630.00883065909
0.9,0.850814194541493,-0.0340626473198947,19.7362579380115,1.68828610735929,0.00309101907062309,-0.851490166224387,-2.40509181712053,-19.6617832539992,3.10520878213095,469.075565827271,630.00883065909
0.91,0.947655370878345,0.0380097234099397,13.841954708676,-1.879074247005,-0.231418214710129,0.919750537335342,-5.71520186543239,12.7462581889805,0.286580897509198,476.19027440497,630.00883065909
0.92,0.855976233034034,0.0792751867712375,17.410430043395,-3.910686172639,0.463172831435322,-0.724189750671008,13.7794847623074,-11.3376514464928,-2.48023150340826,483.186437735304,630.00883065909
0.93,0.87840648354831,0.0498422120258618,15.2678852578567,-2.4944660304599,-0.754305831706799,0.452885094358881,-14.6748008095921,4.89702993895198,1.08676373239807,489.993220008143,630.00883065909
0.94,0.854743140190821,0.033706925304555,15.4769444309383,-1.62901117889824,0.854378375839613,-0.041947388648363,15.4919329421501,1.47969593337694,-1.5804391747884,496.558708895205,630.00883065909
0.95,0.78176062461009,-0.0572004981673074,18.1387259860633,2.85315563797688,-0.653062546549003,-0.433509955452326,-17.2042486444813,-6.41620651716197,2.08378050958809,503.11435281782,630.00883065909
0.96,0.702915485874648,-0.0353383201075103,21.1427720717638,1.82260030913699,0.298663624393888,0.637290370721479,11.5314639929997,17.8147136082389,-0.488482978031728,509.348560476838,630.00883065909
0.97,0.801488319778804,0.0145366398955495,15.2737499326095,-0.737110091061655,0.0865842616524753,-0.796930364759305,2.65605905291404,-15.0590875752041,-3.0152348689774,515.535475778323,630.00883065909
0.98,0.725571601099674,0.107255569165866,18.1658126151967,-5.31165249737894,0.00146835161781979,-0.733454667571872,7.94540176109479,-17.1779216169519,-2.99283132598028,521.445687974798,630.00883065909
