t,iq,id,vq,vd,ia,ib,va,vb,theta_e,omega,r
0,0,0,0,0,0,0,0,0,0,0,0
0.01,0.000688503131794287,0.000393876482966769,-0.0338968992417328,-0.0197152615462374,-0.000599265499578126,0.000519669228779415,0.0294408549773384,-0.0259022658129373,1.37604873518458,-0.00119348931690632,0
0.02,0.000769095887840364,0.000439741846933746,-0.037926121239631,-0.0220110175023346,-0.000669453702624521,0.000580269865390216,0.032949376471427,-0.0289346531673605,1.37603967621651,-0.00130160559061391,0
0.03,0.000801170520178064,0.000458056588488647,-0.0395091193390979,-0.0229277454333688,-0.0006973718498062,0.000604452267559752,0.0343247512985098,-0.0301407277600241,1.37603025256569,-0.00132247178021711,0
0.04,0.000783208163909139,0.00044792241503705,-0.0386409007000057,-0.0224204942079657,-0.000681705137136408,0.000591039443614704,0.0335708552272239,-0.0294753362448997,1.37602126983466,-0.00125646861369468,0
0.05,0.000801626324736681,0.000458506357825001,-0.0395544667917457,-0.0229502755461644,-0.000697721126640214,0.000604994276102425,0.0343643392060077,-0.0301722253365347,1.3760122971865,-0.00125488537737644,0
0.06,0.000802505593064624,0.000459091387300905,-0.0396088111837539,-0.022979545850207,-0.000698465201210678,0.000605744576114059,0.0344117246201181,-0.0302117635953479,1.3760034961194,-0.00122291715638991,0
0.07,0.000822838481551979,0.000470865817854656,-0.0406154946566755,-0.0235689101765223,-0.000716129189719493,0.000621238093470131,0.0352850277057887,-0.0309851376133322,1.3759950248473,-0.0012266322031945,0
0.08,0.000803386966845695,0.000459773129305311,-0.0396735980370136,-0.0230136750337613,-0.000699187705311674,0.000606595830573966,0.0344681692230418,-0.0302583695888238,1.37598661365795,-0.00116017054264082,0
0.09,0.000802121044449302,0.000459156229915918,-0.0396219724095273,-0.0229827939396936,-0.000698060243145055,0.000605751195095235,0.034423253407405,-0.0302183576612849,1.37597851691631,-0.00112708908039784,0
0.1,0.000801896235655382,0.00045912031662834,-0.0396210424134663,-0.0229809918563152,-0.000697841874545113,0.000605677930942297,0.0344224521493433,-0.030216680437399,1.37597064983144,-0.00109672482426402,0
0.11,0.000801734887569503,0.000459116669266875,-0.0396229390120618,-0.0229808225514404,-0.000697679652978528,0.000605648452292709,0.0344241145395078,-0.0302171447900891,1.37596300168416,-0.00106730706426852,0
0.12,0.000801581442110998,0.00045911485710687,-0.0396249496917419,-0.0229807214607896,-0.00069752495844534,0.000605622153408241,0.0344258820645238,-0.030217690861662,1.375955566142,-0.0010387128501631,0
0.13,0.000839090719983364,0.00048066622612394,-0.0414715912775727,-0.0240594731313357,-0.000730147206182352,0.000634033370259433,0.0360284889272449,-0.0316338286660167,1.37594810350963,-0.00107666648697444,0
0.14,0.000873225149608072,0.000500493789633927,-0.0432273059820535,-0.0250519183747994,-0.000759791948996037,0.000660100287540441,0.0375585860090472,-0.0329477042254039,1.3759408357996,-0.00110938985644173,0
0.15,0.000805232537208642,0.000461404702001418,-0.0398317596786349,-0.0230953433626435,-0.000700650333816265,0.000608590870562187,0.0346059232974658,-0.0303709406648006,1.37593371540211,-0.000961942877404853,0
0.16,0.000801227777763457,0.000459235570850968,-0.0396441207684617,-0.0229867693951096,-0.000697137359016069,0.000605691971268137,0.034442658281169,-0.0302283173407808,1.37592707675219,-0.000929568693401597,0
0.17,0.000800874572812727,0.000459113886762165,-0.039635066150121,-0.0229806769530925,-0.000696810503658358,0.000605508682338424,0.0344347602104797,-0.0302208085794148,1.37592063881266,-0.000904420964075801,0
0.18,0.000800733073304519,0.000459105783146442,-0.0396361491866858,-0.0229802677311243,-0.000696669462603586,0.000605477691313097,0.0344357128673715,-0.0302208323290295,1.37591438074627,-0.000880332921178782,0
0.19,0.000800606721687899,0.000459104015759312,-0.0396377502563198,-0.0229801918910023,-0.000696542161393002,0.000605455727118124,0.0344371144485919,-0.0302212774909376,1.37590829668323,-0.000856934997382445,0
0.2,0.000800484838415054,0.000459102636297523,-0.0396393532139965,-0.0229801158909339,-0.000696419271488322,0.000605434889552449,0.0344385230199639,-0.0302217170555901,1.37590238173761,-0.000834188620412646,0
0.21,0.000800366389391307,0.000459101313885442,-0.0396409131240159,-0.0229800399062477,-0.0006962998395728,0.0006054146571479,0.0344398943206489,-0.0302221426537075,1.37589663120541,-0.000812074574333441,0
0.22,0.000800251039032084,0.000459100029190929,-0.0396424192467212,-0.0229799830156719,-0.000696183537370783,0.000605394949243009,0.0344412139815199,-0.0302225710787904,1.37589104051647,-0.000790575219706847,0
0.23,0.000800138890092585,0.000459098780185339,-0.039643882532109,-0.0229799261338721,-0.00069607046337504,0.000605375786948171,0.0344424963074548,-0.0302229858791092,1.37588560522804,-0.000769673466830913,0
0.24,0.00080002988436515,0.000459097565826776,-0.0396453056779384,-0.0229798692601161,-0.000695960558047229,0.000605357161077636,0.0344437438150352,-0.0302233877239702,1.37588032102018,-0.000749352704419008,0
0.25,0.000799924182809743,0.000459096385152629,-0.0396467022263911,-0.0229797933225946,-0.000695853976925041,0.000605339104883907,0.0344449733573835,-0.0302237606691562,1.37587518369362,-0.000729596783106716,0
0.26,0.000807913974308022,0.000463724971810469,-0.0400443630485352,-0.0232114743286211,-0.000702792925624778,0.000611431061571596,0.034790078139202,-0.030528249467327,1.37587022388747,-0.000724843872405121,0
0.27,0.000783139161014889,0.000449530459082528,-0.0388373214839287,-0.0225009771616683,-0.000681233747119727,0.000592710014208692,0.0337433676251794,-0.0295975785257501,1.37586525775636,-0.000662083936726704,0
0.28,0.000781443830662917,0.000448568277274934,-0.038689928919772,-0.0224528320761624,-0.000679754102491811,0.000591440884623382,0.0336079526294165,-0.0295219543410705,1.37586053087289,-0.000641078915939488,0
0.29,0.000798492556093315,0.000458508326695546,-0.0396010985327295,-0.022950369755712,-0.000694551777075325,0.000604498202434957,0.0344053537973814,-0.0301867207062951,1.37585601968555,-0.000654066375094166,0
0.3,0.000793148119928457,0.000455553307030394,-0.0393445775091454,-0.0228024490513143,-0.000689878525049675,0.000600566712670341,0.0341822223243282,-0.0299920512649791,1.37585193279659,-0.000629040885282122,0
0.31,0.000798996587955991,0.000458893860717165,-0.0396365431607761,-0.0229696695834156,-0.000694966494051885,0.000604979912984268,0.0344361344946491,-0.0302128104547358,1.37584761089828,-0.000622928580726433,0
0.32,0.000799248015151147,0.000459078195800946,-0.0396542605565102,-0.0229788879502526,-0.00069517489192977,0.000605212400082262,0.0344516027826028,-0.0302254319642188,1.37584338429251,-0.000607273938468335,0
0.33,0.000799182504830652,0.000459087526976354,-0.0396563060632642,-0.0229793652270291,-0.000695106327206712,0.00060521172107772,0.0344533928360267,-0.0302264380783927,1.37583927375469,-0.000591500748688178,0
0.34,0.000799101264176666,0.000459087177973283,-0.0396574345931684,-0.0229793360532962,-0.000695024274600891,0.000605198417962013,0.0344543848419119,-0.030226765773519,1.3758352773934,-0.000576134429186796,0
0.35,0.000799021201309642,0.000459086316198783,-0.039658478004105,-0.0229792997450754,-0.000694943544149838,0.000605184762124539,0.0344552980791859,-0.0302270661601577,1.37583139211197,-0.000561193436347931,0
0.36,0.000798943233915834,0.000459085449368777,-0.0396594852178891,-0.0229792619827061,-0.000694864935922479,0.000605171431635261,0.0344561793494386,-0.0302273543939447,1.37582761482619,-0.000546667644616735,0
0.37,0.000798867697574427,0.000459084604991379,-0.0396604768729117,-0.0229792051739566,-0.000694788771985452,0.000605158520629846,0.0344570522178113,-0.0302276173171585,1.37582394253506,-0.000532545609700243,0
0.38,0.000798794037545723,0.000459083783961268,-0.039661429046604,-0.022979167413508,-0.000694714506160997,0.000605145924587017,0.0344578857465317,-0.0302278877680164,1.37582037231987,-0.000518816114186576,0
0.39,0.00079872247299209,0.000459082985716057,-0.0396623564206437,-0.0229791296528707,-0.000694642351842686,0.000605133687430333,0.0344586979438548,-0.0302281500005508,1.37581690134323,-0.000505468247266122,0
0.4,0.000798652887498207,0.000459082209628411,-0.0396632567613228,-0.0229790918920443,-0.000694572193265543,0.000605121787947535,0.0344594865351509,-0.0302284036765323,1.37581352684692,-0.000492491401112074,0
0.41,0.000798585281064072,0.000459081455084561,-0.0396641335652415,-0.0229790541309337,-0.000694504028918084,0.000605110227439009,0.0344602548698349,-0.030228649565267,1.37581024614903,-0.000479875262737536,0
0.42,0.000798519479066705,0.000459080721487337,-0.0396649815068604,-0.0229790163696909,-0.000694437686017307,0.000605098973333474,0.0344609976445582,-0.0302288867244537,1.3758070566423,-0.000467609805817694,0
0.43,0.000798455597921425,0.000459080008256011,-0.0396658097216728,-0.0229789786078394,-0.000694373277344617,0.000605088049412724,0.034461723745281,-0.0302291170105815,1.37580395579215,-0.000455685282722105,0
0.44,0.00079839346300525,0.000459079314825387,-0.0396666126799208,-0.0229789408457013,-0.000694310630197975,0.000605077423032915,0.0344624276725685,-0.030229339437078,1.37580094113382,-0.000444092216767355,0
0.45,0.000798332855156901,0.000459078640647051,-0.0396673825567218,-0.0229789206615722,-0.000694249528220493,0.000605067052884998,0.0344630982714657,-0.0302295698150577,1.3757980102718,-0.000432821394686102,0
0.46,0.000798274154491609,0.000459077985186759,-0.0396681414456537,-0.0229788828967992,-0.000694190343012088,0.000605057013744314,0.0344637639589824,-0.0302297780130246,1.37579516087689,-0.000421863859304776,0
0.47,0.000798217083640101,0.000459077347925336,-0.039668878361568,-0.0229788451313898,-0.00069413280118527,0.000605047252957783,0.0344644104834521,-0.0302299792270089,1.37579239068471,-0.000411210902426641,0
0.48,0.000798161423444171,0.000459076728358249,-0.0396695852755508,-0.0229788263948495,-0.000694076686496055,0.000605037729118769,0.0344650262142491,-0.0302301906456104,1.37578969749325,-0.000400854057909645,0
0.49,0.000798107612220589,0.000459076125994575,-0.0396702868959495,-0.0229787886263815,-0.000694022427749204,0.000605028528189984,0.0344656427019058,-0.0302303797906581,1.37578707916267,-0.000390785094938551,0
0.5,0.000798054978822484,0.000459075540357382,-0.0396709523217887,-0.0229787698846187,-0.000693969365347554,0.00060501952112051,0.0344662221935212,-0.030230578083039,1.37578453361197,-0.000380996011483801,0
0.51,4.06447446376327,-0.0366016582428047,6.55333244831053,1.83549296390444,-0.28643105105261,4.05453444934961,1.42909771954082,6.65378691472951,0.0615224320987569,18.8914433280358,500.61307669089
0.52,3.88088538173703,-0.00752016950835049,8.05685599379272,0.383157005006292,-1.06432653473718,3.73209551412929,-1.82588856961606,7.85658123655223,0.275869751016979,39.4606790829601,500.61307669089
0.53,3.78386931270416,0.0318705747681909,5.44412700419148,-1.58508541834979,-2.2303165348767,3.05685636944491,-4.51830780113454,3.42577133437694,0.638746598128909,59.4684623829438,500.61307669089
0.54,3.66612693326052,0.00057494424118687,3.877801952033,-0.0151946258720234,-3.34244426921439,1.50617174602863,-3.54192054559456,1.57872660854927,1.14758387584467,79.3774727296808,500.61307669089
0.55,3.47535057866417,-0.0479586687767175,5.70625777557268,2.41546075848711,-3.37028525525403,-0.849434504096406,-6.10988621837553,1.03204596582688,1.80389187736978,99.8007080539574,500.61307669089
0.56,3.31035505861126,-0.0293969710977477,6.48352669203597,1.48640249896014,-1.65702915916144,-2.86593251170916,-4.57511753408706,-4.82843766704583,2.60849060495525,119.248575630845,500.61307669089
0.57,3.19008281021416,0.00514134616784401,6.00336175184172,-0.23931466613382,1.25209342677008,-2.93409557105822,2.58514484189952,-5.42352744800864,-2.73663819583557,136.385527643699,500.61307669089
0.58,3.13894623406926,-0.0203568428604147,2.42520104655409,1.04130973272018,3.12347401107366,-0.311942243975119,2.30138398413251,-1.29211370755177,-1.67682170477589,152.797144507512,500.61307669089
0.59,2.91569830628066,-0.00964983418822474,7.02421809938282,0.500843870319048,1.37319113584464,2.57210727555938,3.76966865930981,5.94811589405845,-0.493690773544156,170.11364567519,500.61307669089
0.6,2.81223295586227,0.0257066336860008,6.2371327461425,-1.26566692102396,-2.02246939530042,1.95420893819634,-5.3959034314516,3.37460572607026,0.811702422096303,185.634677539971,500.61307669089
0.61,2.69872812110757,-0.00856376791140101,6.4257235190485,0.454274547186766,-2.13506205900364,-1.65067162512135,-5.3727571619872,-3.55383857058674,2.22576118285034,200.27543499533,500.61307669089
0.62,2.63150061303957,0.0184976093395717,3.94295854405306,-0.905505408969427,1.49061004201882,-2.16869069731291,2.99882314836603,-2.71549661215365,-2.53239035888003,215.491882664931,500.61307669089
0.63,2.51701533672356,0.00170027023383723,4.63040298574387,-0.0586644776816672,1.97837737114596,1.55608228367207,3.60126846100074,2.91117481493791,-0.903638328936976,228.779496912231,500.61307669089
0.64,2.36706426001993,0.0172554759962402,6.81758366529554,-0.844164415272175,-1.72590857859189,1.6200402898874,-5.57792135096749,4.00984463486272,0.824318040400481,242.69514546391,500.61307669089
0.65,2.29217135406184,0.0509470409118062,5.85956112477157,-2.52360522785764,-1.12852295238103,-1.99576578368018,-0.546329795716106,-6.35645842236992,2.64918142434505,255.013479811642,500.61307669089
0.66,2.20416310166329,-0.00922568398651868,5.38253939041686,0.481686958546466,2.18172055772896,-0.313871789050569,5.25384720586004,-1.26524391043762,-1.71786584338351,267.780312903278,500.61307669089
0.67,2.15607386647635,0.000684310816656541,3.46527560852339,-0.00581599067767041,-0.609456112192503,2.06814366843669,-0.986160546294778,3.32199582265034,0.286893241790512,279.114408957853,500.61307669089
0.68,2.04396055826391,-0.0135765929255035,4.55827103478864,0.700877780881487,-1.40566108021592,-1.48393935697528,-3.6622526107512,-2.80302877355415,2.37663532154307,290.808723128705,500.61307669089
0.69,1.95844230575854,-0.0474770053791392,4.79117006461294,2.40489414950017,1.93952319751481,-0.275681151561923,4.32972878329885,-3.16105601364747,-1.7362266396659,301.482738885363,500.61307669089
0.7,1.8631388143303,0.0475474726992395,5.49110990649462,-2.35548198892106,-0.87373564531241,1.64624816650914,-4.74891967687321,3.62606471370015,0.513453467810309,311.917731784692,500.61307669089
0.71,1.82732948736891,0.022100634527196,3.35735778802411,-1.08791540638466,-0.569008128598744,-1.73662063878182,0.0311533817379761,-3.52908496852393,2.83705742388995,322.149288947034,500.61307669089
0.72,1.72057178504976,-0.021477783216124,5.11205141495664,1.10305752438319,1.48212766665326,0.874143090358875,4.98379717721607,1.58479376186042,-1.05040078458323,331.482626936642,500.61307669089
0.73,1.66518466300509,0.029418572709539,4.24341876951135,-1.44906407358291,-1.64045700402705,0.287412999473276,-4.4168558873716,-0.773158206954291,1.41501870809965,340.809334653454,500.61307669089
0.74,1.60021041579446,0.0371869724438471,4.01611791175814,-1.84447788608962,1.12715200487804,-1.13647903792196,4.17265973652598,-1.45609494078963,-2.3370802329116,349.814582514571,500.61307669089
0.75,1.54135075155451,0.0222987745155659,3.77318564913027,-1.09164677021678,-0.370738526701727,1.49626612588857,-2.01604362673957,3.37108153399026,0.25735022463182,358.123038345178,500.61307669089
0.76,1.47779421641261,0.0439419074953658,3.79854805033165,-2.1742864673749,-0.377787921764945,-1.42936451735217,1.25662322482696,-4.19253944569559,2.91292264136674,366.151413326396,500.61307669089
0.77,1.3668472932209,-0.0372857845596863,6.25494543737089,1.88496207699568,0.804773212755821,1.10544191559132,5.31102761525642,3.80399922794189,-0.656550508767078,374.074024368321,500.61307669089
0.78,1.32520775268665,0.0494180618686451,5.40668968294482,-2.46020640036028,-1.16070045820711,-0.641398611580555,-3.36216973301699,-4.8970116955568,2.11290409475174,381.623044233722,500.61307669089
0.79,1.29506686162985,0.00948034054009188,4.17442852085351,-0.455769995739001,1.2649292541018,0.277924513251379,3.96944635041024,1.37006402622141,-1.34719722424579,388.689106638187,500.61307669089
0.8,1.2397450761148,0.0526715814087734,4.26123847022062,-2.61220186735746,-1.23631091771115,0.106195404736802,-4.37013889473323,-2.42562114450172,1.52756993046024,395.471984798806,500.61307669089
0.81,1.20738149104689,0.0347974728471561,3.26963540357516,-1.72121867703535,1.15758028845636,-0.34494753922364,3.60289121574356,0.819929444528781,-1.83159558026135,402.088312201389,500.61307669089
0.82,1.10396529257407,-0.0139466924634418,5.92733507696557,0.71258332515038,-1.0087385294223,0.448754338918024,-5.08691332239342,3.12480222740019,1.13958671768134,408.467926389079,500.61307669089
0.83,1.09344865875782,-0.0469174337622181,4.06490946195734,2.35939229223626,0.95322952726372,-0.53775894533024,2.20519988034457,-4.15058000890267,-2.12731540288707,414.549774016465,500.61307669089
0.84,1.07530329007125,0.00995404357827884,2.6988296779316,-0.488832444203514,-0.857628870598948,0.64872873293603,-2.45866787782341,1.21556203278552,0.9324549452679,420.345206193183,500.61307669089
0.85,1.01094091836657,0.0525688621522426,3.73700406500768,-2.60944200657434,0.754170723400039,-0.675271460719382,4.54712847551789,-0.313064841036127,-2.24910145855503,425.848920933883,500.61307669089
0.86,0.960280171652278,0.0399074912635516,4.15441270244496,-1.97609782568922,-0.722638832136993,0.633659004682457,-4.4746803033866,1.06833688573111,0.892443491225276,431.125849957478,500.61307669089
0.87,0.935138256382612,-0.00578568140774899,3.38006793591983,0.309131287767725,0.753327512566467,-0.554089064564609,2.5257156719703,-2.26741741831404,-2.21115393473408,436.20647131079,500.61307669089
0.88,0.87150023370733,0.0175127898121666,4.60977325103109,-0.860882259655312,-0.726162643751665,0.482189972913715,-4.35241066047607,1.74575173878911,1.00471725598104,441.084231811211,500.61307669089
0.89,0.855159125302451,0.011085587943422,3.54835506637884,-0.542337720340105,0.762530328682498,-0.387256397865117,3.42358765653367,-1.07888898318149,-2.0277473341443,445.772775059781,500.61307669089
0.9,0.792000018788226,0.0261962437042547,4.89248703529358,-1.30245587012648,-0.74511128770743,0.269739581588869,-5.05548184587547,0.273722469238973,1.25652431821504,450.286960098178,500.61307669089
0.91,0.791388556351476,0.000758988089714252,3.18993764193161,-0.0312532207589057,0.783602917539372,-0.110737937540743,3.16332392570002,-0.41238412228626,-1.71022656544996,454.588660336116,500.61307669089
0.92,0.677092213770467,0.0186493592256514,7.24536950046977,-0.930354594398421,-0.676842637062496,-0.0261860497671102,-7.16794672520566,-1.40765003259664,1.63700192148825,458.698253909539,500.61307669089
0.93,0.69073167810558,-0.0210311370827744,4.98048504429402,1.05547093794098,0.653398981119251,0.224994069561555,5.06939736852929,0.469532211059803,-1.26960726806096,462.59662079013,500.61307669089
0.94,0.691695259701513,-0.00262759273961705,3.41808714663066,0.134089457793368,-0.583095954685899,-0.372086474043452,-2.96007590252168,-1.71442421120431,2.13497747780583,466.332656859216,500.61307669089
0.95,0.658161065912647,-0.0264466044911612,3.63547045181495,1.32612905252914,0.412423668366681,0.513597244291043,3.38807714545177,1.8698120029695,-0.716734516540519,469.899467315445,500.61307669089
0.96,0.589281253526025,0.0292202048148461,5.67607705563405,-1.45492546500907,-0.257031954371571,-0.53107512703812,-0.877289469462534,-5.79353277689851,2.74038520226521,473.317445375598,500.61307669089
0.97,0.563572824492895,0.0778914786449005,5.61617475631237,-3.88484303840038,0.112134767017144,0.557769849470549,-3.53491296874374,5.84275745088358,-0.061056536135583,476.569024830057,500.61307669089
