t,iq,id,vq,vd,ia,ib,va,vb,theta_e,omega,r
0,0,0,0,0,0,0,0,0,0,0,0
0.01,0.000747090800291809,0.000426741738725556,-0.0368593609271779,-0.0213621407329362,-0.000539970320218468,0.000669839703760782,0.0265283127262578,-0.0333346991669583,1.19743804049666,-0.000917423147361614,0
0.02,0.000830586264206907,0.000474280834720499,-0.0410419939486974,-0.0237418843226191,-0.000600368826263678,0.000744562371412317,0.0295545402257182,-0.0370762928367972,1.1974311339132,-0.000990327772581204,0
0.03,0.00086354559023059,0.00049310718587662,-0.0426737386515069,-0.0246843093554095,-0.0006241849808292,0.000774118074247791,0.0307298411043659,-0.0385491888961505,1.19742400749421,-0.000998521704365337,0
0.04,0.000844512344762504,0.000482453756414715,-0.0417520115071322,-0.0241510278595643,-0.00061034389873253,0.000757260227936808,0.0300658831703399,-0.0377166446115322,1.19741727732168,-0.000943052020398512,0
0.05,0.000863671701410693,0.000493472442291618,-0.0427053858452332,-0.0247026034412368,-0.000624158775489063,0.000774512544829901,0.0307521170736991,-0.0385781789675297,1.19741058249315,-0.000935875183456891,0
0.06,0.000864313232645605,0.000493968716577888,-0.0427492425433333,-0.0247274372905728,-0.000624570022501769,0.000775212708923197,0.0307836414705548,-0.0386175000589148,1.19740406134433,-0.000906175783383899,0
0.07,0.000886899924286326,0.000507061997136531,-0.0438699997643236,-0.0253828756814782,-0.000640819308239912,0.000795646880736736,0.0315878378554967,-0.0396367980139412,1.19739782577894,-0.000905466612998008,0
0.08,0.000864915142698328,0.00049457933984822,-0.0428022507347711,-0.0247580148007647,-0.000624898103797601,0.00077600856138559,0.0308213641949642,-0.0386656885881847,1.19739167279128,-0.000848977657904128,0
0.09,0.000863655939736529,0.000494012728892828,-0.0427515719547613,-0.0247296523340974,-0.000623927805198425,0.000775025323747942,0.0307842967434901,-0.0386209746533824,1.19738579040754,-0.00081987162060757,0
0.1,0.000863374752995483,0.000493985214219596,-0.0427485256934778,-0.024728272244143,-0.000623671631883948,0.000774900672061139,0.0307817445336133,-0.0386187532244861,1.19738011134317,-0.000792949074848593,0
0.11,0.000863146943234636,0.000493982149896691,-0.0427477323450252,-0.0247281115183411,-0.000623456388967559,0.00077481813420143,0.0307808526529957,-0.0386184830082694,1.1973746259513,-0.000766999805704162,0
0.12,0.000862928734753368,0.000493980253414369,-0.0427470551099088,-0.0247280296101208,-0.000623249805355092,0.000774740067475029,0.0307800473535556,-0.0386183227740598,1.19736932750473,-0.000741937482258292,0
0.13,0.000903723414155499,0.000517406907642466,-0.0447600263734289,-0.0259007277998917,-0.000652682478831228,0.000811437920728218,0.032226265272968,-0.0404447213869799,1.19736402400979,-0.000768533015942898,0
0.14,0.000943777599608774,0.000540706256379087,-0.0468108532085175,-0.0270670725409871,-0.000681471901681352,0.00084774728571054,0.0337100358443659,-0.0422790240831077,1.19735890149025,-0.000795042250567831,0
0.15,0.000866099018044976,0.00049608873115729,-0.0429319084232584,-0.024833559448876,-0.000625420418780843,0.000777869422211541,0.0309130649764018,-0.0387844923845686,1.19735391110178,-0.000673810094261367,0
0.16,0.000862283386029693,0.000494068902251159,-0.0427532845693473,-0.0247324481214425,-0.000622601085516218,0.000774599642595144,0.0307834623290288,-0.0386253256113744,1.19734930794263,-0.000647467158400942,0
0.17,0.00086193094415263,0.000493976061493659,-0.0427443789544486,-0.0247278182248862,-0.000622303371131731,0.000774387381156689,0.0307766883288176,-0.0386179023494978,1.1973448718207,-0.000626269968300893,0
0.18,0.000861746786969163,0.000493970439447511,-0.0427434480362809,-0.0247275298679592,-0.000622130640788343,0.00077431762584351,0.030775761322234,-0.0386174260980447,1.19734058735497,-0.00060599399667695,0
0.19,0.00086157630873753,0.000493968811151324,-0.0427429114351217,-0.0247274364995119,-0.000621969303115262,0.000774256487315641,0.0307751359572737,-0.0386172707554453,1.19733644892347,-0.00058641832432272,0
0.2,0.00086141170648315,0.000493967410225485,-0.0427423952411077,-0.0247273753282583,-0.000621813463135404,0.000774197615273155,0.0307745232940966,-0.0386171484912173,1.19733245152838,-0.000567510214607753,0
0.21,0.000861252808577792,0.000493966064710892,-0.0427419004728554,-0.0247273141673322,-0.000621663020014958,0.000774140790111838,0.0307739358382057,-0.0386170298571423,1.19732859036204,-0.000549246502202973,0
0.22,0.000861099323983151,0.000493964765298125,-0.0427414215407338,-0.0247272530160897,-0.000621517702532916,0.000774085899986867,0.030773368206103,-0.0386169129565794,1.19732486078202,-0.000531605207013629,0
0.23,0.000860951078076245,0.000493963510087172,-0.0427409584253784,-0.0247271918738455,-0.000621377345281905,0.000774032882317476,0.0307728202067286,-0.0386167979202089,1.19732125830403,-0.00051456511653578,0
0.24,0.000860807896234091,0.000493962297562717,-0.0427405108116455,-0.0247271307401448,-0.000621241782835529,0.000773981674777726,0.0307722913794393,-0.0386166847662961,1.19731777859615,-0.00049810574204176,0
0.25,0.000860669662041368,0.00049396112627568,-0.0427400809768086,-0.0247270696139908,-0.000621110904056237,0.000773932236240606,0.0307717836832294,-0.0386165744538772,1.19731441747487,-0.000482207293086042,0
0.26,0.000869320530310662,0.000498972081770208,-0.0431709140164613,-0.0249779077332121,-0.000627334590292139,0.000781756122220158,0.0310812698540271,-0.0390074141158665,1.19731119555467,-0.000478035430364421,0
0.27,0.000841345410828344,0.000482975975851197,-0.0418034787325632,-0.0241771578888821,-0.000607121980135205,0.00075665764702938,0.030100145687237,-0.0377630378456885,1.19730797692958,-0.000427725244254132,0
0.28,0.00083878022848579,0.000481503326604666,-0.0416132088573532,-0.024103450551362,-0.000605268670002079,0.00075435241256587,0.0299497720298953,-0.03762507987028,1.19730494150514,-0.00041029245911928,0
0.29,0.000859155914154357,0.000493393436720176,-0.0426890888379124,-0.0246986429675683,-0.000619899100442825,0.000772859025628304,0.0307342025934882,-0.0385718817429616,1.19730207812832,-0.000422572816465841,0
0.3,0.000854041747224345,0.000490596485898463,-0.0424427971230932,-0.0245586337477509,-0.000616156090720792,0.000768390454030764,0.0305558787022804,-0.0383517378474529,1.19729954098452,-0.000404258902433771,0
0.31,0.000859664102429633,0.000493803024351533,-0.0427239880073207,-0.0247191551350368,-0.000620218738462995,0.000773429060951448,0.0307590084010104,-0.0386038752462272,1.19729681825329,-0.000398606343448096,0
0.32,0.000859823725451277,0.000493947195060349,-0.0427368242548135,-0.0247263570905565,-0.000620312705026857,0.000773623175932032,0.0307682296716348,-0.0386153457220062,1.1972941722371,-0.00038642864511905,0
0.33,0.000859731065248459,0.000493952867102284,-0.0427371039600527,-0.0247266453113549,-0.000620222385888783,0.000773596232872318,0.0307682862023197,-0.0386157947920025,1.19729161564335,-0.000374351524205816,0
0.34,0.000859630022759675,0.000493952302959872,-0.0427368067011704,-0.0247266192661804,-0.000620126605386539,0.00077356037057293,0.0307679235800108,-0.0386157380600509,1.19728914614154,-0.000362671267086823,0
0.35,0.000859532007054202,0.000493951484648032,-0.0427364983498497,-0.0247265815804552,-0.000620033800999944,0.000773525323408472,0.0307675581277931,-0.0386156638517905,1.19728676079726,-0.000351388377253907,0
0.36,0.000859437134554224,0.0004939506818186,-0.0427361897527444,-0.0247265380730551,-0.0006199439804992,0.000773491386741083,0.0307671977106217,-0.038615581630947,1.19728445674397,-0.000340489969280398,0
0.37,0.00085934563810151,0.000493949905752567,-0.0427358979426995,-0.0247264974739897,-0.000619857354396656,0.00077345865779461,0.0307668548945017,-0.0386155058260373,1.19728223121157,-0.000329962970991643,0
0.38,0.000859257168446388,0.000493949156074221,-0.042735610597818,-0.0247264568736813,-0.00061977359557464,0.0007734270104809,0.0307665191653962,-0.0386154293144549,1.19728008152399,-0.000319794726408438,0
0.39,0.000859171606179382,0.000493948431911181,-0.0427353267747413,-0.0247264367553992,-0.000619692591161834,0.000773396402054927,0.0307661820709419,-0.0386153709025348,1.19727800509647,-0.00030997300948954,0
0.4,0.000859089190119828,0.000493947732396917,-0.0427350632366548,-0.0247263961491111,-0.000619614561882563,0.000773366920435493,0.0307658740717034,-0.0386152986388523,1.1972759994324,-0.000300486010784038,0
0.41,0.00085900956802722,0.000493947056693327,-0.0427348070572813,-0.0247263555412794,-0.000619539178211574,0.000773338437838984,0.0307655755641771,-0.0386152269549426,1.19727406212016,-0.000291322323297957,0
0.42,0.000858932387662411,0.000493946403991251,-0.042734545105908,-0.0247263354100422,-0.000619466110679645,0.000773310826453873,0.0307652667606223,-0.0386151701973012,1.19727219083039,-0.00028247092878096,0
0.43,0.000858858120673441,0.000493945773508241,-0.0427343053548873,-0.0247262947963293,-0.000619395796948068,0.000773284259077112,0.0307649885635948,-0.0386151005074648,1.19727038331307,-0.000273921184476983,0
0.44,0.000858786178997527,0.000493945164488892,-0.04273406258627,-0.0247262746557439,-0.000619327688087555,0.000773258521794138,0.0307647024653628,-0.0386150468819633,1.19726863739487,-0.00026566281032846,0
0.45,0.00085871703428155,0.000493944576203195,-0.0427338444315256,-0.0247262340359877,-0.000619262221856719,0.000773233787354726,0.0307644490545616,-0.0386149813397541,1.19726695097673,-0.000257685876615799,0
0.46,0.000858649865633246,0.000493944007946116,-0.0427336138266161,-0.0247262138866266,-0.000619198632647555,0.000773209756835273,0.0307641788019257,-0.0386149285444465,1.19726532203045,-0.000249980792019257,0
0.47,0.000858585261113653,0.000493943459035884,-0.0427334039276914,-0.0247261732616865,-0.000619137466697872,0.000773186645420674,0.0307639374430608,-0.0386148625326261,1.19726374859793,-0.000242538292084887,0
0.48,0.000858522632662313,0.000493942928815299,-0.0427331890053882,-0.0247261531035553,-0.000619078175266355,0.000773164239103791,0.0307636860095815,-0.0386148120929595,1.19726222878708,-0.000235349428085176,0
0.49,0.000858462216101892,0.000493942416648244,-0.042732984387976,-0.0247261329401419,-0.00061902097672616,0.000773142624495552,0.0307634461725642,-0.0386147638146903,1.19726076077025,-0.000228405556260353,0
0.5,0.000858403836805058,0.000493941921920275,-0.0427327847558973,-0.0247261098616508,-0.000618965707344803,0.000773121738410638,0.0307632139729273,-0.0386147131018756,1.19725934278284,-0.000221698327424238,0
0.51,4.66432024356881,-0.0265984218122671,6.78510362595144,1.33617836333819,-0.271436873466801,4.65649147259299,0.9781202013087,6.84589546409703,0.0525237863865508,16.2057805050081,551.906179006451
0.52,4.67016522841642,-0.00826431958955715,6.49412047748122,0.423687944651302,-1.11059623739995,4.53619747775173,-1.12146665379829,6.4105713313949,0.23833708965277,34.515286223883,551.906179006451
0.53,4.6822756004702,0.0692945311375017,5.88994061266136,-3.45305455653438,-2.42495383432296,4.0060086660174,-6.05151582857125,3.16135135150019,0.559127031774209,53.0872373104787,551.906179006451
0.54,4.61306390251156,-0.00564459301492182,9.35189904925334,0.304546734029517,-3.93129105177285,2.41357434033762,-7.8041089430863,5.16203914602302,1.01896668093808,72.5953641048956,551.906179006451
0.55,4.63016818627569,0.0293100577190715,8.49809418114879,-1.44441401170796,-4.62441906184483,-0.232518500617128,-8.40283624827434,-1.92257107373954,1.62736475646634,93.3307919585886,551.906179006451
0.56,4.50638652777937,0.0549489037844184,7.33703395359206,-2.72191596000854,-3.14454167210854,-3.22837367604052,-3.08206810045453,-7.19317384425488,2.38154110913122,112.015606962896,551.906179006451
0.57,4.29959869497642,0.0232778943248545,10.2504093671671,-1.12919404014126,0.51351394688052,-4.26888676642592,2.39966383525664,-10.0293362119613,-3.01646173093966,129.544978161831,551.906179006451
0.58,4.17611080869218,0.0169697455397949,8.3358385587328,-0.817371573255916,3.79272141905661,-1.74798561097298,7.92372005822302,-2.71458306281785,-1.99859679656895,148.188076400016,551.906179006451
0.59,4.01547205536375,-0.0395926124908925,9.24803067467041,2.0228976059152,2.99297241268819,2.67725597193441,8.28697350984387,4.57648949860133,-0.850880094489165,164.625396683151,551.906179006451
0.6,3.85033082191019,0.0171291693819813,10.2504139471036,-0.821994486153623,-1.5428071834205,3.52775946478518,-4.90063530457864,9.0404886280422,0.416719355435126,181.539565779274,551.906179006451
0.61,3.75070227722424,0.0227181482674023,8.48800980512115,-1.09128304589417,-3.65326021161477,-0.849690245247166,-8.00189413365428,-3.03428729883609,1.80537456067858,196.985385819759,551.906179006451
0.62,3.62619218767393,-0.00525539321495083,7.85751302014226,0.302418901166265,0.601958512648956,-3.57588357614656,0.994842262855875,-7.80014467337136,-2.97626715501595,212.787791797958,551.906179006451
0.63,3.4952352249441,0.0208441728476874,8.23062571597161,-0.991182824052563,3.42502081829327,0.697378054923916,7.85165574133983,2.66029043275264,-1.36396582740679,227.103217683138,551.906179006451
0.64,3.40808956704135,-0.00225219355838835,6.206104755745,0.160710161721465,-1.1889674432441,3.1939686893045,-2.01060585087678,5.87358732869286,0.355700161293598,241.578883193555,551.906179006451
0.65,3.25671213317603,-0.017848771450196,7.70845200392853,0.934694640925233,-2.66606810808809,-1.87044736361487,-6.86712422881177,-3.6244297751109,2.17709815888171,255.555310005145,551.906179006451
0.66,3.11670867943268,0.0657509041913762,9.06221318991593,-3.24042674844122,2.50834936310851,-1.85104825610952,9.27225885878368,-2.57862154400507,-2.18545064877763,268.610262493828,551.906179006451
0.67,3.01708741983965,0.104035926539856,8.43941592283984,-5.15306087119084,0.609051325316556,2.95680510958971,-3.66316847046594,9.1847141609233,-0.168673103809224,281.279623081322,551.906179006451
0.68,2.90253657017872,0.0078947294250562,8.67286132054199,-0.344362059883105,-2.70959387630274,-1.04061611244505,-7.96349190905298,-3.45252158980767,1.94019637768963,293.731708658729,551.906179006451
0.69,2.78799916645823,0.0610377519414326,9.11603843650857,-3.00988709918988,2.30698954164591,-1.56667297610901,9.2877916878586,-2.42868332409066,-2.14546669212994,305.739558966332,551.906179006451
0.7,2.67942732974426,-0.0134694252171443,9.46531599704143,0.716072546566201,-0.381169872976317,2.65221073233847,-0.590091991898702,9.47400434119022,0.137713453145525,317.289494349467,551.906179006451
0.71,2.59453880173458,0.029927058347838,8.83013568285546,-1.45872853918863,-1.56947722045516,-2.06622081999965,-4.08796082122642,-7.96164313774478,2.50351732703306,328.369767995361,551.906179006451
0.72,2.49378556446154,0.0805289267182639,9.16111846726077,-3.99370563763312,2.4431713411449,0.506325139967754,7.96960138736676,6.0300273645922,-1.33416748887415,339.033278366956,551.906179006451
0.73,2.45624686261345,0.0282713698911767,6.49355919978696,-1.37757509602552,-2.26803897708926,0.943370085840037,-6.53827905242758,1.14670452118858,1.18813328297031,349.277968227529,551.906179006451
0.74,2.33974601920725,0.0162629551861339,7.92192908491279,-0.777768904045141,1.38924375691111,-1.88273144712438,5.3704001472345,-5.87543080574271,-2.4989381809735,359.172452550832,551.906179006451
0.75,2.21440668681944,-0.0129467129900206,9.92371941053051,0.683211638877678,-0.384107325525168,2.18087738180894,-0.990617062548599,9.89776050012454,0.16849064351314,368.719107550437,551.906179006451
0.76,2.15365271059583,0.0339628388675175,8.83785414533857,-1.66418016579392,-0.538316882022958,-2.08556668721232,-0.455861026051936,-8.98161189561355,2.90475924079321,377.917589980595,551.906179006451
0.77,2.08649043981029,0.0313746859186655,8.23052565679222,-1.53234983248835,1.1627686395439,1.73274228240367,3.19784799619261,7.73714526097895,-0.575999901756132,386.749418277947,551.906179006451
0.78,2.01687705742575,0.0233273878400363,7.87255686727403,-1.12537505607068,-1.53221281748795,-1.31173972788791,-5.17902284447527,-6.03500977809422,2.29039133553662,395.282536172375,551.906179006451
0.79,1.94571539922658,0.0492395158212573,7.75072769950995,-2.41744127437356,1.72586725918894,0.899786168134085,5.60846974948749,5.8705084325022,-1.06491132452303,403.461012918943,551.906179006451
0.8,1.90501056508589,0.0108154931006635,6.25200802673339,-0.488986005608588,-1.792426500717,-0.645282471098738,-5.70206821971794,-2.6101972526425,1.92203364997525,411.328091925614,551.906179006451
0.81,1.7972642957669,-0.0153695793953326,8.18038471873074,0.815243808362812,1.73599662698277,0.465522162645067,8.12347400734662,1.26193766307261,-1.31735315421669,419.01375053487,551.906179006451
0.82,1.66624460358013,-0.0281126702016425,11.3529940134792,1.43237240602943,-1.62354496361786,-0.375849906607466,-11.4015685851898,-0.972829675155309,1.78141816991757,426.420767726394,551.906179006451
0.83,1.62625379797346,0.0208932608408793,10.1060513121685,-1.01417374336411,1.59137832986823,0.335638131024282,9.6388737425795,3.20202037478268,-1.35008563912626,433.485195176639,551.906179006451
0.84,1.5822090793139,0.0625060687549771,9.22110500138173,-3.08635799810083,-1.53720307642495,-0.379867452046391,-7.99941191854168,-5.52845295688056,1.85254382162731,440.239617162523,551.906179006451
0.85,1.53417108412803,0.0300359600637405,8.62802127637878,-1.45622265999542,1.42935622209708,0.558143229488539,7.41790877749287,4.6409013079275,-1.17894323291533,446.831531781082,551.906179006451
0.86,1.48528681048563,-0.036187512858489,8.12872770854927,1.8331279836627,-1.2478911395102,-0.806321368575452,-7.88996302164923,-2.6804954544322,2.12009913721055,453.221612124365,551.906179006451
0.87,1.39912417447838,0.0882227718175582,9.62265739692381,-4.38488359948596,1.08192179806002,0.891502628128239,4.03061542456758,9.77634281614814,-0.818619763767436,459.26023970491,551.906179006451
0.88,1.352031682981,-0.00592749489555805,9.31217179527726,0.340311261488651,-0.727096221408813,-1.13989292996895,-5.32833457037321,-7.64468482055467,2.56941242077097,465.05253150807,551.906179006451
0.89,1.30392347703701,-0.0170623161846954,9.0844314100653,0.870423833009652,0.348596709178288,1.25657784914105,3.37842431506821,8.47766364280915,-0.283696986296942,470.748583192113,551.906179006451
0.9,1.2778471806177,-0.0212405927323905,7.8382782693779,1.09263025970343,0.0791627255487901,-1.27556961498615,-0.736079632532249,-7.87976102982778,-3.09623209909085,476.160866301681,551.906179006451
0.91,1.18530995302304,-0.00757985621836965,10.0552417823114,0.420072026475266,-0.483105728259022,1.08241673780439,-3.65471992828697,9.37695953142329,0.413395828883843,481.337227853295,551.906179006451
0.92,1.16674301266899,0.0343046811887185,8.60267801734678,-1.70286171642827,0.828774648329829,-0.821948082940242,7.44657602013878,-4.63188003641206,-2.32266539258797,486.401324913059,551.906179006451
0.93,1.11601602532973,-0.00295391671277284,8.86700449436336,0.180467671803819,-1.06362110643905,0.337950641890336,-8.38844475300027,2.87929364766578,1.26050165951803,491.171433927217,551.906179006451
0.94,1.07433445927113,0.0507045204131764,8.7614650582246,-2.52768651081174,1.06795469899177,0.127429351678166,8.22366759969978,3.94002033917063,-1.404875662044,495.85216162809,551.906179006451
0.95,1.03555102409094,-0.018576951877919,8.55890882018442,0.951180331750822,-0.79651031538278,-0.662028960186557,-7.27400245342899,-4.60961522507566,2.24631441124147,500.295380910205,551.906179006451
0.96,1.00096769191325,0.0292597679831785,8.26281077969051,-1.42803783618454,0.374185444057234,0.928858281834349,1.52263208601994,8.24590356317407,-0.353732959621381,504.55850459832,551.906179006451
0.97,0.990373084718311,0.000827220985186561,6.7866625083957,-0.0279618950265509,-0.82226987709188,-0.552007047469799,-5.61594499550101,-3.81060778327348,2.16284951429065,508.711302039268,551.906179006451
