t,iq,id,vq,vd,ia,ib,va,vb,theta_e,omega,r
0,0,0,0,0,0,0,0,0,0,0,0
0.01,0.000461743528978092,0.000261295745265026,-0.0228213363676897,-0.0130719018160427,-0.000527860054188709,5.33508785179869e-05,0.0261525094234829,-0.00278105403581704,1.98502869307718,-0.00113706993760024,0
0.02,0.000567134878864491,0.00031892705559262,-0.0280517172742011,-0.0159550337548298,-0.000647533277069065,6.36953114586674e-05,0.032100927429256,-0.00331547920082604,1.98501951575275,-0.00133976029896133,0
0.03,0.000607804554328127,0.000341327203178855,-0.0300687579988348,-0.0170756567379031,-0.000693778405925605,6.78392170004892e-05,0.0343983778319797,-0.00352985313455873,1.98500965233139,-0.00137264839932041,0
0.04,0.000598491688139805,0.000336183232895857,-0.0296213322355682,-0.0168183178159337,-0.000683182173092808,6.68848654101363e-05,0.0338851853937247,-0.00347467241629657,1.9850001947087,-0.0012811120312789,0
0.05,0.000612695787819444,0.000344598107256516,-0.0303328146292746,-0.0172392876220944,-0.000699571163174222,6.88779470623847e-05,0.034705894088406,-0.0035740168683963,1.98499105508412,-0.00125176643525375,0
0.06,0.000614883950292463,0.000346193199314722,-0.0304515214623697,-0.017319092671293,-0.000702215634889917,6.94637005577567e-05,0.0348466492820855,-0.00359960610919096,1.98498226348979,-0.0011943052310469,0
0.07,0.000624134094122223,0.00035196287682209,-0.0309176778499826,-0.0176077327830903,-0.000713005016782569,7.10287276356375e-05,0.0353895208569182,-0.00367652973791472,1.9849740144051,-0.00115872461456709,0
0.08,0.000615963375919662,0.000347587583802913,-0.0305247584262152,-0.0173888462091627,-0.000703763808658552,7.03172134736778e-05,0.034941706508209,-0.0036345557856347,1.98496600671877,-0.00108049371578394,0
0.09,0.000613769151154629,0.000346755883030525,-0.0304258551735041,-0.0173472294359313,-0.000701419873018382,7.04441272231414e-05,0.0348343902746562,-0.00363652118580687,1.98495848896379,-0.00102100093191051,0
0.1,0.000612801213858011,0.000346596686405665,-0.0303868963028701,-0.0173392658893878,-0.000700469204347972,7.06928885628383e-05,0.0347954946083249,-0.00364515616487126,1.98495138201917,-0.000967578249689232,0
0.11,0.000612106865584603,0.000346565175423463,-0.0303609571490952,-0.0173376998703027,-0.000699820400690783,7.0948167623242e-05,0.0347710936571866,-0.00365439484525783,1.98494465350529,-0.000917565909933056,0
0.12,0.000611493883144872,0.000346557962161139,-0.0303385890902577,-0.0173373298551984,-0.000699255883836281,7.11926905041336e-05,0.0347504443675678,-0.00366327868882978,1.98493828127895,-0.000870315162856278,0
0.13,0.000634612031339864,0.00036001373923386,-0.0314858843244427,-0.0180104890137906,-0.000725833873636444,7.42126043227723e-05,0.0360716080833283,-0.00381807759098993,1.984932066983,-0.000884653705837316,0
0.14,0.000648138143304524,0.000368103651988519,-0.0321844694292804,-0.0184152058226748,-0.000741471463661647,7.61801810773327e-05,0.0368739720884928,-0.00390769245883239,1.9849260766851,-0.000876161944879461,0
0.15,0.000617369821457547,0.000350641595634238,-0.0306503407310603,-0.0175416266184473,-0.000706277052990716,7.2579263251964e-05,0.0351179842743753,-0.00372548411026531,1.9849203475903,-0.000756699313100819,0
0.16,0.000610829187489239,0.000347327022139398,-0.0303342558041854,-0.0173758120468062,-0.000698955187155577,7.21803501328309e-05,0.0347618773759767,-0.00370105400896128,1.9849151926732,-0.000703075859917734,0
0.17,0.000609161179996686,0.000346697116718221,-0.0302579714917096,-0.017344302038479,-0.0006971743618255,7.22782344062769e-05,0.0346793442991449,-0.0037030704795434,1.98491036464041,-0.000664209314239723,0
0.18,0.00060848802364033,0.000346576701277261,-0.03023040132857,-0.0173382758381101,-0.000696509322129384,7.24420386847894e-05,0.0346516628191042,-0.00370880538663192,1.98490580275937,-0.000629785507450283,0
0.19,0.000608031986597012,0.00034655301285549,-0.0302132338112454,-0.0173370856575205,-0.000696081986442176,7.26068563913937e-05,0.0346354514453846,-0.0037147731564107,1.98490148425541,-0.000597660011397944,0
0.2,0.000607636379304653,0.000346547723374073,-0.0301987627135305,-0.0173368279980489,-0.000695717391252313,7.27640401523803e-05,0.0346220846016883,-0.00372050161881286,1.9848973945177,-0.000567328853609833,0
0.21,0.000607269226475417,0.000346545967038102,-0.0301854273705745,-0.0173367304388144,-0.000695380281662423,7.29128559961444e-05,0.0346098226969962,-0.00372591206751166,1.98489352110185,-0.000538620562049726,0
0.22,0.000606922688458321,0.00034654492073724,-0.03017285512761,-0.0173366793687948,-0.00069506234406169,7.30538823179551e-05,0.0345982788244171,-0.00373105085411966,1.98488985250033,-0.000511433989632563,0
0.23,0.000606594893313296,0.000346544046687867,-0.0301609673800528,-0.0173366341123341,-0.000694761647717333,7.31873879139532e-05,0.0345873646222275,-0.00373591275790028,1.98488637787013,-0.000485685606543488,0
0.24,0.000606284336906489,0.000346543240875539,-0.0301497024674155,-0.0173366062145529,-0.000694476773170612,7.33138902336888e-05,0.034577028253728,-0.00374053352518747,1.98488308695288,-0.000461298756794291,0
0.25,0.000605990360412014,0.000346542481700047,-0.0301390401001021,-0.0173365623924771,-0.000694207108009424,7.34336416385738e-05,0.0345672377211311,-0.00374489119663349,1.98487997003443,-0.000438201329568577,0
0.26,0.000610149432776726,0.000349094785923838,-0.030347635026123,-0.0174642403120586,-0.000699041385516778,7.40988610692102e-05,0.0348095637232087,-0.00377795113202534,1.98487706622982,-0.000427976329600363,0
0.27,0.000599595688284489,0.000343092574046566,-0.0298309500526234,-0.0171639722435796,-0.000686964380735015,7.28522022769784e-05,0.0342157223381347,-0.003711046900829,1.984874151969,-0.000380194535748039,0
0.28,0.000598971667594583,0.000342898014449873,-0.0297798291978931,-0.0171542437328928,-0.000686314623927323,7.29269763407045e-05,0.0341649977302902,-0.00372279937579836,1.98487150180366,-0.000359603169647861,0
0.29,0.000603714777052676,0.000345848642385707,-0.0300402647962328,-0.017301855979324,-0.000691843872828029,7.3721578266563e-05,0.0344628052345198,-0.00375323656656601,1.98486905323792,-0.000354130468604624,0
0.3,0.000595714815737207,0.000341577196780057,-0.0296483762156381,-0.017088163307801,-0.000682801263806312,7.30312069833107e-05,0.0340180503671218,-0.00371534475897715,1.98486703275519,-0.000319263009982648,0
0.31,0.000602750104129657,0.000345597186052091,-0.0299978735013929,-0.0172892698151714,-0.000690859242530083,7.38824068787415e-05,0.034418916689774,-0.0037589146372007,1.98486484592212,-0.000321506186683224,0
0.32,0.000603999041282004,0.000346359599393511,-0.0300620604693501,-0.0173274091735664,-0.000692309222972077,7.40793746559226e-05,0.0344930161513402,-0.00376807976487212,1.98486270972674,-0.000309371229585698,0
0.33,0.00060409729658722,0.000346503877541246,-0.0300693991066339,-0.0173346375821648,-0.000692457072121197,7.41733386362414e-05,0.0345026351818313,-0.0037718149806817,1.98486067346139,-0.000295021870664734,0
0.34,0.000603973355850129,0.00034653087935886,-0.0300656546069041,-0.0173359828326999,-0.000692354325570174,7.42492612108768e-05,0.0344997410677858,-0.00377461971237516,1.98485874225127,-0.000280859174614131,0
0.35,0.000603812509908786,0.000346535646677946,-0.030059965386636,-0.0173362151403042,-0.000692208854153191,7.43196055746797e-05,0.0344946191750459,-0.00377718445475238,1.98485691262693,-0.000267330725595238,0
0.36,0.000603651323695545,0.000346536213585173,-0.0300541399553865,-0.0173362508786219,-0.000692061388206848,7.43861739743515e-05,0.0344892938523327,-0.00377962068889475,1.98485517963465,-0.000254494611652918,0
0.37,0.000603496889512461,0.000346536001238467,-0.0300485342206396,-0.0173362458596202,-0.00069191979679418,7.44492485513634e-05,0.0344841536012484,-0.00378192804263342,1.98485353824901,-0.000242332578144744,0
0.38,0.000603350420496313,0.000346535657898887,-0.0300432140980619,-0.0173362191593484,-0.000691785451024441,7.4508938117532e-05,0.0344792664251358,-0.00378409762921706,1.98485198364319,-0.000230812660241828,0
0.39,0.000603211469535832,0.000346535305691878,-0.0300381629499536,-0.0173362039158898,-0.000691657990391685,7.45655376020076e-05,0.0344746304083142,-0.00378616664073468,1.98485051123226,-0.000219901643883832,0
0.4,0.000603079910950284,0.000346534966949721,-0.0300333801404107,-0.0173361901066234,-0.000691537308523393,7.46191210807821e-05,0.0344702409207668,-0.00378812630936429,1.98484911667114,-0.000209567482415562,0
0.41,0.000602955337283899,0.000346534645112659,-0.0300288506236244,-0.0173361762774235,-0.000691423033496133,7.46698585340995e-05,0.0344660835883584,-0.00378998150102865,1.98484779584386,-0.00019977970565488,0
0.42,0.000602837341083051,0.000346534340077509,-0.0300245590899657,-0.0173361624292194,-0.00069131479197607,7.47179165402768e-05,0.0344621443815471,-0.00379173851214977,1.98484654485185,-0.000190509430836367,0
0.43,0.000602725573099558,0.000346534051107995,-0.0300204928871783,-0.017336147107715,-0.000691212263674399,7.47634375321379e-05,0.0344584111188299,-0.00379340123044695,1.9848453600027,-0.000181729297566306,0
0.44,0.000602619684091872,0.000346533777386217,-0.0300166391107735,-0.0173361332242079,-0.000691115128287814,7.48065637244935e-05,0.0344548731448061,-0.00379497763487765,1.9848442377997,-0.00017341339111343,0
0.45,0.000602519441227149,0.000346533518113716,-0.0300129904470912,-0.0173361193240113,-0.00069102317210464,7.48473903846047e-05,0.0344515231665755,-0.00379646945153711,1.98484317493019,-0.000165537166731601,0
0.46,0.000602424495257167,0.000346533272529591,-0.0300095334979606,-0.01733610395286,-0.000690936074861344,7.48860595245879e-05,0.0344483483216443,-0.0037978808486122,1.98484216825712,-0.000158077377376254,0
0.47,0.000602334613355782,0.000346533039912583,-0.0300062604681998,-0.0173360900216636,-0.000690853622905497,7.4922666235692e-05,0.0344453426338073,-0.00379921773057209,1.98484121480937,-0.000151012005123414,0
0.48,0.000602249446274786,0.000346532819579061,-0.0300031575917208,-0.0173360760762172,-0.000690775496025544,7.49573523702891e-05,0.0344424929048697,-0.00380048440228672,1.98484031177266,-0.000144320196187255,0
0.49,0.000602168654041687,0.000346532610880967,-0.0300002113142545,-0.0173360764737234,-0.00069070138252585,7.4990255975269e-05,0.0344397924922245,-0.00380169955351903,1.98483945648167,-0.000137982199371748,0
0.5,0.000602092276315036,0.000346532413204622,-0.029997426924814,-0.0173360610443699,-0.000690631318286828,7.50213622979375e-05,0.0344372340909577,-0.00380283352360494,1.98483864641205,-0.000131979307774954,0
0.51,1.78115974841307,-0.0324805528542652,1.94625895110779,1.6258966489932,-0.0714205222169467,1.78002363599108,1.58295001844332,1.98134627389682,0.0218682462113783,6.75210822690847,393.565754995079
0.52,1.79807006067849,-0.0317019606169026,0.580666450554278,1.58784152429921,-0.20934224406466,1.7861233950277,1.52264277493983,0.734828696371937,0.0990432282521813,14.3020975513077,393.565754995079
0.53,1.78496254118225,0.0144916328776791,0.687633797727417,-0.722451840080194,-0.395722793906436,1.74060470849361,-0.861032280933734,0.503388828046808,0.23166661726978,21.8732289260206,393.565754995079
0.54,1.79544676312161,-0.00354155830688418,-0.409383622471019,0.18082943423579,-0.73491924844593,1.63814996874608,0.331965632079762,-0.300155049518434,0.41973951115765,29.4440354169282,393.565754995079
0.55,1.72530982014353,-0.00564528998247033,2.47672341170191,0.287004612104123,-1.06729060627082,1.35558718146372,-1.29965756467682,2.12777365338038,0.663693658595582,37.13016923761,393.565754995079
0.56,1.74489523716719,0.0254835410567809,0.80182069374731,-1.26936713213654,-1.41959773466942,1.0149143172086,-1.38209722995239,-0.586529272950539,0.964723326117957,45.0518646240146,393.565754995079
0.57,1.70947224535411,0.00830732940036794,1.76059415540777,-0.410542501078709,-1.65615278756263,0.423700735904861,-1.80758012325622,0.02985001268015,1.32519366287124,53.3643101885749,393.565754995079
0.58,1.68494629792568,0.0383489513460794,2.17024457758283,-1.91391698519881,-1.6657042579334,-0.256795627037025,-1.80224400274075,-2.26383663442069,1.74651429890769,61.4771652759861,393.565754995079
0.59,1.67360090088825,0.0292230073819738,2.04777856515375,-1.45609357494823,-1.34592466819103,-0.99512850786683,-0.739110310496022,-2.40152482806802,2.2249150801068,68.95447140461,393.565754995079
0.6,1.70093479731962,0.0198813876350126,0.056836950400224,-0.986704892507282,-0.657192018006805,-1.56897199011811,0.893140521806384,-0.423222154590263,2.75661535967217,76.0838005154185,393.565754995079
0.61,1.67301195818632,0.0348747677347174,0.79309837522122,-1.73506628118243,0.296637782001639,-1.64687318514454,1.85763448075267,-0.434343376596812,-2.94253924924975,83.3104184225373,393.565754995079
0.62,1.62632781557227,-0.033560946495797,2.31812024419422,1.68612115955341,1.23126545265147,-1.06303992678579,0.59502213871914,-2.80403899503393,-2.30363549396577,91.1034288252065,393.565754995079
0.63,1.61346954506928,-0.027514945863987,2.16653019949199,1.3843573620734,1.6133824284654,-0.0322208725990478,2.11380860183267,-1.46359543797315,-1.60781630575528,98.5793043276332,393.565754995079
0.64,1.61462374014074,0.00703428345007384,1.44201372438005,-0.341222368229704,1.22798386609171,1.04838682173527,0.86992288289484,1.19961263068402,-0.859774712451015,105.475500907545,393.565754995079
0.65,1.61364176365453,-0.0118121720313402,0.764475286659089,0.603938168981954,0.0862437413550052,1.61137869102681,0.649266992600029,0.726371907624383,-0.0607907550591768,112.620303534257,393.565754995079
0.66,1.55409807825046,0.00565543199205387,2.8799394966285,-0.274557687883861,-1.10302236324548,1.09480340103287,-2.24409897512228,1.82577468984322,0.792776762063803,120.14008786412,393.565754995079
0.67,1.53149099417562,0.0358375627954307,3.3111239767809,-1.78103187413531,-1.52361323808858,-0.159222161991873,-3.05773393486325,-2.18766535600969,1.69831755379347,126.855202993862,393.565754995079
0.68,1.52486301880266,-0.00600929092275448,2.89070582113576,0.315136709138059,-0.710097746698427,-1.34944600774658,-1.63450474154075,-2.40497100599474,2.65325337307382,133.812741031518,393.565754995079
0.69,1.52174370061432,0.0224168669457536,2.21135468540117,-1.11120223379131,0.735696756827392,-1.33227500474815,2.06210108213327,-1.36842941947815,-2.62232363814753,140.901870983138,393.565754995079
0.7,1.51614553102353,0.031314947968861,1.78326152840756,-1.55136786227547,1.5162875894146,-0.0234487397565592,1.77518900876505,1.56059857297109,-1.56560828784654,147.409556105672,393.565754995079
0.71,1.51846967323764,0.00955296843924003,0.8200478576983,-0.467927964103461,0.681811967338586,1.35682491462322,-0.0558335862382556,0.942506063191827,-0.459358892236072,154.463591723511,393.565754995079
0.72,1.51417553558911,-0.0219760131266743,0.29231832057634,1.11500548254874,-0.988566162881866,1.14714752291697,0.667525870197329,0.939732110378069,0.696769512722613,160.872702867722,393.565754995079
0.73,1.42074441970264,-0.0258018753073532,4.15098670494005,1.3007270815463,-1.33597048093063,-0.484110851941517,-4.34855857862327,-0.112338121486043,1.90028643383793,167.623135759739,393.565754995079
0.74,1.43290504715931,-0.00795571195382488,2.76925257188659,0.41317592266177,0.0239626108997435,-1.43272675720327,-0.382214021301995,-2.77369547569448,-3.13042113291807,173.964359379158,393.565754995079
0.75,1.42629499375986,0.00988491817183612,2.29991177203612,-0.483981573171891,1.37543990505394,-0.37759791897854,2.34690949949976,-0.125889330278794,-1.83179407394417,180.502171219406,393.565754995079
0.76,1.38954917997243,0.00477470742754338,3.35094178297981,-0.222931581514402,0.652506173406616,1.22682737785694,1.36617204938728,3.06791187201155,-0.485377085982988,186.706282123428,393.565754995079
0.77,1.37760243926107,0.0146913586462955,3.11791279002237,-0.724444919052616,-1.0756281124996,0.860830111158677,-2.90156080658114,1.35171945781602,0.906533724855012,193.177763867933,393.565754995079
0.78,1.35407316538269,-0.0317868438269642,3.52529155618446,1.60834305506553,-0.946000972140689,-0.969333121975541,-3.64509898038697,-1.31442054231699,2.34490498093244,199.160312698105,393.565754995079
0.79,1.36980064932645,-0.0306765366568968,1.89672637287676,1.54674441257099,0.891726044740864,-1.04024974401691,0.00531526563657336,-2.44743967429986,-2.45531131052269,205.463878194952,393.565754995079
0.8,1.30586887511878,0.0481219916594236,4.33622035044408,-2.38783843985223,1.07397131813432,0.744442645816373,2.03871465319428,4.51090034309031,-0.927836382327147,211.301317681277,393.565754995079
0.81,1.29649150367708,0.00566896445867393,3.9581835275526,-0.269016024759237,-0.773926543388901,1.0401730921837,-2.59175978417711,3.00372563335739,0.64404591996342,217.390389676764,393.565754995079
0.82,1.31427314801026,0.0162358608968205,2.26918385869337,-0.801002597567205,-1.02559442431687,-0.822030162202103,-1.24431711846953,-2.05972703398961,2.25881373217631,223.321329638914,393.565754995079
0.83,1.26207002296566,0.0304835525122022,4.08520168801791,-1.50553593169608,0.861759692648937,-0.922561771356214,3.93497104818176,-1.86319996870538,-2.36610813390495,228.990816640491,393.565754995079
0.84,1.29217289195646,0.0365944807712006,1.7375930770752,-1.81688266059809,0.826884897172361,0.993635398704318,-0.355682492356658,2.48873105588222,-0.665745517163589,234.866011826516,393.565754995079
0.85,1.27772854633203,0.00162611681750069,1.67255378285531,-0.0695647116496032,-1.1237160828859,0.608157091080295,-1.50499398669566,0.732986020098884,1.07600577064109,240.486401614069,393.565754995079
0.86,1.26396062321848,8.87738808041938e-06,1.55940436727971,0.0208155004586246,-0.352035748371407,-1.21394698771991,-0.454303514485813,-1.49190602333934,2.85934900113748,245.957263423869,393.565754995079
0.87,1.21481352189233,-0.0220202348714044,3.17813653626673,1.11690382430121,1.21493871012213,-0.0134430042409669,3.14418636961362,-1.20918074291154,-1.59998508173742,251.562605283423,393.565754995079
0.88,1.16311023828629,0.030572952899876,4.95666399899838,-1.51917997570871,-0.273542804545898,1.13089984788069,-2.75821111637021,4.38961242424576,0.263601921273499,257.014868732394,393.565754995079
0.89,1.17532377187331,0.0261462698963764,3.56765039945354,-1.28587303035856,-0.987393064053135,-0.638063110687149,-2.23089342335089,-3.06671051072224,2.16674483909082,262.228739530222,393.565754995079
0.9,1.13607753764811,-0.0186001954922923,4.70931933122235,0.949916943909839,0.945970212574794,-0.629411229437594,3.33844259754716,-3.45468258840579,-2.17426495887599,267.500516412931,393.565754995079
0.91,1.16575758461847,0.0184863684847836,2.39679756759708,-0.910196920871299,0.242722356650222,1.14035886873274,-0.431405666992663,2.52724873435313,-0.19386122031611,272.780172922196,393.565754995079
0.92,1.13442411226499,0.0118890079318724,3.1593275884047,-0.584012408510137,-1.10118252869706,-0.272867098584953,-2.91205121459306,-1.35734263461219,1.82417808768407,277.924108611956,393.565754995079
0.93,1.09528039623492,-0.0229253898763693,4.3317191706975,1.16671354226483,0.75382637163336,-0.794927997561786,2.05102154244807,-3.98977719878019,-2.40365478116873,282.894229558429,393.565754995079
0.94,1.1084254626581,0.0112312402016547,2.87034757959076,-0.539332518061334,0.350326731442714,1.05166740382212,0.366121239613396,2.89753861589537,-0.311422246530199,287.814282376815,393.565754995079
0.95,1.10525825423657,0.0424297606385287,2.21273554082122,-2.10322124390047,-1.08227728214808,-0.228192851974133,-1.63348720618663,-2.57904201625957,1.81696793971044,292.744342062466,393.565754995079
0.96,1.05731541857109,-0.00655668943610304,3.79535089202274,0.342995490109731,0.791249709846179,-0.701343554324739,2.59545756063124,-2.79032871733342,-2.30223349671759,297.621221371508,393.565754995079
0.97,1.06387269465666,7.43600964251412e-05,2.66559709155682,0.00809813755457427,0.109753727193302,1.05819621778412,0.282864237646638,2.65055866892408,-0.103278323032426,302.389847855503,393.565754995079
