t,iq,id,vq,vd,ia,ib,va,vb,theta_e,omega,r
0,0,0,0,0,0,0,0,0,0,0,0
0.01,0.000560851927300531,0.000315476178590814,-0.0271509652219279,-0.0157842697999628,-1.00517551612773e-05,-0.000643412049804137,0.00093672065625589,0.0313917288471422,-2.64482860552427,-0.00320521884869075,0
0.02,0.000667779825270513,0.000373401918525643,-0.0324217741668793,-0.0186824883167232,-1.00351416609762e-05,-0.000765021688404186,0.000973589831394043,0.0374066696281937,-2.64485371518581,-0.00359639350075542,0
0.03,0.000707701116097603,0.00039560009444344,-0.0343902786872191,-0.0197931188892002,-1.05466145408462e-05,-0.000810696659282113,0.00101290948150829,0.0396665203657805,-2.64487971135983,-0.0035767366556828,0
0.04,0.000693038781636721,0.000387976102561759,-0.0337348998808932,-0.0194116696519901,-1.08502816110191e-05,-0.000794172827790327,0.000990808959536078,0.0389085425871695,-2.64490384224371,-0.0032482144503465,0
0.05,0.000709055493778547,0.000397733829707965,-0.0345496400353868,-0.0198998903284004,-1.1815292661401e-05,-0.000812903617540868,0.0010327096619956,0.0398574556690613,-2.64492671526015,-0.00311628411215659,0
0.06,0.000710378748511079,0.000399163685308723,-0.0346563617754871,-0.0199714310196239,-1.24594052878743e-05,-0.000814748045241767,0.00104561497919497,0.0399853492894625,-2.64494824902711,-0.0029095531902994,0
0.07,0.000722220295870677,0.000406734410718741,-0.0352642939219672,-0.0203502048850353,-1.3489594516674e-05,-0.000828765990777871,0.00108976431970091,0.0407002908884607,-2.64496797447479,-0.00278395111962355,0
0.08,0.00071029648817173,0.000400480190742226,-0.0347296601405189,-0.0200372987835682,-1.36874782203401e-05,-0.000815302482043315,0.00107014479887735,0.0400811355393952,-2.64498679182191,-0.00252482843080927,0
0.09,0.000707444522277443,0.000399559732796453,-0.0346273233878147,-0.01999124545092,-1.42510112647806e-05,-0.000812356227803212,0.00107910113692414,0.0399692001473574,-2.64500402758055,-0.00233589577413028,0
0.1,0.000706099116155748,0.00039942253890122,-0.0345947049200225,-0.0199843710464472,-1.47843092538819e-05,-0.000811107730587072,0.00108923410878523,0.03993722904361,-2.6450199689326,-0.00216890525986016,0
0.11,0.000705057600961982,0.000399400492820225,-0.0345743181132765,-0.0199832664341952,-1.52730847779969e-05,-0.000810181280467938,0.00109856504574989,0.0399187620702137,-2.64503473779178,-0.00201542667784723,0
0.12,0.000704124860667425,0.000399395490905682,-0.0345569780539911,-0.0199830225929702,-1.57241235960853e-05,-0.000809358591418443,0.0011071576312475,0.0399033848959553,-2.64504842431366,-0.00187339049830866,0
0.13,0.000732573525645865,0.000415950421508063,-0.0359490562096887,-0.0208113198930377,-1.67382594378903e-05,-0.000842258009342112,0.0011728017280105,0.0415219244997685,-2.64506164423867,-0.00191227428260342,0
0.14,0.000750207309000943,0.00042660870387432,-0.0369115079493491,-0.0213445845402613,-1.77198716516612e-05,-0.00086283949773316,0.00118371050895581,0.0426221719029217,-2.6450741287094,-0.00189360707517233,0
0.15,0.000709161267591724,0.000403385362611346,-0.0348737260259544,-0.020182654901378,-1.6863384444933e-05,-0.000815686876495172,0.001133292787938,0.0402769409620226,-2.64508584461452,-0.00153056405106924,0
0.16,0.000702107189187664,0.00039997441234633,-0.0345553148657498,-0.0200119891701745,-1.72327099498134e-05,-0.000807859560411697,0.00113531470629359,0.0399156680582445,-2.64509593310287,-0.00138767235289571,0
0.17,0.000700474264049476,0.000399472423715309,-0.0344954052475706,-0.0199868776107123,-1.75766133911033e-05,-0.000806184516451624,0.00114214077811071,0.0398510197393077,-2.64510516101256,-0.00128588340053414,0
0.18,0.000699737297775007,0.000399397617705558,-0.0344771077204876,-0.0199831350045615,-1.78687591747243e-05,-0.000805500745109463,0.00114790578631339,0.0398331388881969,-2.64511369388027,-0.00119639817817519,0
0.19,0.000699177170388538,0.00039938561139664,-0.0344660372931827,-0.0199825289991871,-1.81313728669473e-05,-0.000805002382295326,0.00115296095168943,0.0398231072738215,-2.64512159883072,-0.00111423363337188,0
0.2,0.000698677447193868,0.000399382899969357,-0.0344567021652591,-0.0199823993377104,-1.83729136374225e-05,-0.000804561565108442,0.00115758517189291,0.039814828945594,-2.64512892441532,-0.00103820753938569,0
0.21,0.000698217612301654,0.000399381622390643,-0.0344482041960731,-0.0199823213464483,-1.85962779363094e-05,-0.000804156510188483,0.00116183459596131,0.0398073118798381,-2.64513571346741,-0.000967768101577468,0
0.22,0.000697791622354294,0.000399380619473825,-0.0344403312656376,-0.0199822867748256,-1.88033580264857e-05,-0.000803781351591377,0.00116580459766878,0.0398003656023193,-2.64514200534219,-0.000902490018385837,0
0.23,0.000697397138715281,0.000399379716366546,-0.0344330454178823,-0.0199822369562062,-1.89951444457866e-05,-0.000803433949631684,0.0011694631414685,0.0397939287641301,-2.64514783645825,-0.000841992759275193,0
0.24,0.000697031526074573,0.00039937888307246,-0.0344262873946548,-0.0199821870847975,-1.91728940767176e-05,-0.000803111972715372,0.00117285317229488,0.0397879564681004,-2.64515324055901,-0.000785925816911901,0
0.25,0.000696692614787248,0.000399378111174952,-0.0344200158015155,-0.0199821537724845,-1.93376588350007e-05,-0.000802813508939371,0.00117601027183248,0.0397824202004395,-2.64515824891471,-0.000733964693138253,0
0.26,0.000702186426858149,0.000402695445348453,-0.0346927424612319,-0.020148132467043,-1.96415338669237e-05,-0.000809224078927189,0.00119223627908505,0.0401012742197266,-2.64516276502545,-0.000721903040362228,0
0.27,0.000687625862339037,0.000394399811229607,-0.0340030418651753,-0.0197330784723669,-1.92859940126223e-05,-0.000792469928824052,0.00115596330844221,0.0392971371846727,-2.64516740056658,-0.000588338099721243,0
0.28,0.000687031168215644,0.000394227896287313,-0.0338949250543848,-0.0197244750338242,-1.94212305632565e-05,-0.000791865061809322,0.00120004904557162,0.0391979685964788,-2.6451713856861,-0.000545042697052603,0
0.29,0.000694177645027906,0.000398619680870987,-0.0343324778667332,-0.019944203203662,-1.98819677870333e-05,-0.000800240563950049,0.00118499533357316,0.0396873539551089,-2.64517489757463,-0.00055290619220957,0
0.3,0.000685793130730675,0.000394214087705847,-0.0339348295329698,-0.019723780660518,-2.00034344752981e-05,-0.000790769769093588,0.00118066544189513,0.0392327185916329,-2.64517731778183,-0.000478478025836944,0
0.31,0.000693674179805225,0.000398616941935807,-0.0343192274512637,-0.0199440762805348,-2.01237334836541e-05,-0.000799796455029269,0.00119141211177303,0.0396756359585487,-2.64518037926611,-0.000495239740719962,0
0.32,0.00069475209552025,0.00039926298212419,-0.0343769162032053,-0.0199763887485747,-2.01808081655756e-05,-0.000801051894764792,0.00119246762114881,0.0397417475213269,-2.64518337116747,-0.000471879808276751,0
0.33,0.000694765390638454,0.000399357470650886,-0.0343831086696134,-0.0199811214603315,-2.02598006122777e-05,-0.000801108530645397,0.0011937909830387,0.0397494432626141,-2.6451861684429,-0.000444074134956712,0
0.34,0.000694621809451961,0.000399371006235277,-0.0343813669947583,-0.0199818025389484,-2.0342165303501e-05,-0.000800988673514463,0.00119532255923577,0.0397482330816498,-2.64518876474673,-0.000417330212379325,0
0.35,0.000694464024612505,0.000399372680863566,-0.0343785627208235,-0.0199818885724197,-2.04207129265071e-05,-0.000800850681578484,0.00119682945018403,0.0397458053753772,-2.64519117153476,-0.000392390514025779,0
0.36,0.000694313864831323,0.000399372636915043,-0.0343757704300927,-0.019981887278899,-2.04939761584055e-05,-0.000800718579124215,0.00119824683449558,0.0397433468194701,-2.64519340217,-0.000369252745931702,0
0.37,0.000694174124199352,0.000399372361837557,-0.0343731502234843,-0.0199818728529112,-2.05619425733242e-05,-0.000800595531229882,0.00119956421241796,0.039741033513189,-2.64519546946979,-0.000347805502236543,0
0.38,0.000694044511697746,0.000399372072472982,-0.0343707119837415,-0.01998185693547,-2.06249511230203e-05,-0.000800481385092933,0.00120078759007496,0.039738879677495,-2.64519738538299,-0.00032792823791754,0
0.39,0.000693924387042193,0.000399371799222512,-0.0343684473116147,-0.0199818395283667,-2.06833424537397e-05,-0.000800375592013556,0.00120192141157334,0.0397368779154709,-2.64519916099333,-0.000309506497572639,0
0.4,0.000693813109953398,0.000399371545218959,-0.0343663461683041,-0.0199818235440807,-2.07374325681802e-05,-0.000800277590317426,0.00120297342880794,0.0397350207755837,-2.64520080657493,-0.000292433774043183,0
0.41,0.000693709981936951,0.000399371309688928,-0.0343643940561094,-0.0199818075297794,-2.07875611436655e-05,-0.000800186765288775,0.001203949648673,0.0397332948073046,-2.64520233164991,-0.000276611291136213,0
0.42,0.000693614230332587,0.000399371091374822,-0.0343625712883963,-0.0199818065693264,-2.08341021825127e-05,-0.000800102436774212,0.00120487306218864,0.0397316898738036,-2.64520374504266,-0.000261947495223557,0
0.43,0.000693525654231154,0.000399370889032402,-0.0343608853091035,-0.0199817904988899,-2.08771568732586e-05,-0.000800024427379671,0.0012057139268452,0.0397301981456612,-2.64520505493214,-0.000248357535473096,0
0.44,0.000693443465014256,0.000399370701495116,-0.0343593129694804,-0.0199817909368233,-2.09171058827288e-05,-0.000799952042978308,0.00120651137159944,0.039728814317669,-2.64520626889769,-0.000235762774441261,0
0.45,0.000693367403557177,0.000399370527681376,-0.0343578564342451,-0.0199817733625686,-2.09540773284096e-05,-0.000799885055079439,0.00120723429110708,0.0397275238447556,-2.64520739396411,-0.000224090333297785,0
0.46,0.000693296739457099,0.000399370366587111,-0.0343564930516726,-0.0199817737519799,-2.0988423424101e-05,-0.000799822820837177,0.00120792536645062,0.0397263239350689,-2.64520843664135,-0.000213272670152786,0
0.47,0.000693231504627294,0.000399370217282606,-0.0343552373975825,-0.01998175759049,-2.10201330090443e-05,-0.000799765367760108,0.001208547547138,0.0397252109607446,-2.64520940296262,-0.000203247189236456,0
0.48,0.000693170794037196,0.000399370078905279,-0.0343540562216101,-0.0199817579377467,-2.10496408424638e-05,-0.00079971189953093,0.0012091459609413,0.0397241714225154,-2.64521029851996,-0.000193955878696578,0
0.49,0.000693114756015053,0.000399369950655736,-0.034352968007584,-0.0199817402849258,-2.10768797462958e-05,-0.000799662546098498,0.00120968166723934,0.0397232051326207,-2.64521112849513,-0.000185344974915997,0
0.5,0.00069306266015874,0.000399369831793695,-0.0343519465283994,-0.0199817405954921,-2.11022007810575e-05,-0.000799616664768456,0.00121019897083987,0.0397223061511605,-2.64521189769076,-0.000177364651409239,0
0.51,3.74161845138705,-0.0597845086445453,4.25506170367165,2.99635435878782,-0.535372410689887,3.70360084311282,2.43059786626696,4.60172614982447,0.127583243324044,39.1117391821406,720.206079577693
0.52,3.61411883626727,-0.00751193444690229,2.44781136794256,0.385951464088437,-1.95952294725515,3.03680444069115,-0.998153497668527,2.26813328990007,0.570956069205697,81.6296422408357,720.206079577693
0.53,3.4353217606379,0.0321618795113024,3.24182029974671,-1.59419973267375,-3.32170580555646,0.876778493656472,-3.53448780222612,-0.7471730853167,1.32208978584672,123.290383594036,720.206079577693
0.54,3.2631407909197,-0.00831518236010953,3.25477440560574,0.433367634798717,-2.24317420107212,-2.36987899844405,-2.55740694726916,-2.05937700393509,2.38110595795005,165.954919340981,720.206079577693
0.55,3.05561733471396,0.0182565084769188,5.31415136472121,-0.895211389729356,1.72875444603779,-2.51963065976162,3.76775166505967,-3.853006040731,-2.53427225230266,205.995642330907,720.206079577693
0.56,2.92160218167406,0.056763042337733,4.98122679507619,-2.8161595758383,2.31397189689724,1.78452105936238,2.12187374275144,5.31422872676673,-0.894442221275943,241.009106547145,720.206079577693
0.57,2.82740783661287,0.00444398164196655,2.36191497935392,-0.200739434509753,-2.37965648201138,1.52692169122517,-2.0980215876922,1.10328786263659,1.00188071986415,276.973993562239,720.206079577693
0.58,2.64314394545092,0.0124498063298464,4.58925574734828,-0.596909235795146,0.0297666682039127,-2.64300564878616,0.670130245950309,-4.5791368623147,-3.12562050740202,310.078615374203,720.206079577693
0.59,2.51809147682454,0.00774384505871573,4.35421855235665,-0.360581077193006,1.70176369480293,1.85602935856181,2.66622495890283,3.46128334342048,-0.738990100768322,341.684299877901,720.206079577693
0.6,2.40977058125674,0.0187436342814433,3.3524984286378,-0.908522724867549,-2.30181297741017,-0.7134441780144,-2.9186797049216,-1.88307409193012,1.87913331339865,371.533133970288,720.206079577693
0.61,2.2257172425665,-0.014589762902532,6.39135268640972,0.752951547219162,2.22576155496148,0.00395037907433862,6.38768045986875,-0.78349443976803,-1.57557647472017,400.638532826224,720.206079577693
0.62,2.13221576791949,0.049684814574266,5.44951535983307,-2.45242608176077,-2.11314411915072,0.288850469036314,-5.69047880347542,-1.82484583753093,1.45824373922115,426.79519086182,720.206079577693
0.63,2.02412923898024,-0.00571242589867049,5.12334743300106,0.314045038686466,2.02354441591498,-0.0489878017846741,5.11298998747843,-0.452378816377905,-1.59782266477624,452.86643661402,720.206079577693
0.64,1.96012218682158,0.0124379630035254,2.97096247882148,-0.598987157969947,-1.90701617547083,-0.453346442234282,-2.74376432138449,-1.28730766123546,1.81053502886532,477.413718212022,720.206079577693
0.65,1.84053025275596,0.0121761638545601,3.98160745097435,-0.575208770533167,1.43866417318743,1.14801797331882,2.73394672392749,2.95120286223751,-0.890675913425229,499.998446175091,720.206079577693
0.66,1.73646218206057,0.0406731116491774,4.2734784983846,-2.00158850809267,-0.527330070680501,-1.65495565145833,0.719106575641872,-4.66388901719935,2.85654530297558,521.663941377667,720.206079577693
0.67,1.62447396243464,-0.020220096400276,5.131155492595,1.04096005415981,-0.761956893692034,1.43483316071302,-1.42461110891855,5.03813831805858,0.475725317314149,542.42360004323,720.206079577693
0.68,1.53310379881512,0.0347382255408429,5.19371099525049,-1.71382147499031,1.49962719203678,-0.320518778169,5.42243687352906,0.713439768246902,-1.75870560813354,562.014398737082,720.206079577693
0.69,1.44315783423982,0.0364606934571123,5.40443749469245,-1.80392289728534,-0.971827931523989,-1.06751317940574,-2.17191838748857,-5.26733831944342,2.42833894172415,580.510138347636,720.206079577693
0.7,1.38017820977087,0.0114436043108022,4.48142499282274,-0.554550021339608,-0.606640511380922,1.23976212910277,-2.49907132740657,3.76102887425747,0.463358438406797,597.865978143025,720.206079577693
0.71,1.28582756406642,0.0237800684289369,5.30020042899045,-1.17407757479606,1.26651241770656,0.223303183950767,4.97657470709987,2.16893681875783,-1.3777846452765,614.236209034636,720.206079577693
0.72,1.22035984508517,0.0338276820776597,4.85471152975769,-1.6780878927372,0.0139844201851558,-1.22074849971775,1.86689892830682,-4.78527861303814,-3.10242520747954,629.64625909327,720.206079577693
0.73,1.13667201290673,0.0249332070638279,5.49975191717759,-1.23452718617258,-1.13653167181561,0.0306706488346641,-5.50591356598239,-1.20674948843115,1.56574844690066,644.088529787642,720.206079577693
0.74,1.08902192405598,0.0038668202799606,4.47759681311504,-0.181176620853331,-0.0546048873885061,1.08765895833527,-0.421303294965151,4.46141252546918,0.0537126499843741,657.811982020476,720.206079577693
0.75,0.986595222942199,0.00831278436216398,6.32887246772972,-0.405495286559477,0.966580721065545,0.197891247862634,6.10467128698021,1.71815063895126,-1.3604281700726,670.676388349722,720.206079577693
0.76,0.980149166696589,0.0109191949419783,3.56051229715358,-0.535335464385844,0.423567412196904,-0.883969606445276,2.05440587865569,-2.95689843642896,-2.68361155494646,682.751196666919,720.206079577693
0.77,0.874847569887636,-0.0212578665530416,5.84754274431421,1.07392523342267,-0.599423030655697,-0.637575248694794,-4.87204154816996,-3.40738649208881,2.36273313866612,694.090959091722,720.206079577693
0.78,0.857636335383155,-0.00553517556541466,3.90935757821194,0.289345758164108,-0.803170153375929,0.300812942979643,-3.54885142780769,1.66506792216955,1.205982100664,704.664564610528,720.206079577693
0.79,0.779145930215497,-0.0241139280210853,5.13049450816726,1.2209043368761,-0.121131760642505,0.770049971534072,0.571284924638144,5.24272971199341,0.125085924225462,714.622115519809,720.206079577693
0.8,0.748605446583744,-0.00828913624752912,4.10528917874292,0.432739499668974,0.574185174175973,0.480406296993581,3.45156008451673,2.26437534402941,-0.885161561342318,723.911952997418,720.206079577693
0.81,0.712403987783526,-0.00176336531267632,3.49338688857231,0.109507526624136,0.689168734767443,-0.18046885129057,3.34923503962325,-0.999183917502749,-1.82938529285663,732.562529225455,720.206079577693
0.82,0.639378648824561,0.0229378366706818,4.80970237409808,-1.12599490795576,0.245472415123193,-0.590825265486708,3.0270871753211,-3.90356820014119,-2.71195855500425,740.713483006186,720.206079577693
0.83,0.573780606487576,0.0329790799496839,5.88784724800532,-1.64405846372458,-0.251542533663241,-0.516757349104834,-0.751840909858336,-6.06666372022149,2.74599772113136,748.284857848947,720.206079577693
0.84,0.600784616020846,0.0231090989741434,2.39340845286389,-1.15412763629033,-0.561577489554942,-0.214725193044227,-1.74773469426897,-2.00145898322648,1.97445050534055,755.420201680075,720.206079577693
0.85,0.540435617675984,-0.0181317237885838,3.4115881793675,0.912364902796267,-0.518981313484044,0.151847991474187,-2.95492314762772,1.9338492219065,1.25261519632987,761.905238789527,720.206079577693
0.86,0.464081340538814,-0.016599981173583,5.33201435223671,0.840936135292658,-0.267014070041956,0.379934910755639,-2.20310374570544,4.92786815182365,0.576841006993025,767.88085375541,720.206079577693
0.87,0.453504674715796,0.00231528623149752,4.07380600742529,-0.0993883810515554,0.0280075979598684,0.452644921539977,0.131597237314351,4.07289278075837,-0.0566913683974761,773.418910167043,720.206079577693
0.88,0.369988160981659,0.0024517616114163,6.52278944338567,-0.107174412921052,0.22613833202778,0.292845872754394,3.86711231237243,5.25392337601397,-0.650937761651369,778.641061820031,720.206079577693
0.89,0.395185032472275,0.00952097774973463,3.59210711858399,-0.479788433069878,0.372882383981554,0.131227232782136,3.18856646841363,1.72234560074268,-1.2083183889604,783.529808144052,720.206079577693
0.9,0.347438215010677,0.0058525998905475,4.38997533396764,-0.292013527420374,0.342024748587858,-0.0613729380810232,4.38013470012942,-0.414216539702245,-1.73150341932014,787.983571504191,720.206079577693
0.91,0.298747628451132,-0.00764423504854587,5.37207150694543,0.390960523120927,0.241930623765962,-0.175437034627429,4.02934082925386,-3.5744111246584,-2.22378767599154,791.873060560334,720.206079577693
0.92,0.273659554344857,0.0521211053046892,5.22466636203799,-2.59447641538086,0.0729558806036351,-0.268856096802279,4.62009197229909,-3.56134758652905,-2.68841126072944,795.56643602938,720.206079577693
0.93,0.240134298783941,0.00138769746311937,5.55000052790301,-0.0770127746313489,0.00212262059201343,-0.240128927117344,0.158131833523506,-5.54828181966333,-3.12697460516807,798.990093918337,720.206079577693
0.94,0.228339077632559,-0.0310331402449831,4.88018032835184,1.54838232719958,-0.0604747966376027,-0.222361393095099,-3.32901461578546,-3.88989839922626,2.74096855795668,801.993820410119,720.206079577693
0.95,0.233125169933328,0.0104963634473671,3.425528810248,-0.520005410586011,-0.1737066546092,-0.155831693331435,-2.08008171170903,-2.77090478535287,2.34699935769579,804.810271238547,720.206079577693
0.96,0.185536663679266,-0.0247510864610818,4.66839492084989,1.24984666697737,-0.16110028293806,-0.0953056592627854,-4.78552033022674,-0.674405662015085,1.972390972595,807.247793309344,720.206079577693
0.97,0.137367670110988,0.0071397205620411,6.01214283241798,-0.367438605767371,-0.137548653677758,0.001104659613414,-5.99022653351696,-0.630918888251482,1.61469398773991,809.410497375434,720.206079577693
