t,iq,id,vq,vd,ia,ib,va,vb,theta_e,omega,r
0,0,0,0,0,0,0,0,0,0,0,0
0.01,0.000496099171938469,0.000273585771590177,-0.0236079350713795,-0.0136862618184932,7.83690537367314e-05,0.000561089880706323,-0.00435246529232937,-0.0269389013654582,0.365199020450822,-0.00230876428656602,0
0.02,0.000620169842915956,0.000337425074458607,-0.0296850396444579,-0.0168798562239982,9.37011592416412e-05,0.000699775969644979,-0.00516572200313007,-0.0337556875359141,0.365180677922338,-0.00262422570184544,0
0.03,0.000666702518585329,0.000362490796223183,-0.0320202552389968,-0.0181337729083103,0.000100510505688642,0.000752189779165306,-0.00550369060038501,-0.036384610142695,0.365161884610569,-0.00254197533748626,0
0.04,0.00065522240479748,0.000357664111293039,-0.0316168467355898,-0.0178923204943818,0.000100114072265578,0.000739741298556485,-0.00542282027104604,-0.0359214859169743,0.365145048741922,-0.00220079452568731,0
0.05,0.000667589900471807,0.000366619402829429,-0.0323189660498069,-0.0183403169168063,0.000104074125919386,0.00075448965404244,-0.00559112068453488,-0.0367372040393445,0.365129924210909,-0.00200840872948538,0
0.06,0.000667393910127675,0.000368446300921375,-0.0324185143339446,-0.0184316969500994,0.000105860781184234,0.0007549574841971,-0.00564142940057384,-0.0368627426868758,0.365116402023433,-0.00177978460430763,0
0.07,0.00067409711982238,0.000374340596221554,-0.0328269761407627,-0.0187265636959423,0.000108982013707559,0.000763322166336457,-0.00577145063090926,-0.0373494967572438,0.365104728073357,-0.00161698821144481,0
0.08,0.000663852333472009,0.000370019934529779,-0.0324313692846019,-0.0185104275131781,0.000108611987847171,0.000752208819877525,-0.00571120224858714,-0.036902734441645,0.36509412747018,-0.00138698904717067,0
0.09,0.000659401871453053,0.000369136287697143,-0.0322959700061223,-0.0184662161817245,0.000109382396276492,0.000747735192668788,-0.0057185834194396,-0.0367604219559766,0.365084988339911,-0.00121074530130659,0
0.1,0.000656564190292788,0.000368954698650091,-0.032226763312847,-0.0184571308593158,0.000110231837236017,0.000745018823715466,-0.00573509763651371,-0.0366924870822328,0.365077030791495,-0.00106250748436791,0
0.11,0.000654329835196322,0.000368916622636198,-0.0321777471231607,-0.0184552293927188,0.000110999144090645,0.000742917355899355,-0.00575107589552714,-0.0366459824251423,0.365070083497382,-0.000934312921030409,0
0.12,0.000652434715457271,0.000368907977932567,-0.0321375936854704,-0.0184547928209031,0.000111672153284848,0.000741143362850151,-0.00576522566379452,-0.0366082842946835,0.36506401384897,-0.000822599155709561,0
0.13,0.000675956414173676,0.000382911941377952,-0.0332871506766678,-0.0191553549765948,0.00011636016120771,0.000768113885824285,-0.00600943409086798,-0.0379321595266873,0.365058346463472,-0.000845539369669327,0
0.14,0.000689004355106237,0.000391204684277415,-0.0340508257774084,-0.0195702060342414,0.000119452333242542,0.000783261927096464,-0.00612451390542132,-0.0387935823270858,0.365053161708236,-0.000823906716113901,0
0.15,0.00065696710716971,0.00037345734081367,-0.0324749368034247,-0.0186823832154293,0.000114315192156298,0.000746999465965554,-0.00585795713948505,-0.0370045578428731,0.365048511968937,-0.000584439441751899,0
0.16,0.000648733641266641,0.000369832534188196,-0.0321167419567262,-0.0185010529582837,0.000113871134632577,0.000738014095632751,-0.00581657770618878,-0.0366052113539592,0.365044996113598,-0.00048382673459401,0
0.17,0.000646154834696994,0.000369091864453706,-0.0320193601235237,-0.0184639984551816,0.000114102046200519,0.000735340463908431,-0.00581683676061598,-0.0365010009694692,0.365042051502309,-0.000421280929739311,0
0.18,0.000644979324994596,0.000368940240572181,-0.0319846158763872,-0.0184564214468122,0.000114381923890507,0.000734187991097001,-0.00582225505809721,-0.0364658263504456,0.365039508080206,-0.000372550186352459,0
0.19,0.000644204058427921,0.000368908956568028,-0.0319660218516866,-0.0184548460516337,0.000114631085789668,0.000733452385163343,-0.00582750203471775,-0.0364478821860388,0.365037292361786,-0.000331349035293906,0
0.2,0.000643585370277973,0.000368902288331612,-0.0319525162837466,-0.0184545166096205,0.000114847136648287,0.00073287185945145,-0.00583208606346722,-0.0364351376051493,0.365035357675928,-0.000295666776179583,0
0.21,0.000643058301235469,0.000368900682204535,-0.0319413449335413,-0.0184544357681831,0.000115035028647693,0.000732378750581175,-0.00583606009321424,-0.0364246635986367,0.365033667335487,-0.000264559602506569,0
0.22,0.000642601023231182,0.00036890014056801,-0.0319317343039579,-0.0184544071514467,0.000115198843305555,0.000731951238314358,-0.00583951796124677,-0.0364156673555519,0.365032190236119,-0.000237392697984218,0
0.23,0.000642202185730143,0.000368899843183471,-0.0319233682134612,-0.0184543900436977,0.000115341886605396,0.0007315784242661,-0.00584253549816435,-0.0364078388390446,0.36503089942051,-0.000213655670274751,0
0.24,0.000641853638255548,0.000368899619173376,-0.0319160525443508,-0.0184543895797365,0.000115466926071487,0.000731252631415264,-0.00584518766059133,-0.0364009984201934,0.365029771381935,-0.000192912852145232,0
0.25,0.000641549271789389,0.000368899430692683,-0.031909666911779,-0.0184543737049229,0.000115576122451222,0.000730968137484816,-0.00584748823425166,-0.0363950220856084,0.365028785590428,-0.000174785935012851,0
0.26,0.000645819872541127,0.000371503990961771,-0.0321162209886705,-0.0185846745163839,0.000116485136150393,0.000735887040329958,-0.00589549705062888,-0.0366344768216918,0.365028022449625,-0.000183426613285538,0
0.27,0.000635479837223669,0.00036549431363078,-0.0316389228276295,-0.0182840325400581,0.000114563277731974,0.000724082848995584,-0.00578508310118456,-0.0360812984402029,0.365027021343861,-0.000114548352105744,0
0.28,0.000634761483976912,0.000365265855257716,-0.0315043310854728,-0.0182725946735561,0.000114606781369086,0.000723330195845536,-0.00582246831236273,-0.0359514875352702,0.365026363260576,-9.9855017527817e-05,0
0.29,0.000639252185776394,0.000368156938028837,-0.0318248197428119,-0.018417226521887,0.000115704646205754,0.000728557014162288,-0.00584318116668833,-0.036302487769769,0.365025915305727,-0.000114908741584948,0
0.3,0.000630058732904547,0.000363480747681548,-0.0313915103641852,-0.0181832961437671,0.000114618207699384,0.00071830002596979,-0.0057793353790469,-0.0358142215352111,0.365026138500674,-7.2410057822277e-05,0
0.31,0.000638134870131733,0.000367792372795206,-0.031773251540642,-0.0183989896983704,0.000115763035177653,0.000727383160136959,-0.0058445584815667,-0.036247806437648,0.365025801792522,-0.000107376352491203,0
0.32,0.000639909436205801,0.00036867281619136,-0.0318600570899414,-0.0184430382986952,0.000115952318653277,0.000729355051907247,-0.00585473366239172,-0.0363446143631202,0.365025361174962,-0.000108887595714804,0
0.33,0.000640226211960691,0.00036885255681307,-0.0318782676439926,-0.0184520338443132,0.000116007442552984,0.000729715070710062,-0.00585665110373449,-0.0363648338209159,0.365024941931817,-0.000103423934239703,0
0.34,0.00064021498124527,0.000368889208576818,-0.031880722303321,-0.0184538563666671,0.000116045961746236,0.000729717620163926,-0.00585749091755183,-0.036367775152377,0.36502456756981,-9.70645988284287e-05,0
0.35,0.000640137681878551,0.000368896645765701,-0.0318797106872183,-0.0184542320483484,0.000116080742732905,0.000729648030343814,-0.00585821493176429,-0.0363669623670755,0.365024238549978,-9.1137046465212e-05,0
0.36,0.00064005444500557,0.000368898122802158,-0.0318780902642973,-0.0184543080141845,0.000116112045774379,0.000729570771347395,-0.00585887481013306,-0.0363654741360575,0.365023950583825,-8.58705074297844e-05,0
0.37,0.000639977960156588,0.000368898387925837,-0.031876495229776,-0.0184543243064693,0.000116139780009661,0.00072949939108938,-0.00585946856595463,-0.0363639885307823,0.365023698828767,-8.12478875418218e-05,0
0.38,0.00063991032285786,0.000368898410155664,-0.0318750605095937,-0.0184543274796079,0.000116164105857961,0.000729436192429226,-0.0058599916851156,-0.0363626481800384,0.365023478796236,-7.72034649443799e-05,0
0.39,0.000639850951043816,0.000368898386804294,-0.0318737903785251,-0.0184543277202758,0.000116185418328425,0.000729380701627302,-0.00586045230218984,-0.0363614606900666,0.365023286504258,-7.36679436889293e-05,0
0.4,0.000639799088018018,0.000368898357660259,-0.0318726778663403,-0.018454327940656,0.000116204027263803,0.000729332225642606,-0.00586085575287774,-0.0363604205690299,0.365023118459227,-7.05779954991626e-05,0
0.41,0.000639753920266486,0.000368898330405948,-0.0318717096342146,-0.0184543128904626,0.00011622023247743,0.000729290006948899,-0.005861192664516,-0.0363595098951596,0.365022971604284,-6.78776306851857e-05,0
0.42,0.000639714222641802,0.000368898306223197,-0.0318708484271428,-0.0184543130788427,0.000116234474368552,0.000729252901230304,-0.00586150493236421,-0.0363587047432348,0.365022843267954,-6.55177687200985e-05,0
0.43,0.00063967958908361,0.000368898285014545,-0.0318700949285865,-0.0184543132533774,0.000116246899504828,0.000729220528874745,-0.0058617781499228,-0.0363580002933602,0.365022731114743,-6.34554828435405e-05,0
0.44,0.000639649321099981,0.000368898266464498,-0.0318694325827672,-0.018454313415979,0.000116257758423809,0.000729192237061291,-0.00586201830316718,-0.0363573810692693,0.365022633103867,-6.16532511258676e-05,0
0.45,0.000639622894821965,0.00036889825025,-0.0318688512092217,-0.0184543135680785,0.000116267239131702,0.000729167536114049,-0.00586222909242263,-0.0363568375513112,0.365022547452617,-6.00782812385115e-05,0
0.46,0.000639599728172956,0.000368898236079143,-0.0318683356912786,-0.0184543137112653,0.00011627555027866,0.000729145882021298,-0.00586241597210539,-0.0363563556102069,0.365022472601721,-5.87019155271135e-05,0
0.47,0.00063957953011465,0.000368898223694991,-0.0318678837684987,-0.0184543138463442,0.000116282796510789,0.000729127002670061,-0.00586257979940539,-0.036355933126761,0.365022407189663,-5.74991099732428e-05,0
0.48,0.000639561893193419,0.000368898212872093,-0.031867485732144,-0.0184543139744274,0.000116289123935248,0.000729110517232982,-0.00586272408439036,-0.0363555610253157,0.365022350026107,-5.64479785920955e-05,0
0.49,0.0006395464681633,0.000368898203413899,-0.031867133474895,-0.0184543140964539,0.000116294657798037,0.000729096099283072,-0.00586285175984292,-0.0363552317269393,0.365022300070852,-5.55293952217003e-05,0
0.5,0.000639532963985988,0.000368898195148331,-0.031866820639412,-0.0184543142132318,0.000116299502493667,0.000729083476789952,-0.0058629651289544,-0.0363549392881051,0.365022256415002,-5.47266455148225e-05,0
0.51,4.35389296748394,0.0258091192329566,4.32050213035051,-1.28523388352679,-0.425468788058301,4.33313124580019,-1.72599487965318,4.16407330256561,0.103803697484706,31.8047239657378,452.417377545096
0.52,4.07197754280286,0.0334754780377143,2.78754553729236,-1.66264565854263,-1.78616717481658,3.65947107384775,-2.7313808386938,1.75338513235557,0.46229856378426,65.6429942944823,452.417377545096
0.53,3.7265723343031,-0.0164709173190019,5.15889082018699,0.841847425550471,-3.26288310281164,1.80033511083266,-4.09592502872002,3.24750053758586,1.06218146300035,97.8680444518318,452.417377545096
0.54,3.44173275383894,-0.0126546625886661,4.4338886053422,0.649850325964099,-3.25593787205311,-1.11559538483416,-4.40813953153992,-0.806213049518601,1.89721728543828,129.998733837353,452.417377545096
0.55,3.20440233622901,0.0351282193652926,2.64481318258122,-1.73893234321769,-0.615674663331755,-3.14489634696552,1.2304517828805,-2.91631803393426,2.95923025718378,158.739192775234,452.417377545096
0.56,2.99141783895127,-0.0226136926380813,1.81480276817637,1.15727230302542,2.63886181517717,-1.40907784976219,1.0415568748504,-1.88359962496871,-2.06880999324116,183.381405020125,452.417377545096
0.57,2.67267468015326,-0.0108673742393981,6.24567590902526,0.561412543284213,1.57578792036203,2.15874974830255,4.15495827237074,4.69680459027128,-0.634613801825396,208.117118559084,452.417377545096
0.58,2.49738449319349,0.0461125967006302,4.65012847830797,-2.28295001441307,-2.03919913002262,1.44247100023979,-5.12902768983325,0.727069865971113,0.973602532608615,229.888282977181,452.417377545096
0.59,2.29531391732574,0.00413337558321691,5.3079850385613,-0.183937951424421,-0.916689144187031,-2.10432033606877,-1.9423380345736,-4.94326423520062,2.73256001008916,250.289747989043,452.417377545096
0.6,2.15858449160487,0.0111565964342624,3.17584708962247,-0.533440366336726,2.15189948043708,-0.17011790950887,3.20651149445465,0.298072804917101,-1.6445185870933,269.016202497333,452.417377545096
0.61,1.98477685788861,-0.0109504077819091,3.63378226940865,0.56349866225679,-0.767125032020586,1.83056774588874,-0.865037239211559,3.57401943176182,0.391314930945926,286.662950538312,452.417377545096
0.62,1.794914642466,0.00271461280124796,5.69174453669167,-0.108164525725765,-1.00132831059425,-1.48965350241725,-3.07823979636356,-4.78874672452705,2.5512892033108,302.225770270377,452.417377545096
0.63,1.67649526301432,-0.00489946138720954,4.40801095825614,0.261350021950779,1.66567577214454,0.19022248479617,4.40988232626262,0.227601209567183,-1.46000999413271,317.400305572616,452.417377545096
0.64,1.54260257263458,-0.0141762761613783,4.81341254233515,0.731273197489555,-1.23147040402695,0.929141704967725,-3.36982692880436,3.5139674531761,0.915233253380362,330.800058538623,452.417377545096
0.65,1.43864528883243,0.0153551679584595,4.03942465516229,-0.742754340929937,0.335014131733272,-1.3991788948529,1.70292153617045,-3.73747157813275,-2.89590785131562,343.174297099274,452.417377545096
0.66,1.31969829928298,0.0201677598366862,4.33471511130416,-0.994530137699841,0.454382963584935,1.23917168385619,0.491083977866793,4.42014499961759,-0.336178120801039,354.994767023081,452.417377545096
0.67,1.15949630671961,-0.00177383158590877,7.26563481373168,0.0956159838895771,-0.859773069554576,-0.777962146022294,-5.45899916896511,-4.79561463590677,2.30475245702426,365.69260515733,452.417377545096
0.68,1.1388994680067,-4.3943652068279e-05,3.6866465118316,0.0286058596786404,1.08509707818573,0.345913762475258,3.52121730930832,1.09234127406938,-1.26223358355518,375.261594873527,452.417377545096
0.69,1.02829562991894,0.0442848008367613,4.80852801558463,-2.19477299064689,-1.0250231675882,0.0931694799974297,-4.90752565914265,-1.96345666160265,1.52319003560229,384.320732789545,452.417377545096
0.7,0.913018274467503,-0.00705353193901481,6.5020372865305,0.364133131843243,0.862941024045354,-0.298303387248599,6.00701386982654,-2.51492866317326,-1.91134478041394,392.721566227634,452.417377545096
0.71,0.853699313971708,-0.0268340675519308,5.72811730873617,1.34646659664493,-0.730949016338643,0.44185531723712,-4.07413911129457,4.24566728563878,0.995655594580736,400.450579715181,452.417377545096
0.72,0.786684139732357,-9.7236982590676e-05,5.6701392284321,0.00617353789212222,0.572608233602969,-0.539436517091268,4.12244185686653,-3.8930694983688,-2.32649745658651,407.487068086284,452.417377545096
0.73,0.71527965654993,-0.0295221309990872,6.10757715075333,1.49854198369983,-0.474974967948526,0.535626103840365,-2.69908504033032,5.68005868582185,0.684205010492172,413.848916125266,452.417377545096
0.74,0.658519551202624,0.00528727641973437,6.00560888603853,-0.245156546348057,0.366861374365949,-0.546890013262604,3.58804196044701,-4.82217738312827,-2.54269558015704,419.776235392948,452.417377545096
0.75,0.604996045350356,0.00981671105266751,5.94477752192604,-0.477026650602831,-0.310656273660848,0.519239118654034,-3.53984286156173,4.79973402659282,0.555386844351306,425.290984132942,452.417377545096
0.76,0.59915798136161,0.0312677908236509,3.69276775581979,-1.55577359368583,0.28673703957829,-0.527019763866773,3.2574780917583,-2.33362414603276,-2.59117265462942,430.399538130949,452.417377545096
0.77,0.513507231214455,-0.000656889233686814,5.64951849024266,0.034795024866221,-0.282371721953999,0.42890129243654,-3.07147733386752,4.74176094429983,0.580950980118347,435.034927813815,452.417377545096
0.78,0.510544376378923,0.0189582737096332,3.6495156103797,-0.95041557973762,0.291331710635055,-0.419691327969313,2.95100261629812,-2.34815619651137,-2.49768248367387,439.320624085426,452.417377545096
0.79,0.419941701279999,-0.0158444016585691,6.1971584743026,0.787072740285749,-0.293954995024117,0.300320725955152,-3.58197362332562,5.11798022816823,0.736974711723319,443.231112194445,452.417377545096
0.8,0.399203329613711,0.023684902649576,5.4219115632202,-1.19105659178794,0.286360352003734,-0.279145162574046,4.87922393601407,-2.64743547351958,-2.28417539726214,446.769312758391,452.417377545096
0.81,0.344772545575039,0.031814927013015,6.46465811186781,-1.58262560743279,-0.273535189656059,0.212270576818738,-6.30107925113919,2.14310722725287,1.00286264205891,450.003399407455,452.417377545096
0.82,0.332003414570899,-0.0493785527512358,5.54536127614745,2.48649949723366,0.325054254067231,-0.083691341674864,4.14091818989546,-4.44820278059935,-1.97043877374208,452.988693644768,452.417377545096
0.83,0.316753008584374,0.0202232007738477,4.86285460738579,-0.996308265069924,-0.305562760021998,0.0858652781078042,-4.96370516904682,0.0402005770824182,1.36061285985,455.728390393667,452.417377545096
0.84,0.271448231973198,-0.00960860122838577,5.81398357807269,0.494079946293612,0.271465287842241,0.00911401973173178,5.81307373851939,-0.504671923099194,-1.57261827943298,458.194495233518,452.417377545096
0.85,0.300842673240375,-0.027314823557394,3.0910831729564,1.37864401628976,-0.287243910711946,-0.0935058788916204,-3.32020519816424,0.657032684018771,1.79495941671909,460.532238748281,452.417377545096
0.86,0.255129509624838,-0.0201556809378684,4.23263545273776,1.01728535329741,0.218832486156302,0.132701398478431,4.2381270419045,0.994158710912809,-1.10451763941033,462.626103873636,452.417377545096
0.87,0.17530580496879,0.0206201171496641,7.1753742331593,-1.02684313218465,-0.145092147242161,-0.100526530307578,-4.7009034148303,-5.51741871606987,2.29379057447614,464.525125286087,452.417377545096
0.88,0.208435155431138,-0.00984880139868734,4.55211424853115,0.495823633098156,0.105586918482708,0.179982264553815,2.90148782199487,3.54245022909771,-0.577762857335443,466.247811559896,452.417377545096
0.89,0.201289192011598,0.00553016364761161,4.01161470173587,-0.276165578926927,-0.0639523442284702,-0.190939831356201,-0.904937794248061,-3.91795961320543,2.8458685221712,467.825746016445,452.417377545096
0.9,0.139726000454765,0.0158293532519317,6.2616669777606,-0.794855049793623,0.0162003719695694,0.139683469227776,-0.778222949570417,6.26375581670629,-0.00265573317894677,469.25587846393,452.417377545096
0.91,0.138879082085861,-0.0322465741321437,5.54235354296823,1.608452084206,0.0718951870752634,-0.123119141727369,0.103480227835712,-5.77010335651678,-2.84120865303247,470.545283612566,452.417377545096
0.92,0.169536578345967,0.0267497798883293,3.30061314578036,-1.3443649790381,-0.075570320010928,0.154101683491058,-2.99740171969099,1.92793860528693,0.612423811458705,471.719535518144,452.417377545096
0.93,0.110563623918707,-0.0223958720997046,5.60547692023273,1.11176768897351,0.102148570025056,-0.0478702377577125,3.84024374490083,-4.23201215466796,-2.20889412547214,472.751955577344,452.417377545096
0.94,0.124676030338953,-0.0243023578787298,4.31118965215116,1.20614914293397,-0.12613655273587,0.0149762212676086,-3.73605063035235,2.46638960005498,1.26010922095435,473.691529848442,452.417377545096
0.95,0.110238144393322,-0.0546401805303911,4.48090065571239,2.72268219947272,0.108939875050374,0.0571848007051304,4.5429041237284,-2.61791733412283,-1.54757770421432,474.535193631868,452.417377545096
0.96,0.0614431705811134,-0.0346624587092848,6.42282780731812,1.72146949943529,-0.0451371710787466,-0.0542160957819782,-6.61562171855404,-0.670614313104729,1.9336883649766,475.261139057713,452.417377545096
0.97,0.105162661311167,0.00718634196402156,3.7609517784695,-0.371955894980215,0.0845774932549641,0.0629084770088863,2.61585653730758,2.72771040325189,-0.863047621847245,475.957090761693,452.417377545096
