t,iq,id,vq,vd,ia,ib,va,vb,theta_e,omega,r
0,0,0,0,0,0,0,0,0,0,0,0
0.01,0.00077559864937678,0.000414565537641113,-0.037317891264918,-0.0207416912091333,-7.57632233153031e-07,-0.000879441456782741,0.000737807076133464,0.042688387219403,-2.65158087287642,-0.00270960626498317,0
0.02,0.000931253066301601,0.000492565735705941,-0.0451682453845578,-0.0246442089602589,3.65610205720003e-06,-0.00105348939738633,0.00048747785119722,0.0514516257443934,-2.65160097426624,-0.00271311320477755,0
0.03,0.000979004511998972,0.00052246351251804,-0.0477254292559505,-0.0261400715518723,-2.71320359456287e-07,-0.00110969269746732,0.000604866233329171,0.0544118927739287,-2.65161920492512,-0.00233794120809788,0
0.04,0.00094641244740149,0.000512624760966879,-0.0464093809732426,-0.0256478224843235,-6.94332619323597e-06,-0.00107630500155588,0.000790620652090002,0.0530190188469329,-2.65163339862373,-0.00176326922453428,0
0.05,0.000957855883747074,0.000525508028965039,-0.0471347863138543,-0.0262923910453719,-1.29381426431207e-05,-0.00109246473032339,0.00101860131156245,0.0539623976404268,-2.65164475342712,-0.00145548577708465,0
0.06,0.000951570747600574,0.000527465958202864,-0.0469823023736245,-0.0263903526064371,-1.76332108817767e-05,-0.00108784019719166,0.00117728042691303,0.053873940433341,-2.65165377688309,-0.00114860901256092,0
0.07,0.000960308643280673,0.000537303918547539,-0.0475050398983443,-0.0268825644622877,-2.22094552788928e-05,-0.00110017949960101,0.00136597139953967,0.0545667958556115,-2.65166051614838,-0.000973816172240012,0
0.08,0.000940390881230781,0.000529257165344715,-0.0466515217424322,-0.0264799818026439,-2.44879677669268e-05,-0.00107881810144499,0.00141268460779714,0.0536242318299467,-2.65166613564352,-0.000717887150708685,0
0.09,0.000932605392099646,0.000528030796148346,-0.0463493181444347,-0.0264186252860503,-2.70738499794201e-05,-0.00107137124550815,0.00150097198901696,0.0533286990048224,-2.65167028220698,-0.000557032889858692,0
0.1,0.000928123934866254,0.00052784298865196,-0.046187594379868,-0.0264092124126714,-2.90202749664094e-05,-0.00106732847932655,0.00156893397621614,0.053181564672686,-2.65167342813882,-0.000440766790274089,0
0.11,0.000924984017423723,0.000527813535519775,-0.0460775074364775,-0.0264077475989394,-3.0474348775024e-05,-0.00106454397505878,0.00161957102902942,0.0530837339915897,-2.65167583268588,-0.000353057827043275,0
0.12,0.00092263642388814,0.000527808388232184,-0.0459959001645357,-0.0264074857461839,-3.15764294281279e-05,-0.00106247004403791,0.0016578381008607,0.05301159975149,-2.65167767413106,-0.000286119086747879,0
0.13,0.000960960631573984,0.000549511977811447,-0.0478426770816036,-0.0274933658853131,-3.26956781469993e-05,-0.0011064988666166,0.00174709043392815,0.0551521041579918,-2.65167955339215,-0.000382727995647823,0
0.14,0.000983103611405049,0.000563334894087159,-0.0490731208017183,-0.0281849750548529,-3.44751711787111e-05,-0.00113254155607026,0.00177845759537729,0.0565632486040553,-2.6516812100495,-0.000420744130325092,0
0.15,0.000929291119845969,0.00053321374036634,-0.0463907547693001,-0.0266779274253627,-3.32198728228346e-05,-0.00107088529656059,0.00171093305715686,0.0534872568735039,-2.65168260491169,-0.000159291227129214,0
0.16,0.000918427685298992,0.000528628481146041,-0.0458825892228961,-0.0264485274994713,-3.42861495495325e-05,-0.00105914207930358,0.00174765399150099,0.0529309201338244,-2.65168302447962,-0.00010220759182663,0
0.17,0.000916132809417853,0.000527930433924402,-0.0457769049536454,-0.0264136072557233,-3.4750258426812e-05,-0.00105678866718693,0.00176658072812555,0.0528212350094704,-2.6516832170966,-8.69059836939222e-05,0
0.18,0.000915571274196242,0.000527824131737308,-0.0457522410080094,-0.0264082892821607,-3.49208170047417e-05,-0.00105624315795052,0.0017735002412772,0.0527969695812122,-2.65168333911422,-8.08264851763512e-05,0
0.19,0.000915378916014646,0.000527807918188103,-0.0457445350378654,-0.026407459072912,-3.49971172976305e-05,-0.00105606579348403,0.00177639836538206,0.0527897792130776,-2.65168342754038,-7.72885283508928e-05,0
0.2,0.000915278391247277,0.00052780542590954,-0.0457408316600531,-0.0264073372118789,-3.504229017083e-05,-0.0010559759178141,0.00177803697083554,0.0527864539830584,-2.65168349429618,-7.47997990852354e-05,0
0.21,0.000915210870337869,0.000527805028027335,-0.0457384384223969,-0.0264073171105838,-3.50737645717714e-05,-0.00105591615000165,0.00177914805145823,0.0527843326992898,-2.65168354525343,-7.29367704171357e-05,0
0.22,0.000915160869953958,0.000527804953292224,-0.0457366827263658,-0.0264073144207706,-3.50972672827313e-05,-0.00105587199434589,0.001779973872324,0.0527827821807787,-2.6516835842641,-7.15178311226061e-05,0
0.23,0.000915122976766763,0.000527804931059524,-0.045735354039379,-0.0264073146070979,-3.51151096962723e-05,-0.00105583854680923,0.00178060082214201,0.0527816098141936,-2.65168361415176,-7.04321850113005e-05,0
0.24,0.000915093989351673,0.000527804919355669,-0.0457343348111444,-0.0264073147684215,-3.51287634510992e-05,-0.00105581296270788,0.00178108176668116,0.0527807105071232,-2.65168363705408,-6.96005586759472e-05,0
0.25,0.0009150718122329,0.000527804911198506,-0.0457335522057645,-0.0264073149106586,-3.51392101292112e-05,-0.00105579338970272,0.00178145107004037,0.0527800199908368,-2.65168365460481,-6.89633203388326e-05,0
0.26,0.000922812451375511,0.000532126563670422,-0.0460990199510172,-0.0266235350409752,-3.53101140894439e-05,-0.00106465707907305,0.00180026454801657,0.0532042414294149,-2.65168356682736,-0.000103051588054337,0
0.27,0.000904685052998279,0.000521412487621959,-0.0452448375475514,-0.0260874921760731,-3.43863700676544e-05,-0.00104362043144056,0.00172922156244313,0.0521982984926614,-2.65168388004131,-1.98641886050377e-05,0
0.28,0.0009040670492883,0.000521181405378011,-0.0450668284401045,-0.0260759293560646,-3.44732554063928e-05,-0.00104296638564353,0.00180277957277827,0.0520357867553115,-2.65168386845576,-1.7722845059952e-05,0
0.29,0.000912885883341087,0.000526796647589813,-0.0456305840358719,-0.0263568694124076,-3.52781677732758e-05,-0.00105339014367606,0.0017853926938405,0.0526654263972699,-2.65168369801425,-5.87562175372597e-05,0
0.3,0.000900638585224187,0.000520877183986617,-0.0450363221878849,-0.0260607089057745,-3.58170009356329e-05,-0.00103979807868472,0.00180365073615002,0.0520017087113921,-2.65168284432264,-3.57772224276019e-05,0
0.31,0.00091301485038255,0.000526750647461777,-0.0456230877178247,-0.0263545716486568,-3.5176004626391e-05,-0.00105348232558453,0.00178684813171863,0.0526577321335308,-2.65168285425683,-8.55932576938923e-05,0
0.32,0.000915269282855339,0.000527644659946922,-0.0457325445623208,-0.0263993049337389,-3.49042155491886e-05,-0.00105589224973286,0.00177482372358577,0.0527753629440801,-2.65168301643229,-8.96662622279178e-05,0
0.33,0.000915561492887779,0.000527780691824584,-0.0457488778960895,-0.0264061137737989,-3.4886912098096e-05,-0.00105621409254279,0.00177315427008803,0.0527929786744467,-2.65168317139749,-8.60173864857383e-05,0
0.34,0.00091550060882701,0.000527801353431417,-0.0457479899798845,-0.0264071500093846,-3.49339240051798e-05,-0.00105617008781742,0.00177449301539064,0.0527926825739712,-2.65168329624472,-8.18770865372803e-05,0
0.35,0.000915397600477871,0.000527804463369474,-0.0457446552808774,-0.0264072856955329,-3.49852406134512e-05,-0.00105608065575154,0.001776186985012,0.052789803791699,-2.65168339312915,-7.84373981105427e-05,0
0.36,0.00091530726221766,0.000527804909710668,-0.0457415595452578,-0.0264073122198709,-3.50282214027914e-05,-0.00105600115089352,0.00177767100682611,0.0527870845387543,-2.65168346761554,-7.57484644201605e-05,0
0.37,0.000915235841421096,0.000527804956902047,-0.0457390808237465,-0.0264073154102288,-3.50619301212792e-05,-0.00105593815112833,0.0017788431893819,0.0527848987749727,-2.65168352474494,-7.36773164761783e-05,0
0.38,0.000915180544143315,0.000527804948179561,-0.0457371509887279,-0.0264073156452859,-3.50879885588165e-05,-0.00105588935251767,0.00177975378374855,0.052783195968269,-2.65168356853489,-7.2088029297255e-05,0
0.39,0.000915138168966237,0.00052780493466111,-0.0457356690476607,-0.0264073158441342,-3.51079515205853e-05,-0.00105585195415433,0.00178045305150262,0.0527818883733843,-2.65168360209459,-7.08696835308071e-05,0
0.4,0.000915105689091498,0.000527804923260607,-0.0457345297653665,-0.0264073160152446,-3.51232518786588e-05,-0.00105582328843573,0.00178099064424611,0.0527808831331316,-2.65168362781307,-6.99359364606427e-05,0
0.41,0.000915080776212667,0.000527804914365641,-0.0457336522317589,-0.0264073161651487,-3.5134987485025e-05,-0.00105580130103961,0.0017814047363709,0.0527801088542533,-2.6516836475224,-6.92203541594949e-05,0
0.42,0.000915061684099917,0.000527804907524553,-0.0457329763674039,-0.0264073162987377,-3.51439811046123e-05,-0.0010557844508738,0.00178172367641596,0.052779512523933,-2.6516836626262,-6.86719729265885e-05,0
0.43,0.00091504701576939,0.000527804902278541,-0.0457324532003028,-0.0264073164199174,-3.51508908141519e-05,-0.00105577150502024,0.00178197056821738,0.0527790509303979,-2.65168367420097,-6.82517268442786e-05,0
0.44,0.000915035781690851,0.000527804898257488,-0.0457320492571903,-0.0264073165314598,-3.51561827767536e-05,-0.00105576159013849,0.00178216120843723,0.0527786945374924,-2.65168368307109,-6.79296761260676e-05,0
0.45,0.00091502716695705,0.000527804895176026,-0.0457317360634596,-0.0264073166356478,-3.51602408591324e-05,-0.00105575398701778,0.00178230903105784,0.0527784182198662,-2.65168368986867,-6.76828763606954e-05,0
0.46,0.000915020589491377,0.000527804892814551,-0.045731493912939,-0.0264073167341176,-3.51633392724107e-05,-0.00105574818192756,0.0017824233357353,0.0527782045891807,-2.65168369507797,-6.74937442896849e-05,0
0.47,0.000915015583632546,0.000527804891004765,-0.0457313067146652,-0.02640731682818,-3.51656973747039e-05,-0.00105574376388739,0.00178251171474177,0.0527780394471173,-2.65168369907001,-6.73488051739373e-05,0
0.48,0.000915011741926932,0.000527804889617943,-0.0457311596358858,-0.0264073169189799,-3.51675070782128e-05,-0.00105574037329955,0.0017825811635848,0.0527779097056481,-2.6516837021292,-6.72377328038724e-05,0
0.49,0.00091500877333623,0.000527804888555003,-0.0457310423102892,-0.0264073170073329,-3.51689054725523e-05,-0.00105573775330462,0.00178263657231677,0.052777806217787,-2.65168370447363,-6.71526138125843e-05,0
0.5,0.000915006503237458,0.000527804887740511,-0.0457309493006951,-0.0264073170937284,-3.51699748356047e-05,-0.00105573574977817,0.00178268050862766,0.0527777241858308,-2.65168370627036,-6.70873838872386e-05,0
0.51,4.70522692976604,0.022861435619032,4.7394217243471,-1.13301244595561,-0.465257539896027,4.68222367336333,-1.61844450019746,4.59635430354146,0.103900366940343,31.9635149301504,501.28226828436
0.52,4.52612627267038,-0.0606640509523185,6.56376716347634,3.06024400885096,-2.10643614698095,4.00654788089785,-0.248792431145735,7.23783359136165,0.470631233848691,68.0541785197602,501.28226828436
0.53,4.17623491340828,-0.0139796536470771,6.21456938195555,0.729290084908455,-3.73117813015596,1.87601792201787,-5.21309873013489,3.46068465205241,1.10156775536528,104.322099461786,501.28226828436
0.54,3.84246086879822,0.0222591195062749,6.34222410296519,-1.07985385099752,-3.51689007288309,-1.54805852986996,-5.34908830725663,-3.57451328056243,1.99124540109379,137.118618978746,501.28226828436
0.55,3.4829606040099,0.0337553895816621,10.0580535659541,-1.6389749366784,-0.17078049537411,-3.47893489703538,1.2419305737258,-10.1147559945214,3.10223342564438,166.171100260572,501.28226828436
0.56,3.22182094740038,0.0768366777881608,9.15724258770152,-3.80008079064967,3.06930881494093,-0.982536254133812,9.85730485099306,1.06266029382291,-1.85676058901068,193.895132035547,501.28226828436
0.57,2.94596188947785,0.0587871520222576,10.2857212446171,-2.90886417144333,1.04364034116412,2.75553301954334,0.710167738493968,10.6655151808563,-0.342096119589772,219.508205181299,501.28226828436
0.58,2.71747311798675,0.0143478621366506,10.4519265303204,-0.672820490187206,-2.64847356497281,0.608649146691849,-10.3458460993555,1.63062077003905,1.35018697298426,242.325718646676,501.28226828436
0.59,2.47555331633612,0.0740268007504425,11.9639592842002,-3.643792748235,0.0857223413497638,-2.47517592696875,4.40751093856039,-11.7041614254316,-3.07707943758486,263.470634924863,501.28226828436
0.6,2.29335138411119,0.0422216905129582,11.2541730801031,-2.05324760556157,2.03302030410677,1.06210719103304,8.89325850747072,7.19598433613925,-1.07095915165971,283.132927309764,501.28226828436
0.61,2.11421199727239,0.0813510821925783,11.1636418651164,-4.01193922254934,-1.81921184299186,1.08026785488719,-11.7251707022823,1.80081315531337,1.07339928187412,301.304907454166,501.28226828436
0.62,1.96931610909209,0.0626824373691683,10.0742892701849,-3.07650478111667,0.337156079639243,-1.94125238015216,5.05163582995435,-9.24322245805638,-2.9378095633795,318.060611535325,501.28226828436
0.63,1.75337410124338,0.0445618323056052,13.2350442901569,-2.17072685409912,0.952024090996083,1.47307726408785,5.04666970143499,12.426165030376,-0.54834800638617,333.436076227116,501.28226828436
0.64,1.61569051272815,-0.0652059262441289,13.0445896455059,3.28235621445586,-1.47737164022721,-0.657328443313887,-13.3345761319774,-1.7675578402745,1.94909084189351,347.696575394443,501.28226828436
0.65,1.48389726471989,0.0347841269612361,13.0606703336503,-1.72485277503149,1.45766965869893,-0.27992890854673,13.166011610402,-0.460830700568124,-1.7370883818309,360.786955314139,501.28226828436
0.66,1.34589452534064,0.0183062618389926,13.9796472997769,-0.88693272300368,-1.08543246477654,0.795992183990239,-11.8993360921424,7.39073669180079,0.951643192274875,372.705895427725,501.28226828436
0.67,1.26684371823238,0.0432508576230765,12.4779440881027,-2.11423124497089,0.661274065405494,-1.08142510306173,8.63400534925221,-9.25327045168963,-2.55864446845854,383.671698792476,501.28226828436
0.68,1.15307338352631,-0.0119145568983391,13.1053270679772,0.604007733193589,-0.343182701228765,1.10088410745193,-3.19230961517524,12.7249197333922,0.291854111249621,393.904985174894,501.28226828436
0.69,1.07358342368556,-0.0251014798782828,12.3344755215434,1.27199131466691,0.102816253904903,-1.06894352977014,-0.375020228027416,-12.394216720903,-3.06907947670614,403.306705873166,501.28226828436
0.7,0.957458355828084,0.0143650025212344,13.8987118571447,-0.673450995658732,0.0918988766850864,0.95314608161943,0.454950779405058,13.9075787727342,-0.0811171100283005,411.800106476192,501.28226828436
0.71,0.86038241703788,0.0105242825007695,14.7630672408662,-0.529966044425462,-0.159479307089951,-0.845538298766064,-2.0366653165785,-14.6315075352756,2.96740144684872,419.839383299029,501.28226828436
0.72,0.849378226383064,0.0527231154218622,11.6547908126122,-2.60905580245128,0.229802657009024,0.819398460570326,-0.105036399183115,11.9427923209315,-0.211435545556441,427.064880046417,501.28226828436
0.73,0.714791067392486,0.0170442992257708,15.0577751368082,-0.84498783413819,-0.157063852316995,-0.697529730158889,-2.12810019293259,-14.9305654976414,2.94395556178768,433.770133202351,501.28226828436
0.74,0.72233831259183,-0.0252192833278654,11.5711653587562,1.27901551169985,0.073440335158736,0.719037667484365,2.84375101337746,11.2889693335026,-0.136683242788093,439.931506602007,501.28226828436
0.75,0.542704240808135,0.0560186384006264,17.7184449644048,-2.7743667736271,-0.0735068442032987,-0.540613285717865,2.20100556266045,-17.7987633689643,3.10930906829944,445.615224512114,501.28226828436
0.76,0.641045905242152,0.0724846151948905,10.1537768877473,-3.6127938044885,0.000298981126618914,0.645130826017458,-4.72627148612035,9.6857535586751,0.112130754851101,450.873605826442,501.28226828436
0.77,0.538764362644473,-0.0206764842090621,12.874070642976,1.04476718593606,0.175580260953311,-0.509770661590602,2.72248011440997,-12.6262161956695,-2.84824742567148,455.67045087371,501.28226828436
0.78,0.476976904108762,0.0365065187182331,13.7028521106931,-1.81079943960519,-0.200357611158745,0.434392127705907,-8.25368920594201,11.0870990376075,0.508547375557914,460.107973387081,501.28226828436
0.79,0.41890385172849,-0.0757768544111914,14.5588161993185,3.77289121092319,0.342236025103337,-0.253173995068387,7.22825198425759,-13.1888669136919,-2.38667230445741,464.208715904656,501.28226828436
0.8,0.414084674963081,-0.000910577209895735,12.8949234536147,0.0719680933003589,-0.35549504348248,0.21234458139902,-11.0187602406497,6.69859336279743,1.03015015162236,467.969812622092,501.28226828436
0.81,0.306759677210459,-0.0109879765829342,16.4896884713135,0.530923803409308,0.300651818398466,-0.061892804794646,15.8960373540632,-4.41675247260062,-1.80962627005882,471.472216581248,501.28226828436
0.82,0.276962361911529,0.0321022039147969,16.3685340569815,-1.57365511508151,-0.27870776477333,0.00778994652447385,-16.1685430111559,-2.99725115600737,1.65824663277959,474.641727944131,501.28226828436
0.83,0.335850540358137,0.0137836634588964,11.9643626144283,-0.690678193403597,0.310277603413168,0.129280252387523,10.554505508264,5.67674401504927,-1.13499288130837,477.535309959376,501.28226828436
0.84,0.231308326028579,0.0167390835784185,15.8273906174029,-0.861878479499744,-0.172440419160515,-0.155074306217808,-10.3528965649089,-12.0027772196928,2.37546122565985,480.242498161015,501.28226828436
0.85,0.280363127437718,-0.0180476186052656,12.1074001210517,0.925206555668426,0.0867662843568946,0.26720930309942,5.3310675220473,10.909851691809,-0.378255728574267,482.702297512521,501.28226828436
0.86,0.167864050121598,-0.0629731669354703,16.5903821410917,3.1297666471351,0.0674659981162155,-0.166109295872602,-2.68234513466763,-16.6685705275377,-3.11468894863691,484.955777648344,501.28226828436
0.87,0.157111177066493,0.0644082287566585,16.0670663008692,-3.19352184284877,-0.0709698746132186,-0.154258285962774,2.51380846382553,-16.1873397531675,3.09945188149649,487.040820480328,501.28226828436
0.88,0.204956089064177,0.0355227571780799,12.703303479805,-1.76837045378568,-0.0457548795859983,0.202917115384796,-6.50275120988166,11.0551019924843,0.393390582292609,488.937977132436,501.28226828436
0.89,0.110663236256619,-0.0378812127229923,16.5075631370006,1.86667674015538,0.107801548572186,-0.0453890323932056,11.0769720539056,-12.3808244027323,-2.29911848911921,490.690172722973,501.28226828436
0.9,0.0686460049724339,-0.0122091641762968,17.7969806972147,0.637738309094112,-0.0694345707368444,0.00633861776330878,-16.9978339494849,5.31157915441884,1.30374328076657,492.280820645302,501.28226828436
0.91,0.0995562594201012,0.0681949017285076,15.5119278571257,-3.41201915241915,0.111367124493619,-0.0464688819911346,14.4906978746735,6.50241921488316,-1.36551165987118,493.719959242932,501.28226828436
0.92,0.0992040697342643,-0.0282086435389651,14.8282651447481,1.38076245696133,-0.0587355598150229,-0.0847779985336115,-12.3329510961572,-8.34759063594399,2.25866683803057,495.072028257413,501.28226828436
0.93,0.0914406718577908,0.0190378170220039,14.5598921885595,-0.925060672685702,0.0524380818639876,0.077292189237938,4.69154754309584,13.8143251533145,-0.390842642712363,496.331444391038,501.28226828436
0.94,0.169408871102198,-0.0241766542178191,10.0807033216467,1.21222239739106,0.0426156284352813,-0.165734077456494,-0.0990082421824947,-10.1528449199116,-3.03166700514771,497.465508338234,501.28226828436
0.95,0.0998984997463544,-0.0121562511810019,12.9947749404272,0.577709857960889,-0.0678547250377812,0.074318375819141,-7.06796089917177,10.9197918093762,0.618875518117346,498.518857652416,501.28226828436
0.96,0.0588337967228762,0.0214613926482674,14.5314192063711,-1.04698266729607,0.0442871684172095,-0.0442792696960728,13.6165828557111,-5.18140793515276,-2.00632459649166,499.496299933015,501.28226828436
0.97,0.0828733877172815,0.0326904542704337,12.8689324272549,-1.63254893857491,-0.085414740998749,0.0253177055094414,-12.6768565460514,-2.75171691220735,1.65836087819483,500.374771612067,501.28226828436
