t,iq,id,vq,vd,ia,ib,va,vb,theta_e,omega,r
0,0,0,0,0,0,0,0,0,0,0,0
0.01,0.000796847441830623,0.000449312461716471,-0.0393959552728639,-0.0224871316987851,0.000475081405205762,-0.000781757758025747,-0.0233542223836027,0.0388882074767818,-2.08209993585606,-0.00174620643585816,0
0.02,0.000900954112930242,0.000507083863534299,-0.0446039013367201,-0.0253784726767193,0.000537593614931551,-0.000883088593204339,-0.0264807579968958,0.0439584388458995,-2.08211306977889,-0.00185332200655023,0
0.03,0.00094104250800231,0.000530011210277689,-0.0466040129784932,-0.0265259246936151,0.000561323631876184,-0.000922707247822747,-0.0276629735727015,0.0459382041406379,-2.08212625214781,-0.00181197376128212,0
0.04,0.000918254235295629,0.000518111862029239,-0.0455047458217755,-0.0259303916191455,0.000547262084762209,-0.000901185304360588,-0.0269951866764214,0.044881254417984,-2.0821382555148,-0.00163728005548502,0
0.05,0.000939601111596174,0.000530833472979528,-0.0465783401679976,-0.026567077536398,0.000559642599840395,-0.000922732130898321,-0.0276193692069109,0.0459621782147346,-2.08214969810872,-0.00157029948514824,0
0.06,0.000940032491302048,0.000531788151804744,-0.0466203238286917,-0.026614855980919,0.000559541705572553,-0.00092378179394725,-0.0276321077716113,0.0460246865592282,-2.08216042959154,-0.00146220429352161,0
0.07,0.00096105180490032,0.000544544267866043,-0.0476745918334156,-0.0272532772778493,0.000571620482058613,-0.000945197892432588,-0.0282386268692963,0.0470976409324583,-2.08217024083355,-0.00141105050410091,0
0.08,0.000939448098325337,0.000532814194566525,-0.0466285311679102,-0.026666208145411,0.000558512239912177,-0.000924401305303573,-0.0276132520509175,0.0460740153112756,-2.08217959643618,-0.00126601020078247,0
0.09,0.000936654962415606,0.000531926969847962,-0.0465074534906222,-0.0266218036589832,0.000556502747704297,-0.000922265423653615,-0.0275290020389274,0.0459762733046141,-2.08218814092457,-0.00117269439352847,0
0.1,0.000935468252591241,0.000531857122216434,-0.046464263089674,-0.026618318083287,0.0005554947594779,-0.000921628136642457,-0.027492679872521,0.0459523139295136,-2.08219604423449,-0.00108960941967087,0
0.11,0.000934483118543356,0.000531849093017791,-0.0464298701852862,-0.0266179113430853,0.000554632851285438,-0.000921143070788327,-0.027462550067402,0.0459353283811743,-2.08220336269433,-0.00101293565498489,0
0.12,0.000933580094678581,0.000531845925698256,-0.0463984753633553,-0.0266177626923607,0.00055384067322064,-0.000920702118249117,-0.0274349335260743,0.0459200199173585,-2.08221014025239,-0.000941950168690181,0
0.13,0.000975895856365905,0.000556224573974617,-0.0484955609139968,-0.0278378415936976,0.000578804747560714,-0.000962675211775272,-0.0286662673452646,0.0480105193624146,-2.0822167480185,-0.000972585756218718,0
0.14,0.00100935903368911,0.000576147270805774,-0.0502132125922079,-0.0288349494313702,0.000598229678221809,-0.000996429921590769,-0.0296758382646795,0.0497208774141057,-2.08222291526654,-0.00098723846139502,0
0.15,0.000937410103716732,0.000535177305057639,-0.0466229619384753,-0.0267844779160685,0.000555533053153203,-0.000925492019011105,-0.0275482484403042,0.0461757820185447,-2.08222870354196,-0.000762094516966102,0
0.16,0.000930963615237759,0.000532087851389802,-0.0463149609793635,-0.0266298710298937,0.000551418946005591,-0.000919645518925231,-0.027355099916369,0.0458903492049712,-2.08223364544838,-0.00069695693396218,0
0.17,0.000929888377263034,0.000531853302841551,-0.046270759540654,-0.0266181143275346,0.000550591914445315,-0.000918917228949261,-0.0273221001849899,0.0458585874215953,-2.08223818810241,-0.000648292261777003,0
0.18,0.00092929049292304,0.000531834033695798,-0.0462494161581991,-0.0266171488963527,0.000550076104552742,-0.000918610112525641,-0.0273037676731193,0.0458474141167986,-2.08224239228374,-0.000604172099731691,0
0.19,0.00092876895707065,0.000531831105857713,-0.0462312317539522,-0.0266170173893492,0.00054961916325315,-0.000918354439288474,-0.0272877960911825,0.0458385055240526,-2.08224628554896,-0.000563389545868293,0
0.2,0.000928288944389266,0.00053182951823952,-0.0462145362488632,-0.0266169247917422,0.000549198041771535,-0.000918120096534505,-0.0272731170923351,0.0458303516256916,-2.08224989108178,-0.000525627111737946,0
0.21,0.000927844417354501,0.000531828132338553,-0.0461990729641529,-0.0266168571862744,0.00054880801246123,-0.000917903148823982,-0.0272595126657355,0.0458228152610493,-2.08225323016261,-0.000490655848406379,0
0.22,0.00092743277765041,0.00053182685495518,-0.0461847522413979,-0.0266167924326207,0.000548446836706576,-0.000917702254556685,-0.0272469145485809,0.0458158337977478,-2.08225632248356,-0.000458269018649905,0
0.23,0.000927051384897731,0.000531825672206564,-0.0461714791170001,-0.0266167468147895,0.000548112201783383,-0.000917516119812037,-0.027235231113796,0.0458093754708826,-2.08225918628061,-0.00042827559359565,0
0.24,0.000926698593135563,0.000531824576689353,-0.0461592056494872,-0.0266166819415341,0.00054780266024346,-0.00091734394221602,-0.0272244385633814,0.045803383812521,-2.08226183844172,-0.000400498696480914,0
0.25,0.000926371508128173,0.000531823561953419,-0.0461478189443758,-0.026616636193512,0.000547515676826205,-0.000917184308495316,-0.0272144189407462,0.045797837474036,-2.08226429460695,-0.000374774524657724,0
0.26,0.000935289257380074,0.000537039160125404,-0.0465913481681605,-0.0268776681008119,0.000552737322868861,-0.000926098540321997,-0.0274733215906897,0.0462426141933898,-2.08226651457737,-0.000372819631905929,0
0.27,0.000908830630675297,0.000521997940239066,-0.0452924559238391,-0.0261248912409121,0.000537024738556495,-0.000900032996642797,-0.0267090055878418,0.0449504786011343,-2.082268792873,-0.000288503096454509,0
0.28,0.000907670827682852,0.000521400647605324,-0.0451845341160767,-0.0260949944305942,0.000536303958585835,-0.000898945510448152,-0.026629440846114,0.0448716362287242,-2.08227074516238,-0.000265975924163938,0
0.29,0.000923836668722891,0.000531034897857595,-0.0460386064765449,-0.0265771597322225,0.00054568379296061,-0.000915260318881878,-0.0271381325483273,0.045710179036224,-2.08227243818457,-0.000286130517380453,0
0.3,0.000916005966508805,0.000526917925876831,-0.0456550553756095,-0.0263711131953634,0.00054086933434348,-0.000907837978086901,-0.0269044687960563,0.0453427971271587,-2.08227356191719,-0.000256607482723046,0
0.31,0.000924190705073365,0.000531449683006808,-0.046061155479581,-0.0265979278346617,0.000545787062125608,-0.000915796761147547,-0.0271475088791548,0.0457393984532833,-2.08227509800497,-0.000259910647502113,0
0.32,0.000924677216663074,0.000531790647920145,-0.0460879400594366,-0.0266149789999658,0.000546043070830577,-0.000916333025176442,-0.0271624522593667,0.0457674175953643,-2.08227656991434,-0.00024607183763367,0
0.33,0.000924550696377325,0.000531815824468371,-0.0460843257106374,-0.0266162467651858,0.000545919166655912,-0.000916293798300787,-0.0271586173704044,0.0457667911328438,-2.08227793706142,-0.000231881527923334,0
0.34,0.000924386571957102,0.000531817240671168,-0.0460786642038518,-0.026616321529927,0.000545774193315795,-0.00091621539050607,-0.0271535858691846,0.0457641195811807,-2.08227920350187,-0.000218628134266029,0
0.35,0.000924230771081154,0.00053181690174876,-0.0460732316839269,-0.0266163060521897,0.000545637423266364,-0.000916139474932806,-0.0271488025084646,0.0457614788661929,-2.08228037637834,-0.000206345084190362,0
0.36,0.00092408620427372,0.000531816463456712,-0.0460681848532034,-0.0266162847137948,0.00054551057774935,-0.000916068923878649,-0.0271443623168423,0.0457590194611587,-2.08228146258084,-0.00019496901802842,0
0.37,0.000923952347675656,0.000531816048150648,-0.0460635103053636,-0.0266162633364915,0.00054539313415881,-0.000916003591182021,-0.0271402504599399,0.045756740056756,-2.08228246851269,-0.000184433588240069,0
0.38,0.000923828386379711,0.000531815662803466,-0.0460591793379901,-0.0266162419229883,0.000545284373003597,-0.000915943087337911,-0.0271364416349213,0.0457546267691769,-2.08228340010551,-0.000174676726632869,0
0.39,0.000923713563686296,0.000531815305857787,-0.0460551653128001,-0.0266162204757022,0.000545183630132059,-0.000915887043646038,-0.0271329123592607,0.0457526667125012,-2.08228426285323,-0.00016564090115416,0
0.4,0.000923607297513732,0.000531814975267915,-0.0460514494760623,-0.0266161960861632,0.000545090394277781,-0.000915835176222188,-0.0271296474694413,0.0457508483104657,-2.08228506184357,-0.000157272827271163,0
0.41,0.000923508577321198,0.000531814669092004,-0.0460479908391004,-0.0266161965961321,0.000545003780848397,-0.000915786991340352,-0.0271265973785384,0.0457491759075997,-2.08228580178797,-0.000149523157865959,0
0.42,0.00092341756156058,0.000531814385528326,-0.0460448061996,-0.0266161750576576,0.000544923924885461,-0.000915742567395872,-0.0271237995140974,0.0457476169059946,-2.08228648705026,-0.000142346192568205,0
0.43,0.000923333181473078,0.000531814122908235,-0.0460418503768757,-0.0266161534943048,0.000544849891516079,-0.000915701382028425,-0.0271212035124651,0.0457461685061651,-2.08228712167112,-0.000135699608283461,0
0.44,0.000923254833961792,0.000531813879685598,-0.0460391007874368,-0.0266161539192853,0.000544781152147563,-0.000915663140748189,-0.0271187787338498,0.0457448389521194,-2.08228770939339,-0.000129544209612676,0
0.45,0.000923182444652192,0.000531813654428137,-0.0460365607918203,-0.0266161323087763,0.000544717639441556,-0.000915627807808078,-0.0271165494984955,0.0457435915939369,-2.08228825368256,-0.00012384369771535,0
0.46,0.000923115214798947,0.000531813445809989,-0.0460341969604874,-0.0266161297759672,0.000544658654580815,-0.00091559499284772,-0.027114466384166,0.0457424460075105,-2.08228875774849,-0.000118564456251213,0
0.47,0.000923053244660381,0.000531813252602298,-0.0460320203904886,-0.0266161081240338,0.000544604282864272,-0.000915564745502679,-0.0271125576279602,0.0457413743974878,-2.08228922456368,-0.000113675353143697,0
0.48,0.000922995560868644,0.00053181307366723,-0.0460299879720898,-0.0266161084607336,0.000544553673530661,-0.0009155365898482,-0.0271107653899995,0.0457403915841641,-2.08228965688094,-0.000109147556989502,0
0.49,0.000922942184443798,0.000531812907950561,-0.0460281059485055,-0.0266161087782553,0.000544506843086096,-0.000915510536652165,-0.0271091057700184,0.0457394815017914,-2.08229005724973,-0.00010495436704004,0
0.5,0.00092289296178272,0.000531812754476148,-0.0460263714429646,-0.0266160870749235,0.000544463655897686,-0.000915486511172128,-0.0271075869206577,0.0457386236207939,-2.08229042803114,-0.000101071055743766,0
0.51,1.5277248288773,0.0395421971034702,1.7447889429777,-1.97829322264562,-0.00173587273608651,1.52823549391636,-2.0246979922735,1.69071895073856,0.0270131515876709,8.25519077418967,318.686712621965
0.52,1.49156467736691,0.0326445131997817,2.60674695889845,-1.6320658148334,-0.147851470291727,1.48457764827013,-1.93513124040814,2.39040490588322,0.121146877165133,17.3836005102385,318.686712621965
0.53,1.44774913352011,0.0180251671801854,3.85131343599099,-0.899284430952836,-0.384936693015096,1.39575291603876,-1.93394974432736,3.44980666942584,0.28155168199398,26.3670913133937,318.686712621965
0.54,1.50887523653574,-0.0535330275625594,-0.197392373585003,2.6838095404608,-0.780563724447398,1.29239720540846,2.44106460944918,1.13269632784462,0.507866546993328,35.3839747271356,318.686712621965
0.55,1.4260395154559,0.0150330726098136,2.87148164091427,-0.746824308580838,-1.01341444203066,1.00339716044918,-2.58151910675621,1.46250212425403,0.800906456707078,44.5902029823596,318.686712621965
0.56,1.41202541080529,-0.0686801474663534,2.3643527371835,3.442657629486,-1.32333920088137,0.497298786270905,-0.804053248541724,4.09823788879986,1.16273132052953,54.1796740052933,318.686712621965
0.57,1.36434156819787,0.000467264108772847,3.50878881601094,-0.0198724319372069,-1.36395086866194,-0.0326521197580921,-3.50727244971534,-0.105042050543224,1.5950736049398,63.6344526439758,318.686712621965
0.58,1.40823196528491,-0.0553154179216724,0.259040095489666,2.77418113939894,-1.19269809926869,-0.750765148039592,-1.60903171658978,2.27468672574406,2.09334218872117,72.1894807943374,318.686712621965
0.59,1.31568701152746,-0.0191011955263253,3.90581789718052,0.964211528264484,-0.601245580112367,-1.17042766558551,-2.68612750869804,-2.9949685013685,2.65253029397786,80.3546437817061,318.686712621965
0.6,1.34684035717493,-0.017819195597105,1.29070064699315,0.902598194801629,0.192850278342757,-1.33308110840636,-0.727050137906433,-1.3971362705112,-3.01115387344762,88.7636167957275,318.686712621965
0.61,1.35383809664779,-0.0112559551442878,-0.272166221911402,0.568647429083969,0.991742998237583,-0.921656179878294,-0.588375019956097,-0.226382832487352,-2.3278952941191,97.5534010231415,318.686712621965
0.62,1.34224513246043,0.00230390853254936,-0.726889247514484,-0.106324841942526,1.34210739647269,-0.01936594798959,-0.725478946904764,0.115556253678592,-1.58350837523798,105.439471073037,318.686712621965
0.63,1.21255602265643,0.000114979385920977,4.74830158510575,0.00664507322767561,0.854972274972893,0.859834013242274,3.35241683845459,3.36269437227979,-0.782468193970991,113.19775200679,318.686712621965
0.64,1.23213603537008,-0.0785203856660056,2.57321433674842,3.93559924570946,-0.174517104616397,1.22223910951129,3.72259421205783,2.87274533817915,0.0781851238432318,121.514647014558,318.686712621965
0.65,1.20235387572041,0.0118725925302758,3.05451796020174,-0.58281723217091,-1.0029241642295,0.663278916985794,-2.8809457586843,1.17043044681403,0.996361120670801,128.891793823504,318.686712621965
0.66,1.16072045833706,0.0359168694507263,4.07223652907317,-1.78999103390324,-1.08404057977142,-0.416434899260586,-3.06114555684643,-3.22747054672405,1.96849898553953,136.509556423212,318.686712621965
0.67,1.0994404984721,-0.00853437519245104,6.04479391118112,0.436260617719502,-0.149786435534777,-1.0892227820654,-1.3016882290152,-5.91907632233853,2.99717068392888,143.907465957472,318.686712621965
0.68,1.1020932130342,-0.0520986169380605,4.91008227537658,2.62309457072002,0.918333007282147,-0.611545749587906,2.39836465286218,-5.02368192363026,-2.20552620310533,151.001625151093,318.686712621965
0.69,1.14105031440122,-0.0232033811078691,1.8446765784846,1.170569351737,0.990390068157549,0.567152298580235,2.18001935998469,-0.143456880377302,-1.07105810753943,158.294803395211,318.686712621965
0.7,1.08033277759264,0.079761030283817,3.89035452006787,-3.97557699540101,-0.0434672044233806,1.08240072728753,-4.39174181345818,3.41360140937651,0.113832925227693,165.081635995211,318.686712621965
0.71,1.07576060519168,0.0244291501156324,3.03536162141296,-1.21275923612554,-1.04429747868196,0.259423281677355,-3.22726986718874,-0.518588798461827,1.35001108588954,171.99030596565,318.686712621965
0.72,1.05186020474641,0.0414156711909515,3.23550557825867,-2.0594012044903,-0.547015436967234,-0.899388269808375,0.229011845717861,-3.8284700916319,2.63451288022778,178.586038420045,318.686712621965
0.73,0.969866619015752,0.0519136629016325,6.28197023802518,-2.58625943660908,0.678483814601621,-0.694979136665658,6.37372579332359,-2.35106517485273,-2.31472836770289,185.135642878404,318.686712621965
0.74,1.00761587307949,-0.0288100591437345,3.3482880074512,1.44699815515157,0.793056375690416,0.622238983161928,3.55253684079859,0.827235297011869,-0.934095512517603,191.691427840792,318.686712621965
0.75,0.943716935453729,0.0433222963327932,5.55147009276136,-2.15161873039206,-0.409114049239057,0.851530487027298,-4.52567153402367,3.86866650383897,0.493755867644309,197.793502151554,318.686712621965
0.76,0.918113443257197,0.0139320798127776,5.78742338107165,-0.689595795180348,-0.852374514933275,-0.341444115236682,-5.07302806078874,-2.86952923786381,1.96697605287847,204.036097695162,318.686712621965
0.77,0.922313312431211,-0.0281487572361951,4.61220862443387,1.41569077575981,0.335987702301609,-0.859398896161649,0.213950869315857,-4.81984167721229,-2.79941677041648,209.969477992278,318.686712621965
0.78,0.904063348458906,-0.0241453962758835,4.53441010546755,1.22503057710304,0.846797542611652,0.317564891030031,4.68604894215654,0.320187806009581,-1.23871057561136,215.713927049146,318.686712621965
0.79,0.9303681236698,0.0179762031335748,2.2021111938778,-0.891327717288749,-0.314586139631894,0.875753133121125,-1.61722979203596,1.74020878332469,0.364182175330634,221.551609498408,318.686712621965
0.8,0.811622076259738,0.0177438450083158,7.18379830474784,-0.885272378104454,-0.742733931020263,-0.327706494319283,-6.13255858883801,-3.84478743511286,2.00818068134318,227.105718697046,318.686712621965
0.81,0.795836864277892,-0.0167877074705345,7.03269652656004,0.858222047956453,0.430968617282584,-0.669256447547068,2.95081731600215,-6.44112122893756,-2.59057257284188,232.409625722989,318.686712621965
0.82,0.857554712352664,0.0105165732015522,2.96236663541932,-0.51354216829798,0.660327427775942,0.547246170490916,1.92502035372444,2.309467098491,-0.86650641112863,237.813616016982,318.686712621965
0.83,0.823900695711372,-0.0498700296556485,3.68484983321557,2.50128500308845,-0.67445143102399,0.475830477629618,-1.31430300682548,4.25525000044339,0.895928258765808,243.080483256,318.686712621965
0.84,0.800993916373511,0.0209807668112872,3.90966061910215,-1.04691945185438,-0.364207589457222,-0.713711621332541,-0.74063695428197,-3.97906313058504,2.69592585590385,248.121283896687,318.686712621965
0.85,0.757187612445477,-0.00888408341580968,5.17340657610883,0.463983502461735,0.746622009737558,-0.126362897855626,5.00759937198808,-1.37962488450567,-1.7501861766618,253.004229008884,318.686712621965
0.86,0.767354119718932,-0.061493509788908,3.73392004517263,3.09354861862554,-0.154990999209104,0.754050122312794,2.6130624429641,4.08461829657466,0.122755082900724,257.839119289764,318.686712621965
0.87,0.747712063899107,0.00716128842618441,3.78373780042044,-0.349154138443562,-0.673246522529648,-0.325367076475052,-3.23589899201376,-1.99186798463329,2.03055659615515,262.618379480577,318.686712621965
0.88,0.645894483468926,0.006557618366023,7.97567555611864,-0.325852458039286,0.472518441851157,-0.440396421698429,6.10912364940202,-5.13772212533877,-2.31087036224948,267.207536246099,318.686712621965
0.89,0.707346257002111,0.0267636832837133,4.02386454147111,-1.33818635303516,0.258588506724329,0.658928680683949,0.0640083409154617,4.24006267593432,-0.33615155905916,271.623901553597,318.686712621965
0.9,0.653527414538614,0.0439857676552286,5.84288620987786,-2.18674714208188,-0.654652878263352,-0.0215043784205589,-5.59527387591518,-2.7593645243942,1.67083684562242,275.939316181009,318.686712621965
0.91,0.662478893766573,-0.0118199469583755,4.5396368609844,0.611167117862972,0.366054982982053,-0.552287737747535,1.9247192109073,-4.15659524547792,-2.57411353004615,280.087244036391,318.686712621965
0.92,0.631896845896909,-0.0335764756720601,5.2096351876945,1.69798772231642,0.276673313132535,0.569098305544205,4.00874224415196,3.73543126211064,-0.505601200243235,284.171343611273,318.686712621965
0.93,0.588312952833436,-0.0648334585641306,6.54464501373355,3.25870331930189,-0.586779412354432,-0.0774947034188175,-6.61334042854168,3.11693022944574,1.59234485404284,288.143112013091,318.686712621965
0.94,0.562734427573747,0.0273454930176792,6.99027862144692,-1.35881361854914,0.284221162023289,-0.486452611282193,4.95380114159823,-5.11568410917958,-2.5642615766809,292.009704924509,318.686712621965
0.95,0.623911270762497,0.00025498092484566,3.10772231890966,-0.00484714075171771,0.248881408381525,0.572121825629624,1.23407595480029,2.85219530257072,-0.409913841394905,295.775719864951,318.686712621965
0.96,0.565373409683296,-0.0303884537788585,5.20283564874339,1.52519877400354,-0.547907018467114,-0.14271807739198,-5.40264804310397,0.455109009361275,1.77191498990364,299.498056789618,318.686712621965
0.97,0.585497378562141,0.0179762300660954,3.38858950051435,-0.897165211048438,0.42346850211535,-0.404727998619703,3.12006420584484,-1.59769946182549,-2.30287741003653,303.085860255691,318.686712621965
