t,iq,id,vq,vd,ia,ib,va,vb,theta_e,omega,r
0,0,0,0,0,0,0,0,0,0,0,0
0.01,0.000455373352783385,0.000256147341097811,-0.0220078833505818,-0.0128165911230225,-0.000521657821189018,-2.91456406514992e-05,0.0254466126750328,0.00104011583701642,2.13899866182204,-0.00221779623741974,0
0.02,0.000535170232209365,0.000299519511337553,-0.0259528046402895,-0.0149867589808337,-0.000612256136689766,-3.55181390367608e-05,0.0299394959827898,0.00133326431855893,2.13898146508355,-0.00245044411417732,0
0.03,0.000564903600864548,0.000316178807139839,-0.0274238960509072,-0.015820325225867,-0.000646282848611714,-3.74645958797426e-05,0.0316280177185293,0.0014217102586554,2.13896383332191,-0.00242214660565652,0
0.04,0.000552382263413827,0.000309691403455568,-0.0268683881625444,-0.0154957211051206,-0.000632238550082027,-3.61848877107382e-05,0.0309851435443914,0.00139589919202463,2.13894757411358,-0.00219142825466318,0
0.05,0.000565212513288779,0.000317490616463635,-0.027524214426919,-0.0158859539551776,-0.000647250252604929,-3.65046192081674e-05,0.0317479339217496,0.00141936767092205,2.1389321763769,-0.00209941739722796,0
0.06,0.000566047458129531,0.000318498201484498,-0.0276032404526684,-0.0159363774811089,-0.000648496697104288,-3.60951942589659e-05,0.0318416968803623,0.00141892582165063,2.13891771546174,-0.00195554944798221,0
0.07,0.00057613491294388,0.000324879892993802,-0.0281218015335701,-0.0162556851549598,-0.000660433689792514,-3.61348055420518e-05,0.0324506210930412,0.00142835990791978,2.13890450240325,-0.00187186796551287,0
0.08,0.00056586530188172,0.000319450642099078,-0.0276641403308581,-0.0159840283343519,-0.000648856523209146,-3.51776193074802e-05,0.0319187051199331,0.0014107039042733,2.13889191457347,-0.00169029713062192,0
0.09,0.0005636696492159,0.000318745340085216,-0.0275900679521757,-0.0159487409757209,-0.000646626673643665,-3.45833804846348e-05,0.0318372980264787,0.00140022951314562,2.13888041647763,-0.00156125489328439,0
0.1,0.000562660295519381,0.000318652066269399,-0.0275704004704831,-0.0159440670615926,-0.000645726034917972,-3.41120993318828e-05,0.0318182197916031,0.00139325010698517,2.13886980167965,-0.00144733948989945,0
0.11,0.000561869502311539,0.000318638208779158,-0.0275590343500414,-0.0159433862023021,-0.00064505231973086,-3.36919950677127e-05,0.0318082861557567,0.00138739674787604,2.13885998644608,-0.00134273545943572,0
0.12,0.000561158198740518,0.000318634769986053,-0.027549481118523,-0.0159432041657159,-0.000644451182746962,-3.33063614615914e-05,0.0318001479261757,0.00138212186253562,2.13885090832468,-0.00124608928566015,0
0.13,0.000584498146237719,0.000332183382545947,-0.0286905240251699,-0.0166211220184545,-0.000671414936041144,-3.44364088700251e-05,0.0331267168046629,0.00142425409771851,2.13884213113103,-0.00127574781878714,0
0.14,0.00059955721386282,0.000341262506211972,-0.0295152351010134,-0.0170754143778819,-0.000688993763546024,-3.48789999241522e-05,0.0340663253262828,0.00148470805491496,2.13883387217979,-0.00126829112575282,0
0.15,0.000564782740838149,0.000321560705378242,-0.0277898472327453,-0.0160896166775843,-0.000649081432997192,-3.2773845217132e-05,0.0320815676573709,0.0013872240974168,2.13882613438165,-0.0010108606005555,0
0.16,0.000559486753182809,0.000319007614546769,-0.0275541697737767,-0.0159618615882595,-0.000643243834224088,-3.20726496965213e-05,0.0318141807557187,0.0013679181727437,2.13881951050966,-0.000915868124697158,0
0.17,0.000558346270111251,0.000318675824766992,-0.027515887828217,-0.0159452582640001,-0.000642104145895095,-3.17349092073645e-05,0.0317729865765585,0.00136112750560672,2.13881345838741,-0.000848023839250027,0
0.18,0.000557817069000907,0.000318631834480773,-0.0275056141778734,-0.0159430638510958,-0.000641634556422899,-3.14837167014244e-05,0.0317631532785852,0.00135727302457896,2.13880787095843,-0.000788071866422272,0
0.19,0.000557401084569814,0.000318625197705674,-0.0274996226826785,-0.0159427330099468,-0.000641280484280281,-3.12622163934798e-05,0.0317579316323875,0.00135416466824842,2.13880270437178,-0.000733011442657666,0
0.2,0.00055702671898606,0.000318623469372751,-0.0274945748904541,-0.0159426450731599,-0.000640964122071326,-3.10592195143123e-05,0.0317536356213024,0.00135137158660966,2.13879792578494,-0.000682138546290568,0
0.21,0.000556681864729794,0.000318622441756401,-0.0274899699608436,-0.0159425861864052,-0.000640673001276534,-3.08717402355413e-05,0.031749728052181,0.00134880368163606,2.13879350589969,-0.000635091749077685,0
0.22,0.000556363051873458,0.000318621565007046,-0.0274857146937794,-0.0159425463395937,-0.000640403902253404,-3.06983575472693e-05,0.0317461250160601,0.00134641839062516,2.13878941776799,-0.000591577279596775,0
0.23,0.000556068220572186,0.00031862076342521,-0.0274817778785471,-0.0159425064356145,-0.000640155048966791,-3.05380107129777e-05,0.0317427899676942,0.00134421422484138,2.13878563648533,-0.000551329085305587,0
0.24,0.000555795566391023,0.000318620023057977,-0.0274781354757232,-0.0159424679324965,-0.000639924913790387,-3.03897256280779e-05,0.0317397034613924,0.00134217628639184,2.13878213901975,-0.000514101876034835,0
0.25,0.000555543249249004,0.00031861933825785,-0.0274747566109507,-0.0159424411674419,-0.00063971194341556,-3.02525031939344e-05,0.0317368450630983,0.00134027857149864,2.13877890406854,-0.000479668883587077,0
0.26,0.000560170589364811,0.000321388423262668,-0.0277041061633891,-0.016080985880516,-0.000645102404480117,-3.04055180938454e-05,0.0320047155857175,0.00134676853208663,2.1387759953465,-0.000473577174428919,0
0.27,0.000547666780213179,0.000314264699446993,-0.0271135529188576,-0.0157245491256202,-0.00063072984876006,-2.96826776199665e-05,0.031315151356838,0.00132947079172881,2.13877299823659,-0.000378812408287478,0
0.28,0.000547224689443734,0.000314127532563913,-0.0270210565141432,-0.015717686381681,-0.000630283459947492,-2.95588830658607e-05,0.0312334893399368,0.00128541977013636,2.13877044028799,-0.000350342360552139,0
0.29,0.000553637681007527,0.000318035493685975,-0.027412279507837,-0.0159132228284777,-0.00063779182143187,-2.97127849602054e-05,0.0316684743705062,0.00133096192626193,2.13876820291551,-0.000360276884970062,0
0.3,0.000547337361015916,0.000314726188356045,-0.0271146782080324,-0.0157476412627576,-0.000630700582014938,-2.91124757966536e-05,0.0313285301044407,0.00131041259182214,2.13876670819528,-0.000312686022245486,0
0.31,0.000553424521501079,0.000318112405273825,-0.0274113600415847,-0.0159170679172127,-0.000637653603991994,-2.95310803022594e-05,0.0316697722194133,0.00132711641577751,2.13876474464916,-0.000323756238841844,0
0.32,0.000554148119498781,0.000318550660488086,-0.0274511296503653,-0.0159390037198624,-0.000638499396908589,-2.95496495545856e-05,0.0317151000862824,0.00132995683390121,2.13876283112418,-0.000307860392677469,0
0.33,0.000554131199486562,0.000318607100917457,-0.0274550961375299,-0.0159418206242707,-0.000638515546371961,-2.94918300679859e-05,0.0317199614591012,0.00132965926859678,2.1387610476074,-0.000289502032798201,0
0.34,0.00055401941890464,0.000318614110344533,-0.0274541641795179,-0.0159421747007872,-0.000638425134707608,-2.94247380216971e-05,0.0317193684793655,0.00132880708027105,2.1387593960537,-0.000272010293836876,0
0.35,0.000553902690065631,0.000318614739682652,-0.027452661061578,-0.015942210150775,-0.000638327115871013,-2.93604419037148e-05,0.0317181224513418,0.00132792018398868,2.1387578681967,-0.000255759935027881,0
0.36,0.000553792771439355,0.000318614563507943,-0.0274511738290797,-0.015942201921711,-0.000638234401193973,-2.93005616056925e-05,0.0317168661644224,0.00132708229401049,2.13875645498082,-0.000240719297898925,0
0.37,0.000553690943672223,0.000318614302316335,-0.0274497873790897,-0.0159421907486805,-0.000638148458115764,-2.92451730997535e-05,0.0317156931106545,0.00132630446554667,2.13875514783348,-0.000226806187403695,0
0.38,0.000553596624687545,0.00031861404798497,-0.0274484949560334,-0.0159421766335861,-0.000638068845633975,-2.91938806967864e-05,0.0317145976071202,0.00132558281004832,2.13875393879797,-0.000213937176790336,0
0.39,0.000553509465247834,0.000318613811076039,-0.0274473001042417,-0.0159421639430117,-0.000637995275266589,-2.91464828898883e-05,0.0317135850006899,0.0013249153188743,2.13875282051055,-0.000202034065959997,0
0.4,0.000553428883273656,0.000318613591718915,-0.027446193246717,-0.0159421512242513,-0.000637927256612768,-2.91026620785954e-05,0.0317126464458796,0.00132429784854922,2.13875178616015,-0.000191024379585658,0
0.41,0.000553354296685523,0.000318613388784195,-0.0274451633498539,-0.0159421370243954,-0.000637864298575296,-2.90621020561924e-05,0.0317117718684361,0.00132372548854559,2.13875082944644,-0.000180841061964338,0
0.42,0.000553285145984697,0.000318613201065682,-0.0274441992346236,-0.0159421374468314,-0.00063780592903375,-2.90244991347431e-05,0.0317109605145074,0.00132317846518496,2.13874994454214,-0.000171422087652684,0
0.43,0.000553221386024193,0.000318613027425977,-0.0274433140513549,-0.0159421246534954,-0.000637752109489312,-2.89898265260179e-05,0.0317102085028806,0.00132268714846699,2.13874912605736,-0.000162710086341765,0
0.44,0.000553162457299401,0.000318612866810399,-0.0274424941172488,-0.0159421118390671,-0.000637702367868203,-2.89577809567626e-05,0.0317095114032249,0.00132223289677159,2.1387483690068,-0.00015465199378874,0
0.45,0.000553107742095506,0.000318612718242483,-0.0274417218375929,-0.015942110737421,-0.000637656183053844,-2.89280280187737e-05,0.0317088607010967,0.00132179620761503,2.13874766877928,-0.000147198728659336,0
0.46,0.000553057311689033,0.000318612580819456,-0.0274410129294583,-0.0159420978843952,-0.000637613614780174,-2.89006040783633e-05,0.0317082570303054,0.00132140518026118,2.13874702110981,-0.0001403048935842,0
0.47,0.000553010512729894,0.000318612453705534,-0.0274403461273597,-0.0159420981994731,-0.000637574111942664,-2.8875155870821e-05,0.0317076958736082,0.00132102724336626,2.13874642205344,-0.000133928498647165,0
0.48,0.000552967474696201,0.000318612336127549,-0.0274397383287225,-0.0159420853126523,-0.000637537783388695,-2.88517513571949e-05,0.0317071772959793,0.0013206936003398,2.13874586796124,-0.000128030705626881,0
0.49,0.000552927427825696,0.000318612227370909,-0.0274391607633602,-0.0159420855947649,-0.000637503979923501,-2.88299749200051e-05,0.0317066912335332,0.00132036643766887,2.13874535545854,-0.000122575591435591,0
0.5,0.000552890407753544,0.000318612126773792,-0.0274386241117408,-0.0159420858615933,-0.000637472731326874,-2.88098442872202e-05,0.0317062396023,0.00132006251570018,2.13874488142343,-0.000117529929315003,0
0.51,2.99332033986555,0.0284463125140857,2.57893580947437,-1.41861403697729,-0.248787248145458,2.98309918623379,-1.65127098446047,2.43653028529858,0.092709342758586,28.4154192290918,469.492781293158
0.52,2.8211206134489,-0.00646183294939767,3.16414169664869,0.333210821303679,-1.14077705917207,2.58019204172443,-0.967788234254774,3.03087579117699,0.413998421068066,59.0306424651934,469.492781293158
0.53,2.68861489056,0.0166683956622771,1.83144420294922,-0.819394610851838,-2.18795979493354,1.56261313219533,-1.96902398590762,0.38540879560515,0.956811542287465,89.1240759943038,469.492781293158
0.54,2.46581773762533,-0.014568592463267,4.61287459160197,0.743550865234174,-2.43507760968791,-0.388415233829288,-4.67228382361985,0.0352669615623465,1.7230640324422,119.725247260534,469.492781293158
0.55,2.37181909278172,-0.00282355471741447,2.12394957511415,0.160351670370019,-1.01125369899641,-2.14543695726797,-1.05282244266068,-1.85160453662439,2.69993538181726,146.083184139814,469.492781293158
0.56,2.18567590337388,-0.0263823071277701,4.80727737710926,1.34341408521562,1.46009910474181,-1.6266486360154,2.15726697517018,-4.50120832473485,-2.42216849744419,170.92878062626,469.492781293158
0.57,2.11942317997605,0.0350622361414175,1.29782647092522,-1.73302712260572,1.88186238322291,0.975591075622164,0.31920037384821,2.14145924025101,-1.07598144305172,195.466960726216,469.492781293158
0.58,1.96519530056974,0.0136514315919638,3.05140851460742,-0.656614741128188,-0.818916376392047,1.7864923451957,-1.88573606449057,2.48721457384865,0.436758443517966,217.515895267519,469.492781293158
0.59,1.86290386539347,0.036484958420493,2.21472520325475,-1.80069173589513,-1.61542422067067,-0.92851847109222,-0.970423946979284,-2.68435761715572,2.11205004161597,238.720216774631,469.492781293158
0.6,1.70676765221584,0.00673411106727029,4.41788654229942,-0.31663608851447,1.21242532431054,-1.20130179383564,3.37249685465317,-2.87127931043543,-2.34764056280026,258.955012812192,469.492781293158
0.61,1.60050676672473,0.035730803694434,4.66234009028249,-1.75993892522904,0.630769952654618,1.47140336668515,0.108255230009389,4.98227668271919,-0.382667560883668,277.233474044102,469.492781293158
0.62,1.50851825667265,0.0350690769703679,4.30678619140707,-1.72769449443451,-1.49775490504313,-0.183268696982027,-4.01195114868081,-2.33186267717305,1.71579651880787,294.626907986648,469.492781293158
0.63,1.43730483130012,-0.00620275941927284,3.13504107640514,0.334589178942563,1.03193001646624,-1.00050192074731,2.00744185908424,-2.43117454161756,-2.34504794916924,311.253918448707,469.492781293158
0.64,1.35023658677499,0.00321137197484145,3.04201332398762,-0.13986441320033,0.0116097409111599,1.35019049289043,-0.12094047603132,3.04282443112569,-0.00622001010346274,326.825875277808,469.492781293158
0.65,1.2416836244299,0.00403177214922007,4.31091337026453,-0.18383327521492,-0.802363703217311,-0.947632294787086,-2.6342749292145,-3.41736219273195,2.44226242713258,341.3418863,469.492781293158
0.66,1.18561218742611,-0.0131940972966047,3.18110376113829,0.67700558102583,1.13534975065225,0.341805919888291,3.24401187292556,0.232690060351284,-1.28949738962941,354.93304504924,469.492781293158
0.67,1.09805623037345,-0.0224815523118622,3.85782015911787,1.14032943501568,-1.0781047506656,0.209578271413233,-3.53059952968858,1.92821019637957,1.35832477161963,367.613545266279,469.492781293158
0.68,1.02311381391749,0.0376321073046229,4.11049849770135,-1.86896754377581,0.813252250165657,-0.621931531062282,4.43472484691875,-0.849972418031255,-2.18690300702644,379.468651941005,469.492781293158
0.69,0.997762254489441,0.0178197794493499,2.04634750164063,-0.877554650006942,-0.577909624585569,0.813552411854849,-1.92090334884979,1.12595318978958,0.635498577355594,390.642986879653,469.492781293158
0.7,0.90710179566455,-0.00247787080870226,3.43163230894322,0.137041762631717,0.351664888698277,-0.836164824420654,1.1952541398409,-3.21966586615465,-2.7462128265129,401.061112766112,469.492781293158
0.71,0.853969870156004,-0.0190021035362982,3.12655102564525,0.964404863433868,-0.212583732444734,0.827305128578889,0.228608112094315,3.26391427394516,0.229269954872119,410.79645671441,469.492781293158
0.72,0.806700958901142,-0.0103785959566762,2.71474617623299,0.534561350876799,0.116529089866044,-0.79830766222118,-0.172378653642048,-2.76150108437267,-3.00951096097887,419.82516467547,469.492781293158
0.73,0.727158488749547,0.00416421233467018,4.07527500756126,-0.191363960893898,-0.0679069731337701,0.723992715035658,-0.594221961660726,4.03625901213766,0.099248122448879,428.264991743945,469.492781293158
0.74,0.666520657033738,0.0332595876708861,4.63154799192118,-1.64504660012685,0.0511774303518942,-0.665384743623793,2.21676599560543,-4.38672584495378,-3.01497078952642,436.161895820959,469.492781293158
0.75,0.623629720337853,0.0223411029554007,4.43982093054257,-1.09791295442613,-0.108236999223487,0.614571318049441,-1.99988967157576,4.11313311871926,0.210139118911956,443.579067169081,469.492781293158
0.76,0.61092410044342,0.00692422787384162,2.84153571472909,-0.34043246050091,0.200681802440772,-0.577064134740129,1.28396592618783,-2.55766514200595,-2.79557817478553,450.554112682706,469.492781293158
0.77,0.535477282251763,0.0263076082757115,4.50105853637253,-1.31021873691581,-0.2483274466408,0.475143651231691,-3.40809796418761,3.21886149949288,0.530682235080596,456.966801925013,469.492781293158
0.78,0.545536064231144,0.000388823326490373,2.03835266845836,-0.0069238161075384,0.375803980042229,-0.395450524269227,1.41023003052049,-1.47179509486171,-2.38094973672623,462.877780335475,469.492781293158
0.79,0.488707864034392,0.0209525765661541,3.02407135431383,-1.03172795341716,-0.408951779121564,0.268389323906757,-3.12559777362354,0.663406876180363,1.03286199435015,468.409904711949,469.492781293158
0.8,0.441760922940827,-0.0379299501693862,3.63665308329026,1.90133532986767,0.438975333913422,-0.0623862995615467,3.11592393003927,-2.67045684238038,-1.79761969975685,473.548594344667,469.492781293158
0.81,0.394436219001285,-0.00269097345964824,4.34901029576181,0.137375807909568,-0.391262255450339,-0.0500101955415463,-4.33406274472212,-0.385568139312387,1.69110236474989,478.281393767648,469.492781293158
0.82,0.373050578242105,-0.00384242104341516,3.84875072034286,0.202262297453115,0.325349362031463,0.182563114434334,3.47281641953974,1.67132829225317,-1.06974822847541,482.679565900703,469.492781293158
0.83,0.335187550070674,0.00406966920646318,4.26755059949504,-0.189740311055381,-0.208105271117244,-0.262791651433316,-2.45838587936277,-3.49346938916597,2.4839498448612,486.804421073696,469.492781293158
0.84,0.315734604356206,-0.000206137298499498,3.85035967832269,0.00892090582509629,0.0676939172499466,0.308392471451417,0.836689437903127,3.75836400838387,-0.216731694113508,490.586555409821,469.492781293158
0.85,0.307361411689931,-0.00657519180754518,2.9586050435384,0.334835243668175,0.0826161596368716,-0.296123016177717,0.409565669823722,-2.94918877085802,-2.8909073807409,494.042154842236,469.492781293158
0.86,0.271152619117169,-0.0165486786085391,3.55523014723904,0.840226699542734,-0.195513153335976,0.188605960909013,-1.78449624376282,3.18766614664368,0.742422870426045,497.203198477408,469.492781293158
0.87,0.268688075946596,-0.0205803205657027,2.51346157404576,1.02679364479013,0.261900500839922,-0.0634425678095449,2.07323813426997,-1.75313374041879,-1.88490379405698,500.171102242927,469.492781293158
0.88,0.251539786348871,0.0268794222434687,2.28167696682737,-1.34088677812654,-0.251324142032226,-0.0288260834721575,-1.93288081697935,-1.80776073639693,1.79144968294318,502.829217152879,469.492781293158
0.89,0.212348080389414,0.0159019809530826,3.23172589407921,-0.785060443570321,0.162981244402958,0.137046321425146,1.7625472756653,2.82024808404611,-0.796878749719093,505.239011153196,469.492781293158
0.9,0.172316901676717,-0.0315366929714575,4.26122303427258,1.57256362742382,-0.00794763432118421,-0.174998607753708,-2.48894072028734,-3.79949367692685,2.91519600220823,507.491844642087,469.492781293158
0.91,0.146742970890156,0.0148745743850526,4.64340328468477,-0.74135149192462,-0.0377168122911188,0.142591004412628,-2.32797862809364,4.08550016594534,0.359608031051831,509.500240663592,469.492781293158
0.92,0.149240857695964,-0.0154250913883327,3.68063351191201,0.780767476510649,0.131073267215565,-0.0730107229905479,2.56622045861039,-2.75157654067555,-2.18200621562244,511.309750875529,469.492781293158
0.93,0.166529802731382,0.0158335712222933,2.01727886190106,-0.79652088455213,-0.166554659442948,0.0155699259230084,-2.01601539962932,-0.799713345304409,1.57237938018925,512.962843221189,469.492781293158
0.94,0.101071044367925,0.0198666839970144,4.5361601403704,-0.989501449652274,-0.014010930587309,-0.102047709267469,1.24918865767259,-4.47162047086862,-3.0839501973531,514.458250030342,469.492781293158
0.95,0.14370222294576,-0.00020072913612533,1.7083792814695,0.00344561447842202,-0.0918682299886696,0.110501572343962,-1.08766998124299,1.31740109819153,0.692184506117829,515.785097607478,469.492781293158
0.96,0.0906120538627337,0.00529427013393143,3.70155358246869,-0.26795315894029,0.0868912558859362,-0.0262389643857897,3.66226148185705,-0.600948132353444,-1.80570229538646,516.93631427186,469.492781293158
0.97,0.0780402786500251,0.0193117152282649,3.72264242178477,-0.959781717611999,-0.0791782784486629,-0.0139293811325976,-3.0155621289242,-2.38445645641348,1.98752371576448,517.947517240041,469.492781293158
