t,iq,id,vq,vd,ia,ib,va,vb,theta_e,omega,r
0,0,0,0,0,0,0,0,0,0,0,0
0.01,0.00109318410400347,0.000619470553568478,-0.0542506301542391,-0.0310352984534065,-0.00111769952348595,0.00057405838307928,0.055479282249119,-0.0287814152422469,1.61187111248554,-0.00169109370748085,0
0.02,0.00122046738609246,0.000693248733507094,-0.0606582124676879,-0.034731557615147,-0.0012478971921225,0.00064256287234583,0.0620328480664952,-0.0322121963688999,1.61185893113157,-0.00175239519780499,0
0.03,0.00125061249588512,0.000710842387072183,-0.0621738667196077,-0.0356129817722078,-0.00127873129366227,0.000658919412926433,0.0635830152994859,-0.0330314144262774,1.61184703932193,-0.00165491606848956,0
0.04,0.00123242853386985,0.000701629353374759,-0.0613003493968436,-0.0351514234668046,-0.00126017780207111,0.000650473479690681,0.0626909533687575,-0.0326067442967555,1.6118366567939,-0.00149541601572705,0
0.05,0.00124793304472216,0.000710885053667649,-0.0620887860972612,-0.0356151298710062,-0.00127604244918422,0.000659097952900414,0.0634974227310587,-0.0330383435007466,1.61182670559556,-0.00139759410943831,0
0.06,0.00124680212064078,0.000710938419246814,-0.0620540783956111,-0.0356178129721455,-0.00127490866241406,0.000659209273673471,0.0634625533711418,-0.0330430259822305,1.61181759838974,-0.00128245868470275,0
0.07,0.00127969795026108,0.000730046231306818,-0.0636969701599962,-0.0365750983839747,-0.00130855485180062,0.000676962734259983,0.0651430417316988,-0.0339326677893592,1.61180936536084,-0.00123507370278702,0
0.08,0.00124486287007822,0.000711050284829289,-0.0619951147870892,-0.0356234102911387,-0.0012729651591993,0.000659420788510566,0.0634033440425262,-0.0330520435443896,1.61180171809373,-0.00108175016957551,0
0.09,0.00124368922621536,0.00071092877510645,-0.0619531585561148,-0.0356173089665025,-0.00127178297589521,0.000659356259469516,0.0633609451669271,-0.0330481040401422,1.61179482518463,-0.000994077137083809,0
0.1,0.00124282840350034,0.00071092507253739,-0.0619252247852926,-0.0356171274207292,-0.00127091858292131,0.000659395825657692,0.0633328198345073,-0.0330494653848336,1.61178854383782,-0.000914531492625721,0
0.11,0.00124204500655111,0.000710922363837317,-0.0618998203242001,-0.0356170075558947,-0.00127013195815927,0.000659432494319992,0.0633072426041035,-0.0330507491181381,1.61178281932145,-0.000842039809371439,0
0.12,0.00124133122596198,0.00071091989872696,-0.0618766745745036,-0.0356168906123271,-0.00126941523556567,0.000659465901065388,0.0632839390684642,-0.0330519108262806,1.61177760227045,-0.000775974360952689,0
0.13,0.00129834754097403,0.000743428745157204,-0.0647032034637527,-0.0372455488935764,-0.00132771198058059,0.000689618396580379,0.0661746411768286,-0.0345637427946331,1.61177241190078,-0.0008067446295802,0
0.14,0.00140507343962024,0.000805469432594591,-0.0700886323700779,-0.0403537911452116,-0.00143688632743514,0.00074724163401169,0.0716827051533783,-0.0374490938367421,1.61176780966282,-0.000927926243278589,0
0.15,0.00124053590501965,0.00071150199870385,-0.0618699728673867,-0.0356460330983313,-0.00126863515496012,0.000660097924100523,0.0632779720664847,-0.033082192633072,1.61176354969698,-0.000599904985635003,0
0.16,0.00123893607980074,0.000710915260722483,-0.0617991294616291,-0.0356166626181122,-0.00126701032571362,0.000659581649453043,0.0632058691386125,-0.0330559701824076,1.61176003830603,-0.000553567957879717,0
0.17,0.00123849111156713,0.000710910105195341,-0.0617845657812591,-0.0356163918063754,-0.00126656341051668,0.000659598770647732,0.0631912008847546,-0.0330564980726417,1.61175684072397,-0.000513063014018245,0
0.18,0.0012380922535352,0.000710908703858874,-0.0617716200860867,-0.0356163308985799,-0.00126616290745944,0.000659617393084834,0.0631781672220678,-0.0330571514380383,1.61175392661758,-0.000476160510882505,0
0.19,0.00123772924185458,0.000710907447102494,-0.0617598445599335,-0.0356162433409178,-0.00126579839691989,0.000659634362994174,0.0631663101925457,-0.0330577138720407,1.61175127084012,-0.000442529409162782,0
0.2,0.001237397797864,0.000710906301736537,-0.0617490804468433,-0.0356162147552839,-0.0012654655873829,0.000659649851934381,0.0631554739227813,-0.0330582788891696,1.61174885049133,-0.000411879626944828,0
0.21,0.00123709603020686,0.000710905257783555,-0.0617392834243506,-0.0356161537051005,-0.00126516257492125,0.000659663954234651,0.0631456096944856,-0.0330587582768821,1.61174664470109,-0.000383946876660647,0
0.22,0.0012368212709062,0.000710904306273603,-0.0617303659333241,-0.035616095522909,-0.00126488668089635,0.000659676794601253,0.063136630840313,-0.0330591921361233,1.61174463444891,-0.000358490299757433,0
0.23,0.00123657038631684,0.000710903439029145,-0.0617222130109517,-0.0356160667840063,-0.00126463476253373,0.000659688515384731,0.0631284230090854,-0.0330596128307345,1.61174280240118,-0.000335290389229695,0
0.24,0.00123634219314322,0.000710902648594419,-0.0617148035476907,-0.0356160085205276,-0.00126440562681393,0.000659699177812154,0.0631209621731679,-0.033059963312107,1.61174113276038,-0.000314147096856176,0
0.25,0.00123613391655759,0.000710901928172026,-0.0617080334562235,-0.0356159767841408,-0.00126419649146799,0.000659708907096716,0.0631141461512704,-0.0330603047614346,1.61173961112936,-0.000294878108222425,0
0.26,0.00124603091543264,0.000716495688273889,-0.0621997489835316,-0.0358962255136607,-0.00127431324678964,0.00066489462517412,0.0636168749755719,-0.0333202790817301,1.61173823916577,-0.000294362358809336,0
0.27,0.00119894979423978,0.000689982292878324,-0.0598788128463185,-0.0345679173632261,-0.00122618549692657,0.000640332179981748,0.061243471562085,-0.0320881649481449,1.61173686969003,-0.000198629885124727,0
0.28,0.00117550958423592,0.000676099684257791,-0.0586283920585926,-0.0338724004663635,-0.00120219597000077,0.000627422039298833,0.059965593796722,-0.0314444816992788,1.61173566507298,-0.000144466877648234,0
0.29,0.00123506074954658,0.000710682947217618,-0.061666226132248,-0.0356050040456805,-0.00126311206373022,0.000659540158743692,0.0630717645290095,-0.033051358182133,1.61173476407904,-0.000232812308140279,0
0.3,0.0012331013062148,0.000709676346366677,-0.0615704690259271,-0.0355545834483647,-0.00126111279284504,0.000658615116516152,0.0629740104523245,-0.0330049249023521,1.61173435088151,-0.000224399069353876,0
0.31,0.00123527332619737,0.000710891388196535,-0.0616797914637372,-0.0356154482100998,-0.001263332116739,0.000659741403159198,0.0630857020245045,-0.0330613222102782,1.61173343568269,-0.000216649557736939,0
0.32,0.00123517436403525,0.000710898558895121,-0.061676833809898,-0.0356158003699588,-0.0012632329772455,0.000659753678131856,0.0630827335133334,-0.033061848062265,1.61173259641697,-0.000206047825826051,0
0.33,0.00123506959024578,0.00071089824372423,-0.0616734163990546,-0.0356158007516006,-0.00126312777368393,0.000659758617244485,0.0630792936919194,-0.0330620365500594,1.61173183151493,-0.000196361752519762,0
0.34,0.00123497435293869,0.000710897913827252,-0.0616703125813217,-0.0356157716627942,-0.00126303214274288,0.000659763065576279,0.0630761682364757,-0.0330621784765921,1.61173113441966,-0.000187534162185454,0
0.35,0.00123488727427811,0.000710897612899331,-0.0616674678641241,-0.0356157719956663,-0.00126294470556473,0.000659767130801463,0.0630733049114842,-0.0330623352950606,1.61173049912021,-0.000179489116106851,0
0.36,0.00123480821870045,0.000710897338638093,-0.061664888686854,-0.0356157428661614,-0.00126286532299255,0.0006597708231165,0.0630707075601668,-0.0330624482537295,1.61172992013889,-0.000172157244671245,0
0.37,0.00123473592478572,0.000710897088682439,-0.0616625239921308,-0.035615743157888,-0.0012627927312734,0.000659774198113788,0.0630683274125405,-0.0330625785920177,1.61172939248294,-0.000165475326610337,0
0.38,0.0012346703733851,0.00071089686087898,-0.0616603837634219,-0.0356157139939105,-0.00126272690818544,0.000659777260192352,0.0630661718839569,-0.0330626673614168,1.61172891160258,-0.000159385745068002,0
0.39,0.00123461041949446,0.000710896653265363,-0.0616584207433163,-0.0356157142509983,-0.00126266670686832,0.000659780059500511,0.0630641960288407,-0.0330627755853095,1.61172847335127,-0.000153835990787665,0
0.4,0.00123455547146265,0.000710896464051858,-0.0616566144580711,-0.0356157144933334,-0.00126261153360053,0.000659782623247029,0.0630623780611149,-0.0330628749291237,1.61172807395005,-0.000148778209335718,0
0.41,0.001234505645705,0.000710896291608589,-0.0616549790150995,-0.0356157147205751,-0.00126256150236136,0.000659784949400474,0.0630607319625106,-0.03306296503283,1.61172770995482,-0.00014416878846363,0
0.42,0.00123446058340071,0.000710896134449424,-0.0616535040354312,-0.0356156855029103,-0.00126251625249949,0.000659787055132035,0.0630592460547438,-0.0330630171142384,1.61172737822713,-0.000139967982047718,0
0.43,0.00123441913954621,0.000710895991219861,-0.0616521391630878,-0.0356156857063876,-0.00126247463802798,0.000659788989561506,0.0630578723382353,-0.0330630922313045,1.61172707590651,-0.00013613956736448,0
0.44,0.00123438130456323,0.000710895860685264,-0.0616508901855902,-0.0356156829887527,-0.00126243664760627,0.000659790755145376,0.0630566151860319,-0.0330631579966542,1.61172680038592,-0.000132650532752551,0
0.45,0.00123434696204335,0.0007108957417206,-0.0616497570182225,-0.0356156831711268,-0.00126240216331033,0.000659792358527695,0.0630554746731526,-0.0330632203799837,1.61172654928989,-0.000129470792957002,0
0.46,0.00123431586957735,0.000710895633300907,-0.0616487327342931,-0.0356156539162771,-0.00126237094146344,0.00065979381134222,0.0630544424839211,-0.0330632474912888,1.61172632045291,-0.000126572929709854,0
0.47,0.00123428734782355,0.00071089553449125,-0.0616477881428657,-0.0356156540820123,-0.00126234230195298,0.000659795142947368,0.0630534917950021,-0.0330632994580821,1.61172611190191,-0.000123931955309905,0
0.48,0.00123426127079151,0.000710895444440113,-0.0616469212653912,-0.0356156542404252,-0.0012623161176728,0.000659796359921041,0.0630526193658956,-0.0330633470715587,1.61172592183855,-0.000121525097157989,0
0.49,0.0012342375220659,0.000710895362370921,-0.0616461302186184,-0.0356156543918648,-0.0012622922711922,0.000659797468322128,0.0630518232607662,-0.03306339051254,1.61172574862416,-0.000119331601391575,0
0.5,0.00123421586881608,0.000710895287576533,-0.0616454069684741,-0.0356156545370271,-0.00126227052886102,0.000659798478859169,0.0630510954029068,-0.0330634302047322,1.6117255907648,-0.00011733255393109,0
0.51,2.25591410022303,-0.00672351593829687,5.44009841256358,0.339002842069461,-0.135148800764472,2.25187220661022,0.0287312932760621,5.45057503187459,0.0569639051570223,17.3504338274164,525.141273710073
0.52,2.25308355727244,-0.0227295234243276,3.11428491332298,1.14395104285821,-0.588695958837698,2.17493430138354,0.323868102294406,3.30189399619729,0.254251143118348,36.4456813987431,525.141273710073
0.53,2.12330425050287,0.0302918646941966,7.11048233167713,-1.50894571797937,-1.15729806472277,1.78044930471472,-5.21309785081262,5.06551941727142,0.59064300814748,55.3467734990306,525.141273710073
0.54,2.11206404322542,0.00694769025962194,5.04509879081371,-0.335278270519979,-1.84578113956814,1.02662299696636,-4.57905149825988,2.14422962950258,1.0664952144146,74.6311165561727,525.141273710073
0.55,2.02778322413312,0.00853727650659153,6.35903598084885,-0.42287513147204,-2.01504994495534,-0.227049352567549,-6.26687801831481,-1.15862068258357,1.68720999043887,94.6379171816237,525.141273710073
0.56,1.88406984088046,-0.0451381101329813,11.0173710762608,2.27024177526723,-1.17011867469606,-1.47735537411594,-8.79074993423383,-7.01848835177237,2.44777350833684,112.499444678573,525.141273710073
0.57,1.87421573577892,0.0209535831380843,9.22889201529888,-1.03105006413021,0.337408915714141,-1.84371334552968,2.77479424071836,-8.86205557342463,-2.94941101806814,129.222503727481,525.141273710073
0.58,1.84365680388619,0.02651443682041,8.19548746147106,-1.32245236823558,1.71138015515432,-0.686258982032093,8.12427649495333,-1.70617303663199,-1.93778178325405,147.030566575678,525.141273710073
0.59,1.81655859956693,-0.0649640064349714,7.1690889201591,3.27094244488566,1.25590463204657,1.31408105647887,7.41772838822158,2.65936195006889,-0.798512058553479,163.364919697463,525.141273710073
0.6,1.64072245128838,0.0314595211992034,13.7067867689329,-1.55300073133607,-0.694763285732751,1.48669561122432,-7.43414404876955,11.6198673427311,0.456335743247351,179.332316907527,525.141273710073
0.61,1.72305007447854,0.0374203557585849,7.2080705193386,-1.85822164829425,-1.6747570164189,-0.406805577814842,-6.48808232809117,-3.64884310567866,1.83079965295571,195.127530906039,525.141273710073
0.62,1.59353526324853,0.0916705002702278,11.4711755662298,-4.57915841361154,0.186090505316586,-1.58528497112266,6.49924605015791,-10.5031595926047,-2.96727809559357,210.39045032375,525.141273710073
0.63,1.57144263974297,-0.0279817604916188,10.3616684350798,1.42560513954685,1.53429661515937,0.340806170180456,10.4378352006041,0.669416983248273,-1.37002423172777,224.966299457349,525.141273710073
0.64,1.58442987143408,0.015313695051727,7.49890387612723,-0.759816435457488,-0.502154705007611,1.50282839306006,-3.16344030471136,6.84131023982358,0.332140967487185,239.615346050086,525.141273710073
0.65,1.5372806096592,0.0178861554630393,7.82940819303323,-0.860996655590679,-1.30613834802376,-0.8108971594556,-6.14063547685134,-4.93290419879699,2.13802980404394,253.117616235687,525.141273710073
0.66,1.45202586069778,0.0409762406660545,9.96421668860546,-2.02781624675576,1.11505646124899,-0.930971127726918,9.0810867934492,-4.57509733207203,-2.23825146238504,266.728254733802,525.141273710073
0.67,1.4460112199126,0.0423800924748788,8.16520831337873,-2.11311688987941,0.376724288097707,1.39671877309234,-0.160977456115401,8.43267312598949,-0.234151822955766,280.124412912204,525.141273710073
0.68,1.30727571495398,-0.0030117294143487,13.1404711439301,0.153872897064122,-1.25033706996353,-0.381622951219556,-12.621485735236,-3.65974815911492,1.86472778174024,292.795398685262,525.141273710073
0.69,1.25337447293904,0.00698141612082948,13.9073327804686,-0.312302486220487,0.988560247088961,-0.770548471844362,11.206878752591,-8.24119569809631,-2.22732009304372,304.918208120691,525.141273710073
0.7,1.27425661130332,0.0623146785366101,10.9380427858546,-3.08690497652911,-0.00491839435848114,1.27576990088663,-3.65899251461235,10.7601829025959,0.0527190600696954,316.834096303555,525.141273710073
0.71,1.18245382964249,0.00287144366050607,13.63706787504,-0.117438078623716,-0.784434102974786,-0.884798532161434,-8.93386689725578,-10.3038553072564,2.41867665280618,328.438743602979,525.141273710073
0.72,1.23767424380976,-0.0120018597725862,9.02445267663374,0.62164913494461,1.22087598540353,0.203576537678122,9.01181993907312,0.783769829416401,-1.41526698499509,339.700380644606,525.141273710073
0.73,1.17943107250997,0.0127165573751252,10.1476193802032,-0.623058714180978,-1.05317648164332,0.531073125046714,-9.38407312082941,3.91171994264919,1.11452929971682,350.531603899158,525.141273710073
0.74,1.06906919678676,-0.0211910703223191,13.9069686578444,1.07055181226246,0.604237149074263,-0.88218789192456,6.73468192802032,-12.2144962139829,-2.56087178292773,361.027734057034,525.141273710073
0.75,1.05290735417043,0.0203744958522529,12.99208864437,-1.01332634189356,-0.108406766026307,1.04750989953658,-2.59291759452755,12.77098179336,0.122471145772142,371.209112234638,525.141273710073
0.76,1.10295753651296,0.00859819982013249,8.81570523890047,-0.421401131358085,-0.294294494723145,-1.06300517720589,-1.87887169316646,-8.62346096027024,2.87930143423046,381.028500437716,525.141273710073
0.77,0.943189991262486,0.0787726305636333,15.1734935898367,-3.93773486622122,0.580093372402765,0.747866409352653,4.96819437381536,14.8680095595025,-0.576401168187854,390.430324373053,525.141273710073
0.78,0.997957478537456,0.0542370086742061,10.8425641896691,-2.70170340077895,-0.768271963861536,-0.639233112114119,-6.10800198356214,-9.35696057711457,2.31906552210471,399.57751784212,525.141273710073
0.79,0.958328743542609,-0.0386214433819827,11.2759153458282,1.9579360620414,0.787071334071601,0.548091517605969,10.5585972254978,4.41540543314376,-1.00279094627046,408.354867143846,525.141273710073
0.8,0.826594963554765,0.0636211193746247,16.3322009675327,-3.1576295639424,-0.771520014692811,-0.303420084261058,-13.3177632791844,-9.96737649266687,2.02230875735828,416.911203738924,525.141273710073
0.81,0.861629023719197,0.00690146897915561,13.1013630052734,-0.305844425849738,0.797381372632382,0.326550381056684,11.965737160548,5.34419195140403,-1.17409320671235,425.125121963225,525.141273710073
0.82,0.835942123706975,0.00731407143973434,12.9320570242421,-0.324416420483554,-0.772406316977045,-0.319751796433905,-11.7782604032087,-5.34938564382245,1.97203539104649,433.114926255705,525.141273710073
0.83,0.791881783689178,-0.0428179533910568,13.6909013683871,2.13632665763247,0.689252139074047,0.39222649738793,13.2021997788894,4.20792025415249,-1.10745537266802,440.930528592958,525.141273710073
0.84,0.753583636996957,0.0458024036207817,14.1929327466236,-2.29794987038317,-0.654980330993588,-0.375482255424317,-10.6004913653932,-9.71336689151602,2.15203620444666,448.385785880852,525.141273710073
0.85,0.824254427949444,0.0235025355034194,9.29411726305336,-1.1588140184857,0.617635279962285,0.546328099327926,5.99096220441602,7.19943313699657,-0.818078119877683,455.549999904814,525.141273710073
0.86,0.692704200126459,0.0886471389331681,14.5528701409445,-4.40457445257771,-0.461587949484771,-0.524055330098186,-4.50682511068535,-14.5215299768719,2.54676786616475,462.414172637011,525.141273710073
0.87,0.656706346428461,0.0163414376205324,15.0354050220977,-0.797846141127256,0.223075880692339,0.617873303741358,3.99545961977509,14.516758077139,-0.32159558446509,469.194466872579,525.141273710073
0.88,0.609201846138698,0.042590297150585,16.1113027223889,-2.14375456692616,-0.0423776701735698,-0.60921667395175,2.14937762318702,-16.1105535252087,-3.14124363234405,475.711178645854,525.141273710073
0.89,0.566661268154916,-0.010902698138303,17.02170390383,0.562910998706737,-0.214108315076372,0.524768035486909,-5.60076123356219,16.0837416724702,0.368150812627926,481.776364178637,525.141273710073
0.9,0.530652808519314,0.0444651248131817,17.6633242455673,-2.18873438880798,0.34138453471918,-0.408688328642569,13.97281004686,-11.0247068452256,-2.36208654266042,487.571228428172,525.141273710073
0.91,0.469509590539222,-0.0398879307215572,19.5314947797909,1.97980557889809,-0.456227683405653,0.117841433799268,-17.7738655953839,8.33598346090383,1.23327268676701,493.334858786184,525.141273710073
0.92,0.511862127945242,0.0286579845073697,16.2778513287324,-1.42608211005364,0.51004214195754,0.0517796439541685,15.8542631187549,3.95531225394618,-1.41369331772656,498.758944758348,525.141273710073
0.93,0.568148948784235,0.0736421194086828,12.3577699545294,-3.64843102564166,-0.484766731447154,-0.305315584007231,-7.19829953826123,-10.686908390896,2.26175287879332,503.999174666219,525.141273710073
0.94,0.449688292784993,-0.00361460620791954,17.1931290087286,0.162405126001628,0.132964123311267,0.429596517627862,5.37011564160602,16.3337662078136,-0.308195795183065,509.074782604055,525.141273710073
0.95,0.549292940133168,0.0328381912053314,11.1528822339646,-1.62501552504397,0.130850399356119,-0.534489713530693,4.84633517209835,-10.175484901517,-2.84178955929066,513.935233633407,525.141273710073
0.96,0.437128698665328,0.0148360765604029,15.7364300771804,-0.705968538281299,-0.344989786728902,0.268856198398504,-13.1481162473419,8.67529032928664,0.942722006541109,518.574228539668,525.141273710073
0.97,0.422134869751412,0.0125672151657837,15.4854012269767,-0.637840033012579,0.422251592094861,0.00770559085467945,15.4369490136535,1.38025222985717,-1.52278771223102,522.994423570909,525.141273710073
0.98,0.378720168252512,0.0121948244135673,16.6728975900522,-0.57712572404611,-0.23905094720905,0.293993748610654,-11.3653153126983,12.2126244514711,0.714876312036661,527.304984271162,525.141273710073
