t,iq,id,vq,vd,ia,ib,va,vb,theta_e,omega,r
0,0,0,0,0,0,0,0,0,0,0,0
0.01,0.000469895720440071,0.000268749958522664,-0.0231705445205546,-0.0134501293184823,0.000182662988419217,-0.000509571153967322,-0.00887843396426151,0.0252775299901938,-2.27786934214916,-0.00138052755169332,0
0.02,0.000531848200607969,0.000303859606449748,-0.0262566948750468,-0.0152072627099987,0.00020694964577643,-0.000576511069308075,-0.0100829734907525,0.0286183247321888,-2.27787995250509,-0.00152673609762185,0
0.03,0.000556258864570882,0.000317765719771394,-0.0274606569287969,-0.0159032261486978,0.000216467705164967,-0.000602943371881748,-0.0105458532040698,0.0299296719176124,-2.27789106983484,-0.00155859471022503,0
0.04,0.000543642292360118,0.000310637096367437,-0.0268459819191251,-0.0155464620929067,0.000211500595944567,-0.000589329997197877,-0.0103099970180067,0.0292592411093806,-2.2779017286445,-0.00148122921094039,0
0.05,0.000556950904813361,0.000318294751130983,-0.0275044834882037,-0.0159297052034513,0.000216637307915836,-0.000603799748086181,-0.0105613329703201,0.0299784983898754,-2.27791235022474,-0.00148166880503901,0
0.06,0.000557896557628135,0.00031889406146892,-0.027555746489549,-0.0159597001385775,0.000216960576983086,-0.000604871969501508,-0.0105805055166129,0.0300347148500286,-2.27792278940155,-0.00144574811908817,0
0.07,0.00057093578170568,0.00032646589134738,-0.0282007361052221,-0.0163386446607585,0.000221948132002399,-0.000619101503588677,-0.0108243560418714,0.0307419280869908,-2.27793284308232,-0.00144748873783482,0
0.08,0.000558780170491269,0.000319532526452765,-0.0276083800595258,-0.0159916480142596,0.000217205399231415,-0.000605935746544351,-0.010599160891738,0.0300934086489757,-2.27794283841137,-0.00137396682182315,0
0.09,0.000557684114814166,0.000318987690271707,-0.0275589965835496,-0.0159643755913232,0.000216720295167142,-0.000604811567451884,-0.0105790473618138,0.0300406946928568,-2.27795246806073,-0.00133493500157506,0
0.1,0.000557482276639902,0.000318943878988957,-0.0275534036412717,-0.0159621895735099,0.000216589658337972,-0.000604649159937539,-0.0105759345810708,0.0300354982634952,-2.27796182886293,-0.00129958020849228,0
0.11,0.000557355679388589,0.000318939387901633,-0.0275513875547084,-0.0159619560226043,0.000216490830752016,-0.000604565469326595,-0.0105742801751098,0.0300341071955798,-2.2779709351138,-0.00126539545947379,0
0.12,0.000557238010361703,0.000318938008876113,-0.0275496948474725,-0.0159618900133491,0.000216396919362648,-0.000604489889897329,-0.0105727701961673,0.0300330509500141,-2.27797979428266,-0.00123215506233346,0
0.13,0.000582566358232386,0.000333500608008584,-0.0287976710349387,-0.0166907081364334,0.000226184536889439,-0.000632018016007732,-0.011047686866196,0.0313979969112463,-2.27798866892011,-0.00127508845444744,0
0.14,0.000602720071175763,0.000345220810672288,-0.0298321623517963,-0.017277272331082,0.000233884855062562,-0.000654023521665477,-0.0114527217811116,0.0325161069870112,-2.27799734447681,-0.00130325876214699,0
0.15,0.000560576717089803,0.000320996001773269,-0.0277256729448293,-0.0160648932459887,0.000217582072878824,-0.00060822917593565,-0.0106388396636515,0.0302259627780451,-2.27800584661528,-0.00114544268774618,0
0.16,0.000557085270108461,0.00031909534950048,-0.0275578644773584,-0.0159697682619192,0.000216158034092526,-0.000604517613094858,-0.0105728409304659,0.0300447071470321,-2.27801378766443,-0.00110550337037087,0
0.17,0.000556710725529888,0.000318945405846219,-0.0275430168140739,-0.0159622600845721,0.000215966085647497,-0.00060416194325737,-0.0105662011670349,0.0300294341459447,-2.27802148666659,-0.0010757999439384,0
0.18,0.000556589702417709,0.000318932778767945,-0.0275405214933368,-0.0159616370905458,0.000215877768630815,-0.000604075329094855,-0.0105644842358202,0.0300274183966311,-2.27802897466665,-0.00104763971863269,0
0.19,0.000556491649330333,0.000318930943692717,-0.0275390597406394,-0.0159615377244992,0.000215800024591684,-0.00060401179790245,-0.010563218893747,0.0300264700644599,-2.27803625936104,-0.00102030283094242,0
0.2,0.000556397809615875,0.00031892997779449,-0.0275377129257636,-0.015961495286159,0.000215725038916784,-0.000603951621295688,-0.0105620098820156,0.030025637581974,-2.27804334642393,-0.000993712318929923,0
0.21,0.000556306741479541,0.000318929102298102,-0.0275364128603225,-0.0159614425023987,0.00021565221828199,-0.000603893271744532,-0.0105608489135584,0.0300248255647973,-2.27805024122966,-0.000967843533816277,0
0.22,0.000556218024038928,0.00031892825553088,-0.0275351411454293,-0.0159614029916147,0.000215581279605972,-0.000603836430107684,-0.0105597064988778,0.030024040068202,-2.27805694899418,-0.00094267654215898,0
0.23,0.000556131751318943,0.000318927432072405,-0.0275339048312897,-0.0159613634878327,0.000215512294755782,-0.000603781154527425,-0.0105585964634323,0.0300232756436008,-2.27806347479213,-0.000918192277304871,0
0.24,0.000556047748696605,0.000318926630929148,-0.0275326976036772,-0.0159613239911397,0.000215445128597944,-0.000603727331922115,-0.0105575138584257,0.0300225282415524,-2.27806982355979,-0.000894372216106374,0
0.25,0.000555966132587235,0.00031892585147006,-0.027531527563704,-0.0159612845007691,0.000215379867077536,-0.000603675038557644,-0.0105564646973435,0.0300218031770116,-2.27807600009942,-0.000871198340020444,0
0.26,0.000561317136140474,0.000322036330882444,-0.027797058388649,-0.0161169522412892,0.000217422611398676,-0.000609517623851641,-0.0106569744941051,0.0303127283371516,-2.27808196385856,-0.000865089412056658,0
0.27,0.000545794316858548,0.000313137481094701,-0.0270374679724426,-0.0156715896400359,0.000211401963412267,-0.000592668312166984,-0.0103687965266281,0.0294806963078541,-2.27808794319867,-0.000796388725830106,0
0.28,0.000545178237568172,0.000312809088397021,-0.0269711249830948,-0.0156551651461357,0.000211143679537448,-0.000592019579991322,-0.0103288724069311,0.0294251622494735,-2.27809363402328,-0.00077341726323432,0
0.29,0.000554810554600778,0.000318443429066925,-0.0274853730155576,-0.0159371421066111,0.000214801029757288,-0.00060256243380046,-0.0105363762630539,0.0299737052026274,-2.27809908165689,-0.000782050559542863,0
0.3,0.00055024886835241,0.000315916456092639,-0.0272636236734776,-0.0158106791939167,0.000212972645895238,-0.000597678572858038,-0.0104498473819333,0.0297335406918897,-2.2781040321584,-0.000750006859675736,0
0.31,0.000555095963867199,0.000318685933169453,-0.027504054960599,-0.0159492761454413,0.000214854274524287,-0.000602934402584877,-0.0105423875440684,0.0299951748404617,-2.27810923866013,-0.000745199451401734,0
0.32,0.00055542451360919,0.000318902525982474,-0.0275225293291456,-0.0159601226041916,0.000214960188802873,-0.000603313623769463,-0.0105492289527558,0.0300154777192842,-2.27811434256892,-0.000727236552355764,0
0.33,0.000555390803375755,0.000318918934669058,-0.0275231500006297,-0.0159609357333789,0.000214920905523989,-0.000603305259162857,-0.0105490232213319,0.0300165515094258,-2.27811931113397,-0.000708690498099271,0
0.34,0.00055532946599748,0.000318919660299225,-0.0275223512719043,-0.0159609764487614,0.000214870895006362,-0.000603266992309031,-0.0105482445487653,0.0300161144332748,-2.27812414516346,-0.000690561310637356,0
0.35,0.000555267430053167,0.000318919171241331,-0.0275214571434189,-0.0159609546037165,0.000214821222292644,-0.000603227319603316,-0.0105474379553418,0.0300155664237268,-2.2781288480771,-0.00067291697872405,0
0.36,0.000555206907502306,0.000318918601711086,-0.0275205779820381,-0.0159609283948061,0.000214772829525133,-0.000603188541298155,-0.0105466494086847,0.0300150234705865,-2.27813342341241,-0.000655750738322492,0
0.37,0.00055514816699235,0.000318918040255155,-0.0275197287704769,-0.01596088895088,0.000214725861247175,-0.000603150900046426,-0.0105458959574979,0.0300144886039487,-2.2781378746295,-0.00063905013464338,0
0.38,0.000555090962276908,0.000318917493428946,-0.0275188987470236,-0.0159608627443145,0.000214680123969999,-0.000603114241573461,-0.0105451521183199,0.0300139749882164,-2.27814220509449,-0.000622802577477043,0
0.39,0.000555035270960149,0.000318916961367507,-0.0275180883882313,-0.0159608365382056,0.000214635598580697,-0.000603078552163477,-0.010544426756184,0.030013472906768,-2.27814641808388,-0.000606995780025944,0
0.4,0.000554981093042073,0.000318916443713608,-0.0275172991534248,-0.0159608103324671,0.000214592283364707,-0.000603043832258842,-0.0105437208843831,0.0300129833418853,-2.2781505167841,-0.000591617785732574,0
0.41,0.000554928370315018,0.000318915940080788,-0.0275165296145947,-0.0159607841270195,0.000214550132436785,-0.00060301004443496,-0.0105430333241722,0.0300125053986764,-2.27815450429575,-0.000576656962146923,0
0.42,0.000554876950553338,0.000318915450090207,-0.027515773642562,-0.0159607711509122,0.000214509028498349,-0.000602977090157085,-0.0105423507294174,0.0300120451815342,-2.27815838363483,-0.000562101992360748,0
0.43,0.000554827080000916,0.000318914973372726,-0.0275150449405247,-0.0159607449444174,0.000214469157163135,-0.000602945129816473,-0.0105417006215703,0.0300115915150301,-2.27816215773629,-0.000547941866466688,0
0.44,0.000554778606431855,0.000318914509569353,-0.0275143372652546,-0.015960718737944,0.00021443040121882,-0.000602914064856234,-0.0105410695718117,0.0300111504288016,-2.27816582945473,-0.000534165873231904,0
0.45,0.000554731413430832,0.000318914058330708,-0.0275136461188119,-0.0159606925314742,0.000214392670714438,-0.000602883819978494,-0.0105404540777627,0.0300107190295408,-2.27816940156742,-0.000520763591994536,0
0.46,0.000554685348773078,0.000318913619316952,-0.027512965166737,-0.0159606795497584,0.000214355848522396,-0.000602854296603742,-0.0105398406494604,0.0300103032813756,-2.27817287677653,-0.000507724884781786,0
0.47,0.000554640775116044,0.000318913192197264,-0.027512313773534,-0.0159606533417288,0.000214320208900512,-0.000602825730734527,-0.0105392611151188,0.0300098956915144,-2.27817625771107,-0.0004950398886416,0
0.48,0.000554597307404067,0.000318912776649561,-0.0275116739631137,-0.0159606271339094,0.000214285457831397,-0.000602797872468179,-0.0105386931395809,0.0300094946586927,-2.27817954692808,-0.000482699008182758,0
0.49,0.00055455490982619,0.0003189123723613,-0.0275110450853091,-0.0159606126921956,0.000214251566784633,-0.000602770698846399,-0.0105381285077502,0.0300091087296895,-2.27818274691623,-0.000470692908314311,0
0.5,0.00055451382862753,0.000318911979027144,-0.0275104405923822,-0.015960586482845,0.00021421872164723,-0.000602744370195191,-0.0105375926647315,0.0300087287850645,-2.27818586009556,-0.000459012507186064,0
0.51,1.80320819123025,0.0288771627367476,0.850197125383776,-1.44458611721379,-0.0427242610326718,1.80293325138975,-1.47719626964187,0.792183932564782,0.0397056065683263,12.2346041147091,403.756463221414
0.52,1.73482723582956,-0.0253470715735332,2.27003665757495,1.27017712630694,-0.333541418482814,1.70265032651154,0.846115610196862,2.45977737470459,0.17883608257374,25.6897918740158,403.756463221414
0.53,1.70765886460741,0.00489274554852939,1.64995440291693,-0.242530362867089,-0.685247294747942,1.56414797313806,-0.888283921483713,1.41142558551662,0.415775924765988,38.8955254996527,403.756463221414
0.54,1.64996216497103,-0.0393801796116717,2.56116069368576,1.97414528548726,-1.15205220803976,1.18182132927649,-0.297400744099355,3.21999169323488,0.748780820943427,51.9320813661989,403.756463221414
0.55,1.6418644666312,-0.00506545500676231,0.966956377803906,0.257534222805601,-1.51820446317086,0.625139819263385,-0.79419403327161,0.608756396276465,1.17710590762927,64.9351911257279,403.756463221414
0.56,1.59126245719246,0.0403240197620911,1.42996189275309,-2.01347948750255,-1.58299578381773,-0.166932868708487,-1.15600516601827,-2.18232507144527,1.70119725798596,78.1106124738476,403.756463221414
0.57,1.54207270671286,-0.0200444331290687,1.69582240682338,1.00769716666468,-1.11205126084818,-1.06851860317646,-1.92667296420072,-0.42331844302638,2.32323561245246,91.645808752557,403.756463221414
0.58,1.49575646797108,0.0110539266908657,1.86155524239274,-0.549147515557341,-0.15717450181182,-1.48751664755485,0.364597634058267,-1.90631043630407,3.04371097271028,104.691231305515,403.756463221414
0.59,1.4833307020429,-0.0326475376012434,0.579014039180215,1.6390217192255,0.995635242510168,-1.10002104398335,-0.860083924262377,-1.51059759594875,-2.42796997296668,116.537876467852,403.756463221414
0.6,1.42044795014932,0.0325008289474586,1.98123375500241,-1.62059986283191,1.42065965980008,0.021326368241846,1.91842670834633,1.69448224306873,-1.53290916050155,127.577212202552,403.756463221414
0.61,1.38108832016897,0.000897234564168459,2.21650256006306,-0.0375851962274308,0.731791450317631,1.17127581140354,1.14133892494479,1.90043197830057,-0.557792513839827,138.502638169017,403.756463221414
0.62,1.31158359959761,-0.0395025190965805,3.81720487165238,1.9841456893132,-0.662393086423116,1.13271681668776,-0.0847104996943211,4.30124531732711,0.499046000974882,149.989741918737,403.756463221414
0.63,1.30684462899662,0.00590344539999205,2.13800462685182,-0.290046680284979,-1.30405606851465,-0.0855307264965154,-2.1124768208272,-0.438899239748636,1.64080804406299,161.295010797442,403.756463221414
0.64,1.25885503752736,-0.00906102944146392,2.88060455644675,0.460404235268835,-0.340299482619983,-1.21202077947992,-1.24097629231723,-2.64004403606869,2.86067205068408,171.381359497528,403.756463221414
0.65,1.23034082065599,0.0320354394341289,2.69746865085558,-1.59471695639023,1.02573825737817,-0.680166032453104,3.13257647808815,-0.0801492500027701,-2.13029297596991,181.243881949614,403.756463221414
0.66,1.24910363949536,0.0070010791450647,-0.0108141008501229,-0.344572361877956,0.868947600604901,0.897351093336791,-0.256354237411181,0.230498508256954,-0.763713927354723,191.720108155844,403.756463221414
0.67,1.16676259437496,0.000501529959726466,2.44756427741708,-0.0184460919010583,-0.731359082145076,0.909092457414976,-1.54938792139185,1.8948108664032,0.677904802172211,201.372038091376,403.756463221414
0.68,1.16281768807012,-0.0138765583151667,1.15668913550817,0.703831186745516,-0.94106068593824,-0.683185421346842,-1.35073996750741,-0.0938596602184448,2.18680953612886,210.311049545148,403.756463221414
0.69,1.13593816689603,-0.00602574396143607,0.858249803420493,0.307449822126217,0.666222889302808,-0.920075480800581,0.249683709870773,-0.876798815705133,-2.52018191235526,219.892116459584,403.756463221414
0.7,1.08423610910169,0.00352569057257979,1.88329044414211,-0.169290867078156,0.834380297550024,0.692379873937941,1.33684170107373,1.33727205943418,-0.874887280430401,228.786149766936,403.756463221414
0.71,1.04872749024122,0.0250223477072548,2.24740739943251,-1.24243915585603,-0.758725999502493,0.724424132916191,-2.49834333638908,0.593949196942405,0.832376948562133,237.072232072849,403.756463221414
0.72,1.00411291027526,-0.00526066961709834,2.89685724599199,0.268799930690351,-0.510556860172025,-0.864639869400871,-1.71672106569406,-2.34880907887331,2.60295979177773,245.984018913082,403.756463221414
0.73,0.990691029246662,0.0218340095461367,2.18346097225033,-1.08414266244428,0.946958066557706,-0.291917556142076,2.39670512984261,0.445725981358772,-1.84778613409314,253.848501683534,403.756463221414
0.74,0.937303628846228,-0.0269797095994945,3.46391710171315,1.35843234418398,-0.0659434095295795,0.935370228368422,1.21317541910987,3.51742313686221,0.0416069019899542,261.814165359673,403.756463221414
0.75,0.958650425975205,-0.0166566418524609,0.968238113080688,0.840980022873169,-0.868728335841338,-0.405708222059379,-1.22683375949851,0.373646047816041,1.99033525220734,269.621098376786,403.756463221414
0.76,0.930418455471016,0.0449865393645782,1.09391496668444,-2.24095933150177,0.670317244659558,-0.646820749912284,2.29934037285047,0.965185230699745,-2.29004408711852,276.896500430943,403.756463221414
0.77,0.889239467657831,0.00903205640886562,1.74969494837541,-0.446148244341524,0.213186081676354,0.863353985027485,-0.0320270237588,1.80539606126983,-0.231928368768962,284.484858463494,403.756463221414
0.78,0.864805824084397,0.0403349269572944,1.74711280254539,-2.00859147368991,-0.836467647840369,-0.223244023031624,-1.05741094033117,-2.44309741031048,1.87821295752419,291.239146116635,403.756463221414
0.79,0.855370098678549,0.0154431396828773,0.888588524294976,-0.76760211989555,0.659281335911167,-0.545201445702231,1.17330544807674,0.0464424965984318,-2.24371104610265,298.401201461282,403.756463221414
0.8,0.808818994425327,0.0282010837036591,2.0332914421477,-1.40177957648903,0.0546848961550956,0.807460852919672,-1.33441129145035,2.07812573609554,-0.0327683880547965,304.78865316691,403.756463221414
0.81,0.76563485209338,-0.0225176826016713,2.91912901133419,1.13142185033725,-0.593308217999827,-0.484447242972515,-3.00393400745307,-0.881935409823428,2.22612679216988,311.534040774928,403.756463221414
0.82,0.739678001571578,0.0214186145963221,3.08127643113595,-1.06274052656195,0.723841991704324,-0.153737029064787,3.22192010445095,0.492861757905627,-1.75112818738551,317.551787398698,403.756463221414
0.83,0.759142613413114,0.00823163399133919,0.893009251920765,-0.407429717166743,-0.421726929212393,0.631277802932231,-0.840398105356885,0.507144479373693,0.599804553497903,323.899072629057,403.756463221414
0.84,0.693541567725075,-0.0156856125724882,3.0848519260594,0.794490882868447,-0.0857983638756773,-0.688392755162767,-1.23661685511792,-2.93569513442928,2.99498346565091,329.564355821869,403.756463221414
0.85,0.724662833606954,0.00642917641102417,0.372917048741358,-0.317040931304663,0.548923510574791,0.473139024240054,0.0711849105332666,0.484267266988864,-0.850539577947637,335.490860595896,403.756463221414
0.86,0.687455085543085,0.0153766743077399,1.19360445372467,-0.759610855295949,-0.687204234244092,-0.0241096907654818,-1.14803353543252,-0.826873173441437,1.62822948113716,340.828080145129,403.756463221414
0.87,0.638227985607644,0.00677872253247888,2.553654610582,-0.334525241174812,0.535366466658169,-0.34751066036873,2.33575974374141,-1.08502784602371,-2.13592346973844,346.339197751537,403.756463221414
0.88,0.664725768730073,0.00741583353202596,0.224482439872817,-0.361111019571534,-0.265037645521748,0.609647757854525,-0.421333162507248,0.0572005283095069,0.421246416143155,351.454185180849,403.756463221414
0.89,0.583100452909008,0.0282796129847366,3.25871548673812,-1.40954823915423,-0.100589497815109,-0.575054456223548,0.993263123490967,-3.40873601640295,3.01688369730326,356.561572508356,403.756463221414
0.9,0.634805586045068,0.0105993433710293,-0.301599289680359,-0.527296277469252,0.385171099040962,0.50471150434431,-0.603401368784916,0.0700734180493369,-0.635169329488456,361.431260345969,403.756463221414
0.91,0.571947757032797,-0.0167923981726832,1.87877571837883,0.848347106593638,-0.504805257165674,-0.269402809467783,-2.06003845098602,-0.0757138936710178,2.03166936151382,366.055239987608,403.756463221414
0.92,0.544686436055549,0.0167616482124527,2.2762140800874,-0.836407258915664,0.544910173922036,-0.00609662447176811,2.2594059524951,0.880802124761669,-1.55122085625481,370.714772878828,403.756463221414
0.93,0.538722090702317,0.0308135341910623,1.68596897905716,-1.53314420598826,-0.486796960393621,0.232808256407608,-2.14144042959002,-0.779265963080459,1.18183882506295,374.969690609752,403.756463221414
0.94,0.549627766134022,-0.0271113743207486,0.220379989667737,1.36191227501001,0.414996359924896,-0.36139137949337,-0.785047859472546,-1.1344920638799,-2.33654665007235,379.278834006245,403.756463221414
0.95,0.518313995227867,0.00397744696147022,0.909591692833235,-0.197132497062103,-0.225844275981067,0.466540009795508,-0.579365816751767,0.728391048440828,0.458507112690219,383.409701356652,403.756463221414
0.96,0.510247445408389,-0.0108558720186484,0.465469881050933,0.551007627213031,0.0829757050517183,-0.503572574585076,-0.479568462560556,-0.538781685963628,-2.99955847174539,387.291222234903,403.756463221414
