t,iq,id,vq,vd,ia,ib,va,vb,theta_e,omega,r
0,0,0,0,0,0,0,0,0,0,0,0
0.01,0.0011717122116854,0.000670506334708817,-0.0582525121444847,-0.0336000538998736,-0.00134220510422701,0.000144823030227642,0.0668350139032616,-0.00744309812971589,1.98307410997382,-0.000921122207651695,0
0.02,0.00132028401320495,0.000756068023710393,-0.0657015509467539,-0.0378876915612098,-0.00151261137292743,0.000163693513898682,0.0753778892449975,-0.00838717959836035,1.98306731059649,-0.00100503680502873,0
0.03,0.00134923851820206,0.000772651066358439,-0.0671436534205163,-0.0387186823433586,-0.00154578338662877,0.00016729605783583,0.0770320735627875,-0.00857124259822436,1.98306035463122,-0.00099073603403359,0
0.04,0.00133440525497289,0.000764441583517173,-0.0664174948830161,-0.0383072942825514,-0.00152890243429473,0.000165727684824142,0.0762018640562192,-0.0084857725719555,1.9830539283885,-0.000943678008002763,0
0.05,0.00134870037805036,0.000772671344005833,-0.067133270680699,-0.0387197052100884,-0.00154529630266901,0.000167550149383589,0.077022860191588,-0.00857733127209361,1.98304748440829,-0.00092023254506152,0
0.06,0.00134846827025169,0.000772695785476683,-0.067129607472744,-0.038720923939178,-0.00154509239321318,0.00016767512995009,0.0770199389538495,-0.00858039356286109,1.98304127930002,-0.000886262883861602,0
0.07,0.00138248135619054,0.000792217447293789,-0.0688207845854613,-0.0396991676207937,-0.00158407665764927,0.000171942800668826,0.0789613334332243,-0.00879955244256899,1.98303535105004,-0.000881674351968744,0
0.08,0.00134805572381566,0.000772755968119609,-0.0671238900183372,-0.0387239350127353,-0.00154473655871552,0.000167913623462664,0.07701580655103,-0.00858634353835784,1.98302958869256,-0.000822283285788246,0
0.09,0.00134767854015303,0.000772684039169772,-0.0671121532939296,-0.0387203348719325,-0.00154436122945833,0.000168007335919227,0.0770035633739228,-0.00858817093802601,1.98302408822503,-0.000792031731282808,0
0.1,0.00134743523590014,0.000772680085715807,-0.0671067697316788,-0.038720130919893,-0.00154413583449529,0.000168109352608947,0.0769985036872422,-0.00859054784050233,1.98301880452041,-0.000763069108135567,0
0.11,0.0013472020597761,0.000772676515559786,-0.0671016242211343,-0.0387199386610349,-0.00154391990681018,0.000168207339072451,0.0769936685617833,-0.00859282400767517,1.98301372891493,-0.000735247531079611,0
0.12,0.00134697782759333,0.000772673086555798,-0.067096668373605,-0.0387197785662029,-0.00154371226313237,0.0001683015608081,0.0769890217957045,-0.00859503821945266,1.98300885321216,-0.00070852170692539,0
0.13,0.00140636705049129,0.000806687416579915,-0.0700427776281607,-0.0404243009478357,-0.00161175339678961,0.000175681122244557,0.0803712064500286,-0.00897685795565671,1.98300392945797,-0.00073005693120039,0
0.14,0.00153751474380498,0.000882393800135755,-0.0766367957540354,-0.0442180639689443,-0.00176224555742323,0.000192512340585761,0.0879327614901168,-0.00981147804001076,1.98299927683347,-0.000811476367220003,0
0.15,0.00134702506052715,0.00077304700786514,-0.0671167449729505,-0.0387385339479937,-0.00154390297248177,0.000168646973347803,0.0770148096819576,-0.00860526338096566,1.98299477499473,-0.000631918137039558,0
0.16,0.00134614318104617,0.000772661621472048,-0.0670782900570101,-0.0387192055141744,-0.00154293986542794,0.000168653540864494,0.076971796685598,-0.00860327772492655,1.98299064508302,-0.000608716992241277,0
0.17,0.00134595816070558,0.00077265749301099,-0.0670741246557521,-0.038719010736349,-0.00154276801845127,0.00016873000065167,0.0769678679980609,-0.00860507330415963,1.98298667853567,-0.000586972586958045,0
0.18,0.00134578328857507,0.000772654807530342,-0.0670702641488806,-0.0387188508196894,-0.00154260607360945,0.000168803474700391,0.0769642339665437,-0.00860676662522621,1.98298286821354,-0.000566086559285929,0
0.19,0.00134561503209282,0.000772652232152935,-0.067066541063143,-0.0387187230075849,-0.00154245025925981,0.000168874166628352,0.0769607399884343,-0.0086084227327048,1.98297920796096,-0.000546023134464082,0
0.2,0.00134545304201654,0.000772649758089393,-0.0670629455835318,-0.0387186272876225,-0.00154230025094933,0.00016894221754434,0.0769573770158967,-0.00861004600514458,1.98297569186735,-0.000526749907179916,0
0.21,0.00134529782404181,0.000772647381344605,-0.0670595102320231,-0.0387184994986098,-0.00154215650951718,0.000169007430085489,0.0769541490960407,-0.00861156506606101,1.98297231425526,-0.00050823575552808,0
0.22,0.0013451488924896,0.000772645098094702,-0.0670562178469077,-0.0387183717208205,-0.00154201858755837,0.000169070003845328,0.0769510533103983,-0.00861301660649857,1.98296906967039,-0.000490450783359295,0
0.23,0.00134500541243945,0.00077264290466618,-0.0670530333937848,-0.0387182760214938,-0.00154188571776481,0.000169130278115131,0.0769480703606491,-0.00861444444855202,1.98296595287369,-0.00047336627197915,0
0.24,0.00134486800599557,0.000772640797529718,-0.0670499944615097,-0.0387181482612857,-0.00154175846791998,0.000169188008307062,0.0769452089511526,-0.00861577515577354,1.9829629588319,-0.000456954633774768,0
0.25,0.00134473581822524,0.000772638773293984,-0.0670470645357747,-0.0387180525706071,-0.00154163605255216,0.000169243541343637,0.0769424612752507,-0.00861708248951923,1.98296008271069,-0.00044118936766789,0
0.26,0.00135394059833325,0.000777922689586025,-0.0675061865043714,-0.0389828378552656,-0.00155218621866521,0.000170401870217249,0.0774691817969681,-0.00867598612961141,1.9829573274295,-0.000433681900248484,0
0.27,0.00130432514397275,0.000749653759394067,-0.0650534852384158,-0.0375662418899092,-0.00149540099344775,0.000164379770557886,0.0746543791838223,-0.00836074997078776,1.98295462303328,-0.000378574305850382,0
0.28,0.00126972017238559,0.000729573682955821,-0.063257976270607,-0.0365599954723825,-0.00145564965137735,0.000159847325500384,0.0726061179179071,-0.00815821498149471,1.98295203789906,-0.000336333782139689,0
0.29,0.00134398526558009,0.000772480821705092,-0.0670229853539047,-0.0387101535389285,-0.00154088331548963,0.000169415530705548,0.0769171445090633,-0.00862029195149521,1.98294966824733,-0.00038388215385701,0
0.3,0.00134261225371358,0.000771769221330847,-0.0669576163143045,-0.0386745015781149,-0.00153933987557603,0.000169316692257556,0.0768429501473774,-0.00861396932063888,1.98294761076081,-0.000371563752461705,0
0.31,0.00134405231455231,0.000772625385425884,-0.0670317500176625,-0.0387173911849683,-0.00154100192599004,0.000169527798761497,0.0769280371840865,-0.00862374545102454,1.98294534070881,-0.000360377454838003,0
0.32,0.00134395735987236,0.000772626849598802,-0.0670297849127906,-0.0387174759435047,-0.00154091513909661,0.000169570539832026,0.076926251764484,-0.00862477816283177,1.98294315848372,-0.00034842030181175,0
0.33,0.00134386137724787,0.000772625384285472,-0.0670276604623388,-0.0387173802519002,-0.00154082625125226,0.000169610875691171,0.0769242487955793,-0.00862570274589983,1.98294106219974,-0.000336929675075289,0
0.34,0.00134376863424561,0.000772623966594495,-0.0670255916436303,-0.0387173165984993,-0.00154074036467978,0.00016964982989951,0.0769223103424233,-0.00862662804060934,1.98293904847791,-0.00032589159054061,0
0.35,0.00134367961653243,0.000772622604663717,-0.0670236068836751,-0.0387172529399813,-0.00154065792710418,0.000169687220417856,0.0769204495881852,-0.00862751355069178,1.9829371140667,-0.000315288240809789,0
0.36,0.001343594207693,0.000772621296335858,-0.0670217044252471,-0.0387171892762108,-0.00154057883048095,0.000169723096754143,0.0769186648961764,-0.00862836022108695,1.98293525584226,-0.00030510250391996,0
0.37,0.00134351217489669,0.00077262003950203,-0.0670198764619117,-0.0387171256078347,-0.00154050286013701,0.000169757554899467,0.0769169490883651,-0.00862917141101076,1.98293347080418,-0.000295317932197784,0
0.38,0.00134343340172818,0.000772618832137103,-0.0670181209169405,-0.0387170619345515,-0.00154042990811867,0.000169790644104302,0.0769153002372523,-0.00862994817451969,1.98293175606977,-0.000285918725760137,0
0.39,0.0013433576553568,0.000772617672295161,-0.0670164296760673,-0.0387169982566525,-0.0015403597598544,0.000169822460145291,0.0769137108845275,-0.00863069397581849,1.98293010887028,-0.000276889707002469,0
0.4,0.00134328468295125,0.000772616558106589,-0.0670147935563282,-0.0387169665998669,-0.0015402921824943,0.000169853106709499,0.076912185421798,-0.00863144204264053,1.98292852654582,-0.000268216296089241,0
0.41,0.00134321499017478,0.000772615487775677,-0.0670132411393268,-0.0387169029103639,-0.00154022763821983,0.000169882383562431,0.076910724358006,-0.00863212243280488,1.98292700654136,-0.000259884487409784,0
0.42,0.00134314797494949,0.000772614459577034,-0.0670117454601875,-0.0387168392165585,-0.00154016557426814,0.000169910534098699,0.076909315794607,-0.00863277548342434,1.9829255464022,-0.00025188082696541,0
0.43,0.00134308315161016,0.000772613471852759,-0.067010285272253,-0.0387168046297067,-0.00154010554458335,0.00016993775499008,0.0769079519045787,-0.00863343656064063,1.9829241437708,-0.000244192390642469,0
0.44,0.0013430214914878,0.000772612523010564,-0.0670089120639752,-0.0387167409248175,-0.00154004843815345,0.000169963659209768,0.0769066565232833,-0.00863403186505185,1.98292279638205,-0.000236806763342834,0
0.45,0.00134296179042644,0.000772611611520476,-0.0670075684580881,-0.0387167092347774,-0.00153999315067106,0.000169988731061433,0.0769054015463541,-0.00863464056169653,1.98292150206023,-0.000229712018936068,0
0.46,0.00134290490333044,0.000772610735913105,-0.0670062998482601,-0.0387166455200524,-0.00153994046452424,0.000170012629995528,0.0769042028972862,-0.0086351859512907,1.98292025871543,-0.000222896701002474,0
0.47,0.00134284985888104,0.000772609894776115,-0.0670050602938976,-0.0387166138173293,-0.00153988948882084,0.000170035746894252,0.0769030441151684,-0.00863574526543726,1.98291906433987,-0.000216349804334018,0
0.48,0.00134279702632244,0.000772609086753242,-0.0670038707112087,-0.0387165821077042,-0.00153984056102405,0.000170057935596137,0.0769019315230147,-0.00863628093663796,1.98291791700481,-0.000210060757161243,0
0.49,0.00134274628923933,0.00077260831054117,-0.0670027276879387,-0.0387165503916633,-0.00153979357363453,0.000170079244404133,0.0769008619786046,-0.00863679447491262,1.9829168148576,-0.000204019404084155,0
0.5,0.00134269790045876,0.000772607564888373,-0.0670016461597391,-0.0387164866572902,-0.00153974875751268,0.000170099573653963,0.0768998363294031,-0.0086372507032052,1.98291575611864,-0.000198215989672748,0
0.51,2.44000503374727,-0.0372155223345857,4.23443196427837,1.86690082507487,-0.117706101701339,2.43744842682608,1.7261641790415,4.29372681685288,0.0330021698429421,10.0559548678419,370.009925110621
0.52,2.38914672398161,0.018416869890862,4.55821009555408,-0.91872831317132,-0.332643711646524,2.36594788846049,-1.57816854243767,4.37386842969629,0.147389213250413,21.1188609359865,370.009925110621
0.53,2.33730611319427,-0.00426786919994915,4.9204413979398,0.220720475814964,-0.788850494749778,2.20016657969706,-1.44430117954626,4.7088698412427,0.342437626176269,32.0700466871666,370.009925110621
0.54,2.29236530689098,0.0432475283010224,4.8788735758898,-2.15760143191648,-1.29249675240649,1.8937426419554,-4.58470840256153,2.72747138793525,0.617754117558626,43.0853806719075,370.009925110621
0.55,2.09337649634615,0.0321928433148071,12.3204813726919,-1.60395597662844,-1.7151760868251,1.20059673737625,-11.1003316618096,5.58118025399981,0.975457958546109,54.622236488455,370.009925110621
0.56,2.17083949359952,-0.0711450240797042,5.89509002230414,3.57305033215555,-2.15645515274818,0.25943572538986,-5.28392671397388,4.42706375925849,1.41830387179359,65.9512550104425,370.009925110621
0.57,2.14757543695193,0.0434750965244335,4.88456345180395,-2.16676325306568,-2.01893930153289,-0.733385599901562,-3.77549707806576,-3.78146068643475,1.93946966767325,76.0901055537902,370.009925110621
0.58,2.07148586686748,0.0843622440744537,6.59605838087977,-4.21038296865227,-1.25306456991673,-1.65166578594957,-0.314515867526293,-7.81897631891577,2.53327058910876,85.9520843560675,370.009925110621
0.59,2.06669099614881,0.0276342674398073,4.46176836450602,-1.37481585782957,0.0966903981782662,-2.06461286763394,1.64062393278765,-4.37102375795543,-3.08142416427736,96.5364120498689,370.009925110621
0.6,2.02736393482014,0.0363669544074742,4.26628011630953,-1.80668475050159,1.434838797734,-1.43274725757879,4.32594768973122,-1.65874422507576,-2.33752899144227,106.191853731635,370.009925110621
0.61,1.90591869488248,0.0552840618022523,8.29870314595719,-2.74809593343613,1.9064587065634,0.0315847931845258,8.16491893739165,3.12323612778655,-1.52523219902924,115.569283534181,370.009925110621
0.62,1.85868306849066,-0.041329542392071,8.39391958195198,2.08455464453205,1.07909643434373,1.51392264186611,6.69296597605519,5.47790657620998,-0.641485175127429,125.314491800596,370.009925110621
0.63,1.89707274146724,-0.035837482231749,4.52361220342241,1.82130538552331,-0.61166860478467,1.79611548333383,0.357716265138154,4.86335889565473,0.309343478597404,134.138724692489,370.009925110621
0.64,1.74654827675386,0.0409943423946808,9.86275660603786,-2.04061931326396,-1.68520744920952,0.460637897126365,-10.063857833767,0.396056250216012,1.32743956589955,143.445061714144,370.009925110621
0.65,1.69378782798454,0.00576726945687209,10.5850840951554,-0.262280131961044,-1.13602802080177,-1.25634024196425,-6.87748996852636,-8.05064766971904,2.40984710811429,151.932868421778,370.009925110621
0.66,1.76881616606628,0.00894248860270253,4.751638377773,-0.429054096584919,0.705102132630809,-1.62222735151375,2.30874746268215,-4.17514548782198,-2.72652072704273,160.681148696934,370.009925110621
0.67,1.6088475485237,-0.0290121307928636,10.8314230873127,1.46570838552727,1.60516474933456,0.112597804674805,10.8929662061904,-0.900729925432042,-1.51879476020769,169.034173634097,370.009925110621
0.68,1.59386098213828,-0.0294854198385247,9.65688566935293,1.50434663626039,0.364988172361831,1.55178795407163,3.84226981674646,8.98640430251728,-0.249503411137867,177.045583485171,370.009925110621
0.69,1.56480916417393,0.0172926756903901,9.1588061534361,-0.850645585487941,-1.37074384003551,0.754975550544487,-8.47291999474943,3.58007748951114,1.07840653009899,185.165180792604,370.009925110621
0.7,1.54367335657125,0.0508960741400255,8.39757670944168,-2.53814613168939,-1.00812302741486,-1.17013067806409,-3.29212115893241,-8.1316307498359,2.46339163364099,192.882732229966,370.009925110621
0.71,1.53148367277091,0.041145603500382,7.18887397276526,-2.03056630341632,1.02934658960423,-1.13471617557935,6.43810073743766,-3.78866301001769,-2.37798666270421,200.327752394763,370.009925110621
0.72,1.41936777739115,0.0345815936405244,10.949586441959,-1.71076978596346,1.1172681525143,0.876077992813588,7.36128297327503,8.28442451217156,-0.881451177961156,207.793543326105,370.009925110621
0.73,1.4086541175058,0.00576470342516633,9.70052884717954,-0.274965922891662,-0.868217018579848,1.10929656234027,-6.225868954342,7.44408637356355,0.668178673987746,215.059971094238,370.009925110621
0.74,1.31870406905767,-0.00297443645938844,12.4889387300551,0.15877920642345,-1.00757020203787,-0.85075940017544,-9.66259657331535,-7.91410316465595,2.269755683991,222.054762645225,370.009925110621
0.75,1.33718211243087,0.0175262000760291,9.88588669969496,-0.844940430848757,0.928503305395688,-0.962416116533524,7.55689649747535,-6.42946308001946,-2.36102106376845,228.775574635195,370.009925110621
0.76,1.36965976868931,-0.0143311429070829,6.5632090657911,0.752400525059207,0.827278776913142,1.09168818299557,4.61337559309117,4.72848658964606,-0.658935881329042,235.4478126231,370.009925110621
0.77,1.31622998771353,0.0948358419323838,7.56429718696634,-4.72224998240412,-1.12417860812629,0.691142296855447,-8.88964240958023,-0.701779636962466,1.0914940631509,241.983761231885,370.009925110621
0.78,1.25961810381175,-0.0320326146379274,8.74544780547665,1.63087153889536,-0.283545368230037,-1.22770757104701,-3.76318980417828,-8.0610794433763,2.8891923699093,248.368290757996,370.009925110621
0.79,1.19809234645455,0.0760270507100296,10.1994255363172,-3.78877365695078,1.19940093374462,-0.051408007208737,10.1194717449928,3.99742150601808,-1.5502597284754,254.601558503228,370.009925110621
0.8,1.23126145551237,0.016524184152764,6.98223053173816,-0.808476876599276,-0.392774543642538,1.16705011818634,-3.0784605362443,6.31888113396025,0.338065427110867,260.60165577484,370.009925110621
0.81,1.20288952450924,0.0700167542815792,6.84461680136591,-3.49089059280519,-0.965744146936587,-0.720544097687238,-2.99222024468405,-7.07684352630318,2.2699398818806,266.487058352064,370.009925110621
0.82,1.08807710948608,-0.0394980740256189,11.0838480268145,1.99478946861069,0.988735439427518,-0.455932149403163,8.98977904333779,-6.78341690135322,-2.03914933436373,272.138141386857,370.009925110621
0.83,1.1438822196319,-0.0296668120702424,6.80362714536084,1.50420292806976,-0.00225301791707069,1.14426464423169,1.66677334803995,6.7656363623955,-0.023960422338043,277.691377099233,370.009925110621
0.84,1.05644404507962,0.0417387664343288,9.73176223679669,-2.07400542291524,-0.964977897292634,-0.432011345619923,-7.79682451081125,-6.18208882785074,2.03121612868312,283.038131784347,370.009925110621
0.85,1.10461177529929,-0.00852709543699553,5.88894913810809,0.449277001460719,0.924351146898513,-0.60482629135467,4.65386562251536,-3.63635896781867,-2.15792552234487,288.282177868953,370.009925110621
0.86,1.0609691544872,0.0373576956222133,6.65220227616185,-1.84665079690242,0.0645306645951568,1.05966359639387,-1.67559498286438,6.69733497311229,-0.025625825068815,293.411456458872,370.009925110621
0.87,0.919006265085045,0.0161883447275787,12.3778356771362,-0.78383016709354,-0.781095117594543,-0.484484256752013,-9.97735161165012,-7.36733741581953,2.14359510459108,298.349277110592,370.009925110621
0.88,0.936606008173949,0.0228168213724863,10.1406414720356,-1.11072931259498,0.867260653091558,-0.354415549157043,9.872708989329,-2.56825744080463,-1.93439030153313,303.204155528373,370.009925110621
0.89,0.967987907049116,-0.014347592526169,7.24031298038561,0.754943983573988,-0.305049501054559,0.918777036887073,-1.45942414704207,7.13177072200905,0.305744301407382,307.924053944502,370.009925110621
0.9,0.935048821929324,-0.0622000744156304,7.56622014866511,3.12645972935382,-0.445228641253837,-0.824594813017878,-6.67512975506763,-4.73973422570801,2.58008592727643,312.538656054151,370.009925110621
0.91,0.874621296119688,-0.0204610349062518,9.28816901212934,1.02841590145528,0.857683146964886,0.172512854558515,9.32530169827563,0.605368565737824,-1.39569647098435,317.00039457048,370.009925110621
0.92,0.84697126561364,-0.059222266257211,9.38921329172051,2.97720928143017,-0.720658575975914,0.448908474489154,-5.8572589710837,7.91919305791408,0.943889521974456,321.338086200103,370.009925110621
0.93,0.860932472383728,-0.0106243583482145,7.46612455664004,0.554288715164573,0.158731341031335,-0.846239895283521,0.739773376224997,-7.45003269971689,-2.96851455554374,325.490085847017,370.009925110621
0.94,0.835828013437383,0.0113937369665711,7.49344625325262,-0.538485274584138,0.45872963424371,0.698788528780616,3.57235739350117,6.60908206897351,-0.567275209177134,329.597442585026,370.009925110621
0.95,0.731055401123556,0.0533787359570168,11.5432437258258,-2.65087512880141,-0.715365071891961,-0.159825226048024,-10.2874427949938,-5.86874223339599,1.86349086198645,333.569332768804,370.009925110621
0.96,0.677216841492097,-0.0124456863377427,13.0384709889839,0.622082531131528,0.631270009344568,-0.245511141928545,11.8268128215473,-5.5240574662288,-1.96008697979384,337.467993719822,370.009925110621
0.97,0.76658570721443,0.0773971173617086,7.42123769122259,-3.86465299139451,-0.318797970271262,0.701435538329983,-7.07367812783032,4.46915980441205,0.527206971372533,341.173819429804,370.009925110621
0.98,0.725600394770248,0.0537868304102311,8.34696076473775,-2.66597654965877,-0.126039391520803,-0.716591255738852,1.81837007286836,-8.57162267307064,3.0414780779966,344.773993052649,370.009925110621
