t,iq,id,vq,vd,ia,ib,va,vb,theta_e,omega,r
0,0,0,0,0,0,0,0,0,0,0,0
0.01,0.000774392533693396,0.000441966640470199,-0.0377912397185548,-0.0221295368586129,0.0008866639400803,9.40498000522557e-05,-0.0435981657438422,-0.00413450659866966,-0.946502950385184,-0.0017397623933953,0
0.02,0.000856262495877816,0.000488847293694739,-0.0419309326972193,-0.0244768803755901,0.00098049550556419,0.000103854234232418,-0.0483291536891767,-0.00464905296459641,-0.946515879014094,-0.0018574197130364,0
0.03,0.000886222085760431,0.000505988649312236,-0.0434111430630887,-0.0253351639685427,0.00101482501020845,0.000107444391095168,-0.0500319146608026,-0.00481719739382385,-0.946529093456561,-0.00185303237525541,0
0.04,0.000868492667274577,0.000496154362287261,-0.0425871716624587,-0.0248427513583692,0.000994692633626189,0.000105048697927125,-0.0490755929072055,-0.00473451856768198,-0.946541414342664,-0.00174299059885358,0
0.05,0.000885903699594897,0.000506170386172714,-0.043459149311271,-0.025344251141138,0.00101467552991693,0.000107085917757459,-0.0500762967898504,-0.00483665427534765,-0.94655364906321,-0.00171496626648002,0
0.06,0.000886058008056579,0.000506424351063718,-0.0434970867345136,-0.0253569788075619,0.00101495043880758,0.000106958046708978,-0.0501145758348659,-0.00484790857261371,-0.946565465487665,-0.00164924085070216,0
0.07,0.000910524214602386,0.000520577494934131,-0.0447069883435285,-0.0260656367885799,0.00104307600256016,0.000109762135968187,-0.0515105532374313,-0.00497947116833855,-0.946576694867509,-0.00164320899850925,0
0.08,0.000886131350450708,0.000506788493715715,-0.0435579368781967,-0.0253752140318135,0.00101522515237682,0.000106682883330476,-0.0501747166071131,-0.00486756259756358,-0.946587687193479,-0.0015251362100874,0
0.09,0.000885206476072874,0.000506432925344034,-0.0435402277903259,-0.0253574061014751,0.00101426798254679,0.000106420264678959,-0.0501499899092124,-0.00487113871024946,-0.946598126528668,-0.0014646079340473,0
0.1,0.000884918742171878,0.000506421589968733,-0.0435521702603395,-0.0253568470935112,0.00101402894503018,0.000106251144344441,-0.0501594025455802,-0.00487806982112297,-0.94660813911513,-0.00140794518185349,0
0.11,0.000884659073603558,0.000506419163312368,-0.043564418050343,-0.0253567093717034,0.00101381784105162,0.000106091614393135,-0.0501693073018462,-0.00488485773375255,-0.946617745050462,-0.00135362086345654,0
0.12,0.00088441010624272,0.000506417051365115,-0.0435761746553573,-0.0253566044317768,0.00101361556018718,0.000105938482545454,-0.0501788308720982,-0.00489135136881136,-0.946626960921514,-0.00130150346038797,0
0.13,0.00092672989496569,0.000530690513880284,-0.0456426735364314,-0.0265719941584854,0.00106214290796866,0.000110964691670463,-0.0525660384097066,-0.00511235043997277,-0.946636182930346,-0.00134812287430434,0
0.14,0.000977887337525195,0.000560422380835838,-0.0483009876893239,-0.0280606815110071,0.00112103163656784,0.000116726002449586,-0.0555931993808952,-0.00545742074815806,-0.946644984311404,-0.0014176006313054,0
0.15,0.000886200408561426,0.000507794604368392,-0.0437310745242449,-0.0254255923507763,0.00101587618352171,0.00010583999297738,-0.0503449731092859,-0.00492456171229419,-0.946653509912815,-0.00115718212571152,0
0.16,0.000883549969584959,0.000506444651070426,-0.0436231941540006,-0.0253579812653655,0.00101293735078669,0.000105378635086361,-0.0502179582080625,-0.00491598977476029,-0.946661284596884,-0.00110755200424681,0
0.17,0.000883283645794555,0.000506408410263449,-0.0436295485833148,-0.0253561690267299,0.00101270084225592,0.000105244862144587,-0.0502220922179408,-0.00492079978749144,-0.946668732778496,-0.00106528009964879,0
0.18,0.000883088677081804,0.000506405891485493,-0.0436385651410086,-0.0253560627413269,0.00101254190960926,0.000105125733320385,-0.0502293819995773,-0.00492579630604986,-0.946675878228228,-0.00102486728501345,0
0.19,0.00088290361270596,0.00050640430103722,-0.0436473111694213,-0.0253559790636567,0.00101239152452439,0.000105011935080805,-0.0502364641064451,-0.00493063086011699,-0.946682733519302,-0.000986099292957221,0
0.2,0.000882725998904538,0.000506402796200146,-0.0436556978365217,-0.0253558924919445,0.00101224720478681,0.000104902705125406,-0.0502432516004632,-0.00493527165101195,-0.946689310441829,-0.000948905629840876,0
0.21,0.000882555477442951,0.000506401352885127,-0.0436637369929988,-0.0253558298865361,0.00101210864697653,0.000104797841980506,-0.0502497698425165,-0.00493970325048475,-0.946695620299167,-0.000913222269080881,0
0.22,0.000882392182723415,0.000506399968075708,-0.0436714639866975,-0.0253557462490499,0.00101197595969419,0.000104697415438422,-0.050256021267586,-0.00494398229563614,-0.946701673935992,-0.000878987880167422,0
0.23,0.000882235281850303,0.000506398639391672,-0.0436788643941018,-0.0253556836578861,0.00101184846689884,0.000104600929984835,-0.0502620188050907,-0.00494806569821341,-0.946707481756451,-0.000846143625564516,0
0.24,0.0008820847838181,0.0005063973645626,-0.0436859649331615,-0.025355621070886,0.00101172617574141,0.000104508382434334,-0.0502677718833576,-0.00495198565370457,-0.946713053742324,-0.000814633056979551,0
0.25,0.000881940339380842,0.000506396141409185,-0.0436927733669962,-0.0253555584875405,0.00101160880266179,0.000104419560612413,-0.0502732868436333,-0.00495574622559971,-0.946718399469948,-0.000784402018278425,0
0.26,0.00089063555568299,0.00051141458641252,-0.0441256046476805,-0.0256068311128992,0.00102159805187526,0.000105422922777353,-0.0507713868665968,-0.00500450405238154,-0.946723490981934,-0.000776102959722889,0
0.27,0.000859241689968544,0.000493507351827569,-0.0426233150162958,-0.0247102216769544,0.000985658274230323,0.000101604894218543,-0.0490283661669092,-0.00485400343078698,-0.946728554676382,-0.000674941788492126,0
0.28,0.000853682022654516,0.000490262369227711,-0.042212632859549,-0.0245477348607268,0.000979250861201732,0.000100984837079341,-0.0486001690269259,-0.0047456538308065,-0.946733298625002,-0.000635510898630894,0
0.29,0.000880675550446499,0.00050597849393639,-0.043681466411058,-0.0253346579711459,0.00101034037890962,0.000103999904928577,-0.0502519938559905,-0.00496512999153393,-0.946737699009184,-0.000673534836192024,0
0.3,0.000877023608287251,0.000504009005942412,-0.0435149789747585,-0.025236046937429,0.00100622633287493,0.000103460401088098,-0.0500592840763952,-0.00494768005842704,-0.946741492937471,-0.000643843688252308,0
0.31,0.000881089415989627,0.000506328882728439,-0.0437219803362563,-0.0253521906519674,0.0010108818084268,0.000103949342690291,-0.050295156014963,-0.00497417498769538,-0.946745664854835,-0.000629945615670219,0
0.32,0.000881092173662163,0.000506387417817427,-0.0437324732068085,-0.0253551258704013,0.00101091866775662,0.000103899386878375,-0.0503054063140811,-0.00497772199538411,-0.946749685855913,-0.000607464855246173,0
0.33,0.000880990910410667,0.000506388057734721,-0.0437375249672002,-0.0253551599490017,0.00101083726509361,0.000103835797009613,-0.0503095450504713,-0.00498045209900901,-0.946753544072084,-0.000585652858694751,0
0.34,0.000880891044040755,0.000506387249346813,-0.0437422397462116,-0.025355118366446,0.00101075613303239,0.00010377435766915,-0.0503133653490735,-0.00498305454938985,-0.946757245633126,-0.000564720054250588,0
0.35,0.000880795135790987,0.000506386437308507,-0.0437467574507916,-0.0253550767797866,0.00101067819493002,0.000103715386592685,-0.0503170249846233,-0.00498554938437709,-0.946760796887526,-0.000544637081301019,0
0.36,0.000880703185661364,0.000506385657273819,-0.0437510939366373,-0.0253550351882115,0.00101060347230345,0.00010365884860888,-0.0503205368520944,-0.00498794556555219,-0.946764203938301,-0.000525369600467128,0
0.37,0.00088061496082124,0.000506384908855978,-0.0437552529651558,-0.0253549935918623,0.00101053177663193,0.000103604602003938,-0.0503239040311694,-0.00499024499897594,-0.946767472640963,-0.000506884502089385,0
0.38,0.00088053010303835,0.000506384190796772,-0.043759231414676,-0.0253549729843577,0.00101046281708838,0.000103552432745209,-0.0503271362813011,-0.0049924285437071,-0.946770608613303,-0.000489150016574892,0
0.39,0.000880448863116337,0.0005063835018667,-0.0437630560260237,-0.0253549313770965,0.00101039679708715,0.000103502482876818,-0.0503302307943646,-0.00499454563100114,-0.946773617245291,-0.000472135664260999,0
0.4,0.000880370999237859,0.000506382840885281,-0.0437667282282392,-0.0253548897649521,0.0010103335202678,0.00010345460678668,-0.0503332010217947,-0.00499657979992561,-0.946776503707334,-0.000455812203151262,0
0.41,0.00088029615317164,0.000506382206719384,-0.0437702431984329,-0.0253548691359832,0.00101027269579748,0.000103408591020675,-0.0503360553362356,-0.00499851095229575,-0.946779272960621,-0.000440151578659175,0
0.42,0.000880224217488264,0.000506381598282662,-0.0437736080643993,-0.0253548484996107,0.00101021423638081,0.000103364368839838,-0.0503387872796407,-0.00500036004992978,-0.946781929764494,-0.000425126875393517,0
0.43,0.000880155550418609,0.000506381014531476,-0.0437768527375957,-0.0253548068707632,0.00101015843262714,0.000103322145752495,-0.0503414088864136,-0.0050021613722228,-0.946784478685269,-0.000410712270898371,0
0.44,0.00088008943550072,0.000506380454465599,-0.043779952918696,-0.0253547862207136,0.00101010470299335,0.000103281499483143,-0.0503439249811,-0.00500386644093341,-0.94678692410329,-0.000396882991275691,0
0.45,0.000880025998130543,0.000506379917124482,-0.0437829259248685,-0.025354762653118,0.00101005314913988,0.000103242499801508,-0.0503463356746683,-0.00500550455719385,-0.946789270221936,-0.00038361526860372,0
0.46,0.000879965363716438,0.000506379401586825,-0.0437857886199569,-0.0253547210089883,0.00101000387274155,0.000103205216627371,-0.0503486458148352,-0.00500709767504695,-0.946791521072867,-0.000370886300090231,0
0.47,0.000879906990416615,0.00050637890696837,-0.0437885240973116,-0.0253547003393719,0.00100995643397275,0.000103169330149788,-0.0503508645167228,-0.00500860403094621,-0.946793680524849,-0.000358674208880889,0
0.48,0.000879851003630686,0.000506378432421173,-0.0437911483812587,-0.0253546796630483,0.00100991093450685,0.000103134910552895,-0.0503529925433791,-0.0050100498292554,-0.946795752289432,-0.000346958006461454,0
0.49,0.00087979728694333,0.000506377977131072,-0.0437936649740519,-0.0253546589804364,0.00100986727977615,0.000103101886858196,-0.0503550327543562,-0.00501143693778968,-0.946797739926923,-0.000335717556586562,0
0.5,0.000879745782146886,0.000506377540317149,-0.0437960800052915,-0.0253546382914314,0.00100982542245424,0.000103070222217677,-0.0503569901404685,-0.00501276876705562,-0.946799646853688,-0.000324933540669179,0
0.51,3.88950252103614,-0.0148034797955567,8.85928895634038,0.745910263494584,-0.407222298789715,3.86815446996742,-0.151898802691818,8.88933685304264,0.10108325841841,30.7741265550646,419.891532781118
0.52,3.55758274261725,-0.00870582921168517,9.53694091662548,0.44498622797184,-1.54282110176949,3.20564717490324,-3.71340687377456,8.79555934435632,0.446114484372254,62.9499895277119,419.891532781118
0.53,3.29362854230991,-0.0278763914600144,7.80144117248279,1.40896820774095,-2.81985383806467,1.70211350969061,-5.90633998967424,5.28798862560325,1.01925751386479,93.1753208578054,419.891532781118
0.54,3.05134793574079,0.014629340060375,5.37504540556222,-0.716188805387535,-2.96776455388513,-0.709444709081105,-5.0518479291589,-1.97050044848279,1.8102373920431,122.664132163186,419.891532781118
0.55,2.75202485122021,0.0312016167143609,6.41564167977895,-1.54932058227918,-0.914550055761623,-2.59580671817561,-0.596142055669137,-6.5730865717297,2.81419128981502,150.402938161225,419.891532781118
0.56,2.54776714200517,-0.0431985778692057,5.10202761973852,2.17974442943477,1.96191588848149,-1.62599802384106,2.45333320027199,-4.97625640604157,-2.27979562133675,173.470186856283,419.891532781118
0.57,2.30527285815927,0.0518959133754724,6.74993849604996,-2.57822725730253,1.87920886402087,1.33624480608018,3.87058827159405,6.10143195672569,-0.930172874838444,194.740292298846,419.891532781118
0.58,2.11758564219623,-0.0304924845721814,5.55647386562782,1.54020977208373,-1.17996306064453,1.75863183161383,-1.73788898974456,5.49785320109148,0.576567019418692,215.934424709278,419.891532781118
0.59,1.95911326561972,-0.0211952453424001,4.68696180680786,1.08031487885612,-1.54118914633151,-1.20967352669315,-4.37577858244262,-1.99681071045553,2.22544117928202,233.53670984893,419.891532781118
0.6,1.74711582931601,-0.0297705043382541,6.82997322607067,1.50237320722748,1.34142966332081,-1.11976178821129,4.18566698791652,-5.60230768424075,-2.28340972091749,250.761811309868,419.891532781118
0.61,1.65051777369184,0.0124488483927482,4.00610080033873,-0.606534380443729,0.635488261882222,1.52332483866997,0.952947240089006,3.93809841608125,-0.387679259410435,265.905248895925,419.891532781118
0.62,1.48636896538367,0.0508045382326202,5.24755982060439,-2.5322912524048,-1.48719084901467,-0.0117124279201332,-5.13649063609388,-2.75060847870927,1.61283870107749,280.096529636319,419.891532781118
0.63,1.34687982307004,0.0347029477678245,5.75888824317499,-1.72226951326884,0.701263313926779,-1.15044309590583,4.57009468399878,-3.9045154184611,-2.56841413487817,292.880469855233,419.891532781118
0.64,1.23717240216243,0.00920681465466101,5.32983534764923,-0.453248337685861,0.46525797801089,1.14639231156078,1.54627003876982,5.12070579665235,-0.378093601921791,304.891331601557,419.891532781118
0.65,1.1258630825581,-0.00211542512304019,5.60678115463328,0.122035744029214,-1.065998462558,-0.362242230440706,-5.35107432547164,-1.67835967600807,1.89649002878329,315.384027967209,419.891532781118
0.66,1.03409567511831,-0.0384091690116358,5.12015538031761,1.92992646853164,0.940967229739154,-0.430592385115645,3.70590472442166,-4.02577662893057,-2.03708318659155,325.58868987356,419.891532781118
0.67,0.935949410709018,-0.0280166727148384,5.64961157146595,1.41994329273195,-0.375009953503945,0.857994037350807,-0.78920540172808,5.7716119669378,0.382130802257442,334.389347404791,419.891532781118
0.68,0.897529313617139,0.0602638750934117,3.31491937186179,-3.00786473386008,-0.302526353524378,-0.847153120083123,1.99087802436758,-4.00903297457554,2.86564192925711,342.857480226336,419.891532781118
0.69,0.748291292213859,0.0104014897198996,6.99846524818116,-0.518745764763519,0.58178901206688,0.470711795507319,5.04714451968532,4.87585327874721,-0.876645981612416,350.516352175897,419.891532781118
0.7,0.748004207570475,0.0755852346894866,3.59576849693997,-3.77040860410527,-0.750995639379496,-0.0350566952119159,-3.00322574470114,-4.25748367605341,1.7181501227089,357.273748043995,419.891532781118
0.71,0.653523133997574,0.0742333680690151,5.06950512164497,-3.71198141778946,0.58822050173312,-0.294278305258335,6.03633219435047,1.74395580902925,-1.92156775115733,363.762237632611,419.891532781118
0.72,0.566556196442335,-0.00993464321161525,6.52190685503797,0.496989859878884,-0.399991133585706,0.401362322491499,-4.1639644585105,5.04417167975824,0.766153728958493,369.623786359682,419.891532781118
0.73,0.579856601217859,-0.0210498423385742,3.20848024638171,1.0666065089433,0.220525305920026,-0.536698577683307,0.110321542593548,-3.37932302297097,-2.78801765606626,374.860635427254,419.891532781118
0.74,0.503045290327325,0.0281142518661177,4.59092477110422,-1.40387172199846,0.0390466501928533,0.50231497527668,-1.30370711705885,4.62036728179648,-0.0217473632611066,379.73330598724,419.891532781118
0.75,0.458475150457127,-0.0301338283648781,4.59649521301217,1.50650920229523,-0.134874621466241,-0.439222435313757,-3.04259835259977,-3.76031029100009,2.77802512488067,384.216634752144,419.891532781118
0.76,0.467228556416631,0.0026384669500564,2.11410087828993,-0.119943318767868,0.293515514451692,0.363535594151623,1.22501209167424,1.72718102657342,-0.673584676724388,388.27986918037,419.891532781118
0.77,0.45070454455344,0.00540710394949684,1.02966638907229,-0.264252301403902,-0.370963978684703,-0.256026463031968,-0.687657222426112,-0.810660037270638,2.18688770379184,392.032694257768,419.891532781118
0.78,0.362329875204568,0.0419403096657663,3.70580276273386,-2.10238259640184,0.353791409167995,0.0887331214346853,2.72443705252087,3.27573342089838,-1.20982003734036,395.495375786797,419.891532781118
0.79,0.351214070257378,0.0111095545575576,2.70140856301135,-0.553307520195699,-0.349693144929584,-0.0344884000568077,-2.60695081504511,-0.898646139563162,1.70072448108972,398.633062160056,419.891532781118
0.8,0.26274572924685,0.0307028102671687,5.6729149736332,-1.52941919650612,0.259514877413305,-0.0512836152871264,5.77567630310602,1.07826277801507,-1.64956987853622,401.466864479712,419.891532781118
0.81,0.290135228965102,-0.0206225116288658,2.97945375275536,1.03401637909394,-0.285258353432707,0.0568454999923106,-2.59989035825463,1.78519037138821,1.30313619225509,404.082813091668,419.891532781118
0.82,0.257483923614894,0.00261880948765991,3.38706884786235,-0.136324027403889,0.232032965464652,-0.11164914697808,3.12475180582701,-1.31405698985549,-2.00910281639312,406.499001750046,419.891532781118
0.83,0.274658366822685,-0.0243836177046133,1.42929782315841,1.2303250958275,-0.241524971676965,0.133031828276209,-0.499515873020002,1.81853677480258,0.978793669419688,408.687790129049,419.891532781118
0.84,0.212314792858114,0.00824667006784623,3.5151303422692,-0.40633212203014,0.152687779449515,-0.147756627060745,2.8900197041551,-2.04182105634416,-2.30096090579096,410.694940091233,419.891532781118
0.85,0.144580987919405,0.0150759742116405,5.96875839443681,-0.756375376880111,-0.0835807004147036,0.118933652026534,-4.49023825216173,4.00449009497264,0.716467733283084,412.52123104024,419.891532781118
0.86,0.14804462829672,-0.0390782336470833,4.93527463207464,1.94963036258861,0.116330291922153,-0.0995569359401782,1.2027051516928,-5.16831641473493,-2.53673135324173,414.205237352402,419.891532781118
0.87,0.160625127041523,-0.0188566939280877,3.55810687482253,0.951200763481785,-0.0942121830337611,0.131453683520151,-0.888908171439464,3.57417818356274,0.504982155351023,415.662560673835,419.891532781118
0.88,0.159435132844201,-0.0334666953189413,2.90351614966382,1.68204332624033,0.0949765467257631,-0.132359498535873,-0.36688392024158,-3.33542680503956,-2.72607909005466,417.048936972242,419.891532781118
0.89,0.167654552923703,0.00479469952456826,1.84581697905762,-0.240299196206716,-0.0506994020026801,0.15987685541112,-0.834911789138471,1.66364248810632,0.335674931560711,418.306467420684,419.891532781118
0.9,0.077595761331716,0.01148062141608,5.7801775809349,-0.582709422930923,0.00920051851757762,-0.0778990199152448,2.07327821005065,-5.42692552025952,-2.87714041776794,419.405747138639,419.891532781118
0.91,0.0790823825339927,-0.0449855593292945,5.15568892048672,2.24880109528507,-0.059877126084614,0.0685014857303801,1.17351470107493,5.50100880360556,0.201124078860479,420.457224149747,419.891532781118
0.92,0.0923696771032946,-0.0176372697694794,3.98596546001845,0.889319252872893,0.030827547989893,-0.0888419541546624,-0.302731690470175,-4.07273408235494,-2.99627023034168,421.437548679067,419.891532781118
0.93,0.114848365397696,0.0529794443601914,2.39637029113669,-2.65189277518125,0.0416999424195592,0.119407216538377,-2.86986321109708,2.13049548530209,0.0962264969050624,422.31068243126,419.891532781118
0.94,0.0678244885407422,-0.0242496739335966,4.35185812210873,1.20768374308915,0.0278147951329176,-0.0664420431911365,-0.975038822376417,-4.40981501121582,-3.08849999292546,423.057050758902,419.891532781118
0.95,0.0888746786701764,-0.0105204940837169,2.92675216198507,0.51779282420687,-0.011878687213711,0.0887033601086873,0.472964750601734,2.93432990155719,0.0152965609507499,423.771186823791,419.891532781118
0.96,0.0759480919190261,-0.00460855148378125,3.23675167611212,0.237386636652547,0.00327445148692695,-0.0760172965868904,-0.294176378093458,-3.23208509891798,3.12403515923709,424.39960392681,419.891532781118
