t,iq,id,vq,vd,ia,ib,va,vb,theta_e,omega,r
0,0,0,0,0,0,0,0,0,0,0,0
0.01,0.000410429178082473,0.000229316530391531,-0.0198837117034911,-0.0114709610655977,0.00033991998743241,-0.000324796218383488,-0.0163772897592007,0.0160850650921651,-1.82392996710844,-0.00196174905272878,0
0.02,0.000522525921268601,0.00028852434957384,-0.0253836830157506,-0.0144326773513231,0.000433609964002552,-0.000410197559490928,-0.0209599355283009,0.0203301412100598,-1.82394597560859,-0.00234106213826472,0
0.03,0.000567178194916951,0.000312366041558292,-0.0275913524967849,-0.0156252900107402,0.00047086021106437,-0.000444470820577082,-0.0227981696203704,0.0220380553244246,-1.82396313828881,-0.00236700163316823,0
0.04,0.000561304385118916,0.000309406715721612,-0.0273660280845742,-0.0154772585728502,0.000465907755325477,-0.000440142127062309,-0.0226167527156323,0.0218386703500123,-1.82397927990245,-0.00215009216811058,0
0.05,0.000573579027074082,0.000317204962671026,-0.0280096593958985,-0.0158673494338021,0.000475830913734386,-0.000450773590815918,-0.0231418143780667,0.0223778958979554,-1.82399439021627,-0.00203663437489844,0
0.06,0.000575148783534518,0.000319011706966129,-0.0281349277596181,-0.0159577234628681,0.000476891652451812,-0.000452922669121848,-0.0232401331918448,0.0224970955321262,-1.8240084681653,-0.00188119278320406,0
0.07,0.000581523008653688,0.000323752025999393,-0.0284864690902977,-0.0161948437351638,0.000481869249508684,-0.000459114811686888,-0.0235207719171897,0.0228150207814589,-1.82402121141056,-0.00176545758156705,0
0.08,0.000574462113002584,0.000320527007325147,-0.0281893446962245,-0.0160335264233644,0.000475836041725814,-0.000454229394793994,-0.0232732667379541,0.0225846890462394,-1.82403319351099,-0.00159082941850271,0
0.09,0.000571493866972874,0.000319777795031174,-0.0280849760538293,-0.0159960456629556,0.000473145260431353,-0.000452765547180829,-0.0231813729300319,0.0225225066516653,-1.82404403746754,-0.00145003792861542,0
0.1,0.000569665890857674,0.000319602848921935,-0.0280320198165302,-0.0159872958398318,0.000471414955713863,-0.000452142840012955,-0.0231320757708045,0.0225009962845738,-1.82405391648809,-0.00132619157561678,0
0.11,0.000568220365863885,0.0003195611809901,-0.0279944014798493,-0.0159852202336945,0.000470021908112919,-0.000451744550019329,-0.0230959746895931,0.0224897695246612,-1.82406293310596,-0.00121428015101818,0
0.12,0.000566957126272814,0.000319550514814504,-0.0279627784016027,-0.0159846747994436,0.000468797922751086,-0.000451421557055054,-0.0230653119786502,0.0224815076831746,-1.82407116684616,-0.00111237084591048,0
0.13,0.000586449927027693,0.000331157042205562,-0.0289276637282895,-0.0165652716082864,0.000484756876846529,-0.000467546012562531,-0.0238537491284941,0.0232855449742573,-1.82407898417886,-0.00111992417016562,0
0.14,0.00059722185060867,0.000337890468446776,-0.0295267140035894,-0.0169020876274475,0.000493494332425407,-0.000476767502432399,-0.0243491115206659,0.0237619059456486,-1.82408633946178,-0.0010888766127,0
0.15,0.000571894053667028,0.000323798487666913,-0.028277934468363,-0.0161971760943529,0.000472502861046296,-0.000456781474600438,-0.0233166651770013,0.0227667128995849,-1.82409316404215,-0.000882011642993695,0
0.16,0.000564858589906146,0.00032052977614694,-0.0279600591336952,-0.0160336616200222,0.000466508409832758,-0.000451856689164693,-0.0230497789809812,0.0225288903551201,-1.82409893503561,-0.000779582077551834,0
0.17,0.000562517080577981,0.000319771113346592,-0.0278656937213623,-0.0159957149083523,0.000464429418832365,-0.000450537840581594,-0.0229678185099698,0.0224686246774284,-1.82410408870993,-0.000707978005913674,0
0.18,0.00056141490077923,0.000319594602151434,-0.0278292327145652,-0.0159868838470282,0.000463404540734649,-0.000450092915038434,-0.0229346291375719,0.0224510452973093,-1.82410876608381,-0.000648147537839402,0
0.19,0.000560671018492867,0.000319553145233139,-0.0278085385000401,-0.0159848179077667,0.000462692868640691,-0.000449868328419848,-0.0229150173612467,0.0224439567898897,-1.82411303063554,-0.000594914214549144,0
0.2,0.000560058490457841,0.000319543053364526,-0.0277928464063617,-0.0159843053361307,0.00046210066692195,-0.000449706848199723,-0.0228998671552451,0.0224396170359121,-1.82411692376945,-0.000546651844939075,0
0.21,0.000559515892392936,0.00031954027642364,-0.0277793214383413,-0.0159841697319371,0.000461574483166463,-0.000449569815030738,-0.0228867280464191,0.0224361775024918,-1.82412047909647,-0.000502662143198781,0
0.22,0.000559024575373661,0.000319539233489466,-0.0277671718151339,-0.0159841184154572,0.000461097648658777,-0.00044944716709763,-0.0228749061998967,0.0224331571223591,-1.824123726249,-0.000462507011969875,0
0.23,0.000558576972329226,0.00031953862707955,-0.0277561286705844,-0.0159840859274637,0.000460663150738471,-0.000449335765062245,-0.0228641571289651,0.0224304257760876,-1.82412669202056,-0.000425836978760771,0
0.24,0.000558168484837514,0.00031953815334642,-0.0277460572314696,-0.0159840577261287,0.000460266602749552,-0.000449234174237928,-0.0228543534544232,0.0224279361837976,-1.82412940081486,-0.000392345706513875,0
0.25,0.000557795235148309,0.000319537739125099,-0.0277368492996808,-0.0159840442065985,0.000459904258887967,-0.000449141362753473,-0.0228453873228739,0.0224256718146764,-1.82413187490378,-0.000361756662518956,0
0.26,0.000561044203891763,0.000321612247283692,-0.0279007368421001,-0.0160878199453648,0.000462528601444999,-0.00045196496453679,-0.0229779850750032,0.0225672609950683,-1.82413404719421,-0.000352928366044367,0
0.27,0.000552923781357748,0.000316984234653871,-0.0275183116208443,-0.01585630803964,0.000455826310076747,-0.000445450432766507,-0.0226657412070572,0.0222473403948552,-1.82413631799111,-0.000285644220062371,0
0.28,0.000552159243526552,0.000316749989972826,-0.0274347093231737,-0.0158445934333846,0.0004551440450708,-0.000445032902824262,-0.0225877015659082,0.0222150884464986,-1.82413820882679,-0.000259849624473289,0
0.29,0.000555407869898286,0.00031889016731619,-0.0276501505017745,-0.0159516500055932,0.000457751834278105,-0.000447919746127506,-0.0227693969039559,0.0223727630234141,-1.82413983069216,-0.000257406530388983,0
0.3,0.00054723696208857,0.000314656922777105,-0.0272606619859575,-0.0157398878710174,0.00045090234941377,-0.000441774085954152,-0.0224453962952078,0.0220701596563301,-1.82414078913011,-0.000205095909960903,0
0.31,0.000553915254941606,0.000318404492751412,-0.0275863942911165,-0.0159273608744047,0.000456427579299189,-0.000447076498506006,-0.0227137129756696,0.0223333207845891,-1.82414210118299,-0.000223536761057601,0
0.32,0.00055545953855501,0.000319273413392803,-0.0276653347498816,-0.0159708236724796,0.000457704182295532,-0.000448305356850009,-0.02277921012383,0.0223952124735364,-1.82414343037023,-0.00021589799038527,0
0.33,0.000555714188113095,0.00031947476758219,-0.0276819772542767,-0.0159808942203932,0.000457899675161774,-0.000448564681488224,-0.0227927692936663,0.0224091613568066,-1.8241446775825,-0.000202709345572757,0
0.34,0.000555653516646149,0.000319521321327722,-0.0276831060298665,-0.015983217971402,0.000457828757071156,-0.000448595067452738,-0.0227932538773602,0.0224117200112883,-1.8241458251516,-0.000189087336250857,0
0.35,0.000555523539662417,0.000319531987902347,-0.0276805579756645,-0.0159837611965346,0.000457699784492615,-0.000448573295780412,-0.0227906274647382,0.0224116311676658,-1.82414687542649,-0.000176245705723792,0
0.36,0.000555386089373979,0.000319534343168742,-0.0276773308478102,-0.0159838736227552,0.000457565701023815,-0.000448541563270323,-0.0227874536632178,0.0224109530005767,-1.82414783524244,-0.000164415272176285,0
0.37,0.00055525579850036,0.000319534781219334,-0.0276741542916216,-0.0159838900018145,0.00045743906627478,-0.000448509731023551,-0.0227843547552377,0.0224101926304541,-1.82414871203261,-0.000153584141696274,0
0.38,0.000555135425065727,0.000319534784010696,-0.0276711856286995,-0.0159838963082709,0.000457322175583664,-0.000448479928285639,-0.0227814613317417,0.0224094728827311,-1.82414951288822,-0.000143684942311583,0
0.39,0.000555025179758174,0.000319534694411783,-0.0276684585133606,-0.0159838982156479,0.000457215144021388,-0.000448452542835835,-0.0227788044035096,0.0224088078357686,-1.8241502443625,-0.000134641801648494,0
0.4,0.000554924574752477,0.000319534591197035,-0.0276659710325943,-0.0159838854054844,0.000457117476886588,-0.000448427531447962,-0.0227763845701259,0.022408187158843,-1.82415091246055,-0.000126381783374664,0
0.41,0.000554832490231146,0.000319534491960474,-0.0276636880849072,-0.0159838843435275,0.00045702808322882,-0.000448404633014339,-0.0227741610937028,0.0224076278004695,-1.82415152267172,-0.000118837347680571,0
0.42,0.000554748532616301,0.000319534400164883,-0.0276616091490925,-0.0159838714833942,0.000456946578909892,-0.000448383754557651,-0.0227721392590784,0.0224071069502504,-1.82415208001122,-0.000111946572542889,0
0.43,0.000554671756711736,0.000319534316049286,-0.0276597044939402,-0.0159838718263874,0.000456872046786769,-0.000448364661510735,-0.0227702839146764,0.0224066414640728,-1.82415258906026,-0.000105652841745537,0
0.44,0.000554601558272839,0.000319534239154351,-0.0276579599090873,-0.0159838721468341,0.000456803900138315,-0.000448347203904558,-0.0227685845249649,0.0224062150723532,-1.82415305400252,-9.99044295088484e-05,0
0.45,0.000554537529845984,0.000319534168902603,-0.0276563696508182,-0.0159838724461487,0.00045674174294497,-0.000448331280813143,-0.0227670354434898,0.0224058264242212,-1.82415347865983,-9.46540880068621e-05,0
0.46,0.000554479125392099,0.000319534104730416,-0.0276549197700737,-0.0159838580517026,0.000456685045171723,-0.000448316756432277,-0.0227656267659708,0.0224054578988849,-1.82415386652281,-8.98586622314418e-05,0
0.47,0.000554425690759507,0.000319534046114674,-0.0276535897614004,-0.0159838583160042,0.00045663317224862,-0.000448303467756757,-0.0227643312126916,0.0224051328448818,-1.82415422077937,-8.54787360929957e-05,0
0.48,0.000554376854532117,0.000319533992574401,-0.0276523722138205,-0.0159838585644417,0.000456585763429179,-0.000448291322562968,-0.0227631452222288,0.0224048352649929,-1.8241545443413,-8.14783086465445e-05,0
0.49,0.000554332267463963,0.000319533943670834,-0.0276512598164189,-0.0159838587982264,0.000456542479532222,-0.000448280234108247,-0.0227620616571145,0.0224045633886149,-1.82415483986821,-7.7824498234576e-05,0
0.5,0.000554291522101421,0.000319533899002703,-0.0276502415275042,-0.0159838590187486,0.000456502925121551,-0.000448270100989177,-0.0227610697733384,0.0224043145048843,-1.82415510978907,-7.44872722240818e-05,0
0.51,2.93227563880646,-0.00299930266913234,1.48076034863041,0.152621327481045,-0.188919251480398,2.92618504783522,0.0584240594774535,1.48745793518751,0.0634492851758102,19.4497994684308,466.763354484527
0.52,2.79356731300529,-0.00231799375983552,2.33444642152688,0.121195312060582,-0.784782537462895,2.68107069550207,-0.537601618857141,2.27493140513012,0.283927790428053,40.5708211924411,466.763354484527
0.53,2.70357198792282,0.0145388165122433,0.925198334030945,-0.719428214832606,-1.63893122095736,2.15021332058885,-1.13462088684642,0.293605784552544,0.656652439228703,61.0562362667552,466.763354484527
0.54,2.55527840219671,0.022527694234964,2.47167314590778,-1.11661757896108,-2.35258297604468,0.997651517597846,-2.71080169068294,-0.0869318792909948,1.17853258030013,81.3479550494888,466.763354484527
0.55,2.43316248011105,0.0413757038807858,2.51703335967686,-2.06018918489914,-2.34980718389207,-0.632769943993075,-1.84953149133812,-2.67564378680163,1.85084573220878,102.150600042676,466.763354484527
0.56,2.35094926728749,0.0265068629079495,0.907079722475204,-1.31565015451416,-1.08680796019104,-2.08482937642537,0.763223737831062,-1.40400088248192,2.67233021741275,121.462545236562,466.763354484527
0.57,2.21651265450262,0.051379673824888,2.6851884588147,-2.55714005907309,0.986254383915705,-1.98566626316198,3.51311149764371,-1.18627566197387,-2.65742279013284,138.414667513754,466.763354484527
0.58,2.17378107482648,0.00525898410600306,0.0724735320192588,-0.246129531066092,2.1735638252333,-0.0311787720214427,0.0754032277346141,0.245247858611167,-1.58272060765412,154.872075541112,466.763354484527
0.59,2.03249729979172,-0.012302135553401,2.0841695122102,0.627243230604112,0.749856003513332,1.88915658170381,1.36220152751205,1.69752868146875,-0.383906508528434,172.070032997331,466.763354484527
0.6,1.91383277688033,-0.00372882537874908,3.6165809132292,0.202098756197698,-1.54037102585749,1.13579351323158,-2.78640017215167,2.31440607712293,0.933491750516766,187.030239557535,466.763354484527
0.61,1.85374625630403,0.0212144976244306,2.40199536828343,-1.04213805939958,-1.32416006275026,-1.29746883041093,-0.958488148122713,-2.43658243324794,2.35745730053546,201.650632679872,466.763354484527
0.62,1.73011507364942,0.0278349662732291,4.26719380685958,-1.37884387090501,1.15777501058886,-1.28593544871908,3.91557802818022,-2.18595565162365,-2.39250438620522,216.160503523718,466.763354484527
0.63,1.67369944538539,-0.0272219348244446,3.34147216686851,1.38185475434058,1.1342522628701,1.23104941874525,3.30474659025981,1.46751789706865,-0.760760272647117,229.076988295479,466.763354484527
0.64,1.59410789039704,0.0157874782220623,3.36390572234232,-0.776691404731322,-1.30467772406029,0.916103294959461,-3.21203129963714,1.26568802520299,0.968519953277465,242.444821551877,466.763354484527
0.65,1.57373254261764,-0.00328951120827098,0.949923712201891,0.185609708772448,-0.540588203599707,-1.47797473953604,-0.502350592787787,-0.827314876525119,2.78885456828485,254.219004488767,466.763354484527
0.66,1.46376193195261,0.00944019971486143,2.85352888100497,-0.458569208970839,1.46347555847027,-0.0304532521156367,2.85981811065757,0.417556185561429,-1.58515299689402,266.317716247136,466.763354484527
0.67,1.39704406074309,-0.0246607565264874,3.01631908910035,1.25453287371318,-0.575186920152662,1.27338143046587,-0.0407236464490301,3.26655401962345,0.406616828827209,277.239577535188,466.763354484527
0.68,1.32015974522346,-0.000304132327775163,3.62505942255922,0.0311216894894647,-0.810769667192904,-1.04186102344068,-2.25152813557007,-2.84124012209078,2.48006002051236,288.054275442688,466.763354484527
0.69,1.28357965074442,-0.0361428810704586,2.43832654922684,1.81851921050786,1.28210715770527,-0.0713040238566527,2.27774208336802,-2.0160207045824,-1.65450425019337,298.37048994547,466.763354484527
0.7,1.1966796878314,0.0358674771513518,3.9817651724413,-1.77484991742994,-0.613278298659825,1.02821130103611,-3.63758683128552,2.40260445407181,0.567769839744518,307.792059048335,466.763354484527
0.71,1.15122549415913,-0.000463379847487899,3.4223393064793,0.0355765901297075,-0.319894278375043,-1.10588788029607,-0.986469734101414,-3.27727775541536,2.85961115304055,317.278917990557,466.763354484527
0.72,1.13366926981118,0.00140101343649779,1.71621624710639,-0.0608496873073999,0.992965384523355,0.547017112429994,1.47275765547417,0.883224648387701,-1.06603238660143,326.128596229987,466.763354484527
0.73,1.07836028486864,0.00632183171801554,2.00582604362589,-0.296964443084955,-1.05213871884921,0.236442352036592,-2.0229749744075,0.138196420596274,1.3556055973611,334.376462683829,466.763354484527
0.74,1.01203748101581,-0.0100855028073236,2.87328141147779,0.516846578584194,0.656484844745273,-0.770291651887438,1.44516400053261,-2.53660747197956,-2.4457561648711,342.553144336723,466.763354484527
0.75,0.957706730919699,0.0209975002444284,3.30735235105941,-1.04353024268819,-0.068197633559162,0.955506232445577,-1.34671658195928,3.19591761303995,0.0931737327365781,350.28496184609,466.763354484527
0.76,0.909328312157629,-0.00319425872594581,3.59788203316493,0.178859435943992,-0.396266570842843,-0.81845035732945,-1.7399474231265,-3.15425566293423,2.6871788140066,357.418425346173,466.763354484527
0.77,0.862012162406963,-0.0331388298373062,3.84567891201895,1.67333405267049,0.681557850658037,0.52881191967174,4.10092091282613,0.878487798958644,-0.949356951750797,364.418164890182,466.763354484527
0.78,0.815993073536525,-0.0174026383886739,4.13329340006677,0.879467008513804,-0.800318348110722,-0.160118985631925,-4.22344997272785,0.141586997866459,1.74693463369904,371.150121888969,466.763354484527
0.79,0.809710616219363,-0.0332457567530518,2.5402758324865,1.66826363878047,0.797203003062108,-0.145615707494695,2.11126589931987,-2.18601490753405,-1.79249865830517,377.549335702637,466.763354484527
0.8,0.739693472735478,0.0126939334096374,4.24850124897029,-0.617905907271638,-0.614328433317146,0.412199157654381,-3.90345980976464,1.78733659009586,0.996976193300394,383.525809763578,466.763354484527
0.81,0.70476574078617,0.0459768864079535,4.24245725584301,-2.2840544386607,0.412350665407726,-0.573389529209816,4.45950919930549,-1.82431519966545,-2.45298759427425,389.281805043624,466.763354484527
0.82,0.693491646470848,0.0282638782232847,3.11662894992814,-1.40214294896059,-0.258017420443491,0.644326408961138,-2.55480770372328,2.26987630893101,0.421623474565398,394.847513076605,466.763354484527
0.83,0.644169660016479,-0.0172529495293482,3.97390025127925,0.869357318476356,0.141100805736429,-0.628762894717666,-0.0870360710783528,-4.0669509557698,-2.94761650091727,400.147769414593,466.763354484527
0.84,0.640511223489488,0.0236438962736113,2.64094586476795,-1.18009648550182,0.0211779710042759,0.64059749827106,-1.19025448316806,2.63638332588928,0.00384966893448079,405.169691307227,466.763354484527
0.85,0.589536280492558,0.0449612867437482,3.76006702725084,-2.24782654829438,-0.132832841493117,-0.576133647293332,1.65873783680602,-4.05455509635571,2.99111150587648,409.897802112827,466.763354484527
0.86,0.587342646975385,-0.000542443876765317,2.49687935016974,0.0431850355316642,0.156544057334464,0.566096844466276,0.709325916704993,2.39439515963605,-0.270713766665557,414.390297178469,466.763354484527
0.87,0.521913434247174,-0.019257436805265,4.4384846324263,0.97773901274178,-0.165026109711942,-0.49551071111867,-2.47241294658706,-3.81356704816768,2.78322287239767,418.698517361766,466.763354484527
0.88,0.4959496746141,0.0255203789303992,4.46246797378145,-1.26556918133086,0.223343924369607,0.443548036787185,0.641368042037515,4.59390169729529,-0.415062888072565,422.836898061748,466.763354484527
0.89,0.515213095699571,-0.0142570461317137,2.2711891893147,0.721416574244231,-0.207581320673953,-0.471760312713982,-1.62390479852758,-1.74403996874308,2.69940865840381,426.824928528058,466.763354484527
0.9,0.49877528600278,0.013990224439033,1.93373021025699,-0.695506685365854,0.225598673724225,0.445059266526246,0.196656198794719,2.04557288184136,-0.441107219283325,430.583023906671,466.763354484527
0.91,0.445607554237048,0.0254073065805218,3.48961183218955,-1.2704616242,-0.202269712499117,-0.397867549602031,-0.238342222514439,-3.70602974392936,2.72821548967461,434.141874448457,466.763354484527
0.92,0.455902262245716,0.011615179396949,1.91989201912629,-0.581951266951793,0.171571637343793,0.422545806241589,0.132148332673265,2.00179655819049,-0.360232881987412,437.561666663812,466.763354484527
0.93,0.415774694409866,-0.0128092064187814,2.92269538174339,0.638682576814665,-0.103667608293533,-0.402846992382213,-1.4285381170951,-2.62856283478199,2.85892188274922,440.778739049821,466.763354484527
0.94,0.344083053891548,-0.0174681494657846,5.5448547265854,0.874721596262645,0.0450716098701104,0.341565270782627,1.86346175080832,5.29509793235018,-0.181921780156106,443.849561018827,466.763354484527
0.95,0.3203500386668,0.0320229851461201,5.81292087374016,-1.59036319959478,-0.0508782135929118,-0.317900969223252,1.24443824979929,-5.89666665442654,3.08252577895514,446.747362801064,466.763354484527
0.96,0.33801709622123,0.0431007050311704,4.05493086239042,-2.14390774411236,0.0143787534595036,0.340450406903806,-2.47894238980948,3.85922911240534,0.08461661621401,449.510517531918,466.763354484527
0.97,0.30421577969794,0.0177755938882782,4.91794468166759,-0.878056293444999,0.0574195003823551,-0.299276148951344,2.05802497604535,-4.55210895567916,-2.89367039567133,452.10961757153,466.763354484527
