t,iq,id,vq,vd,ia,ib,va,vb,theta_e,omega,r
0,0,0,0,0,0,0,0,0,0,0,0
0.01,0.000684402515620084,0.000388336419392643,-0.0335012646244803,-0.0194419013740068,0.000318488286740117,0.00071956736253331,-0.0160207216252876,-0.0352655460624262,0.0994189290831053,-0.00324938115343457,0
0.02,0.000757655380189542,0.000430055637018783,-0.0371975449301315,-0.021530560212946,0.000352749886761121,0.000796590888381111,-0.0177331313047011,-0.0391504588228883,0.0993949248804085,-0.0034080818417528,0
0.03,0.000785588349627013,0.000446099620235754,-0.0385843404883723,-0.0223337996923143,0.000365962744928436,0.000825969246139723,-0.0183957705300946,-0.0406096733085008,0.0993708466839312,-0.00334029792955897,0
0.04,0.000768440482365262,0.000436892906007946,-0.0377812204969527,-0.0218728703772548,0.000358520394162427,0.000807984723387418,-0.0180176640511203,-0.0397643918967777,0.099348879042605,-0.00306600109779476,0
0.05,0.000784634128894216,0.000446325638829921,-0.038594863480697,-0.0223451128503801,0.000366318044067764,0.00082502629212219,-0.0184077430893078,-0.0406204695904405,0.0993275396324949,-0.00296325867956358,0
0.06,0.00078459564117436,0.000446644548838093,-0.0386194555907034,-0.0223610834118969,0.000366655850538914,0.000825012218347204,-0.0184220166607708,-0.0406461523840376,0.0993073560956743,-0.002789561428378,0
0.07,0.000805464265058374,0.000458874116012771,-0.0396564000774215,-0.0229733417074416,0.000376772014060882,0.000846983462679783,-0.018929232616968,-0.0417383354823848,0.099288638320607,-0.0027326525176234,0
0.08,0.000784212280330276,0.000447067027475501,-0.0386488962782553,-0.0223822266613548,0.000367144525981442,0.000824659156693512,-0.0184416299693485,-0.0406768673562902,0.0992706499363662,-0.00247210938584626,0
0.09,0.000782920945223507,0.000446660316583241,-0.0386080767211208,-0.0223618729748365,0.000366881515798161,0.00082332775869975,-0.0184260990066784,-0.0406339245759348,0.0992539894114678,-0.00232245409586627,0
0.1,0.000782388420819812,0.000446643603959279,-0.0386027017781505,-0.0223610338321496,0.000366930503391124,0.00082279046887515,-0.018426431094344,-0.0406282051749859,0.0992383724500698,-0.00218555038891592,0
0.11,0.00078191381361397,0.000446640400262938,-0.0385988612967739,-0.0223608626364011,0.000366986380756274,0.000822312504712649,-0.0184272362061153,-0.0406240967537202,0.0992237268227191,-0.0020572847053244,0
0.12,0.000781469493972436,0.000446637821479486,-0.0385952938825077,-0.0223607334504335,0.000367039117718133,0.000821865073871722,-0.0184280189667548,-0.0406202809847421,0.0992099918646664,-0.00193699908495651,0
0.13,0.000818703147286986,0.000467992329506869,-0.0404194920650773,-0.0234298546183913,0.000384612412347508,0.00086102552582552,-0.0193117784153656,-0.0425411405662051,0.0991964193200774,-0.00200587642492384,0
0.14,0.000858943602484736,0.000491570621367476,-0.0425069292348394,-0.0246102801614079,0.000404101084630696,0.000903398085807889,-0.0202802414594933,-0.0447349609247989,0.0991837387575953,-0.00209740481319692,0
0.15,0.000783081223865814,0.000448167231948725,-0.0387236351517714,-0.0224373088542575,0.000368432910301134,0.000823606253965328,-0.0184930666855795,-0.0407548675933508,0.0991716969754036,-0.00161583201634482,0
0.16,0.00077999381280149,0.000446681245801582,-0.0385876217940668,-0.0223629209161523,0.000367268545204062,0.00082038301973112,-0.018432938416777,-0.0406119633722297,0.0991611683478599,-0.00150993785692594,0
0.17,0.00077957531488418,0.000446628663314186,-0.0385801993312884,-0.0223602873920896,0.000367265725229764,0.000819957755949683,-0.0184314524391706,-0.0406041351795772,0.0991513222063,-0.00142321095218435,0
0.18,0.000779273060921869,0.000446625203266159,-0.0385776112934967,-0.0223601083161672,0.000367299769767569,0.000819653252784229,-0.0184319052990688,-0.0406013719481129,0.0991420893068555,-0.00134233463314041,0
0.19,0.000778992712728033,0.000446623525950195,-0.038575331706693,-0.0223600321995859,0.00036733294423739,0.000819370934615974,-0.0184324067265205,-0.0405989364209955,0.0991334305425007,-0.00126650383665279,0
0.2,0.000778730059662274,0.000446622006295781,-0.0385732036931272,-0.0223599575250388,0.000367364078571955,0.000819106437591755,-0.018432872690823,-0.0405966617843996,0.0991253101781279,-0.00119538877462934,0
0.21,0.000778483704740898,0.000446620582751758,-0.0385712031565559,-0.0223598842930397,0.0003673932780322,0.000818858353283025,-0.018433306943342,-0.0405945234443634,0.0991176947351681,-0.00112869564046318,0
0.22,0.000778252774844558,0.000446619247597525,-0.0385693292132591,-0.0223598095920903,0.000367420647777156,0.000818625800634728,-0.0184337079548869,-0.0405925196555872,0.0991105528177739,-0.00106614945946469,0
0.23,0.00077803606719578,0.000446617995299,-0.0385675617895041,-0.0223597548817425,0.000367446326061048,0.000818407571474392,-0.0184341002665182,-0.0405906320241848,0.0991038549823694,-0.00100749237519573,0
0.24,0.000777832747305044,0.000446616820722498,-0.0385658967685678,-0.0223596986924699,0.000367470413504249,0.000818202824812651,-0.0184344640467937,-0.0405888538208378,0.0990975736160269,-0.000952482565320411,0
0.25,0.000777642233100461,0.000446615719052373,-0.0385643402884712,-0.0223596439342713,0.000367492984589096,0.000818010971493621,-0.0184348026393899,-0.0405871909646275,0.0990916828227469,-0.000900893243904114,0
0.26,0.00078545035792176,0.000451124703054192,-0.0389502722137217,-0.0225853789348231,0.000371211896790198,0.000826224842368333,-0.0186214735586168,-0.0409934600839976,0.0990862340121631,-0.00089296439257438,0
0.27,0.000758683831169992,0.000435919851659768,-0.0376587710691937,-0.0218241503172377,0.000358733843371588,0.000798083518417527,-0.017991956050393,-0.0396328915547687,0.0990807693841584,-0.000712597548857496,0
0.28,0.000755267457199248,0.000433910187383005,-0.0373886609413467,-0.0217235464020856,0.00035707586251408,0.000794483361077372,-0.0179187568717409,-0.0393540669746087,0.0990758811126375,-0.000653551307916937,0
0.29,0.000776195809870526,0.000446177612685674,-0.038520391551874,-0.022337694354251,0.000367216551745148,0.000816520913049294,-0.0184181243426584,-0.0405409157527552,0.0990715605908609,-0.000720704886093997,0
0.3,0.000772212044576119,0.000444069575857861,-0.0383313610524159,-0.0222321694220166,0.000365515520174896,0.00081234699144041,-0.0183319446842639,-0.0403423152711022,0.0990683158967223,-0.000672959968282081,0
0.31,0.00077658612237066,0.00044652368340972,-0.0385488125610803,-0.0223550330281063,0.000367528258121821,0.000816940869822548,-0.0184328617909548,-0.0405707783725255,0.0990642916816372,-0.000660164202388154,0
0.32,0.000776626486879584,0.00044660690830085,-0.0385557370907113,-0.0223591982404305,0.000367610203407347,0.000816987863444603,-0.0184364767220078,-0.0405780104815624,0.0990604720708208,-0.000627530434678636,0
0.33,0.000776516610120027,0.000446609107789729,-0.0385550627847848,-0.0223593058503313,0.000367626186266386,0.000816877425397635,-0.0184367959119459,-0.0405772840509146,0.0990568883020504,-0.000596174874612412,0
0.34,0.00077640818829749,0.00044660857689869,-0.0385541664710732,-0.0223592737737251,0.00036763912550452,0.000816768246942262,-0.0184369890103135,-0.0405763269924866,0.0990535273101468,-0.000566741661188503,0
0.35,0.000776306072477231,0.00044660799029882,-0.0385533012251916,-0.0223592558201166,0.000367651214317756,0.000816665414826938,-0.0184371846043936,-0.0405754060984396,0.0990503753018054,-0.000539137599219226,0
0.36,0.000776210514535911,0.000446607437108915,-0.0385524970451733,-0.0223592178802083,0.000367662527214563,0.00081656918374336,-0.0184373463137597,-0.0405745476073266,0.0990474192840405,-0.000513249911243518,0
0.37,0.00077612079694685,0.000446606918184067,-0.0385517346405678,-0.0223591998798928,0.000367673146061243,0.000816478835297469,-0.0184375162715956,-0.0405737360468617,0.0990446470705349,-0.000488971908668927,0
0.38,0.000776036822331685,0.000446606431497223,-0.0385510247496893,-0.0223591633554471,0.000367683087898027,0.000816394268195897,-0.0184376556053773,-0.0405729780886765,0.099042047232527,-0.000466203503144043,0
0.39,0.000775957931364196,0.000446605975050517,-0.0385503489669963,-0.0223591438584943,0.0003676924247678,0.000816314822213955,-0.0184378019480804,-0.0405722587353157,0.0990396090512209,-0.000444850828549692,0
0.4,0.000775883871635156,0.000446605546966126,-0.0385497082774884,-0.0223591257970527,0.000367701188038607,0.000816240242305823,-0.0184379400951287,-0.0405715772399389,0.0990373224756266,-0.000424825855276799,0
0.41,0.000775814526726458,0.000446605145482935,-0.0385491097827985,-0.0223591077163017,0.000367709395229594,0.000816170408990376,-0.0184380682796815,-0.0405709403517991,0.0990351780787166,-0.000406046027361919,0
0.42,0.000775749430976817,0.000446604768948827,-0.038548542189723,-0.0223590896180996,0.000367717098012325,0.000816104855480032,-0.018438187979379,-0.0405703366702835,0.0990331670196781,-0.000388433922136153,0
0.43,0.000775688409760396,0.000446604415814341,-0.0385480080972552,-0.0223590700478483,0.000367724318927675,0.000816043404808015,-0.0184382978265804,-0.0405697684850303,0.099031281007499,-0.000371916931044729,0
0.44,0.000775631230252246,0.000446604084626258,-0.0385475064432189,-0.0223590519167728,0.000367731085938735,0.000815985822292146,-0.0184384011390899,-0.040569234883603,0.0990295122671572,-0.000356426960303777,0
0.45,0.000775577659618884,0.000446603774021145,-0.0385470355056562,-0.0223590337705909,0.00036773742669838,0.00081593187342761,-0.0184384969361787,-0.0405687338742938,0.0990278535066981,-0.00034190015017401,0
0.46,0.000775527348614345,0.000446603482720281,-0.0385465870592964,-0.0223590156106931,0.000367743380077596,0.000815881208041824,-0.0184385863101772,-0.0405682571462132,0.0990262978872337,-0.000328276611690861,0
0.47,0.000775479967578596,0.00044660320952464,-0.038546153494131,-0.0223590159263703,0.00036774898273707,0.000815833495616146,-0.0184386886725537,-0.040567798836336,0.0990248389959253,-0.000315500179761966,0
0.48,0.000775435826583005,0.000446602953309296,-0.0385457584357846,-0.022358996283965,0.000367754207836431,0.000815789042382681,-0.0184387636864613,-0.040567378543986,0.0990234708182051,-0.000303518181618782,0
0.49,0.000775394363142526,0.000446602713019419,-0.0385453813818041,-0.022358978085366,0.000367759114560273,0.000815747286435789,-0.0184388349049195,-0.0405669778790549,0.0990221877133618,-0.000292281219664429,0
0.5,0.00077535536400991,0.000446602487665309,-0.0385450189728752,-0.0223589783611753,0.000367763727340959,0.000815708013531844,-0.0184389198219598,-0.0405665950848004,0.0990209843917148,-0.000281742967828094,0
0.51,2.08565640045751,0.0383576961958285,4.33288878438641,-1.91813091373238,-0.18365992280422,2.07790831520122,-2.36803673470671,4.10433349560644,0.1065469428655,32.4507164992325,533.21060362088
0.52,1.98586106761412,-0.0223453529821802,3.73122978411596,1.12378800517755,-0.92424237364063,1.75781669392247,-0.698680924139258,3.83364319527768,0.47281432625652,67.1732442468307,533.21060362088
0.53,1.90050308775379,0.003627745736621,2.56176165139254,-0.173889530812576,-1.68207964584825,0.884609073050824,-2.35025269622849,1.03400802286169,1.08855130472534,100.675795946618,533.21060362088
0.54,1.77636057894101,0.0607301741344178,3.23212254000577,-3.03062159054658,-1.67337286131314,-0.599139656079215,-1.88547392912539,-4.00952259019561,1.94879313724848,134.199322472256,533.21060362088
0.55,1.66903489614633,-0.0156021838408764,3.03557085555673,0.788809250618557,-0.128982042493562,-1.66411674632791,-1.04870350449817,-2.95586390292586,3.05489174109971,166.777384656185,533.21060362088
0.56,1.60599327860863,-0.00991483344428679,1.54558154261717,0.507362650649737,1.52203452760644,-0.512565714452458,1.29678881790439,-0.982129281668829,-1.90180443857698,194.454039063109,533.21060362088
0.57,1.44039724375976,0.0282949803950499,5.42879650373365,-1.40279709134602,0.55957459707755,1.32756208745647,0.706839038643631,5.56237806445129,-0.379265628807407,221.012550070618,533.21060362088
0.58,1.37726128795145,0.029023473604474,3.93336480389428,-1.44410687184768,-1.33471270475457,0.34092963068131,-4.15850543847929,-0.513454823689658,1.34178105813707,247.959921311224,533.21060362088
0.59,1.30146473116284,0.0188835148286255,3.83301009634821,-0.930921538862732,0.114973700055183,-1.29651381862619,1.31992723141523,-3.71703825834419,-3.03863648886358,270.929476125882,533.21060362088
0.6,1.21872683959595,0.0363165495751108,3.91556414617573,-1.80985144461854,1.02358641420307,0.662483851866202,2.19413001811728,3.71389260722511,-0.966589152778154,294.461015626814,533.21060362088
0.61,1.12958635255497,-0.0067448324386811,4.85172156398702,0.352537414628833,-1.08023938915099,0.330293328376095,-4.52604192919775,1.78281497029661,1.26809311362843,314.792268716474,533.21060362088
0.62,1.08667618501543,-0.0202189469737091,3.4014505129622,1.02069144705268,0.547955425317056,-0.938626011125847,0.769038796042955,-3.46702407727407,-2.63178564639235,335.452010290666,533.21060362088
0.63,1.00994166499641,0.0402441660872346,4.07710328370423,-1.99851421857326,0.146989399058007,0.999997938080046,-1.55543108170911,4.26584861638157,-0.106117659330045,353.525517803194,533.21060362088
0.64,0.938821899002762,0.0706643700474118,4.42042722531457,-3.52767726179873,-0.579782972214953,-0.741776055404153,0.481507053833377,-5.63496536589381,2.55329084279551,371.473498046243,533.21060362088
0.65,0.88000339470168,0.00649139590308079,4.45140146753488,-0.318672372038784,0.718261072701867,0.508477280071012,3.42803426839219,2.85746533847767,-0.947392782703585,388.007043008082,533.21060362088
0.66,0.820480613862114,0.0235557014804242,4.6924842267544,-1.16404616124562,-0.769950122199666,-0.28446461664064,-3.91861133253295,-2.83176568741022,1.95340162022394,403.064725760861,533.21060362088
0.67,0.769152029222624,0.00545526429254256,4.54237566488103,-0.264005588021317,0.746303611089043,0.186159942096135,4.33370948440225,1.38630362338553,-1.31924985700654,417.93840470524,533.21060362088
0.68,0.731475849703737,-0.0336943663232979,3.95536318826566,1.69162263965976,-0.705930467895856,-0.194562081398383,-4.23145981152155,0.775392139226698,1.79369933129122,431.543564967067,533.21060362088
0.69,0.695046783443229,-0.0278789574394193,3.49531485391518,1.41167925135585,0.657921707447426,0.225845731224107,3.75324063411456,-0.351068339700473,-1.28021771852537,443.881036503287,533.21060362088
0.7,0.659712926298564,0.0247904698963633,3.00988938131311,-1.22818686532359,-0.605262580567009,-0.263615100266397,-2.18007479763651,-2.41146240704784,2.01911912159113,455.851406085836,533.21060362088
0.71,0.581426923518118,0.0440745129731271,4.77266468357945,-2.19983226214519,0.476284902937585,0.336381511559861,2.2779005332714,4.73590111002998,-0.880221265770186,467.137278390535,533.21060362088
0.72,0.545598332926023,-0.0222044493306899,4.57713486572322,1.11423974159692,-0.270763261304235,-0.474191770056829,-3.37370473593817,-3.28782757082567,2.58209507427912,477.58991895987,533.21060362088
0.73,0.483592029591681,-0.0254350415633388,5.82321517808029,1.27462012519817,0.0543268802836582,0.481203473078255,2.21361689639855,5.53483438864829,-0.164969563845435,487.251001193514,533.21060362088
0.74,0.48446967936143,0.000226805113428874,4.00575884507296,0.0024956935110774,0.142344024651218,-0.463086493332746,1.17635552066665,-3.82913800252269,-2.8429099098569,496.214025276986,533.21060362088
0.75,0.417217746413374,-0.0537767647812885,5.67388437289346,2.70378595894048,-0.343415331630016,0.242957811881081,-2.34405798657789,5.83170768680056,0.826884087197417,504.691414489584,533.21060362088
0.76,0.399972902255271,-0.021320272352997,4.93248018831057,1.07549038794727,0.39843551392575,-0.0410124102490163,4.70580420653813,-1.82796256864611,-1.72662259562647,512.608093217681,533.21060362088
0.77,0.356187625710842,0.00542319173466535,5.58990136455329,-0.267656027218245,-0.317112115381838,-0.162292766308834,-4.81118484445091,-2.85852014281286,2.05905076540876,520.100673981064,533.21060362088
0.78,0.370958397629814,0.000292914500751668,3.44495922677403,-0.0133905942220372,0.140186825878948,0.343449956210464,1.28694450155827,3.19557463252825,-0.386742102916171,526.936390741668,533.21060362088
0.79,0.342175247987642,-0.0241375946094917,3.54792030560384,1.20732234934048,0.142294885401298,-0.312119671596597,0.10988501351021,-3.74610344677492,-2.78426934037222,533.246540895349,533.21060362088
0.8,0.298478909613046,0.002598325689224,4.48378422516697,-0.132899349007334,-0.270865862661122,0.125411702902983,-4.13985470901199,1.72730605368418,1.14588688933528,539.048664139003,533.21060362088
0.81,0.280872113425489,0.0445382786661289,4.18256589919041,-2.23275843401202,0.275721526977058,0.0696451141723667,2.96564557689339,3.69919099776897,-1.16611742136936,544.469039157598,533.21060362088
0.82,0.261978764872528,0.0147932029400226,4.00838137004324,-0.732571141050475,-0.0910668171397335,-0.246086462271695,-0.4767168152922,-4.04679166283951,2.84356702455956,549.457616905387,533.21060362088
0.83,0.246359176410107,0.00551698622098552,3.72367900550728,-0.265706597670117,-0.13570636255327,0.20568681071228,-2.3381909403112,2.91019732299164,0.605604384082357,554.120251796339,533.21060362088
0.84,0.21410714825804,-0.0105868419619378,4.35380688231644,0.539879485673199,0.214323464591581,0.0044050747301949,4.33641795009077,-0.665269561672062,-1.5996520532603,558.284326496804,533.21060362088
0.85,0.21819046312503,0.0438126607227314,3.22611042932932,-2.18410881100728,-0.164586769261735,-0.149792599357594,-0.152399837559569,-3.89292872912655,2.50733558640795,562.16941687403,533.21060362088
0.86,0.175038173488202,0.0508728409440463,4.49969072305681,-2.5391442823878,-0.0138092715108214,0.181757289108703,-3.95711090929972,3.32200896167475,0.358677088810715,565.761008645411,533.21060362088
0.87,0.169969202124076,-0.0249839509187106,3.92397243780662,1.25787902997173,0.171596781563732,-0.00826268910054291,3.60774122960407,-1.99098532564245,-1.76485685060508,569.039606914313,533.21060362088
0.88,0.151285851684047,0.000808183945968169,4.08805886076231,-0.0346397956964858,-0.100819959940577,-0.112798039693243,-2.68205528456626,-3.08545047197866,2.41755030984957,572.006317147572,533.21060362088
0.89,0.142337276951886,-0.0202502977907926,3.80746695314748,1.01875698761419,-0.0662346082575444,0.127604669348983,-0.299315817028003,3.9300229567777,0.337458452518248,574.718632365485,533.21060362088
0.9,0.1159960610977,-0.0109984171697509,4.45980590719468,0.554231240892746,0.11631787360991,-0.00679732662818559,4.32335670373728,-1.22704026440863,-1.72370198913732,577.070505516472,533.21060362088
0.91,0.103772762313856,0.0281582888209859,4.45771474209719,-1.40720000513883,-0.0836995846349309,-0.0674985552401986,-1.4766649243167,-4.43518807692144,2.51441642073965,579.166861056254,533.21060362088
0.92,0.105420938771444,-0.00816838670438585,3.75983183709147,0.411068612906958,-0.0563328473617285,0.0894813230843461,-1.38756539716758,3.51851888105024,0.484534553709133,581.252493382203,533.21060362088
0.93,0.0897833972941894,0.00954672225442335,3.98409648756167,-0.476756870979753,0.0900912188999605,-0.00598085383609685,3.96207101904268,0.634283198807738,-1.5311531411478,583.005613397211,533.21060362088
0.94,0.0887759075374737,0.00703690232657442,3.48173447761631,-0.351508398701006,-0.040467888472794,-0.0793286187703362,-1.00737901863706,-3.35130133527102,2.748974635949,584.725610684432,533.21060362088
0.95,0.0887430119733091,-0.0305945737382632,2.9672262002676,1.53226160385242,-0.0832148891086738,0.0434353812801503,-0.92628583423644,3.20846559892541,0.757736014567218,586.24850570534,533.21060362088
0.96,0.0772504708195148,0.0106442376144894,3.03409220150882,-0.532973571069544,0.0762456426860064,0.0163565585508768,2.67008366642094,1.53636894300404,-1.22254826066162,587.688829808179,533.21060362088
0.97,0.0739104279452738,-0.0170844356822409,2.72048992502115,0.855060736636622,0.0132713785752207,-0.0746893554152619,-0.993458668892517,-2.67305708294482,3.09028409212436,588.989243389156,533.21060362088
