t,iq,id,vq,vd,ia,ib,va,vb,theta_e,omega,r
0,0,0,0,0,0,0,0,0,0,0,0
0.01,0.000740300609790966,0.00042380887932508,-0.0363064645710474,-0.0212207157435407,-0.000291143371762958,0.000801807019257223,0.0139968331559439,-0.0396556024783579,0.868245164956841,-0.00159909708874038,0
0.02,0.000818678829922052,0.00046875763920426,-0.0402525685396018,-0.0234713640330576,-0.000321906338568502,0.000886760993765689,0.0155536656302148,-0.0439233160072316,0.868233216688958,-0.00172594820075508,0
0.03,0.000847169794956764,0.000485058492510474,-0.041655051567727,-0.0242875741281018,-0.000333105761864316,0.000917615907695814,0.0160960477932114,-0.0454526877486545,0.868220865505211,-0.00174103412327084,0
0.04,0.000830583607507545,0.000475714996300146,-0.0408647303935579,-0.0238197301866905,-0.000326474635068149,0.000899771192816382,0.0157946835774952,-0.0445851287650009,0.86820919294951,-0.00165917070271174,0
0.05,0.000847166641732122,0.000485226107561964,-0.0416873219495695,-0.0242959632969502,-0.00033297357218462,0.000917749581612561,0.0161141908470078,-0.0454803198889368,0.868197468167126,-0.00165037776560128,0
0.06,0.000847437537819933,0.00048545859289189,-0.0417163751834936,-0.0243075991434347,-0.000333019552498589,0.000918105878192991,0.0161283224289725,-0.0455081591606935,0.868186003855084,-0.00160655945961613,0
0.07,0.000871015928359475,0.000499051247043587,-0.042878148816184,-0.0249881941963656,-0.000342219432151309,0.000943719637863763,0.0165746140063456,-0.0467784957607527,0.868174961301688,-0.00161586299690225,0
0.08,0.000847755581570838,0.000485795662382009,-0.041762256230742,-0.0243244812888665,-0.00033302426768193,0.000918575957016402,0.016151426566608,-0.0455510466983804,0.868164030518727,-0.00152212981106875,0
0.09,0.000847028906271798,0.000485467326571366,-0.0417414997248679,-0.0243080284900538,-0.000332672229240987,0.000917859292658837,0.0161457394726479,-0.045525247338546,0.868153505188209,-0.0014797456675341,0
0.1,0.000846877096516582,0.000485457568344003,-0.0417482804660073,-0.024307544894862,-0.000332553298825979,0.000917757141463246,0.0161507610439164,-0.0455294254124347,0.868143279256544,-0.00143979176280317,0
0.11,0.000846743738746475,0.000485455706858481,-0.0417555581053862,-0.0243074556418219,-0.000332443613192672,0.000917672842834104,0.0161559200207837,-0.0455342209854683,0.86813334187858,-0.00140099631777632,0
0.12,0.000846614513721107,0.000485454085575374,-0.0417626478266547,-0.0243073751398336,-0.000332337185053078,0.000917591303073457,0.0161609426118094,-0.0455388973689481,0.868123684852771,-0.00136329615256122,0
0.13,0.000887151733010587,0.000508721539861976,-0.0437472359250626,-0.0254724121781322,-0.000348225680711544,0.00096154806317532,0.0169220362069896,-0.0477106814441491,0.868113951033509,-0.0014151338317011,0
0.14,0.000937024612268113,0.000537612632278732,-0.0463128408757181,-0.0269190282648148,-0.00036760332092411,0.00101582984048877,0.0179445032108504,-0.05047284534497,0.868104535869742,-0.00148882896702166,0
0.15,0.000848532834220692,0.000486734609614459,-0.0418952160314935,-0.0243714897612951,-0.000332947439610305,0.000919817674000713,0.0162193771170302,-0.0456739580663421,0.868095310723192,-0.00125760262676904,0
0.16,0.000846177884014566,0.000485479566118389,-0.041792604436867,-0.0243086594908481,-0.00033195360623433,0.000917340843864423,0.0161812887675443,-0.0455598354439497,0.868086716972212,-0.00121910540008099,0
0.17,0.000846009542401813,0.000485447280374029,-0.0417959672639662,-0.0243070338408871,-0.000331838360410532,0.000917210177885917,0.0161845254938168,-0.0455609032857401,0.868078375073151,-0.0011864139723245,0
0.18,0.000845899526869679,0.000485445161913998,-0.0418018391841794,-0.0243069357792208,-0.000331748343359482,0.000917140148211981,0.0161887003027655,-0.0455647546757623,0.868070268752093,-0.00115476445644081,0
0.19,0.000845794166964349,0.000485443824031885,-0.0418076203667192,-0.0243068539373925,-0.000331661585313557,0.000917073645891602,0.0161928057489469,-0.0455685561658291,0.868062391130689,-0.00112401086051507,0
0.2,0.000845691718450641,0.000485442541587683,-0.0418132346208484,-0.0243067937274903,-0.000331577217907475,0.000917008992542519,0.0161967799047422,-0.045572262742662,0.8680547357507,-0.00109412495371746,0
0.21,0.000845592063902936,0.000485441295696047,-0.0418186849107879,-0.0243067335264335,-0.000331495157907243,0.000916946100044455,0.0162006387262638,-0.0455758599178763,0.868047296342534,-0.00106508218212968,0
0.22,0.000845495319736556,0.000485440084902411,-0.0418239856660199,-0.024306673333382,-0.000331415489416646,0.000916885044649113,0.0162043929516287,-0.0455793571103892,0.86804006681276,-0.00103685875755285,0
0.23,0.000845401253120856,0.000485438908209542,-0.0418291335366187,-0.0243066131484013,-0.000331338029909008,0.000916825677169877,0.0162080397590377,-0.0455827522462144,0.868033041241101,-0.00100943156474385,0
0.24,0.00084530998047116,0.000485437764658564,-0.041834142453711,-0.0243065529703791,-0.000331262863486207,0.00091676807411459,0.0162115895212434,-0.045586054417266,0.868026213872777,-0.000982778140628228,0
0.25,0.000845221152541501,0.000485436653317168,-0.0418390027478078,-0.0243064927999091,-0.00033118971906121,0.000916712010980282,0.0162150346084545,-0.0455892574606094,0.868019579116508,-0.00095687665585209,0
0.26,0.000853537102035928,0.000490230923595295,-0.0422522375171169,-0.0245465640847704,-0.000334430546918323,0.000925747347978323,0.0163748908753305,-0.046039638708309,0.868013165818638,-0.000950400117822077,0
0.27,0.000823417397117657,0.00047299262213628,-0.0407965168525266,-0.0236834103934528,-0.000322583976695357,0.000893128103046131,0.0158217185213487,-0.0444402175759121,0.868006769969686,-0.000859083511800898,0
0.28,0.000817835745031297,0.000469745094971092,-0.0404151680347054,-0.0235208127814291,-0.000320418554676271,0.000887044367503377,0.0156355587242357,-0.0440697599783966,0.868000658170502,-0.000823074210981982,0
0.29,0.000844202546485922,0.000485045947063643,-0.0418236686253062,-0.0242869368817338,-0.000330642361680379,0.000915763691635895,0.0162148472590644,-0.0455648251257695,0.86799485833755,-0.000858849751685013,0
0.3,0.000840857951208285,0.000483207336278694,-0.041668299245032,-0.0241948783711862,-0.000329273937152453,0.000912200689681754,0.0161555597606318,-0.0453942418175553,0.867989614246763,-0.000831144080304176,0
0.31,0.00084464476313017,0.000485375890516851,-0.0418601565244812,-0.0243034683717637,-0.000330756603412022,0.000916304862083351,0.0162315096794867,-0.0456011992460299,0.867984028669943,-0.000817869118479197,0
0.32,0.00084466990866328,0.000485428434999133,-0.041868907061413,-0.0243060839235911,-0.000330736838297754,0.000916363008801505,0.016236247670482,-0.0456089394285886,0.867978584453455,-0.000796831615404667,0
0.33,0.000844601570909669,0.000485428865629471,-0.041872899257059,-0.0243061108550074,-0.000330679568328083,0.00091632091554201,0.0162390350710092,-0.0456116263363877,0.867973293416935,-0.000776181368546946,0
0.34,0.000844532767421852,0.000485428036511059,-0.041876661687759,-0.0243060723141183,-0.000330622894486869,0.000916277510103418,0.016241696257175,-0.0456141123791732,0.867968151639363,-0.000756108473273227,0
0.35,0.00084446594299211,0.000485427200013674,-0.0418803191800184,-0.024306032318845,-0.000330567868826535,0.000916235329752216,0.0162442849058595,-0.0456165271541162,0.86796315491996,-0.000736601736723703,0
0.36,0.000844400864791432,0.000485426386330362,-0.0418838657782594,-0.0243059923249012,-0.00033051429039333,0.000916194248427737,0.0162467953473597,-0.0456188679865077,0.867958299166904,-0.000717645315727904,0
0.37,0.000844337765650461,0.000485425595557363,-0.0418873187423436,-0.0243059523314044,-0.000330462333099028,0.000916154418058758,0.0162492405722534,-0.0456211460945933,0.867953580403206,-0.000699223688203531,0
0.38,0.000844276412738553,0.000485424827068584,-0.0418906718452844,-0.0243059123385396,-0.000330411816121704,0.000916115688987151,0.0162516156546479,-0.0456233575142347,0.867948994763624,-0.00068132176678243,0
0.39,0.000844216747846249,0.000485424080236448,-0.0418939274778406,-0.0243058708911376,-0.000330362691982214,0.00091607802438644,0.0162539231897709,-0.0456255027395452,0.8679445384934,-0.000663924889656512,0
0.4,0.00084415882918478,0.000485423354452017,-0.0418970936477231,-0.024305830899236,-0.000330315002116238,0.000916041462661498,0.0162561672415966,-0.0456275892245205,0.867940207942443,-0.000647018808650168,0
0.41,0.000844102308526372,0.000485422649122201,-0.0419001579730353,-0.0243058110325837,-0.000330268477932763,0.000916005779471037,0.0162583261342749,-0.0456296232663446,0.867935999563624,-0.000630589677554058,0
0.42,0.000844047649492767,0.000485421963671517,-0.0419031484374618,-0.0243057710397262,-0.000330223470362819,0.000915971275232205,0.0162604470820781,-0.04563159229633,0.867931909910575,-0.000614624040784074,0
0.43,0.000843994562065243,0.000485421297539814,-0.0419060552748683,-0.0243057310470045,-0.000330179755391825,0.000915937763186087,0.0162625094723233,-0.0456335054109613,0.867927935634046,-0.000599108822360511,0
0.44,0.000843942698018753,0.000485420650183318,-0.0419088656276569,-0.0243057111757393,-0.000330137064673898,0.000915905018925035,0.0162644903408893,-0.045635369702749,0.867924073478537,-0.000584031315201883,0
0.45,0.000843892579180789,0.000485420021073426,-0.0419116100501298,-0.0243056711819261,-0.000330095793780905,0.000915873380431752,0.0162664388714372,-0.0456371742665982,0.867920320281281,-0.000569379170713771,0
0.46,0.000843843857325923,0.000485419409696046,-0.0419142754807446,-0.0243056311881673,-0.000330055674516413,0.000915842623257875,0.016268331951574,-0.0456389260614703,0.867916672968435,-0.000555140388676459,0
0.47,0.000843796300645384,0.000485418815552009,-0.0419168544975098,-0.0243056113120311,-0.000330016527581722,0.000915812598186798,0.0162701507788301,-0.0456406356863166,0.867913128552764,-0.000541303307418134,0
0.48,0.000843750140948515,0.000485418238155856,-0.041919362745933,-0.0243055914334059,-0.00032997852748045,0.000915783455674325,0.0162719201649629,-0.0456422979493566,0.867909684131258,-0.00052785659426267,0
0.49,0.000843705493628383,0.000485417677035751,-0.0419218100057786,-0.024305551436971,-0.000329941759958152,0.000915755270906597,0.0162736604469644,-0.0456439038697694,0.867906336882721,-0.000514789236248416,0
0.5,0.000843661836860359,0.000485417131733583,-0.041924174036933,-0.0243055315549842,-0.000329905824643648,0.000915727707138562,0.0162753285248359,-0.0456454698109028,0.867903084066212,-0.000502090531107668,0
0.51,1.92768833115858,-0.0361802909981995,5.17775016248547,1.81245445854145,-0.129466039169347,1.92367613184846,1.55965056529728,5.25942753762926,0.0484334902717336,14.7702241586972,249.115237153462
0.52,1.82161764916544,-0.042332533258559,4.19507772975917,2.12133783702405,-0.429145316124356,1.77085211149086,1.17967245610983,4.55050813358322,0.214519971293153,30.3673365012291,249.115237153462
0.53,1.74262850642824,0.00165990662822571,2.24725311684626,-0.0806511515505579,-0.820689506363078,1.53727863474773,-1.131340479525,1.94337847544162,0.491318755648975,45.0249560671986,249.115237153462
0.54,1.62961287820544,0.00220114887223899,2.31593920503738,-0.107004750159568,-1.24681027017243,1.04933651802553,-1.84271838434106,1.40691626403186,0.872540015762058,58.8700003587701,249.115237153462
0.55,1.5037183550578,-0.0246918874391752,3.2693503006162,1.24026264178988,-1.47353713299329,0.30077715726589,-2.92416722930493,1.91732856438796,1.35302411707901,72.1227761208569,249.115237153462
0.56,1.43869099026871,-0.0165617541796711,1.33516517567131,0.833868420528237,-1.34155803885013,-0.519930846919544,-1.54277380054169,0.312812386969907,1.92901941239021,84.9637797803692,249.115237153462
0.57,1.33419182936973,-0.00174986753891337,1.45637631783378,0.0914213123677705,-0.688363132592676,-1.14290292557179,-0.831289819693922,-1.19931108190301,2.59817682398726,97.5699853674104,249.115237153462
0.58,1.18767397966902,0.0366000930143279,3.9736448700265,-1.83063193079091,0.218494203120943,-1.16797659736574,2.63883439045123,-3.48964466370017,-2.92585258649781,109.311407202384,249.115237153462
0.59,1.10928700996372,-0.00402614222044173,3.71904836491183,0.204066212842509,0.967131949720139,-0.543313603847678,3.13520541976648,-2.01083334357776,-2.08626674454097,119.527081216493,249.115237153462
0.6,1.07784677580059,-0.0244748164633643,1.59174824212348,1.22914239691793,0.985569029053843,0.43704276417132,1.9419970416232,-0.522590651017696,-1.17611258552345,128.641185816011,249.115237153462
0.61,0.981600791128994,-0.0332628871996128,2.9992774607734,1.67030557293482,0.164257424243051,0.968331570997744,2.23783414203369,2.60339861458609,-0.201903273268473,137.083243734525,249.115237153462
0.62,0.913938743337443,0.0696536094896231,3.07177285182968,-3.48239144003468,-0.629464241465875,0.666266028403031,-4.61539302783426,-0.510867686865729,0.833068958866443,145.280534671532,249.115237153462
0.63,0.924029881197867,-0.0247764818895759,-0.805082707780939,1.24236270729982,-0.856820541567627,-0.346848172763137,0.318948788087797,1.4456468909919,1.92863392738774,153.597192411134,249.115237153462
0.64,0.77132019091665,-0.00509899371157024,3.80592291505217,0.256870775764233,-0.0405743331576367,-0.77026914785767,-0.48174184600941,-3.78403972291047,3.08235512647993,160.946761454271,249.115237153462
0.65,0.772357650992218,0.00736637319373085,1.14397252521562,-0.365403388783479,0.700181871432484,-0.326091937063077,1.19268300344629,-0.140356789194544,-1.99711240368589,167.373148542842,249.115237153462
0.66,0.668064898244923,0.00785251291373795,3.90854847217866,-0.388322026928506,0.460107670330063,0.484430905217145,2.37351680034655,3.12953082017747,-0.747898830934746,173.4291076598,249.115237153462
0.67,0.611708952012525,0.0251445868641516,4.24216511488884,-1.25604740157874,-0.29616191438157,0.535824796636619,-3.27630793018468,2.97311726704506,0.546012641119578,179.573518774968,249.115237153462
0.68,0.608915117415263,0.0374602714901239,1.99489314519163,-1.8751184513027,-0.590789216670461,-0.152147933350607,-1.31939811819596,-2.39892819251627,1.88429480825052,185.360658860702,249.115237153462
0.69,0.597668516622536,0.0178593992723929,0.565036477812878,-0.891387470640026,0.0536193770497359,-0.595526301945558,0.95246795064648,-0.454579637758337,-3.02192492680154,190.226328919503,249.115237153462
0.7,0.540065916638099,0.058653250021916,1.59237769784922,-2.93210440961461,0.537300117430953,-0.0801247893037321,1.70793853154003,2.8663302276552,-1.61065037177161,194.803757988831,249.115237153462
0.71,0.501618227116225,-0.0405774876560615,1.63907848987767,2.03161127483683,0.0427471534231294,0.501437991334843,2.2742168149811,1.28139008365173,-0.165760924895454,199.430739928064,249.115237153462
0.72,0.466135532796207,-0.00214300999239278,1.68429981306252,0.107851138701552,-0.451152013636935,0.117255225974668,-1.60056822678453,0.535424205475879,1.31192287654024,203.609233077229,249.115237153462
0.73,0.416937371954898,0.0194503087626438,2.62750469370331,-0.970654273362776,-0.150966533206323,-0.389132615563491,0.0851550149159502,-2.79976771487654,2.81812814616868,207.304579747927,249.115237153462
0.74,0.39209040638746,0.0390121130570391,2.44046653784984,-1.94877448619316,0.352893424818727,-0.175279954546914,2.97228516340873,0.958707373384894,-1.93262408017231,210.848673327258,249.115237153462
0.75,0.389150785397247,0.0344302686205482,1.06570012183942,-1.72492879819516,0.173934607588169,0.349814993183149,-1.2176841099682,1.62121606112896,-0.373174600001561,214.520774766976,249.115237153462
0.76,0.351155848973224,0.0353356243529662,1.71216929674315,-1.76763862101162,-0.316185907966824,0.156797666499583,-2.22518716223856,-1.05100527506313,1.21072039047008,217.553296338848,249.115237153462
0.77,0.322167972914375,0.0108873958644448,1.99314624479728,-0.540873086124655,-0.113345598938012,-0.301767316589869,-0.124943340342212,-2.06144726106385,2.81607215083986,220.406444107726,249.115237153462
0.78,0.284400088548646,0.0234213319828401,2.67846479086299,-1.174613601667,0.267864455275155,-0.0983900541643962,2.89466853336631,0.418072758084941,-1.84064255748969,223.327917071105,249.115237153462
0.79,0.308829091372434,-0.00780138766246587,0.414384934665948,0.391389219794554,0.0519015100780872,0.304536537346502,0.463954947286111,0.331128679425738,-0.194061779072532,225.859605737192,249.115237153462
0.8,0.295058989047834,0.000579759526933052,0.138363211433606,-0.0249139925544669,-0.293511792199573,0.0301822957846766,-0.140164762861965,-0.0109052535538561,1.47028976525507,228.203450589367,249.115237153462
0.81,0.279482473185936,0.0490735373434055,-0.0406547369580961,-2.4590747312045,-0.0463083078635249,-0.279953934618428,2.45855267988222,0.0649620006586764,-3.13170696534531,230.522949081062,249.115237153462
0.82,0.244425880830598,0.00735173099200653,0.827563459582333,-0.368232249469561,0.243140816929577,0.0260883558548703,0.769539787697718,0.477770639884289,-1.43383947346929,232.623917339655,249.115237153462
0.83,0.197768084660357,-0.00895972688123055,2.39503724657845,0.452002391943185,-0.0629252772260014,0.187704292710751,-0.22308743511735,2.42708499462075,0.278188918860595,234.462396398766,249.115237153462
0.84,0.139314458119611,-0.0548569262000773,4.55812581893306,2.74430456784308,-0.10345349402802,-0.108236662765793,-5.28888525482064,0.579147048381801,2.00366737613939,236.304280017669,249.115237153462
0.85,0.206196381824445,0.0147897322486805,0.514184199947011,-0.741119008027707,0.104324018831564,-0.17847179931942,0.902005417466145,-0.0053853873440381,-2.54101407984332,237.969366018066,249.115237153462
0.86,0.165095960251266,-0.00988607086278213,1.94563767531833,0.498204167561875,0.110454082724808,0.123102827334764,1.73386817818873,1.01361457016887,-0.791103342331337,239.464520066817,249.115237153462
0.87,0.134917888210546,0.0149333706015995,2.8237940681641,-0.750406632183503,-0.102832168267374,0.0886080542961445,-2.75331502825654,0.977844265821727,0.969798608860255,240.962962133555,249.115237153462
0.88,0.139008485575198,-0.0324573515693288,2.03382983852412,1.62437331739644,-0.0242462122722481,-0.140673238120312,-2.288236556619,-1.24057484550228,2.74152896910493,242.350812455191,249.115237153462
0.89,0.147975980451014,0.0418755438326446,1.06213747404038,-2.09366804508775,0.137428864598176,-0.0690199908502952,1.43777571110683,1.85590487399912,-1.76044301673002,243.596224731081,249.115237153462
0.9,0.100843894150458,0.00197732158537121,2.9087639039975,-0.102042546269418,-0.00103288108748011,0.100857988998095,-0.188798661978785,2.90442338437132,0.029845821684208,244.819168443354,249.115237153462
0.91,0.116318999390085,0.0211591675757998,1.67803112925467,-1.06034013902841,-0.117871210556176,-0.00917593121339737,-1.35248783185991,-1.45288896542487,1.82842560454044,245.871740073454,249.115237153462
0.92,0.148238035273371,-0.0429691348362411,-0.322509884918359,2.15510064733395,0.107982841260129,-0.110274963811711,-2.0512736398353,-0.73535561500958,-2.64882962501061,246.83025621996,249.115237153462
0.93,0.0968176068840032,-0.0491387266410238,1.81577098023269,2.45745411383518,0.0388543984415183,0.101383426556782,2.99502790626559,-0.604907277978203,-0.835637707428955,247.842417229893,249.115237153462
0.94,0.0694965908163954,-0.0142015759345005,2.80585323943926,0.710469324042016,-0.0657453598400961,0.0266272145298969,-1.94397893541522,2.14441716098767,0.984408549911927,248.733484338945,249.115237153462
0.95,0.126411734703375,-0.0145209161089357,-0.398988166836701,0.730776187097199,-0.0273288058536902,-0.124273569378088,-0.561544814832612,0.614729870625008,2.81076096763773,249.553866700678,249.115237153462
0.96,0.0741195515602343,0.00812186002272266,1.89823249941569,-0.409971537238636,0.0733743584472901,-0.013261827029769,1.92216681979262,0.27683569147069,-1.64046547871529,250.280960999414,249.115237153462
