t,iq,id,vq,vd,ia,ib,va,vb,theta_e,omega,r
0,0,0,0,0,0,0,0,0,0,0,0
0.01,0.000531177726950949,0.000296617624556015,-0.0257676559255366,-0.0148437123313337,0.000251407157736306,-0.000554009236245193,-0.0119259833762331,0.0272411234750339,-2.2063055663031,-0.00288943716524314,0
0.02,0.000608092078785464,0.000338459058078884,-0.0296266216584374,-0.0169376046433137,0.000288455194795729,-0.000633343596219801,-0.0137879759864682,0.0312171568234836,-2.20632726225583,-0.00303301633784943,0
0.03,0.000636529021584796,0.000354849792093601,-0.0310649180990295,-0.017757843147413,0.00030159622336984,-0.000663420898312391,-0.0144578578971912,0.0327313378090808,-2.20634862212625,-0.00289791953067713,0
0.04,0.000620320308437448,0.000346974420746651,-0.0303513448415486,-0.0173637311295166,0.00029321510306854,-0.000647466938958979,-0.0141169624305596,0.0319908528201877,-2.20636754270211,-0.00253622305657755,0
0.05,0.000634116265288068,0.000355636659275532,-0.031073466728604,-0.0177972157481305,0.00029916334387451,-0.000662632752741192,-0.0144401717926535,0.0327686231251455,-2.20638503280385,-0.00237012556318911,0
0.06,0.000633933473176363,0.000356440845153481,-0.0311191479985539,-0.0178374722341697,0.000298528267606907,-0.000663176143981969,-0.014452510815686,0.0328283675954677,-2.20640097632982,-0.00214412368149076,0
0.07,0.000646427445892545,0.000364492156426199,-0.0317671256876724,-0.0182403805937899,0.000303793009388917,-0.000677076644365913,-0.0147342818123645,0.0335374819886125,-2.20641507203571,-0.00201830259034704,0
0.08,0.000632459664838386,0.0003572610238056,-0.0311412654378433,-0.017878509569334,0.00029683732928664,-0.00066296928037435,-0.0144450522958357,0.0328749141696454,-2.20642817996415,-0.00175171235693985,0
0.09,0.000629845085811769,0.000356585258105032,-0.0310552321028823,-0.0178446886868415,0.000295126935182717,-0.000660876668183045,-0.0143955212171144,0.0327967883211419,-2.20643974582887,-0.00157325341305567,0
0.1,0.000628527928605004,0.000356520445591661,-0.0310273649035182,-0.017841445571956,0.000294098674141191,-0.000660045570419018,-0.0143746826681995,0.0327777828893552,-2.20645010403589,-0.00141941709864596,0
0.11,0.000627452631406479,0.000356512742428924,-0.0310074692723407,-0.0178410647590886,0.000293231845703764,-0.000659403688826709,-0.0143585945827661,0.0327657977778797,-2.20645939682332,-0.00128202644163159,0
0.12,0.000626498872069992,0.000356510529601617,-0.0309901487814327,-0.017840948726635,0.000292460196338713,-0.000658838089350729,-0.0143444529151707,0.0327555406538528,-2.2064677354551,-0.00115880722434063,0
0.13,0.000654124231539871,0.00037247186244497,-0.0323438617325303,-0.0186397129379948,0.000305207539716797,-0.000688085864046684,-0.0149592347557118,0.0342021283797864,-2.206475750753,-0.00120723452204978,0
0.14,0.000673965078841701,0.000384503533310373,-0.0334178724568046,-0.019241817516839,0.000314024161255482,-0.000709549660541144,-0.0154657149561416,0.03532440235568,-2.20648306106357,-0.00122009647278264,0
0.15,0.000629090204391996,0.000359114387910004,-0.0311897105680964,-0.0179712536805776,0.000292984833439991,-0.00066247831378852,-0.0144269446777004,0.0329791945238187,-2.20648974591527,-0.000863428999623381,0
0.16,0.000623908683272085,0.000356748010528016,-0.030959033513596,-0.0178528414912484,0.000290216985150221,-0.000657499269663716,-0.0143114598949958,0.0327470276678896,-2.20649504951941,-0.000758311979260823,0
0.17,0.000622898694196331,0.000356526699687793,-0.0309265357615217,-0.017841769481702,0.00028953261330459,-0.000656722876603807,-0.0142917308882185,0.0327188902725263,-2.20649973659477,-0.000686281258691782,0
0.18,0.000622369979224968,0.00035650532531071,-0.0309154756734072,-0.0178406981002729,0.000289117115624266,-0.000656392970307031,-0.0142833301295925,0.0327115212918505,-2.20650393504745,-0.000623957491345564,0
0.19,0.000621934747008009,0.000356502655802569,-0.0309074286983162,-0.0178405577093406,0.000288766018818335,-0.000656133492138612,-0.0142768152777677,0.0327066842349742,-2.20650770173854,-0.000568271375827623,0
0.2,0.000621548122774721,0.000356501798383605,-0.0309003937268075,-0.0178405193286094,0.000288453213986846,-0.000655904219010812,-0.0142710668471544,0.0327025245727338,-2.20651108168557,-0.000518326515788825,0
0.21,0.00062120172004464,0.000356501172110759,-0.0308941045375032,-0.0178404881147146,0.000288172865025088,-0.000655698911518081,-0.0142659256253372,0.0326988085011946,-2.20651411466089,-0.000473511247685511,0
0.22,0.000620890882196785,0.000356500623326978,-0.0308884589402342,-0.0178404582585686,0.000287921292459543,-0.000655514691960487,-0.0142613116620383,0.032695471188782,-2.20651683629017,-0.000433296687793673,0
0.23,0.000620612000356267,0.000356500131998812,-0.0308833930530299,-0.0178404297686888,0.000287695583039814,-0.000655349411078365,-0.014257172498905,0.0326924751760389,-2.20651927853462,-0.00039721031772454,0
0.24,0.000620361644736076,0.000356499691124064,-0.0308788399190682,-0.0178404145328443,0.000287492962105931,-0.000655201035385903,-0.0142534462586265,0.032689790687669,-2.2065214700743,-0.000364828339808416,0
0.25,0.000620137016901785,0.00035649929543762,-0.0308747533826772,-0.017840399212281,0.000287311163969483,-0.000655067906737817,-0.0142501028772267,0.0326873799574568,-2.20652343664488,-0.00033577048295895,0
0.26,0.000625932769275022,0.000359876354540408,-0.0311587036299433,-0.0180093859242379,0.00028996838387951,-0.000661227009853573,-0.0143781875851256,0.0329919765251147,-2.20652510546938,-0.000346109798109168,0
0.27,0.000609563067830709,0.000350553273926065,-0.03037914906995,-0.0175428324783912,0.000282331181325212,-0.000644006083492213,-0.0140278897189837,0.0321537241950473,-2.206526983757,-0.000223907203988464,0
0.28,0.000609035738006895,0.000350302625683707,-0.0302666858880094,-0.0175302890052188,0.00028205478653071,-0.000643491691574661,-0.0139448000100498,0.0320768742231789,-2.20652840015862,-0.000200841009822449,0
0.29,0.000618353059557562,0.000355920840838398,-0.0308096980531076,-0.0178114392248811,0.000286215229288861,-0.000653544943925385,-0.0142147546340608,0.0326255361960343,-2.20652948934841,-0.000239947550937964,0
0.3,0.000612336474017672,0.000352807170280824,-0.0305216245029906,-0.0176556233040382,0.000283222709341688,-0.00064746718351366,-0.0140754709822378,0.0323291155645161,-2.20652972381877,-0.000201464396793215,0
0.31,0.000618569144508831,0.000356153958037329,-0.0308242927579578,-0.0178231169296766,0.000286249869497961,-0.000653861178367735,-0.014219523675774,0.0326436160305705,-2.20653073152003,-0.000223686791726859,0
0.32,0.000619112998406171,0.000356465587272786,-0.0308538150432574,-0.0178387072094955,0.000286501780951053,-0.000654435137517147,-0.0142339885327787,0.0326737042295233,-2.20653173579476,-0.000212697392777601,0
0.33,0.000619077198491719,0.00035649445632441,-0.0308551896872491,-0.017840146283815,0.000286455236961018,-0.000654437370800292,-0.0142342103557179,0.0326756913563159,-2.20653264735218,-0.000199627633635559,0
0.34,0.00061899070212035,0.000356496998125433,-0.0308538141117001,-0.0178402820249024,0.000286383593750293,-0.000654388291623984,-0.0142329961581366,0.0326749954602884,-2.20653346641117,-0.000187566713411842,0
0.35,0.000618907577130968,0.000356497102241496,-0.0308523137385319,-0.0178402807717889,0.000286316165718806,-0.000654339228676372,-0.0142317656321392,0.0326741140358683,-2.20653420150271,-0.00017670936453623,0
0.36,0.00061883219821032,0.000356496992857799,-0.0308509270529229,-0.0178402811494913,0.000286255146640412,-0.000654294571642121,-0.0142306280810582,0.0326733003526773,-2.20653486114598,-0.000166962978529001,0
0.37,0.000618764731060981,0.000356496875800481,-0.0308496893511203,-0.017840266744218,0.000286200542551592,-0.000654254586765463,-0.0142296213984405,0.0326725622720735,-2.2065354530758,-0.000158216720917899,0
0.38,0.00061870402047084,0.000356496768993364,-0.0308485680637705,-0.0178402670655242,0.000286151408725019,-0.000654218604546047,-0.0142287016285954,0.0326719042989342,-2.206535984242,-0.000150368258044226,0
0.39,0.000618649538100397,0.000356496672981716,-0.0308475594954509,-0.0178402673620858,0.000286107315624402,-0.000654186313510965,-0.0142278743529725,0.0326713124586711,-2.20653646088204,-0.000143325462741909,0
0.4,0.000618600813817681,0.000356496586806895,-0.0308466605341533,-0.0178402528877794,0.000286067881863437,-0.000654157435352553,-0.0142271456403421,0.0326707731181511,-2.20653688859338,-0.000137005634061962,0
0.41,0.000618556925239166,0.00035649650947375,-0.030845843354997,-0.0178402516880877,0.00028603236255969,-0.000654131423031198,-0.0142264762850048,0.0326702923936644,-2.20653727239859,-0.000131334557376977,0
0.42,0.000618517576860514,0.000356496440076594,-0.0308451096225256,-0.0178402519254406,0.00028600051752382,-0.000654108101653537,-0.0142258745077671,0.0326698618129626,-2.20653761680488,-0.00012624563611462,0
0.43,0.000618482186602791,0.000356496377801346,-0.0308444449592412,-0.0178402521469598,0.000285971876229318,-0.000654087126105027,-0.0142253294704974,0.0326694717276935,-2.20653792585642,-0.000121679110033008,0
0.44,0.000618450521635356,0.000356496321917249,-0.0308438509539226,-0.0178402523535803,0.000285946249388818,-0.000654068358592616,-0.0142248423323662,0.0326691231337259,-2.20653820318282,-0.000117581353479364,0
0.45,0.000618422228241409,0.000356496271768483,-0.0308433217909899,-0.0178402378029745,0.000285923350646469,-0.000654051589496573,-0.0142244170611391,0.0326688007621952,-2.20653845204078,-0.000113904245656019,0
0.46,0.000618396733286011,0.000356496226766767,-0.0308428394772459,-0.0178402379855419,0.00028590271727525,-0.00065403647886978,-0.0142240215727585,0.0326685176997309,-2.20653867535241,-0.00011060460553295,0
0.47,0.000618373799467685,0.000356496186384057,-0.0308424016676977,-0.0178402381578146,0.000285884156931054,-0.000654022886136485,-0.0142236626489512,0.0326682607282355,-2.20653887574033,-0.000107643684759602,0
0.48,0.000618353193955789,0.000356496150145847,-0.0308420053247873,-0.017840238320724,0.00028586748101207,-0.000654010673341001,-0.014223337768145,0.0326680280783475,-2.20653905555768,-0.000104986712635564,0
0.49,0.000618334800335,0.000356496117627055,-0.0308416522982197,-0.0178402384747443,0.000285852594716931,-0.000653999771622349,-0.0142230483493826,0.0326678208788274,-2.20653921691594,-0.000102602487791541,0
0.5,0.000618318211151693,0.000356496088446131,-0.0308413291293856,-0.017840238621509,0.00028583916918173,-0.000653989939280964,-0.0142227835005441,0.0326676311665863,-2.20653936171043,-0.000100463011786509,0
0.51,3.13250819790553,-0.036110683351971,4.74609079767795,1.81332554235055,-0.444383082642533,3.10103777262687,1.17879014526589,4.94206244150843,0.130805197158744,39.9430441780045,632.93515385149
0.52,2.9409332795517,-0.0115755058542001,4.33587492151907,0.591822689222113,-1.62501729821753,2.45123261393208,-1.88697672445119,3.94833943220635,0.581481378994894,82.6671371828682,632.93515385149
0.53,2.73892378988089,-0.0288009393001858,4.56162984710932,1.45980659086162,-2.67363489594367,0.595154991638622,-4.10982126195299,2.45944533168778,1.34125099842926,124.801155644032,632.93515385149
0.54,2.57878956279703,0.0249213517613289,2.69364708912206,-1.22986194861472,-1.73886762874506,-1.90449889804826,-0.880711333212062,-2.82712620888031,2.41128793294885,165.958674646033,632.93515385149
0.55,2.36933130056493,0.00834518731723999,4.94914217742051,-0.393219596986557,1.36145828325355,-1.93913171211972,3.17911579345253,-3.81337812386834,-2.52593863221006,200.672944916477,632.93515385149
0.56,2.2040399027076,0.0161081339249416,4.95290730490693,-0.786424420316841,1.77327366829824,1.30902706695697,3.49150753097319,3.59987906755611,-0.927583059507436,235.653670572903,632.93515385149
0.57,2.07120516492142,0.0109081494228032,4.33456663938634,-0.516505094969313,-1.63327294412055,1.27374617287935,-3.74750230697403,2.23863170790431,0.913715253456145,266.079457040987,632.93515385149
0.58,1.94025418949309,0.00179851694442545,3.65210791486527,-0.0664403141186985,-0.319337787569882,-1.91379542583283,-0.53220012974066,-3.61373346541576,2.97718186567443,296.331254973413,632.93515385149
0.59,1.79439028777457,0.00946180356772719,4.53321075717946,-0.452779071392051,1.54818615258955,0.907218643721806,3.66805342050112,2.70192389989952,-1.03547047522212,323.558322066626,632.93515385149
0.6,1.68515666451071,0.063319686835215,3.9702510233503,-3.13576852647766,-1.65966671865094,0.298778763783802,-4.37040448057953,-2.54862749655424,1.43023805756323,348.565575011465,632.93515385149
0.61,1.53141118423067,0.0278996590818663,5.90260869796275,-1.36663976419708,1.21533385669421,-0.932181432413476,5.56007012847688,-2.40709656074892,-2.206883251542,372.458926022192,632.93515385149
0.62,1.45623803600617,0.0328171626595644,4.31759154807264,-1.61611693300983,-0.80329029943499,1.21508472071283,-3.789330414983,2.62572003900533,0.60666934643402,394.728789596171,632.93515385149
0.63,1.33290868469798,0.00460564552627463,5.50193415223481,-0.207817743993661,0.557729833621055,-1.21062141332584,2.50786585458769,-4.90153817547508,-2.70642334898644,415.422002405431,632.93515385149
0.64,1.26374162970789,0.0314840118592727,4.35028620611855,-1.55458977041617,-0.473797179279916,1.1719856580035,-3.15674016666413,3.37294099408769,0.40908908753993,434.570956309894,632.93515385149
0.65,1.14944911712152,-0.00263847715001772,5.76183814172198,0.151622508760495,0.571850440042026,-0.997109476756115,2.72332391057497,-5.07988927385782,-2.6231756632744,452.396550959738,632.93515385149
0.66,1.07073393713049,0.0211679484565089,5.68779276886456,-1.03953740929593,-0.717538868830567,0.795020262560752,-4.6513601056459,3.43459950714482,0.753984527718943,468.937849590086,632.93515385149
0.67,0.991547961084858,0.0696868677947806,5.91054184878994,-3.46613691189798,0.855552992373448,-0.506016497671198,6.83678767295379,0.454911368582966,-2.03473955438155,484.310822988363,632.93515385149
0.68,0.93786410673157,0.0132198119950956,5.12141124080248,-0.636777781166953,-0.937835996751088,0.0150827491686567,-5.12266602549741,-0.626603408241991,1.56880993615863,498.583283720926,632.93515385149
0.69,0.835354864166612,0.0461523008306865,6.99209172922609,-2.28291278559235,0.731715625241854,0.405635338371434,4.7036423871456,5.65480201513547,-1.00941771502358,511.934572411125,632.93515385149
0.7,0.794380488111807,-0.00488500735935615,5.99078993587591,0.271728892367568,-0.268884453678174,-0.747506102824481,-2.3174896520131,-5.53106159426485,2.79014559183635,524.427391741439,632.93515385149
0.71,0.764331718634739,-0.0130258073560235,4.61570577307273,0.659194895051776,-0.305918870560649,0.700561412299669,-1.16627678629638,4.51431901298362,0.394678793386488,536.145856557384,632.93515385149
0.72,0.665904981432402,0.0288753609461766,6.87058888592361,-1.43516926442996,0.616113927119892,-0.254296794268359,6.94805444021949,-0.994606431050841,-1.91890423213004,546.834282175127,632.93515385149
0.73,0.646445699997064,0.043865972086771,5.38849117502847,-2.17586576918806,-0.572422961491797,-0.303559252385382,-3.43147889479147,-4.68990208676949,2.12614696290329,556.712924649635,632.93515385149
0.74,0.618122606521006,0.0560993793729444,4.49655412794263,-2.78269757698831,0.0814710461100373,0.615292747969687,-2.59543138236829,4.60718360497087,-0.0411347061691783,566.034973382462,632.93515385149
0.75,0.594042756653819,0.0104540809457038,3.53903323980655,-0.519815003172313,0.49377882238866,-0.330421789689717,3.25687090018703,-1.47910643616125,-2.14293336707614,574.676067138065,632.93515385149
0.76,0.503648542713898,0.0213075217802062,6.05718191341301,-1.05534485796612,-0.44577402934078,-0.235374977063264,-4.70025438270306,-3.96368695021363,2.0988843629683,582.562408120948,632.93515385149
0.77,0.52235878228745,-0.00899329391656328,3.27851226872662,0.472874635061651,-0.0681239144270321,0.517975587312217,0.0983405219810314,3.31097904831972,0.113554007633562,589.890873342085,632.93515385149
0.78,0.438352735369894,0.0258017647607018,5.71934760696996,-1.29254418761898,0.418502556647198,-0.132945333693191,5.86151931924549,-0.155559623336061,-1.81959056180522,596.805750547855,632.93515385149
0.79,0.399290796253078,-0.0535426737476873,6.04611482748801,2.68922794157141,-0.167777206401843,-0.366265978349698,-5.50057290025862,-3.67847104077758,2.57874480099437,603.13896938559,632.93515385149
0.8,0.40079366667132,0.000207707498052573,4.46102445877609,0.00993935881977597,-0.269746963727436,0.296432423911547,-2.99677349869528,3.30457056365421,0.73881874059138,609.030617660734,632.93515385149
0.81,0.368273399193401,0.0170475315844875,4.65491270875019,-0.85431660746357,0.329511847623493,0.165341637715182,3.64148642123432,3.02285392234527,-1.05947031097589,614.544427411111,632.93515385149
0.82,0.298501409716597,-0.00867612015757745,6.85884785349912,0.447559502432466,0.10269606811423,-0.28041377330235,1.74604306193588,-6.64796487742923,-2.81958982694075,619.449904687573,632.93515385149
0.83,0.262184446001106,-0.0276726811185199,7.44481093577647,1.37831048333537,-0.253863540451275,-0.0711320169455221,-7.57046906520925,0.113788358977612,1.73883119956933,624.190860185781,632.93515385149
0.84,0.274677639995575,0.0149530038715222,5.66971660149033,-0.743208654066224,0.00201011775201167,0.275077003155377,-1.00920187348426,5.62845956041703,0.0470773490474249,628.452119365976,632.93515385149
0.85,0.243944824821434,-0.00211191015396921,6.14843305747947,0.121828657534488,0.243805125614054,-0.008520472168471,6.13728356931914,-0.389643008237452,-1.61438709973635,632.455952591026,632.93515385149
0.86,0.265090868965946,-0.0176490787366859,4.10053844899796,0.881978848373099,-0.0105532692252766,-0.265468053253179,-1.3117162417621,-3.98393056688814,3.03538077278224,636.106019520052,632.93515385149
0.87,0.231084039855196,-0.00890648893466169,4.87434247655406,0.461099530473834,-0.229991507627471,0.0241467480250249,-4.75872762463056,1.15166781248774,1.42766668040108,639.466465017758,632.93515385149
0.88,0.168059587853643,0.0124506293405168,7.16711632342756,-0.631131642664665,0.0384563044784616,0.164073629466685,0.492075930824675,7.17800423670935,-0.15627901033307,642.600621705924,632.93515385149
0.89,0.196347767471868,0.0323592016745274,4.93589815508666,-1.60744286782193,0.18946943372779,-0.0608350014964248,5.11840772068732,0.865370195643415,-1.71814207389327,645.49950491359,632.93515385149
0.9,0.158450725087198,-0.00140006144822923,6.06301197730552,0.0600336713998973,-0.0172350304095626,-0.157516812370931,-0.772305517531336,-6.01392238611728,3.02377339728014,648.209311229128,632.93515385149
0.91,0.185524162396543,-0.0180240208633925,4.01372015844336,0.911414537243115,0.114709815884166,-0.146920857269632,1.38331084366298,-3.87647740594436,-2.57554243307853,650.654509884405,632.93515385149
0.92,0.145577807569393,-0.0233614747493752,5.34835923106738,1.15832673291217,-0.103692530768267,-0.1048165808546,-5.00033423333178,-2.22335890932906,2.2024677883953,652.945794653499,632.93515385149
0.93,0.120327135043391,-0.0249148940658712,5.98008373113468,1.25241904999656,-0.09760077806797,0.0746556059153691,-2.96773530831399,5.34064622007135,0.713647861300911,655.057711691692,632.93515385149
0.94,0.128444824250314,-0.0231238991486292,5.00073003954782,1.14594528364547,0.0717749906311534,0.109000634440483,4.2769709420778,2.83337450439708,-0.760436920887347,656.978909695407,632.93515385149
0.95,0.110308140095393,0.016610915020656,5.38438050588843,-0.827367839903503,0.0777205094483486,-0.0800208140437065,4.78578658356952,-2.60237156286798,-2.22131274415689,658.646965574095,632.93515385149
0.96,0.0872439275731062,-0.0216494446542079,6.05127276937207,1.07102930890323,-0.025320576506064,-0.0862500420731351,-3.97751936867843,-4.68447922203328,2.61280845032099,660.207670576244,632.93515385149
0.97,0.0792498349201525,0.0244961039436376,5.97502323147456,-1.22348044887222,-0.0636741029166529,0.0531620547105585,-5.98469570992215,1.1752549872571,1.17491325553395,661.710047326605,632.93515385149
