t,iq,id,vq,vd,ia,ib,va,vb,theta_e,omega,r
0,0,0,0,0,0,0,0,0,0,0,0
0.01,0.0010384053357556,0.000564284852644111,-0.0513892445461026,-0.0282389172256505,0.000824446268627145,0.000846753438963235,-0.0411022374872986,-0.0418198155738878,-0.274277598897157,-0.00189479614453777,0
0.02,0.00118540230010167,0.000643092447839944,-0.0587914531522859,-0.0321827542536279,0.000940135701033129,0.000966897809077075,-0.0469042126418076,-0.0478765022903608,-0.274291264294153,-0.0018356496769011,0
0.03,0.00123331000650509,0.000674008716977036,-0.0612377744103717,-0.0337299187913571,0.000982885139946536,0.00100462835137124,-0.0490567767357142,-0.0498116963444271,-0.274303597523739,-0.00160511608049396,0
0.04,0.00119348326867188,0.000659018560057066,-0.059343029328406,-0.0329797311734899,0.0009576767673899,0.000970341684305603,-0.0478218650185799,-0.0481905283670187,-0.274313383896206,-0.00125949456621984,0
0.05,0.00121454727902879,0.000675451852541019,-0.0604380992439783,-0.0338021232796712,0.000979209707265549,0.00098615853050828,-0.0489105517727879,-0.0490214779838439,-0.274321615985264,-0.00108281102164443,0
0.06,0.00120948467733339,0.000676947486787063,-0.060235783763198,-0.0338769613501968,0.000979284663480811,0.000980873402862393,-0.0489281175887094,-0.0488061211848975,-0.274328419359985,-0.000889825707952568,0
0.07,0.00122990839823573,0.000692339478187208,-0.0612792844885683,-0.0346472372982616,0.000999639233160018,0.000996358381625088,-0.0499525410612685,-0.0496016673243473,-0.274333767696781,-0.000789119615126221,0
0.08,0.00120033839572887,0.000678482785133676,-0.0598540697511116,-0.0339538009786376,0.000978294495812295,0.000971643470336251,-0.0488991595802561,-0.0484173776552645,-0.274338377072907,-0.000603735084680745,0
0.09,0.00119310489341231,0.000677216399483461,-0.0595224674297382,-0.0338904289248449,0.000975119298595297,0.000965020047419098,-0.0487484954586482,-0.0481151690442044,-0.2743419629414,-0.000492476499008679,0
0.1,0.00118915448942449,0.000677099216306443,-0.0593477213620759,-0.033884572386153,0.000973939043049378,0.000961246320599086,-0.0486956546973045,-0.0479484044600436,-0.274344837794181,-0.000407143079528703,0
0.11,0.00118618430664843,0.000677087207641014,-0.0592173963671886,-0.0338839612767693,0.000973125030933837,0.000958388214796144,-0.0486598699731211,-0.0478230061634907,-0.274347152604903,-0.000338872875645994,0
0.12,0.00118381496982145,0.000677085049853969,-0.0591135613656465,-0.0338838576478658,0.000972482839661778,0.000956106256685143,-0.0486317283941114,-0.0477229917317876,-0.274349017610842,-0.000283918472243057,0
0.13,0.00123750796840401,0.000707480082721321,-0.0617723757180282,-0.0354049411837824,0.00101628954175826,0.000999554704167599,-0.0508163459968634,-0.0498701838938198,-0.274350881844066,-0.000346159066840254,0
0.14,0.00127485935303968,0.000730572488562041,-0.0636907055905541,-0.0365605640568759,0.00104863926173812,0.00102925129575717,-0.0524485491706779,-0.0514036040825013,-0.274352459193357,-0.000381936065660346,0
0.15,0.00118853722157039,0.00068196260475413,-0.0593794619101259,-0.0341279596354016,0.000978461933302723,0.000959325787425105,-0.048938968839046,-0.0479125813809127,-0.274353809034948,-0.000165326561317987,0
0.16,0.00117816019287743,0.000677526812295747,-0.0588724603173314,-0.0339059674050682,0.000971381240466508,0.000950538009303346,-0.0485879495586569,-0.0474846540176373,-0.274354439462129,-0.000126735410115732,0
0.17,0.00117649750413659,0.000677121805386164,-0.0587936803058807,-0.0338856858626567,0.000970541348762545,0.000949046788578531,-0.0485471046511894,-0.0474142929956698,-0.274354895681338,-0.000111028484842753,0
0.18,0.00117591589143338,0.000677084643377304,-0.0587675189524822,-0.0338838393856843,0.000970348345709403,0.000948496645224408,-0.0485382565839162,-0.047389592772455,-0.274355257427914,-0.000100114317032408,0
0.19,0.00117553311769249,0.000677081086067617,-0.0587506643485535,-0.0338836686768891,0.000970241493679201,0.00094812886879658,-0.0485335396801599,-0.047373400664465,-0.27435554824725,-9.15172481727806e-05,0
0.2,0.00117523460271444,0.00067708062737763,-0.0587375698673772,-0.0338836268963699,0.000970160398521211,0.000947841415284549,-0.0485299629129748,-0.0473607958679192,-0.274355782503897,-8.46123570856701e-05,0
0.21,0.00117499490356428,0.000677080477458242,-0.0587270579856775,-0.0338836246409991,0.000970095492127278,0.000947610538413038,-0.0485271217280595,-0.0473506685829814,-0.274355971251077,-7.90511691590299e-05,0
0.22,0.00117480200337624,0.000677080376692917,-0.058718598193874,-0.0338836251835865,0.000970043277340436,0.000947424732485951,-0.0485248374639878,-0.047342517661495,-0.274356123335935,-7.45704486976997e-05,0
0.23,0.00117464658892178,0.000677080297321624,-0.0587117808257537,-0.0338836256362141,0.000970001211018174,0.000947275033192571,-0.0485229966899975,-0.0473359491951829,-0.274356245880214,-7.09600766826738e-05,0
0.24,0.00117452120962032,0.000677080233529045,-0.0587062784012297,-0.0338836260167609,0.000969967274457688,0.000947154264607856,-0.0485215109727243,-0.0473306476681885,-0.274356344622105,-6.80509716269721e-05,0
0.25,0.00117442027753361,0.000677080182139164,-0.0587018478107922,-0.0338836234282731,0.000969939955071226,0.00094705704415529,-0.0485203118780619,-0.0473263796236944,-0.274356424184705,-6.57069191714751e-05,0
0.26,0.00118606782343535,0.000683520774233338,-0.0592758494980771,-0.0342059372012737,0.000979295312883709,0.000956524030414923,-0.0489860841264566,-0.0477915895895072,-0.274356429484735,-8.99089516140615e-05,0
0.27,0.00115487833820678,0.000665665244348292,-0.0577406201454819,-0.0333123592108227,0.000953657730099855,0.00093133835280918,-0.0477100020767783,-0.0465558609931073,-0.274356681787641,-1.79557477501857e-05,0
0.28,0.00115421055579166,0.000665167829987408,-0.0576442532066349,-0.0332874675727955,0.000952998026467986,0.000930830280287,-0.0476599343178353,-0.0464698406063564,-0.274356711927183,-1.57518406997585e-05,0
0.29,0.00117193484802023,0.000675993118985004,-0.0585806445893794,-0.0338292025269893,0.000968220355500047,0.00094495890287072,-0.0484350979595338,-0.0472244444093269,-0.274356612904042,-5.54517577483339e-05,0
0.3,0.00116017548217777,0.000670147983295299,-0.0579971901286394,-0.0335366994929015,0.000959407355944587,0.000935223499662297,-0.0479954338747212,-0.0467420859918767,-0.274356039702594,-4.62420520948981e-05,0
0.31,0.00117316528998203,0.000676447831450367,-0.0586377098704345,-0.033851970417568,0.000968990936078402,0.000946020629843994,-0.0484724505881953,-0.0472732318968792,-0.274356098876551,-7.18053916489896e-05,0
0.32,0.0011744941984921,0.000677022596895561,-0.0587040081442601,-0.0338807369516726,0.000969904354666083,0.000947144002672549,-0.0485181088517329,-0.0473292512305149,-0.274356217159097,-7.1411596209453e-05,0
0.33,0.00117453052259187,0.000677074982473384,-0.0587065058691174,-0.0338833618907505,0.0009699647200454,0.000947164675364592,-0.0485213172087036,-0.0473309393601336,-0.274356320458908,-6.87180991052731e-05,0
0.34,0.00117444262925303,0.000677079714223499,-0.0587027494648832,-0.0338836008129497,0.000969945541801421,0.000947078705683584,-0.048520533464483,-0.0473272546331409,-0.274356404598715,-6.62788000435632e-05,0
0.35,0.00117435881024376,0.000677080107082645,-0.0586990814378497,-0.0338836243750332,0.000969923275396076,0.000946997849231524,-0.0485195655893093,-0.0473237141131206,-0.274356472498035,-6.42828531048907e-05,0
0.36,0.00117428954312735,0.000677080111584546,-0.0586960389626058,-0.0338836246207777,0.000969904565178821,0.000946931118427768,-0.0485187441250499,-0.0473207827055877,-0.274356527220314,-6.26711439319775e-05,0
0.37,0.00117423366377294,0.000677080086737281,-0.0586935826175294,-0.0338836248345602,0.000969889443754558,0.000946877292940991,-0.0485180809256881,-0.0473184160311643,-0.274356571315072,-6.13720961624476e-05,0
0.38,0.00117418893420972,0.000677080064117705,-0.0586916165618565,-0.0338835970267565,0.000969877337147528,0.00094683420794446,-0.0485175231802613,-0.0473165293165974,-0.274356606845123,-6.03253257426312e-05,0
0.39,0.00117415249621403,0.000677080045654069,-0.0586900109165741,-0.0338835971947651,0.000969867474419079,0.000946799109976616,-0.0485170896828303,-0.0473149822884135,-0.274356635473855,-5.94818705555431e-05,0
0.4,0.00117412327596829,0.000677080030754826,-0.0586887225180499,-0.0338835973452842,0.000969859565343632,0.000946770964240521,-0.0485167418563238,-0.0473137409164066,-0.274356658542007,-5.88022439477311e-05,0
0.41,0.00117409976007331,0.00067708001874736,-0.0586876841711852,-0.0338835974819686,0.000969853200275222,0.000946748313073248,-0.0485164615503771,-0.0473127404652028,-0.274356677129432,-5.82546250562828e-05,0
0.42,0.00117408066796055,0.000677080009071565,-0.0586868386761705,-0.0338835976079238,0.00096984803255785,0.000946729923107277,-0.0485162333121743,-0.0473119258312027,-0.274356692106595,-5.78133733207491e-05,0
0.43,0.00117406541755341,0.000677080001275403,-0.0586861624352816,-0.0338835977245679,0.000969843904719728,0.000946715233478343,-0.0485160507829852,-0.0473112742648452,-0.274356704174511,-5.74578284436027e-05,0
0.44,0.00117405307752931,0.00067707999499352,-0.0586856133159048,-0.0338835978341549,0.000969840564623493,0.000946703347246249,-0.0485159025768428,-0.0473107451812477,-0.274356713898519,-5.71713430897555e-05,0
0.45,0.00117404306581165,0.000677079989931725,-0.0586851657883051,-0.0338835979380945,0.000969837854716155,0.000946693703742625,-0.0485157817999234,-0.0473103139830367,-0.274356721733623,-5.69405034317176e-05,0
0.46,0.00117403514956977,0.000677079985853348,-0.0586848110831485,-0.0338835980369439,0.000969835712037276,0.000946686078552776,-0.0485156860942815,-0.0473099722108897,-0.274356728046965,-5.6754501086653e-05,0
0.47,0.00117402863031176,0.000677079982566663,-0.0586845166072997,-0.033883598132406,0.000969833947441242,0.000946679799073963,-0.0485156066451531,-0.0473096884758672,-0.274356733134034,-5.66046270455408e-05,0
0.48,0.0011740235080376,0.000677079979918444,-0.058684284225159,-0.0338835982244824,0.000969832561006094,0.000946674865116654,-0.0485155439689285,-0.0473094645610829,-0.27435673723303,-5.64838639000022e-05,0
0.49,0.0011740192006707,0.000677079977784938,-0.0586840863365472,-0.0338835983145783,0.000969831395093571,0.000946670716221633,-0.0485154905983796,-0.0473092738889275,-0.274356740535739,-5.63865572739169e-05,0
0.5,0.00117401594104169,0.000677079976065472,-0.0586839358022536,-0.0338835984021371,0.000969830512833601,0.000946667576388744,-0.0485154500246393,-0.0473091288318339,-0.274356743196945,-5.63081510734529e-05,0
0.51,2.48778542619104,-0.0583670333850598,0.506441139546479,2.9233523765921,-0.14870118000605,2.48402314731959,2.90302562374495,0.612302191268371,0.0363345478048519,11.0946350357362,467.551155453598
0.52,2.40118482068073,0.082772695427028,2.67152592134194,-4.13754046860779,-0.306872054252053,2.38293294166977,-4.51531034767585,1.9667903655297,0.162532207522986,23.2808516884091,467.551155453598
0.53,2.31575612845618,0.0251833187152613,4.78989854024741,-1.25157943622854,-0.830129255977411,2.16200047742693,-2.92892071357901,3.99136600233833,0.377480168004608,35.3502241903934,467.551155453598
0.54,2.28144001069149,0.00527069034713845,4.29150625433104,-0.250640720806824,-1.43266097663029,1.77552212844601,-2.8973061375312,3.17576193177527,0.681241693530459,47.5701490974463,467.551155453598
0.55,2.23589489450041,0.0224067113128541,4.16095623138567,-1.11686815856621,-1.95793815960253,1.07991027550307,-4.19303571124557,0.989647799646762,1.07678118792439,60.3955334357583,467.551155453598
0.56,2.17339093803118,-0.0331015594549335,5.03610636190312,1.6636693821136,-2.17356258587765,-0.0186967384125649,-5.02496983196154,1.69700951360319,1.56416880329524,72.334687276446,467.551155453598
0.57,2.10692479113179,0.0618634328600385,6.40005152018749,-3.07939698483958,-1.8141503590309,-1.07322767139085,-3.7653044121704,-6.02211158440155,2.13436031450357,83.16986229376,467.551155453598
0.58,2.0227882817908,0.00881215665175264,8.58667478676531,-0.417174452847747,-0.716091932843765,-1.89181458678463,-2.61394747052895,-8.18976782571369,2.78409489371059,94.2843150422499,467.551155453598
0.59,2.04334894920009,0.0261741147518504,5.39602308578395,-1.30048131882631,0.726446185774215,-1.91003558910672,3.19217910062345,-4.54073885975316,-2.76534752018945,105.616652001761,467.551155453598
0.6,2.02613151451099,0.000845224632550545,4.40053961186678,-0.0147764117543255,1.87905431024941,-0.757868410499084,4.08731104796136,-1.63059977160737,-1.95374809578549,115.801572406387,467.551155453598
0.61,1.93740270267539,-0.0150775929251357,6.78570030949453,0.761286641661865,1.68768490259646,0.951565150523226,6.30537476802543,2.62059822861026,-1.06518033317512,126.653036273958,467.551155453598
0.62,1.95442972678014,0.0300076518049365,4.11492495615732,-1.47187151108083,0.225755578059514,1.94157936615111,-1.05200637358268,4.24173263300259,-0.100401953224352,136.445154308934,467.551155453598
0.63,1.84415204437934,-0.0160039172227394,7.68732501178851,0.808424805373188,-1.49583088907695,1.07872278155151,-5.71732671375388,5.20198921096614,0.937336423122403,146.71549741443,467.551155453598
0.64,1.7651831167864,0.013205021787731,9.88733517808283,-0.625143671352954,-1.57452940661547,-0.798062000154947,-8.49870163488,-5.0913919565159,2.04739553786885,156.093803348098,467.551155453598
0.65,1.77075967747593,-0.00554370804036197,7.75819454720453,0.293748513172472,0.158150177010877,-1.76369189190882,0.376046796109787,-7.7546411669658,-3.05529256418952,165.773235959952,467.551155453598
0.66,1.63731451796313,0.0392159379930088,12.7130856077349,-1.95786903619758,1.58266966663214,-0.42129971142645,12.8182407191959,-1.07168171452464,-1.8070120813492,175.002617258324,467.551155453598
0.67,1.65506226310294,-0.00112480346541832,10.1310772388406,0.0939498026512986,0.779466998150532,1.46002176652421,4.86024507311481,8.88963274910924,-0.491057426812552,183.85896835104,467.551155453598
0.68,1.64121435304693,-0.0146587435777037,9.09080549662612,0.752965788713895,-1.2847943386498,1.02132411054668,-6.59168162368973,6.30550834020321,0.890221880726083,192.851356459325,467.551155453598
0.69,1.56758727204263,-0.00907440581189783,11.1245802238998,0.458335783704017,-1.12528693181438,-1.09139430152382,-8.3474962963847,-7.36788045712265,2.33511716591172,201.518776289994,467.551155453598
0.7,1.46441796585224,0.0610950143311619,14.7166423550689,-3.01858866476392,0.897608852264072,-1.15868499939548,11.7969562920108,-9.30178810651141,-2.44078773174491,209.75950115921,467.551155453598
0.71,1.4757476102319,0.0464667291706067,12.5814744109642,-2.28211516535874,1.1603406279679,0.913016863541978,8.17088228721802,9.83555949756465,-0.872647248174563,217.884087840913,467.551155453598
0.72,1.42134297198376,0.0588196278663717,13.7278989600893,-2.91016895169202,-0.931132132477792,1.07548526000933,-11.5265095979923,8.00399085914055,0.754942871497467,225.964279334431,467.551155453598
0.73,1.4176206034244,-0.0407626534528464,12.3772225257912,2.06296154109896,-0.883103832355465,-1.10970148708964,-9.55897215110447,-8.12880675052715,2.44066971449365,233.86843795725,467.551155453598
0.74,1.32534497746548,0.0615460321861415,15.4948667729201,-3.06776216287922,1.11292620602687,-0.72230359497199,14.923684191875,-5.17549139113554,-2.10007298997902,241.551532757033,467.551155453598
0.75,1.36479475531006,-0.0247042302669523,12.0684303515424,1.24400265372963,0.382690073594559,1.31027605132931,4.78015619205757,11.1509937015519,-0.302263279132642,249.023793226987,467.551155453598
0.76,1.3862257342794,-0.0012994443809981,9.56563036979016,0.0701012731761133,-1.38594004451357,0.0281721129469469,-9.56197797861518,0.273451451689592,1.54953464951355,256.324942471117,467.551155453598
0.77,1.34757555610832,-0.0283806449232493,10.1001176312537,1.4236470897253,0.441419087028743,-1.27354408248542,1.75138621714015,-10.0484721982825,-2.82900129760156,263.427538281151,467.551155453598
0.78,1.32739400078749,0.00925442520010866,9.74142966010437,-0.459821363382187,1.02292209750721,0.845985141798509,7.16782197788514,6.61280693823209,-0.872819069988317,270.366958315409,467.551155453598
0.79,1.24542269281033,-0.0378445970718704,12.489340815147,1.89812741957679,-1.14435773019875,0.492904942792043,-10.5117087458251,7.00646137081974,1.13370788535595,277.149666044806,467.551155453598
0.8,1.11852361498129,-0.0163715698064108,17.5066494181694,0.825988431230316,0.0699301523004632,-1.11645549815833,0.0135296685272448,-17.5261190138401,-3.09367423371374,283.793028120334,467.551155453598
0.81,1.08679098018107,-0.0387725817756519,17.790549786126,1.95560817226801,0.887028317368151,0.62912535466909,15.9427251364245,8.13373101599057,-0.989549942272723,290.279509122014,467.551155453598
0.82,1.05738204293615,0.00177686969795854,18.0165052385693,-0.0614120408796345,-0.969226022576637,0.422682929806755,-16.5509441263778,7.11789863482755,1.16123901133985,296.508064230218,467.551155453598
0.83,1.12166742335184,-0.0493326246378021,13.5646161602244,2.51294903033826,0.288694105908412,-1.08500102750004,0.454035360279811,-13.7879504022503,-2.92549379570446,302.667822099081,467.551155453598
0.84,1.09762545919233,-0.0297159135837475,13.5500165455551,1.54128915717122,0.670885022239623,0.869239881230625,9.76041257147304,9.52433026965475,-0.684378143102047,308.687458395688,467.551155453598
0.85,0.997930290413294,0.0354947641172911,17.3487099292176,-1.76740150088003,-0.998543089296261,0.00603668972054598,-17.2890126811278,-2.27848300086868,1.6003042953826,314.568705895827,467.551155453598
0.86,0.979589231271049,-0.00906119030865465,17.0796652547178,0.445255823119223,0.699337780738865,-0.686005711071893,11.7669329498624,-12.3875948801484,-2.35582085684744,320.332864533814,467.551155453598
0.87,1.00814813213176,0.00438823965423979,14.505014124595,-0.205183621769598,-0.00844753470283199,1.00812229026317,-0.389840179199583,14.501226144986,0.0127320232637392,325.893754485222,467.551155453598
0.88,1.03725319737806,0.0497696667734722,11.9441474855617,-2.44544894677878,-0.721361876881562,-0.74699950320175,-6.03722706342804,-10.5922032218403,2.42159814629966,331.272877333313,467.551155453598
0.89,0.877184470139641,0.055692889156586,18.8481901921745,-2.7356445187964,0.875062816573165,0.0825794139468729,18.1858318172413,5.65805139324654,-1.4132998774902,336.630936180431,467.551155453598
0.9,0.849806913739272,0.0714425237334596,19.1295671735812,-3.58754236951922,-0.712789908943529,0.468194799783966,-18.5239132982611,5.97289181386661,1.07349383454387,341.825689321077,467.551155453598
0.91,0.867829319852707,-0.0537735540663304,17.1753152173618,2.71495524599132,0.430520859844902,-0.755427768056843,5.12763567797064,-16.6153479397056,-2.68548119690408,346.852857191702,467.551155453598
0.92,0.863978553715376,0.035320864538011,16.3478532686036,-1.71307463533025,0.142504661524893,0.852876852889971,0.333505042286956,16.433980211281,-0.124698760520833,351.749055602181,467.551155453598
0.93,0.792178709975607,0.0165073441237092,18.9143519310264,-0.842690535810081,-0.504764939573726,-0.610763421240801,-11.082370435501,-15.3506971125157,2.47176581407152,356.602156812418,467.551155453598
0.94,0.739216036581256,0.0258075881492918,20.5630180575739,-1.26823849408814,0.693343617002416,0.257645122420339,18.5306095593729,9.00347987569676,-1.18011360453287,361.288185269558,467.551155453598
0.95,0.698811242846443,0.0375828125261493,21.6228599675865,-1.82947099449688,-0.693032334833718,0.0972409574248015,-21.7000986831079,0.0274670882503532,1.48512340888536,365.832753239006,467.551155453598
0.96,0.829539119181917,-0.000940664864934104,14.1231930244471,0.0414829496551184,0.716628891338373,-0.417826599443637,12.1718397573429,-7.16328269458,-2.09978927441238,370.313156303236,467.551155453598
0.97,0.740861470932495,-0.0174068790341105,17.6240761319847,0.917803156588976,-0.451000477655444,0.58802830518992,-9.65309340175606,14.7739030021593,0.630783041186077,374.652467097434,467.551155453598
