t,iq,id,vq,vd,ia,ib,va,vb,theta_e,omega,r
0,0,0,0,0,0,0,0,0,0,0,0
0.01,0.000557347929337606,0.00031173015620245,-0.0269760754580828,-0.0156036402159905,-0.000475694317051457,0.000426060232065689,0.022911219113274,-0.0211248260076574,1.35034709666444,-0.00177257814169274,0
0.02,0.000621783913725894,0.000347793192540986,-0.0302672472399541,-0.0174087718840499,-0.00053067891106944,0.000475347487100011,0.0257277116717167,-0.0236062798028916,1.35033413071912,-0.00180123000511016,0
0.03,0.000646247418778686,0.000362186463660889,-0.0315229877704432,-0.0181292353613653,-0.00055139658885235,0.000494748989427253,0.0267951996351281,-0.0245842471773475,1.35032161039414,-0.00169874872170006,0
0.04,0.000629816292430593,0.000354192287503336,-0.0308148421298274,-0.0177290769156174,-0.00053710619835614,0.000483360807705051,0.0261914452762683,-0.0240391942066764,1.35031070836904,-0.00147945135407016,0
0.05,0.000643325664791313,0.000362527811090069,-0.0315305828288994,-0.0181463221136575,-0.000548460526796347,0.000494454624145851,0.0267983574782268,-0.0246031440318481,1.35030061216835,-0.0013753805449108,0
0.06,0.000642660583852673,0.000362976352031019,-0.031562778176715,-0.0181687739032595,-0.000547708929214839,0.000494751843887356,0.0268246379577918,-0.0246323386996379,1.35029148245387,-0.00123687085331533,0
0.07,0.000657763503491554,0.000372328623619917,-0.0323400789792186,-0.0186368875799701,-0.000560396543761337,0.000507185512640625,0.0274805284938937,-0.0252593515504028,1.35028345710323,-0.00116918930312287,0
0.08,0.000641026694311689,0.000363502726410342,-0.0315929411749276,-0.0181951189239075,-0.000545991826397209,0.000494916538858183,0.0268479273990067,-0.0246650578575287,1.35027603609323,-0.00100077615689963,0
0.09,0.00063896053456264,0.000363024324295352,-0.0315398347464097,-0.0181711721818743,-0.000544077133443644,0.000494001313381269,0.0268011848983072,-0.0246302489297389,1.35026953365188,-0.000896636491176931,0
0.1,0.000637895385106106,0.000362997220440907,-0.0315295732111433,-0.0181698072466631,-0.000543040846498606,0.000493745018629626,0.0267913277094473,-0.0246268276849199,1.35026373772652,-0.000806488419979928,0
0.11,0.000636991764004802,0.00036299464084045,-0.0315226543715451,-0.0181696768238801,-0.000542157121668603,0.000493547639152344,0.0267844775988871,-0.0246253254651965,1.35025856548983,-0.000726203161357288,0
0.12,0.000636188203247838,0.000362993505871398,-0.031516616542964,-0.0181696284852106,-0.000541370994051092,0.000493373248217466,0.0267784829159066,-0.0246240811062932,1.35025394946076,-0.000654561361681453,0
0.13,0.000665944569246214,0.000380059042606034,-0.032968727662424,-0.019023834369186,-0.000566671077770181,0.000516537447620134,0.0280084417803266,-0.025775384901556,1.35024947025267,-0.000690298674877173,0
0.14,0.000692410922639074,0.000395916032848154,-0.0343916750736148,-0.0198175551667953,-0.000589025278268936,0.000537802577547111,0.0292231778219517,-0.0268612859920121,1.35024545961493,-0.000721687159774836,0
0.15,0.000637565400749123,0.000364770152802831,-0.0316674421756046,-0.0182585627810496,-0.000542320159286375,0.000495414724690124,0.0269058996581829,-0.0247441825962908,1.35024180245359,-0.000478072995750555,0
0.16,0.000633791141728266,0.000363086228356171,-0.0315071283047106,-0.0181742610536575,-0.000539004319926971,0.000492947424838788,0.0267678419786527,-0.0246269270243339,1.35023896173577,-0.000422678742953615,0
0.17,0.000633155914925598,0.000362994676288047,-0.0314943712270501,-0.0181696778790837,-0.000538403273688646,0.000492720470956996,0.0267563348232849,-0.0246197311122842,1.35023645209178,-0.000383044785723023,0
0.18,0.000632754280513163,0.000362989244131479,-0.0314908656026777,-0.0181694163950906,-0.000538011454635438,0.000492628506629421,0.0267529162263265,-0.0246187688955246,1.35023421386394,-0.000348265940201598,0
0.19,0.000632406021396614,0.0003629885183654,-0.031488222079092,-0.01816937254706,-0.000537670807158452,0.000492552680932082,0.0267502971624357,-0.0246182011970302,1.35023221641099,-0.000317262825608909,0
0.2,0.000632095656813067,0.000362988093334028,-0.0314858827095973,-0.0181693568098565,-0.000537367176465619,0.000492485322544321,0.0267479740241387,-0.0246177217160808,1.3502304337539,-0.000289595709242969,0
0.21,0.000631818761635707,0.000362987725961981,-0.0314837986105324,-0.0181693424645995,-0.000537096286350857,0.000492425238936883,0.0267459043881663,-0.0246172943071233,1.35022884278998,-0.000264903824238344,0
0.22,0.000631571610571541,0.000362987398676074,-0.0314819360656264,-0.0181693266073836,-0.000536854495398669,0.000492371609303171,0.026744055482452,-0.0246169093136709,1.3502274229055,-0.000242867114609544,0
0.23,0.000631351060409604,0.000362987106564347,-0.0314802740301791,-0.0181693121540001,-0.000536638728511362,0.000492323751279579,0.0267424056809603,-0.0246165654704227,1.35022615570408,-0.000223200056612378,0
0.24,0.000631154258973159,0.000362986845822032,-0.0314787913746917,-0.0181692976541602,-0.000536446195318781,0.000492281046139082,0.0267409342789213,-0.0246162571799055,1.35022502476735,-0.00020564783645214,0
0.25,0.000630978703331377,0.000362986613083147,-0.0314774713309889,-0.0181692816569679,-0.000536274447018659,0.000492242951000978,0.0267396248709009,-0.0246159797507017,1.3502240154426,-0.000189983041391222,0
0.26,0.00063739103751173,0.000366651608674165,-0.0317896046968831,-0.0183527278848068,-0.000541729143933404,0.000497222557268689,0.027004038922209,-0.0248632956280071,1.3502231620565,-0.000199353154569725,0
0.27,0.00061745302149275,0.000355357607565557,-0.0308444515824771,-0.0177874183207441,-0.000524744715546844,0.000481840478281873,0.026205444798408,-0.024104918727482,1.35022218874278,-0.00011610640397547,0
0.28,0.000616167926565839,0.000354560712943288,-0.0306643735817984,-0.0177475227908177,-0.000523664761718926,0.000480782102646467,0.0260384411423914,-0.0240266093165246,1.35022146768363,-0.00010091818667289,0
0.29,0.000629576339164527,0.00036253054948651,-0.0314319314662896,-0.0181464598884427,-0.00053500433491098,0.00049149275454808,0.0267001061735766,-0.0245838290854806,1.35022095301827,-0.000139457407709623,0
0.3,0.000625133467507239,0.000360231880628345,-0.0312198771109444,-0.0180313993813062,-0.000531172029442337,0.000488277723387795,0.0265183634834779,-0.0244251609744703,1.35022094236343,-0.000123984229285091,0
0.31,0.000630030547299713,0.000362836937335893,-0.0314573898188713,-0.0181617863927116,-0.000535380238041267,0.000491891384698841,0.0267215811366385,-0.0246043687329905,1.35022041348323,-0.000132972754598473,0
0.32,0.000630243419749279,0.000362977619826723,-0.031471123900701,-0.0181688344061059,-0.000535556921354768,0.000492075507032551,0.0267334278406745,-0.024614264545934,1.35021990252785,-0.000126083221895032,0
0.33,0.000630181894632215,0.000362985123808232,-0.0314713882914805,-0.0181692158737214,-0.000535495019538546,0.000492069613446856,0.0267335910809674,-0.024614706871597,1.35021944416007,-0.000119032277222629,0
0.34,0.000630111869500699,0.000362985440656136,-0.0314709027766522,-0.0181692214770714,-0.000535426420335253,0.00049205482074762,0.0267331060306989,-0.0246146170519018,1.35021903493906,-0.000112684941363229,0
0.35,0.000630048306735063,0.000362985378600797,-0.0314704172459529,-0.018169221717049,-0.000535364231483925,0.000492041048638536,0.0267326232214231,-0.0246145208187989,1.35021866971366,-0.000107016843840425,0
0.36,0.000629991554265744,0.000362985304577916,-0.0314699818313037,-0.0181692219399312,-0.000535308709875222,0.000492028733833113,0.0267321902844395,-0.0246144344838873,1.35021834376124,-0.000101958048232216,0
0.37,0.000629941086887804,0.000362985237504809,-0.0314696013871011,-0.0181692071284598,-0.00053525933680983,0.000492017782151938,0.0267318151382535,-0.0246143445688516,1.35021805285914,-9.74432228724451e-05,0
0.38,0.000629895859535333,0.000362985177587612,-0.0314692515265965,-0.0181692073234076,-0.000535215090640846,0.000492007967169615,0.0267314673214566,-0.0246142751517704,1.35021779323831,-9.34138849217524e-05,0
0.39,0.000629855521626372,0.000362985124108557,-0.0314689396033525,-0.0181692075059293,-0.000535175627780951,0.000491999213288598,0.026731157212668,-0.0246142132765723,1.35021756153524,-8.98178296430564e-05,0
0.4,0.000629819491084313,0.000362985076378456,-0.0314686587293319,-0.0181692076775016,-0.000535140378928886,0.000491991394094475,0.0267308780165069,-0.0246141575179401,1.3502173547476,-8.66084653308876e-05,0
0.41,0.00062978736045553,0.000362985033779785,-0.0314684083511696,-0.0181692078391562,-0.000535108945319097,0.00049198442127484,0.0267306291268365,-0.0246141078274622,1.35021717019621,-8.37442103394341e-05,0
0.42,0.000629758664078737,0.000362984995760944,-0.031468182866847,-0.0181692079920652,-0.000535080871516339,0.000491978193690658,0.0267304050182568,-0.0246140630445321,1.35021700549018,-8.11879543776942e-05,0
0.43,0.000629733052707968,0.000362984961829602,-0.0314679806073345,-0.01816920813712,-0.000535055815793581,0.000491972635593485,0.0267302040094451,-0.0246140228619178,1.35021685849526,-7.8906577699379e-05,0
0.44,0.000629710408591773,0.000362984931546585,-0.031467809775597,-0.0181691932615208,-0.000535033662410955,0.000491967721812942,0.0267300373424629,-0.0246139744762643,1.350216727307,-7.68705219888114e-05,0
0.45,0.000629689977702819,0.00036298490451915,-0.0314676452393391,-0.0181691933938887,-0.000535013674859986,0.000491963287899582,0.0267298738819987,-0.0246139417352417,1.35021661022592,-7.50534073933231e-05,0
0.46,0.000629671816912638,0.000362984880397901,-0.0314675010710741,-0.0181691935204298,-0.000534995907963839,0.000491959346769109,0.0267297306071928,-0.0246139131083982,1.35021650573461,-7.34316907409759e-05,0
0.47,0.000629655576975264,0.000362984858870031,-0.0314673698217532,-0.0181691936420277,-0.000534980020340813,0.000491955822428287,0.0267296002159715,-0.0246138870029668,1.35021641247962,-7.19843605024012e-05,0
0.48,0.000629641083267716,0.000362984839657121,-0.0314672516961032,-0.018169193759139,-0.00053496584106512,0.000491952677046214,0.0267294828782562,-0.0246138634964943,1.35021632925253,-7.06926645603714e-05,0
0.49,0.000629628102959349,0.000362984822509886,-0.0314671430331568,-0.0181691938723669,-0.000534953142471277,0.00049194986001505,0.0267293749951055,-0.0246138418173968,1.35021625497496,-6.95398672494534e-05,0
0.5,0.000629616577842504,0.000362984807206207,-0.0314670480470287,-0.018169193981865,-0.000534941867337123,0.000491947358897783,0.0267292806548145,-0.0246138229135746,1.35021618868485,-6.85110325243096e-05,0
0.51,4.2282952843888,-0.0294783607956317,7.02405085587851,1.48475000714073,-0.570895733908735,4.1896811390301,0.572709951600156,7.15638011294888,0.128456684048557,39.2626736751938,481.066107973423
0.52,3.85543684186349,-0.00948270693840925,6.2564143484374,0.493144526924124,-2.08489349545881,3.24310071936145,-2.95482402548952,5.53668917333802,0.568887306255359,80.4159602593735,481.066107973423
0.53,3.5017727792516,0.00678811315853989,5.28591915104566,-0.313662514618046,-3.37598566339561,0.930150244065463,-5.18147570459948,1.09162034018844,1.30388558198549,120.175346957471,481.066107973423
0.54,3.15094024172285,-0.0244014326998934,5.26498576328626,1.24400068155988,-2.28127728009471,-2.17365908277953,-4.69088192125142,-2.69503981124678,2.32429810015052,156.772078048514,481.066107973423
0.55,2.84925755152478,0.0224753638302919,6.00575262281091,-1.09166085749852,1.20521439490077,-2.58190472311126,3.56868007807047,-4.95230355436513,-2.69697398280749,187.107110720832,481.066107973423
0.56,2.59233695850186,0.0236889942253583,4.66603275665506,-1.16222457950931,2.43725979573363,0.883479916558699,3.96596520100114,2.71914466033743,-1.21390121291278,217.029133041711,481.066107973423
0.57,2.3305930598935,-0.000559975188802575,5.9227794687602,0.0656268019776988,-1.05520575452989,2.07802914801573,-2.62182295674833,5.31127742602216,0.469621174249966,242.070860875975,481.066107973423
0.58,2.10302143353821,0.0486680434841,5.8794676139547,-2.4072225236819,-1.55120302234421,-1.42085780845511,-2.57595388887464,-5.80752281652472,2.33550356305424,265.989940261725,481.066107973423
0.59,1.89431117676881,-0.004237957605285,6.21474750804426,0.231214667595855,1.78164000370786,-0.643577261798268,5.76131002787797,-2.34176292009387,-1.91967529761421,287.433416688988,481.066107973423
0.6,1.66786439374622,0.00823336230030519,8.66674608539587,-0.376826325232744,-0.415009630441436,1.61542763094546,-2.56241195146421,8.28785441348401,0.256402235595037,306.244273565614,481.066107973423
0.61,1.53843700773859,0.047646383593613,6.90036169366452,-2.35015280313599,-0.876355630117787,-1.26532976500597,-1.77883754137285,-7.06922532551363,2.56681744752734,323.443657046851,481.066107973423
0.62,1.36862624036223,0.0473224458100936,7.90332119018609,-2.34057426027515,1.32662215875222,0.339780587428286,6.92511486408134,4.47029728568322,-1.28549884688701,339.180566742452,481.066107973423
0.63,1.28548633912686,0.0190068742085383,5.32395519408579,-0.928940867719597,-1.21561939573978,0.418456537827052,-5.34845449893886,0.775541434826868,1.25405285811612,353.39087489284,481.066107973423
0.64,1.11824145065191,-0.0101719340952279,7.61232594069547,0.525236641457604,0.770091946709262,-0.81087964816788,4.80756110400878,-5.92543129131853,-2.39108402036396,366.215431212083,481.066107973423
0.65,1.0103185554286,0.039040402514349,7.51845427488421,-1.94235303714102,-0.296324638747557,0.966674425514064,-4.31311726755622,6.4573144139591,0.336068648931116,377.789836073579,481.066107973423
0.66,0.922687009583069,-0.000666184370869516,6.96657519356963,0.0427148489772296,0.0024795970890435,-0.922683918280382,-0.02902292418745,-6.96664568898509,-3.13962729030475,388.198205329679,481.066107973423
0.67,0.806931826868837,-0.019817035376508,8.28503764839004,0.999181123237411,0.187803229922796,0.785023334007059,3.09066008775054,7.75164704912834,-0.259372882277447,397.623835135312,481.066107973423
0.68,0.764169601723165,-0.0299255963862046,6.37859536502188,1.50553802993118,-0.308915239294288,-0.699587089967049,-4.155319157059,-5.06817978106797,2.68663197003731,406.149945857857,481.066107973423
0.69,0.683586560869906,0.027378054921247,6.75415442677855,-1.36236019978515,0.403671848532245,0.552348787267408,2.63263931271236,6.36740430504396,-0.591088355370598,413.826671451137,481.066107973423
0.7,0.623582310977124,0.0283071425032246,6.44046056473906,-1.40659530011768,-0.410942292390689,-0.469875116605417,-2.9160129421127,-5.91226785131588,2.46836514452811,420.806127113686,481.066107973423
0.71,0.547975574462041,-0.0153946932899461,7.24389392323335,0.784131075900366,0.344142062309797,0.426708879375219,5.30039953253519,4.9994625221868,-0.706780098171522,427.070010782961,481.066107973423
0.72,0.498501920402695,-0.000447683486306943,7.04626976173649,0.0400411158043178,-0.319563546936756,-0.382600972992593,-4.55255716286244,-5.37826590315008,2.44483226684375,432.695394847955,481.066107973423
0.73,0.430293788872855,-0.00749004540631831,8.0261398169471,0.395673791432589,0.25348515899161,0.347784588062415,5.15528568075555,6.16429295703952,-0.647236629229673,437.828652485405,481.066107973423
0.74,0.422259031495454,0.0128642241148588,6.22044626284459,-0.621264328571226,-0.235866983019856,-0.350478165172478,-2.78853241453505,-5.59499848507393,2.57968353471091,442.482527659622,481.066107973423
0.75,0.37225249780279,8.20661911925093e-05,6.70231801966799,-0.00357951571300941,0.159971699053675,0.336126441026523,2.87568573720808,6.054049156599,-0.443984077189259,446.729171260559,481.066107973423
0.76,0.304482291911906,0.00689620909921826,8.28284429347138,-0.35519789771539,-0.0956130949762561,-0.289162860438419,-2.08188670629168,-8.02480048839838,2.84489978525462,450.516004628624,481.066107973423
0.77,0.310402050875927,-0.0332162087599819,6.36486456310209,1.65754173091503,0.0052172984706226,0.312130628918465,2.42786971579321,6.11264215699657,-0.123318148888841,453.926110976157,481.066107973423
0.78,0.256070237199523,0.0299896029410036,7.62880691593422,-1.49882710918715,-0.0110184604163851,-0.257584813593565,2.0574949294566,-7.49745905484655,-3.06775896533163,456.942438571318,481.066107973423
0.79,0.24302481674438,0.0116659047049719,6.98475499872054,-0.57193838384491,-0.0588010314549274,0.236092341227033,-2.55880405014228,6.5242959574227,0.292059371093327,459.682519989096,481.066107973423
0.8,0.204901185508323,0.038898906311947,7.65490564491717,-1.92957325967064,0.0699983469521199,-0.196463360856299,5.53397798408685,-5.62991306048884,-2.61171370968061,462.272040561786,481.066107973423
0.81,0.158188651015658,-0.0310358923974908,8.90123545208935,1.55395709023306,-0.133808631115539,0.0899006460824827,-5.19585908410804,7.39255189971027,0.785472389032799,464.568571512714,481.066107973423
0.82,0.145308125561819,-0.0203168127005368,8.56408189448658,1.00305830351171,0.136527981024479,-0.0537339243865313,6.96494959430479,-5.08321766251556,-2.08466944264921,466.602791290873,481.066107973423
0.83,0.151929305263041,-0.0353227136868557,7.36955935463551,1.76229927210798,-0.155981434391465,5.00950304341274e-06,-6.77892137706239,3.38560611553893,1.34232803514332,468.418653571936,481.066107973423
0.84,0.147368938889252,0.0212837699409295,6.79230141580817,-1.05942491339942,0.148495278788777,-0.0109432714343542,6.70176412316474,1.53104451528459,-1.50092446922478,470.108526047832,481.066107973423
0.85,0.135793073475357,0.0260478156001177,6.62627077962555,-1.28867567413745,-0.135766154120123,-0.0261877623490895,-5.67534442203277,-3.65494392971144,1.95086274185051,471.673387048461,481.066107973423
0.86,0.0747524670500413,0.0198559647284223,9.04436668214199,-0.989121483080137,0.0699393549805861,0.0330254037108318,6.27510488790451,6.58801856669573,-0.870006907427376,472.968243971874,481.066107973423
0.87,0.0823690206049782,-0.0175892761157117,8.11439880790657,0.864651895140646,-0.0272959337686871,-0.079680425384115,-4.91626497573213,-6.51317354305222,2.60117187162038,474.112280926793,481.066107973423
0.88,0.0878458807339143,-0.00136225349230979,7.3189179713815,0.0616704186026553,0.0163395529063455,0.0863236555488421,1.53292228614521,7.15685075832807,-0.202575374549214,475.211645787933,481.066107973423
0.89,0.0661502730491497,0.0330009311845596,7.91843199486575,-1.64587264462751,-0.0232294270993151,-0.0701805799360671,2.75835292499064,-7.60275944383632,-2.99848752035554,476.209125479951,481.066107973423
0.9,0.069963090492596,0.0249647865403052,7.31956140675278,-1.23489766509399,-0.0112992146172676,0.0734193594858407,-4.56630660126432,5.85233247976644,0.495446232330378,477.07913068436,481.066107973423
0.91,0.0741942696486162,0.00732371712734645,6.71802963126126,-0.38284216850446,0.0511220053878848,-0.0542675505838806,5.31613536337808,-4.12519030478964,-2.28764119929639,477.900953132898,481.066107973423
0.92,0.0508135717313667,-0.0193930523757944,7.51717510256227,0.956381088099019,-0.0543844681159866,-0.000662706790584163,-6.7251125876355,3.49219801727825,1.21839238427765,478.636188099243,481.066107973423
0.93,0.0534297898106054,-0.000842182248863458,7.03745363622376,0.0401495241131781,0.0534073915140227,0.00176131820341203,7.03710274460958,0.0809359505647543,-1.55359045768062,479.367648409746,481.066107973423
0.94,0.0295284627357433,0.02390104072391,7.94542931527242,-1.18620287761191,0.0025917595159063,0.0379008264004084,-5.53667519737232,5.82083774294107,0.612184436254499,479.944488181257,481.066107973423
0.95,0.0694686285579711,-0.00481555134669674,5.67215725421769,0.255780301760232,0.0607449043604936,-0.0340460935017883,4.60417426213441,-3.32270535004866,-2.15085643018502,480.522748703803,481.066107973423
0.96,0.0224978078896069,0.0159478285269164,7.82835676759328,-0.816487057235194,-0.0189235514231083,0.0200595063772408,-7.83610402566925,0.738440582745964,1.37291521285233,480.89687637214,481.066107973423
0.97,0.0256895334208928,-0.00731650735823913,7.47247965684182,0.357261820881431,0.0238798158445965,0.0119681996363067,7.40848520500756,1.0391993060806,-1.38366015298902,481.314924850988,481.066107973423
