t,iq,id,vq,vd,ia,ib,va,vb,theta_e,omega,r
0,0,0,0,0,0,0,0,0,0,0,0
0.01,0.000855886835707304,0.000462053809127733,-0.0423990808932371,-0.0231274153042783,0.000606345190392595,-0.000760513976304366,-0.0299439264798762,0.0378935438592855,-1.97349024640139,-0.00187647003785604,0
0.02,0.000950788208774476,0.000516466641958219,-0.0472102977858854,-0.0258509681966632,0.000672320014292346,-0.000847774621336423,-0.0333023850486173,0.0422851738060812,-1.97350317906745,-0.00169248997865241,0
0.03,0.000980650735877826,0.000538201465853722,-0.0487475535572307,-0.0269388652348127,0.000691265892206499,-0.000879481750746864,-0.0342898261113853,0.0438888854176707,-1.97351415770272,-0.0014036551607053,0
0.04,0.000946797443271976,0.000526248357387026,-0.047126040917721,-0.0263405775700349,0.000664798624349184,-0.000855222498126848,-0.0330321707518871,0.0427032253432913,-1.97352226039576,-0.00104424380541573,0
0.05,0.000962699219957894,0.000538760456399054,-0.0479489351007315,-0.0269668435614542,0.000674518616502798,-0.000872970362313639,-0.0335434923953994,0.0436021231923617,-1.97352883797872,-0.000865989626634838,0
0.06,0.000957688523432746,0.000539481912134347,-0.0477322661898123,-0.0270029539865486,0.000669621548656238,-0.000871673690672229,-0.0333297808428972,0.0435505966500943,-1.9735339969924,-0.000680436517515355,0
0.07,0.000977299808579799,0.000553208954711595,-0.0487217109275607,-0.0276900523496313,0.00068228020746275,-0.000891991469649679,-0.033970591381576,0.044570652183024,-1.97353780878427,-0.000604336667998279,0
0.08,0.000950371813874636,0.000540314511860058,-0.047412648814984,-0.0270446323523087,0.000662557827356082,-0.000869576610623312,-0.0330190961799762,0.043463901046524,-1.97354099267352,-0.000427457989536729,0
0.09,0.000945586469641235,0.000539567356219818,-0.0471902297037027,-0.0270072491942044,0.000658446214620269,-0.000867015158990232,-0.0328290255704386,0.0433424084312532,-1.97354329243624,-0.000338066976605184,0
0.1,0.00094312951400302,0.000539523283926865,-0.0470793508925974,-0.027005043443832,0.00065620160840412,-0.000866012761574936,-0.0327278074102457,0.0432969776542131,-1.97354503721877,-0.000273318195774915,0
0.11,0.000941345556764866,0.000539520089942957,-0.0469992141651517,-0.0270048738073003,0.000654560491374815,-0.000865311474455397,-0.0326540915808385,0.0432654555566011,-1.97354636764138,-0.000224180187377897,0
0.12,0.000939991322044149,0.000539519413254633,-0.0469384067508596,-0.0270048423426663,0.000653314001079365,-0.000864780722952704,-0.0325981180180611,0.0432416262407182,-1.97354738261841,-0.000186710621245883,0
0.13,0.00098565586784141,0.000564779541816313,-0.0491969930530454,-0.0282692088645573,0.000685422965723629,-0.000905918748411287,-0.0341803637987137,0.0452901206211349,-1.97354855354386,-0.000267049629264902,0
0.14,0.00102295962989249,0.000587642555411247,-0.0511003609030445,-0.0294135851534055,0.00071077983766733,-0.000941574319788749,-0.0354828518299941,0.0470889913037933,-1.97354946381036,-0.000334226088867874,0
0.15,0.000942684656786059,0.000542302306706294,-0.0470879833780357,-0.0271441443873525,0.000654698598721636,-0.000868398467773143,-0.032681003086693,0.0434285020508326,-1.97355023379683,-9.84552272605816e-05,0
0.16,0.000936500597456072,0.000539678937027291,-0.0467838301065531,-0.0270128152723226,0.000650037477990569,-0.000863561231942557,-0.0324526556527014,0.0431884717194605,-1.97355036930329,-7.77451328086437e-05,0
0.17,0.000935953555873105,0.000539527120054277,-0.0467572474701979,-0.0270052208637349,0.000649593653432333,-0.000863207192651918,-0.0324311736952283,0.043171068062284,-1.97355043844872,-7.4002667183199e-05,0
0.18,0.000935852157779255,0.000539518311820685,-0.0467525275843067,-0.0270047787961755,0.000649503777829438,-0.000863159378443644,-0.0324270025756147,0.0431688130171864,-1.97355048860869,-7.2060869475099e-05,0
0.19,0.00093579878133589,0.000539517783679265,-0.0467501044184762,-0.0270047557000865,0.000649454846448141,-0.000863137996198143,-0.0324247807085231,0.0431678432350282,-1.9735505266814,-7.06485956746165e-05,0
0.2,0.000935759840408476,0.000539517739003289,-0.0467483397263645,-0.0270047529465714,0.000649419013832911,-0.000863122710912421,-0.0324231570443233,0.0431671499656405,-1.97355055571361,-6.9576357422393e-05,0
0.21,0.000935730270916755,0.000539517725647238,-0.0467469965395692,-0.0270047530848739,0.000649391796463657,-0.000863111123137233,-0.0324219203223916,0.0431666243439765,-1.97355057786221,-6.87587006718766e-05,0
0.22,0.000935707686344338,0.00053951771665668,-0.0467459667976431,-0.0270047532094032,0.000649371007936213,-0.000863102273732504,-0.0324209721970894,0.0431662213952378,-1.9735505947602,-6.81349073724772e-05,0
0.23,0.000935690573292043,0.000539517709866725,-0.0467451833330911,-0.0270047533231563,0.000649355255719993,-0.000863095568333107,-0.032420250820412,0.0431659148360184,-1.97355060765239,-6.76589925274988e-05,0
0.24,0.000935677418360686,0.000539517704690126,-0.0467445769296471,-0.0270047534291075,0.000649343146921049,-0.000863090413833273,-0.0324196924722781,0.0431656775702815,-1.97355061748829,-6.72958980270977e-05,0
0.25,0.000935667406643017,0.00053951770074125,-0.0467441117857874,-0.0270047535288648,0.00064933393136264,-0.000863086490943018,-0.0324192641839125,0.0431654955904668,-1.97355062499253,-6.70188785684417e-05,0
0.26,0.00094582229644504,0.000544945248441577,-0.0472446045055698,-0.0272764191541726,0.000656548963410748,-0.000872059974368675,-0.0327732312904034,0.0436115925821053,-1.97355058588629,-9.48955846881693e-05,0
0.27,0.000916464902798432,0.000528445252306725,-0.0457981199638763,-0.0264505421680291,0.000636007673242338,-0.000845373611087858,-0.0317661845999337,0.0422848494046181,-1.97355078063204,-1.15748258823849e-05,0
0.28,0.00091533103463094,0.000527402337396279,-0.0456868495671663,-0.0263983416966747,0.000635373311941311,-0.000843969716827763,-0.0316842779815234,0.0421932126828099,-1.97355077387106,-8.83407148145468e-06,0
0.29,0.000934135935432416,0.00053881672475193,-0.0466685582529699,-0.0269696688413132,0.000648199747242842,-0.000861841340626515,-0.0323635074544616,0.0431036048616117,-1.97355062945844,-6.28623918437618e-05,0
0.3,0.000926928033921936,0.000535253348165222,-0.0463096350119856,-0.0267913141767131,0.000642965775117802,-0.000855737540849781,-0.0321032357597425,0.0427988208250305,-1.97355003369104,-6.39177065215546e-05,0
0.31,0.00093561195860897,0.000539271215862708,-0.0467383648608196,-0.0269924256252713,0.000649379961871115,-0.000862837670984772,-0.0324188306321839,0.0431518853752727,-1.97355012525274,-8.35779779428735e-05,0
0.32,0.000936118839980674,0.000539503623978033,-0.0467640516080528,-0.0270040625234924,0.000649755088413935,-0.00086325023482904,-0.0324378957530924,0.0431726630483321,-1.97355024532871,-8.08908481180901e-05,0
0.33,0.000936042122807044,0.00053951702428261,-0.0467608156513674,-0.0270047350040841,0.000649679175098611,-0.000863232555342457,-0.0324346510209113,0.0431720164710159,-1.97355034074413,-7.75008408109789e-05,0
0.34,0.0009359487242657,0.0005395177640618,-0.046756625611925,-0.0270047507836726,0.00064959289679265,-0.000863196675520341,-0.0324307869073636,0.0431703910576585,-1.97355041382857,-7.48129619206179e-05,0
0.35,0.000935874625915708,0.000539517779740259,-0.0467532850558011,-0.0270047539199395,0.000649524673127951,-0.000863167683064393,-0.032427710008526,0.0431690864090083,-1.97355046960939,-7.27545807702613e-05,0
0.36,0.000935817931654022,0.000539517759951653,-0.0467507247539388,-0.0270047541116752,0.000649472486279803,-0.000863145470980409,-0.0324253526569012,0.0431680844458748,-1.97355051216848,-7.11835760403077e-05,0
0.37,0.000935774508739015,0.000539517743016396,-0.0467487592422027,-0.0270047542772728,0.000649432516462553,-0.000863128456717983,-0.0324235429490894,0.0431673152615479,-1.97355054463856,-6.99849488950327e-05,0
0.38,0.000935741563202963,0.000539517729989313,-0.0467472651286011,-0.0270047544222221,0.000649402190789151,-0.000863115547697177,-0.0324221672608751,0.0431667305747851,-1.97355056941135,-6.90704644496217e-05,0
0.39,0.000935716301078146,0.000539517720044115,-0.0467461151505457,-0.0270047545520269,0.000649378937599803,-0.000863105649238098,-0.0324211084316474,0.0431662805688266,-1.97355058831146,-6.83727670468773e-05,0
0.4,0.00093569709255006,0.000539517712455921,-0.0467452373038356,-0.0270047546699072,0.000649361256571831,-0.000863098122766907,-0.0324203001572503,0.0431659370694947,-1.97355060273114,-6.78404654761518e-05,0
0.41,0.000935682424219521,0.000539517706666556,-0.0467445631676066,-0.0270047547788417,0.000649347754702666,-0.000863092375277795,-0.0324196794444961,0.0431656732961719,-1.9735506137325,-6.74343510891982e-05,0
0.42,0.000935671248348634,0.000539517702249608,-0.0467440458677828,-0.0270047548808922,0.000649337467556972,-0.000863087996240062,-0.0324192031341551,0.0431654709045649,-1.97355062212576,-6.71245100075766e-05,0
0.43,0.000935662750030147,0.000539517698879925,-0.0467436488788086,-0.0270047549776701,0.000649329645025956,-0.000863084666350372,-0.0324188375959362,0.0431653155998848,-1.97355062852936,-6.68881197213472e-05,0
0.44,0.00093565623077213,0.000539517696308839,-0.0467433404939969,-0.0270047550705506,0.000649323644198061,-0.00086308211190967,-0.0324185536392721,0.0431651949711315,-1.9735506334148,-6.67077680165044e-05,0
0.45,0.000935651224913295,0.000539517694347129,-0.0467430998796453,-0.0270047551604429,0.000649319036435247,-0.00086308015046008,-0.0324183320815685,0.0431651008649709,-1.97355063714221,-6.65701704093134e-05,0
0.46,0.000935647383207678,0.000539517692850695,-0.0467429114610813,-0.0270047552480419,0.00064931550025622,-0.000863078645158902,-0.0324181585822484,0.0431650271863847,-1.97355063998588,-6.64651916330447e-05,0
0.47,0.000935644472824635,0.000539517691708969,-0.0467427649992511,-0.0270047553338074,0.000649312821322746,-0.000863077504781673,-0.0324180237123097,0.0431649699293552,-1.9735506421554,-6.63850990816929e-05,0
0.48,0.000935642260933522,0.000539517690837839,-0.0467426499477514,-0.0270047554181978,0.000649310785329212,-0.000863076638095916,-0.0324179177621441,0.0431649249657818,-1.97355064381053,-6.63239932366411e-05,0
0.49,0.000935640631119017,0.00053951769017318,-0.0467425613154896,-0.0270047555014422,0.000649309285094987,-0.000863075999492532,-0.0324178361346591,0.0431648903435578,-1.97355064507343,-6.62773731162791e-05,0
0.5,0.000935639350550478,0.000539517689666376,-0.0467424881275651,-0.0270047555839991,0.000649308106358422,-0.000863075497728156,-0.0324177687289299,0.0431648617644573,-1.9735506460368,-6.62418047428243e-05,0
0.51,1.4434632867826,0.00630578215027213,1.7240394844681,-0.314427068523855,-0.0396374425502902,1.44293274144217,-0.369137504781129,1.71315907842485,0.0318316300636228,9.69284094834337,373.153835188022
0.52,1.42230410191895,0.0421772262740462,2.56299642371001,-2.10828965878971,-0.159630158231889,1.41394698957723,-2.44994163037526,2.23866521862117,0.142066300458017,20.3981938466569,373.153835188022
0.53,1.3850642599877,0.0150314734547657,4.1433837419789,-0.746938289803584,-0.435772898286884,1.31481212749508,-2.05254936293863,3.6759470554906,0.330891928304619,31.1381378202303,373.153835188022
0.54,1.35504461820723,-0.0285220649465565,5.27560805810801,1.43630569284003,-0.787520620931922,1.10307329635351,-1.78807871905418,5.16699031550519,0.598970315432967,42.0645524525116,373.153835188022
0.55,1.36314502415143,-0.0681676929872905,4.32778505308319,3.41807541015157,-1.14787841972179,0.738367337287489,-1.52790880953833,5.29891098669418,0.949218243757008,53.6025696671551,373.153835188022
0.56,1.36403461257653,-0.0237887375405565,3.69006856448663,1.19206532712176,-1.34480730151012,0.229455115753943,-3.40516903027601,1.85538395756444,1.38436247494846,64.9006806055974,373.153835188022
0.57,1.28618443136295,-0.0149499550154131,7.15810100630696,0.755975347430172,-1.2131614966018,-0.427472894811201,-7.02137087671095,-1.58437992731864,1.89795150496737,75.1215707489168,373.153835188022
0.58,1.3140534056563,0.0798835900457195,5.32268639063607,-3.98180658468455,-0.864883689551691,-0.992518989452074,-0.0917248195102527,-6.64660519727067,2.48552073554248,85.2686241232522,373.153835188022
0.59,1.27357667284342,-0.0226382350777762,6.7030459042847,1.13326960040461,0.0337032405256954,-1.27333189816183,-1.07498535916339,-6.71263963428199,-3.13290373875475,96.0946489772863,373.153835188022
0.6,1.26474700120199,-0.0184419865438423,6.6182389952401,0.935691032850611,0.875428317022714,-0.912989783990975,3.82561658862578,-5.48099104395409,-2.39177455198601,105.976624153463,373.153835188022
0.61,1.20731942916522,0.0530611679643598,8.91030903617365,-2.63974319567553,1.2068633660678,-0.062582004035306,8.93085231695069,2.56938283485538,-1.57868370527469,116.053248003994,373.153835188022
0.62,1.18663934730088,-0.0127216740641039,9.28953176183852,0.645729392221325,0.745990295781743,0.922915630029701,6.41452613169592,6.75027564681439,-0.690500236890812,126.000049123362,373.153835188022
0.63,1.19071867893432,0.0291418083023641,8.50211165674688,-1.43345296304344,-0.286543565442936,1.15609385538436,-3.62919693019558,7.82110092396896,0.267428009154667,135.547291642073,373.153835188022
0.64,1.17708908720368,-0.0283979597344768,8.48685771982263,1.43442478369389,-1.14103619054212,0.290485068814581,-7.78431789110117,3.67269974090866,1.2973907769641,145.19750056213,373.153835188022
0.65,1.15778972314406,-0.0375250624964797,8.78199335046151,1.87705351377804,-0.75808741301753,-0.875893057146678,-7.33801650846651,-5.17689586746822,2.39576768999404,154.681527056409,373.153835188022
0.66,1.08517853341412,0.0518327937052195,11.7444927428797,-2.56976538001092,0.396895207537929,-1.01132254109138,7.15190252911179,-9.66369981476768,-2.71988233066757,163.667317111863,373.153835188022
0.67,1.18463178725191,0.00874055427755985,6.01823726281192,-0.432190951752876,1.1810979964398,0.0918498310429935,5.95982835002039,0.941496048089561,-1.48580789623569,173.00434962442,373.153835188022
0.68,1.05361840996745,0.0210416967599583,11.8800956748615,-1.04840799209056,0.215575646847455,1.03154333273556,1.16725082850733,11.8690083016692,-0.186050297562755,181.80965411859,373.153835188022
0.69,1.07844107502591,-0.0204310107611773,9.9072146678544,1.05422802455062,-1.00447924112996,0.393031846855626,-8.75340137776321,4.75838875276816,1.17888771991262,190.433086993974,373.153835188022
0.7,1.09978924070993,0.066247527508859,8.05947470862842,-3.29983099542976,-0.617124307946025,-0.912733639910626,-1.26479529902395,-8.61651379787597,2.60723268457643,199.143577602788,373.153835188022
0.71,1.05414769876883,0.0137891006181383,9.56767916451729,-0.68965066020098,0.853291080836274,-0.619121830886895,8.21450223559551,-4.95359017780541,-2.18539753187569,207.648280355994,373.153835188022
0.72,0.973763178758892,-0.0448021035792004,12.8228227526731,2.23692267066718,0.54045565504404,0.811251897823765,9.39499330032446,9.00903475783472,-0.633655966356315,215.877250453782,373.153835188022
0.73,0.932646870003735,0.0620459063050315,14.1132445900518,-3.06878428565542,-0.738816133900695,0.572564929859493,-13.4193679234865,5.34056873231817,0.977929921535023,223.849577402816,373.153835188022
0.74,1.01704721110775,-0.00718762220063701,9.10051823507226,0.400129676549359,-0.475423280317594,-0.899115896904848,-4.6631132215343,-7.82527386026139,2.64812973610886,231.734770652115,373.153835188022
0.75,0.989890087068108,0.067701893899943,9.64622431586384,-3.35156347435781,0.912024153279114,-0.390740162702607,10.2118640323551,-0.0213133597563662,-1.90728315423129,239.479543625801,373.153835188022
0.76,0.941663208950022,-0.0101780339212689,11.2418394427164,0.54297411029226,0.105806630028983,0.935755389247887,1.92257868403797,11.0895205551883,-0.123400763778492,247.082948164638,373.153835188022
0.77,0.971006793375036,0.0279972775295216,8.94708847695177,-1.36890280875664,-0.964889204779701,-0.112369314446303,-8.65603254480072,-2.64525758624294,1.71555759665552,254.542294227252,373.153835188022
0.78,0.838306104803023,0.0315052143588064,14.7487367259046,-1.54667415370872,0.349207582149714,-0.762760623296039,8.0198710866676,-12.4739369767941,-2.67468980385189,261.836015825812,373.153835188022
0.79,0.864825476043182,0.0907781447169471,12.5862147325582,-4.51010234638798,0.643718082852327,0.584628775703431,5.01869806577694,12.392194890072,-0.728881822064401,268.957229772014,373.153835188022
0.8,0.793806538217973,-0.00114159411403092,15.3036286082941,0.094519378907942,-0.758127447390384,0.23531446378849,-14.5810756605827,4.64781831335406,1.26839762344362,275.860898172487,373.153835188022
0.81,0.788003870014532,-0.0165407985978136,14.7544581164174,0.870690732328139,0.152806363284908,-0.773223067759734,1.69857239330211,-14.6821997154782,-2.96747176009378,282.620929279449,373.153835188022
0.82,0.725108146820205,0.0250179367217582,17.0537057250884,-1.20855685615011,0.570830337083905,0.447839757064423,12.2680114247716,11.9073668085826,-0.871064320465937,289.264375878492,373.153835188022
0.83,0.715059680377684,-0.0127127266095934,16.7002912729274,0.627688514885991,-0.687384553160967,0.197419441786729,-15.782949968146,5.49474401363107,1.27334345041706,295.787642451946,373.153835188022
0.84,0.741242722553449,0.0326243064224218,14.5289695823807,-1.64594278062457,0.204382400930792,-0.713255181052166,6.17324547711276,-13.2548528864767,-2.81853705219569,302.101441119103,373.153835188022
0.85,0.67603858128433,-0.0406903140740775,16.9317783190088,2.03611163317319,0.337431616440999,0.587216969501386,11.0039485670572,13.0285833289871,-0.581671866725724,308.226742093454,373.153835188022
0.86,0.738762954409111,0.0763009332876511,12.9631513324201,-3.79429984372336,-0.742451123100753,-0.0189437333774244,-12.3704438266993,-5.42329450627391,1.69922303152395,314.10356206751,373.153835188022
0.87,0.694000066710464,0.0219830672520688,14.354473691527,-1.05510854260295,0.521559845112802,-0.458360857628406,11.7480364528813,-8.31551612945264,-2.26012440810383,319.914986565282,373.153835188022
0.88,0.602867643484854,0.0243965261549046,18.063701828662,-1.23855301333677,-0.0394411820484007,0.602070576600479,-3.1402943646107,17.8317101991157,0.105861162185306,325.588985205344,373.153835188022
0.89,0.658778159212668,-0.0291229096958749,14.4057358543079,1.44995459903839,-0.364038896164309,-0.549829509033716,-9.64797352332101,-10.795563937871,2.51258363289688,331.104548335391,373.153835188022
0.9,0.642144896399173,0.0431281797728254,14.3958915392996,-2.13128347539066,0.63323540537474,0.114991431167326,13.4395762371791,5.58228027143038,-1.32409835347935,336.387305971719,373.153835188022
0.91,0.567857943129656,0.0133044510139897,17.280222028159,-0.619221287530461,-0.515474446373233,0.238591171522411,-16.0944385148411,6.32127813321012,1.1607266651828,341.533470886192,373.153835188022
0.92,0.561508875933257,0.0321652281848749,16.7420418185768,-1.62760076406431,0.261830164110261,-0.497766797625161,10.0234161236023,-13.5083743550165,-2.60013341945063,346.640239010525,373.153835188022
0.93,0.565776228944754,-0.0243958943608599,15.6892631936445,1.24594027557796,-0.000992613442557563,0.566301082127843,1.89328270019947,15.6243664622563,-0.0413398406831558,351.511997254452,373.153835188022
0.94,0.448905547105406,-0.0099397291750395,20.7000827968245,0.541019412211627,-0.241000480419435,-0.378858491888038,-11.944230810108,-16.9151257800421,2.55289643489831,356.273288372508,373.153835188022
0.95,0.496079060085832,0.0494063767773517,17.5105211848103,-2.48363155507451,0.464865508015144,0.180098537972219,14.4983574970277,10.1283961096233,-1.10191453998152,360.852006546648,373.153835188022
0.96,0.512587267810493,0.0374248376182854,15.8623702419803,-1.8313701009797,-0.512129113153672,0.0432446187705958,-15.8821484930399,-1.65108006633674,1.55943763537939,365.280202426264,373.153835188022
0.97,0.411351999763828,-0.012829145688818,20.1010594602412,0.614743662935082,0.374376795618922,-0.170930013721738,17.7435814723461,-9.46550673389895,-2.0302798347362,369.60022657755,373.153835188022
