t,iq,id,vq,vd,ia,ib,va,vb,theta_e,omega,r
0,0,0,0,0,0,0,0,0,0,0,0
0.01,0.00100736550306956,0.000567914352944143,-0.0496499773254151,-0.02843422431918,-0.000481894859352913,0.00105123228336262,0.023490722525958,-0.0521709815535047,0.943172802055266,-0.00147808540977659,0
0.02,0.00111304850669176,0.000628348145698236,-0.0549953337416918,-0.0314600168706497,-0.000531936755550163,0.00116221411906152,0.0260399536659945,-0.0577593300509492,0.943162047749798,-0.00151218125188822,0
0.03,0.00115198717115925,0.000651024808380688,-0.0569547959795665,-0.0325953883360047,-0.000550125346382979,0.0012034408364808,0.0269586246771429,-0.0598292627513154,0.943151534274425,-0.00144420998489443,0
0.04,0.00112644385279287,0.000637995692160947,-0.0557513432689022,-0.03194304714694,-0.000537090535045369,0.00117789983185135,0.0263670712437907,-0.0585947787037673,0.943142245871828,-0.00128983130366468,0
0.05,0.00114877908781618,0.000651299461402055,-0.0568893889404743,-0.0326091279106898,-0.000547345636839521,0.00120178913910017,0.0268965322238788,-0.0598024610818496,0.943133429118638,-0.00121659108925743,0
0.06,0.00114786570543645,0.00065168568940973,-0.0568857167108066,-0.0326284893496503,-0.000546369783132512,0.00120156979638234,0.0268817046548481,-0.0598161937755312,0.943125318221501,-0.00111544547957518,0
0.07,0.0011782792969079,0.000669754423737158,-0.0584115303773328,-0.0335331323442231,-0.000560366386203844,0.00123405940004933,0.0275849838158685,-0.0614446622068632,0.943118015686845,-0.00107353172358683,0
0.08,0.00114596940279935,0.000652220169464625,-0.0568644383072842,-0.0326552247932964,-0.000544504047950177,0.00120089648320521,0.0268479347162014,-0.0598257173110213,0.943111167692043,-0.000938505455239407,0
0.09,0.00114369642134997,0.000651703627034416,-0.0567842751284574,-0.0326293713162441,-0.000542960298898106,0.00119914687820926,0.0267978670859882,-0.0597578789282166,0.943105018410647,-0.000859334487869466,0
0.1,0.00114249761843414,0.000651685992549133,-0.0567539324807844,-0.0326284833328829,-0.000541993646862101,0.00119843161163812,0.0267734949662685,-0.0597394906567578,0.943099415522391,-0.000788570449427205,0
0.11,0.00114143261523196,0.000651683197188015,-0.0567276326691238,-0.0326283530719384,-0.000541127175860971,0.00119780665558228,0.0267519798148059,-0.059724076455131,0.943094307835413,-0.000724104863249643,0
0.12,0.00114046272335932,0.000651681037123696,-0.0567037039888485,-0.0326282461177909,-0.000540337859374316,0.0011972378190007,0.0267323972210569,-0.0597100613765697,0.94308965149714,-0.000665337295357429,0
0.13,0.00119501742000233,0.000682903192338043,-0.0593975369602262,-0.0341914660302138,-0.000566150950988078,0.00125455031979981,0.0279943727640419,-0.0625574842827345,0.943085081786857,-0.00069500709633826,0
0.14,0.00125685807843608,0.000719363167020423,-0.0625715803315461,-0.0360169534843131,-0.000594784985135154,0.00132038116347268,0.0294909904658896,-0.0658992039771279,0.943080949666658,-0.000741521988061662,0
0.15,0.00114164877810941,0.000653658652852784,-0.0568251701573999,-0.0327272530144414,-0.000540121352616149,0.00119954178395591,0.0267718128834406,-0.0598618667285173,0.94307711554184,-0.000513096166435782,0
0.16,0.00113731762041081,0.000651731917252326,-0.0566290558355544,-0.0326308042373511,-0.000537743655696029,0.00119544034665933,0.0266695405272872,-0.0596687100419144,0.943073966912814,-0.000467574314263553,0
0.17,0.00113660422707291,0.00065167418016296,-0.056608585718773,-0.0326278987604342,-0.000537196750886506,0.00119497617420937,0.0266545085121265,-0.0596544124988067,0.943071107651651,-0.000431301891735271,0
0.18,0.00113605746451501,0.000651671322873305,-0.0565949916789404,-0.0326277615080743,-0.000536752784630242,0.00119465414406321,0.0266434311202231,-0.0596463870013016,0.943068501409662,-0.000398402612891375,0
0.19,0.00113556250684771,0.000651670176476569,-0.0565827678425769,-0.032627705672187,-0.000536350019249481,0.00119436379831203,0.0266334286808053,-0.059639225941173,0.943066125482219,-0.000368415903368902,0
0.2,0.00113511143775559,0.000651669173926794,-0.0565716296583064,-0.0326276497781502,-0.000535982943184362,0.00119409923079509,0.0266243175144475,-0.0596326968125045,0.943063959506236,-0.000341079171294308,0
0.21,0.00113470018270523,0.000651668261055596,-0.056561471446766,-0.0326275967401729,-0.000535648267999012,0.00119385801504541,0.0266160092624259,-0.0596267404123781,0.943061984928923,-0.000316158081218775,0
0.22,0.00113432517088663,0.000651667428751314,-0.056552204010356,-0.0326275706945329,-0.000535343088511239,0.00119363805593889,0.0266084165410382,-0.0596213243482085,0.943060184837053,-0.000293439167254336,0
0.23,0.00113398353219716,0.000651666669881498,-0.0565437652798142,-0.0326275175479652,-0.000535065067337441,0.00119343767061542,0.0266015199588469,-0.0596163688028764,0.943058543812142,-0.000272727831837768,0
0.24,0.00113367173389453,0.00065166597797548,-0.0565360528083203,-0.0326274884751045,-0.000534811332061898,0.00119325478678292,0.0265952057014836,-0.0596118554067396,0.943057047797907,-0.000253846673372663,0
0.25,0.00113338775885648,0.000651665347131626,-0.0565290334361312,-0.0326274622561685,-0.000534580238132987,0.0011930882220421,0.0265894586258678,-0.0596077478561655,0.943055683980368,-0.000236633966527073,0
0.26,0.00114481119636486,0.000658190678155511,-0.0570943871060022,-0.0329541737422822,-0.000539991968979618,0.00120507938226935,0.0268550749076813,-0.0602042486685897,0.943054471643901,-0.000239706195362224,0
0.27,0.00110470303331781,0.000635515796929831,-0.055137238189931,-0.0318188938157912,-0.000520846107483294,0.0011631717208944,0.025937742797413,-0.0581359659543817,0.94305321123194,-0.00016109821953173,0
0.28,0.00109882289390892,0.00063194634408643,-0.054737519637538,-0.0316401753084231,-0.000518182184134693,0.00115682978783742,0.0257191329144572,-0.0577565836225282,0.943052163212238,-0.000138961728219903,0
0.29,0.00113139489471432,0.000651085556323151,-0.0564534088149808,-0.032598426408026,-0.000533302638557296,0.00119145084042359,0.0265450455856875,-0.0595399473124105,0.943051333542647,-0.000180017087524311,0
0.3,0.00112606397281262,0.000648311005389512,-0.0561944031995439,-0.0324595185072313,-0.000530617126638937,0.00118607448985852,0.0264169788437724,-0.0592754124527353,0.943050944421708,-0.000166845052648746,0
0.31,0.00113202922925067,0.000651564553558241,-0.0564904890319968,-0.0326224101004057,-0.000533533290544255,0.00119221171408959,0.0265608993128588,-0.0595811683296441,0.943050139136514,-0.000166332284407044,0
0.32,0.00113206928124829,0.000651659554805065,-0.0564962381778029,-0.032627182830543,-0.000533509012960965,0.00119231252866192,0.0265627044200895,-0.0595884277489486,0.943049386426827,-0.000157142351628403,0
0.33,0.00113193268815597,0.000651662030951204,-0.0564930061882806,-0.0326272959815923,-0.000533396187839672,0.00119223467484282,0.0265599812203632,-0.0595866393483765,0.943048699634141,-0.000148484313374084,0
0.34,0.00113180261417453,0.000651661823005805,-0.0564897861701332,-0.032627272340842,-0.000533290287840429,0.00119215844496888,0.0265573516682565,-0.0595847456512101,0.943048073511488,-0.000140582350948819,0
0.35,0.0011316836377158,0.000651661561181935,-0.0564868290683772,-0.0326272727461399,-0.000533193467334867,0.00119208865970076,0.0265549240840985,-0.0595830243604572,0.943047502716141,-0.000133378363897829,0
0.36,0.00113157544981143,0.000651661320366044,-0.0564841450513284,-0.0326272461439224,-0.000533105426426458,0.00119202520082078,0.0265527363908001,-0.0595814402584923,0.943046982359593,-0.000126810954770539,0
0.37,0.00113147649678803,0.000651661100758602,-0.056481679967349,-0.0326272464968282,-0.000533024902198334,0.00119196715838234,0.0265507128010735,-0.0595800053344554,0.943046507985119,-0.000120823880737175,0
0.38,0.00113138627491375,0.000651660900547508,-0.0564794300882263,-0.0326272468256527,-0.000532951483159754,0.00119191423725175,0.026548865900543,-0.0595786956714218,0.943046075529122,-0.000115365860221824,0
0.39,0.00113130428045651,0.000651660718021614,-0.0564773897830907,-0.0326272201602478,-0.000532884758191681,0.00119186614218152,0.0265472067511115,-0.059577486232722,0.943045681287478,-0.000110390142912782,0
0.4,0.00113122942540469,0.000651660551619144,-0.0564755224869213,-0.0326272204484978,-0.000532823843592912,0.00119182223470485,0.0265456738724312,-0.0595763992955612,0.943045321883396,-0.000105854109625965,0
0.41,0.00113116108961088,0.000651660399916827,-0.0564738134444348,-0.0326272207186352,-0.000532768234605078,0.00119178215109357,0.0265442709798982,-0.0595754044461731,0.943044994238542,-0.000101718907261719,0
0.42,0.0011310988074138,0.000651660261615647,-0.0564722541888131,-0.0326272209719423,-0.00053271755175583,0.00119174561830668,0.0265429910527537,-0.0595744967875626,0.943044695546354,-9.79491160123019e-05,0
0.43,0.00113104242432707,0.000651660135532613,-0.0564708505133944,-0.0326271942433811,-0.000532671667651098,0.00119171254602435,0.0265418544645485,-0.0595736579662873,0.943044423248361,-9.45124459741195e-05,0
0.44,0.00113099050309035,0.000651660020588672,-0.056469542870835,-0.0326271915587317,-0.000532629416893768,0.00119168209048118,0.0265407829127866,-0.0595728943683919,0.943044175012497,-9.1379460574132e-05,0
0.45,0.00113094335488509,0.0006516599157995,-0.0564683580421765,-0.0326271917710661,-0.000532591049378023,0.00119165443478425,0.0265398103660507,-0.059572204664419,0.943043948711991,-8.852332442764e-05,0
0.46,0.00113090028121608,0.000651659820268279,-0.056467271344706,-0.0326271919719412,-0.000532555997990889,0.00119162916899958,0.02653891844007,-0.0595715720551495,0.943043742408985,-8.59195734847855e-05,0
0.47,0.00113086104925268,0.000651659733177339,-0.0564662804676885,-0.0326271921620255,-0.00053252407266219,0.00119160615666289,0.026538105158899,-0.0595709952309731,0.943043554336056,-8.35459054870265e-05,0
0.48,0.00113082562092357,0.000651659653781134,-0.0564653920011972,-0.0326271653811987,-0.000532495241094909,0.00119158537567167,0.026537391594614,-0.0595704562851005,0.943043382882438,-8.13819889338582e-05,0
0.49,0.00113079302463351,0.00065165958139979,-0.0564645651407689,-0.0326271655534354,-0.00053246871557646,0.00119156625561582,0.0265367129635826,-0.0595699749343228,0.943043226579594,-7.94092889377903e-05,0
0.5,0.00113076333872649,0.000651659515413874,-0.0564638108560448,-0.0326271657174433,-0.000532444558281205,0.00119154884272281,0.0265360938993813,-0.0595695358358946,0.943043084088564,-7.76109084649622e-05,0
0.51,4.42757604982767,0.0338070852795352,8.01503024617758,-1.68665285986614,-0.291130952463239,4.41812351168916,-2.27016202420638,7.86968055899903,0.0734350059955592,22.4088978801312,508.249517584363
0.52,4.21540828115893,0.037295948231029,9.55361123749978,-1.85430609050386,-1.31983938900374,4.00363359360618,-4.82713834716953,8.4503653253482,0.327288564307233,46.7068411487739,508.249517584363
0.53,4.05367779863013,-0.0226984349567114,8.67917071792182,1.15755899039206,-2.80120708022369,2.93019757145503,-5.12104502936653,7.10231264971273,0.757296641221911,70.6467948107675,508.249517584363
0.54,3.92509217252754,-0.033912306632391,5.69834306584158,1.71605914613612,-3.84932166183158,0.768258648589318,-5.22789012040871,2.84343763392047,1.36516222943704,95.374062935402,508.249517584363
0.55,3.68398322238919,0.0495640704724263,8.9075241044096,-2.46019839970959,-3.10984393128405,-1.9756162843484,-6.10666068496608,-6.93579534842697,2.15020576495606,118.143036172595,508.249517584363
0.56,3.46356822637054,0.0555396586323805,12.2725990041311,-2.74638434201265,-0.230469929215714,-3.45633810905876,2.12278772909906,-12.39568818289,3.0910448531482,138.431031652086,508.249517584363
0.57,3.41119085873015,-0.00291484623247013,6.79204602623476,0.168263720450772,2.94532754994538,-1.72083619050317,5.77652250801565,-3.57658910367125,-2.10041616662038,159.627668699824,508.249517584363
0.58,3.24335579161057,-0.0511797921201067,7.92735587968533,2.60146119471302,2.42387756722473,2.1556422943522,7.70396248089721,3.20305068391173,-0.859682690251271,178.466763284389,508.249517584363
0.59,3.03870073119953,0.0292993619644291,10.8619397857329,-1.44385719887139,-1.47809770939055,2.65514363978646,-6.62924229271566,8.72465507307252,0.517608410474314,197.541694717294,508.249517584363
0.6,2.92408552620938,0.00854683687421676,9.98984351802522,-0.38052667951108,-2.6256877614112,-1.28690053717574,-8.78900187462961,-4.76395005391612,2.02943116731106,214.671900654918,508.249517584363
0.61,2.78281624127085,-0.00497465561465504,10.3005647076158,0.280046715410998,1.40205337406512,-2.40381723850876,4.93160540438971,-9.04761446979185,-2.61535964359167,232.020315453058,508.249517584363
0.62,2.6794056294188,0.0754327355911489,9.33645871388764,-3.75315370341351,2.07425469429463,1.69775501405727,4.59768916228237,8.95080322678396,-0.856737381054096,248.119980236556,508.249517584363
0.63,2.54318705599111,0.0717117194894783,10.247906216867,-3.53712041843867,-2.12741499598505,1.39536676444969,-10.5799394733269,2.36551969448068,1.01847631902962,263.188682347181,508.249517584363
0.64,2.38426684103566,-0.0212806980200567,12.3880563979965,1.10817660739414,-0.306563336918919,-2.36457187622358,-2.80001038970262,-12.1182481626131,3.00373803393423,277.996724902245,508.249517584363
0.65,2.34149865082595,0.0192901270675343,8.99832345174045,-0.934728125248573,2.18056844373548,0.8532932104541,8.00450739640624,4.21561418433314,-1.18955956732007,292.154210184096,508.249517584363
0.66,2.18380474992267,-0.0216219932355863,11.6698356811797,1.10427207577373,-1.84978807178375,1.16092841547739,-9.22628460933852,7.23050163892877,1.00042823987106,305.521168455662,508.249517584363
0.67,2.02540759886144,0.0905813225483625,14.6208237698847,-4.5184474584112,0.20172019395167,-2.01737202341868,6.57468997799995,-13.8187664730842,-2.99723961400677,318.25827726098,508.249517584363
0.68,1.9674589329716,0.00973245235700115,12.7635858339666,-0.470017803667928,1.15146320467798,1.59534380678001,7.03608945107635,10.6594317537686,-0.620237768096228,330.333605289099,508.249517584363
0.69,1.9024609833102,-0.0125008587831191,11.4340581060545,0.6556420477707,-1.82867071124289,-0.524859499609499,-11.1875533114989,-2.45075542839462,1.84372913193029,341.917216374155,508.249517584363
0.7,1.7911989040186,0.0328020378459725,12.6036179971513,-1.61065815346695,1.68905409797362,-0.597131259910917,12.4667792044998,-2.45455139927768,-1.8923015773758,352.945796459191,508.249517584363
0.71,1.64199399088219,-0.0242936694430361,15.8716063261523,1.23404420996138,-1.11760167403997,1.20320444923183,-9.71190471535796,12.6138677369118,0.733735800496904,363.468202733329,508.249517584363
0.72,1.60968381845788,0.0507310933636047,13.457667572483,-2.52949462200689,0.417169943728356,-1.55551434493183,6.31502469987886,-12.1502108036915,-2.84806491422005,373.525775834087,508.249517584363
0.73,1.46807660162856,0.0521055659964923,16.7028195497449,-2.601117737424,0.162283942407355,1.46000952746679,-1.33854826246679,16.8510617749841,-0.0752207524421095,383.029449773677,508.249517584363
0.74,1.45470385180477,-0.0715059390966962,13.6894076275975,3.59243958781527,-0.467480781825709,-1.37939773611724,-8.36677473488533,-11.4150157215096,2.76572316706982,392.134857593725,508.249517584363
0.75,1.37945664469883,-0.000475540598595336,13.9362135716866,0.044740542110589,0.791366599661403,1.12988484620468,8.03549742586289,11.3864319060328,-0.61133628228186,400.778478435538,508.249517584363
0.76,1.29940715819882,-0.00919985670832757,14.6126173143579,0.495242344496551,-0.911824098188229,-0.92580797906748,-10.677581207592,-9.98814844257595,2.3567241483576,408.944206542239,508.249517584363
0.77,1.25664086613878,-0.0404894558793797,13.5818386237606,2.07626013609349,0.958870807425499,0.813235782018107,11.926950370805,6.82092745944129,-0.89960500485635,416.728392489713,508.249517584363
0.78,1.11233541392159,0.0238826873449084,17.7204482165645,-1.1461898734485,-0.923863447352104,-0.619949019247241,-13.8402401757955,-11.1254567590835,2.18328774645325,424.24055415295,508.249517584363
0.79,1.09551411626693,-0.0149184431481152,15.5946679614284,0.745863672759005,0.891061578098468,0.637481766737484,13.2311611934655,8.2877231443911,-0.963414195228436,431.43646224686,508.249517584363
0.8,1.11160750046851,0.0626411128636126,11.9946459174527,-3.12057021084468,-0.921046620239489,-0.625514402283476,-7.63215585890014,-9.76522841879965,2.22367310287659,438.129062791373,508.249517584363
0.81,1.0376385833599,-0.00705013506548116,13.0403536314405,0.393695046012337,0.756856116113501,0.709867842336282,9.83920844415387,8.56713463269775,-0.824217717131949,444.499728413706,508.249517584363
0.82,0.97933287104967,0.0263128108427382,13.406194956279,-1.26875593465524,-0.639692322054293,-0.742010087153552,-7.49493252265255,-11.1875730749957,2.45697316454323,450.616334229099,508.249517584363
0.83,0.942640874659672,0.0777650912520705,12.7551450879703,-3.89602787972776,0.521167128153546,0.789306057577654,2.71252467443041,13.0581380504801,-0.501261002618726,456.489940612702,508.249517584363
0.84,0.864069365962082,-0.0307803114961559,14.3394453770936,1.56702772115972,-0.206085894054971,-0.839697505677776,-5.41908354912246,-13.3682011912285,2.86531352214753,461.98508742598,508.249517584363
0.85,0.869189481983893,0.058895869638217,11.8733208287374,-2.90047054596476,0.0693076592378552,0.868421284528909,-2.7579771531003,11.907226331649,-0.0119838863729855,467.206650805999,508.249517584363
0.86,0.758508372580514,0.0178677864029279,15.2224026231089,-0.903496920019532,0.199791946943422,-0.731940835725291,5.21897303627983,-14.3282995764013,-2.851570128706,472.259044979364,508.249517584363
0.87,0.744022752416007,0.0489986361299098,13.9228583766929,-2.42754865389379,-0.397205198268353,0.631029914444538,-10.140096715912,9.84466436382777,0.627558204641341,476.92737747024,508.249517584363
0.88,0.66900654102442,-0.00379802237369237,15.7472596737027,0.232621228405284,0.56450521027433,-0.359051590277142,13.1131155255126,-8.72218442143299,-2.1429768665318,481.384025254147,508.249517584363
0.89,0.697610388161646,0.0598411796808534,12.4286485930025,-2.99924101148531,-0.677576072294995,0.17644230419581,-12.7561961932251,-0.863835153988951,1.40162232318325,485.655892824555,508.249517584363
0.9,0.570215904352467,-0.0340233705552406,17.0242801572609,1.73891102819816,0.541543552823443,0.181753535634946,16.8876295103823,2.76729036368828,-1.30658490768269,489.663895668294,508.249517584363
0.91,0.536475637536495,0.0303703747256756,17.0062519758308,-1.53984464360694,-0.421255811403113,-0.333574595391003,-11.6917903107334,-12.4453110496176,2.29710315567274,493.514283345956,508.249517584363
0.92,0.5420387912413,0.027780687650781,15.1007602559281,-1.37441506232222,0.214518079729969,0.4985577311462,3.96198798624691,14.6364144607684,-0.355124664421075,497.098518990655,508.249517584363
0.93,0.477457115147922,0.0284566392531335,16.7711172022157,-1.39516482606232,0.0480099030520477,-0.475888775169043,4.05050630872606,-16.3343275265714,-2.98151813562693,500.556907995854,508.249517584363
0.94,0.443730527409572,-0.00674706491565316,16.9643745724918,0.33491620423758,-0.290956460014254,0.335091990677376,-10.6701103982264,13.1928358433404,0.699811875100323,503.802171944511,508.249517584363
0.95,0.498449391630693,-0.0423819146254044,12.8404000737276,2.16272563557356,0.196704702896827,-0.459951391521533,1.97723547617329,-12.870267910961,-2.82229114115801,506.813039746519,508.249517584363
0.96,0.435403590281545,-0.0123361393302499,14.6257623846227,0.603599966145598,-0.349723823304441,0.259656916289474,-11.1179229057436,9.52202964249314,0.903811450425603,509.743988249509,508.249517584363
0.97,0.354287674123856,-0.0351506575998372,17.3884278979314,1.79292887419331,0.355782339717634,0.0132004360094214,17.2444839901146,-2.86352765381401,-1.63260215805748,512.47449744163,508.249517584363
0.98,0.351675346349458,0.0054512819322307,16.2691406856118,-0.295201179441728,-0.300307375236695,-0.18308671738595,-13.600612629735,-8.93282813449731,2.13379137115167,515.10884753204,508.249517584363
