t,iq,id,vq,vd,ia,ib,va,vb,theta_e,omega,r
0,0,0,0,0,0,0,0,0,0,0,0
0.01,0.000659930186386727,0.000372568046983213,-0.0325873495888524,-0.0186523436613204,0.0001515059140543,-0.0007425367051829,-0.00728889927044923,0.0368336425664273,-2.42636667101536,-0.00135406513752116,0
0.02,0.000730362147347646,0.000412646688366814,-0.0361353213984854,-0.0206588643432423,0.00016742902390619,-0.000821993721175645,-0.00810039879444972,0.0408280989992824,-2.42637659221163,-0.00139779448516677,0
0.03,0.00075703597217084,0.000428093050614175,-0.0374705728577604,-0.0214321708970283,0.000173251603199393,-0.000852262286584147,-0.0083918073344533,0.0423433507095219,-2.42638637880269,-0.0013474565183138,0
0.04,0.000739943845598978,0.000419234634974712,-0.036653609900483,-0.0209886800299442,0.000168723484889637,-0.000833550813957302,-0.00819051943643745,0.0414358202464667,-2.42639512706222,-0.00121306255742783,0
0.05,0.000755291618365771,0.000428317146312285,-0.0374289023057555,-0.021443381715325,0.000171923962186026,-0.000851095269535052,-0.0083552933456274,0.0423193858687888,-2.42640348358024,-0.00115385794702642,0
0.06,0.00075491467653247,0.000428630331540664,-0.037430342139546,-0.0214590634689529,0.000171433729207262,-0.00085101739491674,-0.00834406978266885,0.04233082112492,-2.4264112440701,-0.00106692707265529,0
0.07,0.000774665529186597,0.000440351513978023,-0.0384184970854798,-0.0220458856078233,0.000175530085169916,-0.000873616235639499,-0.00854871459470074,0.0434617241871351,-2.42641829623606,-0.00103181117830178,0
0.08,0.000753955871614594,0.000429044379269293,-0.0374184888155003,-0.021479788349198,0.00017048072220463,-0.000850567374804185,-0.00832006925298576,0.0423355767692798,-2.42642496561224,-0.000912583174240416,0
0.09,0.000752430591985792,0.000428650270846952,-0.0373591203663666,-0.0214600717615696,0.000169772938720474,-0.000849158406736616,-0.00829576874262512,0.0422778757215789,-2.42643101366428,-0.000842145390806104,0
0.1,0.000751688710564314,0.000428635097428607,-0.0373369747789488,-0.0214593022479613,0.000169293194654723,-0.000848589287335794,-0.00828159297453681,0.0422606975382248,-2.4264365745195,-0.000778823470148259,0
0.11,0.00075103096772835,0.00042863319624609,-0.0373178160333906,-0.0214592069355099,0.000168858986171966,-0.00084809231466869,-0.00826888574553552,0.0422462126625607,-2.42644169034109,-0.000720623594254902,0
0.12,0.000750426629496455,0.000428631865227153,-0.0373002266098727,-0.0214591528329629,0.000168459718120064,-0.00084763596284987,-0.00825719388553134,0.0422329361351192,-2.42644639685472,-0.000667082238415516,0
0.13,0.000786177092229093,0.000449120835543784,-0.0390679576777316,-0.0224849120254047,0.00017642907123978,-0.000888063470753531,-0.00864169452628422,0.0442402271876355,-2.42645101663775,-0.000693895390240629,0
0.14,0.000824335299652482,0.000471618742023341,-0.0410205219625524,-0.0236112608674764,0.000184460468499789,-0.000931626137268413,-0.009071448184157,0.0464530267008988,-2.42645524692653,-0.000730288799568844,0
0.15,0.000751613579830901,0.000430120507565388,-0.0373914143524221,-0.0215336649220486,0.00016810323676051,-0.000849510403823972,-0.00826018955902359,0.0423507480535891,-2.42645920040396,-0.000527609777400215,0
0.16,0.000748464085067354,0.000428679154951634,-0.0372452461605563,-0.0214615159306355,0.000167123477559189,-0.000846187950619885,-0.00821867732060438,0.0421931080948197,-2.42646251848907,-0.000483915565350919,0
0.17,0.000747971212551841,0.000428628305076742,-0.0372288436714914,-0.0214589592370185,0.000166836113712815,-0.000845782992191518,-0.0082097240265225,0.0421790725841703,-2.42646555906911,-0.000449101632879857,0
0.18,0.000747608289581769,0.00042862578686846,-0.0372181961814293,-0.0214588370955081,0.000166597676773673,-0.000845507796483036,-0.00820271659670378,0.0421709764758308,-2.42646835592653,-0.000417276138397935,0
0.19,0.000747277846553818,0.000428625006428324,-0.0372085679713761,-0.0214587993161082,0.000166379415889029,-0.000845258224481855,-0.00819632330457736,0.0421637033816571,-2.42647092899799,-0.000388004574293541,0
0.2,0.000746974004427373,0.000428624341628714,-0.0371997164090044,-0.0214587629657542,0.000166178685349208,-0.000845028777061777,-0.00819044690327394,0.0421570158865096,-2.42647329620401,-0.000361075237744412,0
0.21,0.000746694346652768,0.000428623731756821,-0.0371915650627585,-0.0214587458482566,0.000165993932246968,-0.000844817592859865,-0.00818502313140128,0.0421508680994341,-2.42647547401636,-0.000336300455516516,0
0.22,0.000746437187069284,0.000428623170648401,-0.0371840703474661,-0.0214587094431703,0.000165824042575443,-0.000844623397474005,-0.00818005184793873,0.0421452019847663,-2.42647747758791,-0.000313507837064125,0
0.23,0.000746200486547895,0.000428622654354367,-0.0371771677897417,-0.0214586922615561,0.000165667670277734,-0.000844444651220461,-0.00817546110760937,0.0421399942349396,-2.42647932085885,-0.00029253879442988,0
0.24,0.000745982966381742,0.000428622179299732,-0.0371708279033005,-0.0214586572623285,0.00016552396860279,-0.000844280388577952,-0.0081712589975112,0.0421351984083908,-2.42648101665479,-0.000273247428230079,0
0.25,0.000745782645646546,0.000428621742195134,-0.0371649833531916,-0.0214586385685787,0.000165391631034855,-0.000844129113828912,-0.00816737510111269,0.0421307861405128,-2.4264825767745,-0.000255499512108,0
0.26,0.000753319374761788,0.000432952288520798,-0.0375387424970354,-0.0216754472383357,0.000167062617209271,-0.000852659279230618,-0.00824869429624137,0.042555155312227,-2.42648398108117,-0.000256376658546752,0
0.27,0.000727613803790707,0.000418394595276801,-0.0362798998877365,-0.020946628389834,0.000161197680435715,-0.000823705768248447,-0.00797348690431588,0.0411268268086986,-2.42648542092127,-0.000184263939868588,0
0.28,0.000724464936537088,0.000416505063767077,-0.0360652209081319,-0.0208520295856025,0.000160558607571863,-0.000820089535325191,-0.00790409636986751,0.0409027206621643,-2.42648664678572,-0.000163785594764772,0
0.29,0.000744345365396568,0.00042819976773449,-0.0371074015943998,-0.0214375144278354,0.000164763517392076,-0.000842768086374782,-0.00814535382143385,0.0420735010315919,-2.42648766456792,-0.0001959080302264,0
0.3,0.000740434933809837,0.000426156867118245,-0.0369168811984506,-0.0213352461168629,0.000163741397947887,-0.000838476189999506,-0.00809762022480665,0.0418626013403662,-2.42648826353427,-0.000180722617571731,0
0.31,0.000744755309996987,0.000428534375127586,-0.0371315255631269,-0.021454270287843,0.000164778365363821,-0.000843297262383038,-0.00814845511162803,0.0421027146811551,-2.42648922344667,-0.000179506642085937,0
0.32,0.000744807090684928,0.000428616658284139,-0.0371363710629129,-0.0214583849820316,0.000164749430485429,-0.000843390459542871,-0.00814848757153813,0.0421090784992491,-2.42649012619319,-0.000169602976547442,0
0.33,0.000744706770852145,0.000428619290180071,-0.037133562143069,-0.0214585101556173,0.00016468096312375,-0.000843316578072631,-0.00814651626606672,0.0421070465392505,-2.426490957454,-0.000160160358089101,0
0.34,0.000744608690947984,0.000428619175189639,-0.03713069194739,-0.0214585148457354,0.000164616094623488,-0.000843242575636707,-0.00814459855318645,0.042104888769406,-2.42649172223573,-0.000151460722610478,0
0.35,0.000744518440899462,0.000428618981348773,-0.0371280490179304,-0.0214584974008503,0.000164556471344174,-0.000843174423088473,-0.00814284914918768,0.0421028875769075,-2.42649242583025,-0.00014345665020696,0
0.36,0.000744435320359783,0.000428618799950614,-0.0371256112842597,-0.0214584976903332,0.000164501560993249,-0.000843111652333818,-0.00814122327340133,0.0421010524805333,-2.42649307313202,-0.000136092944238686,0
0.37,0.000744358923734378,0.000428618632951096,-0.0371233705579989,-0.0214584802165144,0.000164451092330473,-0.000843053959178879,-0.00813974216826467,0.0420993540594534,-2.42649366864516,-0.00012931838781996,0
0.38,0.000744288608880085,0.000428618479302088,-0.0371213058652591,-0.021458480475415,0.00016440464158867,-0.000843000858796708,-0.0081383651059387,0.0420977997864298,-2.42649421651263,-0.00012308584533242,0
0.39,0.000744223970202005,0.000428618337940036,-0.0371194071811182,-0.0214584629767248,0.000164361940397041,-0.000842952044893797,-0.00813711214843929,0.0420963588530509,-2.42649472054674,-0.00011735195173026,0
0.4,0.000744164365555814,0.000428618207882679,-0.0371176518147525,-0.0214584617546095,0.00016432256547989,-0.000842907032575808,-0.00813594257281093,0.0420950364718593,-2.42649518425458,-0.000112076811463943,0
0.41,0.000744109533939306,0.000428618088226914,-0.0371160353909835,-0.021458461975426,0.000164286343652642,-0.000842865624725503,-0.00813486457401463,0.0420938196396809,-2.42649561086203,-0.000107223720918569,0
0.42,0.000744059330760936,0.000428617978140447,-0.0371145586651614,-0.0214584444451539,0.000164253178224887,-0.000842827712121902,-0.00813389301414368,0.0420926963658772,-2.42649600333803,-0.000102758913036739,0
0.43,0.000744012881047589,0.000428617876858778,-0.0371131852119508,-0.0214584446455719,0.000164222493753533,-0.000842792634088025,-0.0081329771045057,0.0420916624357036,-2.42649636441288,-9.86513223712533e-05,0
0.44,0.000743970273039858,0.000428617783677799,-0.0371119262247068,-0.0214584448360307,0.000164194346504849,-0.000842760457204605,-0.00813213747325107,0.0420907146886959,-2.42649669659908,-9.48723689370245e-05,0
0.45,0.000743930924661133,0.000428617697949883,-0.0371107587765257,-0.0214584450180338,0.00016416835335261,-0.0008427307419458,-0.00813135898885533,0.0420898358342703,-2.42649700220806,-9.1395759358358e-05,0
0.46,0.000743895040567164,0.000428617619078811,-0.0371096988434715,-0.021458427455774,0.0001641446471413,-0.000842703642795063,-0.00813066542811549,0.042089026323068,-2.42649728336592,-8.81973039197968e-05,0
0.47,0.000743861745785167,0.000428617546516459,-0.0371087079185666,-0.0214584276228896,0.000164122652921643,-0.000842678499086281,-0.00813000467626508,0.0420882803568427,-2.42649754202914,-8.52547482593659e-05,0
0.48,0.00074383124497089,0.00042861747975824,-0.0371078010654325,-0.0214584277827088,0.000164102503745519,-0.000842655465308154,-0.00812939992625422,0.0420875976940531,-2.42649777999729,-8.25476185272719e-05,0
0.49,0.000743803072463047,0.000428617418340121,-0.0371069594553166,-0.0214584279364369,0.000164083893236064,-0.0008426341898419,-0.00812883876158777,0.0420869641327321,-2.42649799892631,-8.00570789316543e-05,0
0.5,0.000743777228261637,0.000428617361834901,-0.0371061871947101,-0.0214584280840789,0.000164066820430033,-0.000842614672659367,-0.00812832381066986,0.0420863827858531,-2.42649820033935,-7.77658006809638e-05,0
0.51,3.23608653893372,0.030937196331713,5.42390498349713,-1.54497805576954,-0.195058409782521,3.23035066430225,-1.91986624389982,5.30281209061272,0.0698695907847037,21.4071392912035,589.743637058034
0.52,3.11829344014105,-0.0300983594937257,7.08410840886685,1.51549702842386,-0.989905198944296,2.95715193846613,-0.742118525171655,7.20628776044481,0.313372692687971,44.9553639132194,589.743637058034
0.53,3.01766728973967,-0.00412583114241505,7.83272144489871,0.220289847751149,-2.01239609070789,2.24868736558708,-5.05107341182999,5.9905517474355,0.728634343440671,68.3759963080561,589.743637058034
0.54,2.93844448912229,0.0397704801700225,7.16953827922975,-1.97403923304311,-2.8352135894659,0.773046964196881,-7.43538238355564,-0.119158890749402,1.31814138197648,92.7360864837353,589.743637058034
0.55,2.87843268695882,0.0360545689017227,5.46968197585175,-1.79068209821412,-2.52089582215831,-1.38987730361944,-3.87230011416798,-4.25784630061216,2.08719486357408,116.504905105378,589.743637058034
0.56,2.75140757322841,0.0393855114909696,7.8418961122313,-1.9494612644399,-0.37485449896959,-2.72603722592636,0.97791851721922,-8.02118502655685,3.0192544131925,137.546272540106,589.743637058034
0.57,2.66237513370236,0.015684926456048,8.22096096771047,-0.758607081010328,2.1766689302401,-1.53316657203384,7.18202493987638,-4.07163378743371,-2.1785536857433,158.985026694557,589.743637058034
0.58,2.5710724478554,0.00099417747899877,8.57196293941626,-0.0268758815150817,2.06715053550134,1.52882411810075,6.87392443895695,5.12137030053906,-0.933610472598176,179.991898706762,589.743637058034
0.59,2.51377647722599,0.0229532705790221,7.68663140338609,-1.11430861578423,-1.08751244060194,2.26647649924304,-4.38859736156874,6.40829144318235,0.456508599686813,199.562654892556,589.743637058034
0.6,2.46514246462597,0.0377076781929784,6.12266832818411,-1.85973530274212,-2.26317097249626,-0.977960320844995,-4.8188481883704,-4.2100338467349,1.99397692699436,219.242954356808,589.743637058034
0.61,2.33298796212194,0.0233567160126671,9.00708305495667,-1.14892599177514,1.15339620145999,-2.02806695403442,5.52388423494096,-7.20654418236888,-2.61448184834535,238.125010878852,589.743637058034
0.62,2.24991833644225,0.0399391970245296,9.55733584887286,-1.9608922516202,1.6458139457177,1.53460878278444,5.51079689120634,8.05101761111507,-0.802599918982478,255.854907980136,589.743637058034
0.63,2.17889945273096,0.0354066484689365,9.4129132556583,-1.74426655253916,-1.96488553472471,0.942380650956231,-9.28091115083549,2.34735808413457,1.13984093927694,273.795358139779,589.743637058034
0.64,2.11642026797645,0.0128473195262715,9.06992711287152,-0.621921667634507,0.127658505509362,-2.11260576310196,1.22256700445763,-9.00864553154839,-3.0751687728423,290.835739817674,589.743637058034
0.65,2.07310411386715,0.019070214403486,7.92094153473395,-0.909517778171476,1.61561257436003,1.29919988823124,5.55031076831582,5.72386126322091,-0.884329511153453,306.979574478702,589.743637058034
0.66,1.97725192758998,0.0424397257234665,9.38288580829054,-2.07959189041036,-1.95025045654326,0.328404433938698,-9.58516190149625,-0.698512594149453,1.42543118515627,322.753047466362,589.743637058034
0.67,1.89404352622982,0.0420447191156387,10.2702688321386,-2.06388054703448,1.19958403297631,-1.46634470213756,8.24588141080546,-6.46091824400819,-2.43373071386597,338.16132809944,589.743637058034
0.68,1.83835904868857,0.00745378568765881,9.88288650368691,-0.335992455586535,-0.177008242336741,1.82983267895212,-1.32574993809072,9.7993226131514,0.100489172675027,353.011224721725,589.743637058034
0.69,1.8061722889222,0.0428553535888271,8.39858516369748,-2.11065614019708,-0.743232441371996,-1.64672415926102,-1.32861641037936,-8.55721219370548,2.74134767884929,367.378062011792,589.743637058034
0.7,1.72308594294509,0.0167622758780075,9.55539112253572,-0.805644710091035,1.24527264046572,1.19105087698852,6.27827378484919,7.24829919263875,-0.797922309163561,381.181033062372,589.743637058034
0.71,1.66680976080981,0.0511344146679766,9.45233207991672,-2.52542878215057,-1.50604454963716,-0.716030251876611,-7.25437032045629,-6.56494352880664,2.04527006595128,394.491499168111,589.743637058034
0.72,1.58875417760829,0.0615165467737365,10.5142359581119,-3.04242492902646,1.54680490914524,0.367856895326071,9.30927181970312,5.75699274087576,-1.29861557577529,407.322096374967,589.743637058034
0.73,1.52550513299728,0.037426822991539,10.9135386840393,-1.83140914549043,-1.51145560405381,-0.209925307799282,-10.4733389775144,-3.57331173119348,1.73333207829199,419.706187458318,589.743637058034
0.74,1.47362649322345,0.0392091855730167,10.8233626396246,-1.91540587834475,1.46432052558385,0.169934693683152,10.4428894470681,3.42928833782359,-1.42866192999686,431.625037985852,589.743637058034
0.75,1.4425488863499,0.0431915076954907,9.75209203642673,-2.11319372464265,-1.42046195869394,-0.255148230935895,-9.10689842470279,-4.07839280684837,1.77845663932512,443.199911423121,589.743637058034
0.76,1.33925270115458,0.0108670095215447,12.3163906280429,-0.531889494079216,1.25882973902764,0.457234707328069,11.3562668007522,4.7970395961039,-1.21427725059805,454.463901064554,589.743637058034
0.77,1.30356723718404,0.0439159709929163,11.5861088256859,-2.18053960174971,-1.11082184091992,-0.683586857760702,-8.45264136459508,-8.2186084367715,2.15613037875019,465.143564808121,589.743637058034
0.78,1.2534821963723,0.0438014750968793,11.6673094875704,-2.15902161586012,0.821946556557958,0.947385900256861,5.65429866889179,10.431509554205,-0.679690542481475,475.387854670485,589.743637058034
0.79,1.22612525821867,0.0020615302754447,10.6987696311967,-0.0553077504240184,-0.364159299279057,-1.17080118017427,-3.10751023017998,-10.2376809257761,2.84172499775734,485.252155882902,589.743637058034
0.8,1.16103861822174,0.0192649871349578,11.6414687372367,-0.956478467953315,-0.155991012980002,1.15067311457296,-2.70059068399501,11.364218203521,0.151334952281651,494.900091286102,589.743637058034
0.81,1.10312163557239,0.00471089208551821,12.2742464668233,-0.214473849707939,0.682305600524951,-0.866809438610605,7.80090673657658,-9.47887015670998,-2.47046831066668,504.075564846392,589.743637058034
0.82,1.10900950552896,0.0362710031957454,9.82944039188285,-1.770678614733,-1.04362964533363,0.37690162165639,-9.89590782596838,1.35063299018964,1.25692159884811,512.810548908604,589.743637058034
0.83,1.02891182150092,0.0128465889511241,11.7008424870135,-0.638683239144424,0.975821436242224,0.326492106860463,10.8388198745174,4.45394374836844,-1.23543760185954,521.41329797628,589.743637058034
0.84,1.03838453242958,-0.00501637813070371,9.15924418056149,0.278354663182481,-0.516183123364399,-0.901011977940538,-4.83222214262156,-7.78581173944136,2.6165126520967,529.49604815761,589.743637058034
0.85,0.930359194640985,-0.00166295297231506,12.5749959954049,0.127245342214622,-0.22604696541028,0.902482003086164,-2.91001365240857,12.2343179705434,0.243635934012186,537.313354203604,589.743637058034
0.86,0.90170132517188,0.0363404702852049,12.0387700141014,-1.80966398048846,0.772894316188475,-0.465854360933569,11.4235863925413,-4.20815174475092,-2.07294782084185,544.858159688199,589.743637058034
0.87,0.857937276185264,0.046475763520853,12.3529936616132,-2.28544009993736,-0.814892792642337,-0.272334542360327,-10.6464980886079,-6.66871556624854,1.94744239640268,551.990723670998,589.743637058034
0.88,0.845916266659658,0.00728486709639092,11.0920443555075,-0.362431540314267,0.227416875686799,0.81480608990169,2.53985557848894,10.8034225246622,-0.263567464092481,558.983358868482,589.743637058034
0.89,0.801487321024445,0.0386809082483676,11.5395078058885,-1.89875137383575,0.497286193030809,-0.629749617424882,9.01137105392984,-7.45390427294315,-2.42496632264545,565.526814232814,589.743637058034
0.9,0.726197408255859,0.0158772823240934,13.5602429856998,-0.797543869796391,-0.718049633766649,-0.109633422363379,-13.2193762297999,-3.1247972975013,1.7441685557485,571.925064655923,589.743637058034
0.91,0.741099948874366,0.0243930856105932,11.150323652097,-1.18399953863895,0.259499841094617,0.694610674636564,2.43434401898979,10.9455717827448,-0.324631409766177,577.891288300243,589.743637058034
0.92,0.658604330044743,0.00671740047881886,13.6302285046061,-0.338985121095979,0.463821633225833,-0.467626217800711,9.93500698450877,-9.33775541647258,-2.35007996548705,583.725262711505,589.743637058034
0.93,0.63361629778479,0.0279378052211109,13.3049224888035,-1.36117406196256,-0.599137670932539,-0.208048516093264,-11.8615447041806,-6.17879555340311,1.94908020424374,589.209702567293,589.743637058034
0.94,0.664416709166501,-0.0490936251458824,10.209331489162,2.46280262541953,-0.396083247058086,-0.535703097666543,-8.52505604678604,-6.13345462415145,2.43117321076255,594.548407256983,589.743637058034
0.95,0.563761315378304,-0.0120628146579336,13.7575956327199,0.639780574269514,-0.292912554321036,0.48184496234336,-6.33957981979982,12.2266301361018,0.52481281128829,599.579264686932,589.743637058034
0.96,0.595798267401842,-0.017169960778839,10.6897533766407,0.876669565368494,0.576877389033135,0.149942859164739,10.6151570153448,1.53551890897512,-1.34531220136529,604.419336999962,589.743637058034
0.97,0.492431221161968,-0.0325711596203996,14.4435775182051,1.617265778528,0.013263610490713,-0.493328961901524,-2.18160543122124,-14.3691710917945,3.10242474835464,609.078800979022,589.743637058034
