t,iq,id,vq,vd,ia,ib,va,vb,theta_e,omega,r
0,0,0,0,0,0,0,0,0,0,0,0
0.01,0.00122155753520944,0.000700563220595711,-0.060883985761037,-0.0351124680305784,-1.85469768358686e-05,0.00140806521423145,0.000756107682964,-0.0702792532296716,0.533877440379198,-0.000734452771568913,0
0.02,0.00138465212210074,0.000794434492839928,-0.0690466752688325,-0.0398173505761735,-2.07248461210151e-05,0.00159623248413418,0.000859308687689811,-0.079700228112376,0.533871986105387,-0.000814805132205725,0
0.03,0.00141176550419565,0.000809956416204604,-0.0703959985661012,-0.0405953090526827,-2.11509108736278e-05,0.00162747162001585,0.000875780231275471,-0.0812576688084753,0.533866340132543,-0.000810721314163538,0
0.04,0.00139871046498617,0.000802617504005622,-0.0697483234255843,-0.0402274667490517,-2.08168023038744e-05,0.00161249883204295,0.000862430728363429,-0.0805129425307804,0.533861054108105,-0.000783228415436519,0
0.05,0.00141152183909264,0.000809968795567218,-0.070386566908765,-0.0405959347962801,-2.09989307105657e-05,0.00162726838503582,0.00086957679280697,-0.0812498772884445,0.533855689963143,-0.000771375528848006,0
0.06,0.00141141609096393,0.000809982402197864,-0.0703826165769695,-0.0405965990229851,-2.09248964153946e-05,0.00162718438488456,0.000866569908622029,-0.081246819168797,0.533850459820366,-0.000752061804525294,0
0.07,0.00144504985215682,0.000829270099606503,-0.0720559099187906,-0.0415633180966991,-2.14271597851694e-05,0.00166595283550987,0.000885402601531367,-0.0831792018936553,0.53384539247056,-0.000754122555980304,0
0.08,0.0014112330409743,0.00081002023905255,-0.0703759892218051,-0.0405985186712099,-2.07828326020746e-05,0.00162704626777525,0.000860728812968774,-0.0812420994506834,0.53384041309534,-0.000714974267975559,0
0.09,0.00141102934869691,0.000809973996517021,-0.0703670650744839,-0.0405962045543552,-2.07111490758713e-05,0.00162684748708099,0.000857788255803474,-0.0812332436304491,0.533835591240141,-0.000697103077696553,0
0.1,0.00141090726429455,0.00080997120213706,-0.0703621650327435,-0.0405960672865276,-2.06437992049821e-05,0.00162674106430153,0.000855031892320751,-0.0812289595383963,0.533830898334774,-0.000679756535892991,0
0.11,0.00141078843951718,0.000809968577698479,-0.0703573948718781,-0.0405959329487035,-2.05781666903737e-05,0.00162663753091765,0.000852349323487232,-0.081224788616307,0.533826330875822,-0.00066287379348154,0
0.12,0.0014106728743637,0.000809966023536486,-0.0703527555283018,-0.0405957986297061,-2.0514331796306e-05,0.00162653683633049,0.000849743256406528,-0.0812207301937556,0.533821885509607,-0.000646442344012018,0
0.13,0.00147079966263375,0.000844439780078476,-0.0733429940602709,-0.0423236315983465,-2.14234317021173e-05,0.00169583938695757,0.000883437795736741,-0.0846741052923416,0.533817364169101,-0.000666825489546733,0
0.14,0.00161917667269186,0.000929964819228765,-0.0807806015256952,-0.0466101687247158,-2.32869939883984e-05,0.00186709008307142,0.000977306104365576,-0.0932580199456218,0.533813029714617,-0.000742236745626434,0
0.15,0.00141081660682337,0.000810229545722552,-0.0703631571239125,-0.0406090139189916,-2.03393028191118e-05,0.00162679492487874,0.000842595297456825,-0.0812364199425477,0.533808788612767,-0.000598330236562253,0
0.16,0.00141023024999482,0.00080995682490757,-0.0703349929822109,-0.0405953271791154,-2.02692668895937e-05,0.00162615146066858,0.000839724574454206,-0.0812052134362452,0.533804811818959,-0.00058333329007753,0
0.17,0.00141012838389212,0.000809953990050164,-0.0703308873825855,-0.0405951945495201,-2.02135835194821e-05,0.00162606240227664,0.000837435510277304,-0.0812016147764405,0.533800941678911,-0.000569027363684734,0
0.18,0.00141003035951251,0.000809951824019148,-0.0703269462715523,-0.0405950939412016,-2.01594479634249e-05,0.00162597698896286,0.000835211000460676,-0.0811981739114957,0.533797174992633,-0.000555104522212632,0
0.19,0.00140993528342367,0.000809949717165087,-0.0703231260471814,-0.0405949597267117,-2.01069259116633e-05,0.00162589414148313,0.000833085130303134,-0.0811948199174478,0.53379350899358,-0.000541553853883416,0
0.2,0.00140984249772683,0.000809947666572484,-0.0703193945176633,-0.0405948591387394,-2.00556807069241e-05,0.00162581329206469,0.000830983420548895,-0.0811915592926977,0.533789940990657,-0.000528365408579232,0
0.21,0.00140975227316419,0.000809945670737592,-0.0703157659226764,-0.0405947585589855,-2.0005847091927e-05,0.00162573467310023,0.000828941843175043,-0.0811883871940783,0.533786468363881,-0.000515529503712335,0
0.22,0.00140966437690511,0.000809943728200136,-0.0703122292996391,-0.0405946579876333,-1.9957303671112e-05,0.00162565808348379,0.000826954611540573,-0.0811852941873613,0.533783088564035,-0.000503036715522988,0
0.23,0.00140957865462992,0.000809941837537907,-0.070308777555161,-0.0405945939406254,-1.99099690769678e-05,0.00162558338971396,0.000824986477280548,-0.0811822927479735,0.533779799109857,-0.000490877872158638,0
0.24,0.00140949541497901,0.0008099399973668,-0.0703054267767108,-0.040594493381936,-1.98639975685416e-05,0.00162551085686377,0.00082310830382723,-0.0811793595682527,0.533776597586025,-0.000479044046939114,0
0.25,0.00140941462004697,0.000809938206339891,-0.0703021756785267,-0.0405943928299768,-1.98193671594306e-05,0.00162544045168583,0.000821287806325115,-0.0811765121245554,0.533773481642202,-0.000467526551803309,0
0.26,0.00141798250646462,0.000814858263834563,-0.0707288608961717,-0.0408410083235202,-1.99379882196416e-05,0.00163531980218088,0.00082582218558689,-0.0816693194674086,0.533770454157825,-0.000461660353741749,0
0.27,0.00136741463951644,0.000785950832708109,-0.0682156713182377,-0.039392142224559,-1.90914679005813e-05,0.00157707863584916,0.00079424027659792,-0.0787685715550355,0.533767466213413,-0.000419526398905111,0
0.28,0.00132390441954461,0.000760786068009444,-0.0660000958402638,-0.0381308891265402,-1.86141433441112e-05,0.00152681756180448,0.000752585866492947,-0.0762194920674368,0.533764561755494,-0.000382045606544683,0
0.29,0.0014089138256218,0.000809820501825021,-0.0702801334469681,-0.0405884938978308,-1.96469668519203e-05,0.00162494966380436,0.00081420575299767,-0.081154544316444,0.533761829351456,-0.000424334223780673,0
0.3,0.0014078995476825,0.000809285610963283,-0.0702303336915274,-0.0405616896314684,-1.95873774946649e-05,0.00162380438203611,0.000811743022822331,-0.0810980364093223,0.533759343375572,-0.000414560656689766,0
0.31,0.00140897510069251,0.00080992709789284,-0.0702844507079724,-0.0405938483427708,-1.95780210597631e-05,0.0016250567495826,0.000811375475459439,-0.0811609894249393,0.533756689486185,-0.000405455884004907,0
0.32,0.00140891044964878,0.000809927064864402,-0.0702818658425889,-0.0405938541658978,-1.95409582716622e-05,0.00162500112507014,0.000809845661370684,-0.0811587691649066,0.533754105708243,-0.000395907073187139,0
0.33,0.00140884548718222,0.000809925622443722,-0.070279247974784,-0.040593753650322,-1.950506290896e-05,0.00162494451387285,0.000808396220791339,-0.081156466328164,0.53375159099559,-0.000386611916963097,0
0.34,0.00140878176738318,0.000809924215366594,-0.0702766745351171,-0.0405936867275754,-1.9469878855133e-05,0.00162488898899766,0.000806945930252656,-0.0811542187696792,0.533749143503754,-0.000377565225949773,0
0.35,0.0014087197938127,0.000809922845868648,-0.0702741711818846,-0.0405936198061796,-1.94356574395156e-05,0.00162483498514759,0.000805536616181754,-0.0811520314904653,0.533746761435753,-0.000368760362112232,0
0.36,0.00140865945005545,0.000809921512953412,-0.0702717325287731,-0.0405935528860387,-1.94023374300161e-05,0.00162478240163953,0.000804165395565097,-0.0811498998552902,0.533744443043072,-0.000360190861175982,0
0.37,0.00140860085252674,0.000809920215644698,-0.0702693648644675,-0.0405934859666596,-1.93699761086041e-05,0.00162473133824475,0.000802835329316347,-0.0811478292797475,0.5337421866234,-0.000351850431653254,0
0.38,0.00140854388481127,0.000809918952991476,-0.0702670627903356,-0.0405934190482724,-1.9338512355482e-05,0.00162468169430012,0.000801543535410031,-0.0811458151180358,0.533739990519987,-0.000343732950234909,0
0.39,0.00140848792693715,0.000809917724068909,-0.0702647957754554,-0.0405933857119878,-1.93076289159926e-05,0.00162463293563633,0.000800245439193756,-0.0811438481720316,0.533737853120892,-0.000335832457293073,0
0.4,0.0014084338696028,0.000809916527976504,-0.0702626086963521,-0.0405933187940837,-1.92777771469048e-05,0.00162458582864745,0.000799021565824655,-0.0811419329081588,0.533735772856638,-0.000328143152507493,0
0.41,0.00140838132566636,0.000809915363837518,-0.0702604826287201,-0.0405932518768898,-1.92487583444577e-05,0.00162454003963214,0.000797833251475095,-0.0811400701211438,0.533733748199874,-0.000320659390605738,0
0.42,0.00140833029512783,0.000809914230798911,-0.070258417959458,-0.040593184960145,-1.92205708130104e-05,0.00162449556819434,0.000796680571983961,-0.0811382601455112,0.533731777664365,-0.000313375677219252,0
0.43,0.00140828015801757,0.000809913128030361,-0.0702563841221303,-0.0405931516203696,-1.91928974939512e-05,0.00162445188020689,0.000795518952203721,-0.081136493749652,0.533729859803383,-0.000306286664849305,0
0.44,0.0014082316886142,0.000809912054723866,-0.07025442015979,-0.040593084704059,-1.91661306953935e-05,0.00162440964188175,0.000794425953917023,-0.0811347703834981,0.533727993208711,-0.000299387148942282,0
0.45,0.00140818422905538,0.000809911010092139,-0.0702524935313709,-0.0405930513616213,-1.91399341708573e-05,0.00162436828648823,0.000793327099402809,-0.0811330961959168,0.533726176510213,-0.00029267206406591,0
0.46,0.00140813855361782,0.000809909993369945,-0.0702506433247724,-0.0405929844443159,-1.91147003093158e-05,0.00162432848025807,0.000792299975194949,-0.0811314706780924,0.533724408373865,-0.000286136480193148,0
0.47,0.0014080935387798,0.000809909003811941,-0.0702488136922882,-0.040592951099601,-1.90898560474028e-05,0.00162428925558386,0.00079125825488445,-0.0811298799119196,0.533722687501517,-0.000279775599080896,0
0.48,0.00140805019164675,0.000809908040692537,-0.0702470553062722,-0.0405928841822359,-1.90659123046211e-05,0.0016242514791629,0.000790285421336002,-0.081128333363799,0.533721012629958,-0.000273584750748513,0
0.49,0.00140800773794486,0.000809907103305994,-0.0702453298262568,-0.0405928508343106,-1.90424737756737e-05,0.00162421448407857,0.000789304065046431,-0.0811268321848517,0.533719382529582,-0.000267559390047793,0
0.5,0.00140796671911633,0.000809906190964742,-0.0702436645839694,-0.0405927839163055,-1.9019814551508e-05,0.00162417873614841,0.000788385795024563,-0.0811253657501726,0.533717796003354,-0.000261695093327449,0
0.51,0.718648708800736,0.0286129943465545,-2.98016057628023,-1.43400856928571,0.0236717820421543,0.718828433523181,-1.41348679811006,-2.98994861306484,0.00687481240223603,2.14937481460468,130.915900233863
0.52,0.648501189542767,0.00256233207128312,0.552888611419545,-0.128305067423168,-0.0178518816273497,0.648260494482265,-0.14564482504287,0.548575967302732,0.0314823113871838,4.55616295751882,130.915900233863
0.53,0.612954111796121,0.0224229613118017,2.34888320796284,-1.12365767148597,-0.0227350164583022,0.612942616717424,-1.29342799227558,2.25984577264402,0.0736400836260067,6.96074530962949,130.915900233863
0.54,0.690355369980206,0.0024165353333663,-1.52736126916968,-0.120698014211947,-0.0895629176108404,0.684525280974018,0.0838278009778286,-1.52982788475617,0.133600831454741,9.3996026760871,130.915900233863
0.55,0.669646312740719,-0.0425882032568667,-0.508745830573966,2.13520580730242,-0.182155178915387,0.645801385890579,2.19442199117073,-0.0493789867316051,0.211406030564718,11.8456333372157,130.915900233863
0.56,0.640609467604437,-0.0825541733628485,0.917810267148276,4.1385692482077,-0.272310157593192,0.585698608155794,3.66762042012322,2.1257214216798,0.307040117455371,14.2518778991379,130.915900233863
0.57,0.70441564607226,-0.0169909288722141,-2.31981033355059,0.852751638202866,-0.303061316683112,0.636116288445469,1.72543931193501,-1.76962270581472,0.420493946636996,16.7261887422749,130.915900233863
0.58,0.652124707472249,0.072578275512718,0.240709822833145,-3.63633198207285,-0.280192467055815,0.593318145329588,-3.22241551147055,-1.70202519784174,0.552038348564911,19.1696749559044,130.915900233863
0.59,0.664050657082908,0.00547447499337819,-0.436400216056952,-0.272724822655404,-0.424467210282269,0.510706209521564,0.0734036430780076,-0.509348488414222,0.701684998164271,21.6716249716542,130.915900233863
0.6,0.640677208885605,0.0145163070557976,0.626894220254244,-0.725691082127888,-0.48025397159525,0.424304291662218,-0.947124370222004,-0.150264225282311,0.869826385141417,24.2276148832093,130.915900233863
0.61,0.578567517277,0.00375733696640115,3.60845141224056,-0.186324304425509,-0.501953688138452,0.287744651719814,-3.2337557720062,1.61197454940738,1.05677277809318,26.7971433248014,130.915900233863
0.62,0.649092678469616,0.000374549063557272,-0.0850340418346543,-0.0175758368325685,-0.618497426348387,0.19693242275025,0.075718005894495,-0.042502728082607,1.26311829683063,29.4940249217799,130.915900233863
0.63,0.630644173219466,0.0507579390474849,0.662253797562616,-2.54454061352912,-0.624403259332716,0.102024562369524,-0.867581729793755,-2.48204934850485,1.48914501033731,32.1634844242219,130.915900233863
0.64,0.625229794683578,0.0775015826440466,0.775895278046727,-3.88501815249495,-0.629507595414153,-0.0252780297549453,-0.133325710719597,-3.95949539494259,1.73425787349958,34.6999972153263,130.915900233863
0.65,0.601202796953599,0.0476233990028174,1.8327096809657,-2.38714955892478,-0.566990934806698,-0.205509296734815,-0.680190761639002,-2.93166306371676,1.99757294566315,37.1406288034852,130.915900233863
0.66,0.658005013597617,-0.0458962971838222,-1.13938039590178,2.3012450525154,-0.470210426320785,-0.4625788829962,-0.629941687394584,2.48939549866516,2.27837535724971,39.4852823794082,130.915900233863
0.67,0.654546702813137,-0.0813139783174568,-1.09472554646599,4.07730396780512,-0.28196537893513,-0.596270806190719,-2.85653337570141,3.10854447313667,2.57627808657834,41.7682554966781,130.915900233863
0.68,0.588815592000607,0.0641770684630495,2.06024276968011,-3.21408834747906,-0.208333774550364,-0.554454268520979,2.60205838055637,-2.79360991543132,2.89073337597391,44.0319991098036,130.915900233863
0.69,0.63728746992298,-0.0181578226740711,-0.523738721785015,0.913739255177566,0.0693122835851201,-0.633767175853493,-0.952872320537058,0.448615666137259,-3.061144705356,46.3630786941907,130.915900233863
0.7,0.542324797871256,0.068254892117445,4.04622736866568,-3.41726651055399,0.163470916435407,-0.521586211631242,4.79047907334482,-2.25853416421766,-2.71268009570717,48.7188273112218,130.915900233863
0.71,0.618661853031025,-0.0066962027266934,0.00328524477348384,0.335311950301606,0.446424035173936,-0.428360722225742,-0.232415260870808,-0.241718934638233,-2.34637182361094,51.2371205270945,130.915900233863
0.72,0.516616760295263,-0.00322431416613231,4.88158434408945,0.160822017032569,0.478856788295219,-0.193905774858312,4.45188330080152,-2.00909544463826,-1.9617907141403,53.6484347803272,130.915900233863
0.73,0.523917635497944,-0.0757277029184626,4.32459254818473,3.79583033519339,0.523083633927668,0.0812889026379899,4.36467088793193,-3.74967687693604,-1.56017332645241,55.9164417006306,130.915900233863
0.74,0.553946819811903,-0.0536931869933274,2.64124627780174,2.69323349418709,0.481543732561306,0.279026291127103,3.52156110082483,-1.35214495057674,-1.14225731592378,58.0798902106346,130.915900233863
0.75,0.501432563569091,0.00391611978224995,5.08288440972006,-0.192648309117013,0.329305200961611,0.378164033748917,3.16166864860861,3.98455501279456,-0.708636517425953,60.2490279487553,130.915900233863
0.76,0.518875308188526,0.000137233688906002,3.99030173794934,-0.00213917309883525,0.132916509955984,0.501562364678555,1.01907837799918,3.85797768208133,-0.258785873788153,62.4927267814245,130.915900233863
0.77,0.568288917411239,-0.0138484768680712,1.27056971774139,0.69357251840434,-0.130777055598834,0.553210118935747,0.416563288011352,1.38631355508353,0.207771263598067,64.8273529223575,130.915900233863
0.78,0.558921030193688,0.0376974413980759,1.4817227875989,-1.89008307317969,-0.327378844719659,0.454573324240167,-2.40079795981607,-0.0639186901715212,0.691492529595009,67.1044321285461,130.915900233863
0.79,0.51950866374898,0.0490802781492212,3.22720317954873,-2.45888391574979,-0.464356977496386,0.238056133850562,-3.90852606011704,-1.08828971813961,1.19126882701637,69.2238267306653,130.915900233863
0.8,0.473126071816884,-0.00854447926968495,5.32407037983499,0.431733585467735,-0.467626753973799,-0.0724327752249887,-5.33355683034294,-0.292045948027544,1.70641186148073,71.3115352752474,130.915900233863
0.81,0.507971739653554,0.0949307532017779,3.3449601082797,-4.7527088523366,-0.458053760258491,-0.239236052682641,0.306704751958205,-5.8036998333983,2.23686589106392,73.4229820091458,130.915900233863
0.82,0.595466075675046,-0.014469132355644,-1.31052291262164,0.724388008907056,-0.195260712967562,-0.56272769350936,-0.218830398226795,1.4813242551064,2.78330807482744,75.6695355190087,130.915900233863
0.83,0.487396199304022,0.0100910037336546,3.81800966539457,-0.506545159114,0.0890277233858417,-0.479302564066887,1.27080534034176,-3.63577221374319,-2.93724035991183,77.7987155976835,130.915900233863
0.84,0.520882594887307,-0.065212054698638,1.90300377789074,3.27100277440402,0.413326001596236,-0.323624637719413,-0.979840748257543,-3.65524207637187,-2.35961797442899,79.7941004944733,130.915900233863
0.85,0.54315805421288,-0.0918270256917287,0.543439699603462,4.60813266623549,0.550630229163657,-0.0161004731262688,-0.367669292306482,-4.625476480129,-1.76750579617118,81.7695531519964,130.915900233863
0.86,0.553481598868838,-0.00852048375966003,-0.254572832898761,0.433021103122896,0.504154720711324,0.228566175350578,-0.0607402849527974,-0.498623325551185,-1.16054059850433,83.8768697466651,130.915900233863
0.87,0.50801073797106,-0.0384186500251285,1.67637305313786,1.92442394822623,0.226968526729143,0.456109844706356,2.51122356131225,0.455401329492585,-0.537222280088274,86.1183182844281,130.915900233863
0.88,0.459150929883111,0.00629091796516984,3.85979195352804,-0.313686686741678,-0.0400738644025031,0.457442059121393,-0.701575019393451,3.80843612971543,0.101081502115767,87.9873483062961,130.915900233863
0.89,0.451329724040468,0.0999934584102907,4.00492525868996,-5.00641832977666,-0.235515990758856,0.397780630026363,-6.39177595600757,-0.498849625258032,0.752603095606439,89.8093957713901,130.915900233863
0.9,0.493774503728236,0.00273903474340487,1.59810566436231,-0.131958758449332,-0.487598239513895,0.0779019875634848,-1.59956158977125,0.112949320169941,1.41791557761765,91.7641581404941,130.915900233863
0.91,0.421653821095885,-0.0576069161010382,4.89060276054866,2.88580223900474,-0.33541918959168,-0.261924548068891,-5.6784444487441,0.0334449795668945,2.09799326210206,93.7332088605925,130.915900233863
0.92,0.370882145770887,0.0841814397619552,7.17643741185874,-4.21713343927514,-0.206296513222594,-0.319502471796719,1.49954560523121,-8.1876022954715,2.79145466026372,95.4576044212893,130.915900233863
0.93,0.350511637223325,-0.00961425362943794,7.92515405879873,0.487966646368338,0.131164868405977,-0.325187052321998,2.30454166659603,-7.59837258961317,-2.7856222350772,97.2222823986695,130.915900233863
0.94,0.44324124786014,0.0372014232553412,2.97885394163319,-1.86656253689423,0.372278544967036,-0.243424392068798,3.50805659686203,0.226197751830969,-2.06615806087508,99.1165136307818,130.915900233863
0.95,0.410876205631811,0.0756156966205456,4.29847597781375,-3.79021661793744,0.417125667760071,0.0233059482862073,3.28460473299525,4.69616966161959,-1.33298287108187,100.885449001515,130.915900233863
0.96,0.435998125239021,0.11333753830674,2.76584113518643,-5.67566922360435,0.335946354804506,0.300132986349281,-3.19194207813935,5.44744014108117,-0.58732123583479,102.567917382497,130.915900233863
