t,iq,id,vq,vd,ia,ib,va,vb,theta_e,omega,r
0,0,0,0,0,0,0,0,0,0,0,0
0.01,0.000981268085844344,0.000561382086026926,-0.0486605062483795,-0.028122321003654,-0.000343666530555763,0.00107700056573074,0.0168504422262143,-0.0536169040859518,0.828533722718223,-0.000763301331552014,0
0.02,0.00109410592505912,0.000626347868110075,-0.0543260550312309,-0.0313767628141836,-0.000382900503891938,0.00120115220986135,0.0188254168107399,-0.059845009665433,0.828528077142634,-0.000825347473329629,0
0.03,0.00112355359675869,0.000643204347462542,-0.0557895110635511,-0.0322211849279617,-0.000393200123794819,0.00123348213608136,0.019332739733926,-0.0614566471364349,0.828522289530319,-0.000819753455924597,0
0.04,0.0011073598763413,0.000634188625309829,-0.055000285892953,-0.0317695348801419,-0.00038735420637427,0.00121589383870762,0.0190561072375677,-0.06059042475307,0.828516908664327,-0.000779584692308213,0
0.05,0.00112315557781171,0.000643260580768605,-0.0557894354147266,-0.0322240075806808,-0.000392855509235535,0.00123325876262997,0.0193301137002417,-0.0614588844089238,0.828511513693779,-0.000765017525009247,0
0.06,0.0011230400762672,0.000643329608525072,-0.0557931969205939,-0.0322274499915377,-0.000392717299214341,0.00123323360358249,0.0193302380543384,-0.0614640647235426,0.828506297321163,-0.000738582756403182,0
0.07,0.00115370457012121,0.000660959111668968,-0.057315209254845,-0.0331106021310026,-0.00040339118816932,0.00126695569445981,0.0198545372790487,-0.0631438242018892,0.828501306717983,-0.000737989981576532,0
0.08,0.00112282673667221,0.000643464442272249,-0.0558005349381235,-0.0322342109077165,-0.00039245676850309,0.00123319262644196,0.0193304686380456,-0.0614741981196781,0.828496427460472,-0.000688570072069711,0
0.09,0.0011223536452932,0.000643323274557024,-0.0557856490779782,-0.0322271367107645,-0.000392197816906264,0.00123277062469207,0.0193239943838643,-0.0614590125585989,0.828491762947399,-0.000664635157639765,0
0.1,0.00112213841670574,0.000643319698019433,-0.055783175106732,-0.0322269479784135,-0.000392036091205634,0.00123262425876619,0.0193220227091412,-0.061457287927626,0.828487269501705,-0.00064177107622336,0
0.11,0.00112193289250356,0.000643317301461865,-0.0557808806660402,-0.0322268413273565,-0.000391880923149632,0.00123248525659051,0.0193201379711226,-0.0614557419497513,0.828482940565911,-0.000619745660071377,0
0.12,0.00112173493529324,0.000643315000776429,-0.0557786712997063,-0.0322267347044001,-0.000391731462948867,0.00123235137692837,0.0193183256590334,-0.0614542504258249,0.828478770114893,-0.000598526619480535,0
0.13,0.00117374864372849,0.00067312533145445,-0.058352645874582,-0.0337200593909627,-0.000409903433691663,0.00128948158790574,0.0202053433192577,-0.0642947726276822,0.828474565035433,-0.000619033936455575,0
0.14,0.00126563111886601,0.000726253931240383,-0.0629901572643787,-0.0363815306396518,-0.000441691192574787,0.00139074648735347,0.0218232963456039,-0.0693910615316341,0.82847056391385,-0.00067256731918933,0
0.15,0.00112234699149447,0.000643965519703895,-0.0558307840584617,-0.0322593128993175,-0.000391727826001699,0.00123324923280746,0.019333961055168,-0.06151371934159,0.828466676560133,-0.000537946691650442,0
0.16,0.00112100138878464,0.000643311562067506,-0.0557708691861317,-0.032226543681642,-0.000391173931097634,0.00123185909712777,0.0193117424785725,-0.0614491380727402,0.828463100147192,-0.000518806333353044,0
0.17,0.00112082815330745,0.000643304495550397,-0.0557685584596977,-0.0322262049075642,-0.000391046809849803,0.00123173812791041,0.0193100571037345,-0.0614473928663173,0.828459656054462,-0.000501275208961589,0
0.18,0.0011206708250202,0.000643302623485479,-0.0557668034846298,-0.0322260984210977,-0.00039092805505468,0.00123163168975385,0.0193086319867548,-0.0614461920800603,0.828456338063318,-0.000484393374501423,0
0.19,0.00112051901015114,0.000643300858960144,-0.0557650993617018,-0.0322260186675357,-0.000390813440633295,0.00123152900975548,0.0193072337422814,-0.0614450430157042,0.828453141545869,-0.000468129654626427,0
0.2,0.00112037289963056,0.000643299159246391,-0.0557634639497658,-0.0322259389232945,-0.000390703130613555,0.0012314301873198,0.0193058933216639,-0.0614439381405299,0.828450062054707,-0.000452461358986038,0
0.21,0.0011202320277972,0.000643297521671022,-0.0557618818907409,-0.03222585918809,-0.000390596778318688,0.00123133490743086,0.0193045991439309,-0.0614428671555917,0.828447095305431,-0.000437366688282262,0
0.22,0.00112009651106635,0.000643295943963454,-0.055760366612022,-0.0322257794606528,-0.000390494465921766,0.00123124324879664,0.0193033608500444,-0.0614418392176431,0.828444237170585,-0.000422824641796108,0
0.23,0.00111996576735863,0.000643294423937541,-0.0557588964333391,-0.0322256968308319,-0.000390395761021868,0.00123115481792523,0.0193021641865714,-0.0614408376034309,0.8284414836737,-0.000408814987658848,0
0.24,0.00111984002951018,0.00064329295948772,-0.0557574900108835,-0.0322256171177841,-0.000390300831843067,0.00123106977222351,0.0193010187309999,-0.0614398792876531,0.82843883098384,-0.000395318234700833,0
0.25,0.00111971883185699,0.000643291548584258,-0.0557561309389373,-0.0322255374112944,-0.000390209332025381,0.00123098779689135,0.0192999141343649,-0.0614389511070363,0.828436275410533,-0.000382315605333173,0
0.26,0.00112899523050426,0.000648622927927332,-0.0562182640022971,-0.0324926280046309,-0.000393437669647973,0.00124118843582929,0.0194597356419748,-0.061948226534936,0.82843382313102,-0.00037737664160548,0
0.27,0.00108683343878339,0.000624571145019628,-0.0541423665636835,-0.0312877467963699,-0.000378626611739638,0.00119496356753309,0.0187444540121042,-0.0596570565859408,0.82843140132346,-0.000331310439525045,0
0.28,0.00106807683939348,0.000613659331365026,-0.0531332593898353,-0.0307411316119838,-0.00037217943255544,0.00117424374803652,0.0183702658066418,-0.0585721244310479,0.828429094221011,-0.000304607176076392,0
0.29,0.00111885487286189,0.000643051646753276,-0.0557303447305726,-0.0322135394848524,-0.000389723417133053,0.00123023059019723,0.0192884515053555,-0.0614128576802623,0.828426955567578,-0.000334558351244751,0
0.3,0.00111681268652563,0.000641962886194208,-0.0556329875484059,-0.0321589972754211,-0.000388952329523693,0.00122804845563743,0.0192534694346045,-0.0613068864325402,0.82842507848593,-0.000323440444866689,0
0.31,0.00111907055160251,0.000643273755919561,-0.0557480912032554,-0.0322246688555399,-0.000389727358789128,0.00123054159227962,0.0192937632670458,-0.061433131571253,0.828423029197759,-0.000314903867023072,0
0.32,0.00111899619540134,0.000643283059591466,-0.0557479910849696,-0.0322251367287742,-0.000389663845834547,0.00123049895056008,0.0192932517366868,-0.061433446791002,0.828421052160026,-0.00030486032839528,0
0.33,0.00111890600612449,0.000643282090067055,-0.0557469780868905,-0.0322250866289349,-0.00038959570037304,0.00123043800664371,0.0192924221537713,-0.0614327617929007,0.828419147479848,-0.0002951695370621,0
0.34,0.00111881896005694,0.000643281077303114,-0.0557459933747308,-0.0322250336179258,-0.000389529986285219,0.00123037912839246,0.0192916196681788,-0.0614320924239954,0.828417312530986,-0.000285833408116669,0
0.35,0.00111873505720207,0.000643280100961081,-0.0557450415030215,-0.0322249806059263,-0.000389466646554432,0.00123032237552889,0.0192908455115063,-0.0614314439572855,0.828415544760732,-0.000276839079038921,0
0.36,0.00111865429755987,0.00064327916032825,-0.0557441270834987,-0.0322249275923034,-0.000389405678613667,0.00123026774851055,0.0192901029310412,-0.061430819557778,0.828413841709476,-0.000268174037349041,0
0.37,0.00111857656471502,0.000643278254104527,-0.0557432486337563,-0.03222487457666,-0.000389346994623795,0.0012302151686233,0.0192893906889285,-0.061430218268993,0.82841220100788,-0.000259826227662559,0
0.38,0.00111850143491955,0.000643277381032298,-0.0557423892022496,-0.0322248482263426,-0.000389290280365229,0.00123016434937695,0.0192886781254493,-0.0614296483252078,0.828410620373517,-0.000251784035941111,0
0.39,0.00111842929000863,0.000643276539899465,-0.0557415719570769,-0.032224795205768,-0.000389235815291958,0.00123011554889297,0.0192880182342639,-0.0614290861310371,0.828409097606865,-0.000244036273342173,0
0.4,0.00111835951531719,0.000643275729538706,-0.0557407700818859,-0.0322247688471148,-0.000389183144650328,0.00123006835161065,0.0192873550701155,-0.0614285528966045,0.828407630589742,-0.000236572160652426,0
0.41,0.00111829260909041,0.000643274948825045,-0.0557400122581792,-0.0322247129108038,-0.000389132633809584,0.00123002309435088,0.0192867476623287,-0.0614280266111109,0.828406217281031,-0.000229381313292225,0
0.42,0.00111822784025702,0.000643274196674471,-0.0557392655873651,-0.0322246865438658,-0.000389083742375631,0.00122997928285481,0.01928613166207,-0.0614275286543625,0.828404855714348,-0.000222453726866528,0
0.43,0.001118165823476,0.000643273472042858,-0.0557385642750387,-0.0322246335128474,-0.000389036921624824,0.00122993733264606,0.0192855701740608,-0.0614270407519467,0.828403543995233,-0.000215779763246398,0
0.44,0.00111810571125473,0.000643272773923304,-0.0557378693629913,-0.0322246071378959,-0.000388991545503484,0.00122989667075663,0.0192849983323773,-0.0614265758905526,0.828402280299183,-0.000209350137160218,0
0.45,0.00111804792733963,0.00064327210134749,-0.0557372052382712,-0.0322245807577891,-0.000388947924730749,0.00122985758364459,0.0192844520229155,-0.0614261309457491,0.828401062867615,-0.000203155903275417,0
0.46,0.00111799223890007,0.000643271453380313,-0.0557365634473024,-0.0322245543732777,-0.000388905886283422,0.00122981991388533,0.0192839249119806,-0.0614257002358182,0.828399890006982,-0.000197188443752578,0
0.47,0.00111793883685033,0.00064327082912259,-0.0557359565418249,-0.032224501330826,-0.000388865569427802,0.00122978379053065,0.0192834441672762,-0.0614252726383867,0.828398760085567,-0.000191439456256668,0
0.48,0.00111788710653095,0.000643270227706816,-0.0557353567041042,-0.0322244749390831,-0.00038882651989566,0.0012297487980185,0.0192829531549836,-0.0614248686580284,0.828397671531082,-0.000185900942404859,0
0.49,0.00111783735527178,0.000643269648298077,-0.0557347820561433,-0.0322244485427718,-0.000388788962836846,0.00122971514410403,0.0192824831556488,-0.0614244809345888,0.828396622829352,-0.000180565196640352,0
0.5,0.00111778935024219,0.000643269090090976,-0.0557342237117946,-0.0322244221427671,-0.00038875272543253,0.00122968267136286,0.0192820275312138,-0.061424103489405,0.828395612521189,-0.000175424795510397,0
0.51,4.60603355709583,-0.0648354195623341,9.69998829021642,3.25361246359235,-0.304270644658674,4.59642993371178,2.74479148989435,9.85605836887052,0.0520254641179537,15.9928113948046,610.13485571487
0.52,4.52585149504411,0.0196589111833512,13.7109495141487,-0.972799001897378,-1.03571614870672,4.40579281029987,-4.14159958143055,13.1066253240383,0.23523194913329,34.0225565849025,610.13485571487
0.53,4.58373616201747,-0.0027367281926276,10.8186919941688,0.15683822077518,-2.40459765797455,3.90237809494815,-5.53633925989486,9.29610898664247,0.55164026789863,52.4152131754955,610.13485571487
0.54,4.60634067039956,-0.0426217467653742,9.69041965519468,2.16118483939026,-3.91614645996365,2.42569328011365,-7.03555164402662,7.00542404626786,1.00697560216605,72.1411116057948,610.13485571487
0.55,4.51163839312297,0.0429801823489053,14.4275571396682,-2.12686450522885,-4.50984171102169,-0.134372720091898,-14.3328181019654,-2.69226352684249,1.61010917972444,92.0133988669552,610.13485571487
0.56,4.55141806471577,0.0607858372135544,12.4405698958767,-3.00679626217095,-3.27651247179344,-3.15967836021466,-6.72299608246633,-10.8908184619679,2.35139837217926,110.130715072737,610.13485571487
0.57,4.58852056895125,0.056419017211276,10.5876707436521,-2.78763210920151,0.33731942770913,-4.57645274430773,3.68540357155343,-10.3095812265591,-3.05572301431236,129.378703352736,610.13485571487
0.58,4.42209428241596,0.0828904694384942,14.7532038609065,-4.10547946411404,3.91347375798457,-2.06070663076183,15.0249691827392,-2.96011601959525,-2.03672862899005,148.091309939856,610.13485571487
0.59,4.32241643543022,0.0568033990049526,12.9743569038754,-2.80205618462545,3.38189335712814,2.69245386003704,8.26938031118284,10.3828129714427,-0.885273866931034,166.497367996613,610.13485571487
0.6,4.16214702138726,-0.0161237250048408,14.4236615117085,0.867521380012143,-1.63754244545338,3.82651049149083,-4.82447264886586,13.6205384772213,0.40048998199967,183.836352460489,610.13485571487
0.61,4.07528849575366,0.0185966266050268,12.1299360988889,-0.879452704145917,-3.96109278079534,-0.958157680172877,-11.5661097000502,-3.75950704592539,1.81269297311334,201.397689922848,610.13485571487
0.62,3.87512226580111,-0.027119465316165,16.014255271242,1.40819448155934,0.821913931098738,-3.78705235376703,1.90872513655692,-15.9623354163315,-2.93487272112589,217.916769096476,610.13485571487
0.63,3.78651924485505,0.0311733320811893,14.4197219360734,-1.48811753653121,3.63489250828501,1.06125219505271,13.3792851439499,5.58010784421685,-1.27849709831791,233.74988277039,610.13485571487
0.64,3.67931336514133,0.049462985723045,13.7917987628126,-2.40551851746591,-1.70180554047172,3.26246093130386,-8.66003207052325,11.0001853161344,0.494246162019422,249.401338282323,610.13485571487
0.65,3.5466100546653,0.0192071527140845,14.6142692850888,-0.892979240239518,-2.46280351108817,-2.55213844850553,-9.44512741725228,-11.1876649365477,2.37942194335824,264.607352833635,610.13485571487
0.66,3.46015326477738,0.0562060251006407,13.3328775618489,-2.74755124105231,3.24453175045301,-1.20367497826844,13.4877467991391,-1.84264705892737,-1.909800632437,279.266137256136,610.13485571487
0.67,3.32769674443441,0.0293334836069204,14.5083252492336,-1.40125637828162,-0.598729300926661,3.27352246065179,-4.11209232379439,13.9837662200072,0.189715826572099,293.459789068575,610.13485571487
0.68,3.27424937012117,0.0204213248203799,11.9053325527498,-0.950617409065903,-2.24691960436119,-2.38169650874826,-7.4200603766166,-9.35859608367342,2.39154131846593,307.161728306205,610.13485571487
0.69,3.13260256664859,-0.011674064815131,13.8609247179627,0.662125817124367,3.13221227433883,-0.0508074093400272,13.8449615670548,-0.938447569929791,-1.59074245583977,320.429995026751,610.13485571487
0.7,3.04552896588035,-0.0297351336622997,13.2590304105966,1.57373092410415,-2.21806234996721,2.08718237627863,-8.4773301023576,10.3156866366844,0.806025701266995,333.244309365972,610.13485571487
0.71,2.90407566760705,-0.0131557662696462,15.4904438517491,0.743830064605159,0.458367783006191,-2.86770422688175,1.64057609895601,-15.4212724492091,-2.9876255358101,345.761386959077,610.13485571487
0.72,2.77593631937562,-0.00627267551270272,17.1088429126548,0.365002873872832,1.09604451112026,2.55040158118872,7.12572227961646,15.5585929602137,-0.408149829805706,357.96452638211,610.13485571487
0.73,2.76451241653168,0.0352728798493427,13.0599866018547,-1.70257606786185,-2.15864647410495,-1.72743117867108,-9.01135849501686,-9.60507331475234,2.25844091855473,369.589056472716,610.13485571487
0.74,2.67354637828685,0.0893299770789606,13.2207543202664,-4.39151083305437,2.5829037543887,0.696016003566313,11.3598243215648,8.06400046979545,-1.27417809607832,380.758904877718,610.13485571487
0.75,2.49554442938282,0.0364565696325529,17.7859261696078,-1.77915198011384,-2.49485672574961,0.0689999889488433,-17.8076169381075,-1.54703925764953,1.55775410553787,391.813760900993,610.13485571487
0.76,2.45515268226132,0.0826103942823004,15.544978421292,-4.07639226434246,2.36268750424069,-0.672537677578968,16.0692614257138,0.205341771907116,-1.81447615740531,402.352194552106,610.13485571487
0.77,2.41512149519327,0.0482984175571751,13.520478856411,-2.33313094901465,-2.20733645079501,0.981229008272171,-13.3670255220219,3.09345716400289,1.17249557285494,412.492453810369,610.13485571487
0.78,2.28550939495905,-0.0277117250564121,15.9527060320403,1.43808127731441,2.04104438144173,-1.02881435018025,13.4943832388279,-8.62893553739379,-2.04981318696774,422.531622198438,610.13485571487
0.79,2.1870654808458,-0.029930060268005,17.0645913622898,1.58093364664016,-1.94539852035958,0.999787889003299,-14.3275980395165,9.40316776278384,1.08238712482266,431.974639045559,610.13485571487
0.8,2.14520954676667,0.061414598275596,15.3475709787459,-3.02972343071595,1.92553379416714,-0.947636723613281,15.2180684184057,-3.6245761996398,-1.99951717820797,441.354141610062,610.13485571487
0.81,2.06897469835872,0.113143161563534,15.567350629064,-5.58578344167327,-1.94139819468888,0.724175895149726,-16.5244886912498,-0.69617221881299,1.26839589596587,450.187652964384,610.13485571487
0.82,1.97379579230903,0.0733635331870043,16.7283101525261,-3.62318843522487,1.95337576140183,-0.292532344376385,17.0275831953882,1.73932904316262,-1.68229728557477,458.926877278682,610.13485571487
0.83,1.92163786297643,0.00923529996033667,15.9398048953921,-0.420259222418746,-1.90368200120957,-0.262244552776027,-15.7206919024019,-2.66717903916306,1.7124971277517,467.268650364117,610.13485571487
0.84,1.851451194123,0.104878984180315,16.0826833331287,-5.18388235392736,1.70901623698337,0.71981568979107,12.165710285846,11.7269276749673,-1.11557318650996,475.300007305847,610.13485571487
0.85,1.81598801920693,0.0180208476539669,14.5942905949504,-0.861946158894522,-1.24303645046601,-1.32400816450131,-9.24894590003119,-11.3222466361137,2.3976499256135,483.163005283642,610.13485571487
0.86,1.78490402329253,0.0881564395252051,13.0344799489533,-4.36872692111115,0.638721621580074,1.66903823213303,-0.0997441701215189,13.7467630208509,-0.316144200533909,490.678948060718,610.13485571487
0.87,1.64097825457699,0.0590393746263482,17.1509609518695,-2.88767493552054,0.212996185536276,-1.62816703832801,5.6826977839442,-16.4377940734802,-2.97554909403655,497.90981756245,610.13485571487
0.88,1.61682625312631,0.0561540180020835,15.3623454611419,-2.76564257666176,-0.999451986700118,1.27215413092024,-12.0183401304497,9.96041853729714,0.70063881828654,504.977704233232,610.13485571487
0.89,1.51759516153524,-0.00867905702894733,17.4452150465436,0.460331796019623,1.45882173432517,-0.418341424922984,16.6121251165096,-5.34646916160656,-1.85578754943969,511.791170850827,610.13485571487
0.9,1.42592504286789,0.0512213804158012,19.2546354737503,-2.53066578425104,-1.24145243598759,0.703336126521293,-18.2503665726747,6.63847697153344,1.09124704078636,518.303205001571,610.13485571487
0.91,1.41410328883899,0.0225229204875873,17.1184125234315,-1.05919860247856,1.3899773718614,0.261071444562213,16.5596874287984,4.46527728840721,-1.3692091612497,524.57846513661,610.13485571487
0.92,1.33312891233545,0.00929127153920289,18.5031141310376,-0.40889567709426,-0.806293595841318,-1.06170130542295,-10.7603307620243,-15.0581443117266,2.49904957221578,530.69205820455,610.13485571487
0.93,1.31259811980072,0.00917485005517961,16.951460536033,-0.417734822769083,-0.158563624521633,1.30301787361359,-2.57958963731449,16.7592432403703,0.128083857238364,536.608005891898,610.13485571487
0.94,1.31377609302978,-0.06149659685153,14.4079727385062,3.11006954802766,1.09795634519005,-0.724072729839913,9.81216813126079,-10.9992530469563,-2.20057715237224,542.284522103174,610.13485571487
0.95,1.27404221758932,0.00122933684830306,13.9751465088618,-0.0425727715867223,-1.24248541052572,-0.281806827631487,-13.6165433285277,-3.14583536876323,1.79479680809966,547.78254045122,610.13485571487
0.96,1.20254232344537,0.0109940458168679,15.2051466938181,-0.538956355655879,0.536820146992954,1.07612872766378,6.17823023757243,13.9038279285014,-0.453580142500996,553.060327524563,610.13485571487
0.97,1.11820233074009,-0.0143595546076915,17.1433251181179,0.72704728105394,0.526823949817964,-0.98642748095301,7.23565064174774,-15.5585202909838,-2.66390083948389,558.146618215936,610.13485571487
0.98,1.08780145531808,0.00903898796845987,16.4619369262253,-0.444900428108185,-1.07814220009235,0.144924483354815,-16.3884624247565,1.61604551492093,1.44548592508331,563.012089618392,610.13485571487
