t,iq,id,vq,vd,ia,ib,va,vb,theta_e,omega,omega_obs,r
0,0,0,0,0,0,0,0,0,0,-0.144963141214248,0,0
0.01,-0.0148220523212482,-0.024299567649288,0.0912185702969302,0.0623556145350312,0.0147485973025785,-0.0243442210917195,-0.091029833334716,0.0626308204809039,1.5677762099521,-0.144963141214248,59.9765922675133,-0.144963141214248
0.02,-0.0433132220952703,-0.024065072420349,0.205007167441331,0.061651044589528,0.043240345343127,-0.0241957734631065,-0.204820039420922,0.0622699080849628,1.5677762099521,-0.144963141214248,61.8077056302154,-0.144963141214248
0.03,-0.0142944380661771,-0.0239478248121,0.0304531132319168,0.0609464746418889,0.0142220477565702,-0.0239908864043962,-0.0302689091542273,0.0610381685128534,1.5677762099521,-0.144963141214248,64.8595612347199,-0.144963141214248
0.04,-0.0241823200371289,-0.00464105132025594,0.147760945419284,-0.0557772798034009,0.0241681932565107,-0.00471406347553002,-0.147928725194291,-0.0553307707867816,1.5677762099521,-0.144963141214248,67.9114168392234,-0.144963141214248
0.05,-0.0238305771985189,-0.00452380370738593,0.146001327914417,0.0609464746397525,0.0238168061229934,-0.00459575409451722,-0.145816596873392,0.0613871370895381,1.5677762099521,-0.144963141214248,67.9373926857394,-0.144963141214248
0.06,-0.0143530618743627,-0.0240650724284712,0.0891070293308549,0.0609464746650647,0.0142803171964363,-0.0241083105365351,-0.0889225577590132,0.0612153099466479,1.5677762099521,-0.144963141214248,67.9114168392234,-0.144963141214248
0.07,0.00507095923156691,-0.0240650724239034,-0.0274969558589824,0.060946474637616,-0.00514361532527154,-0.0240496478078487,0.0276808956525058,0.060863152794934,1.5677762099521,-0.144963141214248,64.8595612347199,-0.144963141214248
0.08,0.0633430225572468,0.014782969787602,-0.319006918875155,-0.0550727098768012,-0.0632980874500913,0.0149742054076208,0.31883913826251,-0.056035895419049,1.5677762099521,-0.144963141214248,61.8077056302154,-0.144963141214248
0.09,0.0438603776311798,-0.00475829893383675,-0.202051010118539,-0.055072709849354,-0.0438745482006678,-0.0046258139695326,0.201883762889176,-0.0556826754186611,1.5677762099521,-0.144963141214248,59.9765922675133,-0.144963141214248
0.1,0.0435672586203935,-0.00475829892962479,-0.200643316230861,0.061651044589528,-0.0435814305266525,-0.00462669921763634,0.200828594262197,0.0610447980893288,1.5677762099521,-0.144963141214248,53.8728810585053,-0.144963141214248
0.11,0.0827670436429511,0.014782969782679,-0.377308911372426,-0.0550727098472176,-0.0827220199516027,0.0150328681267554,0.377140864870752,-0.0562119739513033,1.5677762099521,-0.144963141214248,51.7673637852026,-0.144963141214248
0.12,-0.00423068468622158,-0.00452380371053184,0.0286934957963482,0.060946474658657,0.00421700299696473,-0.00453656022215532,-0.0285092997434303,0.061032854287446,1.5677762099521,-0.144963141214248,53.8728810585053,-0.144963141214248
0.13,0.00489508780959596,0.0145484745537397,-0.0267931088507836,-0.0543681398867614,-0.0048511274590633,0.0145631919193695,0.0266287887741145,-0.0544488101344739,1.5677762099521,-0.144963141214248,53.8728810585053,-0.144963141214248
0.14,0.170116514835828,0.0826497960502251,-0.843372928743634,-0.405243973250147,-0.169866127349408,0.0831631900924138,0.842145200211197,-0.407789206029811,1.5677762099521,-0.144963141214248,53.8728810585053,-0.144963141214248
0.15,0.00530545446015034,0.0149002173966153,-0.0285527263654118,-0.0557772798034009,-0.0052604299352511,0.0149161725114535,0.0283841425031935,-0.0558632578670753,1.5677762099521,-0.144963141214248,59.9765922675133,-0.144963141214248
0.16,0.0737585187680993,0.0346173575291393,-0.380476222864296,-0.17391017413147,-0.0736536340831362,0.0348399586611665,0.379949259436099,-0.17505846190767,1.5677762099521,-0.144963141214248,61.8077056302154,-0.144963141214248
0.17,-0.0441925792140118,-0.0247099343046421,0.208878326018968,0.0644693244398986,0.0441177508962396,-0.024843288163683,-0.208682668822444,0.0650998664158775,1.5677762099521,-0.144963141214248,64.8595612347199,-0.144963141214248
0.18,0.0438603776395509,-0.00475829893104637,-0.260353002755789,-0.0550727098661221,-0.0438745482090305,-0.00462581396671695,0.260185489637258,-0.0558587539976895,1.5677762099521,-0.144963141214248,64.8595612347199,-0.144963141214248
0.19,-0.0432545982925675,-0.0239478248064126,0.204303320451269,0.0609464746248005,0.0431820759087363,-0.0240783493334188,-0.204118323521172,0.0615632156365435,1.5677762099521,-0.144963141214248,67.9114168392234,-0.144963141214248
0.2,1.45112484428109,0.0147829697854691,1.96708811459813,-0.172501034256909,-1.45107358012638,0.0191654622879202,-1.96760011608258,-0.166559420642409,1.5677762099521,-0.144963141214248,108.806281939576,350.818431376738
0.21,1.47049024157211,-0.00475829893596938,2.37801745074384,-0.173205604196326,-1.47049790592563,-0.000317231640979722,-2.37852970604506,-0.166022934645936,1.5677762099521,-0.144963141214248,87.8386948687884,350.818431376738
0.22,1.63594616381068,0.102191064759278,1.55967801343584,-1.22724224396647,-1.63563007451069,0.107131339764274,-1.56337730978397,-1.22252624439055,1.5677762099521,-0.144963141214248,51.768237361853,350.818431376738
0.23,1.08007523389021,-0.00469967512829056,2.72853325323988,-0.290633928589255,0.335948078272279,-1.02651034408547,1.11399557732357,-2.50766338414599,-2.82965841631105,85.9173649057966,98.6626221202395,350.818431376738
0.24,0.904027944014265,-0.0241236962312006,2.7292371002429,-0.0557772798034009,0.903649607407806,-0.0355789728664673,2.72696980723188,-0.124426382774095,-1.63682688112113,137.798910182363,158.738547350974,350.818431376738
0.25,0.874716040938958,-0.0144703094869038,2.96350084109716,-0.173205604196326,0.371977704363041,0.791814454016454,1.14873728354453,2.7372869907818,-0.455721112753625,148.785590358578,213.744552629064,350.818431376738
0.26,0.727628911307706,0.0243191089185732,3.31260894965254,-0.523376867538596,-0.567713571607587,0.455781254816373,-2.96480779366381,1.56755100249496,0.927738088880769,216.841970329823,237.899774010092,350.818431376738
0.27,0.708732504462331,-0.00469967512864609,3.08045674976191,-0.0557772798034009,-0.355975372950686,-0.612866530070279,-1.51677256134832,-2.68173934028586,2.60875200085557,195.784166667938,239.776665207028,350.818431376738
0.28,0.356462053298063,-0.0342460734268521,2.73064479423354,0.0630601844848126,0.35694725575122,0.0287514451515328,2.72934953869766,-0.105112676461385,-1.58619988142444,289.781319286659,250.630589665296,350.818431376738
0.29,0.619976061969817,0.0433913872138082,3.37091094234801,-0.521263157841158,0.0941265109474675,0.61432347329139,-0.242853683866819,3.40231949546135,-0.0821625184060363,263.840546627435,252.853866472162,350.818431376738
0.3,0.43527199003509,-0.00428930848164673,3.25571465103927,-0.0578909896527225,-0.389837563750188,-0.19366666560272,-2.90462363664234,-1.47179848659161,2.02201712342283,263.840546648375,263.794768814898,350.818431376738
0.31,0.36617406386567,-0.0337770829825779,2.96490853503951,0.0609464746650647,0.325842568421153,-0.170443412860157,2.45676609591862,-1.66093270299221,-2.14472399132878,297.716143856048,281.773250180352,350.818431376738
0.32,0.465814993049976,-0.0149392999382065,3.25782619203186,-0.17109189434059,0.0534956081214831,0.462974092519772,0.308248869754975,3.24772021086987,-0.147097906781344,203.71899124949,297.716143858369,350.818431376738
0.33,0.571709128218437,0.0143139793515474,3.78395181934691,-0.640100622061633,-0.537834488424715,-0.194397223113107,-3.29273973399317,-1.97126487862109,1.94266187549818,239.730887367898,307.787267353232,350.818431376738
0.34,0.357575905623353,-0.0529079850445291,4.01610401916636,-0.293452208405455,0.361181625513386,-0.0144089054179001,4.0007505395514,-0.457384752327219,-1.75756610486988,265.976845571528,325.793215419805,350.818431376738
0.35,0.376237817244682,-0.0436063411446308,3.66840360460867,-0.290633928589255,-0.296142801403052,0.236126765298256,-2.79203161383437,2.3971258945042,0.782292716273049,284.898350319453,352.908952465879,350.818431376738
0.36,0.366525806686365,0.0533965167606775,3.54933615496791,-0.640805191899493,-0.00285607835183414,-0.37038385195053,1.1193831278557,-3.42861485851061,-3.00463850579433,302.904298384627,352.954730299891,350.818431376738
0.37,0.239624807640636,-0.0240064486225428,3.60904584154692,-0.408766822913055,0.0582268649172669,0.233679246434477,0.832534663570924,3.53541910328244,-0.344051710723471,315.722091924942,367.87677827819,350.818431376738
0.38,0.220024915116619,0.0244363565264672,3.43273216979605,-0.406653113065544,-0.163584034625223,-0.149158849580231,-1.96027809917871,-2.84716116119177,2.4207108974339,331.896926628813,362.766446067559,350.818431376738
0.39,0.151806346024796,0.00530545445329953,3.43202832281633,-0.291338498522264,0.144466585424264,0.0469331464554603,3.1254299519102,1.44754417723167,-1.2217456035991,341.968050123676,370.914900532563,350.818431376738
0.4,0.122377195339407,-0.00487554654955126,3.37407825370869,-0.289224788668339,-0.122469837435027,0.00104298223099694,-3.38411191253419,-0.125863433825314,1.52246103450929,352.954730299891,365.772523838807,350.818431376738
0.41,0.102542807596447,0.034265614697833,3.14051835983201,-0.173205604196326,0.0715117518240903,-0.0810877863271154,2.80355909133108,-1.42580229035509,-2.09637144127059,357.837699267096,365.804568322513,350.818431376738
0.42,-0.0337184591655598,0.0343828623059853,3.78359989580632,-0.407357683019594,0.0474702881021919,-0.0081047798456694,-2.49145106083337,2.87649788196219,0.606539173789881,362.720668234303,367.90882276196,350.818431376738
0.43,-0.0335425877577981,0.0925963018209385,3.54792846101883,-0.405948543170348,-0.0984823604985086,-0.000636376496835678,1.61068740872112,-3.18720514802496,-2.78758893929148,365.772523838807,362.720668234303,350.818431376738
0.44,0.00518820684585876,0.044153496664243,3.25677042153396,-0.289929358624527,0.0443447384282267,-0.00316115986417767,0.324284907155141,3.25352914702824,-0.188133145228628,367.90882276196,367.90882276196,350.818431376738
0.45,0.0539827548303577,0.0246708517550509,3.13946258935924,0.061651044589528,-0.0541395368969826,-0.0243248697832994,-2.11612433395004,-2.31992327557394,2.42173869583297,365.772523838807,362.720668234303,350.818431376738
0.46,0.0343242384977725,-0.0340702020112785,2.9059026955301,0.297212263342251,0.0103849023107239,0.0472343711457877,2.60330425665878,1.32491982875659,-0.998099719445538,370.960678366464,365.772523838807,350.818431376738
0.47,0.0443879918891752,-0.00452380370875392,3.19741265845835,0.060946474647973,-0.0446014926138693,-0.00121057034648249,-3.18402840245946,0.298538629951202,1.49636722507818,365.772523838807,357.869743750686,350.818431376738
0.48,-0.0334839639312898,0.00501233542211099,3.43026870524122,-0.0550727098344037,-0.0309988442512462,0.0136151019835565,2.93122964750847,-1.78260179150958,-2.13323412460499,365.772523838751,354.785843662593,350.818431376738
0.49,0.0346173575312716,-0.0240650724252722,3.37337440671831,0.0609464746458415,-0.0383704202558891,0.0174699743178958,-1.6705799313624,2.93130210889343,0.536065945797185,359.973998190249,359.973998190249,350.818431376738
0.5,0.0832360340974524,-0.0336012115462911,3.13946258935924,0.29439398346198,0.033023586130649,-0.0834668889364068,-0.316143120955489,-3.13734707907132,3.13466268387543,359.973998190249,352.954730299891,350.818431376738
0.51,0.0440948728597629,-0.00446517990201711,3.31612818461352,-0.0571864196944093,0.018747067652675,0.0401602178592455,1.64916648046661,2.87753824354968,-0.537661334427864,357.837699267096,359.941953706737,350.818431376738
0.52,0.0445052395138729,-0.0727423727873563,3.31472049060139,0.412526877821764,0.000461415475361202,-0.0852757658346203,-3.03529152787079,-1.39447326850458,2.12527252130834,354.785843662593,354.785843662593,350.818431376738
0.53,0.102484183784991,0.102249688559961,2.96561238208015,-0.640100621977469,0.103330585061678,-0.101394264766288,2.96018914111608,0.664729911935283,-1.56248381479395,357.837699267096,354.785843662593,350.818431376738
0.54,0.0445052394926798,-0.0240650724288259,3.37302248325512,0.0609464746671963,-0.0505152482960466,-0.0028379117135992,-3.02642390335313,1.49055476334541,1.13122263476637,357.837699267096,359.973998190249,350.818431376738
0.55,0.132265077310713,-0.0142944380658207,2.84548916192597,0.178374799032676,0.0862100849612566,-0.101322272411349,1.45292327911176,-2.45308786727733,-2.54426148051263,357.837699267096,354.758376961686,350.818431376738
0.56,0.0346173575264748,-0.00464105132025594,3.3737263302231,-0.0557772798034009,-0.00819014293106536,0.0339532378167643,-0.403782264798059,3.34994034854614,0.103424140966967,354.785843662593,359.973998190249,350.818431376738
0.57,0.131854710664776,-0.0629717384378048,2.84760070291964,0.412526877864474,0.0152058584727239,-0.145326826272642,-1.34186471095771,-2.54527155441525,2.80029068727402,359.973998190249,354.758376961719,350.818431376738
0.58,0.121908204903357,0.0535137643943077,2.96596430550373,-0.405948543202399,0.130666099109886,0.0255284928229976,2.20542143906235,2.0243158739126,-0.964213049674382,354.785843662593,357.837699267096,350.818431376738
0.59,0.112723808594552,-0.014177190451531,3.08010482627116,-0.0564818497574444,-0.111036258842237,-0.0240540843824884,-3.06314909891521,-0.327648497609587,1.659020171704,357.837699267096,352.954730299891,350.818431376738
0.6,0.083060162686928,0.0438603776438172,3.1405183598224,-0.288520218803056,0.0481273279597713,-0.0806627773888912,2.83234102795726,-1.38706300736116,-2.11780180689466,354.785843662593,349.902874695386,350.818431376738
0.61,0.101839321904079,-0.00446517989935186,3.20304343446664,-0.0564818497595825,-0.0558579724738698,0.0852705824333614,-1.68466349521947,2.72480941541001,0.536111966537528,352.954730299891,354.831621497271,350.818431376738
0.62,0.0838222721494231,0.0438603776427498,3.25395503362365,-0.171796464334584,-0.0474766562384887,-0.0818283150728948,0.029627831307778,-3.25835227954477,3.09793806309378,352.954730299891,346.89679692486,350.818431376738
0.63,0.122025452496531,0.0350863479920917,2.96561238211215,-0.0593001295949995,0.0947657428875277,0.0845027623653831,1.5316713467617,2.5401488522951,-0.562604623301555,352.954730299891,357.869743751332,350.818431376738
0.64,0.0834119055157445,-0.0534942231124358,3.31472049064161,0.296507693375386,-0.0476154215699193,-0.0869019534699273,-3.05202746562116,-1.32680710444444,2.07009354846632,354.78584366236,349.948652529308,350.818431376738
0.65,0.0346759813427818,-0.0243581914591004,3.37302248319799,0.0623556145499858,0.033857073317296,0.025484186462008,3.37325037110642,0.0484853447487751,-1.53793937312241,354.785843662593,354.785843662593,350.818431376738
0.66,0.278179730827418,0.00530545445383323,2.32077122857265,-0.0571864196736952,-0.235762027561185,0.14774429549196,-2.01911436043559,1.14561188080803,1.0300688546732,354.785843662027,357.837699267096,350.818431376738
0.67,0.16140110896565,-0.0240650724221255,2.84619300892243,0.178374799019861,0.100768471910921,-0.12835560274005,1.25317739885549,-2.56167496376142,-2.6240309158242,354.785843662593,352.908952465379,350.818431376738
0.68,0.0927721732371214,0.0632843987456273,3.25747426851795,-0.522672297625968,0.069471874381557,0.0882340632729061,-0.299006635832002,3.2855623525495,-0.0683409296780145,357.837699265676,357.837699267096,350.818431376738
0.69,0.0736412711625882,-0.00446517989721705,3.37337440669728,0.0609464746247939,-0.0352928821553883,-0.0647872450342059,-1.84172956909685,-2.82690671137973,2.58222866357774,352.954730299891,352.954730299891,350.818431376738
0.7,0.102835926622536,-0.00446517990353498,3.08080867327188,-0.17391017413575,0.090045413410915,0.0498697218715315,2.67971839983043,1.52994644598607,-1.10841164429902,354.785843662593,357.791921433341,350.818431376738
0.71,0.0930066684562438,-0.00464105132025594,3.19846842895336,0.061651044589528,-0.0931216769073715,-0.000364725439209505,-3.1922621515113,0.20847901174653,1.52485411760664,354.785843662593,357.869743751177,350.818431376738
0.72,-0.00417206087425219,0.0150760888138667,3.4896264684128,-0.0564818497449493,-0.011172310384386,-0.0109486997646754,3.04706679178739,-1.7017834923351,-2.0963254204285,354.78584366337,354.785843662593,350.818431376738
0.73,0.0249053469871883,0.0341483670733148,3.54898423144727,-0.172501034227329,0.0195227416783151,0.0374866621571977,-1.73173315178776,3.10260309625162,0.460515086311649,354.785843662593,357.869743751138,350.818431376738
0.74,0.0840567673827334,-0.0439580839777136,3.07693751482479,0.415345157655684,0.0596028676189109,-0.0737926247089048,0.196725820075605,-3.09860533495955,-2.9440137342668,357.837699267096,354.785843662593,350.818431376738
0.75,0.0928894208394635,-0.0144116856786916,3.14051835988594,-0.0557772798034009,0.038070582567987,0.0859463316897612,1.6501813593648,2.67261447929324,-0.570903712634245,354.785843662593,357.837699267096,350.818431376738
0.76,0.151395979384318,0.112020322920175,2.84795262640292,-0.522672297593092,-0.187374143994433,0.0189796070357256,-2.1814925766239,-1.90397232937913,2.10686419013181,354.785843663259,354.785843662593,350.818431376738
0.77,0.11289968000084,-0.0237719534093135,2.96209314716334,0.0602419047491409,0.112463605196915,0.0257561840981747,2.96269466334092,-0.0080765940230495,-1.55318760746438,354.785843662593,352.908952465657,350.818431376738
0.78,0.0635775177700208,0.00471921639437709,3.43308409329321,-0.0536635699604739,-0.0496022579627611,0.0400498161565066,-2.85394171025733,1.90891667833284,0.965639695388224,354.785843662227,354.785843662593,350.818431376738
0.79,0.0635775177763388,0.0539241310262062,3.25747426850301,-0.290633928589255,-0.0241126931540165,-0.0798028238998619,1.56499377273669,-2.87165478108039,-2.73159693129701,352.954730299891,346.818974606958,350.818431376738
0.8,0.160873494708797,-0.247324067507394,2.79070640431917,1.1107556946783,-0.223859720680202,0.192188191950508,1.47029409819721,2.61917080641465,-0.132724068135166,352.954730299891,354.831621496071,350.818431376738
0.81,0.0930652922641002,0.0451501013411931,3.25677042153396,-0.294861348136073,-0.0940752903666305,-0.0430060462930105,-1.84651915757614,-2.69886342631624,2.45126872716715,352.954730299891,349.902874695386,350.818431376738
0.82,0.0348518527597797,-0.0336012115558847,3.37231863621218,0.060241904685691,0.0169010371318987,0.0453657139553525,3.06695937744822,1.40353918659457,-1.12375192029749,354.785843662593,357.791921433674,350.818431376738
0.83,-0.0720975109571897,-0.111649038826991,4.01469632534309,0.529250632381416,0.0621154479802157,-0.117495659832311,-3.95346465845233,0.876361803690568,1.48372683760057,354.785843662593,354.83162149666,350.818431376738
0.84,0.122142700112247,0.00512958303817967,2.96490853509861,0.0609464746354844,0.0956880457527686,-0.0760851477811001,2.36018599089299,-1.79552754995949,-2.20059327655577,352.954730299891,352.908952466524,350.818431376738
0.85,0.0930066684594161,-0.0533769755030675,3.13981451284696,0.061651044589528,-0.0910930754858449,0.0565808579848783,-1.43438975455075,2.79370042388643,0.493972228350539,357.837699267096,357.837699267096,350.818431376738
0.86,0.112547937174003,0.0147829697826792,3.13946258935924,-0.0550727098472192,-0.0308843096006481,-0.109232475840339,-0.398966972394394,-3.11449573900729,2.99664622054498,352.954730299891,352.90895246658,350.818431376738
0.87,0.0734067759375049,-0.237553433191439,3.19882035242418,0.993327370493371,-0.144957755806418,0.202008508251869,2.7240521219687,1.94902307550532,-0.64866357178807,354.785843662593,357.837699267096,350.818431376738
0.88,0.0834705293271024,0.00495371161674188,3.25606657452897,-0.0543681398867614,-0.079601967054867,-0.0256006907313918,-3.01552022636695,-1.22945646395933,1.94123522989705,354.785843662593,354.785843662593,350.818431376738
0.89,0.0731722807169893,0.0244949803399311,3.14122220680852,-0.172501034263317,0.0700968136065929,-0.0322586957173112,3.14146848162238,-0.167956358445036,-1.67906991251323,354.785843662593,357.791921433196,350.818431376738
