t,iq,id,vq,vd,ia,ib,va,vb,theta_e,omega,omega_obs,r
0,0,0,0,0,0,0,0,0,0,-0.144963141214248,0,0
0.01,0.0447397347267428,0.0346173575317601,-0.206626015589703,-0.173910174141969,-0.0446349823833701,0.0347523186785754,0.206099845013934,-0.174533414777224,1.5677762099521,-0.144963141214248,124.981116643447,-0.144963141214248
0.02,-0.0241236962312266,-0.00475829893206066,0.147760945408771,0.061651044589528,0.0241092156170162,-0.00483113350214677,-0.147574078462586,0.0620970180684405,1.5677762099521,-0.144963141214248,127.7277866875,-0.144963141214248
0.03,0.0353794670093458,0.0154278316505361,-0.149731716975375,-0.0585955595811677,-0.0353327118761541,0.0155346112529201,0.149554068949098,-0.0590474989461241,1.5677762099521,-0.144963141214248,127.7277866875,-0.144963141214248
0.04,-0.062971738440471,-0.0241823200371289,0.322666923181485,0.061651044589528,0.0628984179337287,-0.0243723914712367,-0.322479258567947,0.0626252537548021,1.5677762099521,-0.144963141214248,125.021908418999,-0.144963141214248
0.05,-0.00458242751436467,-0.00475829893203849,0.0304531132341138,0.0623556145327686,0.00456803601907584,-0.00477211667705965,-0.0302646533957755,0.0624473019772877,1.5677762099521,-0.144963141214248,121.929261038943,-0.144963141214248
0.06,0.0342069908895662,0.0147829697846551,-0.202402933638362,-0.0550727098590928,-0.0341621886587315,0.0148862113184694,0.202235684804005,-0.0556837382769336,1.5677762099521,-0.144963141214248,121.897692935637,-0.144963141214248
0.07,-0.0140599428422773,-0.0240650724249909,0.0873474118402364,0.061651044589528,0.0139871995011453,-0.0241074252806749,-0.0871608204129562,0.0619145624155435,1.5677762099521,-0.144963141214248,119.79296211579,-0.144963141214248
0.08,-0.0440753315892811,-0.02459268667829,0.20852640246567,0.063764754418849,0.0440008579072152,-0.0247256869710566,-0.208332874754664,0.0643942367594193,1.5677762099521,-0.144963141214248,124.981116643447,-0.144963141214248
0.09,-0.0145875570965985,-0.0239478248132531,0.0901627998073106,0.0609464746453535,0.0145151654502043,-0.0239917716579242,-0.089978323420635,0.0612184984722877,1.5677762099521,-0.144963141214248,127.7277866875,-0.144963141214248
0.1,-0.00469967512631386,-0.00475829893237178,0.0311569602250488,0.061651044589528,0.00468528309631049,-0.00477247077834226,-0.0309706250570993,0.0617448609441937,1.5677762099521,-0.144963141214248,127.7277866875,-0.144963141214248
0.11,-0.0530252326654835,-0.043489093530524,0.263309160109523,0.178374799039483,0.0528936488971047,-0.043649037351185,-0.262769247359121,0.179169208772823,1.5677762099521,-0.144963141214248,124.981116643447,-0.144963141214248
0.12,0.0343828623075287,0.0147829697846996,-0.144804788037635,-0.0557772798034009,-0.0343380592746236,0.014886742469938,0.144635674002145,-0.0562143521428135,1.5677762099521,-0.144963141214248,119.79296211579,-0.144963141214248
0.13,0.00548132587446046,0.0151933364268493,-0.0879104894292468,-0.173910174141436,-0.00543541529511654,0.0152098213563167,0.087384860261502,-0.17417488056167,1.5677762099521,-0.144963141214248,119.79296211579,-0.144963141214248
0.14,-0.00487554654369482,-0.00475829893197538,0.0318608072134148,0.061651044589528,0.00486115371162236,-0.00477300192936822,-0.0316744688355363,0.0617469866411065,1.5677762099521,-0.144963141214248,119.79296211579,-0.144963141214248
0.15,-0.0430787268885861,-0.023947824813342,0.203599473533465,0.0609464746456208,0.0430062053068042,-0.0240778181889663,-0.203414479813234,0.0615610899606639,1.5677762099521,-0.144963141214248,124.981116643447,-0.144963141214248
0.16,-0.00481692273836299,-0.00487554654439867,0.0315088837207495,0.0623556145345042,0.00480217607269653,-0.00489007195660525,-0.0313204190675125,0.0624504905244049,1.5677762099521,-0.144963141214248,129.833311673468,-0.144963141214248
0.17,-0.0151151713488747,-0.0248271819014635,0.0926262642688434,0.0651738943031669,0.015040121539154,-0.0248727181900507,-0.0924290093655149,0.0654533387899467,1.5677762099521,-0.144963141214248,127.7277866875,-0.144963141214248
0.18,-0.00487554654399839,-0.00475829893212717,0.0318608072147816,0.061651044589528,0.00486115371192548,-0.00477300192952092,-0.0316744688369031,0.0617469866411106,1.5677762099521,-0.144963141214248,125.020478919953,-0.144963141214248
0.19,-0.00423068467808402,-0.00452380370820682,0.0286934957544763,0.0609464746446854,0.00421700298883422,-0.00453656021980574,-0.0285092997016008,0.061032854273348,1.5677762099521,-0.144963141214248,119.823497803122,-0.144963141214248
0.2,-0.0238892010079415,-0.00440655609690603,0.0880512588378655,-0.056481849745995,0.0238757837660041,-0.00447868406923591,-0.0882214388021642,-0.0562156674721375,1.5677762099521,-0.144963141214248,121.929261038943,-0.144963141214248
0.21,-0.0140599428431446,-0.023830577201582,0.0290454192532474,0.0602419047022481,0.0139879077039098,-0.0238729311266956,-0.0288633494757227,0.0603293503926071,1.5677762099521,-0.144963141214248,121.929261038943,-0.144963141214248
0.22,-0.0242409438431424,-0.00487554654430972,0.148112868903805,-0.0543681399139829,0.0242261085932683,-0.00494873468063153,-0.148276391313204,-0.0539205744753885,1.5677762099521,-0.144963141214248,127.688832839237,-0.144963141214248
0.23,0.0732309045180972,0.0344414861134865,-0.378012758409561,-0.173205604196326,-0.0731265533907621,0.0346624945933234,0.37748793409641,-0.174346455246571,1.5677762099521,-0.144963141214248,127.7277866875,-0.144963141214248
0.24,-0.0241236962312156,-0.0047582989320827,0.147760945408705,0.061651044589528,0.0241092156170052,-0.00483113350216877,-0.14757407846252,0.0620970180684403,1.5677762099521,-0.144963141214248,127.7277866875,-0.144963141214248
0.25,0.0832360340996623,0.0150174650086199,-0.438074368474178,-0.0564818497479762,-0.0831903000675549,0.0152687786870936,0.437901789087956,-0.0578046259270811,1.5677762099521,-0.144963141214248,121.972202735635,-0.144963141214248
0.26,-0.0143530618726003,-0.0242995676493115,0.0891070293202752,0.0623556145351724,0.0142796089927845,-0.0243428046879431,-0.0889183019878475,0.0626244433902716,1.5677762099521,-0.144963141214248,121.899281267877,-0.144963141214248
0.27,0.00507095923227715,0.0147829697848102,-0.0274969558632461,-0.0550727098600249,-0.00502628987775387,0.0147982172324513,0.0273305046962395,-0.0551555025914969,1.5677762099521,-0.144963141214248,119.79296211579,-0.144963141214248
0.28,0.0247880993670339,-0.00464105132025594,-0.0872066424367807,0.061651044589528,-0.0248020028156349,-0.00456616731191812,0.0873924378016724,0.0613873895776429,1.5677762099521,-0.144963141214248,121.899265607598,-0.144963141214248
0.29,-0.00469967512633582,-0.00475829893241572,0.0311569602251807,0.061651044589528,0.00468528309633233,-0.00477247077838626,-0.0309706250572312,0.061744860944194,1.5677762099521,-0.144963141214248,124.981116643447,-0.144963141214248
0.3,-0.00469967512614707,-0.0436063411422179,0.0311569602240476,0.178374799039218,0.00456795764791238,-0.0436203358197721,-0.0306181062152237,0.178468083069431,1.5677762099521,-0.144963141214248,127.7277866875,-0.144963141214248
0.31,0.00477784020229915,-0.0242995676490891,-0.0260892618807786,0.062355614533836,-0.00485120583469014,-0.0242850272159788,0.0262774638548248,0.0622765376585321,1.5677762099521,-0.144963141214248,125.019988517001,-0.144963141214248
0.32,-0.0145289332908296,0.0145484745602011,0.03150888372115,-0.171091894360195,0.0145728050571739,0.0145045292017287,-0.0320254567496476,-0.170995953721395,1.5677762099521,-0.144963141214248,121.929261038943,-0.144963141214248
0.33,-0.0535528469183161,-0.0436063411422396,0.265772624573427,0.178374799039348,0.0534209066427777,-0.0437678778824562,-0.265232700588274,0.179176648711897,1.5677762099521,-0.144963141214248,119.79296211579,-0.144963141214248
0.34,-0.0822785119340195,-0.0436063411420617,0.380265068785202,0.178374799038279,0.0821464406536672,-0.0438546326151296,-0.379724622651604,0.179522428744315,1.5677762099521,-0.144963141214248,119.79296211579,-0.144963141214248
0.35,-0.0149392999332153,-0.0245926866795363,0.0919224172882284,0.0637647544252682,0.0148649591274575,-0.0246376928861333,-0.0917294213554385,0.0640420796416106,1.5677762099521,-0.144963141214248,119.79296211579,-0.144963141214248
0.36,-0.00446517990264925,-0.00440655609678035,0.0301011897394151,0.0602419047035845,0.00445185124492014,-0.00442002134499346,-0.0299191151469929,0.0603325389393236,1.5677762099521,-0.144963141214248,127.688404282355,-0.144963141214248
0.37,-0.053025232664773,-0.00464105132025594,0.263309160106324,-0.05507270985936,0.0530109743446267,-0.0048011723093306,-0.263474285037669,-0.0542772354771319,1.5677762099521,-0.144963141214248,127.7277866875,-0.144963141214248
0.38,0.189892278757756,0.102425559980208,-0.90378646221379,-0.524081437484889,-0.189582076056057,0.102998588860955,0.902199555680757,-0.526808583953026,1.5677762099521,-0.144963141214248,127.7277866875,-0.144963141214248
0.39,-0.0240064486195498,-0.00452380370853651,0.147057098419471,-0.0564818497462623,0.0239926767419505,-0.00459628524710117,-0.147227009284724,-0.0560374632133644,1.5677762099521,-0.144963141214248,121.929261038943,-0.144963141214248
0.4,-0.0816336500688026,-0.0430787268885832,0.37709775732842,0.176261089206815,0.0815031751836458,-0.0433250732126421,-0.376563709280461,0.177399162916394,1.5677762099521,-0.144963141214248,119.79296211579,-0.144963141214248
0.41,-0.0438408363660721,-0.0244754390673087,0.207470631982839,0.063060184479487,0.0437667178543797,-0.0246077316928922,-0.207279236967032,0.0636864814879131,1.5677762099521,-0.144963141214248,121.929261038943,-0.144963141214248
0.42,0.0243777327258093,-0.00464105132025594,-0.143397094059454,-0.0557772798034009,-0.0243916380459077,-0.00456740666523896,0.143227986443823,-0.0562101007489833,1.5677762099521,-0.144963141214248,124.981116643447,-0.144963141214248
0.43,-0.00464105132025594,-0.00464105132025594,0.0308050367290811,-0.0557772798034009,0.00462701365855917,-0.00465504665046503,-0.0309733498872882,-0.055683990759522,1.5677762099521,-0.144963141214248,127.7277866875,-0.144963141214248
0.44,0.0827670436514436,0.0147829697845662,-0.377308911412077,-0.0550727098585583,-0.0827220199600894,0.0150328681286683,0.377140864910369,-0.0562119739627637,1.5677762099521,-0.144963141214248,127.7277866875,-0.144963141214248
0.45,0.0634016463537685,0.0146657221732654,-0.319358842321866,-0.171796464311138,-0.0633570650802128,0.0148571353784438,0.318838541263427,-0.17276018037725,1.5677762099521,-0.144963141214248,127.7277866875,-0.144963141214248
0.46,-0.0438408363658497,-0.0241823200371289,0.207470631981504,0.061651044589528,0.0437676031065315,-0.0243146139994956,-0.207283492726343,0.0622773480244021,1.5677762099521,-0.144963141214248,121.929261038943,-0.144963141214248
0.47,-0.0144116856786916,-0.0241823200371289,0.0894589528164431,0.061651044589528,0.0143385866324691,-0.0242257346609491,-0.089272351759376,0.0619209395063157,1.5677762099521,-0.144963141214248,121.929261038943,-0.144963141214248
0.48,-0.00487554654356031,-0.00475829893190813,0.0318608072128092,0.061651044589528,0.00486115371148805,-0.00477300192930055,-0.0316744688349307,0.0617469866411047,1.5677762099521,-0.144963141214248,121.929261038943,-0.144963141214248
0.49,0.0438603776364419,-0.0047582989320827,-0.202051010144864,0.0623556145330343,-0.0438745482059246,-0.00462581396776266,0.202238409636661,0.0617451134259728,1.5677762099521,-0.144963141214248,127.687076900284,-0.144963141214248
0.5,0.0047192163961634,0.0143726031425944,-0.0840393309762052,-0.170387324418025,-0.00467578799910454,0.014386790158884,0.0835243588646802,-0.170640355571317,1.5677762099521,-0.144963141214248,127.7277866875,-0.144963141214248
0.51,-0.0429614792748136,-0.0236547057823075,0.20289562653332,0.0595373347525948,0.0428898434801221,-0.0237843463937608,-0.202714891783673,0.0601498307971416,1.5677762099521,-0.144963141214248,127.7277866875,-0.144963141214248
0.52,-0.00481692273796353,-0.00487554654386605,0.0315088837191508,0.0623556145329039,0.00480217607229868,-0.00489007195607143,-0.0313204190659187,0.0624504905227997,1.5677762099521,-0.144963141214248,124.981116643447,-0.144963141214248
0.53,-0.0532597278884699,-0.0436063411420172,0.264364930591819,0.178374799038012,0.053127788949716,-0.0437669926298606,-0.263825013026528,0.17917239731672,1.5677762099521,-0.144963141214248,121.929261038943,-0.144963141214248
0.54,0.0635775177705521,0.0149002173966153,-0.26176069671552,-0.0557772798034009,-0.0635322274930291,0.0150921606837873,0.261591049296831,-0.0565675721155167,1.5677762099521,-0.144963141214248,121.929261038943,-0.144963141214248
0.55,-0.0148220523199333,-0.0242995676489123,0.0912185702912919,0.0623556145327735,0.0147485973012647,-0.0243442210913398,-0.0910298333290845,0.0626308204786292,1.5677762099521,-0.144963141214248,121.929261038943,-0.144963141214248
0.56,-0.0143530618727109,-0.0240650724251677,0.0891070293209394,0.0609464746452134,0.0142803171947946,-0.0241083105332267,-0.0889225577491577,0.0612153099267667,1.5677762099521,-0.144963141214248,124.981116643447,-0.144963141214248
0.57,-0.00446517990204721,-0.00464105132025594,0.0301011897370057,0.0609464746441443,0.00445114304242073,-0.00465451549904018,-0.0299169872642739,0.0610371056666502,1.5677762099521,-0.144963141214248,127.7277866875,-0.144963141214248
0.58,0.0635188939652744,0.0147829697848558,-0.261408773223031,-0.0557772798034009,-0.063473958056057,0.0149747365562688,0.261239127409307,-0.0565665092670653,1.5677762099521,-0.144963141214248,127.7277866875,-0.144963141214248
0.59,-0.00458242751428724,-0.00475829893219334,0.030453113233649,0.061651044589528,0.00456803601899795,-0.00477211667721426,-0.0302667812756285,0.0617427352472716,1.5677762099521,-0.144963141214248,121.929261038943,-0.144963141214248
0.6,-0.0144703094847492,0.0147829697845,0.0898108763124092,-0.0557772798034009,0.0145148897203501,0.0147392004070756,-0.0899789203715696,-0.0555057865004763,1.5677762099521,-0.144963141214248,119.79296211579,-0.144963141214248
0.61,-0.0240650724253878,-0.00487554654373821,0.147409021914119,-0.0543681399174173,0.0240502379775857,-0.00494820352863654,-0.147572547533457,-0.0539227001757396,1.5677762099521,-0.144963141214248,119.74718428171,-0.144963141214248
0.62,-0.0433132221122952,-0.0238305772013818,0.205007167514332,0.0602419047014464,0.0432410535620356,-0.0239612793136178,-0.204824295254564,0.0608607746235538,1.5677762099521,-0.144963141214248,119.79296211579,-0.144963141214248
0.63,0.0643396272492614,0.0151933364268493,-0.265631855170834,-0.0571864196936206,-0.0642934482437261,0.0153875800334112,0.265457934336889,-0.0579883969123633,1.5677762099521,-0.144963141214248,124.981116643447,-0.144963141214248
0.64,0.0337380004431699,-0.0242995676488484,-0.14198940008,0.0623556145323894,-0.0338112340013186,-0.0241975642809843,0.142177073485736,0.0619265062297398,1.5677762099521,-0.144963141214248,127.7277866875,-0.144963141214248
0.65,-0.0829233737996366,-0.0440167077837352,0.383432380243853,0.180488508870278,0.0827900602250377,-0.0442669449405267,-0.382885536024615,0.181645694572777,1.5677762099521,-0.144963141214248,127.7277866875,-0.144963141214248
0.66,-0.0926353843522142,-0.0731527394413789,0.441734372836448,0.297212263320365,0.0924140323993371,-0.0734321750839168,-0.440834743887216,0.298544995260541,1.5677762099521,-0.144963141214248,121.929261038943,-0.144963141214248
0.67,0.0245536041433532,-0.0045238037085582,-0.0861508719509302,0.0609464746467969,-0.0245671545604327,-0.00444962843683191,0.0863345442503992,0.0606860113935172,1.5677762099521,-0.144963141214248,116.741106511286,-0.144963141214248
0.68,-0.023830577201512,-0.00452380370838364,0.146001327932385,-0.0557772798034009,0.0238168061259835,-0.00459575409552396,-0.146169115732214,-0.055336085029112,1.5677762099521,-0.144963141214248,119.79296211579,-0.144963141214248
0.69,-0.0822785119335167,-0.0433718459178495,0.380265068782855,0.177670229092759,0.082147148855064,-0.043620138460343,-0.379726750529581,0.178817862012014,1.5677762099521,-0.144963141214248,121.929261038943,-0.144963141214248
0.7,-0.0344805686481068,-0.0441339553948663,0.150928256860986,0.181193078810259,0.0343471218983672,-0.044237889307601,-0.150380345107982,0.18164807274794,1.5677762099521,-0.144963141214248,127.7277866875,-0.144963141214248
0.71,0.0443879918896948,-0.00440655609655906,-0.204514474610694,0.0602419047022547,-0.0444010977501196,-0.0042724792821092,0.204695479226783,0.0596239732956565,1.5677762099521,-0.144963141214248,129.864085610653,-0.144963141214248
0.72,-0.053552846918449,-0.0436063411419738,0.265772624574225,0.178374799037751,0.0534209066429114,-0.0437678778821908,-0.265232700589077,0.179176648710302,1.5677762099521,-0.144963141214248,127.7277866875,-0.144963141214248
0.73,-0.0141771904542831,0.014782969784411,0.030101189736615,-0.171796464304777,0.0142217720266675,0.0147400856593618,-0.0306198970652923,-0.1717047718466,1.5677762099521,-0.144963141214248,124.935338809352,-0.144963141214248
0.74,0.160756247102191,0.102191064757489,-0.78683055354298,-0.521967727657578,-0.160446885478698,0.102676100621495,0.785250564034092,-0.524341663792711,1.5677762099521,-0.144963141214248,119.79296211579,-0.144963141214248
0.75,-0.00481692273826292,-0.00487554654426524,0.031508883720349,-0.0543681399142502,0.00480217607259687,-0.00489007195647152,-0.0316729379079836,-0.0542727315999018,1.5677762099521,-0.144963141214248,119.79296211579,-0.144963141214248
0.76,0.0727619140680424,0.0342069908891214,-0.375901217424602,-0.172501034250682,-0.0726582732814615,0.0344265840345813,0.375378530621562,-0.173635511423354,1.5677762099521,-0.144963141214248,124.935338809349,-0.144963141214248
0.77,-0.00464105132025594,-0.00464105132025594,0.0308050367290811,0.060946474646152,0.00462701365855917,-0.00465504665046503,-0.0306208310464142,0.0610392313655819,1.5677762099521,-0.144963141214248,127.686586636837,-0.144963141214248
0.78,-0.0433132221120598,-0.024065072425146,0.205007167513323,0.060946474645083,0.043240345359902,-0.0241957734679542,-0.204822167373235,0.0615653413539613,1.5677762099521,-0.144963141214248,124.981116643447,-0.144963141214248
0.79,0.0738757663837115,-0.00423068467769296,-0.381531993362964,-0.0571864196944289,-0.0738882066122571,-0.00400755227628955,0.38135754396071,-0.0583384283404959,1.5677762099521,-0.144963141214248,121.975038873044,-0.144963141214248
0.8,-0.0627372432178463,-0.0240650724253456,0.321611152701099,0.061651044589528,0.0626642778814799,-0.024254436192272,-0.321423492902455,0.0626220652094393,1.5677762099521,-0.144963141214248,119.79296211579,-0.144963141214248
0.81,-0.0629717384409682,-0.0241823200371289,0.322666923183873,0.061651044589528,0.062898417934226,-0.0243723914712382,-0.322479258570335,0.0626252537548093,1.5677762099521,-0.144963141214248,116.741106511286,-0.144963141214248
0.82,-0.0240064486189202,-0.00452380370811678,0.146705174919654,-0.0557772798034009,0.0239926767413222,-0.00459628524667955,-0.146872959509555,-0.0553339593322024,1.5677762099521,-0.144963141214248,116.741106511286,-0.144963141214248
0.83,-0.0628544908297056,-0.0725078775763795,0.32196307619646,0.29439398354604,0.0626352222492838,-0.0726973745184488,-0.321072504991419,0.295365005578739,1.5677762099521,-0.144963141214248,121.929261038943,-0.144963141214248
0.84,0.00577444490383532,0.0151933364264588,-0.0310161908171698,-0.0571864196917432,-0.00572853298770877,0.015210706608298,0.0308433399595591,-0.0572798312681379,1.5677762099521,-0.144963141214248,124.981116643447,-0.144963141214248
0.85,0.0634016463524475,0.0149002173966153,-0.261056849723861,-0.0557772798034009,-0.0633563568769948,0.0150916295323627,0.260887205515101,-0.0565654464185939,1.5677762099521,-0.144963141214248,127.7277866875,-0.144963141214248
0.86,0.0344414861134865,0.0149002173966153,-0.145156711533001,-0.0557772798034009,-0.0343963287122754,0.0150041665976147,0.144987595892548,-0.0562154149912735,1.5677762099521,-0.144963141214248,121.929261038943,-0.144963141214248
