t,iq,id,vq,vd,ia,ib,va,vb,theta_e,omega,omega_obs,r
0,0,0,0,0,0,0,0,0,0,-0.144963141214248,0,0
0.01,-0.0631476098586857,-0.0631476098586857,0.265068777582348,0.295803123429722,0.0629566090006932,-0.0633380347410889,-0.26417421008594,0.296602311867675,1.5677762099521,-0.144963141214248,148.785590358578,-0.144963141214248
0.02,0.0244949803365057,-0.00446517990171078,-0.14445286453958,-0.0564818497501323,-0.0245083539704648,-0.00439118194781855,0.144281624228727,-0.0569178560278507,1.5677762099521,-0.144963141214248,148.785590358578,-0.144963141214248
0.03,-0.0043479322889031,-0.0238892010057761,-0.029256573347258,0.0602419046939295,0.00427576439130294,-0.0239022233014698,0.0294383772356399,0.0601532718221389,1.5677762099521,-0.144963141214248,150.921889281731,-0.144963141214248
0.04,0.121439214437656,0.0632257749315583,-0.609813034760782,-0.405243973186714,-0.121247711670627,0.0635922466466443,0.608586371389973,-0.407083828869062,1.5677762099521,-0.144963141214248,150.921889281731,-0.144963141214248
0.05,0.0437431300203355,0.0243777327228092,-0.260001079219546,-0.171796464296455,-0.0436693070383658,0.0245097307098555,0.259481048865163,-0.17258091325499,1.5677762099521,-0.144963141214248,150.921889281731,-0.144963141214248
0.06,0.0631085273168847,0.0242604851092909,-0.376253140894004,-0.171091894343317,-0.063034970119018,0.0244509693046845,0.375734708246698,-0.172227440790823,1.5677762099521,-0.144963141214248,148.785590358578,-0.144963141214248
0.07,-0.0334253401359897,-0.0240650724238901,0.145297480909097,0.0609464746375359,0.0333525084780099,-0.0241659109531992,-0.145112753078008,0.0613850113903575,1.5677762099521,-0.144963141214248,148.785590358578,-0.144963141214248
0.08,-0.00428930848000645,-0.0237719533901712,0.0286934957298509,0.0595373347303495,0.00421749495072344,-0.023784799170095,-0.0285135554376952,0.0596237207853899,1.5677762099521,-0.144963141214248,148.785590358578,-0.144963141214248
0.09,0.00518820684387261,-0.00446517990317714,-0.0868547189394197,-0.0564818497442578,-0.00520166852733046,-0.00444949057245021,0.0866837413077732,-0.0567439031567758,1.5677762099521,-0.144963141214248,148.785590358578,-0.144963141214248
0.1,-0.0337770829782189,-0.0241823200371289,0.147057098420873,0.061651044589528,0.0337038956151453,-0.0242842203345918,-0.146870234684617,0.062094892371529,1.5677762099521,-0.144963141214248,148.785590358578,-0.144963141214248
0.11,0.0245536041433095,0.0439190014425686,-0.203106780630676,-0.289224788703268,-0.0244208518510469,0.0439929557884886,0.202232363024319,-0.28983687495591,1.5677762099521,-0.144963141214248,148.785590358578,-0.144963141214248
0.12,0.00471921639646307,-0.00499279415601304,-0.0843912544733811,-0.0536635699712183,-0.00473427367304417,-0.00497851882287138,0.0842287995977573,-0.053918196297425,1.5677762099521,-0.144963141214248,148.785590358578,-0.144963141214248
0.13,0.0826497960391315,0.0439190014416798,-0.435610904002524,-0.289224788698995,-0.0825167787963182,0.0441684128085196,0.434735426049638,-0.290539063503196,1.5677762099521,-0.144963141214248,148.785590358578,-0.144963141214248
0.14,4.4809594762938,0.0250225945918754,4.89626468400853,-0.175319314034923,-4.48086346961223,0.0385554810886856,-4.8967718383598,-0.160531245522939,1.5677762099521,-0.144963141214248,247.655030450967,378.895502938174
0.15,4.71439947238552,0.112313441949841,4.60581049154328,-1.5816409269642,-4.71403877293175,0.126550945344655,-4.61056621965825,-1.56772364911823,1.5677762099521,-0.144963141214248,297.912988544069,378.895502938174
0.16,1.86137423972202,-0.160209091573132,4.37154675069134,-0.0585955595967359,1.86783923830183,-0.0394663550820532,4.35280959362925,-0.408537727381069,-1.67778132932907,268.723515615582,323.838501905692,378.895502938174
0.17,1.36307188744153,-0.0626786194068314,4.37189867418992,-0.176023883993937,-0.668673100481372,1.18944098817755,-2.12235150564888,3.82623921254146,0.466190988475207,299.852442781522,331.92439332911,378.895502938174
0.18,1.07036322333364,0.0538655072173724,4.4877988123714,-0.525490577375109,-0.239575959744229,-1.04459670794312,-0.264650060151818,-4.510702702783,2.96642587672744,312.97542188298,349.857096861586,378.895502938174
0.19,0.806966462302234,0.0923031827786257,4.19558500243082,0.0644693243953582,0.498306902499307,0.641408590333176,2.2358974698261,3.55075376657347,-0.546604715388881,312.975421880888,359.896175872255,378.895502938174
0.2,0.347746647456733,0.0731136569005816,3.49384955038064,-0.406653113077131,-0.333018692321605,-0.12398341908167,-2.73615817623717,-2.21038229039251,2.13443066610914,352.954730300335,375.84364733367,378.895502938174
0.21,-0.0836854832890315,-0.00628251790932841,2.4974368238995,-0.0473224403602922,-0.0824959621964781,-0.0153995573273081,2.40169034505117,0.686522824980253,-1.31131747533358,391.71329647709,380.699149600438,378.895502938174
0.22,0.620562300008154,-0.0339529543955646,4.19558500242579,-0.289929358647863,-0.614958062431786,0.0898718685337135,-4.16967648866501,0.548443730441375,1.37102182963517,344.71472016773,373.707348410517,378.895502938174
0.23,0.44392877208039,0.0149588412024416,3.6673478341455,-0.291338498531715,0.378651580719286,-0.232205732120697,3.33295695092972,-1.55747109783381,-2.08721329649476,367.908822761815,391.71329647709,378.895502938174
0.24,0.180238892013127,-0.043547717336255,3.08397598472787,0.0609464746460016,-0.174572838126747,0.0625042883944018,-2.54468297300574,1.74333327681333,0.989908012025543,378.895502938174,412.725322314187,378.895502938174
0.25,-0.00522728938029584,0.0245536041430429,3.20057996991611,-0.290633928589255,-0.0219844109959085,-0.0121198062625433,2.31468188006521,-2.22944567513388,-2.42799752842755,383.77847190538,409.719244543663,378.895502938174
0.26,-0.199526124234135,-0.0339529543955646,2.90203153704037,0.061651044589528,0.0897049464747533,-0.181429049333464,-1.65451373773204,2.38498892763296,0.627739435311244,391.71329647709,409.719244543663,378.895502938174
0.27,-0.200346857519881,0.00518820684436156,2.26070961853896,0.061651044589528,-0.0773316758232016,0.184893463169271,0.760559023737663,-2.12982600276754,-2.77134358645815,396.901451004747,396.901451004747,378.895502938174
0.28,-0.26838955519175,0.00495371161936715,2.37660975672629,0.063060184485133,0.0349764872607923,-0.266146835287833,-0.203466256919463,2.36872370801854,0.112214119155877,396.901451004664,380.772394134746,378.895502938174
0.29,-0.209765749041048,-0.0826302547686649,2.02503818369937,0.648088096605304,0.124503180785856,0.187958470008911,-1.05560147689509,-1.84567151692246,2.93180287373583,396.901451004747,365.804568322496,378.895502938174
0.3,-0.102112899678821,0.0530447739271866,2.43631944330752,-0.0515498601037964,-0.0307664858421873,-0.110879284227153,1.62255559644405,1.81813727599515,-0.749771331068736,383.77847190538,352.954730299891,378.895502938174
0.31,-0.033718459169416,-0.0533183516928243,3.02109898668798,0.295803123424383,0.0460160488224453,-0.0431544246488075,-2.99869578956669,-0.471552899291047,1.82437300704897,380.726616300876,344.71472016773,378.895502938174
0.32,0.0548034881230298,-0.00469967512687537,3.89809234000221,0.06235561454152,0.0524631398136122,-0.0165265912288839,3.58056647025191,-1.54225674450026,-1.96151507473822,370.960678366464,341.968050123676,378.895502938174
0.33,0.268936710715943,0.0439776252450886,3.72600175023285,-0.172501034243265,-0.123916218994705,0.242705081452706,-2.34659738398471,2.89936654582159,0.634151670676747,362.720668234303,349.902874695386,378.895502938174
0.34,0.386184323017172,0.0149002173966153,3.78465566632022,-0.173205604196326,0.0565085630509623,-0.382318100702299,0.86755548969388,-3.68794877489327,-2.95628595428787,357.837699267096,354.785843662593,378.895502938174
0.35,0.38612569921139,-0.0334839639493073,3.84366150590189,0.17626108921474,0.0977596525530844,0.375043039884683,1.45329206770392,3.56268773673361,-0.341489884631502,357.837699267096,370.960678366464,378.895502938174
0.36,0.405784215539914,0.0440362490543104,3.90196349849494,-0.407357683039192,-0.297879400175432,-0.279048174628041,-2.23427744293155,-3.22478894402799,2.43166385441553,357.837699267096,378.922969638571,378.895502938174
0.37,0.259459195387305,-0.0433718459182431,3.90231542199031,-0.0571864196915225,0.187342828456199,0.184669585247314,3.15986275054724,2.29054651491835,-0.958215001737163,362.720668234317,393.849595400243,378.895502938174
0.38,0.103246293264875,-0.0530252326640481,3.89985195751947,0.0595373347541383,-0.0754518246918117,-0.0881957738368973,-3.63154907020956,-1.42275835455573,1.95945947775915,373.707348410504,401.784419971953,378.895502938174
0.39,0.0925376780088635,0.0243777327243638,3.31788780209644,-0.289224788696857,0.0949987148936186,-0.0115212791222841,3.24737765385202,0.739302927736401,-1.4339016210508,378.895502938174,401.784419971953,378.895502938174
0.4,-0.0339529543955646,-0.0242409438433553,2.84584108542545,0.061651044589528,0.0327210327448779,-0.025879731194752,-2.83937580414853,0.201388623339028,1.52164799995188,386.830327509884,404.836275576457,378.895502938174
0.41,-0.0640269669529705,0.00507095923186436,2.5550349694707,-0.172501034247989,-0.0623666415195897,0.0153482621262147,2.4793765691151,-0.640821449826578,-1.89113388830393,391.71329647709,393.849595400243,378.895502938174
0.42,-0.209648501428196,-0.0337770829763534,2.5518676579915,0.178374799033057,0.1651862182686,-0.133442492406273,-2.12627402536587,1.42225345205681,1.05103901200787,393.849595400155,386.830327509884,378.895502938174
0.43,-0.0929285033851343,-0.0144116856786916,2.02679780119226,0.179079368982457,-0.0451964211051553,0.0824662776217515,1.09298457916706,-1.71620612311457,-2.48638261900368,391.71329647709,373.707348410517,378.895502938174
0.44,-0.160736705828928,0.00577444491050421,2.730292870744,0.175556519225169,0.051527937509046,-0.152363067935847,-0.613060223503466,2.66636014331069,0.290207341873008,383.778471905663,362.720668234303,378.895502938174
0.45,0.00512958303817967,-0.034304697235548,2.49426951239826,0.416049727625891,0.0332918343186501,-0.00973543231026471,-0.75053948825531,-2.41478120187037,3.00552824029818,383.77847190538,357.837699267096,378.895502938174
0.46,0.112606560980971,-0.0434304697202359,3.19882035244688,0.295098553468194,0.0421757651217374,0.113082483667797,2.34232753504789,2.19841682172509,-0.725088826964515,373.707348410517,352.954730299891,378.895502938174
0.47,0.171288990937325,-0.0339529543955646,3.49103416238936,0.179079368982457,-0.153375220127599,-0.0834791194211153,-3.38564784561356,-0.869929657418926,1.87355393199966,370.960678366464,354.758376962171,378.895502938174
0.48,0.278648721268553,-0.0338943305897385,3.55039192546535,0.061651044589528,0.280252847276761,-0.0158832334237873,3.48361471784237,-0.688122208143667,-1.74845398098979,365.772523838807,354.831621496602,378.895502938174
0.49,0.385891203987597,0.0148415935907003,3.66910745162105,-0.173205604196326,-0.281468775253741,0.264400496921749,-2.88248487098669,2.27675880176161,0.855097666300547,359.973998190249,367.90882276196,378.895502938174
0.5,0.405080729868,-0.00434793229023599,3.67051514560629,-0.292043068478446,0.183134203151975,-0.361346323990549,1.88598325396677,-3.16244173918325,-2.68324438123812,359.973998190249,373.707348410517,378.895502938174
0.51,0.309191724271546,0.0140208603052212,3.89633272255609,-0.287111078860933,-0.0151160541840572,0.309140116755517,-0.652229792886483,3.85206928205313,0.0941739545417582,362.720668234303,386.830327509884,378.895502938174
0.52,0.220435281760856,0.043743130022467,3.90020388101138,-0.523376867534909,-0.0816148146331326,-0.209390059223331,-0.166682076941561,-3.93163207130999,2.9658276059573,367.908822762065,391.71329647709,378.895502938174
0.53,0.0933584112954544,0.0433913871841304,3.66594014015651,-0.404539403243171,0.074600624647597,0.0709461221178627,0.967810178129874,3.55894825743439,-0.375422575188922,375.843647333753,399.980773309573,378.895502938174
0.54,0.0246708517550509,0.00489508781274051,3.25677042153396,-0.0550727098545293,-0.0170128180458394,-0.0185250326086973,-1.6468974817406,-2.81021623128643,2.59459292611054,380.726616300876,399.980773309556,378.895502938174
0.55,-0.0827475023812939,0.00565719729621833,2.90414307801316,-0.175319314046148,-0.0568469850820816,-0.0603951431711869,2.01091587741865,2.10261770500369,-0.823404655997978,386.830327509884,393.849595400243,378.895502938174
0.56,-0.131717921786458,0.00518820684471737,2.43596751980975,0.061651044589528,0.11359406088264,0.066879875464882,-2.17534081774104,-1.09801226565863,2.06354325058465,391.713296476823,383.824249739508,378.895502938174
0.57,-0.179867607899279,-0.0722733823432473,2.90167961351572,0.292984843615393,-0.186831711708341,0.0516692332715823,2.91623637726429,0.0339129768897634,-1.4585381043674,388.966626433037,375.84364733367,378.895502938174
0.58,-0.0632648574708714,-0.0141771904518602,2.26070961854843,0.178374799029402,0.0594130246267561,-0.0259524069137808,-2.1855037082697,0.605143858487855,1.37941296061646,386.830327509972,367.954600596038,378.895502938174
0.59,0.072996409295995,0.00507095923248701,2.20346339641788,0.0623556145303817,0.0531479438524852,-0.0502940002574766,1.66195542829558,-1.44811716251681,-2.25925449214033,383.77847190538,359.973998190249,378.895502938174
0.6,0.112606560980971,-0.0142358142613467,3.19846842894091,0.29509855349154,-0.0461256537710647,0.103707859142095,-0.640454712568049,3.14755479830835,0.292738487423643,373.707348410517,352.982197000304,378.895502938174
0.61,0.190478516819105,-0.0826888785760015,2.84760070290181,0.648088096611177,0.0994764995227998,-0.182274359284166,-0.389489541292454,-2.89432994687194,-3.05157974907612,375.84364733367,357.837699267096,378.895502938174
0.62,0.249454065805031,0.0634016463530363,3.72564982673748,-0.405948543150001,0.202007866711035,0.159498970196654,1.94295538568242,3.20471297004931,-0.653557119844385,365.772523838807,362.679468183733,378.895502938174
0.63,0.307843376731542,0.0337380004409049,3.49208993287523,-0.287111078863606,-0.282296053557859,-0.127337093640805,-2.86198995251558,-2.02141989269785,2.10370409324023,365.772523838807,370.914900532525,378.895502938174
0.64,0.298541732821937,0.0153105840395772,3.60728622407235,-0.292043068481653,0.297309774629203,0.0311203812619727,3.5185035099597,0.847311103805224,-1.41526318567887,365.772523838807,375.811602849932,378.895502938174
0.65,0.297955494760118,-0.0242995676495817,3.55109577246171,-0.0550727098561329,-0.297964923795234,0.0241836728683526,-3.51329628992647,0.519676214344285,1.40843676288424,367.90882276196,380.726616300876,378.895502938174
0.66,0.21043015217796,0.0341483670819099,3.95569048561712,-0.40665311308551,0.153592414861958,-0.147838865041884,3.48401602300098,-1.91689496943791,-2.17623291826546,375.84364733367,386.784549676028,378.895502938174
0.67,0.0948826302626324,-0.0142358142594788,3.83415957145836,-0.0564818497528069,-0.0751304129916432,0.0596723803521438,-2.65662503231255,2.76519678439846,0.750645726847124,373.707348410729,388.966626433037,378.895502938174
0.68,0.102660055203056,-0.0240650724241425,3.08116059677046,-0.056481849753876,0.0701473154368583,-0.0787246389771059,1.52029533404532,-2.68056764878683,-2.64400395518223,380.726616300876,391.672096426362,378.895502938174
0.69,0.0236742470432674,-0.0240064486174024,3.25958580952656,-0.0564818497548649,-0.0275603145615248,0.0194218590653789,-0.58968300711627,3.20630064094698,0.164555140936593,383.77847190538,386.862371993764,378.895502938174
0.7,-0.0729182442159781,0.0244949803350576,3.13875874236002,-0.172501034243793,-0.0185301718794166,0.0746572644240007,-0.0813768539155477,-3.14244186218352,3.06079925482276,383.778471905588,386.830327509884,378.895502938174
0.71,-0.0436063411404955,0.0729377854797058,2.90449500150966,-0.405243973167827,0.0478559243340215,-0.0702228171215116,0.85300682393513,2.8058320067145,-0.43376164493712,383.77847190538,378.895502938174,378.895502938174
0.72,-0.0532011040837501,0.0828256674597675,2.55468304595584,-0.28852021876509,-0.0240769065690427,0.0954502552953715,-1.53592600067695,-2.06169364901164,2.3888491440203,380.726616300876,370.960678366464,378.895502938174
0.73,0.0149002173966153,-0.00475829893190813,3.02250668067909,-0.0550727098609436,0.0123493428107192,0.00959956349711452,2.81856734607126,1.092821007202,-1.2191377566827,380.726616300876,365.772523838807,378.895502938174
0.74,-0.0141771904550314,-0.0240064486193838,3.37337440671847,0.177670229095404,0.0116918265549302,-0.0253101461142123,-3.33842024251986,0.515918484398108,1.4700893322175,378.895502938174,365.772523838807,378.895502938174
0.75,0.0933584112941202,-0.0337770829775526,3.31542433762132,0.178374799037861,0.0982844551170902,-0.0140303305795431,2.84317486424133,-1.71470487220684,-2.05973886212533,373.707348410517,365.772523838807,378.895502938174
0.76,0.172109724222981,0.0147829697844294,3.54546499652046,-0.0557772798034009,-0.077538313850179,0.154363542499611,-1.90424009745065,2.99120423872313,0.551176117660415,370.960678366464,360.015198240782,378.895502938174
0.77,0.132734067759662,-0.0335425877522913,3.49173800938012,0.294393983535185,0.0697766863368358,-0.11779071262624,0.707014198935351,-3.4320595953735,-2.85431913948729,367.90882276196,370.914900532566,378.895502938174
0.78,0.200776765431977,0.0536310119927327,3.9009077280032,-0.523376867531702,0.107613457736772,0.177783403889755,0.587846228087562,3.89171443710681,-0.283288877371587,367.90882276196,373.707348410517,378.895502938174
0.79,0.219966291311045,-0.0535528469187956,3.49208993287897,0.179079368982457,-0.0753451694993302,-0.213485789127428,-2.05815927432829,-2.82679003840155,2.563498186606,370.960678366464,380.726616300876,378.895502938174
0.8,0.13226507731074,-0.0725078775712683,3.95850587359242,0.293689413575623,0.060656304325219,0.138102337893001,3.31712485533648,2.18006993397483,-0.915308249706648,373.707348410517,386.784549675728,378.895502938174
0.81,0.13197195827823,-0.0439580839801509,3.4920899328811,0.180488508884476,-0.10602968098663,-0.0900367573209419,-3.30711934090671,-1.13588285759124,1.95327734650333,375.843647333553,388.966626433037,378.895502938174
0.82,0.0248467231749108,0.0437431300189623,3.43167639929802,-0.287815648781261,0.0313174746436989,-0.039370507468507,3.34578093046739,0.815469633096894,-1.41540124817955,380.726616300876,388.934581949167,378.895502938174
0.83,0.0739930140009004,-0.00434793228671131,3.60376698905987,-0.173910174149394,-0.072104100170492,0.0171717609670913,-3.50085480443691,0.872580597057565,1.27830520132303,380.726616300876,386.830327509884,378.895502938174
0.84,-0.0146461809014622,-0.0048755465430266,3.13840681887792,-0.171796464314619,-0.00978741715873695,0.0119368351941558,2.74621807137497,-1.52885502595372,-2.13346422871952,386.830327509884,386.830327509884,378.895502938174
0.85,-0.0337184591724381,0.00507095923239806,3.02109898670159,-0.0550727098614781,0.0258403654305699,-0.0222469016025744,-2.01263130767164,2.25374961124806,0.710714988331673,383.77847190538,380.699149600463,378.895502938174
0.86,-0.00487554654373821,-0.0240650724253878,2.84724877940696,0.178374799039465,0.0208020713182432,0.0130450179689428,0.836662544279219,-2.72738683867306,-2.78137612698685,383.77847190538,375.84364733367,378.895502938174
0.87,0.102132440951022,-0.0339529543955646,2.84689685591319,0.179079368982457,-0.0243046672752352,0.104848088945108,0.443140502283974,2.81789240813752,-0.0931614963023334,383.77847190538,367.90882276196,378.895502938174
0.88,0.0542172500545516,0.0728791616806959,3.37337440671687,-0.287815648808735,-0.0897611002674597,-0.0139221869522651,-1.32035029636727,-3.11755799151747,2.65586198855375,375.84364733367,365.772523838807,378.895502938174
0.89,0.131913334473293,0.0920686875597641,3.19917227593593,-0.520558587751716,0.160773690993935,0.00543979089921136,2.24777638280771,2.33520573553832,-0.927626491334238,375.84364733367,365.726746004895,378.895502938174
