t,iq,id,vq,vd,omega,omega_obs,r
0,0,0,0,0,-0.144963141214248,0,0
0.01,0.0828256674570284,-0.0241823200371289,-0.436314750993227,0.061651044589528,-0.144963141214248,171.979692952807,-0.144963141214248
0.02,0.00483646399622979,0.0151933364385652,-0.085095101405774,-0.174614744142869,-0.144963141214248,171.979692952807,-0.144963141214248
0.03,0.0829429150681212,-0.0240650724246145,-0.43666667448399,0.0609464746418889,-0.144963141214248,171.979692952807,-0.144963141214248
0.04,-0.0632648574708714,0.0149002173966153,0.265420701078526,-0.173205604196326,-0.144963141214248,171.979692952807,-0.144963141214248
0.05,0.0532792691531377,-0.0239478248113889,-0.375901217401904,0.060241904689977,-0.144963141214248,171.979692952807,-0.144963141214248
0.06,0.0531620215697532,-0.0237719534068267,-0.317247301453617,0.0595373348161383,-0.144963141214248,171.979692952807,-0.144963141214248
0.07,0.00512958303817967,-0.0241823200371289,-0.086502795445643,0.061651044589528,-0.144963141214248,171.979692952807,-0.144963141214248
0.08,-0.00411343707969603,-0.00475829892926926,-0.0303123437648685,-0.0550727098768012,-0.144963141214248,171.979692952807,-0.144963141214248
0.09,-0.0815164024383539,0.0432741395632758,0.318091917659685,-0.286406508864974,-0.144963141214248,171.979692952807,-0.144963141214248
0.1,0.0827670436635048,-0.0240650724277601,-0.435962827555754,0.0609464746607918,-0.144963141214248,171.979692952807,-0.144963141214248
0.11,-0.0144116856786916,0.0149002173966153,0.0308050367290811,-0.173205604196326,-0.144963141214248,171.979692952807,-0.144963141214248
0.12,-0.0437822125588622,0.0147829697868912,0.148464792392594,-0.172501034265455,-0.144963141214248,171.979692952807,-0.144963141214248
0.13,-0.00458242751311001,-0.00452380370596409,-0.0282008028607801,-0.0564818497617206,-0.144963141214248,171.979692952807,-0.144963141214248
0.14,-0.0141185666534918,0.0146657221764555,0.029397342769654,-0.171796464330308,-0.144963141214248,171.979692952807,-0.144963141214248
0.15,-0.00458242751293238,-0.00475829893490306,-0.0282008028618464,-0.0550727098429463,-0.144963141214248,171.979692952807,-0.144963141214248
0.16,0.00530545445383242,-0.0241823200371289,-0.0872066424274892,0.061651044589528,-0.144963141214248,171.979692952807,-0.144963141214248
0.17,-0.0338357067805616,-0.00475829893525886,0.0891070293118097,-0.0550727098408082,-0.144963141214248,171.979692952807,-0.144963141214248
0.18,0.00436747356804194,-0.023654705788572,-0.0829835605257488,0.058832764840413,-0.144963141214248,171.979692952807,-0.144963141214248
0.19,0.0342656146904493,-0.0241823200371289,-0.203106780608964,0.061651044589528,-0.144963141214248,171.979692952807,-0.144963141214248
0.2,-0.0038203180422324,-0.00475829893140217,-0.0320719612749694,-0.055072709863984,-0.144963141214248,171.979692952807,-0.144963141214248
0.21,-0.062737243200161,0.0147829697809019,0.262957236531163,-0.172501034229464,-0.144963141214248,171.979692952807,-0.144963141214248
0.22,0.00483646400942597,-0.023947824814126,-0.143397094062383,0.0602419047064246,-0.144963141214248,171.979692952807,-0.144963141214248
0.23,0.0828256674413877,-0.0239478248049905,-0.494616743502336,0.0602419046515271,-0.144963141214248,174.726362996861,-0.144963141214248
0.24,-0.0629131146353012,0.0147829697847586,0.263661083602576,-0.17250103425264,-0.144963141214248,174.726362996861,-0.144963141214248
0.25,-0.0337770829709278,-0.00464105132025594,0.0887551057986425,-0.0557772798034009,-0.144963141214248,174.726362996861,-0.144963141214248
0.26,-0.0340115782016442,-0.00452380370809672,0.089810876312541,-0.056481849748905,-0.144963141214248,174.726362996861,-0.144963141214248
0.27,0.0349104765806077,-0.0241823200371289,-0.264576084767535,0.061651044589528,-0.144963141214248,174.726362996861,-0.144963141214248
0.28,-0.0529666088561182,0.0438017538281196,0.204303320511006,-0.288520218746328,-0.144963141214248,174.726362996861,-0.144963141214248
0.29,-0.0435477173415472,0.0149002173966153,0.147409021934765,-0.173205604196326,-0.144963141214248,174.726362996861,-0.144963141214248
0.3,-0.0921077700946993,0.063460270156619,0.380616992263866,-0.406653113082636,-0.144963141214248,174.726362996861,-0.144963141214248
0.31,-0.0145289332873493,0.0147829697879575,0.0311569602146693,-0.172501034271863,-0.144963141214248,174.726362996861,-0.144963141214248
0.32,0.00530545445801798,0.0146657221701642,-0.08720664244424,-0.171796464292502,-0.144963141214248,172.020893004136,-0.144963141214248
0.33,0.00530545445170005,-0.0241823200371289,-0.0872066424189553,0.061651044589528,-0.144963141214248,171.979692952807,-0.144963141214248
0.34,0.00524683065176101,-0.0240650724235476,-0.0868547189460094,0.0609464746354779,-0.144963141214248,174.726362996861,-0.144963141214248
0.35,0.00524683064754906,-0.0240650724277595,-0.0868547189333671,0.0609464746607886,-0.144963141214248,174.726362996861,-0.144963141214248
0.36,0.0732309045123889,-0.0434890935261281,-0.378364681876725,0.177670229070093,-0.144963141214248,174.726362996861,-0.144963141214248
0.37,0.00542270206248993,-0.0241823200371289,-0.0882624128895871,0.061651044589528,-0.144963141214248,174.726362996861,-0.144963141214248
0.38,0.0825911722199135,-0.0240650724228371,-0.493560973032182,0.0609464746312082,-0.144963141214248,174.726362996861,-0.144963141214248
0.39,-0.0147048047038913,0.0149002173966153,0.0322127306885082,-0.173205604196326,-0.144963141214248,174.726362996861,-0.144963141214248
0.4,0.0336793766182768,-0.0236547057712145,-0.258593385168488,0.0588327647476966,-0.144963141214248,174.726362996861,-0.144963141214248
0.41,0.0244949803393973,-0.00464105132025594,-0.144452864551152,-0.0557772798034009,-0.144963141214248,174.726362996861,-0.144963141214248
0.42,-0.0141771904486868,-0.0240650724221266,0.0297492662151858,0.0609464746269386,-0.144963141214248,174.726362996861,-0.144963141214248
0.43,0.0539827548303577,-0.0241823200371289,-0.321118459795088,0.061651044589528,-0.144963141214248,174.726362996861,-0.144963141214248
0.44,-0.0932802462383273,0.0638706368041515,0.444549760891909,-0.408766822946911,-0.144963141214248,174.726362996861,-0.144963141214248
0.45,-0.0335425877565528,-0.00475829893140217,0.0876993353511563,-0.055072709863984,-0.144963141214248,174.726362996861,-0.144963141214248
0.46,-0.00382031801025813,-0.00475829893596992,-0.0320719614394929,-0.0550727098365353,-0.144963141214248,174.726362996861,-0.144963141214248
0.47,-0.0145289332901936,0.0147829697851133,0.0311569602232064,-0.172501034254771,-0.144963141214248,174.726362996861,-0.144963141214248
0.48,-0.0631476098548027,0.0149002173966153,0.264716854062861,-0.173205604196326,-0.144963141214248,174.726362996861,-0.144963141214248
0.49,-0.00499279415582616,-0.0045238037083992,-0.0260892618823309,-0.0564818497470874,-0.144963141214248,174.726362996861,-0.144963141214248
0.5,0.00489508780533069,0.0147829697801908,-0.0854470249189421,-0.172501034225191,-0.144963141214248,174.726362996861,-0.144963141214248
0.51,-0.0433132221114429,0.0147829697844561,0.146353251423316,-0.172501034250822,-0.144963141214248,174.726362996861,-0.144963141214248
0.52,-0.00440655608669536,-0.00475829893703624,-0.0289046498881857,-0.0550727098301275,-0.144963141214248,174.726362996861,-0.144963141214248
0.53,-0.0336012115580195,-0.00464105132025594,0.0880512588277796,-0.0557772798034009,-0.144963141214248,174.726362996861,-0.144963141214248
0.54,0.00512958303817967,-0.0241823200371289,-0.086502795445643,0.061651044589528,-0.144963141214248,174.726362996861,-0.144963141214248
0.55,-0.00481692273956218,-0.00464105132025594,-0.0271450323618133,-0.0557772798034009,-0.144963141214248,174.726362996861,-0.144963141214248
0.56,-0.0138254476353972,0.0146657221792975,0.0279896488443492,-0.171796464347387,-0.144963141214248,174.726362996861,-0.144963141214248
0.57,0.0342069908870333,-0.0240650724239023,-0.202754857122458,0.0609464746376095,-0.144963141214248,174.726362996861,-0.144963141214248
0.58,-0.00546178458334345,0.0443293680809346,-0.0236257975184459,-0.29133849851585,-0.144963141214248,174.726362996861,-0.144963141214248
0.59,0.0345001099202766,-0.0240650724235487,-0.204162551120727,0.0609464746354844,-0.144963141214248,174.726362996861,-0.144963141214248
0.6,0.0825911722494548,-0.0240650724277606,-0.493560973179965,0.0609464746607951,-0.144963141214248,174.726362996861,-0.144963141214248
0.61,-0.04343046971916,0.0146657221687432,0.14670517489808,-0.171796464283963,-0.144963141214248,174.726362996861,-0.144963141214248
0.62,-0.0141771904592434,0.0147829697868912,0.0297492662627146,-0.172501034265455,-0.144963141214248,174.726362996861,-0.144963141214248
0.63,-0.0143530618715456,0.0147829697823234,0.030453113226582,-0.172501034238006,-0.144963141214248,174.758407481097,-0.144963141214248
0.64,0.0340311194782069,-0.024065072427049,-0.20205101017108,0.0609464746565189,-0.144963141214248,174.726362996861,-0.144963141214248
0.65,-0.0532011040758166,-0.00464105132025594,0.205359090976899,-0.0557772798034009,-0.144963141214248,174.726362996861,-0.144963141214248
0.66,-0.00464105132025594,-0.00464105132025594,-0.027848879358281,-0.0557772798034009,-0.144963141214248,174.726362996861,-0.144963141214248
0.67,-0.0637338479308852,0.0151933364341239,0.267884165610971,-0.174614744121518,-0.144963141214248,174.726362996861,-0.144963141214248
0.68,0.0244949803388636,-0.00464105132025594,-0.144452864549016,-0.0557772798034009,-0.144963141214248,174.726362996861,-0.144963141214248
0.69,-0.00440655608953743,-0.00475829893561521,-0.0289046498753898,-0.0550727098386668,-0.144963141214248,174.726362996861,-0.144963141214248
0.7,0.0342069908911919,-0.0237719533981134,-0.202754857141182,0.0595373347712579,-0.144963141214248,174.726362996861,-0.144963141214248
0.71,0.0336793766113527,-0.0236547057664209,-0.200291392552719,0.0588327647220916,-0.144963141214248,174.726362996861,-0.144963141214248
0.72,0.0339724956674828,-0.0236547057853747,-0.201699086655631,0.0588327648233343,-0.144963141214248,174.726362996861,-0.144963141214248
0.73,0.00524683065424836,-0.0240650724210602,-0.0868547189534753,0.0609464746205308,-0.144963141214248,174.726362996861,-0.144963141214248
0.74,-0.0138254476194079,0.0146657221729018,0.027989648767561,-0.171796464308953,-0.144963141214248,174.726362996861,-0.144963141214248
0.75,0.0347346051545477,-0.0241823200371289,-0.205218321655965,0.061651044589528,-0.144963141214248,174.726362996861,-0.144963141214248
0.76,0.0053054544564185,-0.0241823200371289,-0.0872066424378388,0.061651044589528,-0.144963141214248,174.726362996861,-0.144963141214248
0.77,-0.0045824275118658,-0.00475829893703624,-0.0282008028682492,-0.0550727098301275,-0.144963141214248,174.726362996861,-0.144963141214248
0.78,-0.0146461809037216,0.0147829697841003,0.0318608072205787,-0.172501034248684,-0.144963141214248,174.726362996861,-0.144963141214248
0.79,-0.00411343708289213,-0.00475829892855902,-0.0306642672344692,-0.0550727098810692,-0.144963141214248,174.726362996861,-0.144963141214248
0.8,0.0246708517550509,-0.00464105132025594,-0.145156711533001,-0.0557772798034009,-0.144963141214248,174.726362996861,-0.144963141214248
0.81,0.00512958303817967,0.0146657221792975,-0.14480478804741,-0.171796464347387,-0.144963141214248,174.726362996861,-0.144963141214248
0.82,-0.0541977087917955,0.0443293680851488,0.209934096484883,-0.291338498541173,-0.144963141214248,174.726362996861,-0.144963141214248
0.83,-0.0157014093778529,0.0156037030507033,0.0371396594889509,-0.176728453829365,-0.144963141214248,174.726362996861,-0.144963141214248
0.84,-0.140257456202554,0.0632257749276822,0.611361498096523,-0.40524397316601,-0.144963141214248,174.726362996861,-0.144963141214248
0.85,0.00530545445223213,-0.0241823200371289,-0.0875585659088056,0.061651044589528,-0.144963141214248,174.726362996861,-0.144963141214248
0.86,-0.0918146510555939,0.0632257749260811,0.379209298238938,-0.405243973157457,-0.144963141214248,174.726362996861,-0.144963141214248
0.87,0.0536896358060475,-0.0241823200371289,-0.378012758438506,0.061651044589528,-0.144963141214248,174.726362996861,-0.144963141214248
0.88,-0.0433132221039787,0.0147829697823234,0.14635325139131,-0.172501034238006,-0.144963141214248,174.726362996861,-0.144963141214248
0.89,-0.042668360263281,0.0146657221764555,0.14318594004581,-0.171796464330308,-0.144963141214248,174.726362996861,-0.144963141214248
0.9,0.0345587337281342,-0.0241823200371289,-0.204514474627498,0.061651044589528,-0.144963141214248,174.726362996861,-0.144963141214248
0.91,0.0344414861134865,-0.0241823200371289,-0.262464543707726,0.061651044589528,-0.144963141214248,174.726362996861,-0.144963141214248
0.92,-0.10152666159959,0.04380175381941,0.437511290789627,-0.288520218701467,-0.144963141214248,174.726362996861,-0.144963141214248
0.93,0.033855248059529,-0.0241823200371289,-0.200995239684422,0.061651044589528,-0.144963141214248,174.726362996861,-0.144963141214248
0.94,0.00542270207657782,-0.0241823200371289,-0.0879104894684549,0.061651044589528,-0.144963141214248,174.726362996861,-0.144963141214248
0.95,-0.0141185666508233,0.0146657221743207,0.0293973427568386,-0.171796464317479,-0.144963141214248,174.726362996861,-0.144963141214248
0.96,-0.00464105132025594,-0.00464105132025594,-0.027848879358281,-0.0557772798034009,-0.144963141214248,174.726362996861,-0.144963141214248
0.97,-0.00440655609725407,-0.00475829893175689,-0.0289046498406471,-0.0550727098618524,-0.144963141214248,174.726362996861,-0.144963141214248
0.98,-0.0335425877393241,-0.00475829893632464,0.0876993352772813,-0.0550727098344037,-0.144963141214248,174.726362996861,-0.144963141214248
0.99,-0.0145875570964767,0.0149002173966153,0.0315088837194611,-0.173205604196326,-0.144963141214248,174.726362996861,-0.144963141214248
1,0.0244949803304142,-0.00464105132025594,-0.144452864515201,-0.0557772798034009,-0.144963141214248,171.979692952807,-0.144963141214248
1.01,-0.00511004176889283,-0.00434793228985789,-0.0257373383816934,-0.0571864196944093,-0.144963141214248,171.979692952807,-0.144963141214248
1.02,-0.0434304697120494,0.0149002173966153,0.146705174863932,-0.173205604196326,-0.144963141214248,171.979692952807,-0.144963141214248
1.03,0.00489508781314962,-0.0240650724246139,-0.0854470249541453,0.0609464746418857,-0.144963141214248,171.979692952807,-0.144963141214248
1.04,-0.0629717384501137,0.0149002173966153,0.264013007140432,-0.173205604196326,-0.144963141214248,171.979692952807,-0.144963141214248
1.05,0.024260485110003,-0.00452380370738512,-0.143397094041832,-0.0564818497531812,-0.144963141214248,171.979692952807,-0.144963141214248
1.06,-0.0141185666570444,0.0146657221792975,0.0293973427867152,-0.171796464347387,-0.144963141214248,171.979692952807,-0.144963141214248
1.07,-0.0434890935275469,0.0147829697833887,0.1470570984059,-0.172501034244408,-0.144963141214248,171.979692952807,-0.144963141214248
1.08,-0.0144116856786916,0.0146657221785859,0.0308050367290811,-0.17179646434311,-0.144963141214248,171.979692952807,-0.144963141214248
1.09,-0.0144116856786916,0.0149002173966153,0.0308050367290811,-0.173205604196326,-0.144963141214248,171.979692952807,-0.144963141214248
1.1,0.0342069908947456,-0.0240650724277585,-0.202754857157181,0.060946474660782,-0.144963141214248,171.979692952807,-0.144963141214248
1.11,-0.0529666088497138,-0.00475829893419417,0.204303320481103,-0.0550727098472062,-0.144963141214248,171.979692952807,-0.144963141214248
1.12,0.0342656146988971,-0.0241823200371289,-0.203106780642773,0.061651044589528,-0.144963141214248,171.979692952807,-0.144963141214248
1.13,-0.0146461809072796,0.0150760888180563,0.031860807236598,-0.173910174154659,-0.144963141214248,171.979692952807,-0.144963141214248
1.14,0.00559857347850796,-0.0241823200371289,-0.0886143363848227,0.061651044589528,-0.144963141214248,171.979692952807,-0.144963141214248
1.15,0.00512958303817967,-0.0241823200371289,-0.086502795445643,0.061651044589528,-0.144963141214248,171.979692952807,-0.144963141214248
1.16,0.208788685629693,-0.159915972561326,-1.0762289756215,0.64386067700823,-0.144963141214248,171.979692952807,-0.144963141214248
1.17,-0.0340115782030652,-0.00452380370525465,0.0898108763210716,-0.0564818497659837,-0.144963141214248,171.979692952807,-0.144963141214248
1.18,-0.00487554654183462,-0.00452380370946661,-0.0267931088823225,-0.0564818497406731,-0.144963141214248,171.979692952807,-0.144963141214248
1.19,-0.00440655608954177,-0.00475829893561304,-0.0289046498753703,-0.0550727098386799,-0.144963141214248,171.979692952807,-0.144963141214248
1.2,0.00530545445489738,-0.0241823200371289,-0.0872066424317512,0.061651044589528,-0.144963141214248,171.979692952807,-0.144963141214248
1.21,0.00530545446174901,-0.0241823200371289,-0.0872066424591718,0.061651044589528,-0.144963141214248,171.979692952807,-0.144963141214248
1.22,-0.0339529543955646,-0.00464105132025594,0.0894589528164431,-0.0557772798034009,-0.144963141214248,171.979692952807,-0.144963141214248
1.23,-0.00516866559256505,-0.00452380370418725,-0.0253854148034545,-0.056481849772398,-0.144963141214248,171.979692952807,-0.144963141214248
1.24,-0.0433132221125016,0.0147829697847586,0.146353251427855,-0.17250103425264,-0.144963141214248,171.979692952807,-0.144963141214248
1.25,0.0245536041386264,-0.00475829893668044,-0.144804788024101,-0.0550727098322656,-0.144963141214248,171.979692952807,-0.144963141214248
1.26,0.0829429150691869,-0.0240650724249697,-0.436666674489322,0.0609464746440238,-0.144963141214248,171.979692952807,-0.144963141214248
1.27,-0.014587557103862,0.0149002173966153,0.0315088837490176,-0.173205604196326,-0.144963141214248,171.979692952807,-0.144963141214248
1.28,0.0344414861134865,-0.0241823200371289,-0.203810627620364,0.061651044589528,-0.144963141214248,171.979692952807,-0.144963141214248
1.29,-0.101702533058947,0.0438017538428614,0.4382151379799,-0.28852021882226,-0.144963141214248,171.979692952807,-0.144963141214248
1.3,0.0246708517550509,-0.00464105132025594,-0.145156711533001,-0.0557772798034009,-0.144963141214248,171.979692952807,-0.144963141214248
1.31,-0.00464105132025594,-0.00464105132025594,-0.027848879358281,-0.0557772798034009,-0.144963141214248,171.979692952807,-0.144963141214248
1.32,-0.00557903222606892,-0.00411343706073614,-0.0232738738673578,-0.0585955596110748,-0.144963141214248,174.726362996861,-0.144963141214248
1.33,-0.0145289332877062,-0.0240650724281143,0.0311569602157405,0.0609464746629201,-0.144963141214248,174.726362996861,-0.144963141214248
1.34,0.0342656146931129,-0.0241823200371289,-0.261760696706986,0.061651044589528,-0.144963141214248,174.726362996861,-0.144963141214248
1.35,0.0438603776438107,-0.00475829892962642,-0.260704926269089,-0.0550727098746549,-0.144963141214248,174.726362996861,-0.144963141214248
1.36,-0.00511004177600884,-0.00464105132025594,-0.0257373383496549,-0.0557772798034009,-0.144963141214248,174.726362996861,-0.144963141214248
1.37,-0.00464105132025594,-0.00464105132025594,-0.027848879358281,-0.0557772798034009,-0.144963141214248,174.726362996861,-0.144963141214248
1.38,-0.00440655609166789,-0.00475829893454997,-0.0289046498657978,-0.0550727098450681,-0.144963141214248,174.726362996861,-0.144963141214248
1.39,0.0829429150754184,-0.0240650724270469,-0.495320590607857,0.0609464746565059,-0.144963141214248,174.726362996861,-0.144963141214248
1.4,-0.160267715367329,0.0828842912543902,0.731132794741683,-0.523376867493696,-0.144963141214248,174.726362996861,-0.144963141214248
1.41,0.0339138718665356,-0.0240650724266954,-0.25964915578038,0.0609464746543938,-0.144963141214248,174.726362996861,-0.144963141214248
1.42,-0.0918146510486699,0.0146657221666127,0.437511290789698,-0.17179646427116,-0.144963141214248,174.726362996861,-0.144963141214248
1.43,-0.0140599428463236,0.014782969785826,0.0290454192691503,-0.172501034259054,-0.144963141214248,174.685162945201,-0.144963141214248
1.44,0.0047778401921084,-0.0240650724217718,-0.0847431779171607,0.060946474624807,-0.144963141214248,174.726362996861,-0.144963141214248
1.45,-0.101819780654461,0.0826497960443663,0.497220977483541,-0.521967727678057,-0.144963141214248,174.726362996861,-0.144963141214248
