t,iq,id,vq,vd,ia,ib,va,vb,theta_e,omega,omega_obs,r
0,0,0,0,0,0,0,0,0,0,-0.144963141214248,0,0
0.01,0.0245536041428919,-0.0436063411418411,-0.203458704124266,0.178374799036954,0.0254467825570157,-0.0430912255764491,-0.0524975275084747,0.265437417899015,2.61705109019401,-0.144963141214248,-65.1494875171475,-0.144963141214248
0.02,0.024553604138271,0.0438017538131923,-0.203106780600429,-0.171796464249783,-0.0502096108896999,0.000684169273899159,0.250418229804102,0.0897613482317309,2.61705109019401,-0.144963141214248,-70.032456484354,-0.144963141214248
0.03,0.00483646400689347,-0.0239478248121,-0.085095101456986,0.177670229087179,0.0183059467832346,-0.0161796789118446,-0.111166100751057,0.162634512449453,2.61705109019401,-0.144963141214248,-75.1885665285518,-0.144963141214248
0.04,-0.00464105132025594,0.0444466156885269,-0.027848879358281,-0.174614744040981,-0.036146615386001,0.0262766664487216,0.165085596185645,-0.0633452038440124,2.61705109019401,-0.144963141214248,-75.2206110120105,-0.144963141214248
0.05,-0.0144116856786916,-0.0239478248113889,0.0308050367290811,0.177670229082906,0.0279457330401915,0.000480626824811996,-0.169210774006186,0.0623167276939328,2.61705109019401,-0.144963141214248,-75.2206110120105,-0.144963141214248
0.06,-0.00464105132025594,-0.0421407460371201,-0.027848879358281,0.288052854281827,0.0387993894411158,-0.0170876918546341,-0.235378020746351,0.168366250451062,2.61705109019401,-0.144963141214248,-70.0782343171101,-0.144963141214248
0.07,-0.0336012115558879,0.0436845062124072,0.088051258819249,-0.17109189434059,-0.0209832497482222,0.0509615613089818,0.103991707602334,-0.161898688193131,2.61705109019401,-0.144963141214248,-68.2288098216927,-0.144963141214248
0.08,-0.00458242751574928,-0.00423068468870934,-0.0282008028449363,0.0595373348097289,0.00595683865999295,0.00184754108240905,-0.0374093354789682,0.0542265722350836,2.61705109019401,-0.144963141214248,-65.1494875171475,-0.144963141214248
0.09,-0.0140599428379492,0.149695888983842,0.028693495726892,-0.750483246804311,-0.122528371438884,0.0871397691287059,0.635213325730632,-0.400689968985,2.61705109019401,-0.144963141214248,-62.0976319126439,-0.144963141214248
0.1,0.0439190014485,-0.00516866556241575,-0.319358842356475,0.0637647543757364,-0.0175215926517647,-0.0406028026480325,0.104748285399724,0.308356629242317,2.61705109019401,-0.144963141214248,-60.2665185499418,-0.144963141214248
0.11,0.00512958303817967,-0.0725078775665935,-0.086502795445643,0.294393983506836,0.0601904777028421,-0.0407530529563292,-0.211491773488308,0.222310100741519,2.61705109019401,-0.144963141214248,-60.2665185499418,-0.144963141214248
0.12,-0.00464105132025594,-0.00434793229594569,-0.027848879358281,0.060241904727786,0.00608768250574417,0.00183956362125188,-0.0381954275285921,0.0542748236538066,2.61705109019401,-0.144963141214248,-60.2665185499418,-0.144963141214248
0.13,0.00512958303817967,-0.0239478248085452,-0.086502795445643,0.177670229065817,0.0181591480043907,-0.0164333891501719,-0.110461104699786,0.16385294707363,2.61705109019401,-0.144963141214248,-62.0976319126439,-0.144963141214248
0.14,0.0149588412016552,-0.00434793229505618,-0.145508635022858,0.0602419047235098,-0.00372826228290892,-0.0151251944016786,0.0207304907712518,0.156115651692311,2.61705109019401,-0.144963141214248,-68.1555652877509,-0.144963141214248
0.15,0.00512958303817967,0.0151933364332331,-0.086502795445643,-0.05718641972431,-0.0157196259979864,0.00316914067255105,0.0928199190329397,0.0462329195651131,2.61705109019401,-0.144963141214248,-70.032456484354,-0.144963141214248
0.16,0.00530545445383242,0.0634602701627055,-0.0872066424274892,-0.289929358654111,-0.0575853247225743,0.0271897795629337,0.294623911543848,-0.0697193103785684,2.61705109019401,-0.144963141214248,-73.0843120888576,-0.144963141214248
0.17,0.024553604140048,-0.131014436097405,-0.144804788028368,0.645269816741205,0.101103176007929,-0.0868666204206017,-0.485995037260862,0.448497922839095,2.61705109019401,-0.144963141214248,-70.032456484354,-0.144963141214248
0.18,-0.00458242751486073,-0.0919318986868309,-0.0282008028502704,0.411117738019196,0.0818669423589007,-0.0420746525463864,-0.34172102797878,0.230303753405249,2.61705109019401,-0.144963141214248,-70.032456484354,-0.144963141214248
0.19,-0.00446517989721868,-0.00434793228186051,-0.0285527263696804,0.060241904660073,0.00599960322595619,0.00168733748054937,-0.0378429294450427,0.0548840409521082,2.61705109019401,-0.144963141214248,-68.2013431216519,-0.144963141214248
0.2,0.0244949803383316,0.0439190014440566,-0.144452864546887,-0.172501034256909,-0.0502817352496364,0.000793630835948949,0.22165323829902,0.0386403784539234,2.61705109019401,-0.144963141214248,-65.1494875171475,-0.144963141214248
0.21,-0.0143530618708348,0.0147829697809019,0.030453113222315,-0.172501034229464,-0.00560720637706726,0.019826896309207,0.134057481363135,-0.112750124637353,2.61705109019401,-0.144963141214248,-62.0976319126439,-0.144963141214248
0.22,-0.00469967512600668,-0.0914042844311635,-0.0274969558641573,0.408299458235897,0.0814689834368891,-0.0417089306554715,-0.339634153708153,0.228283095765913,2.61705109019401,-0.144963141214248,-60.2665185499418,-0.144963141214248
0.23,0.0048950878060412,-0.0237719533808866,-0.085447024922141,0.0602419046515271,0.0181243608768083,-0.0161423416820212,-0.00934933985739847,0.10412910730588,2.61705109019401,-0.144963141214248,-57.2146629454373,-0.144963141214248
0.24,-0.033542587754066,-0.0045238037083992,0.087347411845303,0.0609464746458415,0.0207142679094289,0.0267673139894115,-0.0964974458236509,-0.0450808837240435,2.61705109019401,-0.144963141214248,-60.2665185499418,-0.144963141214248
0.25,0.00512958303817967,0.0143726031227051,-0.086502795445643,-0.053663569889995,-0.015009237305841,0.00275810408892116,0.0897707035882616,0.047997220029056,2.61705109019401,-0.144963141214248,-60.2665185499418,-0.144963141214248
0.26,-0.00464105132025594,-0.00434793228985789,-0.027848879358281,-0.056481849748905,0.00608768250047486,0.00183956362430075,0.0628352412908062,-0.00418233003194785,2.61705109019401,-0.144963141214248,-62.0701652125032,-0.144963141214248
0.27,0.0147243459714449,0.13091672972165,-0.144100941003097,-0.637282341981851,-0.120689641812497,0.0528205153748953,0.623770135034837,-0.194434264568958,2.61705109019401,-0.144963141214248,-65.1494875171475,-0.144963141214248
0.28,0.00507095923192216,0.0147829697841003,-0.0861508719484771,-0.172501034248684,-0.015335071902067,0.00301436443182845,0.192454652650179,-0.0118231225844736,2.61705109019401,-0.144963141214248,-70.0049897842342,-0.144963141214248
0.29,-0.00464105132025594,0.131327096439729,-0.027848879358281,-0.639396052156412,-0.111346330448265,0.0697878235249741,0.567378742290998,-0.296115238363381,2.61705109019401,-0.144963141214248,-70.0049897838469,-0.144963141214248
0.3,0.00512958303817967,-0.0725078775713932,-0.086502795445643,0.29368941357629,0.0601904777069964,-0.0407530529587329,-0.210881930430807,0.221957240666918,2.61705109019401,-0.144963141214248,-70.032456484354,-0.144963141214248
0.31,-0.0144116856786916,0.0154278316355753,0.0308050367290811,-0.0585955595012537,-0.00613600913709653,0.0202005956582109,0.0352899357834988,-0.0560090199301999,2.61705109019401,-0.144963141214248,-70.032456484354,-0.144963141214248
0.32,-0.0141771904522405,-0.0237719533908396,0.0297492662311855,0.060241904685704,0.0276760678732624,0.000365737897845548,-0.0670415151101794,0.00442053992030212,2.61705109019401,-0.144963141214248,-68.2288098217052,-0.144963141214248
0.33,0.0245536041460373,-0.131014436130346,-0.144804788046345,0.645269816921162,0.101103176033442,-0.0868666204422833,-0.485995037407621,0.448497922944781,2.61705109019401,-0.144963141214248,-65.1494875171475,-0.144963141214248
0.34,-0.0141771904515289,0.0628154082801426,0.0297492662279817,-0.286406508864955,-0.0472699369068955,0.0437300961732084,0.233001275865906,-0.169186620647659,2.61705109019401,-0.144963141214248,-62.0976319126439,-0.144963141214248
0.35,-0.00464105132025594,-0.0041134370780937,-0.027848879358281,-0.0578909895896191,0.00588471431987017,0.00195700263827121,0.0640549273881706,-0.0048880501709431,2.61705109019401,-0.144963141214248,-60.2665185499418,-0.144963141214248
0.36,-0.00464105132025594,-0.092049146283466,-0.027848879358281,0.411822307899766,0.0819977861959209,-0.0420826300014652,-0.342507119998628,0.230352004800581,2.61705109019401,-0.144963141214248,-60.2207407166305,-0.144963141214248
0.37,0.00483646401386941,0.0159554458841322,-0.0850951014904877,-0.0614138392503687,-0.0162324738236409,0.00380452770836768,0.0957739813124197,0.0428973245402882,2.61705109019401,-0.144963141214248,-57.2146629454373,-0.144963141214248
0.38,-0.00469967512740187,-0.09111116536753,-0.0274969558557818,0.406890318185114,0.081215273169482,-0.0415621318622968,-0.338414467433157,0.227577375514462,2.61705109019401,-0.144963141214248,-60.2665185499418,-0.144963141214248
0.39,-0.00464105132025594,-0.00516866556561551,-0.086502795445643,0.0637647543885552,0.00679807116252468,0.00142852705808443,-0.0118698081772527,0.106807233724962,2.61705109019401,-0.144963141214248,-60.2665185499418,-0.144963141214248
0.4,-0.00458242751293211,-0.091638779628997,-0.028200802861848,0.409708598005564,0.0816132320948487,-0.0419278537589931,-0.340501341725948,0.229598033189675,2.61705109019401,-0.144963141214248,-65.1494875171475,-0.144963141214248
0.41,-0.0141771904578201,0.102484183791229,0.0293973427653822,-0.523376867569668,-0.0816053893495613,0.0635968638042644,0.438288077868438,-0.287560619812749,2.61705109019401,-0.144963141214248,-70.0049897840468,-0.144963141214248
0.42,0.00507095923067849,-0.0237719533846206,-0.0861508719410112,0.0602419046643492,0.0180362816116425,-0.0162945678330328,-0.00899684183981498,0.104738324650982,2.61705109019401,-0.144963141214248,-73.0843120888576,-0.144963141214248
0.43,0.00489508781659883,-0.0237719533993625,-0.143749017565044,0.0602419047149705,0.0181243608875127,-0.0161423417004124,0.0198492457516924,0.154592608418681,2.61705109019401,-0.144963141214248,-73.0843120888576,-0.144963141214248
0.44,0.00512958303817967,0.0143726031275035,-0.086502795445643,-0.0536635699092183,-0.0150092373099943,0.00275810409132429,0.0897707036049004,0.0479972200194287,2.61705109019401,-0.144963141214248,-73.0843120888576,-0.144963141214248
0.45,0.00507095923260656,-0.0242995676482752,-0.0861508719525856,0.179079368982457,0.0184929600492231,-0.0165588056347581,-0.111857039869007,0.164254058595485,2.61705109019401,-0.144963141214248,-68.2013431216519,-0.144963141214248
0.46,0.0050123354224657,0.0146657221651873,-0.144100941012698,-0.0543681398696697,-0.0152042280437302,0.00300638696910778,0.119226634295074,0.0974986436228824,2.61705109019401,-0.144963141214248,-65.1494875171475,-0.144963141214248
0.47,-0.0143530618729405,0.10248418378803,0.0304531132349558,-0.523376867550444,-0.0815173100831608,0.0637490899435665,0.437759330838191,-0.288474445760306,2.61705109019401,-0.144963141214248,-62.0976319126439,-0.144963141214248
0.48,-0.0143530618706572,0.063870636804862,-0.027848879358281,-0.291338498558252,-0.0480952145161077,0.0444107979163975,0.266116265040168,-0.12180235755009,2.61705109019401,-0.144963141214248,-57.2604407784155,-0.144963141214248
0.49,0.00507095923225131,0.0636361415769366,-0.086150871950453,-0.289929358645568,-0.0576201118438218,0.0274808270152217,0.294095164519107,-0.0706331363379336,2.61705109019401,-0.144963141214248,-54.1628073409338,-0.144963141214248
0.5,0.00512958303817967,-0.0722147585143356,-0.144804788024101,0.409708597941499,0.0599367674445823,-0.0406062541700591,-0.282104170404365,0.330525035212704,2.61705109019401,-0.144963141214248,-57.2146629454373,-0.144963141214248
0.51,-0.00452380370809672,-0.0434890935296817,-0.0289046498465747,0.295098553484377,0.0399077369910314,-0.0178644502931789,-0.240947704209307,0.172808677118915,2.61705109019401,-0.144963141214248,-57.2146629454373,-0.144963141214248
0.52,-0.00487554655381653,-0.00452380370347565,-0.0267931088283762,0.0609464746162546,0.00635734766496482,0.00195445256089232,-0.0393340175934967,0.0537138576979299,2.61705109019401,-0.144963141214248,-60.2665185499418,-0.144963141214248
0.53,0.00507095923192216,0.0147829697841003,-0.144804788035836,-0.0550727098557586,-0.015335071902067,0.00301436443182845,0.120188975431469,0.0977550008628381,2.61705109019401,-0.144963141214248,-65.1494875171475,-0.144963141214248
0.54,0.00530545445063428,-0.0725078775919432,-0.0875585658992136,0.294393983608391,0.060102398462487,-0.0409052791076215,-0.210963026570615,0.223223926735712,2.61705109019401,-0.144963141214248,-68.2013431216519,-0.144963141214248
0.55,-0.00452380370738512,-0.0434890935282585,-0.0285527263547486,0.178374799032676,0.0399077369894431,-0.0178644502930821,-0.140093284417061,0.114046914791578,2.61705109019401,-0.144963141214248,-70.032456484354,-0.144963141214248
0.56,0.00512958303817967,0.0143726031576504,-0.14480478804741,-0.0536635700299916,-0.015009237336088,0.00275810410642233,0.118969289352839,0.0984607210043659,2.61705109019401,-0.144963141214248,-70.032456484354,-0.144963141214248
0.57,-0.00464105132025594,-0.00276508950862997,-0.027848879358281,0.0524916352145876,0.00471764719326284,0.00263227701959429,-0.0314871536561526,0.0503933626943793,2.61705109019401,-0.144963141214248,-70.032456484354,-0.144963141214248
0.58,-0.00464105132025594,0.0433913872088346,-0.027848879358281,-0.169682754563352,-0.0352332585501233,0.025748190872456,0.160816694814463,-0.0608751833399353,2.61705109019401,-0.144963141214248,-68.2013431216519,-0.144963141214248
0.59,0.00507095923138955,-0.0240650724235487,-0.0861508719452798,0.178374799028413,0.0182899918580084,-0.0164413666132425,-0.111247196794826,0.163901198502793,2.61705109019401,-0.144963141214248,-65.1494875171475,-0.144963141214248
0.6,0.00489508781944306,0.014782969787247,-0.0854470249824804,-0.172501034267593,-0.0152469926424819,0.00316659057202233,0.192102154664344,-0.0124323398868586,2.61705109019401,-0.144963141214248,-62.0976319126439,-0.144963141214248
0.61,0.0148415935896473,-0.00452380370631989,-0.203458704118932,-0.0564818497595825,-0.00351731663528979,-0.0151117895677741,0.150783496227127,0.147817390382672,2.61705109019401,-0.144963141214248,-60.2665185499418,-0.144963141214248
0.62,-0.043547717339414,0.189716407360941,0.147409021926228,-0.990271885430724,-0.142400319378303,0.132705945414565,0.78330858580258,-0.623534671231465,2.61705109019401,-0.144963141214248,-57.2146629454373,-0.144963141214248
0.63,-0.00464105132025594,-0.0434890935254165,-0.027848879358281,0.177670229065817,0.0399664564974685,-0.0177629661953073,-0.13983593934559,0.113084837379502,2.61705109019401,-0.144963141214248,-57.2146629454373,-0.144963141214248
0.64,0.0243191089248112,-0.0917560272756189,-0.143749017573574,0.410413168103266,0.0672403569533547,-0.0670024029202416,-0.283242760666069,0.329964069462405,2.61705109019401,-0.144963141214248,-57.2146629454373,-0.144963141214248
0.65,0.0245536041404033,0.0438017538206553,-0.203106780613229,-0.17179646427541,-0.0502096108972275,0.000684169275791152,0.250418229832694,0.0897613482299759,2.61705109019401,-0.144963141214248,-62.0701652127363,-0.144963141214248
0.66,0.00524683064861538,0.0150760888122688,-0.0872066424274924,-0.056481849738548,-0.0156768614038954,0.0030089370637687,0.0925625739377871,0.0471949969740029,2.61705109019401,-0.144963141214248,-65.1037096833021,-0.144963141214248
0.67,-0.00464105132025594,0.131620215430327,-0.027848879358281,-0.640100621917654,-0.111600040653155,0.0699346222803641,0.567988585201958,-0.296468098353192,2.61705109019401,-0.144963141214248,-68.2013431216519,-0.144963141214248
0.68,-0.00464105132025594,-0.00464105132025594,-0.027848879358281,-0.0557772798034009,0.00634139273981369,0.00169276484897846,0.0622253982203578,-0.0038294699498561,2.61705109019401,-0.144963141214248,-70.032456484354,-0.144963141214248
0.69,0.0148415935889357,-0.00475829893561521,-0.144804788027299,0.062355614554262,-0.00331434843915459,-0.0152292285899085,0.018548463547885,0.156565014617198,2.61705109019401,-0.144963141214248,-70.032456484354,-0.144963141214248
0.7,0.0147243459798943,-0.00370307043107749,-0.14410094105382,0.0567190550135644,-0.00416898578796985,-0.014599268908163,0.0230747100853251,0.15313291667276,2.61705109019401,-0.144963141214248,-70.032456484354,-0.144963141214248
0.71,0.00512958303817967,0.0143726031259073,-0.086502795445643,-0.0529589999359645,-0.0150092373086127,0.00275810409052487,0.0891608605104332,0.0483500801154178,2.61705109019401,-0.144963141214248,-65.1494875171475,-0.144963141214248
0.72,0.0244949803377995,-0.0434890935309983,-0.144452864544757,0.295098553492289,0.0253746582169896,-0.0429817640199662,-0.183079279960875,0.272821853225571,2.61705109019401,-0.144963141214248,-62.0976319126439,-0.144963141214248
0.73,-0.0141771904465542,0.0140208602761001,0.029749266205584,-0.0515498599894178,-0.00503563900070295,0.0192929933316318,0.0297202520704706,-0.0515665930769813,2.61705109019401,-0.144963141214248,-57.2146629454373,-0.144963141214248
0.74,-0.0144116856786916,-0.0241823200371289,0.0308050367290811,0.061651044589528,0.028148701232893,0.000363187803842209,-0.0687899482899617,0.00421243410920552,2.61705109019401,-0.144963141214248,-54.1628073409338,-0.144963141214248
0.75,0.00507095922996743,0.0633430225313076,-0.0861508719367427,-0.289224788646984,-0.057366401590156,0.0273340282342484,0.293485321395849,-0.0702802762411256,2.61705109019401,-0.144963141214248,-54.1628073409338,-0.144963141214248
0.76,-0.0143530618726119,0.0147829697844561,0.0304531132329832,-0.0557772798034009,-0.00560720637925361,0.0198268963125252,0.0330268125822148,-0.0542929709861877,2.61705109019401,-0.144963141214248,-52.0265084177809,-0.144963141214248
0.77,-0.00469967512864609,0.0443293680887024,-0.0274969558483127,-0.1739101741696,-0.0360157715447202,0.0262686889946378,0.164299504164746,-0.0632969524688437,2.61705109019401,-0.144963141214248,-52.0265084177809,-0.144963141214248
0.78,-0.014353061872434,0.102718679010021,0.0304531132319152,-0.524786007427467,-0.0817202782728711,0.0638665289622203,0.438979016968505,-0.289180165914854,2.61705109019401,-0.144963141214248,-54.1628073409338,-0.144963141214248
0.79,-0.0144116856786916,-0.0241823200371289,0.0308050367290811,0.061651044589528,0.028148701232893,0.000363187803842209,-0.0687899482899617,0.00421243410920552,2.61705109019401,-0.144963141214248,-57.2146629454373,-0.144963141214248
0.8,-0.00446517990094971,-0.0437235887540002,-0.0285527263547486,0.179079368982457,0.0400813454269034,-0.0180326313622284,-0.14070312749121,0.114399774875811,2.61705109019401,-0.144963141214248,-60.2665185499418,-0.144963141214248
0.81,0.00512958303817967,0.0149002173966153,-0.086502795445643,-0.172501034271856,-0.0154659157532641,0.00302234189411381,0.192630901678432,-0.0115185139373586,2.61705109019401,-0.144963141214248,-65.1037096830246,-0.144963141214248
0.82,-0.0143530618720782,-0.0242995676503556,0.0304531132297793,0.0623556145414465,0.0282208255742207,0.000253726244849007,-0.0692235423566961,0.00486990285507859,2.61705109019401,-0.144963141214248,-68.1555652882299,-0.144963141214248
0.83,-0.00469967512476327,-0.00452380371124127,-0.0274969558716215,0.0609464746629201,0.00626926840107697,0.00180222640403941,-0.0389815195929991,0.0543230750810785,2.61705109019401,-0.144963141214248,-65.1494875171475,-0.144963141214248
0.84,-0.0337770829751942,0.0439190014379715,0.0887551058157167,-0.171796464288239,-0.0210981386750436,0.0512312264743908,0.104249052657177,-0.162860765595586,2.61705109019401,-0.144963141214248,-65.1494875171475,-0.144963141214248
0.85,-0.00458242751557179,0.0443293680812904,-0.0282008028460018,-0.173910174125059,-0.0360744910488919,0.0261672048943982,0.164652002144268,-0.0626877351261908,2.61705109019401,-0.144963141214248,-65.1494875171475,-0.144963141214248
