t,iq,id,vq,vd,ia,ib,va,vb,theta_e,omega,omega_obs,r,omega_ekf
0,0,0,0,0,0,0,0,0,0,-0.144963141214248,0,0,0
0.01,0.0632843987400505,0.0146657221722439,-0.318654995321846,-0.171796464304999,-0.0632398180012115,0.0148567812764677,0.318134697473355,-0.172758054674163,1.5677762099521,-0.144963141214248,-0.144963141214248,-0.144963141214248,-8.59240740673155e-11
0.02,-0.00464105132025594,-0.00464105132025594,0.0308050367290811,-0.0557772798034009,0.00462701365855917,-0.00465504665046503,-0.0309733498872882,-0.055683990759522,1.5677762099521,-0.144963141214248,-0.144963141214248,-0.144963141214248,-4.38011495480359
0.03,-0.00446517990144423,-0.00464105132025594,0.0301011897345925,-0.0557772798034009,0.00445114304181776,-0.00465451549903836,-0.0302695061027286,-0.0556861164564533,1.5677762099521,-0.144963141214248,-0.144963141214248,-0.144963141214248,3.15248115697214
0.04,-0.0242409438434884,-0.00487554654569375,0.148112868903805,-0.0543681399056659,0.0242261085936101,-0.0049487346820166,-0.148276391313178,-0.0539205744670715,1.5677762099521,-0.144963141214248,-0.144963141214248,-0.144963141214248,-4.07506484432179
0.05,-0.0144116856786916,-0.0241823200371289,0.0894589528164431,0.061651044589528,0.0143385866324691,-0.0242257346609491,-0.089272351759376,0.0619209395063157,1.5677762099521,-0.144963141214248,-0.144963141214248,-0.144963141214248,14.8228748226303
0.06,-0.0238892010044432,-0.00440655609410735,0.146705174908427,-0.056481849754404,0.0238757837625143,-0.00447868406642669,-0.146875087378669,-0.0560385260700134,1.5677762099521,-0.144963141214248,-0.144963141214248,-0.144963141214248,0.831284711124976
0.07,-0.0335425877491819,-0.043606341140748,0.146353251406912,0.178374799030385,0.0334107387314236,-0.0437074446520888,-0.145813872039738,0.178815988790947,1.5677762099521,-0.144963141214248,-0.144963141214248,-0.144963141214248,-0.195316194534674
0.08,-0.0533183516922911,-0.00464105132025594,0.264716854078702,-0.0557772798034009,0.053304092035361,-0.00480205756169681,-0.26488410047051,-0.0549775508141341,1.5677762099521,-0.144963141214248,-0.144963141214248,-0.144963141214248,-7.10292665886345
0.09,0.00548132587900204,0.0149002173966153,-0.0296084968605053,-0.0564818497576079,-0.0054363005520325,0.0149167036628803,0.0294377803030426,-0.0565710131534634,1.5677762099521,-0.144963141214248,-0.144963141214248,-0.144963141214248,-4.93758637094371
0.1,-0.0238892010026655,-0.00464105132025594,0.14670517489989,-0.0557772798034009,0.0238750755588312,-0.00471317822314284,-0.146872959489791,-0.0553339593322621,1.5677762099521,-0.144963141214248,-0.144963141214248,-0.144963141214248,-8.47554861977815
0.11,-0.0338357067816016,-0.0436063411400372,0.147760945402293,0.178374799026113,0.0337038564270616,-0.043708329903759,-0.147221559615274,0.178820240180557,1.5677762099521,-0.144963141214248,-0.144963141214248,-0.144963141214248,-7.8538100592773
0.12,0.00501233542403906,0.0146657221683341,-0.0271450323541906,-0.05507270984599,-0.00496802043783556,0.0146807931002072,0.0269785827921909,-0.0551544397289607,1.5677762099521,-0.144963141214248,-0.144963141214248,-0.144963141214248,-3.68417110415304
0.13,-0.0148220523287131,-0.0242995676514208,0.0915704938314378,0.0623556145478477,0.0147485973100368,-0.0243442210938748,-0.0913817552642203,0.0626318833422986,1.5677762099521,-0.144963141214248,-0.144963141214248,-0.144963141214248,-7.85947220048699
0.14,-0.0336012115521553,-0.0434890935250607,0.146705174891673,0.177670229063679,0.0334697163680009,-0.0435903746215806,-0.146167921799922,0.178112484885895,1.5677762099521,-0.144963141214248,-0.144963141214248,-0.144963141214248,-6.69462362727824
0.15,-0.0433132221027353,-0.0240650724224818,0.204655243969775,0.0609464746290734,0.0432403453505855,-0.0241957734652618,-0.2044702454347,0.0615642784893463,1.5677762099521,-0.144963141214248,-0.144963141214248,-0.144963141214248,-6.30922048944168
0.16,0.189481912133965,0.102191064765289,-0.901322997833525,-0.522672297635174,-0.189172419505634,0.102762855362195,0.899740358295767,-0.525392010590806,1.5677762099521,-0.144963141214248,-0.144963141214248,-0.144963141214248,-9.1834088360307
0.17,-0.043664964948707,-0.0242995676477153,0.20641486149979,0.0623556145255807,0.0435913783905139,-0.0244313299239469,-0.206225599179227,0.0629787262018621,1.5677762099521,-0.144963141214248,-0.144963141214248,-0.144963141214248,-20.8722860700327
0.18,-0.00464105132025594,-0.00464105132025594,-0.027848879358281,-0.0557772798034009,0.00462701365855917,-0.00465504665046503,0.0276802987059917,-0.0558611321701058,1.5677762099521,-0.144963141214248,-0.144963141214248,160.993012776593,-14.3768508306351
0.19,-0.00464105132025594,-0.00464105132025594,-0.027848879358281,-0.0557772798034009,0.00462701365855917,-0.00465504665046503,0.0276802987059917,-0.0558611321701058,1.5677762099521,-0.144963141214248,-0.144963141214248,160.993012776593,-26.3749044820568
0.2,-0.00464105132025594,-0.00464105132025594,-0.027848879358281,-0.0557772798034009,0.00462701365855917,-0.00465504665046503,0.0276802987059917,-0.0558611321701058,1.5677762099521,-0.144963141214248,-0.144963141214248,160.993012776593,-16.2522559370833
0.21,-0.00464105132025594,-0.00464105132025594,-0.027848879358281,-0.0557772798034009,0.00462701365855917,-0.00465504665046503,0.0276802987059917,-0.0558611321701058,1.5677762099521,-0.144963141214248,-0.144963141214248,160.993012776593,-21.9430819014517
0.22,-0.00464105132025594,-0.00464105132025594,-0.027848879358281,-0.0557772798034009,0.00462701365855917,-0.00465504665046503,0.0276802987059917,-0.0558611321701058,1.5677762099521,-0.144963141214248,-0.144963141214248,160.993012776593,-14.6311981066925
0.23,-0.00464105132025594,-0.00464105132025594,-0.027848879358281,-0.0557772798034009,0.00462701365855917,-0.00465504665046503,0.0276802987059917,-0.0558611321701058,1.5677762099521,-0.144963141214248,-0.144963141214248,160.993012776593,-18.8119813579582
0.24,-0.00464105132025594,-0.00464105132025594,-0.027848879358281,-0.0557772798034009,0.00462701365855917,-0.00465504665046503,0.0276802987059917,-0.0558611321701058,1.5677762099521,-0.144963141214248,-0.144963141214248,160.993012776593,-13.5913233601983
0.25,-0.00464105132025594,-0.00464105132025594,-0.027848879358281,-0.0557772798034009,0.00462701365855917,-0.00465504665046503,0.0276802987059917,-0.0558611321701058,1.5677762099521,-0.144963141214248,-0.144963141214248,160.993012776593,-17.7489469790749
0.26,-0.00464105132025594,-0.00464105132025594,-0.027848879358281,-0.0557772798034009,0.00462701365855917,-0.00465504665046503,0.0276802987059917,-0.0558611321701058,1.5677762099521,-0.144963141214248,-0.144963141214248,160.993012776593,-13.3289270449628
0.27,-0.00464105132025594,-0.00464105132025594,-0.027848879358281,-0.0557772798034009,0.00462701365855917,-0.00465504665046503,0.0276802987059917,-0.0558611321701058,1.5677762099521,-0.144963141214248,-0.144963141214248,160.993012776593,-17.8834921200158
0.28,-0.00464105132025594,-0.00464105132025594,-0.027848879358281,-0.0557772798034009,0.00462701365855917,-0.00465504665046503,0.0276802987059917,-0.0558611321701058,1.5677762099521,-0.144963141214248,-0.144963141214248,160.993012776593,-13.8977481593259
0.29,-0.00464105132025594,-0.00464105132025594,-0.027848879358281,-0.0557772798034009,0.00462701365855917,-0.00465504665046503,0.0276802987059917,-0.0558611321701058,1.5677762099521,-0.144963141214248,-0.144963141214248,160.993012776593,-18.7659658108271
0.3,-0.00464105132025594,-0.00464105132025594,-0.027848879358281,-0.0557772798034009,0.00462701365855917,-0.00465504665046503,0.0276802987059917,-0.0558611321701058,1.5677762099521,-0.144963141214248,-0.144963141214248,160.993012776593,-15.1721667712605
0.31,-0.00464105132025594,-0.00464105132025594,-0.027848879358281,-0.0557772798034009,0.00462701365855917,-0.00465504665046503,0.0276802987059917,-0.0558611321701058,1.5677762099521,-0.144963141214248,-0.144963141214248,160.993012776593,-20.0664001350921
0.32,-0.00464105132025594,-0.00464105132025594,-0.027848879358281,-0.0557772798034009,0.00462701365855917,-0.00465504665046503,0.0276802987059917,-0.0558611321701058,1.5677762099521,-0.144963141214248,-0.144963141214248,160.993012776593,-16.7805507396124
0.33,-0.00464105132025594,-0.00464105132025594,-0.027848879358281,-0.0557772798034009,0.00462701365855917,-0.00465504665046503,0.0276802987059917,-0.0558611321701058,1.5677762099521,-0.144963141214248,-0.144963141214248,160.993012776593,-21.494236847794
0.34,-0.00464105132025594,-0.00464105132025594,-0.027848879358281,-0.0557772798034009,0.00462701365855917,-0.00465504665046503,0.0276802987059917,-0.0558611321701058,1.5677762099521,-0.144963141214248,-0.144963141214248,160.993012776593,-18.3306118541137
0.35,-0.00464105132025594,-0.00464105132025594,-0.027848879358281,-0.0557772798034009,0.00462701365855917,-0.00465504665046503,0.0276802987059917,-0.0558611321701058,1.5677762099521,-0.144963141214248,-0.144963141214248,160.993012776593,-22.8215488411216
0.36,-0.00464105132025594,-0.00464105132025594,-0.027848879358281,-0.0557772798034009,0.00462701365855917,-0.00465504665046503,0.0276802987059917,-0.0558611321701058,1.5677762099521,-0.144963141214248,-0.144963141214248,160.993012776593,-19.5563022729004
0.37,-0.00464105132025594,-0.00464105132025594,-0.027848879358281,-0.0557772798034009,0.00462701365855917,-0.00465504665046503,0.0276802987059917,-0.0558611321701058,1.5677762099521,-0.144963141214248,-0.144963141214248,160.993012776593,-23.8809047043335
0.38,-0.00464105132025594,-0.00464105132025594,-0.027848879358281,-0.0557772798034009,0.00462701365855917,-0.00465504665046503,0.0276802987059917,-0.0558611321701058,1.5677762099521,-0.144963141214248,-0.144963141214248,160.993012776593,-20.3208755775758
0.39,-0.00464105132025594,-0.00464105132025594,-0.027848879358281,-0.0557772798034009,0.00462701365855917,-0.00465504665046503,0.0276802987059917,-0.0558611321701058,1.5677762099521,-0.144963141214248,-0.144963141214248,160.993012776593,-24.5595437709285
0.4,-0.00464105132025594,-0.00464105132025594,-0.027848879358281,-0.0557772798034009,0.00462701365855917,-0.00465504665046503,0.0276802987059917,-0.0558611321701058,1.5677762099521,-0.144963141214248,-0.144963141214248,160.993012776593,-20.5841325845307
0.41,-0.00464105132025594,-0.00464105132025594,-0.027848879358281,-0.0557772798034009,0.00462701365855917,-0.00465504665046503,0.0276802987059917,-0.0558611321701058,1.5677762099521,-0.144963141214248,-0.144963141214248,160.993012776593,-24.818492248675
0.42,-0.00464105132025594,-0.00464105132025594,-0.027848879358281,-0.0557772798034009,0.00462701365855917,-0.00465504665046503,0.0276802987059917,-0.0558611321701058,1.5677762099521,-0.144963141214248,-0.144963141214248,160.993012776593,-20.3914341355549
0.43,-0.00464105132025594,-0.00464105132025594,-0.027848879358281,-0.0557772798034009,0.00462701365855917,-0.00465504665046503,0.0276802987059917,-0.0558611321701058,1.5677762099521,-0.144963141214248,-0.144963141214248,160.993012776593,-24.7050226695011
0.44,-0.00464105132025594,-0.00464105132025594,-0.027848879358281,-0.0557772798034009,0.00462701365855917,-0.00465504665046503,0.0276802987059917,-0.0558611321701058,1.5677762099521,-0.144963141214248,-0.144963141214248,160.993012776593,-19.8490638932933
0.45,-0.00464105132025594,-0.00464105132025594,-0.027848879358281,-0.0557772798034009,0.00462701365855917,-0.00465504665046503,0.0276802987059917,-0.0558611321701058,1.5677762099521,-0.144963141214248,-0.144963141214248,160.993012776593,-24.3247361757225
0.46,-0.00464105132025594,-0.00464105132025594,-0.027848879358281,-0.0557772798034009,0.00462701365855917,-0.00465504665046503,0.0276802987059917,-0.0558611321701058,1.5677762099521,-0.144963141214248,-0.144963141214248,160.993012776593,-19.0811627622474
0.47,-0.00464105132025594,-0.00464105132025594,-0.027848879358281,-0.0557772798034009,0.00462701365855917,-0.00465504665046503,0.0276802987059917,-0.0558611321701058,1.5677762099521,-0.144963141214248,-0.144963141214248,160.993012776593,-23.7988765038607
0.48,-0.00464105132025594,-0.00464105132025594,-0.027848879358281,-0.0557772798034009,0.00462701365855917,-0.00465504665046503,0.0276802987059917,-0.0558611321701058,1.5677762099521,-0.144963141214248,-0.144963141214248,160.993012776593,-18.2023098013432
0.49,-0.00464105132025594,-0.00464105132025594,-0.027848879358281,-0.0557772798034009,0.00462701365855917,-0.00465504665046503,0.0276802987059917,-0.0558611321701058,1.5677762099521,-0.144963141214248,-0.144963141214248,160.993012776593,-23.2393270438318
0.5,-0.00464105132025594,-0.00464105132025594,-0.027848879358281,-0.0557772798034009,0.00462701365855917,-0.00465504665046503,0.0276802987059917,-0.0558611321701058,1.5677762099521,-0.144963141214248,-0.144963141214248,160.993012776593,-17.3147649839853
0.51,-0.00464105132025594,-0.00464105132025594,-0.027848879358281,-0.0557772798034009,0.00462701365855917,-0.00465504665046503,0.0276802987059917,-0.0558611321701058,1.5677762099521,-0.144963141214248,-0.144963141214248,160.993012776593,-22.7404801267483
0.52,-0.00464105132025594,-0.00464105132025594,-0.027848879358281,-0.0557772798034009,0.00462701365855917,-0.00465504665046503,0.0276802987059917,-0.0558611321701058,1.5677762099521,-0.144963141214248,-0.144963141214248,160.993012776593,-16.5184386659647
0.53,-0.00464105132025594,-0.00464105132025594,-0.027848879358281,-0.0557772798034009,0.00462701365855917,-0.00465504665046503,0.0276802987059917,-0.0558611321701058,1.5677762099521,-0.144963141214248,-0.144963141214248,160.993012776593,-22.3746841470507
0.54,-0.00464105132025594,-0.00464105132025594,-0.027848879358281,-0.0557772798034009,0.00462701365855917,-0.00465504665046503,0.0276802987059917,-0.0558611321701058,1.5677762099521,-0.144963141214248,-0.144963141214248,160.993012776593,-15.9216328956441
0.55,-0.00464105132025594,-0.00464105132025594,-0.027848879358281,-0.0557772798034009,0.00462701365855917,-0.00465504665046503,0.0276802987059917,-0.0558611321701058,1.5677762099521,-0.144963141214248,-0.144963141214248,160.993012776593,-22.1801213067362
0.56,-0.00464105132025594,-0.00464105132025594,-0.027848879358281,-0.0557772798034009,0.00462701365855917,-0.00465504665046503,0.0276802987059917,-0.0558611321701058,1.5677762099521,-0.144963141214248,-0.144963141214248,160.993012776593,-15.6359274394007
0.57,-0.00464105132025594,-0.00464105132025594,-0.027848879358281,-0.0557772798034009,0.00462701365855917,-0.00465504665046503,0.0276802987059917,-0.0558611321701058,1.5677762099521,-0.144963141214248,-0.144963141214248,160.993012776593,-22.1297401722863
0.58,-0.00464105132025594,-0.00464105132025594,-0.027848879358281,-0.0557772798034009,0.00462701365855917,-0.00465504665046503,0.0276802987059917,-0.0558611321701058,1.5677762099521,-0.144963141214248,-0.144963141214248,160.993012776593,-15.7177273487756
0.59,-0.00464105132025594,-0.00464105132025594,-0.027848879358281,-0.0557772798034009,0.00462701365855917,-0.00465504665046503,0.0276802987059917,-0.0558611321701058,1.5677762099521,-0.144963141214248,-0.144963141214248,160.993012776593,-22.0871651174087
0.6,-0.00464105132025594,-0.00464105132025594,-0.027848879358281,-0.0557772798034009,0.00462701365855917,-0.00465504665046503,0.0276802987059917,-0.0558611321701058,1.5677762099521,-0.144963141214248,-0.144963141214248,160.993012776593,-16.0368832394417
0.61,-0.00464105132025594,-0.00464105132025594,-0.027848879358281,-0.0557772798034009,0.00462701365855917,-0.00465504665046503,0.0276802987059917,-0.0558611321701058,1.5677762099521,-0.144963141214248,-0.144963141214248,160.993012776593,-21.8494066633107
0.62,-0.00464105132025594,-0.00464105132025594,-0.027848879358281,-0.0557772798034009,0.00462701365855917,-0.00465504665046503,0.0276802987059917,-0.0558611321701058,1.5677762099521,-0.144963141214248,-0.144963141214248,160.993012776593,-16.2687363071404
0.63,-0.00464105132025594,-0.00464105132025594,-0.027848879358281,-0.0557772798034009,0.00462701365855917,-0.00465504665046503,0.0276802987059917,-0.0558611321701058,1.5677762099521,-0.144963141214248,-0.144963141214248,160.993012776593,-21.3783342153838
0.64,-0.00464105132025594,-0.00464105132025594,-0.027848879358281,-0.0557772798034009,0.00462701365855917,-0.00465504665046503,0.0276802987059917,-0.0558611321701058,1.5677762099521,-0.144963141214248,-0.144963141214248,160.993012776593,-16.2497464072859
0.65,-0.00464105132025594,-0.00464105132025594,-0.027848879358281,-0.0557772798034009,0.00462701365855917,-0.00465504665046503,0.0276802987059917,-0.0558611321701058,1.5677762099521,-0.144963141214248,-0.144963141214248,160.993012776593,-20.9040988755405
0.66,-0.00464105132025594,-0.00464105132025594,-0.027848879358281,-0.0557772798034009,0.00462701365855917,-0.00465504665046503,0.0276802987059917,-0.0558611321701058,1.5677762099521,-0.144963141214248,-0.144963141214248,160.993012776593,-16.165709313548
0.67,-0.00464105132025594,-0.00464105132025594,-0.027848879358281,-0.0557772798034009,0.00462701365855917,-0.00465504665046503,0.0276802987059917,-0.0558611321701058,1.5677762099521,-0.144963141214248,-0.144963141214248,160.993012776593,-20.6852926504909
0.68,-0.00464105132025594,-0.00464105132025594,-0.027848879358281,-0.0557772798034009,0.00462701365855917,-0.00465504665046503,0.0276802987059917,-0.0558611321701058,1.5677762099521,-0.144963141214248,-0.144963141214248,160.993012776593,-16.278158387178
0.69,0.582124624435129,-0.00452380370931319,1.02651391624444,-0.056481849741595,-0.582135632022025,-0.00276570136802788,-1.02667981630341,-0.0533814048983697,1.5677762099521,-0.144963141214248,-0.144963141214248,160.993012776593,-21.6983246709699
0.7,0.582007376824809,-0.092342265323937,1.67100314621732,0.412526877889785,-0.582283606558264,-0.0905841165831631,-1.66974964804686,0.417571613615046,1.5677762099521,-0.144963141214248,-0.144963141214248,160.993012776593,-16.494576300084
0.71,0.718210019787042,0.0149002173966153,1.0872793732886,-0.173205604196326,-0.718161744025651,0.0170692243234683,-1.08779751506459,-0.169921108527355,1.5677762099521,-0.144963141214248,-0.144963141214248,160.993012776593,-14.9140577222788
0.72,0.562583355720649,-0.072625125189147,1.90526688706635,0.294393983551221,-0.562800126061824,-0.0709257290934783,-1.90436909512604,0.300146760821243,1.5677762099521,-0.144963141214248,-0.144963141214248,160.993012776593,-10.9439673427254
0.73,0.679596472799375,-0.00464105132025594,1.43709132884745,-0.0557772798034009,-0.679607389962037,-0.00258857252081938,-1.43725322856755,-0.0514368482993405,1.5677762099521,-0.144963141214248,-0.144963141214248,160.993012776593,7.30959351522937
0.74,0.68907398812868,0.0146657221729551,1.43849902282576,-0.289224788702202,-0.689026553445499,0.0167467360830587,-1.43936595380774,-0.284879041155414,1.5677762099521,-0.144963141214248,-0.144963141214248,160.993012776593,1.73259886212424
0.75,0.708908375875571,-0.00440655609623998,1.43673940534754,-0.174614744085517,-0.708918451157953,-0.00226555312863031,-1.43726020915443,-0.170274833465803,1.5677762099521,-0.144963141214248,-0.144963141214248,160.993012776593,6.1544821244874
0.76,0.718385891203987,0.0149002173966153,1.32119119065104,-0.408062252982184,-0.718337614640525,0.0170697554748893,-1.32241755910301,-0.404070246292436,1.5677762099521,-0.144963141214248,-0.144963141214248,160.993012776593,6.70112531872683
0.77,0.650577688756756,-0.00452380370789216,1.61199730661086,-0.291338498535988,-0.650588384160067,-0.00255896542838479,-1.61286982998631,-0.286468757057018,1.5677762099521,-0.144963141214248,-0.144963141214248,160.993012776593,3.26374515259824
0.78,0.728332396981235,-0.00464105132025594,1.20317951148182,-0.407357683034381,-0.728343091881307,-0.00244138455910131,-1.20440429025156,-0.403722088075958,1.5677762099521,-0.144963141214248,-0.144963141214248,160.993012776593,13.2678741470543
