t,iq,id,vq,vd,omega,r
0,0,0,0,0,488.762304700315,0
0.01,-0.00464105132025594,-0.00464105132025594,-0.027848879358281,-0.0557772798034009,488.762304700315,-0.144963141214248
0.02,-0.00464105132025594,-0.00464105132025594,-0.027848879358281,-0.0557772798034009,490.898603623468,-0.144963141214248
0.03,-0.00464105132025594,-0.00464105132025594,-0.027848879358281,-0.0557772798034009,488.762304700315,-0.144963141214248
0.04,-0.00464105132025594,-0.00464105132025594,-0.027848879358281,-0.0557772798034009,480.827480128605,-0.144963141214248
0.05,-0.00464105132025594,-0.00464105132025594,-0.027848879358281,-0.0557772798034009,475.944786102501,-0.144963141214248
0.06,-0.00464105132025594,-0.00464105132025594,-0.027848879358281,-0.0557772798034009,475.944511161399,-0.144963141214248
0.07,-0.00464105132025594,-0.00464105132025594,-0.027848879358281,-0.0557772798034009,472.892655556895,-0.144963141214248
0.08,-0.00464105132025594,-0.00464105132025594,-0.027848879358281,-0.0557772798034009,469.840799952391,-0.144963141214248
0.09,-0.00464105132025594,-0.00464105132025594,-0.027848879358281,-0.0557772798034009,461.908119921279,-0.144963141214248
0.1,-0.00464105132025594,-0.00464105132025594,-0.027848879358281,-0.0557772798034009,456.719378852604,-0.144963141214248
0.11,-0.00464105132025594,-0.00464105132025594,-0.027848879358281,-0.0557772798034009,454.886707490322,-0.144963141214248
0.12,-0.00464105132025594,-0.00464105132025594,-0.027848879358281,-0.0557772798034009,451.834851885817,-0.144963141214248
0.13,-0.00464105132025594,-0.00464105132025594,-0.027848879358281,-0.0557772798034009,446.951882918612,-0.144963141214248
0.14,-0.00464105132025594,-0.00464105132025594,-0.027848879358281,-0.0557772798034009,438.711872786451,-0.144963141214248
0.15,-0.00464105132025594,-0.00464105132025594,-0.027848879358281,-0.0557772798034009,438.711872786451,-0.144963141214248
0.16,-0.00464105132025594,-0.00464105132025594,-0.027848879358281,-0.0557772798034009,435.965202742397,-0.144963141214248
0.17,-0.00464105132025594,-0.00464105132025594,-0.027848879358281,-0.0557772798034009,433.828903819244,-0.144963141214248
0.18,-0.00464105132025594,-0.00464105132025594,-0.027848879358281,-0.0557772798034009,433.828903819244,-0.144963141214248
0.19,-0.00464105132025594,-0.00464105132025594,-0.027848879358281,-0.0557772798034009,425.894079247534,-0.144963141214248
0.2,-0.00464105132025594,-0.00464105132025594,-0.027848879358281,-0.0557772798034009,425.894079247534,-0.144963141214248
0.21,-0.00464105132025594,-0.00464105132025594,-0.027848879358281,-0.0557772798034009,422.842223643031,-0.144963141214248
0.22,-0.00464105132025594,-0.00464105132025594,-0.027848879358281,-0.0557772798034009,414.90739907132,-0.144963141214248
0.23,-0.00464105132025594,-0.00464105132025594,-0.027848879358281,-0.0557772798034009,412.771100148168,-0.144963141214248
0.24,-0.00464105132025594,-0.00464105132025594,-0.027848879358281,-0.0557772798034009,404.838475105276,-0.144963141214248
0.25,-0.00464105132025594,-0.00464105132025594,-0.027848879358281,-0.0557772798034009,407.888131180961,-0.144963141214248
0.26,-0.00464105132025594,-0.00464105132025594,-0.027848879358281,-0.0557772798034009,401.784419971953,-0.144963141214248
0.27,-0.00464105132025594,-0.00464105132025594,-0.027848879358281,-0.0557772798034009,396.901451004747,-0.144963141214248
0.28,-0.00464105132025594,-0.00464105132025594,-0.027848879358281,-0.0557772798034009,393.852161517198,-0.144963141214248
0.29,-0.00464105132025594,-0.00464105132025594,-0.027848879358281,-0.0557772798034009,391.71329647709,-0.144963141214248
0.3,-0.00464105132025594,-0.00464105132025594,-0.027848879358281,-0.0557772798034009,391.71329647709,-0.144963141214248
0.31,-0.287230705831408,-0.0426146583089079,1.49575146522139,0.525051232719829,-0.144963141214248,-0.144963141214248
0.32,-4.05904581543064,-0.063556639356904,-1.61500779470434,0.0637551121479724,250.717567549009,-0.144963141214248
0.33,-3.49264082129573,0.0828278739613378,-2.78563373876797,0.181183134245731,213.790114734511,-0.144963141214248
0.34,-3.56115195779086,-0.00510776820003772,-3.31281839769418,0.533467805168916,213.790114734511,-0.144963141214248
0.35,-1.29430645540686,-0.0144116856786916,-1.55285069762968,-0.0557772798034009,72.79438580643,-0.144963141214248
0.36,-1.14885508244652,-0.0142950399909932,-2.36910388771928,0.060950091757215,72.79438580643,-0.144963141214248
0.37,-1.26493625463689,-0.0532026508084974,-1.78816649492121,-0.0571789839644541,72.79438580643,-0.144963141214248
0.38,0.688957375973227,-0.0241823200371289,1.26323730685736,-0.0557772798034009,-49.2798383737272,-0.144963141214248
0.39,0.718385891203987,-0.22726692455635,1.43849902282576,0.990567881078642,-49.2798383737272,-0.144963141214248
0.4,-1.02014584216994,-0.00522394443628776,-1.43939193593775,-0.0529750805027304,61.8077056302154,-0.144963141214248
0.41,-1.05039033231003,-0.0143534047512607,-1.84472081739623,0.061651044589528,61.8077056302154,-0.144963141214248
0.42,0.650166268328044,0.0248456693881574,1.14662870176238,-0.173905952504565,-60.2665185499418,-0.144963141214248
0.43,0.884603203620009,-0.0145282140013063,1.49715293891312,-0.0550770322469488,-60.2665185499418,-0.144963141214248
0.44,-0.981995766055057,0.00507132725993383,-1.26063025977773,-0.0557772798034009,69.7425302019255,-0.144963141214248
0.45,-1.03172260685969,-0.121306189669642,-2.54437264918283,0.528564157949722,69.7425302019255,-0.144963141214248
0.46,-1.14815470532997,0.00518782205030252,-2.19664532040447,-0.173905549497419,69.7425302019255,-0.144963141214248
0.47,0.884544905926455,0.00524604429630237,1.55580685500048,-0.173905448745633,-62.0976319126439,-0.144963141214248
0.48,0.962477083430195,0.054099199320148,1.49820147758765,-0.408062252982184,-62.0976319126439,-0.144963141214248
0.49,-1.11866800976741,-0.00458283745842893,-1.43519340288769,-0.0564769228357783,64.8595612347199,-0.144963141214248
0.5,-1.12832220801913,-0.0142952747211605,-1.78746636197912,0.0609515023089368,64.8595612347199,-0.144963141214248
0.51,0.53320941515934,-0.0142370943915795,1.08692488822045,-0.0571761628610105,-54.1628073409338,-0.144963141214248
0.52,0.796434588646188,-0.0532614682618657,1.32188981384035,0.0609517038125095,-54.1628073409338,-0.144963141214248
0.53,0.796492785741892,0.00524594369734171,1.55615611627093,-0.173904844221558,-54.1628073409338,-0.144963141214248
0.54,-1.02119422822321,0.0151329051826934,-1.19918114637425,-0.174603882743218,56.9247366630098,-0.144963141214248
0.55,-0.826246790864164,-0.0631485303461637,-2.48712342764241,0.295808654866997,56.9247366630098,-0.144963141214248
0.56,-1.08790205116234,-0.023949699319986,-1.3831729346088,-0.174603479709372,56.9247366630098,-0.144963141214248
0.57,0.679303353770244,0.0243801177739298,1.20458147841026,-0.288537417575045,-49.2798383737272,-0.144963141214248
0.58,0.698844622487115,-0.052970977393981,1.43884803246852,0.176284423970707,-49.2798383737272,-0.144963141214248
0.59,-0.766692401248143,-0.00510609156105708,-1.20267199769833,-0.0536813732999475,51.7365821353524,-0.144963141214248
0.6,-0.971875731158354,-0.00446668637914002,-1.14262219401251,-0.0564758145527656,51.7365821353524,-0.144963141214248
0.61,-0.884346823163335,-0.0434911356980916,-1.84472484338586,0.1776825009873,51.7365821353524,-0.144963141214248
0.62,0.406248535662284,0.0144934832302058,0.851611053606188,-0.288538928851879,-44.0916838460707,-0.144963141214248
0.63,0.610967009757936,0.0243222727745908,1.20388335847631,-0.288539231147288,-44.0916838460707,-0.144963141214248
0.64,0.630450181978066,0.0246708517550509,1.32153989834192,-0.290633928589255,-44.0916838460707,-0.144963141214248
0.65,-0.747790059867575,-0.0238338416534068,-1.31614308908017,-0.057173341757567,48.9899120912987,-0.144963141214248
0.66,-0.806297639492456,-0.0629164293855183,-1.66806688754955,0.177683508531863,48.9899120912987,-0.144963141214248
0.67,-0.835319160680786,-0.0336045766085804,-1.84507460791167,0.0602553856425071,48.9899120912987,-0.144963141214248
0.68,0.405783646315479,-0.0621037658421543,0.853702393922488,0.0567669435374592,-44.0916838460707,-0.144963141214248
0.69,0.620737593818003,-0.0144116856786916,1.14522944238895,-0.0557772798034009,-44.0916838460707,-0.144963141214248
0.7,0.620737585433838,0.00512958303817967,1.37949670099936,-0.173205604196326,-44.0916838460707,-0.144963141214248
0.71,-0.874285538652176,0.0637533891887934,-0.849700415410914,-0.408062252982184,48.9899120912987,-0.144963141214248
0.72,-0.844973627193807,-0.0242403410852069,-1.55285069762968,0.0623483702907437,48.9899120912987,-0.144963141214248
0.73,-0.942447911735036,-0.00464105132025594,-1.37758545890035,-0.0557772798034009,48.9899120912987,-0.144963141214248
0.74,0.435327516219125,0.073524023547229,1.32084298620886,-0.525490577375109,-44.0916838460707,-0.144963141214248
0.75,0.611082900957874,-0.0147596610720524,1.20318705024036,-0.0543832329116874,-44.0916838460707,-0.144963141214248
0.76,0.630508169493898,0.00524555806984363,1.37949700294463,-0.173902526890397,-44.0916838460707,-0.144963141214248
0.77,-0.903597391429114,0.00524554130372063,-1.25958111719287,-0.17390242613861,51.7365821353524,-0.144963141214248
0.78,-0.98164651641523,0.0147842758994189,-1.26027712347027,-0.0557772798034009,51.7365821353524,-0.144963141214248
0.79,-0.903713299392953,0.00512958303817967,-1.8454243724375,-0.173205604196326,51.7365821353524,-0.144963141214248
0.8,0.620737501602104,-0.0240664120721786,1.20388335847631,-0.0564737994769759,-47.1435394505743,-0.144963141214248
0.81,0.640278761935915,0.00483985504111123,1.43849902282576,-0.171812766352749,-47.1435394505743,-0.144963141214248
0.82,-0.688991016925223,-0.140966434607539,-1.43589066729684,0.529275387651233,53.8728810585053,-0.144963141214248
0.83,-0.923370325179668,-0.0434339445875467,-1.61046135916399,0.0602586097530959,53.8728810585053,-0.144963141214248
0.84,-1.03049973850578,-0.00446728996957163,-1.37723665056107,-0.0564733964698175,53.8728810585053,-0.144963141214248
0.85,0.601080366836695,-0.0628594730084346,0.912004381490072,0.176991321278379,-49.2798383737272,-0.144963141214248
0.86,0.698844622487115,-0.0726301660483468,1.26253727456367,0.177687538683469,-49.2798383737272,-0.144963141214248
0.87,0.718270100604121,0.0536932783306937,1.38054020716679,-0.406670624186769,-49.2798383737272,-0.144963141214248
0.88,-0.91423623732472,-0.0040042952346715,-1.49002678286239,-0.175988458780011,53.8728810585053,-0.144963141214248
0.89,-0.904002440566822,-0.0338371973279449,-1.9026894967591,0.178383756088322,53.8728810585053,-0.144963141214248
0.9,-0.971818112503896,-0.0143538155279432,-1.72950724437494,-0.173205604196326,53.8728810585053,-0.144963141214248
0.91,0.620795271155002,0.0537513077596105,1.20388335847631,-0.406671430201059,-47.1435394505743,-0.144963141214248
0.92,0.649991450694937,-0.0338372476285224,1.3798451067384,0.060955733964023,-47.1435394505743,-0.144963141214248
0.93,-0.718591499491501,0.0247865417559569,-1.14123154023122,-0.173900814069966,51.7365821353524,-0.144963141214248
0.94,-0.913136536802604,-0.0145851955308661,-1.49523837535664,-0.0550821706815476,51.7365821353524,-0.144963141214248
0.95,-0.923196337481874,-0.00464105132025594,-1.6701585298044,0.060956036219461,51.7365821353524,-0.144963141214248
0.96,0.571768555976183,-0.160219542988751,0.619079684051178,0.645318128462831,-47.1435394505743,-0.144963141214248
0.97,0.640220816336502,-0.0627445542570179,1.26253727456367,0.176300141516532,-47.1435394505743,-0.144963141214248
0.98,0.659646478883084,0.043807498875911,1.43884601946705,-0.289244516359865,-47.1435394505743,-0.144963141214248
0.99,-0.865381590095928,-0.0625713210458761,-1.72464909008671,0.175606342167914,53.8728810585053,-0.144963141214248
1,-0.894693359024478,-0.0334328775343687,-1.9589184624204,0.176301350591368,53.8728810585053,-0.144963141214248
1.01,-0.925340183841261,0.0145535497875204,-1.94573898147852,-0.288550717051297,-49.1766856554921,-0.144963141214248
1.02,0.659762085053373,-0.0336641066366263,1.26288406990148,0.0602624384011289,-49.2798383737272,-0.144963141214248
1.03,0.659646562715921,-0.0049298571638867,1.5565003450277,-0.0550830774609877,-49.2798383737272,-0.144963141214248
1.04,-0.981935498306487,0.0247286045407156,-1.20092720110551,-0.173899705786953,56.9247366630098,-0.144963141214248
1.05,-0.97152964198717,-0.0534364787098326,-1.8482001442577,0.179079368982457,56.9247366630098,-0.144963141214248
1.06,-0.973088573196226,-0.0239513759589623,-2.07484384371895,-0.0571650799775093,56.9247366630098,-0.144963141214248
1.07,0.679476536676372,0.0632338404704101,1.37949856302823,-0.405287055694197,-52.0265084177809,-0.144963141214248
1.08,0.737754002163934,0.053463281559587,1.43953850298353,-0.405287458701658,-52.0265084177809,-0.144963141214248
1.09,-0.932966737110143,0.0634071239733152,-1.2599275602546,-0.406675057345493,56.9247366630098,-0.144963141214248
1.1,-1.04032829331444,-0.0144693881648764,-1.49454317427984,0.061651044589528,56.9247366630098,-0.144963141214248
1.11,-1.00107267357133,-0.00452566311400922,-1.96412079506784,-0.0564706761181734,56.9247366630098,-0.144963141214248
1.12,0.630680924858314,0.0337492574727442,1.14453685821072,-0.287167450774324,-49.2798383737272,-0.144963141214248
1.13,0.669590396748809,-0.0240669653631282,1.3798451067384,-0.0564704746146007,-49.2798383737272,-0.144963141214248
1.14,0.642898169360457,-0.0833828157271312,1.65476654081769,0.182544839279524,51.6355657164866,-0.144963141214248
1.15,-0.855205185632064,-0.072631867840941,-1.72673559923274,0.177000389099625,51.7365821353524,-0.144963141214248
1.16,-0.874342813594442,-0.0435506321938915,-1.96273592866997,0.178386476439992,51.7365821353524,-0.144963141214248
1.17,0.357275926567355,-0.0824026195622528,0.67703623507431,0.1776937854011,-47.1435394505743,-0.144963141214248
1.18,0.630334911136906,0.0629464933006748,1.20492132888796,-0.404598797787723,-47.1435394505743,-0.144963141214248
1.19,0.640336070411539,0.0635805080762382,1.43780714319973,-0.407369662695078,-47.1435394505743,-0.144963141214248
1.2,-0.806178780638727,-0.0530908925312375,-1.37654305987878,0.177001900376499,51.7365821353524,-0.144963141214248
1.21,-0.962163218446957,0.00489914195259806,-1.3772347885322,-0.0550848910198678,51.7365821353524,-0.144963141214248
1.22,-0.874054703559347,-0.0145268894531509,-2.08142752008348,-0.0550849917849254,51.7365821353524,-0.144963141214248
1.23,0.620967515140437,-0.0822877846502881,1.08588404928252,0.293738944308944,-49.2798383737272,-0.144963141214248
1.24,0.659877255295573,-0.0627465913809704,1.43815333464043,0.177003109437985,-49.2798383737272,-0.144963141214248
1.25,-0.688700609886835,-0.102577701856768,-1.26234622008189,0.415319989294386,56.9247366630098,-0.144963141214248
1.26,-1.01141936872398,-0.00446834625532461,-1.55146834748198,-0.0564691648146522,56.9247366630098,-0.144963141214248
1.27,-1.0112466301268,-0.00469861129217155,-1.84508366642832,-0.0550854955439358,56.9247366630098,-0.144963141214248
1.28,0.679476008536807,-0.00515901561994295,1.14522944238895,-0.0537022292803647,-54.1628073409338,-0.144963141214248
1.29,0.747697794279294,-0.0338954111908762,1.43849902282576,0.060959461846907,-54.1628073409338,-0.144963141214248
1.3,-0.688815595697239,-0.102519999369475,-1.26130804836009,0.414627499759067,56.9247366630098,-0.144963141214248
1.31,-1.0012457558807,-0.0339529543955646,-1.61184994962628,0.061651044589528,56.9247366630098,-0.144963141214248
1.32,-1.07946834880368,-0.0045260152092613,-1.55250541204464,0.0609597641023446,56.9247366630098,-0.144963141214248
1.33,0.611138951950936,-0.0144116856786916,1.08623029104075,-0.0557772798034009,-52.0265084177809,-0.144963141214248
1.34,0.708787760713674,0.111686540350982,1.37949992180176,-0.755509673275692,-52.0265084177809,-0.144963141214248
1.35,0.708845228470802,-0.0721730982346147,1.61342536725055,0.174933499591511,-52.0265084177809,-0.144963141214248
1.36,-0.972221275421649,0.0149577019198666,-1.37585369650291,-0.173896481676364,53.8728810585053,-0.144963141214248
1.37,-1.10791806787639,0.0145553605621411,-1.02910586033169,-0.0543957263735975,53.8728810585053,-0.144963141214248
1.38,0.338020764297205,-0.0337230833714944,0.910613778039504,0.0602696926632973,-49.2798383737272,-0.144963141214248
1.39,0.669475260038853,-0.0240674012912169,1.20422829178526,-0.0557772798034009,-49.2798383737272,-0.144963141214248
1.4,0.650451058614094,-0.061713680743719,1.553737557092,0.171484149927487,-49.2798383737272,-0.144963141214248
1.41,-0.85503089614515,-0.0629202018298862,-1.43450836747336,0.177698621566996,51.7365821353524,-0.144963141214248
1.42,-0.962163218446957,-0.0341252570668726,-1.43588764779128,0.0630315905014159,51.7365821353524,-0.144963141214248
1.43,-0.826006021676643,-0.0532645197496043,-2.37090293474361,0.177699024574142,51.7365821353524,-0.144963141214248
1.44,0.620679547619629,-0.0145265205917758,1.2042280401576,-0.0550872083643012,-49.2798383737272,-0.144963141214248
1.45,0.659704675979899,-0.0437235887540002,1.43884365418281,0.061651044589528,-49.2798383737272,-0.144963141214248
1.46,-0.650421330023615,-0.0627482512571582,-1.25785821202863,0.176319889240663,53.8728810585053,-0.144963141214248
1.47,-0.923138073320566,-0.0630926805488182,-1.72881244589176,0.178389599798795,53.8728810585053,-0.144963141214248
1.48,-0.971646933183945,-0.00475581916883509,-1.73053484781398,-0.0550876113715249,53.8728810585053,-0.144963141214248
1.49,0.552744111440404,-0.0542401051484007,0.733963169656939,0.0657884506700654,-49.2798383737272,-0.144963141214248
1.5,0.640335550652835,0.0534664504068586,1.37950072700236,-0.405304385268971,-49.2798383737272,-0.144963141214248
1.51,0.698500469836485,0.043351738845346,1.32325716712204,-0.403926055923082,-49.2798383737272,-0.144963141214248
1.52,-0.874342210002902,0.0147855166147497,-1.20058292202455,-0.172516338784946,48.9899120912987,-0.144963141214248
1.53,-0.883539407516502,-0.0341249804191784,-1.555260298927,0.0630293739087164,48.9899120912987,-0.144963141214248
1.54,-0.981417819039779,-0.00475571856987551,-1.37826566309782,-0.0557772798034009,48.9899120912987,-0.144963141214248
1.55,0.513489195885578,-0.0243542957623738,0.91026964993115,-0.0550883166473793,-44.0916838460707,-0.144963141214248
1.56,0.571883692686137,-0.0143543688200048,1.26219319677952,-0.0557772798034009,-44.0916838460707,-0.144963141214248
1.57,0.533259614674336,-0.169137198096155,1.67070649495556,0.641216288377231,-44.0916838460707,-0.144963141214248
1.58,-0.84462910568291,0.0242697511071044,-1.14433714783262,-0.288567945887267,46.8536131681467,-0.144963141214248
1.59,-0.825431629137254,-0.0144689773870896,-1.6701585298044,-0.0550887196677964,46.8536131681467,-0.144963141214248
1.6,-0.893253228009938,0.0147856507459553,-1.55560170947505,-0.172517144812586,46.8536131681467,-0.144963141214248
1.61,0.581310635474544,-0.169596336568293,0.561097064610619,0.760714121891469,-44.0916838460707,-0.144963141214248
1.62,0.581482477067472,0.0924353601128233,1.20457091014084,-0.52273754585444,-44.0916838460707,-0.144963141214248
1.63,0.61056536420432,0.0243845608743234,1.26425590210399,-0.289257614332493,-44.0916838460707,-0.144963141214248
1.64,-0.845030105731898,0.0440976208857541,-1.02496545284342,-0.28994587221266,46.8536131681467,-0.144963141214248
1.65,-0.874113026400991,-0.0242395614471514,-1.43623011517427,0.061651044589528,46.8536131681467,-0.144963141214248
1.66,-0.835660069020004,0.00518681606403638,-1.84405883089353,-0.0564651346631509,46.8536131681467,-0.144963141214248
1.67,0.474463380099814,-0.0146405842498377,0.909926729630363,-0.054401771587682,-44.0916838460707,-0.144963141214248
1.68,0.571998024606626,-0.0533225743332607,1.20319641071558,0.177704062270311,-44.0916838460707,-0.144963141214248
1.69,0.591539268174312,0.0250140990150321,1.32050434353871,-0.292009033797828,-44.0916838460707,-0.144963141214248
1.7,-0.844400810703311,0.082379466008032,-0.852437436900961,-0.521365866260107,46.8536131681467,-0.144963141214248
