timestamp,iq,id,iq_ref,id_ref,vq,vd,omega,omega_ref,r
0.0,0.0,0.0,0.0,0.0,0.0,0.0,0.0,482.4361366178129,0.0
0.001,0.0,0.0,10.0,0.0,0.0,1.0999999999999999,6.115472199294103,482.4361366178129,0.0
0.002,0.5307369851907212,-0.2913212625381807,10.0,0.0,0.14204533887919985,1.9316189316290207,13.317801563642547,482.4361366178129,0.0
0.003,1.0842913387634832,-0.6024330830807904,10.0,0.0,0.384357124667687,2.6386968949419622,20.697939467553027,482.4361366178129,0.0
0.004,1.5590443546685477,-0.8700465084428163,10.0,0.0,0.6994718867930164,3.2526109522886295,28.232747544420146,482.4361366178129,0.0
0.005,1.9399447555359186,-1.0838738622210777,10.0,0.0,1.065311453102468,3.7994935661768023,35.92944872443006,482.4361366178129,0.0
0.006,2.239750732602683,-1.2510087368845633,10.0,0.0,1.4655018868449925,4.299102221838433,43.75633668444442,482.4361366178129,0.0
0.007,2.4770151619816017,-1.382020589851471,10.0,0.0,1.8883740978591532,4.765668027847139,51.58766747378032,482.4361366178129,0.0
0.008,2.6680767290418097,-1.4872241871505252,10.0,0.0,2.325877945545995,5.209220346273558,59.45942083902103,482.4361366178129,0.0
0.009000000000000001,2.8266491704841292,-1.5730794701170803,10.0,0.0,2.772378685460125,5.636635464737965,67.35059094018146,482.4361366178129,0.0
0.01,2.962077666392183,-1.645500646948331,10.0,0.0,3.224078639851053,6.052647735211881,75.20908322432116,482.4361366178129,0.0
0.011,3.0811061533574158,-1.7084279320504514,10.0,0.0,3.678407615443203,6.460489925470405,83.0265951655913,482.4361366178129,0.0
0.012,3.188848746459569,-1.7638278597420747,10.0,0.0,4.133552631697047,6.862319393890706,90.74118064793086,482.4361366178129,0.0
0.013000000000000001,3.288205119878689,-1.8140726097274587,10.0,0.0,4.588339016389012,7.259628641949282,98.35820682563939,482.4361366178129,0.0
0.014,3.3820602099432007,-1.8592355758795645,10.0,0.0,5.041843166194517,7.653355107498287,105.90865295623543,482.4361366178129,0.0
0.015,3.4721069852858886,-1.899829032412081,10.0,0.0,5.493383198131427,8.044092747085895,113.37727610343421,482.4361366178129,0.0
0.016,3.5596145800153947,-1.9360338400176071,10.0,0.0,5.94241958510469,8.43218525824161,120.68508583176356,482.4361366178129,0.0
0.017,3.645144415105338,-1.9685384477868613,10.0,0.0,6.388575043274759,8.817838951066484,127.83962377537456,482.4361366178129,0.0
0.018000000000000002,3.730251927866576,-1.9959253041084188,10.0,0.0,6.83136783302799,9.201036292373047,134.85405702603322,482.4361366178129,0.0
0.019,3.81544967906247,-2.018253592643655,10.0,0.0,7.270383321112213,9.581672501020332,141.68976328564074,482.4361366178129,0.0
0.02,3.9014648862453374,-2.0350875541282063,10.0,0.0,7.705189334130692,9.959536942333155,148.3432823300447,482.4361366178129,0.0
0.021,3.9891051824829464,-2.0457889559126508,10.0,0.0,8.135310004560049,10.334315260302239,154.92060212100432,482.4361366178129,0.0
0.022,4.079618141396171,-2.0489696811670974,10.0,0.0,8.560139305503519,10.705547790999272,161.01925282597162,482.4361366178129,0.0
0.023,4.171109372430197,-2.048468292080302,10.0,0.0,8.979521969370257,11.072981092896333,166.534238406907,482.4361366178129,0.0
0.024,4.266936196769627,-2.039517194249811,10.0,0.0,9.392730090169543,11.435983292623375,171.8647834235234,482.4361366178129,0.0
0.025,4.367255527950721,-2.0225841458509217,10.0,0.0,9.79914449451603,11.793929226271104,177.02637022703064,482.4361366178129,0.0
0.026000000000000002,4.4734353073349595,-1.9962166741499119,10.0,0.0,10.197980960389518,12.146045424568259,181.63161391243256,482.4361366178129,0.0
0.027,4.582366840795821,-1.966358349113627,10.0,0.0,10.589124658468391,12.491912978736195,185.74793639675826,482.4361366178129,0.0
0.028,4.700058850757774,-1.9240450691803936,10.0,0.0,10.971384864613876,12.830451341534015,189.43662766964098,482.4361366178129,0.0
0.029,4.820934284790598,-1.879137197786803,10.0,0.0,11.344756153370636,13.161242511022618,192.73598774770625,482.4361366178129,0.0
0.03,4.952016225740939,-1.821000614527957,10.0,0.0,11.707923484756042,13.483081433273819,195.59831968863915,482.4361366178129,0.0
0.031,5.086039273572549,-1.7621311371320891,10.0,0.0,12.061063698547066,13.79562148058647,197.80891551030922,482.4361366178129,0.0
0.032,5.230431844273564,-1.6911110488141978,10.0,0.0,12.40292038074925,14.097678592248165,200.4421589734679,482.4361366178129,0.0
0.033,5.380124186618445,-1.6166151787533525,10.0,0.0,12.733312761073865,14.38869342901298,201.91742172589852,482.4361366178129,0.0
0.034,5.537594793894332,-1.535029134414507,10.0,0.0,13.051537880865839,14.667821176756876,203.18880493813168,482.4361366178129,0.0
0.035,5.698947813469154,-1.4530296333491768,10.0,0.0,13.357649178779205,14.934684535625108,203.60405746232266,482.4361366178129,0.0
0.036000000000000004,5.870474243492053,-1.3603000477825025,10.0,0.0,13.65045542338638,15.188218311291084,204.28541056101804,482.4361366178129,0.0
0.037,6.041188711220851,-1.275010780747051,10.0,0.0,13.930879897581198,15.42861600670124,205.2233356988433,482.4361366178129,0.0
0.038,6.228175208801664,-1.168399557236846,10.0,0.0,14.196427351981786,15.654155009933262,200.35169734043586,482.4361366178129,0.0
0.039,6.404895489618571,-1.0845312562500289,10.0,0.0,14.449814560392067,15.86612549236809,209.64773540576442,482.4361366178129,0.0
0.04,6.534612624563911,-1.0851225869390002,10.0,0.0,14.699963825590459,16.069735965364643,218.170241886545,482.4361366178129,0.0
0.041,6.621487035821765,-1.1484636683301073,10.0,0.0,14.952420817214799,16.26974130369247,220.68166573712315,482.4361366178129,0.0
0.042,6.6704785161669795,-1.2647840534085386,10.0,0.0,15.211794475054209,16.47047148862455,233.10654395573727,482.4361366178129,0.0
0.043000000000000003,6.709376245503157,-1.3867642159960276,10.0,0.0,15.477558399636717,16.673277185423842,235.10815372853793,482.4361366178129,0.0
0.044,6.744196093263161,-1.5028656568708394,10.0,0.0,15.74857785831126,16.87893749904121,248.8181267625822,482.4361366178129,0.0
0.045,6.750563942850831,-1.6564343609015326,10.0,0.0,16.02879294551472,17.090781462187255,251.61117095327992,482.4361366178129,0.0
0.046,6.764566527560506,-1.7840489455190416,10.0,0.0,16.314672837580048,17.307985931916857,266.60539535969383,482.4361366178129,0.0
0.047,6.752169677737121,-1.9446655565152717,10.0,0.0,16.610076868775216,17.533561623207692,270.0627790167984,482.4361366178129,0.0
0.048,6.7291903821171735,-2.110358990489937,10.0,0.0,16.91511817760721,17.768523902508925,283.13731951482634,482.4361366178129,0.0
0.049,6.714097190323873,-2.246352557911731,10.0,0.0,17.22645394156277,18.011924542904307,294.70561782835244,482.4361366178129,0.0
0.05,6.666841209228205,-2.4219663531358275,10.0,0.0,17.548953774962747,18.267165921658286,300.1294548425776,482.4361366178129,0.0
0.051000000000000004,6.612335516543512,-2.59336894353628,10.0,0.0,17.88182590988993,18.53465621226123,310.75154600411304,482.4361366178129,0.0
0.052000000000000005,6.568447424188529,-2.726701034625408,10.0,0.0,18.22111236450049,18.81296732052879,322.35703405819294,482.4361366178129,0.0
0.053,6.5036136539679195,-2.8764091099274185,10.0,0.0,18.569435851849082,19.104068797231378,330.9557012510771,482.4361366178129,0.0
0.054,6.434362099984388,-3.0149932598739144,10.0,0.0,18.925784313874168,19.407861808234543,339.4707232587175,482.4361366178129,0.0
0.055,6.370891759459199,-3.1253006473392393,10.0,0.0,19.28762520191878,19.723199586257838,348.00092263299223,482.4361366178129,0.0
0.056,6.314459991163816,-3.2071523724558277,10.0,0.0,19.65271639484943,20.048760466390505,356.29964302226927,482.4361366178129,0.0
0.057,6.266092078485367,-3.262894600420583,10.0,0.0,20.01916768432525,20.383030530514645,362.98468703488817,482.4361366178129,0.0
0.058,6.234656406121481,-3.2830044001420036,10.0,0.0,20.38405550695561,20.723492962007192,368.0316803659419,482.4361366178129,0.0
0.059000000000000004,6.228510489334133,-3.2600491726267444,10.0,0.0,20.743774617448285,21.0667596267365,372.35801287012686,482.4361366178129,0.0
0.06,6.247959954981508,-3.201438289803519,10.0,0.0,21.095630838529225,21.40947063565305,373.88739853789605,482.4361366178129,0.0
0.061,6.298571070969623,-3.1064761741463998,10.0,0.0,21.436712814499675,21.747723437683817,371.47602194372377,482.4361366178129,0.0
0.062,6.38094735961424,-2.982369480030801,10.0,0.0,21.76480975788002,22.077703876517536,366.2922057853833,482.4361366178129,0.0
0.063,6.53566146196873,-2.7695519558602215,10.0,0.0,22.070926190088084,22.39130117743337,372.07145994459506,482.4361366178129,0.0
0.064,6.708566607552835,-2.560747003310555,10.0,0.0,22.35695033962817,22.686677966487718,365.1882535794375,482.4361366178129,0.0
0.065,6.897199383751794,-2.3667028673086685,10.0,0.0,22.62465294768497,22.962098937664592,356.7297130485294,482.4361366178129,0.0
0.066,7.167218997264825,-2.0824440278168583,10.0,0.0,22.863799361069702,23.20893224280502,357.7888817172531,482.4361366178129,0.0
0.067,7.423387055578651,-1.859201647307153,10.0,0.0,23.082000390168847,23.42951856849048,345.1266644280509,482.4361366178129,0.0
0.068,7.736929428236853,-1.5824320316278497,10.0,0.0,23.27222771500701,23.617938384108047,342.9584987314189,482.4361366178129,0.0
0.069,8.04132723792414,-1.3546495884062866,10.0,0.0,23.43998591632552,23.77619061530866,334.2677598047511,482.4361366178129,0.0
0.07,8.395997401416553,-1.0747195592463576,10.0,0.0,23.578279041856877,23.89942370363377,322.7417355360636,482.4361366178129,0.0
0.07100000000000001,8.726669482066718,-0.8579631993863083,10.0,0.0,23.694022264374595,23.99133556844291,337.9106389559309,482.4361366178129,0.0
0.07200000000000001,8.91385728821635,-0.8925675486457335,10.0,0.0,23.81335639313859,24.06834663115294,344.8606079910171,482.4361366178129,0.0
0.073,8.941721008651788,-1.1508071676799903,10.0,0.0,23.95651852989837,24.148396869281978,362.43451347602996,482.4361366178129,0.0
0.074,8.927907180207171,-1.4305443375681337,10.0,0.0,24.121558169292424,24.236556455607346,368.59250641149885,482.4361366178129,0.0
0.075,8.859340450140312,-1.7499202918046703,10.0,0.0,24.31124378664675,24.33980824926249,387.10067316750514,482.4361366178129,0.0
0.076,8.767176841935807,-2.0562826706616475,10.0,0.0,24.52279212376306,24.461155754889383,396.7190369145668,482.4361366178129,0.0
0.077,8.62162972262067,-2.4016532593838043,10.0,0.0,24.76024751870129,24.606611890707832,408.83095327273656,482.4361366178129,0.0
0.078,8.47560200325128,-2.694417929744825,10.0,0.0,25.017253395580042,24.77587553037574,428.2762610097064,482.4361366178129,0.0
0.079,8.289593068490031,-3.001970310780605,10.0,0.0,25.296388163948027,24.972914099394785,438.0404594767293,482.4361366178129,0.0
0.08,8.078425759776728,-3.30171273584331,10.0,0.0,25.597209455327665,25.19953060295957,447.87571303424875,482.4361366178129,0.0
0.081,7.882675762310951,-3.525181384717318,10.0,0.0,25.912194395051316,25.45298841193994,460.26934286159303,482.4361366178129,0.0
0.082,7.687097883672571,-3.703693402600396,10.0,0.0,26.238428257179056,25.732155000670204,470.03446400235384,482.4361366178129,0.0
0.083,7.512516260295773,-3.813976142857688,10.0,0.0,26.570301373216505,26.033276516525277,477.918982155292,482.4361366178129,0.0
0.084,7.3689562950047955,-3.855399170081403,8.9093547048717,0.0,26.90255303482776,26.231547989882717,477.4638770283983,482.4361366178129,0.0
0.085,7.21954878329066,-3.7866704810391925,9.18662986421268,0.0,27.213432291546756,26.499623429179977,471.8540268459306,482.4361366178129,0.0
0.08600000000000001,7.168945771285801,-3.6063703233362867,10.0,0.0,27.50088543606668,26.862749469765998,472.632131652298,482.4361366178129,0.0
0.08700000000000001,7.255096894171453,-3.358079962663428,10.0,0.0,27.77039693209622,27.200191865750057,474.3432217554728,482.4361366178129,0.0
0.088,7.405678768187792,-3.0902725926449857,10.0,0.0,28.019725611025912,27.51513867682574,458.4264548404902,482.4361366178129,0.0
0.089,7.633840116457936,-2.776577465089831,10.0,0.0,28.243787712839328,27.799931745117256,447.122667325323,482.4361366178129,0.0
0.09,7.969316520975972,-2.3679545487300038,10.0,0.0,28.43211134177653,28.044030925746686,444.6193412653502,482.4361366178129,0.0
0.091,8.311946278332897,-2.0245884847517512,10.0,0.0,28.592328488008942,28.248218041942806,424.49401288628763,482.4361366178129,0.0
0.092,8.7447259903172,-1.6123486164900913,10.0,0.0,28.71502990636872,28.40382869039786,417.7643971763834,482.4361366178129,0.0
0.093,9.176750458357953,-1.2663779308069367,10.0,0.0,28.8070878709955,28.51295352147875,403.3495388710536,482.4361366178129,0.0
0.094,9.673326679961143,-0.8706609291410357,10.0,0.0,28.860783358941276,28.57006852621827,399.3324116306886,482.4361366178129,0.0
0.095,10.06593534133017,-0.6899154978435833,10.0,0.0,28.898895971140355,28.588620388743873,420.58388204724935,482.4361366178129,0.0
0.096,10.179299617228466,-0.9414898478224614,10.0,0.0,28.964533141182738,28.60058434250169,429.0365630898803,482.4361366178129,0.0
0.097,10.149040824380046,-1.3491040624317874,10.0,0.0,29.067124809703902,28.622377727860275,451.01279979398555,482.4361366178129,0.0
0.098,10.031956958296957,-1.8110365833975315,10.0,0.0,29.20837308506895,28.664827578875766,461.0689042057572,482.4361366178129,0.0
0.099,9.865533907813699,-2.2587466212419045,10.0,0.0,29.38437029695227,28.734292969218558,483.77737720787974,482.4361366178129,0.0
0.1,9.64424007956837,-2.7012001591087187,6.725138372151357,0.0,29.59390711546843,28.47685485325419,495.59878775294067,482.4361366178129,0.0
0.101,9.184917738616498,-3.0736057820290883,0.6828065882696155,0.0,29.793286523679118,27.682518870011627,502.44873106703545,482.4361366178129,0.0
0.10200000000000001,8.397725485554693,-3.1970906853254997,-2.942291013270003,0.0,29.90315367587789,26.731214932011135,506.9019633964247,482.4361366178129,0.0
0.10300000000000001,7.434311826869639,-3.153625259046479,-5.413565445750755,0.0,29.900887673133063,25.748542471397812,506.4922333921449,482.4361366178129,0.0
0.10400000000000001,6.445071032394161,-2.977581276641225,-5.449261411354163,0.0,29.781650840799607,24.983879195485216,502.22183845230006,482.4361366178129,0.0
0.105,5.613387072817328,-2.749543841785039,-3.5119209597766172,0.0,29.574547686098114,24.578815800868806,495.1722075548149,482.4361366178129,0.0
0.106,5.070016784923353,-2.5404053157604727,-0.11446622040406496,0.0,29.326923643890982,24.599348939131662,487.33409539285765,482.4361366178129,0.0
0.107,4.889329165559799,-2.3857052869744693,3.7556102728241223,0.0,29.091189701824636,24.999242161459936,478.52512199959466,482.4361366178129,0.0
0.108,5.05674361247409,-2.299320113405011,8.1992071156378,0.0,28.911063107392966,25.765445089771774,473.3745145516185,482.4361366178129,0.0
0.109,5.5686922066883335,-2.25227426909924,10.0,0.0,28.821258274097715,26.536026113766535,475.50700422389116,482.4361366178129,0.0
0.11,6.204814133556707,-2.214393917977808,9.850871006884955,0.0,28.813795646351164,27.12130250793265,460.3933876736618,482.4361366178129,0.0
0.111,6.812760048679297,-2.119816823122517,10.0,0.0,28.855582243873013,27.604687647686493,447.1409548376467,482.4361366178129,0.0
0.112,7.450805976208998,-1.870985109986997,10.0,0.0,28.915102978121702,27.978316050408946,443.2331587982797,482.4361366178129,0.0
0.113,8.020911849871299,-1.6362584623175302,10.0,0.0,28.98270286510548,28.26420249945646,423.97161559875235,482.4361366178129,0.0
0.114,8.611663421464122,-1.3091826223817522,10.0,0.0,29.038500332379392,28.468978678159015,414.4893846935387,482.4361366178129,0.0
0.115,9.155628651819198,-1.022858975589977,10.0,0.0,29.080970828048443,28.604928326095585,402.8091920445621,482.4361366178129,0.0
0.116,9.728003259046005,-0.6728700628351305,10.0,0.0,29.097153695009126,28.67400850431401,409.10917236157496,482.4361366178129,0.0
0.117,10.066949212599587,-0.6942179461933744,10.0,0.0,29.124474449392537,28.70623864258803,424.69173770190326,482.4361366178129,0.0
0.11800000000000001,10.163539161393988,-1.019529016426885,10.0,0.0,29.187856881057098,28.730742407641117,437.4694624341875,482.4361366178129,0.0
0.11900000000000001,10.110824377074504,-1.4844284266312,10.0,0.0,29.295237270480666,28.765898565118473,454.17112875846504,482.4361366178129,0.0
0.12,10.002649662142343,-1.9311079963296098,10.0,0.0,29.43988099527439,28.819649216589777,474.5777336169818,482.4361366178129,0.0
0.121,9.800178247096856,-2.4285843539661283,10.0,0.0,29.62569101637891,28.903679283899013,487.4318935367462,482.4361366178129,0.0
0.122,9.565770035573244,-2.8748913825183267,4.465677242868701,0.0,29.845442051668275,28.412872032420466,501.4278313455538,482.4361366178129,0.0
0.123,8.987437155708353,-3.161505644505289,-2.7222086088124993,0.0,30.021201756813884,27.319068928175003,506.426552009654,482.4361366178129,0.0
0.124,8.012307035482461,-3.1720411604506067,-5.461473094781026,0.0,30.068297945154516,26.224262854355118,507.87223511380944,482.4361366178129,0.0
0.125,6.937459935816456,-3.0301398117542986,-6.438675631818702,0.0,29.985489403763037,25.272029252297823,505.4642323532776,482.4361366178129,0.0
0.126,5.957416092553727,-2.8064692828994193,-5.464955208907441,0.0,29.792553611617905,24.620675779959964,499.47864909860476,482.4361366178129,0.0
0.127,5.216426246365277,-2.5768912159501056,-2.6425887063789286,0.0,29.530759169377635,24.38759563133851,491.6443939592276,482.4361366178129,0.0
0.128,4.820340676297826,-2.3938197010059983,1.182456289895498,0.0,29.253994070524875,24.580334852165603,483.5996470264453,482.4361366178129,0.0
0.129,4.798180258060984,-2.2798098839467418,5.193194652200319,0.0,29.013469038913023,25.127531201220876,474.96288654330414,482.4361366178129,0.0
0.13,5.1143086531413235,-2.225205437959244,9.586307394516,0.0,28.846849754479862,26.004094702599915,473.0968514180428,482.4361366178129,0.0
0.131,5.740789440564031,-2.21088605187692,10.0,0.0,28.783519660618737,26.71216338191212,473.0381471032002,482.4361366178129,0.0
0.132,6.386966464730672,-2.177705306584549,10.0,0.0,28.793822755953602,27.27414059306806,453.7660177715538,482.4361366178129,0.0
0.133,7.023696645519231,-2.0334096674388284,10.0,0.0,28.843752550017474,27.717371842996798,447.2554328500389,482.4361366178129,0.0
0.134,7.652881052718237,-1.7750005858616624,10.0,0.0,28.9060304470858,28.058429964355053,433.482210220634,482.4361366178129,0.0
0.135,8.215535027757369,-1.5338070777644868,10.0,0.0,28.9722391715082,28.316009970101998,422.62691403464703,482.4361366178129,0.0
0.136,8.810287352839241,-1.1886507236902255,10.0,0.0,29.02202976019586,28.494656631707873,405.7513036651669,482.4361366178129,0.0
0.137,9.352033943656634,-0.8983938375935461,10.0,0.0,29.05622926224544,28.606773084282832,399.8667747856351,482.4361366178129,0.0
0.138,9.90663387980565,-0.5738117160913311,10.0,0.0,29.065418994843295,28.65550931473704,413.25757560437336,482.4361366178129,0.0
0.139,10.117582417113118,-0.7796256275911463,10.0,0.0,29.104448728706778,28.68263255566327,426.8842402718721,482.4361366178129,0.0
0.14,10.138655671414792,-1.1939635509230409,10.0,0.0,29.18580684572805,28.710737873283126,443.35859298699705,482.4361366178129,0.0
0.14100000000000001,10.08179740340742,-1.6261611318606233,10.0,0.0,29.305238037479,28.750633612866956,461.83708867566304,482.4361366178129,0.0
0.14200000000000002,9.92071715666344,-2.123430139943107,10.0,0.0,29.46709329909293,28.81563314212925,475.75614662511447,482.4361366178129,0.0
0.14300000000000002,9.723805409251945,-2.573766040063797,10.0,0.0,29.663827246404146,28.910367734374542,498.08426327131116,482.4361366178129,0.0
0.14400000000000002,9.46889909853547,-3.0172551093980924,-1.2690794910813503,0.0,29.894641696834334,27.80177409481216,502.7133140652638,482.4361366178129,0.0
0.145,8.574295173279545,-3.1432861666881733,-3.7863766625321666,0.0,30.00094386387384,26.758766738971264,505.30914384740004,482.4361366178129,0.0
0.146,7.538154625364941,-3.0816824240217193,-5.3130216258961696,0.0,29.984278356359088,25.792961782180914,505.8727477810546,482.4361366178129,0.0
0.147,6.52776880448958,-2.92939255078499,-5.8291897043558745,0.0,29.856563055287403,24.98133976613834,502.64691964175466,482.4361366178129,0.0
