timestamp,iq,id,iq_ref,id_ref,vq,vd,omega,omega_ref,r
0.0,0.0,0.0,0.0,0.0,0.0,0.0,0.0,51.54999843602531,0.0
0.001,0.0,0.0,10.0,0.0,0.0,1.0999999999999999,6.115472199294103,51.54999843602531,0.0
0.002,0.5307369851907212,-0.2913212625381807,10.0,0.0,0.14204533887919985,1.9316189316290207,13.317801563642547,51.54999843602531,0.0
0.003,1.0842913387634832,-0.6024330830807904,10.0,0.0,0.384357124667687,2.6386968949419622,20.697939467553027,51.54999843602531,0.0
0.004,1.5590443546685477,-0.8700465084428163,10.0,0.0,0.6994718867930164,3.2526109522886295,28.232747544420146,51.54999843602531,0.0
0.005,1.9399447555359186,-1.0838738622210777,10.0,0.0,1.065311453102468,3.7994935661768023,35.92944872443006,51.54999843602531,0.0
0.006,2.239750732602683,-1.2510087368845633,8.891156152837542,0.0,1.4655018868449927,4.177129398650562,43.046732531713225,51.54999843602531,0.0
0.007,2.4183247282662053,-1.3499493550806083,5.41754690823908,0.0,1.872648979715571,4.169367033064672,47.98339131572808,51.54999843602531,0.0
0.008,2.3655772850365393,-1.3188629129126215,2.9848835874346262,0.0,2.2338962119200634,3.977826699193823,50.95530515707203,51.54999843602531,0.0
0.009000000000000001,2.152831555827221,-1.1969709822636985,1.5048735995521811,0.0,2.52676743956732,3.7259652122522118,52.65713356916621,51.54999843602531,0.0
0.01,1.8723532602980226,-1.0345782118234206,0.6428880421736822,0.0,2.7485211103137486,3.4772838405527957,53.79581684464223,51.54999843602531,0.0
0.011,1.5888255579676185,-0.8685743702649525,0.051088220349503555,0.0,2.906594781948563,3.247551112572141,54.0955768634332,51.54999843602531,0.0
0.012,1.3276561043731132,-0.7223521115834632,-0.12424757332006031,0.0,3.0114634035824523,3.069123448339716,53.27409139573273,51.54999843602531,0.0
0.013000000000000001,1.1171100757699388,-0.6006521416091047,0.2692542309331003,0.0,3.0760776225193456,2.984612337708869,52.908516004614604,51.54999843602531,0.0
0.014,0.9825610444558589,-0.5174545105857288,0.43845675080627133,0.0,3.117844568786637,2.9423859523368305,53.676743874957076,51.54999843602531,0.0
0.015,0.9009602497325514,-0.46618315162023627,0.03307536124571797,0.0,3.146404308714025,2.8699055191847553,53.97381079552152,51.54999843602531,0.0
0.016,0.8255368025307835,-0.4252096638651094,-0.13969622263146775,0.0,3.1608656612700567,2.8000586142547035,53.02357029602812,51.54999843602531,0.0
0.017,0.7598873800358902,-0.3872403033591979,0.32068830851520613,0.0,3.1631292932993826,2.7974797513405854,52.5096433119866,51.54999843602531,0.0
0.018000000000000002,0.7345936057077317,-0.3682070112337113,0.5680553517763525,0.0,3.163194707305619,2.8201174883192204,53.082505549786575,51.54999843602531,0.0
0.019,0.7363811409203048,-0.3639374567174252,0.2662991617387527,0.0,3.1652380355335588,2.8043815750472025,53.55510431218568,51.54999843602531,0.0
0.02,0.7265288110969704,-0.35929065316842707,0.009948721777598202,0.0,3.1650349867662757,2.7663442310625235,52.68789366556566,51.54999843602531,0.0
0.021,0.7037573181499679,-0.3467289661687529,0.4321750927922028,0.0,3.15971319094278,2.7835050627367384,52.12183375738728,51.54999843602531,0.0
0.022,0.7061381448004724,-0.343151380352141,0.709486693667774,0.0,3.1563717402992237,2.8242100381863224,52.820015685184366,51.54999843602531,0.0
0.023,0.7278364109473829,-0.34982747512404705,0.3476955572776399,0.0,3.1582050785480567,2.8155772290052674,53.32615031698511,51.54999843602531,0.0
0.024,0.7289495004617559,-0.3509853230518679,0.07686672256767146,0.0,3.1590524043782433,2.7819123169278948,52.429575624734305,51.54999843602531,0.0
0.025,0.7122726117506637,-0.3413137084842779,0.5163582968059823,0.0,3.1553730503359603,2.8045965788079554,51.882548081171876,51.54999843602531,0.0
0.026000000000000002,0.7196410494402548,-0.33920662833925763,0.7865465721357311,0.0,3.154194995215635,2.8489929766067053,52.752431521786754,51.54999843602531,0.0
0.027,0.7443021785495851,-0.34722919051018947,0.3395805209706778,0.0,3.1584779380274703,2.8343247409069643,53.21083882372319,51.54999843602531,0.0
0.028,0.7426995933097109,-0.34747669612152443,0.09376846612547918,0.0,3.1608127629836855,2.799404853204538,52.1490525224404,51.54999843602531,0.0
0.029,0.7249098384770947,-0.3356145142550853,0.6186710759027253,0.0,3.1581148016126153,2.8303486915711145,51.75638503101976,51.54999843602531,0.0
0.03,0.7362019208395335,-0.3337799836193885,0.8129409556631002,0.0,3.1586978436640467,2.8726289840316004,52.741276689485126,51.54999843602531,0.0
0.031,0.7599036265405488,-0.3427271437790451,0.3085823438958195,0.0,3.1644531436803027,2.8508231385556893,52.827269077987694,51.54999843602531,0.0
0.032,0.7544545257018261,-0.34087982817871476,0.2528134432249117,0.0,3.1671596528297106,2.831518832822137,51.806583767879104,51.54999843602531,0.0
0.033,0.7437210449432212,-0.3306491496868983,0.7605902449606686,0.0,3.166558179012725,2.8719549376495834,52.031872317624774,51.54999843602531,0.0
0.034,0.7619847188782631,-0.33102027494107533,0.6431272312718388,0.0,3.17020359362306,2.8881722461490162,53.04224870841974,51.54999843602531,0.0
0.035,0.7744402045901502,-0.3345054260314662,0.12301653315041106,0.0,3.1754858529897056,2.8459073519141143,52.147056102884015,51.54999843602531,0.0
0.036000000000000004,0.7554621853701194,-0.32525964127127804,0.5646422592496871,0.0,3.174961509161672,2.864389246862823,51.28154135495166,51.54999843602531,0.0
0.037,0.7606514854532198,-0.31971639840910954,1.0000842040265994,0.0,3.1758204903440763,2.9236922713969835,52.46946708125777,51.54999843602531,0.0
0.038,0.7916456229008567,-0.3295687743281679,0.39692665442122244,0.0,3.183663069641375,2.9030916795732002,52.74221821317773,51.54999843602531,0.0
0.039,0.7887194106994709,-0.3286993043236467,0.24862889068971783,0.0,3.188467166366876,2.8756860510637408,51.55110148951374,51.54999843602531,0.0
0.04,0.775317920033038,-0.3154318998346627,0.8441762219868278,0.0,3.18859957077514,2.919939481009068,51.929680975151555,51.54999843602531,0.0
0.041,0.7944812600703296,-0.3155507056588413,0.651089653776658,0.0,3.1932898204226583,2.9303438302738325,52.86380307784142,51.54999843602531,0.0
0.042,0.8038326242285333,-0.31831782572277445,0.17089055601356584,0.0,3.1988546751806926,2.888448717848006,51.54293110029047,51.54999843602531,0.0
0.043000000000000003,0.7856346933414399,-0.30636079691008855,0.8313972181463896,0.0,3.1983305888503053,2.930852611991969,51.43423463463595,51.54999843602531,0.0
0.044,0.8038160416107362,-0.30437904803536175,0.8869030889875421,0.0,3.20200087847926,2.966282359641202,52.512555583133164,51.54999843602531,0.0
0.045,0.8254217967182413,-0.31260879714638984,0.3381170432678562,0.0,3.209772203801204,2.9354198181716984,51.65851662963103,51.54999843602531,0.0
0.046,0.8159852997799342,-0.30602652313930645,0.7640513380828657,0.0,3.2128737948121127,2.9620153684824744,51.23713376454286,51.54999843602531,0.0
0.047,0.8290236347104271,-0.3012062384166323,0.9778714173417749,0.0,3.2178603731735853,3.0039938068218563,52.40006676966557,51.54999843602531,0.0
0.048,0.8518640547522894,-0.3094618523047671,0.3879042314440173,0.0,3.2275024579077707,2.972856405066806,51.62971904364016,51.54999843602531,0.0
0.049,0.8425706261072676,-0.3021648267973178,0.7722808883805755,0.0,3.2321813650483313,2.99522873743405,51.28944954465405,51.54999843602531,0.0
0.05,0.8534719191061496,-0.2955115397556025,0.9450211267873434,0.0,3.237970723392046,3.0296973104176765,52.40135952301223,51.54999843602531,0.0
0.051000000000000004,0.8715836413453735,-0.30146824093480773,0.3805525267383818,0.0,3.247349773199882,2.9955957370315316,51.4147069304742,51.54999843602531,0.0
0.052000000000000005,0.8599229598006881,-0.29169090402565145,0.8752317380629073,0.0,3.2512456866165205,3.0273654174032805,51.52897031705522,51.54999843602531,0.0
0.053,0.8747639287247045,-0.28677292596446824,0.8183103259621005,0.0,3.2574857725110316,3.0433904602380966,52.39621173514072,51.54999843602531,0.0
0.054,0.8846229967286543,-0.29006723006713986,0.37622748392819705,0.0,3.265115907331478,3.009441021084966,51.00563881168143,51.54999843602531,0.0
0.055,0.8723011570787128,-0.2769471779519095,1.07695754190128,0.0,3.267111935980866,3.0626046671681033,51.78600226310824,51.54999843602531,0.0
0.056,0.896620340099083,-0.2786089811000771,0.6844157779170467,0.0,3.2745387252410785,3.0576663283611305,51.806333247501044,51.54999843602531,0.0
0.057,0.8992834832382663,-0.2795638168256639,0.671686937605886,0.0,3.280817415592906,3.0564399936513835,50.752141109777995,51.54999843602531,0.0
0.058,0.9033230127423837,-0.26957527566477946,1.2067615797298838,0.0,3.2852373155536228,3.1145319436704844,52.107712729769446,51.54999843602531,0.0
0.059000000000000004,0.9325837293032818,-0.2780385228374283,0.523398626796717,0.0,3.296055263120779,3.083557733913202,51.09131961945324,51.54999843602531,0.0
0.06,0.9259788398114612,-0.27070027232512456,1.036181970120542,0.0,3.30180215492741,3.1210216821930237,51.57171770235261,51.54999843602531,0.0
0.061,0.9453817085160858,-0.2677482710645126,0.7957657360075839,0.0,3.310469414747816,3.1215399411874363,51.71346969913906,51.54999843602531,0.0
0.062,0.9485853885081432,-0.26851957480713284,0.7232550249832197,0.0,3.3184361379099174,3.1171427082808165,50.70644685018931,51.54999843602531,0.0
0.063,0.9513531531943268,-0.256981076683707,1.2352019653164559,0.0,3.3238895176341434,3.1707487242124106,52.01547948050373,51.54999843602531,0.0
0.064,0.9775140089030272,-0.2643720919535737,0.576030839714462,0.0,3.335086557640026,3.13906116682262,50.79856620066457,51.54999843602531,0.0
0.065,0.9707429614640125,-0.2545420111148858,1.1920018019876502,0.0,3.340839918861388,3.187017010053847,51.72271413324352,51.54999843602531,0.0
0.066,0.9941132649925392,-0.2555049677835716,0.728200678725991,0.0,3.351017754325678,3.1709363280400438,50.946356747247194,51.54999843602531,0.0
0.067,0.9921652846637807,-0.25082438947221364,1.122415788611936,0.0,3.3580452448612226,3.205931151965571,51.477441125304445,51.54999843602531,0.0
0.068,1.0124408944956012,-0.24756523776321965,0.857599172690519,0.0,3.3675577678308883,3.2028074668170943,51.163933684060254,51.54999843602531,0.0
0.069,1.0145947239324185,-0.24687554166471504,1.018213540832265,0.0,3.3757633949349954,3.2212289839955077,51.093556170086096,51.54999843602531,0.0
0.07,1.0291665530598426,-0.23911339513262064,1.0579667204787362,0.0,3.3841436718889883,3.239814255336537,51.47649291383851,51.54999843602531,0.0
0.07100000000000001,1.039980825296928,-0.24266860081388342,0.8672334038243958,0.0,3.394013142371945,3.234956978955615,50.644511314798095,51.54999843602531,0.0
0.07200000000000001,1.045543276606017,-0.231390659661858,1.2922790745568769,0.0,3.401133812584977,3.279731007286567,51.63405574536695,51.54999843602531,0.0
0.073,1.067518764996953,-0.23820436022699204,0.7966662861790328,0.0,3.4128821050834874,3.2596101571669283,50.5476127451457,51.54999843602531,0.0
0.074,1.0677216656770125,-0.22679357148001472,1.3499116431984546,0.0,3.4201201595523614,3.3086867742741206,51.66885764583533,51.54999843602531,0.0
0.075,1.0914391502874718,-0.2320987405513355,0.7881006007555384,0.0,3.432239746770385,3.283640972578219,50.37280281787498,51.54999843602531,0.0
0.076,1.089083892809563,-0.2202319395773435,1.4478999709172191,0.0,3.4392843952991634,3.3410040040845965,51.68054769019816,51.54999843602531,0.0
0.077,1.1164333819891703,-0.22687499665035965,0.7927220422138986,0.0,3.4522102864134734,3.3116356350496963,50.3040614780204,51.54999843602531,0.0
0.078,1.1132695249139795,-0.21421349206784285,1.4934245178828276,0.0,3.4594475554380537,3.3707472628104003,51.61146929289062,51.54999843602531,0.0
0.079,1.1409814231065996,-0.22144706607875592,0.8391059018790661,0.0,3.4727945685232737,3.342609434808449,50.33383221235001,51.54999843602531,0.0
0.08,1.1391395210437367,-0.20827295283074093,1.4900861043861227,0.0,3.480471609302385,3.397250827559869,51.46257979372324,51.54999843602531,0.0
0.081,1.16451005568688,-0.2152935089716077,0.9265865001225271,0.0,3.4937490875867026,3.3758918487886174,50.44446656270631,51.54999843602531,0.0
0.082,1.166077770140338,-0.20235066234802523,1.4466984343641838,0.0,3.5020690014754616,3.4209250812886927,51.208327618142185,51.54999843602531,0.0
0.083,1.1872152662867124,-0.2083102003969035,1.0681846148250775,0.0,3.5148452248769635,3.413139895004351,50.62157330635164,51.54999843602531,0.0
0.084,1.195020618924282,-0.19687396162909887,1.3708460220170855,0.0,3.5242477256649343,3.443841528846437,50.879269079098286,51.54999843602531,0.0
0.085,1.2102598400411586,-0.201482364927908,1.248705429213034,0.0,3.5364014265088644,3.4543529093062646,51.0925717719473,51.54999843602531,0.0
0.08600000000000001,1.2259155704203495,-0.19282556647867138,1.146628349429308,0.0,3.547392563451977,3.4534517108257914,50.13673267841131,51.54999843602531,0.0
0.08700000000000001,1.2288359888289189,-0.18960888565467138,1.6386805537734404,0.0,3.556927199946586,3.5087215704422174,51.40805437220135,51.54999843602531,0.0
0.088,1.2599272098284513,-0.1941243086359144,1.0044391475166623,0.0,3.571564222089553,3.481340000888912,50.23892425070679,51.54999843602531,0.0
0.089,1.2595322987672797,-0.18057883841074496,1.6021149501171281,0.0,3.580464229108312,3.5306013952805775,50.89480189988563,51.54999843602531,0.0
0.09,1.2824377508984635,-0.18727834954581923,1.2807280908891046,0.0,3.5942727757914703,3.5319737895488235,50.9514132956003,51.54999843602531,0.0
0.091,1.2959852523107123,-0.17747268163862978,1.2584082444360205,0.0,3.605692088651997,3.534087313906966,49.986586177439186,51.54999843602531,0.0
0.092,1.3002118209227818,-0.1739422217569489,1.7564559261024373,0.0,3.6158905287543712,3.5918104130299766,51.21553465371007,51.54999843602531,0.0
0.093,1.3323733005841558,-0.18027581585012065,1.1453263257901463,0.0,3.6315734347078763,3.5690808163232797,50.47907082209075,51.54999843602531,0.0
0.094,1.3358446548354854,-0.16643233931292856,1.5242675177391545,0.0,3.641828972035337,3.5979270628290823,50.26907315731364,51.54999843602531,0.0
0.095,1.349572414761334,-0.16894293826723483,1.642075602914824,0.0,3.654358180930979,3.632608375817555,51.19205967523626,51.54999843602531,0.0
0.096,1.3754297804516757,-0.16828333218356495,1.1841617315614064,0.0,3.6690049375771556,3.6108188390694327,50.22321746066801,51.54999843602531,0.0
0.097,1.3762387978538748,-0.15445945314415876,1.6818506485991034,0.0,3.678494034250405,3.6521674329910834,50.295618188360216,51.54999843602531,0.0
0.098,1.3960740041533997,-0.15936697137845302,1.6581940872296517,0.0,3.691847146444662,3.6805771837479506,51.13616252568943,51.54999843602531,0.0
0.099,1.420753177165733,-0.1585468590757737,1.242060277668404,0.0,3.706566634959541,3.659426760242153,50.24700357809825,51.54999843602531,0.0
0.1,1.4219469407006424,-0.14427173017051087,1.6996697000432632,0.0,3.7161370692158,3.696477180236553,50.15804115746742,51.54999843602531,0.0
0.101,1.4397533712228165,-0.14848775431529182,1.7580704831442564,0.0,3.729062015990853,3.7306808238524094,51.494962368526245,51.54999843602531,0.0
0.10200000000000001,1.4606960450956672,-0.15950340324114054,1.0901602382898359,0.0,3.745284393590381,3.686576833198398,51.19224076952871,51.54999843602531,0.0
0.10300000000000001,1.4449872076887553,-0.15038033830284891,1.24509861445357,0.0,3.754360440732084,3.6741652020497853,50.747932066298944,51.54999843602531,0.0
0.10400000000000001,1.428247195209913,-0.15152249212634972,1.4752736297657163,0.0,3.7615045876147235,3.6893565196515046,52.07097816964271,51.54999843602531,0.0
0.105,1.4279068908817518,-0.1589052543560705,0.8085407807576608,0.0,3.7702541338763065,3.627970789988618,51.6646200647649,51.54999843602531,0.0
0.106,1.3978829777852713,-0.1451565882099224,1.0105736169091701,0.0,3.7704039716470685,3.6057887557822563,51.22015249574166,51.54999843602531,0.0
0.107,1.3729818443265374,-0.14429200596094538,1.236105860823626,0.0,3.768363004834192,3.6110670127921782,52.398738662438596,51.54999843602531,0.0
0.108,1.3671419541502745,-0.14991263130941923,0.6383253752110241,0.0,3.767680875014417,3.547995548148091,51.663082295808735,51.54999843602531,0.0
0.109,1.3357886883198862,-0.138025731501638,1.0050227199281205,0.0,3.759396046479871,3.540867990101022,51.57257064844833,51.54999843602531,0.0
0.11,1.319477324273776,-0.14369713348428226,1.0500528214840945,0.0,3.75196966821024,3.536391760115959,52.5625393688977,51.54999843602531,0.0
0.111,1.3150724320097968,-0.146968095945319,0.5449430519306826,0.0,3.745141396619955,3.475929564144582,51.45734577588814,51.54999843602531,0.0
0.112,1.2843742222328176,-0.14033126519824468,1.098466375036834,0.0,3.7321869715847713,3.4901021780013517,52.17473612098679,51.54999843602531,0.0
0.113,1.2808794992284072,-0.15218436383498923,0.7335238256378942,0.0,3.7233154595962956,3.4559606117366966,51.93432278781153,51.54999843602531,0.0
0.114,1.2675276839913334,-0.1491470489869342,0.849887248707663,0.0,3.711464306560549,3.442229205377358,51.63634189559367,51.54999843602531,0.0
0.115,1.2551509120927506,-0.15705813674204316,0.9980142602209117,0.0,3.7003257209939857,3.4450440881426125,52.52902059598553,51.54999843602531,0.0
0.116,1.2562201784733316,-0.16385307164752494,0.5418846884253785,0.0,3.6912508142226557,3.3945667140411935,51.518938709402704,51.54999843602531,0.0
0.117,1.2323979848529816,-0.16176494853238332,1.0472362289830168,0.0,3.677738017826595,3.411010685814122,52.4788747077108,51.54999843602531,0.0
0.11800000000000001,1.233525459242458,-0.17384543906880479,0.5579794671121134,0.0,3.6685706334375934,3.3652249774397314,51.67703579475711,51.54999843602531,0.0
0.11900000000000001,1.2145096675713951,-0.17026197749772598,0.9576285500016413,0.0,3.655226430971869,3.3740580800281483,52.2997643464486,51.54999843602531,0.0
0.12,1.2120045716805197,-0.18243141173796107,0.6387666150516644,0.0,3.6454744313936946,3.341687551069044,51.82225442319081,51.54999843602531,0.0
0.121,1.199231379080917,-0.1805988491102859,0.8747990168089017,0.0,3.6331373026459812,3.342111058817876,52.20666100967163,51.54999843602531,0.0
0.122,1.1939668258493623,-0.19201921562220015,0.6760290978320314,0.0,3.6233508034905104,3.3174848567415003,51.95782505179833,51.54999843602531,0.0
0.123,1.1841593211002466,-0.19129493174238993,0.7963688106109497,0.0,3.6118864591510498,3.3105938725427517,52.169755771938725,51.54999843602531,0.0
0.124,1.1760155261439782,-0.20111867827538366,0.6842058771816184,0.0,3.601967305783088,3.2905019749226154,52.01472638502327,51.54999843602531,0.0
0.125,1.1672263380861874,-0.2010274105375428,0.7570732911493646,0.0,3.590922601073417,3.281449769335236,52.232933058935636,51.54999843602531,0.0
0.126,1.1582995685723243,-0.21018080535947226,0.6411406079640799,0.0,3.5810849323837646,3.259611097311514,51.986827077034164,51.54999843602531,0.0
0.127,1.1480990120318684,-0.20954000176311188,0.7598253125047274,0.0,3.5698851410168873,3.254219963476837,52.39754769250344,51.54999843602531,0.0
0.128,1.1405957668962579,-0.21901305114849068,0.5459895122053096,0.0,3.560314658871585,3.2242625302101087,51.87916012430492,51.54999843602531,0.0
0.129,1.1264636775871466,-0.2168061228373207,0.8018916794217734,0.0,3.5483679890060578,3.2281108858249743,52.634143919013454,51.54999843602531,0.0
0.13,1.1228420719479737,-0.2268764306974564,0.41355832723762376,0.0,3.539130624836296,3.185361104206598,51.71671817437241,51.54999843602531,0.0
0.131,1.102581267481105,-0.22341444604519978,0.8706040021746746,0.0,3.5260604975313248,3.2023133945329647,52.7256349072419,51.54999843602531,0.0
0.132,1.105019027528523,-0.23348084077942927,0.3543892710277652,0.0,3.5171345352567744,3.1544386042707817,51.705501465328254,51.54999843602531,0.0
0.133,1.0824012881980378,-0.23195484624959645,0.8629009616915573,0.0,3.5040451668378347,3.1740694590186758,52.63782148065646,51.54999843602531,0.0
0.134,1.0869726083971556,-0.24016872273691386,0.3858627235811415,0.0,3.495146607094483,3.1321399457358945,51.834629532233556,51.54999843602531,0.0
0.135,1.0665026562995825,-0.24201279126067515,0.7846123868305123,0.0,3.4830656607699297,3.144443781078317,52.42148371796214,51.54999843602531,0.0
