timestamp,iq,id,iq_ref,id_ref,vq,vd,omega,omega_ref,r
0.0,0.0,0.0,0.0,0.0,0.0,0.0,0.0,109.44511461692619,0.0
0.001,0.0,0.0,10.0,0.0,0.0,1.0999999999999999,6.115472199294103,109.44511461692619,0.0
0.002,0.5307369851907212,-0.2913212625381807,10.0,0.0,0.14204533887919985,1.9316189316290207,13.317801563642547,109.44511461692619,0.0
0.003,1.0842913387634832,-0.6024330830807904,10.0,0.0,0.384357124667687,2.6386968949419622,20.697939467553027,109.44511461692619,0.0
0.004,1.5590443546685477,-0.8700465084428163,10.0,0.0,0.6994718867930164,3.2526109522886295,28.232747544420146,109.44511461692619,0.0
0.005,1.9399447555359186,-1.0838738622210777,10.0,0.0,1.065311453102468,3.7994935661768023,35.92944872443006,109.44511461692619,0.0
0.006,2.239750732602683,-1.2510087368845633,10.0,0.0,1.4655018868449925,4.299102221838433,43.75633668444442,109.44511461692619,0.0
0.007,2.4770151619816017,-1.382020589851471,10.0,0.0,1.8883740978591532,4.765668027847139,51.58766747378032,109.44511461692619,0.0
0.008,2.6680767290418097,-1.4872241871505252,10.0,0.0,2.325877945545995,5.209220346273558,59.45942083902103,109.44511461692619,0.0
0.009000000000000001,2.8266491704841292,-1.5730794701170803,10.0,0.0,2.772378685460125,5.636635464737965,67.35059094018146,109.44511461692619,0.0
0.01,2.962077666392183,-1.645500646948331,10.0,0.0,3.224078639851053,6.052647735211881,75.20908322432116,109.44511461692619,0.0
0.011,3.0811061533574158,-1.7084279320504514,10.0,0.0,3.678407615443203,6.460489925470405,83.0265951655913,109.44511461692619,0.0
0.012,3.188848746459569,-1.7638278597420747,10.0,0.0,4.133552631697047,6.862319393890706,90.74118064793086,109.44511461692619,0.0
0.013000000000000001,3.288205119878689,-1.8140726097274587,10.0,0.0,4.588339016389012,7.259628641949282,98.35820682563939,109.44511461692619,0.0
0.014,3.3820602099432007,-1.8592355758795645,7.818547313816866,0.0,5.041843166194517,7.413395312018146,104.49271546182486,109.44511461692619,0.0
0.015,3.357879737038515,-1.8367691515780018,4.800816987275144,0.0,5.462450631691665,7.290598323923076,108.4741349198257,109.44511461692619,0.0
0.016,3.169586791914067,-1.717808112157397,2.819817055245727,0.0,5.815856601736338,7.0548795111640485,111.0124674399905,109.44511461692619,0.0
0.017,2.8884371480840088,-1.5405424310641918,1.534977266932684,0.0,6.092040478974598,6.785594330661315,112.63229870572313,109.44511461692619,0.0
0.018000000000000002,2.575684309525693,-1.3516311637083716,0.6931897931784001,0.0,6.294669867840548,6.522699147505955,110.91543204233584,109.44511461692619,0.0
0.019,2.2777465847770673,-1.168716678324192,1.5369199506179503,0.0,6.432515318785665,6.437230234945384,109.98496335030511,109.44511461692619,0.0
0.02,2.095171967487277,-1.0337660180776904,1.9967558092995255,0.0,6.53501390560694,6.433341232270351,112.5787133055701,109.44511461692619,0.0
0.021,1.9980305769813538,-0.9538000977726874,0.668544844780588,0.0,6.619426988847501,6.298249230643804,112.86379680814397,109.44511461692619,0.0
0.022,1.8698444676366162,-0.8724585027700984,0.491816271581476,0.0,6.673741647354113,6.192078762220117,110.35038106338284,109.44511461692619,0.0
0.023,1.7617676406205511,-0.7888040523894412,1.739471479497476,0.0,6.7036192195758515,6.251572754970528,110.54265287683305,109.44511461692619,0.0
0.024,1.7499051117648143,-0.7467957790448693,1.632360190173305,0.0,6.732674068286359,6.2840704216672245,112.70171001867146,109.44511461692619,0.0
0.025,1.752754268936343,-0.7272530088304537,0.5202656652366437,0.0,6.760343576805349,6.194532489138085,110.2841525479461,109.44511461692619,0.0
0.026000000000000002,1.702563507341821,-0.6870138587265014,1.7206540212891226,0.0,6.7720614624102335,6.265428440476013,108.91162181828157,109.44511461692619,0.0
0.027,1.7267072930025613,-0.6625466425217076,2.4122543141078348,0.0,6.787408152306934,6.3913210098515405,111.37932325871031,109.44511461692619,0.0
0.028,1.7935792441533613,-0.6739723119057757,1.1590615074756236,0.0,6.815310925945813,6.354277302851477,110.15660581004056,109.44511461692619,0.0
0.029,1.7936469656706187,-0.6578760508791066,1.7633053198793571,0.0,6.834834206114021,6.403388261490646,108.38766966866346,109.44511461692619,0.0
0.03,1.8254165482139662,-0.6348069498550615,2.658347840050533,0.0,6.854939615626952,6.5384587145129185,111.22421164131515,109.44511461692619,0.0
0.031,1.899930334431192,-0.6475917397685909,1.2222858834807995,0.0,6.888178547391542,6.4872366021014125,109.20062230697573,109.44511461692619,0.0
0.032,1.8975576264616951,-0.6249708462787564,2.2365254737500138,0.0,6.910355228555506,6.571393704341647,109.14901994532843,109.44511461692619,0.0
0.033,1.9473052793648842,-0.6056782756731957,2.26528760128964,0.0,6.936833977995386,6.636878233701871,110.77361376014468,109.44511461692619,0.0
0.034,1.9909669956993568,-0.607736852736182,1.4397057024493298,0.0,6.967632674610282,6.603055242654472,107.82026306781549,109.44511461692619,0.0
0.035,1.9948873912586544,-0.5745860041158458,2.9326295641050346,0.0,6.988302023340082,6.748177237795655,109.89470948961353,109.44511461692619,0.0
0.036000000000000004,2.072500495098459,-0.5763829924812756,1.8909104044791394,0.0,7.021945813917421,6.74283738465351,108.11763578038162,109.44511461692619,0.0
0.037,2.0949080871043817,-0.5627969800907306,2.792722047460542,0.0,7.050178808876197,6.849323664125271,109.0607109682362,109.44511461692619,0.0
0.038,2.165662416412469,-0.5513173048823767,2.3250284900201548,0.0,7.085110228137259,6.879961307093648,108.57720117357852,109.44511461692619,0.0
0.039,2.2001580840034376,-0.5473217791514843,2.5754625217824705,0.0,7.119287558690738,6.940166026617623,107.93320926920957,109.44511461692619,0.0
0.04,2.255197279558929,-0.5226863521465043,2.9125775274441095,0.0,7.153397686428027,7.026636962714516,108.83958406377329,109.44511461692619,0.0
0.041,2.312552247226538,-0.527382877113941,2.4654454356937796,0.0,7.193506867017743,7.049557483338413,106.99027983932055,109.44511461692619,0.0
0.042,2.356400379686137,-0.49768928709231064,3.4146458956962045,0.0,7.228583921458826,7.178830496582782,108.72190778027675,109.44511461692619,0.0
0.043000000000000003,2.4328216935720666,-0.5085401380004096,2.5560639935845986,0.0,7.274571101280344,7.186780036911665,106.75388088732394,109.44511461692619,0.0
0.044,2.4753093025111035,-0.4776719818613624,3.5669897773570245,0.0,7.313250511468221,7.314411572581458,108.28691037425824,109.44511461692619,0.0
0.045,2.551226191884762,-0.4864526550234679,2.8120570763165555,0.0,7.362099689813511,7.332070059009171,107.02996797225255,109.44511461692619,0.0
0.046,2.600006337306384,-0.45460022522776755,3.464679743766138,0.0,7.404238224957899,7.427578787955859,107.23194373069126,109.44511461692619,0.0
0.047,2.661328122729152,-0.45761517183548717,3.3858235734091338,0.0,7.45236394790732,7.496292497166264,108.1480757100367,109.44511461692619,0.0
0.048,2.7313870849330355,-0.43580303319879876,2.9407279728053104,0.0,7.500118984766729,7.507682185399522,105.13168154097424,109.44511461692619,0.0
0.049,2.764087746453184,-0.4133340486579957,4.492059388096056,0.0,7.541984019850396,7.694909337038235,107.97285916444886,109.44511461692619,0.0
0.05,2.875126403469911,-0.4278980560220844,3.0861931308835184,0.0,7.600211997245033,7.685554428918521,106.73456837666562,109.44511461692619,0.0
0.051000000000000004,2.923066284978122,-0.3922298687098298,3.7324439871777453,0.0,7.647612545410242,7.763941065718996,105.32153148322705,109.44511461692619,0.0
0.052000000000000005,2.97935184519678,-0.38664292345507567,4.480198265234023,0.0,7.697853820334078,7.909307542870218,107.55211556557698,109.44511461692619,0.0
0.053,3.083212097118043,-0.38819760228054245,3.3838362145725474,0.0,7.757834499603999,7.906222359336225,107.28892019909368,109.44511461692619,0.0
0.054,3.12466228326278,-0.3635070108522156,3.536995841992524,0.0,7.80877708074816,7.933734023648731,107.27489949936754,109.44511461692619,0.0
0.055,3.1321751051674123,-0.38677544719053025,3.5657083430311833,0.0,7.860183004120654,7.964803649936392,111.25804981389626,109.44511461692619,0.0
0.056,3.139925540858208,-0.4091348811174351,1.556003833797118,0.0,7.91178215115324,7.7757748651994625,110.11710739304212,109.44511461692619,0.0
0.057,3.0403757746509146,-0.37527348578472863,2.1197551164630317,0.0,7.935370157183005,7.703946538464782,110.36628492908663,109.44511461692619,0.0
0.058,2.95390687181908,-0.37507624742726775,1.9859546453191705,0.0,7.949733447670336,7.629820362003491,112.99054590774153,109.44511461692619,0.0
0.059000000000000004,2.885796686553898,-0.366199196387341,0.638369843083566,0.0,7.954273288231986,7.424274240053438,110.83972027078394,109.44511461692619,0.0
0.06,2.7536806577196256,-0.3375467567977737,1.6998366050237843,0.0,7.934741534698011,7.383825567509452,112.81046804181216,109.44511461692619,0.0
0.061,2.683917780865477,-0.34829844324284287,0.6808091852608174,0.0,7.9145872991678905,7.229113659238756,111.73081561783276,109.44511461692619,0.0
0.062,2.588579698156691,-0.3309374465038286,1.19777838724145,0.0,7.878960069857971,7.164703964987039,112.15468888691909,109.44511461692619,0.0
0.063,2.5213644533521737,-0.34620878376662345,0.9587460099983565,0.0,7.842308051120166,7.078149559814365,112.25468233762427,109.44511461692619,0.0
0.064,2.463207469303975,-0.35046251981804444,0.880653607438783,0.0,7.800980991331906,6.996110668573312,112.2714180545911,109.44511461692619,0.0
0.065,2.402223660202616,-0.3682241060265279,0.8440227145787236,0.0,7.757493985520786,6.9210211354491955,112.28787907660416,109.44511461692619,0.0
0.066,2.3517866444395894,-0.37833529143764455,0.8073645589754133,0.0,7.711781341511504,6.8503640005115365,112.59159313667148,109.44511461692619,0.0
0.067,2.30010368140403,-0.399803652630236,0.6240427437443001,0.0,7.665834656286452,6.7675832523235995,112.24841120173387,109.44511461692619,0.0
0.068,2.2489199838679834,-0.4090086508444518,0.7676007453650255,0.0,7.617002430956756,6.711223885861159,112.83086169829532,109.44511461692619,0.0
0.069,2.2039831548747952,-0.4332381462885395,0.44251802627060943,0.0,7.569990686030489,6.6228537686092865,112.11992466671371,109.44511461692619,0.0
0.07,2.152377083874892,-0.4405049657298473,0.771238441563538,0.0,7.519400159055767,6.583256860983202,113.31182701361499,109.44511461692619,0.0
0.07100000000000001,2.1153119269348446,-0.4673362578516985,0.13662014414601353,0.0,7.472787767954898,6.473026481106798,111.92387680609592,109.44511461692619,0.0
0.07200000000000001,2.0545026711487355,-0.46985207355025627,0.8058076260138507,0.0,7.419822004782097,6.455433072654657,113.1610824679958,109.44511461692619,0.0
0.073,2.026982481113398,-0.4959296012406036,0.1500451165532155,0.0,7.373236846970319,6.357895806217133,111.89483814648035,109.44511461692619,0.0
0.074,1.9732023737907558,-0.5039782423367936,0.7586700420153956,0.0,7.322181053539644,6.344600727442765,112.14400591322807,109.44511461692619,0.0
0.075,1.9522147197721573,-0.5265295939209943,0.607097245678518,0.0,7.277301493837896,6.306541161219904,112.98833492592303,109.44511461692619,0.0
0.076,1.925841235959553,-0.5526812450364654,0.1495005362410713,0.0,7.235755101590897,6.221670892253608,111.94819981090872,109.44511461692619,0.0
0.077,1.8780581775641028,-0.55884732887545,0.6445372418084003,0.0,7.190293074383105,6.205155417251394,112.16580090110537,109.44511461692619,0.0
0.078,1.8547921636161253,-0.5785597377255005,0.5085298338682824,0.0,7.149832406530983,6.167915536049858,112.40352507273857,109.44511461692619,0.0
0.079,1.8280309633034575,-0.5981240558024757,0.3600836434935568,0.0,7.111648768243888,6.11809564121636,112.06582801739245,109.44511461692619,0.0
0.08,1.7948691408183253,-0.6102460767630489,0.5027250371619572,0.0,7.073439283427047,6.089994575715011,112.15665878655581,109.44511461692619,0.0
0.081,1.7696197388559778,-0.6249864598255068,0.43019421088398047,0.0,7.0377408624690165,6.053923679445859,112.46911376188405,109.44511461692619,0.0
0.082,1.7413614266848267,-0.6398902971012761,0.2437267317702836,0.0,7.003497212249587,6.000959836587295,112.05981054862913,109.44511461692619,0.0
0.083,1.7046355349745304,-0.6473024989298086,0.42223137908071195,0.0,6.968047846594624,5.975125463954351,111.99933887618499,109.44511461692619,0.0
0.084,1.6792178414627266,-0.6568822314716047,0.4269249727101927,0.0,6.934539628803173,5.949489528214536,112.42876053647285,109.44511461692619,0.0
0.085,1.655409004497908,-0.6701282092876542,0.18237768337079707,0.0,6.903179899451237,5.898484021636944,112.00531028463409,109.44511461692619,0.0
0.08600000000000001,1.6206380199448356,-0.6748414348276661,0.3685008526130975,0.0,6.870241587407974,5.875948834223152,111.8154799271493,109.44511461692619,0.0
0.08700000000000001,1.5969564930911826,-0.6819738326742872,0.4397123782532635,0.0,6.839081019335388,5.8606026285827815,111.96843226768682,109.44511461692619,0.0
0.088,1.5800517186338328,-0.6915993112232284,0.3380030314768949,0.0,6.810489366167939,5.833397553219157,112.08046958417013,109.44511461692619,0.0
0.089,1.5589245676046222,-0.6986721791804331,0.25563082356280065,0.0,6.782718131470675,5.800164909541004,111.96766715520911,109.44511461692619,0.0
0.09,1.533704510509541,-0.7016681027119885,0.28680651266048063,0.0,6.7546595787842225,5.774294389410993,111.77657486084493,109.44511461692619,0.0
0.091,1.510536414877016,-0.7049457285639482,0.359038057403384,0.0,6.727150408961816,5.758135069004707,111.55985620435935,109.44511461692619,0.0
0.092,1.4931279577762493,-0.709675335811374,0.4462499697718436,0.0,6.701263704619715,5.751395007894669,111.39428455854012,109.44511461692619,0.0
0.093,1.4814301178413785,-0.7177705844907598,0.5095440932653181,0.0,6.67813484588308,5.749943194743853,110.98027973769778,109.44511461692619,0.0
0.094,1.4756332963578414,-0.7243017332898589,0.7011948524787706,0.0,6.657811165586134,5.767292991276836,110.90651556745728,109.44511461692619,0.0
0.095,1.480729059156496,-0.7337028451635231,0.7234629280937137,0.0,6.6422236437902935,5.780789918729649,111.14877054101098,109.44511461692619,0.0
0.096,1.4872061968072354,-0.741243112666437,0.5852988820760165,0.0,6.630279985225903,5.77529614792591,112.12957229628425,109.44511461692619,0.0
0.097,1.4812544989179004,-0.7472675557711411,0.06805342764579758,0.0,6.619568601504064,5.714361486963287,111.13505702849308,109.44511461692619,0.0
0.098,1.444532796222024,-0.73676336463303,0.5484116374257146,0.0,6.602619184601908,5.720440881662494,110.2070041197843,109.44511461692619,0.0
0.099,1.434000034490268,-0.7325722365579791,1.004819196751523,0.0,6.5876166666830125,5.770410031393134,110.24244596742945,109.44511461692619,0.0
0.1,1.4552601127845586,-0.7389403082657349,0.9791249594239178,0.0,6.579853714697675,5.80404763642984,111.496213383188,109.44511461692619,0.0
0.101,1.4756641670619497,-0.7483375798069034,0.33173026388201965,0.0,6.577200837566996,5.760556866440439,111.2886707480208,109.44511461692619,0.0
0.10200000000000001,1.454158178917969,-0.7435815657179771,0.4170660201546741,0.0,6.569847036885247,5.73958046512093,109.90467414465202,109.44511461692619,0.0
0.10300000000000001,1.435158749822573,-0.7306484646851562,1.1044687265618085,0.0,6.559755895167004,5.796602141326311,109.35582134078498,109.44511461692619,0.0
0.10400000000000001,1.45776184082196,-0.731175165978844,1.3797880612567384,0.0,6.556563303393756,5.867647301190813,110.81391033128999,109.44511461692619,0.0
0.105,1.4980255596566319,-0.7433283008340122,0.6370556088605981,0.0,6.562126064605414,5.842611944619196,111.34946003178706,109.44511461692619,0.0
0.106,1.4920832105103543,-0.7409220438478765,0.3502373044634537,0.0,6.564242794421718,5.79757000646062,109.52481603241195,109.44511461692619,0.0
0.107,1.4662314749016607,-0.7194717584016519,1.2617622899961525,0.0,6.55930818861131,5.863164133977591,108.63603391896085,109.44511461692619,0.0
0.108,1.4915272407503872,-0.7150548792865719,1.714244153701356,0.0,6.561155102285444,5.9593220917146255,110.39901732222611,109.44511461692619,0.0
0.109,1.5455693111734554,-0.7284977604947366,0.8232134250157233,0.0,6.573956006089917,5.937819076164847,111.03280195849338,109.44511461692619,0.0
0.11,1.546032238262514,-0.7248884849226098,0.49044423346641874,0.0,6.582795068833953,5.892541647491361,108.82239036362807,109.44511461692619,0.0
0.111,1.5234013490516358,-0.6987658011954389,1.601877273432053,0.0,6.583385079981966,5.980755221355427,108.33787115132463,109.44511461692619,0.0
0.112,1.5625600525047878,-0.6934740420602244,1.8552093142397883,0.0,6.592416580733982,6.072424866765127,110.25569922411096,109.44511461692619,0.0
0.113,1.617234719258712,-0.7064283235080102,0.88818943177478,0.0,6.6111897845023755,6.0413025639214295,109.74310846551302,109.44511461692619,0.0
0.114,1.6143727346256138,-0.6967260609478146,1.1415048725878805,0.0,6.623776645913457,6.053566274030212,107.21471486735477,109.44511461692619,0.0
0.115,1.6211869819224785,-0.6776631769874067,2.428005669162718,0.0,6.634331297584268,6.204066045435339,109.357893372955,109.44511461692619,0.0
0.116,1.7004400179269314,-0.6873894565072489,1.3572886288023134,0.0,6.660140980815299,6.201277730974121,110.54914599763792,109.44511461692619,0.0
0.117,1.7179744575909397,-0.6845069170056767,0.7506220026537371,0.0,6.682676522136735,6.144186799806393,107.7071105500053,109.44511461692619,0.0
0.11800000000000001,1.6967829431510586,-0.6498533823620913,2.189019767139259,0.0,6.693466352793474,6.2618553472275025,108.32657465146609,109.44511461692619,0.0
0.11900000000000001,1.7529167236679122,-0.6426740782744491,1.8904731160634636,0.0,6.714500867023446,6.315225282707728,110.11739543114669,109.44511461692619,0.0
0.12,1.7928892049696126,-0.6462471409028112,0.9883399180809582,0.0,6.739233753308439,6.265276855657592,107.09618513113124,109.44511461692619,0.0
0.121,1.7830517403977386,-0.6171682756923668,2.522434362946635,0.0,6.753264102460486,6.402050126771943,108.1601934776156,109.44511461692619,0.0
0.122,1.8540740234136392,-0.614490730941558,2.003279401097555,0.0,6.7795650025382805,6.446190289660535,109.3114209128942,109.44511461692619,0.0
0.123,1.893756880078723,-0.6186014464736556,1.4290026204985753,0.0,6.808128783053191,6.426912738617656,106.43919184774181,109.44511461692619,0.0
0.124,1.9033314399129464,-0.5895004742377993,2.895176380766617,0.0,6.828666216311058,6.578784829150913,108.54724905030268,109.44511461692619,0.0
0.125,1.9845888763851685,-0.5956700048461296,1.8501264351524163,0.0,6.863306773385742,6.579063649922788,107.31922483823561,109.44511461692619,0.0
0.126,2.0083082334665043,-0.5872277457685854,2.4853974389728566,0.0,6.893520813025528,6.661312399287109,107.16833723370767,109.44511461692619,0.0
0.127,2.067254788347835,-0.5696369973045426,2.583609015069011,0.0,6.9270877638975,6.736561313545218,108.50717629459707,109.44511461692619,0.0
0.128,2.118340456164878,-0.5742759671268662,1.9235688678476026,0.0,6.965509105273184,6.729025541598334,105.8979021773802,109.44511461692619,0.0
0.129,2.139700888945274,-0.5432595732440637,3.2636780508514973,0.0,6.995876542291278,6.878259101658676,108.60997470458692,109.44511461692619,0.0
0.13,2.2215395095151074,-0.5505742825763124,1.9159931863715327,0.0,7.039245373578969,6.84517097855708,105.64187287743457,109.44511461692619,0.0
0.131,2.2360667213219365,-0.5225357277107882,3.4380765173426253,0.0,7.071811121299202,6.999854958852981,108.39471625346312,109.44511461692619,0.0
0.132,2.322169526958282,-0.5261994658536446,2.0721588129629804,0.0,7.117272089021375,6.967529298597913,105.21290278938855,109.44511461692619,0.0
0.133,2.3384947588807576,-0.49787712072874096,3.7053876632756397,0.0,7.1518022986006535,7.135361904263647,108.16103009119193,109.44511461692619,0.0
0.134,2.4316265740067906,-0.5055897720392656,2.2441648576312914,0.0,7.2007943628839834,7.102716225852095,104.97463370476348,109.44511461692619,0.0
0.135,2.453342563446925,-0.4735996484783134,3.882067859967146,0.0,7.238026612793016,7.271558439336264,107.78283487903487,109.44511461692619,0.0
0.136,2.546295420414623,-0.4851668447624994,2.494590070210365,0.0,7.290012151886433,7.248230415194269,105.33387850187857,109.44511461692619,0.0
