timestamp,iq,id,iq_ref,id_ref,vq,vd,omega,omega_ref,r
0.0,0.0,0.0,0.0,0.0,0.0,0.0,0.0,482.69014855695065,0.0
0.001,0.0,0.0,10.0,0.0,0.0,1.0999999999999999,6.115472199294103,482.69014855695065,0.0
0.002,0.5307369851907212,-0.2913212625381807,10.0,0.0,0.14204533887919985,1.9316189316290207,13.317801563642547,482.69014855695065,0.0
0.003,1.0842913387634832,-0.6024330830807904,10.0,0.0,0.384357124667687,2.6386968949419622,20.697939467553027,482.69014855695065,0.0
0.004,1.5590443546685477,-0.8700465084428163,10.0,0.0,0.6994718867930164,3.2526109522886295,28.232747544420146,482.69014855695065,0.0
0.005,1.9399447555359186,-1.0838738622210777,10.0,0.0,1.065311453102468,3.7994935661768023,35.92944872443006,482.69014855695065,0.0
0.006,2.239750732602683,-1.2510087368845633,10.0,0.0,1.4655018868449925,4.299102221838433,43.75633668444442,482.69014855695065,0.0
0.007,2.4770151619816017,-1.382020589851471,10.0,0.0,1.8883740978591532,4.765668027847139,51.58766747378032,482.69014855695065,0.0
0.008,2.6680767290418097,-1.4872241871505252,10.0,0.0,2.325877945545995,5.209220346273558,59.45942083902103,482.69014855695065,0.0
0.009000000000000001,2.8266491704841292,-1.5730794701170803,10.0,0.0,2.772378685460125,5.636635464737965,67.35059094018146,482.69014855695065,0.0
0.01,2.962077666392183,-1.645500646948331,10.0,0.0,3.224078639851053,6.052647735211881,75.20908322432116,482.69014855695065,0.0
0.011,3.0811061533574158,-1.7084279320504514,10.0,0.0,3.678407615443203,6.460489925470405,83.0265951655913,482.69014855695065,0.0
0.012,3.188848746459569,-1.7638278597420747,10.0,0.0,4.133552631697047,6.862319393890706,90.74118064793086,482.69014855695065,0.0
0.013000000000000001,3.288205119878689,-1.8140726097274587,10.0,0.0,4.588339016389012,7.259628641949282,98.35820682563939,482.69014855695065,0.0
0.014,3.3820602099432007,-1.8592355758795645,10.0,0.0,5.041843166194517,7.653355107498287,105.90865295623543,482.69014855695065,0.0
0.015,3.4721069852858886,-1.899829032412081,10.0,0.0,5.493383198131427,8.044092747085895,113.37727610343421,482.69014855695065,0.0
0.016,3.5596145800153947,-1.9360338400176071,10.0,0.0,5.94241958510469,8.43218525824161,120.68508583176356,482.69014855695065,0.0
0.017,3.645144415105338,-1.9685384477868613,10.0,0.0,6.388575043274759,8.817838951066484,127.83962377537456,482.69014855695065,0.0
0.018000000000000002,3.730251927866576,-1.9959253041084188,10.0,0.0,6.83136783302799,9.201036292373047,134.85405702603322,482.69014855695065,0.0
0.019,3.81544967906247,-2.018253592643655,10.0,0.0,7.270383321112213,9.581672501020332,141.68976328564074,482.69014855695065,0.0
0.02,3.9014648862453374,-2.0350875541282063,10.0,0.0,7.705189334130692,9.959536942333155,148.3432823300447,482.69014855695065,0.0
0.021,3.9891051824829464,-2.0457889559126508,10.0,0.0,8.135310004560049,10.334315260302239,154.92060212100432,482.69014855695065,0.0
0.022,4.079618141396171,-2.0489696811670974,10.0,0.0,8.560139305503519,10.705547790999272,161.01925282597162,482.69014855695065,0.0
0.023,4.171109372430197,-2.048468292080302,10.0,0.0,8.979521969370257,11.072981092896333,166.534238406907,482.69014855695065,0.0
0.024,4.266936196769627,-2.039517194249811,10.0,0.0,9.392730090169543,11.435983292623375,171.8647834235234,482.69014855695065,0.0
0.025,4.367255527950721,-2.0225841458509217,10.0,0.0,9.79914449451603,11.793929226271104,177.02637022703064,482.69014855695065,0.0
0.026000000000000002,4.4734353073349595,-1.9962166741499119,10.0,0.0,10.197980960389518,12.146045424568259,181.63161391243256,482.69014855695065,0.0
0.027,4.582366840795821,-1.966358349113627,10.0,0.0,10.589124658468391,12.491912978736195,185.74793639675826,482.69014855695065,0.0
0.028,4.700058850757774,-1.9240450691803936,10.0,0.0,10.971384864613876,12.830451341534015,189.43662766964098,482.69014855695065,0.0
0.029,4.820934284790598,-1.879137197786803,10.0,0.0,11.344756153370636,13.161242511022618,192.73598774770625,482.69014855695065,0.0
0.03,4.952016225740939,-1.821000614527957,10.0,0.0,11.707923484756042,13.483081433273819,195.59831968863915,482.69014855695065,0.0
0.031,5.086039273572549,-1.7621311371320891,10.0,0.0,12.061063698547066,13.79562148058647,197.80891551030922,482.69014855695065,0.0
0.032,5.230431844273564,-1.6911110488141978,10.0,0.0,12.40292038074925,14.097678592248165,200.4421589734679,482.69014855695065,0.0
0.033,5.380124186618445,-1.6166151787533525,10.0,0.0,12.733312761073865,14.38869342901298,201.91742172589852,482.69014855695065,0.0
0.034,5.537594793894332,-1.535029134414507,10.0,0.0,13.051537880865839,14.667821176756876,203.18880493813168,482.69014855695065,0.0
0.035,5.698947813469154,-1.4530296333491768,10.0,0.0,13.357649178779205,14.934684535625108,203.60405746232266,482.69014855695065,0.0
0.036000000000000004,5.870474243492053,-1.3603000477825025,10.0,0.0,13.65045542338638,15.188218311291084,204.28541056101804,482.69014855695065,0.0
0.037,6.041188711220851,-1.275010780747051,10.0,0.0,13.930879897581198,15.42861600670124,205.2233356988433,482.69014855695065,0.0
0.038,6.228175208801664,-1.168399557236846,10.0,0.0,14.196427351981786,15.654155009933262,200.35169734043586,482.69014855695065,0.0
0.039,6.404895489618571,-1.0845312562500289,10.0,0.0,14.449814560392067,15.86612549236809,209.64773540576442,482.69014855695065,0.0
0.04,6.534612624563911,-1.0851225869390002,10.0,0.0,14.699963825590459,16.069735965364643,218.170241886545,482.69014855695065,0.0
0.041,6.621487035821765,-1.1484636683301073,10.0,0.0,14.952420817214799,16.26974130369247,220.68166573712315,482.69014855695065,0.0
0.042,6.6704785161669795,-1.2647840534085386,10.0,0.0,15.211794475054209,16.47047148862455,233.10654395573727,482.69014855695065,0.0
0.043000000000000003,6.709376245503157,-1.3867642159960276,10.0,0.0,15.477558399636717,16.673277185423842,235.10815372853793,482.69014855695065,0.0
0.044,6.744196093263161,-1.5028656568708394,10.0,0.0,15.74857785831126,16.87893749904121,248.8181267625822,482.69014855695065,0.0
0.045,6.750563942850831,-1.6564343609015326,10.0,0.0,16.02879294551472,17.090781462187255,251.61117095327992,482.69014855695065,0.0
0.046,6.764566527560506,-1.7840489455190416,10.0,0.0,16.314672837580048,17.307985931916857,266.60539535969383,482.69014855695065,0.0
0.047,6.752169677737121,-1.9446655565152717,10.0,0.0,16.610076868775216,17.533561623207692,270.0627790167984,482.69014855695065,0.0
0.048,6.7291903821171735,-2.110358990489937,10.0,0.0,16.91511817760721,17.768523902508925,283.13731951482634,482.69014855695065,0.0
0.049,6.714097190323873,-2.246352557911731,10.0,0.0,17.22645394156277,18.011924542904307,294.70561782835244,482.69014855695065,0.0
0.05,6.666841209228205,-2.4219663531358275,10.0,0.0,17.548953774962747,18.267165921658286,300.1294548425776,482.69014855695065,0.0
0.051000000000000004,6.612335516543512,-2.59336894353628,10.0,0.0,17.88182590988993,18.53465621226123,310.75154600411304,482.69014855695065,0.0
0.052000000000000005,6.568447424188529,-2.726701034625408,10.0,0.0,18.22111236450049,18.81296732052879,322.35703405819294,482.69014855695065,0.0
0.053,6.5036136539679195,-2.8764091099274185,10.0,0.0,18.569435851849082,19.104068797231378,330.9557012510771,482.69014855695065,0.0
0.054,6.434362099984388,-3.0149932598739144,10.0,0.0,18.925784313874168,19.407861808234543,339.4707232587175,482.69014855695065,0.0
0.055,6.370891759459199,-3.1253006473392393,10.0,0.0,19.28762520191878,19.723199586257838,348.00092263299223,482.69014855695065,0.0
0.056,6.314459991163816,-3.2071523724558277,10.0,0.0,19.65271639484943,20.048760466390505,356.29964302226927,482.69014855695065,0.0
0.057,6.266092078485367,-3.262894600420583,10.0,0.0,20.01916768432525,20.383030530514645,362.98468703488817,482.69014855695065,0.0
0.058,6.234656406121481,-3.2830044001420036,10.0,0.0,20.38405550695561,20.723492962007192,368.0316803659419,482.69014855695065,0.0
0.059000000000000004,6.228510489334133,-3.2600491726267444,10.0,0.0,20.743774617448285,21.0667596267365,372.35801287012686,482.69014855695065,0.0
0.06,6.247959954981508,-3.201438289803519,10.0,0.0,21.095630838529225,21.40947063565305,373.88739853789605,482.69014855695065,0.0
0.061,6.298571070969623,-3.1064761741463998,10.0,0.0,21.436712814499675,21.747723437683817,371.47602194372377,482.69014855695065,0.0
0.062,6.38094735961424,-2.982369480030801,10.0,0.0,21.76480975788002,22.077703876517536,366.2922057853833,482.69014855695065,0.0
0.063,6.53566146196873,-2.7695519558602215,10.0,0.0,22.070926190088084,22.39130117743337,372.07145994459506,482.69014855695065,0.0
0.064,6.708566607552835,-2.560747003310555,10.0,0.0,22.35695033962817,22.686677966487718,365.1882535794375,482.69014855695065,0.0
0.065,6.897199383751794,-2.3667028673086685,10.0,0.0,22.62465294768497,22.962098937664592,356.7297130485294,482.69014855695065,0.0
0.066,7.167218997264825,-2.0824440278168583,10.0,0.0,22.863799361069702,23.20893224280502,357.7888817172531,482.69014855695065,0.0
0.067,7.423387055578651,-1.859201647307153,10.0,0.0,23.082000390168847,23.42951856849048,345.1266644280509,482.69014855695065,0.0
0.068,7.736929428236853,-1.5824320316278497,10.0,0.0,23.27222771500701,23.617938384108047,342.9584987314189,482.69014855695065,0.0
0.069,8.04132723792414,-1.3546495884062866,10.0,0.0,23.43998591632552,23.77619061530866,334.2677598047511,482.69014855695065,0.0
0.07,8.395997401416553,-1.0747195592463576,10.0,0.0,23.578279041856877,23.89942370363377,322.7417355360636,482.69014855695065,0.0
0.07100000000000001,8.726669482066718,-0.8579631993863083,10.0,0.0,23.694022264374595,23.99133556844291,337.9106389559309,482.69014855695065,0.0
0.07200000000000001,8.91385728821635,-0.8925675486457335,10.0,0.0,23.81335639313859,24.06834663115294,344.8606079910171,482.69014855695065,0.0
0.073,8.941721008651788,-1.1508071676799903,10.0,0.0,23.95651852989837,24.148396869281978,362.43451347602996,482.69014855695065,0.0
0.074,8.927907180207171,-1.4305443375681337,10.0,0.0,24.121558169292424,24.236556455607346,368.59250641149885,482.69014855695065,0.0
0.075,8.859340450140312,-1.7499202918046703,10.0,0.0,24.31124378664675,24.33980824926249,387.10067316750514,482.69014855695065,0.0
0.076,8.767176841935807,-2.0562826706616475,10.0,0.0,24.52279212376306,24.461155754889383,396.7190369145668,482.69014855695065,0.0
0.077,8.62162972262067,-2.4016532593838043,10.0,0.0,24.76024751870129,24.606611890707832,408.83095327273656,482.69014855695065,0.0
0.078,8.47560200325128,-2.694417929744825,10.0,0.0,25.017253395580042,24.77587553037574,428.2762610097064,482.69014855695065,0.0
0.079,8.289593068490031,-3.001970310780605,10.0,0.0,25.296388163948027,24.972914099394785,438.0404594767293,482.69014855695065,0.0
0.08,8.078425759776728,-3.30171273584331,10.0,0.0,25.597209455327665,25.19953060295957,447.87571303424875,482.69014855695065,0.0
0.081,7.882675762310951,-3.525181384717318,10.0,0.0,25.912194395051316,25.45298841193994,460.26934286159303,482.69014855695065,0.0
0.082,7.687097883672571,-3.703693402600396,10.0,0.0,26.238428257179056,25.732155000670204,470.03446400235384,482.69014855695065,0.0
0.083,7.512516260295773,-3.813976142857688,10.0,0.0,26.570301373216505,26.033276516525277,477.918982155292,482.69014855695065,0.0
0.084,7.3689562950047955,-3.855399170081403,9.036835592202388,0.0,26.902553034827758,26.245570887489084,477.5669739728685,482.69014855695065,0.0
0.085,7.226188117368066,-3.7899958835158754,9.264071429254962,0.0,27.215200375579826,26.518757473558537,472.0663599229733,482.69014855695065,0.0
0.08600000000000001,7.1796221594619585,-3.612148882228183,10.0,0.0,27.504992503587648,26.878264493100982,472.79662761620955,482.69014855695065,0.0
0.08700000000000001,7.264832312731475,-3.363384192855333,10.0,0.0,27.77617047493078,27.213601961343798,474.43505522732397,482.69014855695065,0.0
0.088,7.413496944264434,-3.0946798478155215,10.0,0.0,28.026694564903238,27.527022471960723,458.52808780206743,482.69014855695065,0.0
0.089,7.64050937103077,-2.7790646205525946,10.0,0.0,28.251477665391608,27.810668619884233,447.3446186098721,482.69014855695065,0.0
0.09,7.974730902066148,-2.36949792357708,10.0,0.0,28.44025088622882,28.053934218918002,444.6953508674485,482.69014855695065,0.0
0.091,8.316392215843987,-2.0256320883575,10.0,0.0,28.6007437699813,28.257510050926914,424.62905475541834,482.69014855695065,0.0
0.092,8.749119176806836,-1.6121412277002096,10.0,0.0,28.72349961223931,28.412594235542038,417.76009446263026,482.69014855695065,0.0
0.093,9.180655989589212,-1.2661277826432409,10.0,0.0,28.815561718383332,28.521303806125015,403.4957471368935,482.69014855695065,0.0
0.094,9.677330870473803,-0.8698276517888619,10.0,0.0,28.86915569102785,28.57802976149462,399.3151986097284,482.69014855695065,0.0
0.095,10.069313257735848,-0.6899018327650106,10.0,0.0,28.907234023160786,28.59629120480174,420.83234487682233,482.69014855695065,0.0
0.096,10.181056380087714,-0.9437965542340754,10.0,0.0,28.97305834396298,28.608162417405353,429.2394214316273,482.69014855695065,0.0
0.097,10.151313234856342,-1.3501522805709394,10.0,0.0,29.075647536627685,28.6298181180278,451.08367028324665,482.69014855695065,0.0
0.098,10.031742318777512,-1.8159755411357312,10.0,0.0,29.217320381486903,28.672422537170824,461.22468669134184,482.69014855695065,0.0
0.099,9.867736955523155,-2.259086010077882,10.0,0.0,29.393170302752516,28.74177867968266,485.45062078930545,482.69014855695065,0.0
0.1,9.643108294566572,-2.7067146564034563,6.002516188802857,0.0,29.60317889254913,28.40513007991087,494.50313769072744,482.69014855695065,0.0
0.101,9.146264175185388,-3.058604981813001,1.3581278467540905,0.0,29.792753412720703,27.70464588610488,502.4360177939818,482.69014855695065,0.0
0.10200000000000001,8.395049477965232,-3.1952759989822255,-2.8057708972434092,0.0,29.90483697012903,26.75924776077783,507.3232905020251,482.69014855695065,0.0
0.10300000000000001,7.44492499254929,-3.1606671814918004,-5.495738670715789,0.0,29.905998679168185,25.762341882505872,506.736132331092,482.69014855695065,0.0
0.10400000000000001,6.452836902583851,-2.9834447587739374,-5.4426194229906555,0.0,29.788205251152178,24.997614002991565,502.4040400770275,482.69014855695065,0.0
0.105,5.619893505304985,-2.754052476360541,-3.473712211159178,0.0,29.58225745114803,24.59533106225231,495.3550665948045,482.69014855695065,0.0
0.106,5.07712833455156,-2.544520453618206,-0.075874650426214,0.0,29.33592153739286,24.618129429958977,487.52240700256266,482.69014855695065,0.0
0.107,4.897526885215625,-2.3895740879319396,3.792132561238586,0.0,29.101550271785804,25.01984529491466,478.6896840869647,482.69014855695065,0.0
0.108,5.0660595565019575,-2.302829806175453,8.24849866373743,0.0,28.922795311898668,25.78913803763745,473.6469911915361,482.69014855695065,0.0
0.109,5.579910403767668,-2.2555067930469765,10.0,0.0,28.834507033645963,26.55688922957677,475.8140315997749,482.69014855695065,0.0
0.11,6.21515642568024,-2.2164740722680056,9.8283121168561,0.0,28.828002333258056,27.1378972400507,460.456691344344,482.69014855695065,0.0
0.111,6.821239248699127,-2.119524427458278,10.0,0.0,28.869974770235046,27.620439875102782,447.3382795274718,482.69014855695065,0.0
0.112,7.458857995204802,-1.869009263519104,10.0,0.0,28.929417055434328,27.993131377630462,443.25713508379255,482.69014855695065,0.0
0.113,8.028404930170957,-1.6340966586278016,10.0,0.0,28.99684902746782,28.278223983044093,424.1052131136303,482.69014855695065,0.0
0.114,8.619835488503133,-1.305605637586234,10.0,0.0,29.05226217657365,28.48218863305283,414.36665165443014,482.69014855695065,0.0
0.115,9.16384280709096,-1.0192568114125917,10.0,0.0,29.09431701510109,28.617371633509936,402.95643793183723,482.69014855695065,0.0
0.116,9.73647838628071,-0.6691487369070575,10.0,0.0,29.110036269887626,28.685691977249085,408.9023336174069,482.69014855695065,0.0
0.117,10.07260010038437,-0.6950519607697556,10.0,0.0,29.13736606893938,28.717505179333465,424.94199114046205,482.69014855695065,0.0
0.11800000000000001,10.165356074317696,-1.0259550995956408,10.0,0.0,29.201284521326606,28.74202810112295,437.7486613660886,482.69014855695065,0.0
0.11900000000000001,10.113049194305754,-1.4892120819127204,10.0,0.0,29.308912657320683,28.77717189251286,454.53667067220687,482.69014855695065,0.0
0.12,10.003504327450333,-1.936983126954095,10.0,0.0,29.453914603985723,28.83109098491716,475.02807714902536,482.69014855695065,0.0
0.121,9.80014414006079,-2.4347188429364643,10.0,0.0,29.640081483532327,28.915392534691836,487.8534183479492,482.69014855695065,0.0
0.122,9.564777595268612,-2.88131415852943,4.3832011564280275,0.0,29.860209957657155,28.415889462704026,501.758931283165,482.69014855695065,0.0
0.123,8.98161396744276,-3.1651677378759504,-2.7602431384420285,0.0,30.035133217742903,27.32053299494041,506.7454881340022,482.69014855695065,0.0
0.124,8.003926989079671,-3.1739367101135647,-5.4940749596311385,0.0,30.081154556196395,26.224631373921337,508.1228195574214,482.69014855695065,0.0
0.125,6.928047138050248,-3.0302527141047566,-6.437067381345449,0.0,29.99709066941927,25.275101114502412,505.6600984044386,482.69014855695065,0.0
0.126,5.949575859801302,-2.805660005467117,-5.435406303328931,0.0,29.803211787387912,24.628603177243725,499.6457574129823,482.69014855695065,0.0
0.127,5.212176423917637,-2.5759811270912847,-2.5977918961610866,0.0,29.54105225029887,24.40081734468079,491.7897775268933,482.69014855695065,0.0
0.128,4.8205891899329,-2.3931593401731326,1.2392017571839666,0.0,29.264516475885195,24.598987900841006,483.7220907145026,482.69014855695065,0.0
0.129,4.803150479311063,-2.279709320975228,5.2627257418038065,0.0,29.024800050286306,25.151907911547102,475.0801373320978,482.69014855695065,0.0
0.13,5.12444291345023,-2.2253303881284174,9.659802545254724,0.0,28.859500085896777,26.033490932294598,473.33690165759504,482.69014855695065,0.0
0.131,5.755379617245734,-2.2117078082812154,10.0,0.0,28.797933725566196,26.73764649343974,473.05699151235564,482.69014855695065,0.0
0.132,6.401248213874096,-2.1777748369594714,10.0,0.0,28.809343156336283,27.29709170929869,453.7400270435359,482.69014855695065,0.0
0.133,7.038641165891166,-2.0298694990760358,10.0,0.0,28.859625908161288,27.738078807893167,447.4539630961643,482.69014855695065,0.0
0.134,7.66677287584953,-1.7709857827447097,10.0,0.0,28.921980939245632,28.077274913235442,433.21097802858463,482.69014855695065,0.0
0.135,8.230075762919375,-1.527460943769622,10.0,0.0,28.987821182631826,28.333104910673825,422.7568287889183,482.69014855695065,0.0
0.136,8.82433661545641,-1.1824794999722685,10.0,0.0,29.037147690995276,28.510200267798616,405.6216619946608,482.69014855695065,0.0
0.137,9.366995325869311,-0.8906228733116235,10.0,0.0,29.070596669740166,28.620768890427215,400.0238722167592,482.69014855695065,0.0
0.138,9.92104503376696,-0.5670768260184694,10.0,0.0,29.079086113937787,28.668106667902844,412.46279118395995,482.69014855695065,0.0
0.139,10.117604779657947,-0.7952011135447427,10.0,0.0,29.11978952356403,28.69547853708163,428.9961315888656,482.69014855695065,0.0
0.14,10.138204945384118,-1.2091146662446401,10.0,0.0,29.202409027067247,28.7238831395342,444.5226863531303,482.69014855695065,0.0
0.14100000000000001,10.082471532058644,-1.6370088381763748,10.0,0.0,29.322536263850907,28.764045909214904,461.9030630717903,482.69014855695065,0.0
0.14200000000000002,9.920020186954144,-2.1338929830763727,10.0,0.0,29.485045368143936,28.829517439434124,476.3320568802208,482.69014855695065,0.0
0.14300000000000002,9.721719791957534,-2.584068960376481,9.892358647925318,0.0,29.682401231083603,28.913040708331113,498.90486575054655,482.69014855695065,0.0
0.14400000000000002,9.457850986944365,-3.0279902308749964,-1.5561929591735062,0.0,29.91270341460084,27.776725537973714,502.8573163648359,482.69014855695065,0.0
0.145,8.548940641389917,-3.142242972744651,-3.734089944397047,0.0,30.014472451631285,26.74933040066104,505.5872145943032,482.69014855695065,0.0
0.146,7.515812294653971,-3.080083139716853,-5.328009719504205,0.0,29.995344962175672,25.785854490058536,506.09999283366534,482.69014855695065,0.0
