timestamp,iq,id,iq_ref,id_ref,vq,vd,omega,omega_ref,r
0.0,0.0,0.0,0.0,0.0,0.0,0.0,0.0,489.29557296501133,0.0
0.001,0.0,0.0,10.0,0.0,0.0,1.0999999999999999,6.115472199294103,489.29557296501133,0.0
0.002,0.5307369851907212,-0.2913212625381807,10.0,0.0,0.14204533887919985,1.9316189316290207,13.317801563642547,489.29557296501133,0.0
0.003,1.0842913387634832,-0.6024330830807904,10.0,0.0,0.384357124667687,2.6386968949419622,20.697939467553027,489.29557296501133,0.0
0.004,1.5590443546685477,-0.8700465084428163,10.0,0.0,0.6994718867930164,3.2526109522886295,28.232747544420146,489.29557296501133,0.0
0.005,1.9399447555359186,-1.0838738622210777,10.0,0.0,1.065311453102468,3.7994935661768023,35.92944872443006,489.29557296501133,0.0
0.006,2.239750732602683,-1.2510087368845633,10.0,0.0,1.4655018868449925,4.299102221838433,43.75633668444442,489.29557296501133,0.0
0.007,2.4770151619816017,-1.382020589851471,10.0,0.0,1.8883740978591532,4.765668027847139,51.58766747378032,489.29557296501133,0.0
0.008,2.6680767290418097,-1.4872241871505252,10.0,0.0,2.325877945545995,5.209220346273558,59.45942083902103,489.29557296501133,0.0
0.009000000000000001,2.8266491704841292,-1.5730794701170803,10.0,0.0,2.772378685460125,5.636635464737965,67.35059094018146,489.29557296501133,0.0
0.01,2.962077666392183,-1.645500646948331,10.0,0.0,3.224078639851053,6.052647735211881,75.20908322432116,489.29557296501133,0.0
0.011,3.0811061533574158,-1.7084279320504514,10.0,0.0,3.678407615443203,6.460489925470405,83.0265951655913,489.29557296501133,0.0
0.012,3.188848746459569,-1.7638278597420747,10.0,0.0,4.133552631697047,6.862319393890706,90.74118064793086,489.29557296501133,0.0
0.013000000000000001,3.288205119878689,-1.8140726097274587,10.0,0.0,4.588339016389012,7.259628641949282,98.35820682563939,489.29557296501133,0.0
0.014,3.3820602099432007,-1.8592355758795645,10.0,0.0,5.041843166194517,7.653355107498287,105.90865295623543,489.29557296501133,0.0
0.015,3.4721069852858886,-1.899829032412081,10.0,0.0,5.493383198131427,8.044092747085895,113.37727610343421,489.29557296501133,0.0
0.016,3.5596145800153947,-1.9360338400176071,10.0,0.0,5.94241958510469,8.43218525824161,120.68508583176356,489.29557296501133,0.0
0.017,3.645144415105338,-1.9685384477868613,10.0,0.0,6.388575043274759,8.817838951066484,127.83962377537456,489.29557296501133,0.0
0.018000000000000002,3.730251927866576,-1.9959253041084188,10.0,0.0,6.83136783302799,9.201036292373047,134.85405702603322,489.29557296501133,0.0
0.019,3.81544967906247,-2.018253592643655,10.0,0.0,7.270383321112213,9.581672501020332,141.68976328564074,489.29557296501133,0.0
0.02,3.9014648862453374,-2.0350875541282063,10.0,0.0,7.705189334130692,9.959536942333155,148.3432823300447,489.29557296501133,0.0
0.021,3.9891051824829464,-2.0457889559126508,10.0,0.0,8.135310004560049,10.334315260302239,154.92060212100432,489.29557296501133,0.0
0.022,4.079618141396171,-2.0489696811670974,10.0,0.0,8.560139305503519,10.705547790999272,161.01925282597162,489.29557296501133,0.0
0.023,4.171109372430197,-2.048468292080302,10.0,0.0,8.979521969370257,11.072981092896333,166.534238406907,489.29557296501133,0.0
0.024,4.266936196769627,-2.039517194249811,10.0,0.0,9.392730090169543,11.435983292623375,171.8647834235234,489.29557296501133,0.0
0.025,4.367255527950721,-2.0225841458509217,10.0,0.0,9.79914449451603,11.793929226271104,177.02637022703064,489.29557296501133,0.0
0.026000000000000002,4.4734353073349595,-1.9962166741499119,10.0,0.0,10.197980960389518,12.146045424568259,181.63161391243256,489.29557296501133,0.0
0.027,4.582366840795821,-1.966358349113627,10.0,0.0,10.589124658468391,12.491912978736195,185.74793639675826,489.29557296501133,0.0
0.028,4.700058850757774,-1.9240450691803936,10.0,0.0,10.971384864613876,12.830451341534015,189.43662766964098,489.29557296501133,0.0
0.029,4.820934284790598,-1.879137197786803,10.0,0.0,11.344756153370636,13.161242511022618,192.73598774770625,489.29557296501133,0.0
0.03,4.952016225740939,-1.821000614527957,10.0,0.0,11.707923484756042,13.483081433273819,195.59831968863915,489.29557296501133,0.0
0.031,5.086039273572549,-1.7621311371320891,10.0,0.0,12.061063698547066,13.79562148058647,197.80891551030922,489.29557296501133,0.0
0.032,5.230431844273564,-1.6911110488141978,10.0,0.0,12.40292038074925,14.097678592248165,200.4421589734679,489.29557296501133,0.0
0.033,5.380124186618445,-1.6166151787533525,10.0,0.0,12.733312761073865,14.38869342901298,201.91742172589852,489.29557296501133,0.0
0.034,5.537594793894332,-1.535029134414507,10.0,0.0,13.051537880865839,14.667821176756876,203.18880493813168,489.29557296501133,0.0
0.035,5.698947813469154,-1.4530296333491768,10.0,0.0,13.357649178779205,14.934684535625108,203.60405746232266,489.29557296501133,0.0
0.036000000000000004,5.870474243492053,-1.3603000477825025,10.0,0.0,13.65045542338638,15.188218311291084,204.28541056101804,489.29557296501133,0.0
0.037,6.041188711220851,-1.275010780747051,10.0,0.0,13.930879897581198,15.42861600670124,205.2233356988433,489.29557296501133,0.0
0.038,6.228175208801664,-1.168399557236846,10.0,0.0,14.196427351981786,15.654155009933262,200.35169734043586,489.29557296501133,0.0
0.039,6.404895489618571,-1.0845312562500289,10.0,0.0,14.449814560392067,15.86612549236809,209.64773540576442,489.29557296501133,0.0
0.04,6.534612624563911,-1.0851225869390002,10.0,0.0,14.699963825590459,16.069735965364643,218.170241886545,489.29557296501133,0.0
0.041,6.621487035821765,-1.1484636683301073,10.0,0.0,14.952420817214799,16.26974130369247,220.68166573712315,489.29557296501133,0.0
0.042,6.6704785161669795,-1.2647840534085386,10.0,0.0,15.211794475054209,16.47047148862455,233.10654395573727,489.29557296501133,0.0
0.043000000000000003,6.709376245503157,-1.3867642159960276,10.0,0.0,15.477558399636717,16.673277185423842,235.10815372853793,489.29557296501133,0.0
0.044,6.744196093263161,-1.5028656568708394,10.0,0.0,15.74857785831126,16.87893749904121,248.8181267625822,489.29557296501133,0.0
0.045,6.750563942850831,-1.6564343609015326,10.0,0.0,16.02879294551472,17.090781462187255,251.61117095327992,489.29557296501133,0.0
0.046,6.764566527560506,-1.7840489455190416,10.0,0.0,16.314672837580048,17.307985931916857,266.60539535969383,489.29557296501133,0.0
0.047,6.752169677737121,-1.9446655565152717,10.0,0.0,16.610076868775216,17.533561623207692,270.0627790167984,489.29557296501133,0.0
0.048,6.7291903821171735,-2.110358990489937,10.0,0.0,16.91511817760721,17.768523902508925,283.13731951482634,489.29557296501133,0.0
0.049,6.714097190323873,-2.246352557911731,10.0,0.0,17.22645394156277,18.011924542904307,294.70561782835244,489.29557296501133,0.0
0.05,6.666841209228205,-2.4219663531358275,10.0,0.0,17.548953774962747,18.267165921658286,300.1294548425776,489.29557296501133,0.0
0.051000000000000004,6.612335516543512,-2.59336894353628,10.0,0.0,17.88182590988993,18.53465621226123,310.75154600411304,489.29557296501133,0.0
0.052000000000000005,6.568447424188529,-2.726701034625408,10.0,0.0,18.22111236450049,18.81296732052879,322.35703405819294,489.29557296501133,0.0
0.053,6.5036136539679195,-2.8764091099274185,10.0,0.0,18.569435851849082,19.104068797231378,330.9557012510771,489.29557296501133,0.0
0.054,6.434362099984388,-3.0149932598739144,10.0,0.0,18.925784313874168,19.407861808234543,339.4707232587175,489.29557296501133,0.0
0.055,6.370891759459199,-3.1253006473392393,10.0,0.0,19.28762520191878,19.723199586257838,348.00092263299223,489.29557296501133,0.0
0.056,6.314459991163816,-3.2071523724558277,10.0,0.0,19.65271639484943,20.048760466390505,356.29964302226927,489.29557296501133,0.0
0.057,6.266092078485367,-3.262894600420583,10.0,0.0,20.01916768432525,20.383030530514645,362.98468703488817,489.29557296501133,0.0
0.058,6.234656406121481,-3.2830044001420036,10.0,0.0,20.38405550695561,20.723492962007192,368.0316803659419,489.29557296501133,0.0
0.059000000000000004,6.228510489334133,-3.2600491726267444,10.0,0.0,20.743774617448285,21.0667596267365,372.35801287012686,489.29557296501133,0.0
0.06,6.247959954981508,-3.201438289803519,10.0,0.0,21.095630838529225,21.40947063565305,373.88739853789605,489.29557296501133,0.0
0.061,6.298571070969623,-3.1064761741463998,10.0,0.0,21.436712814499675,21.747723437683817,371.47602194372377,489.29557296501133,0.0
0.062,6.38094735961424,-2.982369480030801,10.0,0.0,21.76480975788002,22.077703876517536,366.2922057853833,489.29557296501133,0.0
0.063,6.53566146196873,-2.7695519558602215,10.0,0.0,22.070926190088084,22.39130117743337,372.07145994459506,489.29557296501133,0.0
0.064,6.708566607552835,-2.560747003310555,10.0,0.0,22.35695033962817,22.686677966487718,365.1882535794375,489.29557296501133,0.0
0.065,6.897199383751794,-2.3667028673086685,10.0,0.0,22.62465294768497,22.962098937664592,356.7297130485294,489.29557296501133,0.0
0.066,7.167218997264825,-2.0824440278168583,10.0,0.0,22.863799361069702,23.20893224280502,357.7888817172531,489.29557296501133,0.0
0.067,7.423387055578651,-1.859201647307153,10.0,0.0,23.082000390168847,23.42951856849048,345.1266644280509,489.29557296501133,0.0
0.068,7.736929428236853,-1.5824320316278497,10.0,0.0,23.27222771500701,23.617938384108047,342.9584987314189,489.29557296501133,0.0
0.069,8.04132723792414,-1.3546495884062866,10.0,0.0,23.43998591632552,23.77619061530866,334.2677598047511,489.29557296501133,0.0
0.07,8.395997401416553,-1.0747195592463576,10.0,0.0,23.578279041856877,23.89942370363377,322.7417355360636,489.29557296501133,0.0
0.07100000000000001,8.726669482066718,-0.8579631993863083,10.0,0.0,23.694022264374595,23.99133556844291,337.9106389559309,489.29557296501133,0.0
0.07200000000000001,8.91385728821635,-0.8925675486457335,10.0,0.0,23.81335639313859,24.06834663115294,344.8606079910171,489.29557296501133,0.0
0.073,8.941721008651788,-1.1508071676799903,10.0,0.0,23.95651852989837,24.148396869281978,362.43451347602996,489.29557296501133,0.0
0.074,8.927907180207171,-1.4305443375681337,10.0,0.0,24.121558169292424,24.236556455607346,368.59250641149885,489.29557296501133,0.0
0.075,8.859340450140312,-1.7499202918046703,10.0,0.0,24.31124378664675,24.33980824926249,387.10067316750514,489.29557296501133,0.0
0.076,8.767176841935807,-2.0562826706616475,10.0,0.0,24.52279212376306,24.461155754889383,396.7190369145668,489.29557296501133,0.0
0.077,8.62162972262067,-2.4016532593838043,10.0,0.0,24.76024751870129,24.606611890707832,408.83095327273656,489.29557296501133,0.0
0.078,8.47560200325128,-2.694417929744825,10.0,0.0,25.017253395580042,24.77587553037574,428.2762610097064,489.29557296501133,0.0
0.079,8.289593068490031,-3.001970310780605,10.0,0.0,25.296388163948027,24.972914099394785,438.0404594767293,489.29557296501133,0.0
0.08,8.078425759776728,-3.30171273584331,10.0,0.0,25.597209455327665,25.19953060295957,447.87571303424875,489.29557296501133,0.0
0.081,7.882675762310951,-3.525181384717318,10.0,0.0,25.912194395051316,25.45298841193994,460.26934286159303,489.29557296501133,0.0
0.082,7.687097883672571,-3.703693402600396,10.0,0.0,26.238428257179056,25.732155000670204,470.03446400235384,489.29557296501133,0.0
0.083,7.512516260295773,-3.813976142857688,10.0,0.0,26.570301373216505,26.033276516525277,477.918982155292,489.29557296501133,0.0
0.084,7.3689562950047955,-3.855399170081403,10.0,0.0,26.902553034827754,26.351518972346824,478.5439455783908,489.29557296501133,0.0
0.085,7.275652065733423,-3.8162994175680955,10.0,0.0,27.228688572811343,26.679990214314294,473.55535348460853,489.29557296501133,0.0
0.08600000000000001,7.267766248696914,-3.6603820503219797,10.0,0.0,27.538297768321378,27.00816228346467,474.1807480051759,489.29557296501133,0.0
0.08700000000000001,7.3464323522243,-3.4076290670194203,10.0,0.0,27.823519596704617,27.32574593569263,475.7079540819185,489.29557296501133,0.0
0.088,7.480709249017063,-3.1292177565686656,10.0,0.0,28.08387989315578,27.6261096079242,459.5304728259807,489.29557296501133,0.0
0.089,7.695613562209921,-2.801501191801076,10.0,0.0,28.314975818165053,27.900176237094435,448.5636800468391,489.29557296501133,0.0
0.09,8.020201174839713,-2.3826535389658305,10.0,0.0,28.50757273742622,28.13639020159123,445.48610120291113,489.29557296501133,0.0
0.091,8.354868291359303,-2.0325776833111755,10.0,0.0,28.670211493617295,28.3346749548736,425.5547717088185,489.29557296501133,0.0
0.092,8.785028497986112,-1.6118087441171771,10.0,0.0,28.79363102476271,28.4854241568831,418.1571209188704,489.29557296501133,0.0
0.093,9.213939198463112,-1.2630473015486263,10.0,0.0,28.885627453703925,28.59056181681997,404.39055654859436,489.29557296501133,0.0
0.094,9.710582044615853,-0.8630683077983461,10.0,0.0,28.938427930857845,28.644043747585243,399.8028636561218,489.29557296501133,0.0
0.095,10.09778552966185,-0.6891582118156743,10.0,0.0,28.976166232752334,28.65983157809586,422.487643054602,489.29557296501133,0.0
0.096,10.19655033502452,-0.9613560624343314,10.0,0.0,29.04339035203631,28.67082236200544,431.03532474074945,489.29557296501133,0.0
0.097,10.169180884367012,-1.3604820806818894,10.0,0.0,29.146173021283875,28.69143476707839,450.5677013529273,489.29557296501133,0.0
0.098,10.043142481850674,-1.8334632082393423,10.0,0.0,29.288775327962842,28.733854728339033,463.78246626216827,489.29557296501133,0.0
0.099,9.878032929363341,-2.2746707669262736,10.0,0.0,29.465162420279952,28.80319459088995,486.89045707977465,489.29557296501133,0.0
0.1,9.638548632068545,-2.744249331321392,8.608019299613701,0.0,29.678086356117046,28.754813476552552,497.15027950515923,489.29557296501133,0.0
0.101,9.289296296661288,-3.1431429817264527,3.39956102151993,0.0,29.904062302837296,28.209575177568002,507.97713645372,489.29557296501133,0.0
0.10200000000000001,8.640684381304219,-3.348162688842829,-2.200683087647536,0.0,30.0714800562658,27.245370821261645,513.2542095191561,489.29557296501133,0.0
0.10300000000000001,7.70114193087674,-3.3211734430324555,-5.078805985907048,0.0,30.12071658461054,26.230601148605373,513.1004538060376,489.29557296501133,0.0
0.10400000000000001,6.6880745034773135,-3.130198633586489,-5.239976937758074,0.0,30.042815156274216,25.435326512837833,508.64301373892835,489.29557296501133,0.0
0.105,5.817722089438713,-2.879844549536327,-3.2047313119425933,0.0,29.86754720604371,25.022886017441888,501.13567747076144,489.29557296501133,0.0
0.106,5.250674892445089,-2.643104490409297,0.4305357770833602,0.0,29.64502413563319,25.067361367626095,493.2297751686268,489.29557296501133,0.0
0.107,5.068320691883066,-2.4696224265381135,4.344144906114515,0.0,29.432485280847573,25.493669699145872,484.27882134678964,489.29557296501133,0.0
0.108,5.247238556719974,-2.3654756858906665,8.86978933321532,0.0,29.274109823859995,26.29327360058822,480.28295758425827,489.29557296501133,0.0
0.109,5.7795789840249725,-2.305465837078415,10.0,0.0,29.205972686752546,27.019378026907695,482.05328089000005,489.29557296501133,0.0
0.11,6.401520227806912,-2.243873710528225,10.0,0.0,29.211084670555373,27.59166605767367,463.6269496523372,489.29557296501133,0.0
0.111,7.014498802880174,-2.112079833251207,10.0,0.0,29.259032853819555,28.046028252923087,452.57892298482716,489.29557296501133,0.0
0.112,7.65038798985221,-1.835098705771634,10.0,0.0,29.31847245303228,28.395931022157793,444.65329315187876,489.29557296501133,0.0
0.113,8.215705145706417,-1.588440613828642,10.0,0.0,29.38259579040826,28.660961479116057,428.02967756523344,489.29557296501133,0.0
0.114,8.81844770604755,-1.2340087692809343,10.0,0.0,29.430288917761658,28.845252714037102,414.03841292296966,489.29557296501133,0.0
0.115,9.367407924003736,-0.9393044753835671,10.0,0.0,29.46276870198859,28.961525939829635,406.5275680713696,489.29557296501133,0.0
0.116,9.943735046613373,-0.588765441899155,10.0,0.0,29.46801557962776,29.011513440158087,418.1270014964618,489.29557296501133,0.0
0.117,10.206670621914173,-0.7282217681847056,10.0,0.0,29.49658210576212,29.033867236160628,431.47432056072745,489.29557296501133,0.0
0.11800000000000001,10.234342831910638,-1.1492609071272843,10.0,0.0,29.569447100904128,29.056427717829745,448.0566785748748,489.29557296501133,0.0
0.11900000000000001,10.18084488087591,-1.5917863548853992,10.0,0.0,29.6817490525628,29.09018014755994,466.6401994576572,489.29557296501133,0.0
0.12,10.020471209169266,-2.099444322044093,10.0,0.0,29.837613173938518,29.148893653860366,481.1064404953591,489.29557296501133,0.0
0.121,9.820284603683117,-2.5622667661611676,10.0,0.0,30.02959612298799,29.23773901155473,504.56887417764773,489.29557296501133,0.0
0.122,9.558934465319332,-3.0190972776241307,-0.6849714812980592,0.0,30.2568884447217,28.18829791460697,509.0346859919359,489.29557296501133,0.0
0.123,8.687197477921321,-3.17257443840419,-3.1152685187113773,0.0,30.368821607158445,27.199324767455018,512.3642972506581,489.29557296501133,0.0
0.124,7.67844719596623,-3.1396077176703074,-5.010761390928943,0.0,30.365503027747806,26.238486166833233,513.4007341992391,489.29557296501133,0.0
0.125,6.6710846640552335,-3.001017720442581,-5.770031477561727,0.0,30.251517213728327,25.40955716321577,510.245097669675,489.29557296501133,0.0
0.126,5.789452363996965,-2.789581223085874,-4.4017084598263105,0.0,30.04416496601209,24.89713663906264,503.580452624696,489.29557296501133,0.0
0.127,5.16309174390746,-2.5784020638446394,-1.2122347339336805,0.0,29.78519054810919,24.812465167433288,495.4142459360763,489.29557296501133,0.0
0.128,4.894461568520688,-2.4086699162310046,2.8096818806655177,0.0,29.52708768018857,25.144165204615216,486.9199562996465,489.29557296501133,0.0
0.129,4.993360731630063,-2.3098749050227725,7.080582865534072,0.0,29.31879497302142,25.83289968378055,479.1690919572253,489.29557296501133,0.0
0.13,5.4375625363871185,-2.255028277138078,10.0,0.0,29.19515980553229,26.662485112363015,479.76528792294977,489.29557296501133,0.0
0.131,6.088057946328743,-2.2180892074762935,10.0,0.0,29.16333186626638,27.30044183294766,470.6871149552997,489.29557296501133,0.0
0.132,6.717449796299855,-2.1513761162944496,10.0,0.0,29.191513343652126,27.808691938149824,452.97145567870405,489.29557296501133,0.0
0.133,7.369777792856567,-1.9237641010898163,10.0,0.0,29.24333149305884,28.203473019448825,450.8232746734791,489.29557296501133,0.0
0.134,7.973670591928723,-1.6661916072727894,10.0,0.0,29.30338908148694,28.50405287962624,429.44226201682164,489.29557296501133,0.0
0.135,8.563768358724651,-1.3623532286182747,10.0,0.0,29.356652400376152,28.721708686271885,424.4958506159949,489.29557296501133,0.0
0.136,9.135338188695911,-1.0498169983859071,10.0,0.0,29.395014366501993,28.865953540513004,406.0171995994418,489.29557296501133,0.0
0.137,9.713509775183212,-0.7051432207878606,10.0,0.0,29.409175868205907,28.941726929728706,411.14241629933576,489.29557296501133,0.0
0.138,10.12686680451408,-0.6209099120799788,10.0,0.0,29.423679632479104,28.971651572831703,424.70145756373415,489.29557296501133,0.0
0.139,10.21631297204432,-0.983761509976468,10.0,0.0,29.480481493490977,28.99432861991671,440.83271406628006,489.29557296501133,0.0
0.14,10.200235390539667,-1.4094474028698056,10.0,0.0,29.577067805349465,29.02308114403522,458.79856021335,489.29557296501133,0.0
0.14100000000000001,10.070716464873186,-1.9101943532270758,10.0,0.0,29.717696044044317,29.072703352935992,473.59039557209417,489.29557296501133,0.0
0.14200000000000002,9.896611509107029,-2.372674132749229,10.0,0.0,29.895088986003636,29.149282520693774,497.2298688808708,489.29557296501133,0.0
0.14300000000000002,9.64780434935392,-2.8516677606383496,2.694269730679543,0.0,30.110465051815368,28.45794047426166,503.0586219646149,489.29557296501133,0.0
0.14400000000000002,8.974105460233647,-3.1007607166329576,-0.3577373011885232,0.0,30.257779595283242,27.666225574447335,510.5689201977788,489.29557296501133,0.0
0.145,8.116652439670931,-3.179183803894607,-4.325619890098174,0.0,30.31732680446173,26.650049447870543,513.4542231760643,489.29557296501133,0.0
0.146,7.1098600922759125,-3.0942064476937525,-6.009857881351422,0.0,30.259169940009986,25.69803092972835,511.52312624324463,489.29557296501133,0.0
0.147,6.142685276720867,-2.8929351759037623,-5.266584947723942,0.0,30.09033684385429,25.030322285803855,505.8358912902128,489.29557296501133,0.0
