timestamp,iq,id,iq_ref,id_ref,vq,vd,omega,omega_ref,r
0.0,0.0,0.0,0.0,0.0,0.0,0.0,0.0,208.93388866757934,0.0
0.001,0.0,0.0,10.0,0.0,0.0,1.0999999999999999,6.115472199294103,208.93388866757934,0.0
0.002,0.5307369851907212,-0.2913212625381807,10.0,0.0,0.14204533887919985,1.9316189316290207,13.317801563642547,208.93388866757934,0.0
0.003,1.0842913387634832,-0.6024330830807904,10.0,0.0,0.384357124667687,2.6386968949419622,20.697939467553027,208.93388866757934,0.0
0.004,1.5590443546685477,-0.8700465084428163,10.0,0.0,0.6994718867930164,3.2526109522886295,28.232747544420146,208.93388866757934,0.0
0.005,1.9399447555359186,-1.0838738622210777,10.0,0.0,1.065311453102468,3.7994935661768023,35.92944872443006,208.93388866757934,0.0
0.006,2.239750732602683,-1.2510087368845633,10.0,0.0,1.4655018868449925,4.299102221838433,43.75633668444442,208.93388866757934,0.0
0.007,2.4770151619816017,-1.382020589851471,10.0,0.0,1.8883740978591532,4.765668027847139,51.58766747378032,208.93388866757934,0.0
0.008,2.6680767290418097,-1.4872241871505252,10.0,0.0,2.325877945545995,5.209220346273558,59.45942083902103,208.93388866757934,0.0
0.009000000000000001,2.8266491704841292,-1.5730794701170803,10.0,0.0,2.772378685460125,5.636635464737965,67.35059094018146,208.93388866757934,0.0
0.01,2.962077666392183,-1.645500646948331,10.0,0.0,3.224078639851053,6.052647735211881,75.20908322432116,208.93388866757934,0.0
0.011,3.0811061533574158,-1.7084279320504514,10.0,0.0,3.678407615443203,6.460489925470405,83.0265951655913,208.93388866757934,0.0
0.012,3.188848746459569,-1.7638278597420747,10.0,0.0,4.133552631697047,6.862319393890706,90.74118064793086,208.93388866757934,0.0
0.013000000000000001,3.288205119878689,-1.8140726097274587,10.0,0.0,4.588339016389012,7.259628641949282,98.35820682563939,208.93388866757934,0.0
0.014,3.3820602099432007,-1.8592355758795645,10.0,0.0,5.041843166194517,7.653355107498287,105.90865295623543,208.93388866757934,0.0
0.015,3.4721069852858886,-1.899829032412081,10.0,0.0,5.493383198131427,8.044092747085895,113.37727610343421,208.93388866757934,0.0
0.016,3.5596145800153947,-1.9360338400176071,10.0,0.0,5.94241958510469,8.43218525824161,120.68508583176356,208.93388866757934,0.0
0.017,3.645144415105338,-1.9685384477868613,10.0,0.0,6.388575043274759,8.817838951066484,127.83962377537456,208.93388866757934,0.0
0.018000000000000002,3.730251927866576,-1.9959253041084188,10.0,0.0,6.83136783302799,9.201036292373047,134.85405702603322,208.93388866757934,0.0
0.019,3.81544967906247,-2.018253592643655,10.0,0.0,7.270383321112213,9.581672501020332,141.68976328564074,208.93388866757934,0.0
0.02,3.9014648862453374,-2.0350875541282063,10.0,0.0,7.705189334130692,9.959536942333155,148.3432823300447,208.93388866757934,0.0
0.021,3.9891051824829464,-2.0457889559126508,10.0,0.0,8.135310004560049,10.334315260302239,154.92060212100432,208.93388866757934,0.0
0.022,4.079618141396171,-2.0489696811670974,10.0,0.0,8.560139305503519,10.705547790999272,161.01925282597162,208.93388866757934,0.0
0.023,4.171109372430197,-2.048468292080302,10.0,0.0,8.979521969370257,11.072981092896333,166.534238406907,208.93388866757934,0.0
0.024,4.266936196769627,-2.039517194249811,10.0,0.0,9.392730090169543,11.435983292623375,171.8647834235234,208.93388866757934,0.0
0.025,4.367255527950721,-2.0225841458509217,10.0,0.0,9.79914449451603,11.793929226271104,177.02637022703064,208.93388866757934,0.0
0.026000000000000002,4.4734353073349595,-1.9962166741499119,10.0,0.0,10.197980960389518,12.146045424568259,181.63161391243256,208.93388866757934,0.0
0.027,4.582366840795821,-1.966358349113627,10.0,0.0,10.589124658468391,12.491912978736195,185.74793639675826,208.93388866757934,0.0
0.028,4.700058850757774,-1.9240450691803936,10.0,0.0,10.971384864613876,12.830451341534015,189.43662766964098,208.93388866757934,0.0
0.029,4.820934284790598,-1.879137197786803,10.0,0.0,11.344756153370636,13.161242511022618,192.73598774770625,208.93388866757934,0.0
0.03,4.952016225740939,-1.821000614527957,10.0,0.0,11.707923484756042,13.483081433273819,195.59831968863915,208.93388866757934,0.0
0.031,5.086039273572549,-1.7621311371320891,10.0,0.0,12.061063698547066,13.79562148058647,197.80891551030922,208.93388866757934,0.0
0.032,5.230431844273564,-1.6911110488141978,9.908440429171023,0.0,12.40292038074925,14.087607039456977,200.38030207594016,208.93388866757934,0.0
0.033,5.375351762512688,-1.6140669845912368,8.708283012271941,0.0,12.732025304436915,14.238980725210746,200.78662560520283,208.93388866757934,0.0
0.034,5.467195690503922,-1.4930995450340112,8.586593878264376,0.0,13.030821126622127,14.398089671289426,202.3530563564335,208.93388866757934,0.0
0.035,5.540465957837385,-1.3902282516033588,7.869186825760492,0.0,13.305542093314884,14.486328130416632,199.49133367525792,208.93388866757934,0.0
0.036000000000000004,5.618709412529229,-1.2247423207961587,9.394473716271502,0.0,13.544440069796604,14.760296391438876,199.22536402757552,208.93388866757934,0.0
0.037,5.759647795614175,-1.1598064469732723,9.624543786512739,0.0,13.781356987919928,15.026091675236062,201.56444144042538,208.93388866757934,0.0
0.038,5.962076345803414,-1.0702302614177657,8.528699552359349,0.0,14.011957720937763,15.145297799316618,196.86633957304653,208.93388866757934,0.0
0.039,6.109884842390103,-0.9580650746498347,10.0,0.0,14.219976584372958,15.434210226750263,204.41061512975517,208.93388866757934,0.0
0.04,6.27105695576189,-0.9851089359153877,7.251552414478143,0.0,14.440181280814876,15.381740211395218,211.10209390437063,208.93388866757934,0.0
0.041,6.257241336124776,-0.9927439925235144,3.884130974802499,0.0,14.633687923691346,15.01673722400457,209.73519605869006,208.93388866757934,0.0
0.042,6.010552750909136,-0.9581151230368858,4.559566823731676,0.0,14.767458077331487,14.842554945596953,217.01468884591085,208.93388866757934,0.0
0.043000000000000003,5.784613608064312,-0.9655092373339156,0.8390124283379663,0.0,14.871592629034398,14.305538988272279,215.62095333471603,208.93388866757934,0.0
0.044,5.408369591325828,-0.8785442046933065,1.469009537264009,0.0,14.90197203510111,13.978270758198954,218.35563903011737,208.93388866757934,0.0
0.045,5.072079138577029,-0.860466374490163,0.007449185937959513,0.0,14.895467766557875,13.55292519163949,218.61485498711028,208.93388866757934,0.0
0.046,4.729593910133033,-0.8122491838985602,-0.21896845575380208,0.0,14.841956255549977,13.193483888410164,219.97329048675587,208.93388866757934,0.0
0.047,4.409136579487478,-0.8045796565826155,-1.008580223768364,0.0,14.7574902892211,12.811867900424874,219.78221360746943,208.93388866757934,0.0
0.048,4.103002280676749,-0.7880601461395551,-1.0215250335240444,0.0,14.641568869851005,12.496909302774968,220.31505638737804,208.93388866757934,0.0
0.049,3.834438616883997,-0.7970131116110233,-1.401758100676334,0.0,14.506893753959218,12.186638893692946,220.21787183005333,208.93388866757934,0.0
0.05,3.5882529511185473,-0.8095909569618045,-1.4660056536387192,0.0,14.355953142082276,11.915057900371872,220.0381810450968,208.93388866757934,0.0
0.051000000000000004,3.371194592292314,-0.8324402746344868,-1.4872031849356269,0.0,14.19533613855141,11.67526625509541,219.64166300045738,208.93388866757934,0.0
0.052000000000000005,3.182526120660171,-0.8623617372313719,-1.3960219059447034,0.0,14.029864538554921,11.472216938286758,219.17841676144812,208.93388866757934,0.0
0.053,3.0231987537998855,-0.8989587380850514,-1.2668440673787584,0.0,13.864361622345145,11.301862468249972,218.65745714456432,208.93388866757934,0.0
0.054,2.890600041114617,-0.9403002124859455,-1.1035999437067079,0.0,13.702555142928226,11.161650813540927,218.08864413417265,208.93388866757934,0.0
0.055,2.781876864484739,-0.9843807474833073,-0.9107409931768089,0.0,13.547343590087802,11.0494952819851,217.49694293829748,208.93388866757934,0.0
0.056,2.6945161935639077,-1.029458926575407,-0.7005209379464032,0.0,13.400955433725994,10.962752206905849,216.97475683771611,208.93388866757934,0.0
0.057,2.626225540637436,-1.0735290598113525,-0.5198365693570883,0.0,13.264928718357469,10.894456068803569,216.43919840409708,208.93388866757934,0.0
0.058,2.572449691431369,-1.1142908186177007,-0.3271104499127504,0.0,13.139718152851916,10.844012339311055,216.01987963015935,208.93388866757934,0.0
0.059000000000000004,2.5319743524589104,-1.1497599151486881,-0.18831097256968432,0.0,13.025478253978006,10.803347136325439,215.40790458006097,208.93388866757934,0.0
0.06,2.4990553870805967,-1.180133712316154,0.05293639335468914,0.0,12.92158225141604,10.78369001203113,214.54924848514963,208.93388866757934,0.0
0.061,2.4783130786153995,-1.2071166426267879,0.4261108426346558,0.0,12.828774521043332,10.796198179948998,213.66174950970904,208.93388866757934,0.0
0.062,2.476559394454841,-1.2346399182760806,0.8225817219336551,0.0,12.749256111517997,10.838040292440908,212.50827837421025,208.93388866757934,0.0
0.063,2.4965149630948495,-1.2597384722192415,1.363573392616741,0.0,12.684359362371648,10.921078078321237,211.76153855366152,208.93388866757934,0.0
0.064,2.544095638208365,-1.2851239291387317,1.708666804030282,0.0,12.636797481449673,11.016838450671468,211.07146255139781,208.93388866757934,0.0
0.065,2.6059756563793846,-1.3064519804640244,2.0323290663239515,0.0,12.605660056931507,11.124087517184972,212.75132609289736,208.93388866757934,0.0
0.066,2.6780492143350614,-1.3205702536830086,1.1542229213209998,0.0,12.589701011057342,11.110360344828635,212.77885198832126,208.93388866757934,0.0
0.067,2.6846007569189365,-1.3129729438402993,1.1020103404016273,0.0,12.572988265720076,11.099447728564744,209.00258027001257,208.93388866757934,0.0
0.068,2.6841238931803364,-1.2754415613314463,2.989459283531641,0.0,12.552803054312596,11.296214579384088,207.28491733068256,208.93388866757934,0.0
0.069,2.789687963259277,-1.2680673825155615,3.864780466565615,0.0,12.55387720328314,11.537080248337126,210.5337313548391,208.93388866757934,0.0
0.07,2.9443716015774344,-1.289861078633033,2.224375027614752,0.0,12.58140155261302,11.548809395662772,209.8618975234792,208.93388866757934,0.0
0.07100000000000001,2.994748792898647,-1.2737241445458134,2.5510118547356986,0.0,12.605353382031709,11.610457513899497,204.49712253984708,208.93388866757934,0.0
0.07200000000000001,3.0531854825313403,-1.2259864508755591,5.2777670078290795,0.0,12.627985063369339,11.9590884378771,207.12355761936414,208.93388866757934,0.0
0.073,3.258337608161581,-1.2311501914028793,3.9826527785527057,0.0,12.684262057365672,12.083406953916368,209.1937519176816,208.93388866757934,0.0
0.074,3.383752515606079,-1.2268222611627961,2.944956996892953,0.0,12.746815493834621,12.087981805498945,202.88013615481125,208.93388866757934,0.0
0.075,3.4423964133713345,-1.1593413691676098,6.162302403455804,0.0,12.796191452997865,12.457442788428938,205.58978939152598,208.93388866757934,0.0
0.076,3.662453808925647,-1.1527478071121162,4.840916777858974,0.0,12.877525431631627,12.59374952156765,205.4646660641031,208.93388866757934,0.0
0.077,3.8028094085803623,-1.1415163409151496,4.938170667605171,0.0,12.96318716005477,12.735232221377444,200.27822376785093,208.93388866757934,0.0
0.078,3.951097403849912,-1.076955360489811,7.617948464728546,0.0,13.047441592431769,13.15002771935158,205.68994672151484,208.93388866757934,0.0
0.079,4.212669223333526,-1.099411554917621,4.944526407357234,0.0,13.16786592255979,13.18360488629342,199.3995131343068,208.93388866757934,0.0
0.08,4.339485817388347,-1.034595349016691,8.185086956293981,0.0,13.272251191775812,13.597728543359437,204.3040672716235,208.93388866757934,0.0
0.081,4.6068554628293255,-1.0349891350088471,5.779108101595192,0.0,13.40830177829498,13.655672587076264,198.03303708427242,208.93388866757934,0.0
0.082,4.751267827455482,-0.9651881364934267,9.023631711103798,0.0,13.528859662837295,14.089173007011794,202.68425012199955,208.93388866757934,0.0
0.083,5.0346421737753175,-0.9724954939899735,6.7605215776960295,0.0,13.682213620228712,14.180264768189142,198.05029091883048,208.93388866757934,0.0
0.084,5.2157485602725515,-0.8920885966328561,9.186337156768053,0.0,13.820423525714464,14.549965604968394,199.07773981371795,208.93388866757934,0.0
0.085,5.476641851922267,-0.892808054400719,8.771174197862932,0.0,13.982665733657614,14.799704069131522,200.86988301012767,208.93388866757934,0.0
0.08600000000000001,5.734806004396503,-0.8439879360500913,7.955742656232593,0.0,14.1482801596265,14.929357943826695,198.5111054315751,208.93388866757934,0.0
0.08700000000000001,5.920236792010308,-0.775464698309383,9.239359277868925,0.0,14.303249175500053,15.194144272332759,204.06238321273042,208.93388866757934,0.0
0.088,6.057221916003987,-0.8900788977052744,6.512435441839746,0.0,14.482492716947814,15.121937025632839,212.5506018534143,208.93388866757934,0.0
0.089,6.036071243016217,-0.9306034902048164,2.232158989639462,0.0,14.63990274276179,14.635010111634536,209.5470895009784,208.93388866757934,0.0
0.09,5.73743335405325,-0.8809451668571964,3.727783157523424,0.0,14.727011413101312,14.452476975662746,216.0099435106393,208.93388866757934,0.0
0.091,5.496037978028245,-0.8936017916998823,0.42559560426237386,0.0,14.789044714775867,13.942278260257657,214.52771137438486,208.93388866757934,0.0
0.092,5.137785839230802,-0.8193562216955863,1.1107734453215308,0.0,14.785561235793558,13.634687966117113,216.89370226883042,208.93388866757934,0.0
0.093,4.82591951046233,-0.813720393170407,-0.1518201379137598,0.0,14.751789589857706,13.242494055702485,216.97928664850866,208.93388866757934,0.0
0.094,4.512815289902205,-0.7838261866664104,-0.27506630756217243,0.0,14.678943713043779,12.916534029880687,218.28192612364003,208.93388866757934,0.0
0.095,4.22544333403913,-0.7888371615058745,-1.0198664196884653,0.0,14.581636570626452,12.563669741261599,218.10415850768132,208.93388866757934,0.0
0.096,3.9473090036242753,-0.7849843970466155,-1.0226853101101279,0.0,14.45829979975004,12.271220147224579,218.51208510023923,208.93388866757934,0.0
0.097,3.7023613731705822,-0.8009956939223075,-1.3224305707156838,0.0,14.319851516858483,11.98690094178698,218.3940613225897,208.93388866757934,0.0
0.098,3.4780516264890045,-0.8206040426172606,-1.3580204084410172,0.0,14.168812947100005,11.738475994890686,218.18246137447932,208.93388866757934,0.0
0.099,3.280637800788371,-0.8482148308572565,-1.3447061614548295,0.0,14.010876842847201,11.521082574614166,217.81528964144115,208.93388866757934,0.0
0.1,3.1096553274241154,-0.881815551944516,-1.2499343046743663,0.0,13.850414978429226,11.336760581529072,217.37629395982566,208.93388866757934,0.0
0.101,2.9650145765911,-0.9205179007780316,-1.114860516789082,0.0,13.691488352305349,11.182935657268251,216.88321957767144,208.93388866757934,0.0
0.10200000000000001,2.844627768368698,-0.9627178533153847,-0.9478166348128934,0.0,13.537326867658548,11.057420793355785,216.3458280309928,208.93388866757934,0.0
0.10300000000000001,2.7461098181737302,-1.0067492799041324,-0.7532402551077104,0.0,13.39045150248457,10.958407336756917,215.8628881421598,208.93388866757934,0.0
0.10400000000000001,2.667582275832908,-1.0507046592004934,-0.5810603054370072,0.0,13.252757105624823,10.879254570122809,215.37642691408354,208.93388866757934,0.0
0.105,2.6045872511790154,-1.0925219942527522,-0.4022550738639237,0.0,13.125077224850418,10.818338593730985,214.89370544818408,208.93388866757934,0.0
0.106,2.5553088870781413,-1.1300246369132787,-0.22049250872024162,0.0,13.00778085185641,10.773742726555536,214.53233168302404,208.93388866757934,0.0
0.107,2.5181407576767856,-1.162296307327539,-0.09579005629466941,0.0,12.900929386763218,10.737372163506748,213.8532956377756,208.93388866757934,0.0
0.108,2.486568459981327,-1.191069310306788,0.19453389662758713,0.0,12.80396832549804,10.727743392003198,212.87716532049166,208.93388866757934,0.0
0.109,2.471162377171974,-1.2156607951263385,0.6431662887404368,0.0,12.718157826509383,10.757206661258751,211.98413718451943,208.93388866757934,0.0
0.11,2.4787344439204544,-1.2437294451871694,1.059177871557151,0.0,12.646716341003646,10.815430515708167,210.87615837463105,208.93388866757934,0.0
0.111,2.5096518539270702,-1.2689644740380612,1.5937445794308238,0.0,12.590736556166412,10.912004863766757,210.45018970596078,208.93388866757934,0.0
0.112,2.566886565455537,-1.294088382521922,1.7915659033821418,0.0,12.552523464263478,11.003751832923612,210.97724622585943,208.93388866757934,0.0
0.113,2.6305905722860277,-1.308612120700471,1.5076040678500156,0.0,12.528652750581323,11.042853687190371,212.80024363519613,208.93388866757934,0.0
0.114,2.6613292702058056,-1.315288553299868,0.557441813505501,0.0,12.51166846389821,10.971235838336794,209.0454339794942,208.93388866757934,0.0
0.115,2.6339888406520653,-1.277753068610291,2.4337311882373194,0.0,12.485025153356203,11.124289633694318,206.2051547404103,208.93388866757934,0.0
0.116,2.7062906854898037,-1.2664909467424401,3.8811581470509515,0.0,12.475488074845575,11.391601182956375,208.74590802316436,208.93388866757934,0.0
0.117,2.866009596340027,-1.2909501946066073,2.6126613121180746,0.0,12.496438997595959,11.460372886265269,210.43822498949717,208.93388866757934,0.0
0.11800000000000001,2.9472007970772807,-1.2887985209955675,1.751459465732491,0.0,12.521690721826337,11.434981433792633,205.4118975035968,208.93388866757934,0.0
0.11900000000000001,2.9659002368515597,-1.2365432240117973,4.2998431203225,0.0,12.536151562454306,11.702343493091252,204.4889078868801,208.93388866757934,0.0
0.12,3.119622080208677,-1.2194006347763355,4.805787736487845,0.0,12.574539393103281,11.957863093383557,207.919196175214,208.93388866757934,0.0
0.121,3.295057518139739,-1.2372320183507994,3.1007905172445422,0.0,12.636773278802135,11.981299696694268,204.0657559444815,208.93388866757934,0.0
0.122,3.3680940860160784,-1.2001377513599305,5.076191959841772,0.0,12.690868753057428,12.23668049103483,203.0663718699311,208.93388866757934,0.0
0.123,3.5414285064319397,-1.1659012084698166,5.6345591650934646,0.0,12.76169768227325,12.495262710951598,206.18124271268047,208.93388866757934,0.0
0.124,3.725118953814929,-1.1734227103737478,4.104650203267761,0.0,12.852471671197499,12.542723338936959,200.8138772026839,208.93388866757934,0.0
0.125,3.8255835881075138,-1.1156484419109822,6.8695330729150035,0.0,12.932483939477919,12.904737302997308,204.2850113366559,208.93388866757934,0.0
0.126,4.057447263548043,-1.1046220576405228,5.1804547792382305,0.0,13.040061217751207,13.00060329852322,200.39448317364005,208.93388866757934,0.0
0.127,4.189279036769697,-1.0685227596686937,7.211112915685552,0.0,13.142606708815562,13.325720741969857,202.8868463040011,208.93388866757934,0.0
0.128,4.426935353287365,-1.0356986233026788,6.025401774140813,0.0,13.264159733097596,13.453022306159152,198.7702155323272,208.93388866757934,0.0
0.129,4.5768008156630895,-1.0021475281347976,8.185353891330283,0.0,13.382925232265555,13.81509222296785,202.09048780138727,208.93388866757934,0.0
0.13,4.842672387444095,-0.9765938532609344,6.59365176546217,0.0,13.523545779913139,13.928397724722938,196.64761874561344,208.93388866757934,0.0
0.131,5.009432314532923,-0.9223748282530404,9.437948992568742,0.0,13.655726266969346,14.357539571045718,201.06448070368458,208.93388866757934,0.0
0.132,5.305198453867547,-0.9260573214778482,7.30821209317212,0.0,13.818550154457014,14.46340457418122,197.39801383306647,208.93388866757934,0.0
0.133,5.501843638707798,-0.8441719841255924,9.256804276826303,0.0,13.96663394146847,14.79193466600879,196.21655337516233,208.93388866757934,0.0
0.134,5.750119647384449,-0.835054118568628,9.97470785870254,0.0,14.132578247123796,15.136559690418563,202.0716583749885,208.93388866757934,0.0
0.135,6.025039712349376,-0.8548983307307452,7.115777661715374,0.0,14.31866466664797,15.113896838406164,205.93814950312594,208.93388866757934,0.0
0.136,6.069351806386767,-0.8857655796482085,5.212489489291181,0.0,14.487073114277788,14.929211386856172,207.26598376575,208.93388866757934,0.0
0.137,5.932488417450988,-0.9191954456823981,4.565251406997441,0.0,14.623540784764199,14.743170111619397,214.8821647258082,208.93388866757934,0.0
