timestamp,iq,id,iq_ref,id_ref,vq,vd,omega,omega_ref,r
0.0,0.0,0.0,0.0,0.0,0.0,0.0,0.0,452.22863821843714,0.0
0.001,0.0,0.0,10.0,0.0,0.0,1.0999999999999999,6.115472199294103,452.22863821843714,0.0
0.002,0.5307369851907212,-0.2913212625381807,10.0,0.0,0.14204533887919985,1.9316189316290207,13.317801563642547,452.22863821843714,0.0
0.003,1.0842913387634832,-0.6024330830807904,10.0,0.0,0.384357124667687,2.6386968949419622,20.697939467553027,452.22863821843714,0.0
0.004,1.5590443546685477,-0.8700465084428163,10.0,0.0,0.6994718867930164,3.2526109522886295,28.232747544420146,452.22863821843714,0.0
0.005,1.9399447555359186,-1.0838738622210777,10.0,0.0,1.065311453102468,3.7994935661768023,35.92944872443006,452.22863821843714,0.0
0.006,2.239750732602683,-1.2510087368845633,10.0,0.0,1.4655018868449925,4.299102221838433,43.75633668444442,452.22863821843714,0.0
0.007,2.4770151619816017,-1.382020589851471,10.0,0.0,1.8883740978591532,4.765668027847139,51.58766747378032,452.22863821843714,0.0
0.008,2.6680767290418097,-1.4872241871505252,10.0,0.0,2.325877945545995,5.209220346273558,59.45942083902103,452.22863821843714,0.0
0.009000000000000001,2.8266491704841292,-1.5730794701170803,10.0,0.0,2.772378685460125,5.636635464737965,67.35059094018146,452.22863821843714,0.0
0.01,2.962077666392183,-1.645500646948331,10.0,0.0,3.224078639851053,6.052647735211881,75.20908322432116,452.22863821843714,0.0
0.011,3.0811061533574158,-1.7084279320504514,10.0,0.0,3.678407615443203,6.460489925470405,83.0265951655913,452.22863821843714,0.0
0.012,3.188848746459569,-1.7638278597420747,10.0,0.0,4.133552631697047,6.862319393890706,90.74118064793086,452.22863821843714,0.0
0.013000000000000001,3.288205119878689,-1.8140726097274587,10.0,0.0,4.588339016389012,7.259628641949282,98.35820682563939,452.22863821843714,0.0
0.014,3.3820602099432007,-1.8592355758795645,10.0,0.0,5.041843166194517,7.653355107498287,105.90865295623543,452.22863821843714,0.0
0.015,3.4721069852858886,-1.899829032412081,10.0,0.0,5.493383198131427,8.044092747085895,113.37727610343421,452.22863821843714,0.0
0.016,3.5596145800153947,-1.9360338400176071,10.0,0.0,5.94241958510469,8.43218525824161,120.68508583176356,452.22863821843714,0.0
0.017,3.645144415105338,-1.9685384477868613,10.0,0.0,6.388575043274759,8.817838951066484,127.83962377537456,452.22863821843714,0.0
0.018000000000000002,3.730251927866576,-1.9959253041084188,10.0,0.0,6.83136783302799,9.201036292373047,134.85405702603322,452.22863821843714,0.0
0.019,3.81544967906247,-2.018253592643655,10.0,0.0,7.270383321112213,9.581672501020332,141.68976328564074,452.22863821843714,0.0
0.02,3.9014648862453374,-2.0350875541282063,10.0,0.0,7.705189334130692,9.959536942333155,148.3432823300447,452.22863821843714,0.0
0.021,3.9891051824829464,-2.0457889559126508,10.0,0.0,8.135310004560049,10.334315260302239,154.92060212100432,452.22863821843714,0.0
0.022,4.079618141396171,-2.0489696811670974,10.0,0.0,8.560139305503519,10.705547790999272,161.01925282597162,452.22863821843714,0.0
0.023,4.171109372430197,-2.048468292080302,10.0,0.0,8.979521969370257,11.072981092896333,166.534238406907,452.22863821843714,0.0
0.024,4.266936196769627,-2.039517194249811,10.0,0.0,9.392730090169543,11.435983292623375,171.8647834235234,452.22863821843714,0.0
0.025,4.367255527950721,-2.0225841458509217,10.0,0.0,9.79914449451603,11.793929226271104,177.02637022703064,452.22863821843714,0.0
0.026000000000000002,4.4734353073349595,-1.9962166741499119,10.0,0.0,10.197980960389518,12.146045424568259,181.63161391243256,452.22863821843714,0.0
0.027,4.582366840795821,-1.966358349113627,10.0,0.0,10.589124658468391,12.491912978736195,185.74793639675826,452.22863821843714,0.0
0.028,4.700058850757774,-1.9240450691803936,10.0,0.0,10.971384864613876,12.830451341534015,189.43662766964098,452.22863821843714,0.0
0.029,4.820934284790598,-1.879137197786803,10.0,0.0,11.344756153370636,13.161242511022618,192.73598774770625,452.22863821843714,0.0
0.03,4.952016225740939,-1.821000614527957,10.0,0.0,11.707923484756042,13.483081433273819,195.59831968863915,452.22863821843714,0.0
0.031,5.086039273572549,-1.7621311371320891,10.0,0.0,12.061063698547066,13.79562148058647,197.80891551030922,452.22863821843714,0.0
0.032,5.230431844273564,-1.6911110488141978,10.0,0.0,12.40292038074925,14.097678592248165,200.4421589734679,452.22863821843714,0.0
0.033,5.380124186618445,-1.6166151787533525,10.0,0.0,12.733312761073865,14.38869342901298,201.91742172589852,452.22863821843714,0.0
0.034,5.537594793894332,-1.535029134414507,10.0,0.0,13.051537880865839,14.667821176756876,203.18880493813168,452.22863821843714,0.0
0.035,5.698947813469154,-1.4530296333491768,10.0,0.0,13.357649178779205,14.934684535625108,203.60405746232266,452.22863821843714,0.0
0.036000000000000004,5.870474243492053,-1.3603000477825025,10.0,0.0,13.65045542338638,15.188218311291084,204.28541056101804,452.22863821843714,0.0
0.037,6.041188711220851,-1.275010780747051,10.0,0.0,13.930879897581198,15.42861600670124,205.2233356988433,452.22863821843714,0.0
0.038,6.228175208801664,-1.168399557236846,10.0,0.0,14.196427351981786,15.654155009933262,200.35169734043586,452.22863821843714,0.0
0.039,6.404895489618571,-1.0845312562500289,10.0,0.0,14.449814560392067,15.86612549236809,209.64773540576442,452.22863821843714,0.0
0.04,6.534612624563911,-1.0851225869390002,10.0,0.0,14.699963825590459,16.069735965364643,218.170241886545,452.22863821843714,0.0
0.041,6.621487035821765,-1.1484636683301073,10.0,0.0,14.952420817214799,16.26974130369247,220.68166573712315,452.22863821843714,0.0
0.042,6.6704785161669795,-1.2647840534085386,10.0,0.0,15.211794475054209,16.47047148862455,233.10654395573727,452.22863821843714,0.0
0.043000000000000003,6.709376245503157,-1.3867642159960276,10.0,0.0,15.477558399636717,16.673277185423842,235.10815372853793,452.22863821843714,0.0
0.044,6.744196093263161,-1.5028656568708394,10.0,0.0,15.74857785831126,16.87893749904121,248.8181267625822,452.22863821843714,0.0
0.045,6.750563942850831,-1.6564343609015326,10.0,0.0,16.02879294551472,17.090781462187255,251.61117095327992,452.22863821843714,0.0
0.046,6.764566527560506,-1.7840489455190416,10.0,0.0,16.314672837580048,17.307985931916857,266.60539535969383,452.22863821843714,0.0
0.047,6.752169677737121,-1.9446655565152717,10.0,0.0,16.610076868775216,17.533561623207692,270.0627790167984,452.22863821843714,0.0
0.048,6.7291903821171735,-2.110358990489937,10.0,0.0,16.91511817760721,17.768523902508925,283.13731951482634,452.22863821843714,0.0
0.049,6.714097190323873,-2.246352557911731,10.0,0.0,17.22645394156277,18.011924542904307,294.70561782835244,452.22863821843714,0.0
0.05,6.666841209228205,-2.4219663531358275,10.0,0.0,17.548953774962747,18.267165921658286,300.1294548425776,452.22863821843714,0.0
0.051000000000000004,6.612335516543512,-2.59336894353628,10.0,0.0,17.88182590988993,18.53465621226123,310.75154600411304,452.22863821843714,0.0
0.052000000000000005,6.568447424188529,-2.726701034625408,10.0,0.0,18.22111236450049,18.81296732052879,322.35703405819294,452.22863821843714,0.0
0.053,6.5036136539679195,-2.8764091099274185,10.0,0.0,18.569435851849082,19.104068797231378,330.9557012510771,452.22863821843714,0.0
0.054,6.434362099984388,-3.0149932598739144,10.0,0.0,18.925784313874168,19.407861808234543,339.4707232587175,452.22863821843714,0.0
0.055,6.370891759459199,-3.1253006473392393,10.0,0.0,19.28762520191878,19.723199586257838,348.00092263299223,452.22863821843714,0.0
0.056,6.314459991163816,-3.2071523724558277,10.0,0.0,19.65271639484943,20.048760466390505,356.29964302226927,452.22863821843714,0.0
0.057,6.266092078485367,-3.262894600420583,10.0,0.0,20.01916768432525,20.383030530514645,362.98468703488817,452.22863821843714,0.0
0.058,6.234656406121481,-3.2830044001420036,10.0,0.0,20.38405550695561,20.723492962007192,368.0316803659419,452.22863821843714,0.0
0.059000000000000004,6.228510489334133,-3.2600491726267444,10.0,0.0,20.743774617448285,21.0667596267365,372.35801287012686,452.22863821843714,0.0
0.06,6.247959954981508,-3.201438289803519,10.0,0.0,21.095630838529225,21.40947063565305,373.88739853789605,452.22863821843714,0.0
0.061,6.298571070969623,-3.1064761741463998,10.0,0.0,21.436712814499675,21.747723437683817,371.47602194372377,452.22863821843714,0.0
0.062,6.38094735961424,-2.982369480030801,10.0,0.0,21.76480975788002,22.077703876517536,366.2922057853833,452.22863821843714,0.0
0.063,6.53566146196873,-2.7695519558602215,10.0,0.0,22.070926190088084,22.39130117743337,372.07145994459506,452.22863821843714,0.0
0.064,6.708566607552835,-2.560747003310555,10.0,0.0,22.35695033962817,22.686677966487718,365.1882535794375,452.22863821843714,0.0
0.065,6.897199383751794,-2.3667028673086685,10.0,0.0,22.62465294768497,22.962098937664592,356.7297130485294,452.22863821843714,0.0
0.066,7.167218997264825,-2.0824440278168583,10.0,0.0,22.863799361069702,23.20893224280502,357.7888817172531,452.22863821843714,0.0
0.067,7.423387055578651,-1.859201647307153,10.0,0.0,23.082000390168847,23.42951856849048,345.1266644280509,452.22863821843714,0.0
0.068,7.736929428236853,-1.5824320316278497,10.0,0.0,23.27222771500701,23.617938384108047,342.9584987314189,452.22863821843714,0.0
0.069,8.04132723792414,-1.3546495884062866,10.0,0.0,23.43998591632552,23.77619061530866,334.2677598047511,452.22863821843714,0.0
0.07,8.395997401416553,-1.0747195592463576,10.0,0.0,23.578279041856877,23.89942370363377,322.7417355360636,452.22863821843714,0.0
0.07100000000000001,8.726669482066718,-0.8579631993863083,10.0,0.0,23.694022264374595,23.99133556844291,337.9106389559309,452.22863821843714,0.0
0.07200000000000001,8.91385728821635,-0.8925675486457335,10.0,0.0,23.81335639313859,24.06834663115294,344.8606079910171,452.22863821843714,0.0
0.073,8.941721008651788,-1.1508071676799903,10.0,0.0,23.95651852989837,24.148396869281978,362.43451347602996,452.22863821843714,0.0
0.074,8.927907180207171,-1.4305443375681337,10.0,0.0,24.121558169292424,24.236556455607346,368.59250641149885,452.22863821843714,0.0
0.075,8.859340450140312,-1.7499202918046703,10.0,0.0,24.31124378664675,24.33980824926249,387.10067316750514,452.22863821843714,0.0
0.076,8.767176841935807,-2.0562826706616475,10.0,0.0,24.52279212376306,24.461155754889383,396.7190369145668,452.22863821843714,0.0
0.077,8.62162972262067,-2.4016532593838043,10.0,0.0,24.76024751870129,24.606611890707832,408.83095327273656,452.22863821843714,0.0
0.078,8.47560200325128,-2.694417929744825,10.0,0.0,25.017253395580042,24.77587553037574,428.2762610097064,452.22863821843714,0.0
0.079,8.289593068490031,-3.001970310780605,10.0,0.0,25.296388163948027,24.972914099394785,438.0404594767293,452.22863821843714,0.0
0.08,8.078425759776728,-3.30171273584331,10.0,0.0,25.597209455327665,25.19953060295957,447.87571303424875,452.22863821843714,0.0
0.081,7.882675762310951,-3.525181384717318,8.869880404509141,0.0,25.912194395051316,25.32867525643594,459.32907650908663,452.22863821843714,0.0
0.082,7.628670138040906,-3.6720890010049536,3.072194284183703,0.0,26.222520457453147,24.875942779951195,463.46069020400944,452.22863821843714,0.0
0.083,7.087285999139754,-3.601761494527716,0.8940669168665769,0.0,26.447335564090952,24.374911207189918,460.7933158116216,452.22863821843714,0.0
0.084,6.482593704849593,-3.3737195953651087,2.142107337128653,0.0,26.575184668945738,24.16663233325345,456.3620543541873,452.22863821843714,0.0
0.085,6.054291044516017,-3.1227614036204243,4.316403904488297,0.0,26.644095993821114,24.259724845096844,450.68043783140536,452.22863821843714,0.0
0.08600000000000001,5.8876478292808425,-2.8995174281505114,7.172694169749589,0.0,26.693378182009027,24.656895928821115,448.08329113447326,452.22863821843714,0.0
0.08700000000000001,6.0124686996516274,-2.7126398770908384,8.512720989055278,0.0,26.759125168888733,25.12272144256962,450.45946866748767,452.22863821843714,0.0
0.088,6.291923826622472,-2.554991599046799,7.342323918057566,0.0,26.849407473381053,25.376903302365342,436.93912415595,452.22863821843714,0.0
0.089,6.551451763228943,-2.3514365558065156,10.0,0.0,26.93526516142773,25.89299002459738,425.38631663766455,452.22863821843714,0.0
0.09,7.019560489154133,-2.0992306927127604,10.0,0.0,27.038438658385033,26.290580402105753,425.491825867956,452.22863821843714,0.0
0.091,7.485157177987682,-1.8793901280624863,10.0,0.0,27.149393439916853,26.61219454304657,407.34937675350795,452.22863821843714,0.0
0.092,7.978159270900697,-1.603871367046339,10.0,0.0,27.253305499324306,26.86316848471441,404.6172854880112,452.22863821843714,0.0
0.093,8.466380920480894,-1.319858962643755,10.0,0.0,27.34343757008366,27.050661877631505,386.6550657359392,452.22863821843714,0.0
0.094,8.962716591443499,-1.01281766404056,10.0,0.0,27.41237135425648,27.178704431022744,376.1486979679755,452.22863821843714,0.0
0.095,9.430106014270988,-0.7502966026217344,10.0,0.0,27.461409111581084,27.254386627690735,388.95459995080967,452.22863821843714,0.0
0.096,9.721326812585371,-0.7749838143824612,10.0,0.0,27.518452116747905,27.300043986838094,401.7019594125581,452.22863821843714,0.0
0.097,9.804352254830555,-1.0607010823143082,10.0,0.0,27.605538584667677,27.34061931992357,413.0317017008256,452.22863821843714,0.0
0.098,9.755021605391256,-1.4787801159127367,10.0,0.0,27.731105460120524,27.392102392353237,429.9993657124806,452.22863821843714,0.0
0.099,9.667151168990763,-1.8702552182164274,10.0,0.0,27.88814542618847,27.46016628659489,446.505717275363,452.22863821843714,0.0
0.1,9.490116360643844,-2.3234768654486784,9.994905521601762,0.0,28.082227415246308,27.555162519949533,459.0015997505831,452.22863821843714,0.0
0.101,9.293461813245814,-2.7221741142338542,3.6792346686702366,0.0,28.305725309627867,26.985256131966317,472.5485856628654,452.22863821843714,0.0
0.10200000000000001,8.709016784478862,-2.9600818700523193,-3.2974577619151715,0.0,28.472065656425126,25.852733121074884,475.62782859154623,452.22863821843714,0.0
0.10300000000000001,7.73927625898387,-2.9340917349874287,-5.071071129986691,0.0,28.50328167503819,24.825592907287085,477.4918490900737,452.22863821843714,0.0
0.10400000000000001,6.718773185068757,-2.805990694521,-6.255713487966782,0.0,28.41483085731052,23.894271723917992,475.898854700523,452.22863821843714,0.0
0.105,5.775634559511978,-2.61952610163089,-5.695918458012284,0.0,28.222862908205457,23.214201672059936,471.65576319686187,452.22863821843714,0.0
0.106,5.036837559952099,-2.4238581080191133,-3.7686439559659783,0.0,27.962425915456684,22.861180359098725,465.4261263181124,452.22863821843714,0.0
0.107,4.573420692161764,-2.2669872800513224,-0.7858003975879866,0.0,27.677431379546356,22.869845410021245,458.5135793402345,452.22863821843714,0.0
0.108,4.425417495865415,-2.1631820230461325,2.6076236801329733,0.0,27.4119529323284,23.20423889814068,451.2661768021066,452.22863821843714,0.0
0.109,4.572952911431518,-2.1193893006727667,6.240949563360235,0.0,27.202682531753176,23.826667871428935,444.9107432596188,452.22863821843714,0.0
0.11,4.995324245073371,-2.1063634885926232,9.491845284192312,0.0,27.075587156459214,24.642206685245156,446.45505215675723,452.22863821843714,0.0
0.111,5.6148642044236965,-2.1225275486643698,8.7774266962399,0.0,27.044663504804962,25.18846139607516,440.25337388462026,452.22863821843714,0.0
0.112,6.162881534906642,-2.0941257447079584,10.0,0.0,27.068171850363214,25.76453901319025,424.2450269367486,452.22863821843714,0.0
0.113,6.776240455525798,-1.9482498493417075,10.0,0.0,27.131174792626414,26.21114466214877,424.2910005613969,452.22863821843714,0.0
0.114,7.350840987848885,-1.7571039541522264,10.0,0.0,27.21297071604198,26.562317571088407,407.55643937503356,452.22863821843714,0.0
0.115,7.889938231862642,-1.5333640407844578,10.0,0.0,27.299004406491385,26.832998089957364,403.1868340399462,452.22863821843714,0.0
0.116,8.426358263995915,-1.252801000583073,10.0,0.0,27.374878244494283,27.03159869488985,385.34087994049116,452.22863821843714,0.0
0.117,8.935461594506224,-0.9778688373208917,10.0,0.0,27.435587851633308,27.16728945709456,378.67471368017794,452.22863821843714,0.0
0.11800000000000001,9.423069646190294,-0.7180721735363469,10.0,0.0,27.477967262895213,27.246936251412563,386.86381082064656,452.22863821843714,0.0
0.11900000000000001,9.722980246673098,-0.7482541283113164,10.0,0.0,27.529991394125837,27.29474222188869,400.2400400912782,452.22863821843714,0.0
0.12,9.77575435415864,-1.0967540822136215,10.0,0.0,27.61962688466251,27.340163962621684,415.7840067118507,452.22863821843714,0.0
0.121,9.757738765800678,-1.468336431280588,10.0,0.0,27.74223005907715,27.392516534129285,430.53845601777556,452.22863821843714,0.0
0.122,9.637701360290482,-1.917265107689249,10.0,0.0,27.903474504115373,27.46491812465011,444.3308572878114,452.22863821843714,0.0
0.123,9.49118006239156,-2.3188021582918172,10.0,0.0,28.09551445250405,27.56112096933648,466.84413597698835,452.22863821843714,0.0
0.124,9.276266570692112,-2.7471735806397546,-0.7656808760796894,0.0,28.321076176474755,26.504857899132254,468.50921858366615,452.22863821843714,0.0
0.125,8.461486595273925,-2.8580603210384923,-1.7610279830708802,0.0,28.426369248248342,25.66242259771629,473.87632552294366,452.22863821843714,0.0
0.126,7.568151123006383,-2.8577963749272333,-4.661058325754698,0.0,28.435751581226747,24.69582936918922,476.3040738421248,452.22863821843714,0.0
0.127,6.608044991445773,-2.761560211072444,-6.115686841582148,0.0,28.336953019491688,23.792503183247508,474.54191132263054,452.22863821843714,0.0
0.128,5.706276150401099,-2.5906513376815363,-5.457738312876948,0.0,28.13986408090152,23.14614389424163,470.3219035882517,452.22863821843714,0.0
0.129,5.000851992251651,-2.4092184590288794,-3.5286670993856744,0.0,27.87959957935188,22.81890895746029,464.1495233843876,452.22863821843714,0.0
0.13,4.563012334988772,-2.2629115662495654,-0.5616858491131174,0.0,27.598358604859893,22.846556410314616,457.34417783980433,452.22863821843714,0.0
0.131,4.433296059798874,-2.1664530994720326,2.789831526964834,0.0,27.338859110684787,23.192202512998417,450.11992259444094,452.22863821843714,0.0
0.132,4.592043188539777,-2.1267612680783827,6.423046305886492,0.0,27.136472659410053,23.82471316100353,444.03180224290514,452.22863821843714,0.0
0.133,5.022983924661756,-2.1148792517227353,9.549074841409709,0.0,27.01666581457811,24.635449080512984,445.96274383351516,452.22863821843714,0.0
0.134,5.6395176868303585,-2.133088880107101,8.64626298995392,0.0,26.992035125466156,25.15905182809562,438.5859342176456,452.22863821843714,0.0
0.135,6.17616942129576,-2.0966468654968797,10.0,0.0,27.01803706213269,25.7329040684589,423.3154465257321,452.22863821843714,0.0
0.136,6.786211751406977,-1.9436026360161311,10.0,0.0,27.082353584072113,26.17669576938447,424.3700913493502,452.22863821843714,0.0
0.137,7.355030407760518,-1.7542560244107148,10.0,0.0,27.165319938928363,26.526070323513643,406.1502973642146,452.22863821843714,0.0
0.138,7.891437375472923,-1.5302843873016194,10.0,0.0,27.252183699745967,26.795487477830704,402.6474955081816,452.22863821843714,0.0
0.139,8.423646163980534,-1.2534691056480407,10.0,0.0,27.329092835302713,26.9934703957391,384.8206663117115,452.22863821843714,0.0
0.14,8.934294971425668,-0.9735623291278467,10.0,0.0,27.390087756493923,27.12849665447844,376.793811336789,452.22863821843714,0.0
0.14100000000000001,9.417980687706285,-0.7179105356244357,10.0,0.0,27.433163181919788,27.208020838746553,386.9728439095014,452.22863821843714,0.0
0.14200000000000002,9.715044691292976,-0.7505158279385333,10.0,0.0,27.486026583319454,27.25605996389871,399.0762954338222,452.22863821843714,0.0
0.14300000000000002,9.766382844694116,-1.0991579160271723,10.0,0.0,27.576432133860983,27.301904959837362,416.23093390193935,452.22863821843714,0.0
0.14400000000000002,9.74750752935332,-1.4705315225177191,10.0,0.0,27.699746304775303,27.3547956774578,429.1818575528479,452.22863821843714,0.0
0.145,9.627471185808904,-1.9183040973367311,10.0,0.0,27.86155937752541,27.4277439850441,443.8301822991092,452.22863821843714,0.0
0.146,9.482513541016582,-2.3164189709028262,10.0,0.0,28.053800884103225,27.524323746638505,465.7247789420513,452.22863821843714,0.0
