timestamp,iq,id,iq_ref,id_ref,vq,vd,omega,omega_ref,r
0.0,0.0,0.0,0.0,0.0,0.0,0.0,0.0,134.99352139350108,0.0
0.001,0.0,0.0,10.0,0.0,0.0,1.0999999999999999,6.115472199294103,134.99352139350108,0.0
0.002,0.5307369851907212,-0.2913212625381807,10.0,0.0,0.14204533887919985,1.9316189316290207,13.317801563642547,134.99352139350108,0.0
0.003,1.0842913387634832,-0.6024330830807904,10.0,0.0,0.384357124667687,2.6386968949419622,20.697939467553027,134.99352139350108,0.0
0.004,1.5590443546685477,-0.8700465084428163,10.0,0.0,0.6994718867930164,3.2526109522886295,28.232747544420146,134.99352139350108,0.0
0.005,1.9399447555359186,-1.0838738622210777,10.0,0.0,1.065311453102468,3.7994935661768023,35.92944872443006,134.99352139350108,0.0
0.006,2.239750732602683,-1.2510087368845633,10.0,0.0,1.4655018868449925,4.299102221838433,43.75633668444442,134.99352139350108,0.0
0.007,2.4770151619816017,-1.382020589851471,10.0,0.0,1.8883740978591532,4.765668027847139,51.58766747378032,134.99352139350108,0.0
0.008,2.6680767290418097,-1.4872241871505252,10.0,0.0,2.325877945545995,5.209220346273558,59.45942083902103,134.99352139350108,0.0
0.009000000000000001,2.8266491704841292,-1.5730794701170803,10.0,0.0,2.772378685460125,5.636635464737965,67.35059094018146,134.99352139350108,0.0
0.01,2.962077666392183,-1.645500646948331,10.0,0.0,3.224078639851053,6.052647735211881,75.20908322432116,134.99352139350108,0.0
0.011,3.0811061533574158,-1.7084279320504514,10.0,0.0,3.678407615443203,6.460489925470405,83.0265951655913,134.99352139350108,0.0
0.012,3.188848746459569,-1.7638278597420747,10.0,0.0,4.133552631697047,6.862319393890706,90.74118064793086,134.99352139350108,0.0
0.013000000000000001,3.288205119878689,-1.8140726097274587,10.0,0.0,4.588339016389012,7.259628641949282,98.35820682563939,134.99352139350108,0.0
0.014,3.3820602099432007,-1.8592355758795645,10.0,0.0,5.041843166194517,7.653355107498287,105.90865295623543,134.99352139350108,0.0
0.015,3.4721069852858886,-1.899829032412081,10.0,0.0,5.493383198131427,8.044092747085895,113.37727610343421,134.99352139350108,0.0
0.016,3.5596145800153947,-1.9360338400176071,10.0,0.0,5.94241958510469,8.43218525824161,120.68508583176356,134.99352139350108,0.0
0.017,3.645144415105338,-1.9685384477868613,9.849731202438743,0.0,6.388575043274759,8.801309383334745,127.74337886846415,134.99352139350108,0.0
0.018000000000000002,3.7224257166120815,-1.991574991636969,6.393086109338817,0.0,6.829236341882957,8.79176272465536,132.53825789485498,134.99352139350108,0.0
0.019,3.6199439919584253,-1.9088878800503146,4.0201992311298635,0.0,7.215550897049362,8.612831558759709,135.64695253238347,134.99352139350108,0.0
0.02,3.3899511361997177,-1.746086759029352,2.459317600976796,0.0,7.528259627913123,8.366731251322435,137.50281821268328,134.99352139350108,0.0
0.021,3.0980849712659313,-1.5561785121865397,1.5062917926350665,0.0,7.76582555900428,8.117093174684339,134.8659970261101,134.99352139350108,0.0
0.022,2.809396686322562,-1.3591403691212178,2.8259776295955623,0.0,7.934895976053753,8.099708248662672,135.245765104421,134.99352139350108,0.0
0.023,2.660317935170467,-1.217961749915152,2.633571153330919,0.0,8.071761592114099,8.0801190659667,138.15682169449923,134.99352139350108,0.0
0.024,2.5585840758135014,-1.123453882404365,1.1464098552818216,0.0,8.183997649064686,7.924211622141348,135.99517850086895,134.99352139350108,0.0
0.025,2.4169617526332936,-1.016435472753027,2.2172148810232843,0.0,8.258592409551145,7.9423398111619,133.8188189274357,134.99352139350108,0.0
0.026000000000000002,2.3700213267770422,-0.9312629896952493,3.317141692400561,0.0,8.319241723851166,8.08014577993551,137.41662495311903,134.99352139350108,0.0
0.027,2.407387573568266,-0.9070224584322996,1.4940076439627186,0.0,8.385791969990201,7.994112378414231,135.42362317627837,134.99352139350108,0.0
0.028,2.3652312772922937,-0.8528962453805838,2.486207514555274,0.0,8.431372373240146,8.055721522966811,133.7168140943918,134.99352139350108,0.0
0.029,2.3887060806346203,-0.8000642115562119,3.3523791284896545,0.0,8.473285389030188,8.198080880885566,136.65042331677688,134.99352139350108,0.0
0.03,2.4597553410253843,-0.7965084353336596,1.8690054980643533,0.0,8.525380223986867,8.150982118495763,133.60196030113954,134.99352139350108,0.0
0.031,2.4611580546798044,-0.7535265235955606,3.4071526168066377,0.0,8.562863246679932,8.298388829308436,135.01832038390927,134.99352139350108,0.0
0.032,2.5440344032321347,-0.7326354646931865,2.698724585517692,0.0,8.609470440823078,8.33239224547573,134.59799343660828,134.99352139350108,0.0
0.033,2.583470206830756,-0.7188107090626504,2.912843338737116,0.0,8.653505444638306,8.39478420769731,132.49993989147615,134.99352139350108,0.0
0.034,2.6449026450864084,-0.6783412788175758,3.9868059263234317,0.0,8.695062754523512,8.564971961008418,134.9617697917366,134.99352139350108,0.0
0.035,2.7476932290205607,-0.6882578354535157,2.756208492210849,0.0,8.75097862428371,8.565498686498486,131.71593851920957,134.99352139350108,0.0
0.036000000000000004,2.7948238136863264,-0.6502856378506972,4.411899957217278,0.0,8.79707947231423,8.761839903433515,134.72414569049582,134.99352139350108,0.0
0.037,2.9130545518830226,-0.6553880551911863,2.910490128604209,0.0,8.859145345118684,8.748911012325603,130.95951035374298,134.99352139350108,0.0
0.038,2.957460724187528,-0.6153253481805124,4.833147907378206,0.0,8.90925381958732,8.966285679988676,134.21873051699785,134.99352139350108,0.0
0.039,3.086214249723798,-0.6242098751430405,3.211285734515805,0.0,8.977466838411388,8.955583485443757,130.65278163501287,134.99352139350108,0.0
0.04,3.139261876951924,-0.5800215049422646,5.037667573093177,0.0,9.032838769906839,9.165345732468134,133.19047140843404,134.99352139350108,0.0
0.041,3.264914937791952,-0.5908557200515641,3.786853186233265,0.0,9.10528338031922,9.190524186579134,131.17683553187916,134.99352139350108,0.0
0.042,3.3408676188187476,-0.5464995118108986,4.8318379831269205,0.0,9.168013850043895,9.340787463542629,131.1586947192588,134.99352139350108,0.0
0.043000000000000003,3.442273380514659,-0.5489672942589405,4.87925665617953,0.0,9.240212618644142,9.466668558872811,132.81281000009773,134.99352139350108,0.0
0.044,3.5600242348801574,-0.5276724433570459,4.074006129694095,0.0,9.315412508493697,9.48619114052283,129.33154515896845,134.99352139350108,0.0
0.045,3.623598519890904,-0.485840515043819,5.871258312604058,0.0,9.380656103917854,9.711216035570223,130.91868944905892,134.99352139350108,0.0
0.046,3.764693594517065,-0.5000423199762329,5.118434487003249,0.0,9.463858347130042,9.804594942651335,133.6611496564121,134.99352139350108,0.0
0.047,3.877163326852581,-0.48190249227813053,3.7605281006975435,0.0,9.545940857633001,9.744153999297287,132.51891087161653,134.99352139350108,0.0
0.048,3.866851053278916,-0.47836324807042185,4.356393598314179,0.0,9.613563104164394,9.779348717346291,134.9802411276071,134.99352139350108,0.0
0.049,3.8543072215532597,-0.5185850117273971,3.125861272977839,0.0,9.682402384291892,9.67774567623445,138.4301724339807,134.99352139350108,0.0
0.05,3.7905125576231473,-0.5110813186376764,1.366529109386243,0.0,9.73296980841902,9.41885762721989,136.13128290134526,134.99352139350108,0.0
0.051000000000000004,3.6193162052252,-0.4770753899374449,2.5045962606255157,0.0,9.74892607000585,9.351889485916207,139.36594378117337,134.99352139350108,0.0
0.052000000000000005,3.5122599846521054,-0.4843981962609192,0.8435415968347368,0.0,9.757735459286213,9.109181321111256,138.18097428549473,134.99352139350108,0.0
0.053,3.3531970782768648,-0.4474812530316199,1.4041518157541222,0.0,9.737259001339583,8.986328939929422,138.81078548475816,134.99352139350108,0.0
0.054,3.226125036184726,-0.45370726976752374,1.0510735752098368,0.0,9.70759898234268,8.84165673798843,139.4111576049088,134.99352139350108,0.0
0.055,3.115246927484855,-0.4474832524611869,0.7067111530204406,0.0,9.665690842980307,8.685062541842518,139.2119670638519,134.99352139350108,0.0
0.056,2.994210428015168,-0.45714249648844674,0.7641219668453862,0.0,9.613438854955648,8.561900998972265,139.51283002304967,134.99352139350108,0.0
0.057,2.897870593359209,-0.46404239849888174,0.5684974009510073,0.0,9.554758308227301,8.433124618017397,139.77357169981272,134.99352139350108,0.0
0.058,2.8003469603348647,-0.48346416997887864,0.3903260595063678,0.0,9.491135573919,8.303479419871337,139.51936713562574,134.99352139350108,0.0
0.059000000000000004,2.709651179120285,-0.4944787288192263,0.47216988417860994,0.0,9.42192797698456,8.200222301840803,139.8202010252455,134.99352139350108,0.0
0.06,2.628808922849892,-0.5201868635724212,0.27348614305128915,0.0,9.352033177174956,8.085682176526749,139.53961513244542,134.99352139350108,0.0
0.061,2.5520835098169457,-0.5359252186688617,0.3683181520618839,0.0,9.279147982527986,7.9956563150365,139.83412259830428,134.99352139350108,0.0
0.062,2.4828536415420572,-0.5646199265985341,0.1726584070844237,0.0,9.207547755517988,7.891721659572859,139.46574026870707,134.99352139350108,0.0
0.063,2.414632915527042,-0.5826167383085038,0.312127383130969,0.0,9.134406787871422,7.81513061294838,139.66722299286906,134.99352139350108,0.0
0.064,2.3550794157743815,-0.6116106258149029,0.16464900505629387,0.0,9.063930171835677,7.727135940585655,139.3649051519435,134.99352139350108,0.0
0.065,2.2965494016007835,-0.6320298576569664,0.2720940879346463,0.0,8.99365792679479,7.660029583314563,139.49005788061973,134.99352139350108,0.0
0.066,2.244635074462629,-0.6596890663687768,0.16455235872534635,0.0,8.926540591170761,7.584827872068145,139.2355184848345,134.99352139350108,0.0
0.067,2.1931747969780955,-0.6806598809789285,0.2494020857046273,0.0,8.860645015504492,7.525984972895699,139.29217741975773,134.99352139350108,0.0
0.068,2.1472072478435895,-0.7056240748842648,0.17808605798044352,0.0,8.797991060671094,7.462285373384366,139.1092312343291,134.99352139350108,0.0
0.069,2.101518151564185,-0.7260702133711342,0.22840205228648713,0.0,8.737231974664402,7.409504383091123,139.08510217639903,134.99352139350108,0.0
0.07,2.0599323782046204,-0.7473108277585288,0.19955077342253436,0.0,8.6794027044268,7.356366326715199,138.978514460035,134.99352139350108,0.0
0.07100000000000001,2.0192757340921763,-0.7662454132099357,0.2129947009392117,0.0,8.62391295383115,7.308582866887356,138.8762780048826,134.99352139350108,0.0
0.07200000000000001,1.9811627694448768,-0.7836682626807787,0.22528536240159314,0.0,8.570920999899554,7.265032171138505,138.79101999643976,134.99352139350108,0.0
0.073,1.945464026160614,-0.7999023746606615,0.22993938059363117,0.0,8.520484695609314,7.224472117072675,138.68607353530643,134.99352139350108,0.0
0.074,1.9117075087973014,-0.8145025891110561,0.2454870897422392,0.0,8.47247969881126,7.187944375285951,138.64116981841823,134.99352139350108,0.0
0.075,1.880932956845695,-0.826503239273344,0.23146246393716785,0.0,8.426796496887686,7.151618357609095,138.71771084993136,134.99352139350108,0.0
0.076,1.8511473542785821,-0.8356526974055686,0.15595005361629966,0.0,8.382935447281707,7.109159173393188,138.56176066903564,134.99352139350108,0.0
0.077,1.8179624778254062,-0.8417329771427746,0.1982427513088192,0.0,8.339791920404505,7.075319603871837,138.2135785892613,134.99352139350108,0.0
0.078,1.7877218816752207,-0.8478912843336306,0.34013321923839035,0.0,8.298195400256509,7.058729279922217,137.8067144960302,134.99352139350108,0.0
0.079,1.7677574408383632,-0.8555975603040451,0.5154333348286455,0.0,8.259885607013187,7.059396126918946,137.42705113446647,134.99352139350108,0.0
0.08,1.7587752596797315,-0.8677885408503656,0.680929718200856,0.0,8.226737422894265,7.0734053064257925,137.00670877611404,134.99352139350108,0.0
0.081,1.761784738697201,-0.8787879195337887,0.8709690235509406,0.0,8.19939299698763,7.101527244821337,136.6486182557507,134.99352139350108,0.0
0.082,1.7734813484406216,-0.893318008778106,1.0334633151101111,0.0,8.179083523541252,7.138819993523073,137.48612572086475,134.99352139350108,0.0
0.083,1.793835124288474,-0.904979161165601,0.5897835392794526,0.0,8.16567169817987,7.117800852507202,138.5176516568876,134.99352139350108,0.0
0.084,1.7820437976100096,-0.9086070370262802,0.03877926863415748,0.0,8.151781596073837,7.042869354737217,136.79563863537695,134.99352139350108,0.0
0.085,1.7368345820780173,-0.8887197144551708,0.8817646069707299,0.0,8.129563470159983,7.077135526898836,135.48480571197211,134.99352139350108,0.0
0.08600000000000001,1.737423411229435,-0.8842595405820001,1.5322682254884352,0.0,8.112702028153334,7.168361950544512,136.07278959023978,134.99352139350108,0.0
0.08700000000000001,1.783540753478096,-0.8944592364848207,1.2274836043872162,0.0,8.107815940999961,7.203681223762807,137.67276470513036,134.99352139350108,0.0
0.088,1.8112801182279217,-0.9023316859584666,0.4007036138256317,0.0,8.107714362366831,7.144491851493181,136.50337780609644,134.99352139350108,0.0
0.089,1.7842117803275184,-0.8874472553935813,0.9702984992166404,0.0,8.099987992513174,7.165389406702371,134.43576958643627,134.99352139350108,0.0
0.09,1.7851603970810306,-0.8738328410040718,2.0096801271173748,0.0,8.093775273888607,7.291685568398558,135.03044482894524,134.99352139350108,0.0
0.091,1.8508615001674338,-0.8803255801997781,1.7119732715084486,0.0,8.101663788751535,7.354371636494711,137.1442096305418,134.99352139350108,0.0
0.092,1.899231647662849,-0.8873617271078058,0.6335839883397543,0.0,8.115741107705714,7.291268491481443,135.6650940288067,134.99352139350108,0.0
0.093,1.8764586710881173,-0.867380463197746,1.3664260628542568,0.0,8.11983207976396,7.330268642791374,132.89977316446598,134.99352139350108,0.0
0.094,1.8903249010198562,-0.847685378454815,2.770023977314962,0.0,8.125447323064755,7.511092210963434,134.9142218644933,134.99352139350108,0.0
0.095,1.9876194650866919,-0.8601409644188606,1.763592622591382,0.0,8.150150464156148,7.53908777873613,136.8726265334024,134.99352139350108,0.0
0.096,2.026825594871672,-0.8603947124171327,0.765599236737813,0.0,8.175086204335845,7.463699416308359,133.51299188513423,134.99352139350108,0.0
0.097,2.0009774199236836,-0.8219434381491404,2.4602218559555737,0.0,8.185757356605325,7.597967246655955,132.76870622784034,134.99352139350108,0.0
0.098,2.066611055983474,-0.8073750844276777,2.8546128362591245,0.0,8.207570170515941,7.738834009120897,135.3590156017971,134.99352139350108,0.0
0.099,2.1534678399156615,-0.8227262311822479,1.5558032071977859,0.0,8.243122688962208,7.712084497858678,133.43326181426485,134.99352139350108,0.0
0.1,2.1664264391592942,-0.8023156902515158,2.53428269675627,0.0,8.2700463334677,7.811629151631877,132.0393118368707,134.99352139350108,0.0
0.101,2.2296029072772563,-0.779396676023413,3.260799781019653,0.0,8.301915092744178,7.967223963351154,134.94048118917513,134.99352139350108,0.0
0.10200000000000001,2.3225688315830766,-0.7930284602289721,1.8107455069106946,0.0,8.347885143669831,7.93408054183907,132.33272976935643,134.99352139350108,0.0
0.10300000000000001,2.337015545849516,-0.7643259535959511,3.14122913306149,0.0,8.382650253780017,8.069042729862186,132.92602932607582,134.99352139350108,0.0
0.10400000000000001,2.419075288249707,-0.7443919937887814,2.8652542753760493,0.0,8.42552936116904,8.141441034965748,134.18486147328218,134.99352139350108,0.0
0.105,2.475730176186047,-0.741683381313347,2.2439248009750568,0.0,8.47126178055529,8.139889486441605,130.63941416793332,134.99352139350108,0.0
0.106,2.5046498985055785,-0.6991319981126869,4.060189525905163,0.0,8.507612237123183,8.346454128619037,133.80566451793806,134.99352139350108,0.0
0.107,2.6203028575724687,-0.7057533672907721,2.4889429196584283,0.0,8.562137976693629,8.332564950024915,130.6370710957836,134.99352139350108,0.0
0.108,2.654985844155831,-0.6776876011434705,4.116804133712832,0.0,8.606668776479633,8.517635863922195,133.17491624725304,134.99352139350108,0.0
0.109,2.7689053560280286,-0.6722500856817845,2.8660676094405924,0.0,8.664936118637451,8.52260882015775,130.16498925353528,134.99352139350108,0.0
0.11,2.8106783815578993,-0.6478151572128314,4.419316427699128,0.0,8.715240555226073,8.71282011254713,132.976581740083,134.99352139350108,0.0
0.111,2.9317258786623834,-0.6417943109398363,3.033689580959454,0.0,8.779117733589429,8.708191783606289,129.27951554675357,134.99352139350108,0.0
0.112,2.974058686680398,-0.6107741663822197,4.939362736091639,0.0,8.832792353783763,8.93044818701687,132.73853874855928,134.99352139350108,0.0
0.113,3.1083672853492104,-0.6160914051069999,3.232400961638204,0.0,8.90422025000502,8.914673267591235,128.92658258050187,134.99352139350108,0.0
0.114,3.1574729501732812,-0.573608173438187,5.199048433796899,0.0,8.962201536790772,9.13696093226832,131.869090656886,134.99352139350108,0.0
0.115,3.288378675642114,-0.5860447009730745,3.7590387029709924,0.0,9.038406311711183,9.150841840890507,129.77687413182764,134.99352139350108,0.0
0.116,3.359503080454663,-0.5396862032752112,4.8573134381169005,0.0,9.103154899979659,9.29965082704213,129.68679858545147,134.99352139350108,0.0
0.117,3.458143550702209,-0.5407682320820175,4.955418439385482,0.0,9.176892136182175,9.42972336851442,131.46372451500517,134.99352139350108,0.0
0.11800000000000001,3.5759448469930306,-0.5210614131843158,4.102253443393591,0.0,9.254084332544855,9.447361441998424,128.30819836271556,134.99352139350108,0.0
0.11900000000000001,3.6391183219832457,-0.47759091754276856,5.746869749846253,0.0,9.32073643028807,9.654623302153993,129.2585912194281,134.99352139350108,0.0
0.12,3.770719017851449,-0.4875190664990277,5.329022623230712,0.0,9.402976305614125,9.771570497280488,132.87471917976595,134.99352139350108,0.0
0.121,3.877295947045727,-0.49810505085930745,3.542146665199139,0.0,9.489752089710297,9.682261621056934,132.639150939147,134.99352139350108,0.0
0.122,3.8511676786447353,-0.49313540164534303,3.68347449005216,0.0,9.558266886517357,9.647915909995556,133.6950893198823,134.99352139350108,0.0
0.123,3.797419115241517,-0.5166950835948829,3.1684896204206914,0.0,9.61913689404416,9.571445695103368,138.02998010323014,134.99352139350108,0.0
0.124,3.730861041294158,-0.5131456154681431,0.9706796416494781,0.0,9.665646841015626,9.278884155984747,135.36417431964378,134.99352139350108,0.0
0.125,3.5459868520752473,-0.4670963834891779,2.2998760041812334,0.0,9.673219718541668,9.208090045215934,137.97923385823907,134.99352139350108,0.0
0.126,3.431506363638896,-0.47414238979238016,0.9624891102362088,0.0,9.674191450251364,8.995472223153154,137.44828811117182,134.99352139350108,0.0
0.127,3.287384260286376,-0.4432978937215458,1.2034143165931264,0.0,9.65034087195299,8.858797624590744,137.60666769092722,134.99352139350108,0.0
0.128,3.159424283333172,-0.44866974986742947,1.0980930637411626,0.0,9.616107240764965,8.732045214608778,138.42021968199242,134.99352139350108,0.0
0.129,3.057688325140826,-0.4472103181154747,0.6570500853236507,0.0,9.572407475643377,8.57699452304043,138.1616633296137,134.99352139350108,0.0
0.13,2.941319474838569,-0.4581488768131536,0.7546468421518839,0.0,9.518790453651373,8.46000821110336,138.42878100398676,134.99352139350108,0.0
0.131,2.849793676972704,-0.46681439653550966,0.5867354088605001,0.0,9.459680324247344,8.338816752192685,138.72906451779093,134.99352139350108,0.0
0.132,2.7578831594828883,-0.4879186915460221,0.3992382207155143,0.0,9.396596879146587,8.214082748814864,138.45881167246898,134.99352139350108,0.0
0.133,2.671566293175019,-0.499730162839054,0.4997117405868101,0.0,9.32843659711025,8.117016610451007,138.8047417671255,134.99352139350108,0.0
0.134,2.594983423820023,-0.5265113953890995,0.2886344895223041,0.0,9.260213550308734,8.006178771870063,138.49481626780536,134.99352139350108,0.0
0.135,2.521351946299395,-0.5422858769438246,0.4085842904393333,0.0,9.189196404974798,7.922241296912301,138.8483998011335,134.99352139350108,0.0
0.136,2.4556816665488186,-0.5716788822997123,0.19324373969894193,0.0,9.119962712452077,7.821196312323664,138.45193055197504,134.99352139350108,0.0
0.137,2.3897862087303365,-0.5892642051806737,0.356894272693431,0.0,9.049188346186114,7.750079218640946,138.7105281611071,134.99352139350108,0.0
