timestamp,iq,id,iq_ref,id_ref,vq,vd,omega,omega_ref,r
0.0,0.0,0.0,0.0,0.0,0.0,0.0,0.0,51.10360856023999,0.0
0.001,0.0,0.0,10.0,0.0,0.0,1.0999999999999999,6.115472199294103,51.10360856023999,0.0
0.002,0.5307369851907212,-0.2913212625381807,10.0,0.0,0.14204533887919985,1.9316189316290207,13.317801563642547,51.10360856023999,0.0
0.003,1.0842913387634832,-0.6024330830807904,10.0,0.0,0.384357124667687,2.6386968949419622,20.697939467553027,51.10360856023999,0.0
0.004,1.5590443546685477,-0.8700465084428163,10.0,0.0,0.6994718867930164,3.2526109522886295,28.232747544420146,51.10360856023999,0.0
0.005,1.9399447555359186,-1.0838738622210777,10.0,0.0,1.065311453102468,3.7994935661768023,35.92944872443006,51.10360856023999,0.0
0.006,2.239750732602683,-1.2510087368845633,8.663926204022848,0.0,1.4655018868449927,4.152134104280945,42.902519219136586,51.10360856023999,0.0
0.007,2.406311325874687,-1.343352458723419,5.259401850080619,0.0,1.8694237916793182,4.1330690854858005,47.71205771431188,51.10360856023999,0.0
0.008,2.3446810766182358,-1.3072815351886398,2.888548110952252,0.0,2.2261557653434823,3.9379990246398346,50.608277139986576,51.10360856023999,0.0
0.009000000000000001,2.1283652099322357,-1.1831618379772257,1.4453917123174387,0.0,2.514415078098726,3.6862489436292316,52.26344627423316,51.10360856023999,0.0
0.01,1.8479047761301632,-1.020787006538262,0.606208768054215,0.0,2.732053416991213,3.439308731163975,53.36583294664066,51.10360856023999,0.0
0.011,1.5662790982785795,-0.8561208590842361,0.032393187986459404,0.0,2.8867443728423727,3.2122727096953256,53.62547345219115,51.10360856023999,0.0
0.012,1.3081100716184664,-0.7115983740416281,-0.1226457137082988,0.0,2.989011819081405,3.037675598727007,52.79987712601699,51.10360856023999,0.0
0.013000000000000001,1.1012884832935288,-0.5919106013785409,0.2731897637210132,0.0,3.051872379457189,2.9560259194627374,52.44053327490318,51.10360856023999,0.0
0.014,0.9699941603415,-0.5105061308925272,0.43949244213128447,0.0,3.092524301842136,2.9155363636547835,53.23289408538782,51.10360856023999,0.0
0.015,0.8906538969304313,-0.4607239176952882,0.022019181637487062,0.0,3.1204000776609573,2.8429903559733978,53.495954860671795,51.10360856023999,0.0
0.016,0.8162198039725875,-0.42044573190941475,-0.1334346690088184,0.0,3.134300896825284,2.774955683267129,52.56116085407329,51.10360856023999,0.0
0.017,0.7520292757660106,-0.3832258642931999,0.31938681135209923,0.0,3.1363167632226263,2.772796078267227,52.065660025753786,51.10360856023999,0.0
0.018000000000000002,0.7275348993207881,-0.3646762966398136,0.5575167108567147,0.0,3.136246828714534,2.7947725706758586,52.633323768570406,51.10360856023999,0.0
0.019,0.7292985773739614,-0.36054535632156426,0.25838768736510054,0.0,3.138112629139641,2.7788199804633935,53.09492072509733,51.10360856023999,0.0
0.02,0.7193807165369653,-0.3559697148002057,0.007676087453064362,0.0,3.1377345793368234,2.741170845031877,52.22604256078105,51.10360856023999,0.0
0.021,0.6968703036208708,-0.3435185936768706,0.43089082960579295,0.0,3.1323055540627824,2.758686522611552,51.672055655424614,51.10360856023999,0.0
0.022,0.6995406723223954,-0.34014283677660717,0.7021998113321661,0.0,3.128924177026317,2.7990007257879004,52.36851400796643,51.10360856023999,0.0
0.023,0.7211345946241635,-0.3468978251318924,0.34132158058399287,0.0,3.130689164299217,2.7901870479772257,52.86661004618143,51.10360856023999,0.0
0.024,0.722145490137475,-0.348080592797759,0.0746435466170805,0.0,3.131458839623453,2.756810175962583,51.974823439720154,51.10360856023999,0.0
0.025,0.7056125669882967,-0.3385024392334057,0.5118247010529158,0.0,3.1277484356450644,2.7794333965109814,51.43660978624592,51.10360856023999,0.0
0.026000000000000002,0.7129887264762688,-0.33649496730559114,0.7776015155299751,0.0,3.126546353742937,2.823310185879651,52.29560170244499,51.10360856023999,0.0
0.027,0.7374126845828022,-0.34445546757144896,0.3361856260083884,0.0,3.130747888716411,2.8088526983322577,52.75316589067249,51.10360856023999,0.0
0.028,0.7358492117421117,-0.34477529120468736,0.09090795859031298,0.0,3.133039097034797,2.7741109501097196,51.70605183862102,51.10360856023999,0.0
0.029,0.7181361885658256,-0.3330783603546332,0.6084405518322374,0.0,3.130337149069253,2.8043866572930503,51.304492461090426,51.10360856023999,0.0
0.03,0.7290931365459362,-0.331235452772217,0.807211401589031,0.0,3.13084721609303,2.8466716719927474,52.28311030997547,51.10360856023999,0.0
0.031,0.7527283621786672,-0.3401658300718241,0.3061074596491542,0.0,3.13653554846318,2.825179744474098,52.39017658319839,51.10360856023999,0.0
0.032,0.7474257717685778,-0.33842471286042713,0.23970864280811055,0.0,3.139225028178201,2.8049326497126494,51.380311804049896,51.10360856023999,0.0
0.033,0.7362592932043007,-0.3280786738085658,0.7418739999442583,0.0,3.1385001973219833,2.844056676590205,51.56572304814297,51.10360856023999,0.0
0.034,0.7537053335398491,-0.3282201556254243,0.644547233018691,0.0,3.1418792756295173,2.8614374905386555,52.564425425487414,51.10360856023999,0.0
0.035,0.7665614159629248,-0.331872075142194,0.1305878756939951,0.0,3.1470588238298176,2.8206161606233717,51.72729991528619,51.10360856023999,0.0
0.036000000000000004,0.7483711690733589,-0.3232233629275228,0.5429137172441459,0.0,3.146650406679779,2.837019842645492,50.83323768294685,51.10360856023999,0.0
0.037,0.7526756327784366,-0.3176032803258522,0.9926485421867457,0.0,3.147391477482919,2.896434493602127,52.001647881209294,51.10360856023999,0.0
0.038,0.7835878118297822,-0.3272324717107658,0.39946304984583136,0.0,3.1551153181797646,2.876876739077888,52.33026159562673,51.10360856023999,0.0
0.039,0.781157415934774,-0.3265887580722106,0.2228896622832458,0.0,3.159943898940412,2.8471323917062463,51.13455530085563,51.10360856023999,0.0
0.04,0.7666470804871401,-0.31307587111812474,0.8204333422626391,0.0,3.1598352064592676,2.889912708761484,51.438364687898996,51.10360856023999,0.0
0.041,0.7847865375427721,-0.3127404630705359,0.6651810874643663,0.0,3.164113648916067,2.903210496404882,52.422030511893105,51.10360856023999,0.0
0.042,0.7954315252356229,-0.3158789282254004,0.1601639559507808,0.0,3.1696426111390377,2.8606174335354515,51.13592150150538,51.10360856023999,0.0
0.043000000000000003,0.777028175889989,-0.3044743839876469,0.8028953317319899,0.0,3.1690734863350656,2.9007180141312787,50.93369781049164,51.10360856023999,0.0
0.044,0.7940368946851735,-0.3021265655850213,0.9057062847363446,0.0,3.1724271174891623,2.939578522698867,52.00627977181005,51.10360856023999,0.0
0.045,0.8170370726779863,-0.3110000423001615,0.3603885919614376,0.0,3.1803309970073017,2.9115153553985644,51.285213908444554,51.10360856023999,0.0
0.046,0.8093023652038198,-0.305528440729255,0.7191054701621398,0.0,3.183947560903645,2.93304174591202,50.72777093031446,51.10360856023999,0.0
0.047,0.8201742608951365,-0.30008457286288764,1.0015853355264404,0.0,3.188810998012107,2.978989514571041,51.96109110870523,51.10360856023999,0.0
0.048,0.8444598759988544,-0.3086320620506273,0.37635042084640324,0.0,3.19877753076494,2.946665512102066,51.268291220942395,51.10360856023999,0.0
0.049,0.8347077514829523,-0.3016100444589188,0.7211035381207983,0.0,3.203657113168627,2.96406134505004,50.7489472040349,51.10360856023999,0.0
0.05,0.8429170810041244,-0.29387272951738075,0.9843221601365972,0.0,3.20900743615909,3.0047115227000925,51.93813535607605,51.10360856023999,0.0
0.051000000000000004,0.8634203629453494,-0.3005766566416322,0.38138281615765934,0.0,3.218702549748597,2.970702933108022,51.07733594236235,51.10360856023999,0.0
0.052000000000000005,0.8522321056990235,-0.2916152501163652,0.8120452491932856,0.0,3.2229744990309235,2.9959027160243252,50.986228754045875,51.10360856023999,0.0
0.053,0.8640617813070995,-0.2851185736392521,0.8587726414134657,0.0,3.228714211329418,3.0184299575017426,51.99098607815579,51.10360856023999,0.0
0.054,0.8763968004079292,-0.2890077210809951,0.34752020417934903,0.0,3.2366254495291673,2.9813348486983022,50.667470699130995,51.10360856023999,0.0
0.055,0.8626338465914455,-0.27648443155980773,1.0136392723028378,0.0,3.2386195997068494,3.0287632715719273,51.270463198664416,51.10360856023999,0.0
0.056,0.8841976559511203,-0.27601343972219217,0.7104744761518831,0.0,3.2452306009472007,3.0291293003503896,51.5427562249633,51.10360856023999,0.0
0.057,0.8884709593508728,-0.2778815120524639,0.5699364863552088,0.0,3.251427302816068,3.01743787017854,50.352735464743475,51.10360856023999,0.0
0.058,0.8873102247537207,-0.2668614200570405,1.1724555974200856,0.0,3.254604300638066,3.0753881491655504,51.53288813317567,51.10360856023999,0.0
0.059000000000000004,0.9158304845427494,-0.2736206601782217,0.5780864674746324,0.0,3.264112343909849,3.053306468708645,50.76552139871257,51.10360856023999,0.0
0.06,0.9128484303545423,-0.26931286621279993,0.9651507063214545,0.0,3.269919965071354,3.083517746755806,50.93945020673679,51.10360856023999,0.0
0.061,0.9304873072474347,-0.26491999663022786,0.8798278858443792,0.0,3.2777278142069957,3.096062409473357,51.49117946224752,51.10360856023999,0.0
0.062,0.9391200503831263,-0.2682008236722109,0.6000875490689359,0.0,3.2864141643712728,3.0774419690161903,50.31502217955858,51.10360856023999,0.0
0.063,0.9356201178855438,-0.2558405672449769,1.1960520542202202,0.0,3.2909773989959894,3.1303770265616535,51.408031702189874,51.10360856023999,0.0
0.064,0.9606957273679266,-0.2607292848127252,0.6465030614850757,0.0,3.3010391774095056,3.109271551194626,50.482684248422416,51.10360856023999,0.0
0.065,0.9579058727619877,-0.25447490420711777,1.1153860314869806,0.0,3.3072473614026734,3.148913057934693,51.15481131667314,51.10360856023999,0.0
0.066,0.9792581302475094,-0.25345301999777853,0.7788104697972871,0.0,3.3167490142135594,3.1411224440447154,50.72333183174267,51.10360856023999,0.0
0.067,0.9798024175431848,-0.2517397921913853,0.9983529795474954,0.0,3.3243432041377496,3.162730139486576,50.71534638479961,51.10360856023999,0.0
0.068,0.9951229743828546,-0.24482786992308786,1.0062283247734292,0.0,3.3325955654422588,3.1799275288746136,51.16212911098508,51.10360856023999,0.0
0.069,1.005399598275419,-0.2483643423975167,0.7822517561732445,0.0,3.3422005607499905,3.170537016396233,50.18919245433697,51.10360856023999,0.0
0.07,1.0080195586277263,-0.23675135420412258,1.2778642455563292,0.0,3.3485932118530934,3.219617764814777,51.35262698888521,51.10360856023999,0.0
0.07100000000000001,1.031783026482506,-0.24335075695979325,0.6936567939957548,0.0,3.3600967368727974,3.19262297707578,50.08325230598072,51.10360856023999,0.0
0.07200000000000001,1.0280110258608386,-0.23217684350007023,1.338547697990593,0.0,3.3664553061085045,3.2469106493146205,51.34683736772999,51.10360856023999,0.0
0.073,1.054090181331457,-0.23693685681795934,0.7043228790410591,0.0,3.37824212624409,3.217285345020769,49.97410193325402,51.10360856023999,0.0
0.074,1.0487694962429428,-0.2263181209808537,1.401985662548904,0.0,3.3846720728614734,3.275732474459661,51.333075699614454,51.10360856023999,0.0
0.075,1.0769764397127504,-0.23137537372666206,0.7202041079749415,0.0,3.3969662229214173,3.2438493161456243,49.85284938196323,51.10360856023999,0.0
0.076,1.0712411550171435,-0.22036301299113992,1.4728248585833206,0.0,3.4035807099355964,3.30690293753286,51.30149796425256,51.10360856023999,0.0
0.077,1.1013961343481378,-0.22676045129245392,0.7465216733985298,0.0,3.4166529522075813,3.273518687033015,49.83004326025598,51.10360856023999,0.0
0.078,1.0961640167560989,-0.21473197485152784,1.4949846783966625,0.0,3.423692438410868,3.335251130940428,51.235708327242776,51.10360856023999,0.0
0.079,1.1251437572343255,-0.22160243353973325,0.790831147233235,0.0,3.43707725560468,3.303332667970947,49.84710661395919,51.10360856023999,0.0
0.08,1.1211611931978354,-0.20851157910627238,1.4976970233378353,0.0,3.4444230462075995,3.3614691941497314,51.11625448421623,51.10360856023999,0.0
0.081,1.1479760054614205,-0.21562628497835346,0.8629966289695548,0.0,3.457761436558368,3.3346514896400126,49.937479002444675,51.10360856023999,0.0
0.082,1.1468079003291833,-0.20224225764561993,1.464045665433284,0.0,3.465540827357768,3.384708432258218,50.89337407430852,51.10360856023999,0.0
0.083,1.1698359884354952,-0.20873498196572876,0.9882004743606774,0.0,3.4783960132875866,3.369639387568903,50.084820290247684,51.10360856023999,0.0
0.084,1.174260125346346,-0.19641982316480988,1.4026652490910174,0.0,3.4870391814441906,3.407455968893433,50.59388799621601,51.10360856023999,0.0
0.085,1.1922908946347244,-0.20184466273508656,1.1532286017470936,0.0,3.4993195748583252,3.4088333866934217,50.42308542995569,51.10360856023999,0.0
0.08600000000000001,1.2040600555624312,-0.19180635915617972,1.245435116180097,0.0,3.5093512089216636,3.4228238851067316,50.016757241769,51.10360856023999,0.0
0.08700000000000001,1.2123694983789535,-0.1929582339142683,1.4594677234581526,0.0,3.5200058186791785,3.4582436716407603,50.93099747082983,51.10360856023999,0.0
0.088,1.236939043165542,-0.19136389216370858,1.004073719821839,0.0,3.5329500497742012,3.4363337185260017,49.62913187776957,51.10360856023999,0.0
0.089,1.2353012465175,-0.18039250369386012,1.669751283176675,0.0,3.541217953134068,3.496113508916768,50.7181710416602,51.10360856023999,0.0
0.09,1.2640758888055266,-0.18886620831451206,1.1290860764171566,0.0,3.5556788665899974,3.481430573609187,50.1889218848718,51.10360856023999,0.0
0.091,1.2712089409239216,-0.17643878657595852,1.4028575215650365,0.0,3.5657736417321253,3.504686644901674,49.91673864557246,51.10360856023999,0.0
0.092,1.2828367403018692,-0.17878966640867033,1.5508178403613841,0.0,3.577567417488275,3.5389567797848547,50.83737406028537,51.10360856023999,0.0
0.093,1.3078959438774809,-0.17756165924635792,1.0931624780044746,0.0,3.5914502395709462,3.516517351308571,49.69373566445865,51.10360856023999,0.0
0.094,1.3072697976602854,-0.1647372269246633,1.679080404875648,0.0,3.600302429113958,3.567057141587227,50.244287777568985,51.10360856023999,0.0
0.095,1.3311942263036256,-0.17182463887425492,1.4123975561471904,0.0,3.6142312383682054,3.5755959305505387,50.67511566051819,51.10360856023999,0.0
0.096,1.3483736408140155,-0.16471967353158756,1.2012685436698072,0.0,3.6267686252861715,3.562465867348007,49.43100055958548,51.10360856023999,0.0
0.097,1.3483892534540212,-0.15496201958996192,1.8400521741427074,0.0,3.6357369749119357,3.6244501153890214,50.289258577146754,51.10360856023999,0.0
0.098,1.3792281834434235,-0.16457014287554006,1.4190666651930017,0.0,3.6511613844800523,3.6250444051268795,50.58455118154418,51.10360856023999,0.0
0.099,1.3949112924856493,-0.15610554188229253,1.2766109367812475,0.0,3.664075594723032,3.6142446791172165,49.396441312800235,51.10360856023999,0.0
0.1,1.3957570444791063,-0.14615005864692254,1.887737543627617,0.0,3.6736079541947877,3.6745286291411783,50.081974948129115,51.10360856023999,0.0
0.101,1.4259762800017823,-0.15555235890090446,1.5551870620842854,0.0,3.689349280582057,3.6837299426841286,50.83069453270478,51.10360856023999,0.0
0.10200000000000001,1.443819231627305,-0.15247837404202058,1.1835564100718037,0.0,3.704004444347879,3.6543708582819927,50.240950293777615,51.10360856023999,0.0
0.10300000000000001,1.4325767092967476,-0.14557874953984518,1.4870551122000113,0.0,3.713529964450253,3.6679294694234943,50.43815120527878,51.10360856023999,0.0
0.10400000000000001,1.42991509576954,-0.15420023190303422,1.3951092299990417,0.0,3.7244761529615116,3.668116089662383,51.68655468925922,51.10360856023999,0.0
0.105,1.4282649654625876,-0.1566584381378462,0.7650780267186299,0.0,3.7345305725077305,3.6011495913881655,50.8339882472997,51.10360856023999,0.0
0.106,1.393352368708927,-0.14177488381436099,1.1940574508277915,0.0,3.7352211272339755,3.5991971179206357,50.836058992672484,51.10360856023999,0.0
0.107,1.3762267678809113,-0.14581651546513708,1.1956975738170748,0.0,3.736240794165663,3.59493425668376,51.99849536184393,51.10360856023999,0.0
0.108,1.369501686180623,-0.14729473955325167,0.6055305212153128,0.0,3.7368543966136794,3.5268333742264044,50.96360749658264,51.10360856023999,0.0
0.109,1.3336400388707452,-0.1348250489102515,1.1243744644825313,0.0,3.729210102359547,3.5324559749320814,51.24513907055827,51.10360856023999,0.0
0.11,1.3220884921217033,-0.14281928675206146,0.9821933723915348,0.0,3.7238965606704255,3.516835580248391,51.905885013917725,51.10360856023999,0.0
0.111,1.314318519235237,-0.142226097516582,0.6437976361750284,0.0,3.7174071404875257,3.4671833323512735,50.93622941887193,51.10360856023999,0.0
0.112,1.286550442475551,-0.13871402122760845,1.1302992251116057,0.0,3.7062210410337713,3.4817232880854663,51.82292654603,51.10360856023999,0.0
0.113,1.284730205613286,-0.15000122286462303,0.679757481674673,0.0,3.698884260041772,3.4391885759206886,51.359335981164314,51.10360856023999,0.0
0.114,1.267105970378835,-0.14508411392878817,0.9089954898982713,0.0,3.6873739319331853,3.4318157187193217,51.22453953703291,51.10360856023999,0.0
0.115,1.2562628757473184,-0.1537760743476403,0.9751844021960439,0.0,3.6772826376507513,3.4300340127548723,52.02665342434207,51.10360856023999,0.0
0.116,1.2558554248026361,-0.15871531260210836,0.5648970099004422,0.0,3.668478698803919,3.3815642343407326,51.04332572948723,51.10360856023999,0.0
0.117,1.232039916058379,-0.15712407451170363,1.0571636856353914,0.0,3.655483747427866,3.397928879589543,52.01834797481729,51.10360856023999,0.0
0.11800000000000001,1.2332694960571748,-0.1688596515091061,0.5605051688245888,0.0,3.646731581564919,3.351429052682022,51.2176062711558,51.10360856023999,0.0
0.11900000000000001,1.2138775427290158,-0.16490296117148473,0.9597360435461739,0.0,3.633652057890401,3.359731383932523,51.786616737236386,51.10360856023999,0.0
0.12,1.2108925177265466,-0.17684552170984824,0.6684007287359179,0.0,3.624063968270981,3.32999076953117,51.412389861791596,51.10360856023999,0.0
0.121,1.1994284743737245,-0.17523986493495303,0.8524263534427972,0.0,3.612164578322747,3.326652773992656,51.626772495569874,51.10360856023999,0.0
0.122,1.1926008342919916,-0.18593614047074825,0.740003397200359,0.0,3.602313974692172,3.3088882575548957,51.62109383838433,51.10360856023999,0.0
0.123,1.1857958431637843,-0.1864580232343268,0.7376678730116862,0.0,3.591622424129511,3.2934627269228076,51.519678379022395,51.10360856023999,0.0
0.124,1.1743951671034076,-0.19446107238413068,0.7842149045048312,0.0,3.581332592138751,3.284840147459156,51.78255557275533,51.10360856023999,0.0
0.125,1.1702950870109499,-0.196503333721527,0.6459868375132112,0.0,3.5713541036563186,3.26071728710835,51.46197307389363,51.10360856023999,0.0
0.126,1.1554140081396227,-0.20250309294831215,0.802694441807523,0.0,3.5606007288886206,3.258224898961594,51.91447850826234,51.10360856023999,0.0
0.127,1.152960283638432,-0.20554859469147385,0.5683330251429445,0.0,3.5509484603824966,3.227680679183113,51.4198424275795,51.10360856023999,0.0
0.128,1.135444895723267,-0.20996789235396118,0.8124887268109683,0.0,3.5396626644745783,3.2303285513076534,51.99649223363711,51.10360856023999,0.0
0.129,1.1344998679163925,-0.21390691577719362,0.5152349870481922,0.0,3.530159334969839,3.1963723874179677,51.41708900299159,51.10360856023999,0.0
0.13,1.1158312320006454,-0.2174909713260631,0.8018017979434386,0.0,3.5185655779027463,3.201400493235544,52.00172862412922,51.10360856023999,0.0
0.131,1.115603750506902,-0.22172105305404388,0.5005007867357298,0.0,3.50906347555871,3.1685959700280066,51.487430945137994,51.10360856023999,0.0
0.132,1.0976711619550006,-0.22562346650276344,0.7538114023823632,0.0,3.4976180957904024,3.170969176665798,51.89469523696012,51.10360856023999,0.0
0.133,1.0963765603296527,-0.22900572720264062,0.5422683897041003,0.0,3.487887599205206,3.146120767405175,51.66723069778582,51.10360856023999,0.0
0.134,1.081811328562376,-0.23480349407449713,0.6503644379157917,0.0,3.4772492431013697,3.1383793743203077,51.63343957812139,51.10360856023999,0.0
0.135,1.076428570005737,-0.23617421927071253,0.6619616875691919,0.0,3.466993385402298,3.1309894730368613,52.07493836872969,51.10360856023999,0.0
