timestamp,iq,id,iq_ref,id_ref,vq,vd,omega,omega_ref,r
0.0,0.0,0.0,0.0,0.0,0.0,0.0,0.0,384.0941068290742,0.0
0.001,0.0,0.0,10.0,0.0,0.0,1.0999999999999999,6.115472199294103,384.0941068290742,0.0
0.002,0.5307369851907212,-0.2913212625381807,10.0,0.0,0.14204533887919985,1.9316189316290207,13.317801563642547,384.0941068290742,0.0
0.003,1.0842913387634832,-0.6024330830807904,10.0,0.0,0.384357124667687,2.6386968949419622,20.697939467553027,384.0941068290742,0.0
0.004,1.5590443546685477,-0.8700465084428163,10.0,0.0,0.6994718867930164,3.2526109522886295,28.232747544420146,384.0941068290742,0.0
0.005,1.9399447555359186,-1.0838738622210777,10.0,0.0,1.065311453102468,3.7994935661768023,35.92944872443006,384.0941068290742,0.0
0.006,2.239750732602683,-1.2510087368845633,10.0,0.0,1.4655018868449925,4.299102221838433,43.75633668444442,384.0941068290742,0.0
0.007,2.4770151619816017,-1.382020589851471,10.0,0.0,1.8883740978591532,4.765668027847139,51.58766747378032,384.0941068290742,0.0
0.008,2.6680767290418097,-1.4872241871505252,10.0,0.0,2.325877945545995,5.209220346273558,59.45942083902103,384.0941068290742,0.0
0.009000000000000001,2.8266491704841292,-1.5730794701170803,10.0,0.0,2.772378685460125,5.636635464737965,67.35059094018146,384.0941068290742,0.0
0.01,2.962077666392183,-1.645500646948331,10.0,0.0,3.224078639851053,6.052647735211881,75.20908322432116,384.0941068290742,0.0
0.011,3.0811061533574158,-1.7084279320504514,10.0,0.0,3.678407615443203,6.460489925470405,83.0265951655913,384.0941068290742,0.0
0.012,3.188848746459569,-1.7638278597420747,10.0,0.0,4.133552631697047,6.862319393890706,90.74118064793086,384.0941068290742,0.0
0.013000000000000001,3.288205119878689,-1.8140726097274587,10.0,0.0,4.588339016389012,7.259628641949282,98.35820682563939,384.0941068290742,0.0
0.014,3.3820602099432007,-1.8592355758795645,10.0,0.0,5.041843166194517,7.653355107498287,105.90865295623543,384.0941068290742,0.0
0.015,3.4721069852858886,-1.899829032412081,10.0,0.0,5.493383198131427,8.044092747085895,113.37727610343421,384.0941068290742,0.0
0.016,3.5596145800153947,-1.9360338400176071,10.0,0.0,5.94241958510469,8.43218525824161,120.68508583176356,384.0941068290742,0.0
0.017,3.645144415105338,-1.9685384477868613,10.0,0.0,6.388575043274759,8.817838951066484,127.83962377537456,384.0941068290742,0.0
0.018000000000000002,3.730251927866576,-1.9959253041084188,10.0,0.0,6.83136783302799,9.201036292373047,134.85405702603322,384.0941068290742,0.0
0.019,3.81544967906247,-2.018253592643655,10.0,0.0,7.270383321112213,9.581672501020332,141.68976328564074,384.0941068290742,0.0
0.02,3.9014648862453374,-2.0350875541282063,10.0,0.0,7.705189334130692,9.959536942333155,148.3432823300447,384.0941068290742,0.0
0.021,3.9891051824829464,-2.0457889559126508,10.0,0.0,8.135310004560049,10.334315260302239,154.92060212100432,384.0941068290742,0.0
0.022,4.079618141396171,-2.0489696811670974,10.0,0.0,8.560139305503519,10.705547790999272,161.01925282597162,384.0941068290742,0.0
0.023,4.171109372430197,-2.048468292080302,10.0,0.0,8.979521969370257,11.072981092896333,166.534238406907,384.0941068290742,0.0
0.024,4.266936196769627,-2.039517194249811,10.0,0.0,9.392730090169543,11.435983292623375,171.8647834235234,384.0941068290742,0.0
0.025,4.367255527950721,-2.0225841458509217,10.0,0.0,9.79914449451603,11.793929226271104,177.02637022703064,384.0941068290742,0.0
0.026000000000000002,4.4734353073349595,-1.9962166741499119,10.0,0.0,10.197980960389518,12.146045424568259,181.63161391243256,384.0941068290742,0.0
0.027,4.582366840795821,-1.966358349113627,10.0,0.0,10.589124658468391,12.491912978736195,185.74793639675826,384.0941068290742,0.0
0.028,4.700058850757774,-1.9240450691803936,10.0,0.0,10.971384864613876,12.830451341534015,189.43662766964098,384.0941068290742,0.0
0.029,4.820934284790598,-1.879137197786803,10.0,0.0,11.344756153370636,13.161242511022618,192.73598774770625,384.0941068290742,0.0
0.03,4.952016225740939,-1.821000614527957,10.0,0.0,11.707923484756042,13.483081433273819,195.59831968863915,384.0941068290742,0.0
0.031,5.086039273572549,-1.7621311371320891,10.0,0.0,12.061063698547066,13.79562148058647,197.80891551030922,384.0941068290742,0.0
0.032,5.230431844273564,-1.6911110488141978,10.0,0.0,12.40292038074925,14.097678592248165,200.4421589734679,384.0941068290742,0.0
0.033,5.380124186618445,-1.6166151787533525,10.0,0.0,12.733312761073865,14.38869342901298,201.91742172589852,384.0941068290742,0.0
0.034,5.537594793894332,-1.535029134414507,10.0,0.0,13.051537880865839,14.667821176756876,203.18880493813168,384.0941068290742,0.0
0.035,5.698947813469154,-1.4530296333491768,10.0,0.0,13.357649178779205,14.934684535625108,203.60405746232266,384.0941068290742,0.0
0.036000000000000004,5.870474243492053,-1.3603000477825025,10.0,0.0,13.65045542338638,15.188218311291084,204.28541056101804,384.0941068290742,0.0
0.037,6.041188711220851,-1.275010780747051,10.0,0.0,13.930879897581198,15.42861600670124,205.2233356988433,384.0941068290742,0.0
0.038,6.228175208801664,-1.168399557236846,10.0,0.0,14.196427351981786,15.654155009933262,200.35169734043586,384.0941068290742,0.0
0.039,6.404895489618571,-1.0845312562500289,10.0,0.0,14.449814560392067,15.86612549236809,209.64773540576442,384.0941068290742,0.0
0.04,6.534612624563911,-1.0851225869390002,10.0,0.0,14.699963825590459,16.069735965364643,218.170241886545,384.0941068290742,0.0
0.041,6.621487035821765,-1.1484636683301073,10.0,0.0,14.952420817214799,16.26974130369247,220.68166573712315,384.0941068290742,0.0
0.042,6.6704785161669795,-1.2647840534085386,10.0,0.0,15.211794475054209,16.47047148862455,233.10654395573727,384.0941068290742,0.0
0.043000000000000003,6.709376245503157,-1.3867642159960276,10.0,0.0,15.477558399636717,16.673277185423842,235.10815372853793,384.0941068290742,0.0
0.044,6.744196093263161,-1.5028656568708394,10.0,0.0,15.74857785831126,16.87893749904121,248.8181267625822,384.0941068290742,0.0
0.045,6.750563942850831,-1.6564343609015326,10.0,0.0,16.02879294551472,17.090781462187255,251.61117095327992,384.0941068290742,0.0
0.046,6.764566527560506,-1.7840489455190416,10.0,0.0,16.314672837580048,17.307985931916857,266.60539535969383,384.0941068290742,0.0
0.047,6.752169677737121,-1.9446655565152717,10.0,0.0,16.610076868775216,17.533561623207692,270.0627790167984,384.0941068290742,0.0
0.048,6.7291903821171735,-2.110358990489937,10.0,0.0,16.91511817760721,17.768523902508925,283.13731951482634,384.0941068290742,0.0
0.049,6.714097190323873,-2.246352557911731,10.0,0.0,17.22645394156277,18.011924542904307,294.70561782835244,384.0941068290742,0.0
0.05,6.666841209228205,-2.4219663531358275,10.0,0.0,17.548953774962747,18.267165921658286,300.1294548425776,384.0941068290742,0.0
0.051000000000000004,6.612335516543512,-2.59336894353628,10.0,0.0,17.88182590988993,18.53465621226123,310.75154600411304,384.0941068290742,0.0
0.052000000000000005,6.568447424188529,-2.726701034625408,10.0,0.0,18.22111236450049,18.81296732052879,322.35703405819294,384.0941068290742,0.0
0.053,6.5036136539679195,-2.8764091099274185,10.0,0.0,18.569435851849082,19.104068797231378,330.9557012510771,384.0941068290742,0.0
0.054,6.434362099984388,-3.0149932598739144,10.0,0.0,18.925784313874168,19.407861808234543,339.4707232587175,384.0941068290742,0.0
0.055,6.370891759459199,-3.1253006473392393,10.0,0.0,19.28762520191878,19.723199586257838,348.00092263299223,384.0941068290742,0.0
0.056,6.314459991163816,-3.2071523724558277,10.0,0.0,19.65271639484943,20.048760466390505,356.29964302226927,384.0941068290742,0.0
0.057,6.266092078485367,-3.262894600420583,10.0,0.0,20.01916768432525,20.383030530514645,362.98468703488817,384.0941068290742,0.0
0.058,6.234656406121481,-3.2830044001420036,10.0,0.0,20.38405550695561,20.723492962007192,368.0316803659419,384.0941068290742,0.0
0.059000000000000004,6.228510489334133,-3.2600491726267444,10.0,0.0,20.743774617448285,21.0667596267365,372.35801287012686,384.0941068290742,0.0
0.06,6.247959954981508,-3.201438289803519,10.0,0.0,21.095630838529225,21.40947063565305,373.88739853789605,384.0941068290742,0.0
0.061,6.298571070969623,-3.1064761741463998,10.0,0.0,21.436712814499675,21.747723437683817,371.47602194372377,384.0941068290742,0.0
0.062,6.38094735961424,-2.982369480030801,10.0,0.0,21.76480975788002,22.077703876517536,366.2922057853833,384.0941068290742,0.0
0.063,6.53566146196873,-2.7695519558602215,10.0,0.0,22.070926190088084,22.39130117743337,372.07145994459506,384.0941068290742,0.0
0.064,6.708566607552835,-2.560747003310555,10.0,0.0,22.35695033962817,22.686677966487718,365.1882535794375,384.0941068290742,0.0
0.065,6.897199383751794,-2.3667028673086685,10.0,0.0,22.62465294768497,22.962098937664592,356.7297130485294,384.0941068290742,0.0
0.066,7.167218997264825,-2.0824440278168583,10.0,0.0,22.863799361069702,23.20893224280502,357.7888817172531,384.0941068290742,0.0
0.067,7.423387055578651,-1.859201647307153,10.0,0.0,23.082000390168847,23.42951856849048,345.1266644280509,384.0941068290742,0.0
0.068,7.736929428236853,-1.5824320316278497,10.0,0.0,23.27222771500701,23.617938384108047,342.9584987314189,384.0941068290742,0.0
0.069,8.04132723792414,-1.3546495884062866,10.0,0.0,23.43998591632552,23.77619061530866,334.2677598047511,384.0941068290742,0.0
0.07,8.395997401416553,-1.0747195592463576,10.0,0.0,23.578279041856877,23.89942370363377,322.7417355360636,384.0941068290742,0.0
0.07100000000000001,8.726669482066718,-0.8579631993863083,10.0,0.0,23.694022264374595,23.99133556844291,337.9106389559309,384.0941068290742,0.0
0.07200000000000001,8.91385728821635,-0.8925675486457335,10.0,0.0,23.81335639313859,24.06834663115294,344.8606079910171,384.0941068290742,0.0
0.073,8.941721008651788,-1.1508071676799903,10.0,0.0,23.95651852989837,24.148396869281978,362.43451347602996,384.0941068290742,0.0
0.074,8.927907180207171,-1.4305443375681337,10.0,0.0,24.121558169292424,24.236556455607346,368.59250641149885,384.0941068290742,0.0
0.075,8.859340450140312,-1.7499202918046703,10.0,0.0,24.31124378664675,24.33980824926249,387.10067316750514,384.0941068290742,0.0
0.076,8.767176841935807,-2.0562826706616475,5.3344672927337715,0.0,24.52279212376306,23.947947157090102,392.15149605558526,384.0941068290742,0.0
0.077,8.373326705609678,-2.277738242457985,2.7284819564286007,0.0,24.69529600705952,23.418825826839495,399.6764770479723,384.0941068290742,0.0
0.078,7.828213215590931,-2.3751993280161994,-1.1898322419539014,0.0,24.806143532694712,22.61093629202337,406.13376239076825,384.0941068290742,0.0
0.079,7.077969021235351,-2.3837663454982745,-4.63887146896882,0.0,24.825085113352237,21.631785016743496,406.8776034527696,384.0941068290742,0.0
0.08,6.204068019965685,-2.282632481904231,-5.238626966206457,0.0,24.73300701324584,20.80958698282747,406.6594961199296,384.0941068290742,0.0
0.081,5.395287925592739,-2.1608680480459914,-5.355227192695001,0.0,24.555534170670022,20.133799272719386,404.807150943224,384.0941068290742,0.0
0.082,4.713401475311748,-2.0435879761193583,-4.6361850454836855,0.0,24.316546677767636,19.655023396409828,401.9249539723857,384.0941068290742,0.0
0.083,4.2057336811714,-1.9441731357453658,-3.373395031497668,0.0,24.04381751480264,19.380967431359963,397.864749285547,384.0941068290742,0.0
0.084,3.8821243984286387,-1.8780604074900098,-1.4809991126430528,0.0,23.764677419924826,19.333100140613038,393.18577607134574,384.0941068290742,0.0
0.085,3.7546240747679835,-1.8484412426751629,0.7675708020348706,0.0,23.506067624613014,19.501313243654295,388.5820226562576,384.0941068290742,0.0
0.08600000000000001,3.8153063232689175,-1.8546237307567217,3.0245683513071047,0.0,23.29111638447363,19.844678037561692,383.4083239975333,384.0941068290742,0.0
0.08700000000000001,4.038175867127752,-1.8822462730883118,5.61827550898468,0.0,23.134973402514586,20.371040212576773,381.0840908988459,384.0941068290742,0.0
0.088,4.421460273899266,-1.915517847058608,6.810492217630657,0.0,23.050464583966367,20.89442604896244,383.97150593460753,384.0941068290742,0.0
0.089,4.850290335227545,-1.942672996344502,5.368010708694499,0.0,23.02939958159328,21.14308882410688,375.03472902967457,384.0941068290742,0.0
0.09,5.15958416374001,-1.8971818009806218,9.92699293915498,0.0,23.030031773989062,21.850957661416494,367.7373946512212,384.0941068290742,0.0
0.091,5.705175716789478,-1.8490842500958846,10.0,0.0,23.096551812232548,22.39362165607275,370.4765643257075,384.0941068290742,0.0
0.092,6.22290529682134,-1.8059922282140302,10.0,0.0,23.206427099219162,22.83644684620629,358.95944900282194,384.0941068290742,0.0
0.093,6.707139187651066,-1.7104277711386229,10.0,0.0,23.33951620646097,23.19788861383416,357.8904316776903,384.0941068290742,0.0
0.094,7.1798235965103805,-1.5327638211903398,10.0,0.0,23.476853189817845,23.489342169357215,346.33405249838694,384.0941068290742,0.0
0.095,7.595382499304561,-1.3724199266960015,10.0,0.0,23.613740641496438,23.724399432444883,345.2133067178372,384.0941068290742,0.0
0.096,8.021172750641862,-1.1471197225624956,10.0,0.0,23.737265490806195,23.90695837577248,330.6861547286887,384.0941068290742,0.0
0.097,8.419614248842764,-0.9346361211946239,10.0,0.0,23.84557355540861,24.04404324740956,334.2983681315423,384.0941068290742,0.0
0.098,8.779333664619209,-0.7703376638979087,10.0,0.0,23.94081130642552,24.14266571758978,342.3730948720954,384.0941068290742,0.0
0.099,8.924072549546576,-0.9270934606208896,10.0,0.0,24.055273651571277,24.22862563266942,351.98540979317676,384.0941068290742,0.0
0.1,8.94399477305066,-1.2277964145852192,10.0,0.0,24.198395520679256,24.316691735019496,368.0277351780104,384.0941068290742,0.0
0.101,8.933637626600794,-1.5133242750682254,10.0,0.0,24.364412848224934,24.411601922389895,376.64118738966914,384.0941068290742,0.0
0.10200000000000001,8.84895600677979,-1.861617476383864,10.0,0.0,24.558776435292963,24.52283423049363,391.6630624563426,384.0941068290742,0.0
0.10300000000000001,8.75582460677517,-2.163606980076746,2.4635791620238283,0.0,24.774562807857635,23.822771012118714,398.8023601989574,384.0941068290742,0.0
0.10400000000000001,8.19666360061286,-2.319120672650608,-1.253152242982412,0.0,24.912850832474547,22.94139290334464,402.03646570109896,384.0941068290742,0.0
0.105,7.425361446155651,-2.3068090267038928,-3.0496285827734466,0.0,24.94626282577247,22.080787951511375,406.5822771057861,384.0941068290742,0.0
0.106,6.592179443562358,-2.2553603016998203,-5.54741598788413,0.0,24.884736881266306,21.136729841767668,406.8420096512044,384.0941068290742,0.0
0.107,5.726575833517134,-2.1442088115349183,-5.904761288814598,0.0,24.723245543568286,20.353479416575503,405.3518072973369,384.0941068290742,0.0
0.108,4.9628524988584966,-2.025237760771861,-5.372237116563467,0.0,24.487602996438557,19.769909542801688,402.74600616092414,384.0941068290742,0.0
0.109,4.364906174417074,-1.924606146063413,-4.255855541675584,0.0,24.20728794953413,19.396745995549395,399.4118644582811,384.0941068290742,0.0
0.11,3.9554896839800913,-1.8530120725214876,-2.7419622666461416,0.0,23.910819020652394,19.22728809353991,395.140728034311,384.0941068290742,0.0
0.111,3.7310772997307557,-1.816221156988435,-0.71686026671345,0.0,23.623720134484653,19.27334257344856,390.4475577371451,384.0941068290742,0.0
0.112,3.6944904642514134,-1.8115767366315907,1.5661903727888022,0.0,23.369793607840634,19.518746695155727,385.7142191131503,384.0941068290742,0.0
0.113,3.8308564673611523,-1.837576433830292,3.9166585619454253,0.0,23.16870655692716,19.934572617743115,380.864736776179,384.0941068290742,0.0
0.114,4.122281964784974,-1.8761591427752524,6.373693430960044,0.0,23.033294904375726,20.504783251994926,380.63287138077305,384.0941068290742,0.0
0.115,4.55076663420683,-1.918821614663576,6.524238483146015,0.0,22.972752525322893,20.95220220595457,382.1388336394805,384.0941068290742,0.0
0.116,4.951913639272231,-1.9380738990185942,5.790810085688238,0.0,22.96469740613147,21.226801128507773,370.1205039076413,384.0941068290742,0.0
0.117,5.2844604815178755,-1.863686214535082,10.0,0.0,22.97653252297777,21.910911138839012,367.63350589796283,384.0941068290742,0.0
0.11800000000000001,5.8270133595346225,-1.802512943838141,10.0,0.0,23.049609946240746,22.429346412519262,368.0546078238426,384.0941068290742,0.0
0.11900000000000001,6.327724655308007,-1.763439633670451,10.0,0.0,23.16353682313396,22.853593187402872,354.943465122606,384.0941068290742,0.0
0.12,6.821927866886757,-1.6337107953977226,10.0,0.0,23.2946162507179,23.197452732171516,355.8688162976127,384.0941068290742,0.0
0.121,7.274423463691486,-1.4763202103336401,10.0,0.0,23.430958014045977,23.47520178168895,341.9754609931354,384.0941068290742,0.0
0.122,7.704616690056998,-1.285420169630894,10.0,0.0,23.56201540736635,23.69601380365531,340.2280424983432,384.0941068290742,0.0
0.123,8.105098320298973,-1.09740314068861,10.0,0.0,23.683275390774675,23.86809931569409,330.91651404940325,384.0941068290742,0.0
0.124,8.518446050404096,-0.8588730930633615,10.0,0.0,23.785259792096703,23.993638840860694,330.6593878579417,384.0941068290742,0.0
0.125,8.817700956440582,-0.7920904521748025,10.0,0.0,23.884638915781686,24.08803829127986,345.2054790140432,384.0941068290742,0.0
0.126,8.90143194168418,-1.032333075111882,10.0,0.0,24.01061458707207,24.176717849709195,357.04735171636656,384.0941068290742,0.0
0.127,8.935359690040592,-1.2893328217656013,10.0,0.0,24.158728192978877,24.266232276957858,366.6412333187877,384.0941068290742,0.0
0.128,8.879105642888074,-1.6338461435132485,10.0,0.0,24.336308348945572,24.368133844742673,381.36156473836115,384.0941068290742,0.0
0.129,8.815336491194216,-1.9287445386454927,7.254421801331664,0.0,24.535314336341155,24.182041735706967,391.9643395814031,384.0941068290742,0.0
0.13,8.534989920823163,-2.2120682406152548,1.8743320522873894,0.0,24.724027137358956,23.500305777130077,397.03992658544666,384.0941068290742,0.0
0.131,7.957616216677396,-2.3000025807402085,-0.7929196472981053,0.0,24.832534602811343,22.72672554680102,403.67043135452093,384.0941068290742,0.0
0.132,7.218860693741304,-2.31807031525704,-4.303935277089705,0.0,24.853941406081173,21.757304254250393,405.2982218008157,384.0941068290742,0.0
0.133,6.352996201639831,-2.235906693446502,-5.329871649954519,0.0,24.767046724024652,20.897080465466406,405.50812975253604,384.0941068290742,0.0
0.134,5.526062396386455,-2.1246182364556,-5.648965855049292,0.0,24.59139903724447,20.17165266218024,403.9317839985846,384.0941068290742,0.0
0.135,4.810256761108577,-2.0126693926865165,-5.059169749768675,0.0,24.349571850569014,19.63974066600452,401.13759775028234,384.0941068290742,0.0
0.136,4.260814362955622,-1.9169959297439298,-3.8325115348296297,0.0,24.069331590457526,19.31915220081336,397.5805514596203,384.0941068290742,0.0
0.137,3.897898588932121,-1.8523326129863553,-2.1888528358040844,0.0,23.77890027962417,19.20556074203465,393.11011861441625,384.0941068290742,0.0
0.138,3.719970017575463,-1.823428578987587,-0.043796531055468435,0.0,23.50362014342399,19.309747889691565,388.5176509111947,384.0941068290742,0.0
0.139,3.7305528624625715,-1.825870235875049,2.2082018797340917,0.0,23.266844358207123,19.599314172450985,383.6621927679065,384.0941068290742,0.0
0.14,3.905873236481642,-1.855967281386848,4.640250091989877,0.0,23.08598903822531,20.06207215495979,379.66727430987294,384.0941068290742,0.0
0.14100000000000001,4.237372067483178,-1.8925358336703535,6.681977646198672,0.0,22.973216618788634,20.626026688389963,381.1230723324195,384.0941068290742,0.0
0.14200000000000002,4.672355463198241,-1.9319780845395207,5.98378897989194,0.0,22.93208985671141,20.98055731247898,378.81151122947693,384.0941068290742,0.0
0.14300000000000002,5.026285989940468,-1.9314264629931883,7.192395487359193,0.0,22.93007373237202,21.400868276451348,366.45321756296215,384.0941068290742,0.0
0.14400000000000002,5.428307507831648,-1.8599169861411755,10.0,0.0,22.96242979062554,22.035013901207748,368.4522718829711,384.0941068290742,0.0
0.145,5.9627843833736485,-1.7979037824146848,10.0,0.0,23.048858447887966,22.526132283056732,364.5836357139673,384.0941068290742,0.0
0.146,6.449416490798867,-1.7494929997174768,10.0,0.0,23.17105102354962,22.92859692938572,353.5363208849971,384.0941068290742,0.0
