timestamp,iq,id,iq_ref,id_ref,vq,vd,omega,omega_ref,r
0.0,0.0,0.0,0.0,0.0,0.0,0.0,0.0,362.55208348074245,0.0
0.001,0.0,0.0,10.0,0.0,0.0,1.0999999999999999,6.115472199294103,362.55208348074245,0.0
0.002,0.5307369851907212,-0.2913212625381807,10.0,0.0,0.14204533887919985,1.9316189316290207,13.317801563642547,362.55208348074245,0.0
0.003,1.0842913387634832,-0.6024330830807904,10.0,0.0,0.384357124667687,2.6386968949419622,20.697939467553027,362.55208348074245,0.0
0.004,1.5590443546685477,-0.8700465084428163,10.0,0.0,0.6994718867930164,3.2526109522886295,28.232747544420146,362.55208348074245,0.0
0.005,1.9399447555359186,-1.0838738622210777,10.0,0.0,1.065311453102468,3.7994935661768023,35.92944872443006,362.55208348074245,0.0
0.006,2.239750732602683,-1.2510087368845633,10.0,0.0,1.4655018868449925,4.299102221838433,43.75633668444442,362.55208348074245,0.0
0.007,2.4770151619816017,-1.382020589851471,10.0,0.0,1.8883740978591532,4.765668027847139,51.58766747378032,362.55208348074245,0.0
0.008,2.6680767290418097,-1.4872241871505252,10.0,0.0,2.325877945545995,5.209220346273558,59.45942083902103,362.55208348074245,0.0
0.009000000000000001,2.8266491704841292,-1.5730794701170803,10.0,0.0,2.772378685460125,5.636635464737965,67.35059094018146,362.55208348074245,0.0
0.01,2.962077666392183,-1.645500646948331,10.0,0.0,3.224078639851053,6.052647735211881,75.20908322432116,362.55208348074245,0.0
0.011,3.0811061533574158,-1.7084279320504514,10.0,0.0,3.678407615443203,6.460489925470405,83.0265951655913,362.55208348074245,0.0
0.012,3.188848746459569,-1.7638278597420747,10.0,0.0,4.133552631697047,6.862319393890706,90.74118064793086,362.55208348074245,0.0
0.013000000000000001,3.288205119878689,-1.8140726097274587,10.0,0.0,4.588339016389012,7.259628641949282,98.35820682563939,362.55208348074245,0.0
0.014,3.3820602099432007,-1.8592355758795645,10.0,0.0,5.041843166194517,7.653355107498287,105.90865295623543,362.55208348074245,0.0
0.015,3.4721069852858886,-1.899829032412081,10.0,0.0,5.493383198131427,8.044092747085895,113.37727610343421,362.55208348074245,0.0
0.016,3.5596145800153947,-1.9360338400176071,10.0,0.0,5.94241958510469,8.43218525824161,120.68508583176356,362.55208348074245,0.0
0.017,3.645144415105338,-1.9685384477868613,10.0,0.0,6.388575043274759,8.817838951066484,127.83962377537456,362.55208348074245,0.0
0.018000000000000002,3.730251927866576,-1.9959253041084188,10.0,0.0,6.83136783302799,9.201036292373047,134.85405702603322,362.55208348074245,0.0
0.019,3.81544967906247,-2.018253592643655,10.0,0.0,7.270383321112213,9.581672501020332,141.68976328564074,362.55208348074245,0.0
0.02,3.9014648862453374,-2.0350875541282063,10.0,0.0,7.705189334130692,9.959536942333155,148.3432823300447,362.55208348074245,0.0
0.021,3.9891051824829464,-2.0457889559126508,10.0,0.0,8.135310004560049,10.334315260302239,154.92060212100432,362.55208348074245,0.0
0.022,4.079618141396171,-2.0489696811670974,10.0,0.0,8.560139305503519,10.705547790999272,161.01925282597162,362.55208348074245,0.0
0.023,4.171109372430197,-2.048468292080302,10.0,0.0,8.979521969370257,11.072981092896333,166.534238406907,362.55208348074245,0.0
0.024,4.266936196769627,-2.039517194249811,10.0,0.0,9.392730090169543,11.435983292623375,171.8647834235234,362.55208348074245,0.0
0.025,4.367255527950721,-2.0225841458509217,10.0,0.0,9.79914449451603,11.793929226271104,177.02637022703064,362.55208348074245,0.0
0.026000000000000002,4.4734353073349595,-1.9962166741499119,10.0,0.0,10.197980960389518,12.146045424568259,181.63161391243256,362.55208348074245,0.0
0.027,4.582366840795821,-1.966358349113627,10.0,0.0,10.589124658468391,12.491912978736195,185.74793639675826,362.55208348074245,0.0
0.028,4.700058850757774,-1.9240450691803936,10.0,0.0,10.971384864613876,12.830451341534015,189.43662766964098,362.55208348074245,0.0
0.029,4.820934284790598,-1.879137197786803,10.0,0.0,11.344756153370636,13.161242511022618,192.73598774770625,362.55208348074245,0.0
0.03,4.952016225740939,-1.821000614527957,10.0,0.0,11.707923484756042,13.483081433273819,195.59831968863915,362.55208348074245,0.0
0.031,5.086039273572549,-1.7621311371320891,10.0,0.0,12.061063698547066,13.79562148058647,197.80891551030922,362.55208348074245,0.0
0.032,5.230431844273564,-1.6911110488141978,10.0,0.0,12.40292038074925,14.097678592248165,200.4421589734679,362.55208348074245,0.0
0.033,5.380124186618445,-1.6166151787533525,10.0,0.0,12.733312761073865,14.38869342901298,201.91742172589852,362.55208348074245,0.0
0.034,5.537594793894332,-1.535029134414507,10.0,0.0,13.051537880865839,14.667821176756876,203.18880493813168,362.55208348074245,0.0
0.035,5.698947813469154,-1.4530296333491768,10.0,0.0,13.357649178779205,14.934684535625108,203.60405746232266,362.55208348074245,0.0
0.036000000000000004,5.870474243492053,-1.3603000477825025,10.0,0.0,13.65045542338638,15.188218311291084,204.28541056101804,362.55208348074245,0.0
0.037,6.041188711220851,-1.275010780747051,10.0,0.0,13.930879897581198,15.42861600670124,205.2233356988433,362.55208348074245,0.0
0.038,6.228175208801664,-1.168399557236846,10.0,0.0,14.196427351981786,15.654155009933262,200.35169734043586,362.55208348074245,0.0
0.039,6.404895489618571,-1.0845312562500289,10.0,0.0,14.449814560392067,15.86612549236809,209.64773540576442,362.55208348074245,0.0
0.04,6.534612624563911,-1.0851225869390002,10.0,0.0,14.699963825590459,16.069735965364643,218.170241886545,362.55208348074245,0.0
0.041,6.621487035821765,-1.1484636683301073,10.0,0.0,14.952420817214799,16.26974130369247,220.68166573712315,362.55208348074245,0.0
0.042,6.6704785161669795,-1.2647840534085386,10.0,0.0,15.211794475054209,16.47047148862455,233.10654395573727,362.55208348074245,0.0
0.043000000000000003,6.709376245503157,-1.3867642159960276,10.0,0.0,15.477558399636717,16.673277185423842,235.10815372853793,362.55208348074245,0.0
0.044,6.744196093263161,-1.5028656568708394,10.0,0.0,15.74857785831126,16.87893749904121,248.8181267625822,362.55208348074245,0.0
0.045,6.750563942850831,-1.6564343609015326,10.0,0.0,16.02879294551472,17.090781462187255,251.61117095327992,362.55208348074245,0.0
0.046,6.764566527560506,-1.7840489455190416,10.0,0.0,16.314672837580048,17.307985931916857,266.60539535969383,362.55208348074245,0.0
0.047,6.752169677737121,-1.9446655565152717,10.0,0.0,16.610076868775216,17.533561623207692,270.0627790167984,362.55208348074245,0.0
0.048,6.7291903821171735,-2.110358990489937,10.0,0.0,16.91511817760721,17.768523902508925,283.13731951482634,362.55208348074245,0.0
0.049,6.714097190323873,-2.246352557911731,10.0,0.0,17.22645394156277,18.011924542904307,294.70561782835244,362.55208348074245,0.0
0.05,6.666841209228205,-2.4219663531358275,10.0,0.0,17.548953774962747,18.267165921658286,300.1294548425776,362.55208348074245,0.0
0.051000000000000004,6.612335516543512,-2.59336894353628,10.0,0.0,17.88182590988993,18.53465621226123,310.75154600411304,362.55208348074245,0.0
0.052000000000000005,6.568447424188529,-2.726701034625408,10.0,0.0,18.22111236450049,18.81296732052879,322.35703405819294,362.55208348074245,0.0
0.053,6.5036136539679195,-2.8764091099274185,10.0,0.0,18.569435851849082,19.104068797231378,330.9557012510771,362.55208348074245,0.0
0.054,6.434362099984388,-3.0149932598739144,10.0,0.0,18.925784313874168,19.407861808234543,339.4707232587175,362.55208348074245,0.0
0.055,6.370891759459199,-3.1253006473392393,10.0,0.0,19.28762520191878,19.723199586257838,348.00092263299223,362.55208348074245,0.0
0.056,6.314459991163816,-3.2071523724558277,10.0,0.0,19.65271639484943,20.048760466390505,356.29964302226927,362.55208348074245,0.0
0.057,6.266092078485367,-3.262894600420583,8.86779008835643,0.0,20.019167684325247,20.258487440233854,362.4885932002615,362.55208348074245,0.0
0.058,6.174867294749003,-3.2533246534300293,5.773949902165119,0.0,20.368336425789213,20.16443757136006,363.787009361746,362.55208348074245,0.0
0.059000000000000004,5.938854927948893,-3.127529587202558,5.112392562612827,0.0,20.65944154840427,20.097925770541835,359.187377977767,362.55208348074245,0.0
0.06,5.71015839590738,-2.930436220018054,7.4458553096320745,0.0,20.89436265894799,20.35326863249116,358.4605750589827,362.55208348074245,0.0
0.061,5.687616697076667,-2.7483968657869933,7.850171853241823,0.0,21.113272549338696,20.627902133177763,363.2548887886422,362.55208348074245,0.0
0.062,5.752261636579961,-2.5974280595151007,5.445986935333101,0.0,21.322968625611395,20.62112340609505,358.7590267815903,362.55208348074245,0.0
0.063,5.728515924919458,-2.396965205281903,7.731848505850558,0.0,21.49047599564562,20.91473725896157,347.62664652830017,362.55208348074245,0.0
0.064,5.886114850004452,-2.1879269379172412,10.0,0.0,21.649604433095288,21.404805173320174,353.40328754857023,362.55208348074245,0.0
0.065,6.21040198437762,-2.0420247162578082,10.0,0.0,21.827867956526966,21.805002029516192,348.18667077345293,362.55208348074245,0.0
0.066,6.541721959299056,-1.9340422283292698,10.0,0.0,22.017905761779527,22.149803226538147,340.20535918178865,362.55208348074245,0.0
0.067,6.924682056340875,-1.7292165451079067,10.0,0.0,22.201968905933963,22.440315673457782,339.4008503130354,362.55208348074245,0.0
0.068,7.260970474601616,-1.5740784427224486,10.0,0.0,22.381660045934737,22.68702106506263,329.72087842303534,362.55208348074245,0.0
0.069,7.634033659329379,-1.341320051753245,10.0,0.0,22.54400056911316,22.889350965369626,323.69412554079963,362.55208348074245,0.0
0.07,7.963193479275832,-1.1690777587874104,10.0,0.0,22.69372096168789,23.055204979616928,321.4423014142333,362.55208348074245,0.0
0.07100000000000001,8.330147638961467,-0.9313271500681104,10.0,0.0,22.820624572400412,23.18237227233102,316.8758979157053,362.55208348074245,0.0
0.07200000000000001,8.61390137084665,-0.8306084935256058,10.0,0.0,22.938853005180608,23.28196982793445,331.3938019564223,362.55208348074245,0.0
0.073,8.694914043749318,-1.0357787751896652,10.0,0.0,23.078794267791594,23.377356614555104,342.18266627561707,362.55208348074245,0.0
0.074,8.731127451618582,-1.2639144695982212,10.0,0.0,23.237323306371856,23.474025500638206,351.16980397809084,362.55208348074245,0.0
0.075,8.683473484627541,-1.5811119998513614,10.0,0.0,23.422276701086158,23.58248447241872,365.7026091442228,362.55208348074245,0.0
0.076,8.633263280656784,-1.850413712682643,5.069758289793731,0.0,23.62603186661599,23.16131288113681,372.3057304183515,362.55208348074245,0.0
0.077,8.253694538133164,-2.052396166638705,1.6706611833532712,0.0,23.7868194092715,22.519286160567564,378.1729217607874,362.55208348074245,0.0
0.078,7.68255965106267,-2.1069108789618354,-1.4191428706651212,0.0,23.871302319420522,21.7106825415957,383.8544531829332,362.55208348074245,0.0
0.079,6.94562756902544,-2.105075320507285,-4.472932278759919,0.0,23.865729518104228,20.761719961339068,384.72050178531276,362.55208348074245,0.0
0.08,6.111570194734419,-2.01897200642968,-5.127640762995411,0.0,23.7563647299299,19.949993310143153,385.078862237158,362.55208348074245,0.0
0.081,5.3358195752930175,-1.9249352940033737,-5.532088776482174,0.0,23.5672807502273,19.24755264300386,383.8228502136428,362.55208348074245,0.0
0.082,4.660406582677694,-1.8367303961615136,-5.1167904320536,0.0,23.318098930142696,18.712712865623523,381.4028286032049,362.55208348074245,0.0
0.083,4.129450932830663,-1.7660263781778678,-4.095287078059268,0.0,23.03345592132873,18.36630226102486,378.52509338850535,362.55208348074245,0.0
0.084,3.7635718956065087,-1.7217468335272679,-2.816149569787118,0.0,22.738472443204557,18.19149564597084,374.929859079593,362.55208348074245,0.0
0.085,3.5544231211680852,-1.7059512680790732,-1.1423101713194335,0.0,22.45421193463461,18.195349878174518,370.87795897332535,362.55208348074245,0.0
0.08600000000000001,3.499948675439592,-1.7167565553129653,0.8003811268885492,0.0,22.200109437392236,18.371250986404796,366.9088455294833,362.55208348074245,0.0
0.08700000000000001,3.5915690388768082,-1.7514125992200134,2.7413702283221646,0.0,21.992711412654568,18.687610637828037,362.4072813724101,362.55208348074245,0.0
0.088,3.809345730603044,-1.7971817171640652,4.993600327942076,0.0,21.842377198067762,19.156890709123534,360.2738463369894,362.55208348074245,0.0
0.089,4.156121470325423,-1.8419326955863817,6.08310021708998,0.0,21.7584693285162,19.62556447418866,363.12680310103514,362.55208348074245,0.0
0.09,4.538245925239451,-1.8774726004883693,4.650874638864174,0.0,21.733281502181303,19.831974330652493,356.12675121740926,362.55208348074245,0.0
0.091,4.798748587110449,-1.8462253034041531,8.215153903310442,0.0,21.727460842397996,20.39678334545113,347.52822808579583,362.55208348074245,0.0
0.092,5.239371210581465,-1.7993091881392465,10.0,0.0,21.773854850364586,21.019356208819858,352.2557902948266,362.55208348074245,0.0
0.093,5.750074027211462,-1.7881093258833887,10.0,0.0,21.877103920175887,21.51469164208688,345.1975720508519,362.55208348074245,0.0
0.094,6.225032274168148,-1.7537680853475828,10.0,0.0,22.01589608849639,21.923680060009392,340.54497794305934,362.55208348074245,0.0
0.095,6.697865030634436,-1.6132091792787655,10.0,0.0,22.166589814514882,22.258386832229995,337.14426220361264,362.55208348074245,0.0
0.096,7.093314854404453,-1.5049094702837356,10.0,0.0,22.325177466224815,22.535921146780332,329.97816604414294,362.55208348074245,0.0
0.097,7.51042935885731,-1.29663849918935,10.0,0.0,22.473832974488353,22.759632697794522,321.75442361812753,362.55208348074245,0.0
0.098,7.867764697002165,-1.1421215678173735,10.0,0.0,22.61507993428698,22.940702902382245,321.1675322903231,362.55208348074245,0.0
0.099,8.248222834527956,-0.9246177297943485,10.0,0.0,22.737928965695716,23.079513740744655,315.87778024902286,362.55208348074245,0.0
0.1,8.554209798710628,-0.8151071841175694,10.0,0.0,22.852503056155605,23.186874413726876,330.14406152662605,362.55208348074245,0.0
0.101,8.652089358616612,-1.0133920597079702,10.0,0.0,22.989262246639427,23.28724954650902,339.9043322301537,362.55208348074245,0.0
0.10200000000000001,8.697685378970286,-1.2410233551867047,10.0,0.0,23.145439625099847,23.387226318421504,349.41893167177886,362.55208348074245,0.0
0.10300000000000001,8.657596410015046,-1.5569044166799217,10.0,0.0,23.328467546714933,23.497688897777383,363.36753184419905,362.55208348074245,0.0
0.10400000000000001,8.613420186672798,-1.8249450706573842,5.60449405527032,0.0,23.53056459542669,23.13636085231702,370.753240556978,362.55208348074245,0.0
0.105,8.26762418831825,-2.0395923524077317,1.8296281281184745,0.0,23.697249929174003,22.49769092132004,376.40138595872014,362.55208348074245,0.0
0.106,7.709779309146243,-2.0994592941881205,-1.1329375975323588,0.0,23.787838627225224,21.709327922972783,382.2403506725793,362.55208348074245,0.0
0.107,6.987675454487945,-2.1030663526748885,-4.24930262638032,0.0,23.79033026265233,20.769538573569307,383.29931045316994,362.55208348074245,0.0
0.108,6.162024779920964,-2.021283259680668,-4.9862547863999005,0.0,23.689561588782155,19.95767677099099,383.84530648382434,362.55208348074245,0.0
0.109,5.387262951568631,-1.9294184996915846,-5.472185031757924,0.0,23.508396309372305,19.2478087702674,382.73908772864104,362.55208348074245,0.0
0.11,4.706423042699035,-1.84128291778982,-5.120945696645256,0.0,23.26558449142178,18.70145144268328,380.3713527335409,362.55208348074245,0.0
0.111,4.164973370377682,-1.7708128964609355,-4.115270891623173,0.0,22.98554777598073,18.345311566130484,377.57233175720444,362.55208348074245,0.0
0.112,3.789448966927908,-1.7247845804411155,-2.8659628862195605,0.0,22.693542329879623,18.160042325889297,374.2010611186769,362.55208348074245,0.0
0.113,3.569926998623109,-1.7079710289510248,-1.2968173433351238,0.0,22.410821296860792,18.144604567204397,370.19065162535236,362.55208348074245,0.0
0.114,3.500291199372474,-1.7168487073669378,0.6320017218810356,0.0,22.15597327141601,18.304381841065556,366.2602240589091,362.55208348074245,0.0
0.115,3.577733906740292,-1.748999418258192,2.5601340993209973,0.0,21.946035577315698,18.606287900059396,361.8027902702144,362.55208348074245,0.0
0.116,3.781696363930133,-1.7944660402102275,4.796343925773621,0.0,21.791962079830604,19.062049897661993,359.36060369050773,362.55208348074245,0.0
0.117,4.115926237077178,-1.8391153954414832,6.049352013529311,0.0,21.70332889471021,19.53757147567016,362.07563235296976,362.55208348074245,0.0
0.11800000000000001,4.4972888680371375,-1.8768835270671667,4.696602193576021,0.0,21.674819186829165,19.75673742561892,356.25802002785645,362.55208348074245,0.0
0.11900000000000001,4.760590794027421,-1.8542429313463427,7.66834899066154,0.0,21.668208897885574,20.26640587011431,346.4134420261213,362.55208348074245,0.0
0.12,5.171017185174919,-1.8034688093236706,10.0,0.0,21.70786773482058,20.908696700555844,351.5535796276165,362.55208348074245,0.0
0.121,5.685067503783663,-1.7887954670860424,10.0,0.0,21.806683444680342,21.414966550417866,346.2295358638264,362.55208348074245,0.0
0.122,6.158583448258695,-1.7675488848671022,10.0,0.0,21.94405417791861,21.833544735573497,338.9288627918994,362.55208348074245,0.0
0.123,6.634931836217577,-1.6321468623062019,10.0,0.0,22.094863899689116,22.17633901230666,338.2363550278413,362.55208348074245,0.0
0.124,7.0358781281243195,-1.5226160162302884,10.0,0.0,22.254177704113133,22.460594225313404,328.55209609669976,362.55208348074245,0.0
0.125,7.449860249730037,-1.3240911061822676,10.0,0.0,22.405243217750904,22.690826727004318,323.6425474136097,362.55208348074245,0.0
0.126,7.807157629044888,-1.1723857114307057,10.0,0.0,22.549523085871805,22.87797963938133,320.43203616282653,362.55208348074245,0.0
0.127,8.193020853268187,-0.9467228124633196,10.0,0.0,22.67478439347942,23.021973266461337,316.75850378921035,362.55208348074245,0.0
0.128,8.523448117927977,-0.7956805114494578,10.0,0.0,22.787560908912415,23.131605294723748,323.7628903613662,362.55208348074245,0.0
0.129,8.6350542829589,-0.9775012470593012,10.0,0.0,22.921533679555573,23.23257936619642,340.8268324339791,362.55208348074245,0.0
0.13,8.677097858146617,-1.2192365637665468,10.0,0.0,23.07697925776338,23.33334457596579,345.61942902152464,362.55208348074245,0.0
0.131,8.663492499580657,-1.4967815384313998,10.0,0.0,23.25506939317341,23.441494847773143,363.4358262059254,362.55208348074245,0.0
0.132,8.60248927757296,-1.8009680909955788,5.190188823136652,0.0,23.456850613258588,23.034134177320986,365.93079206708484,362.55208348074245,0.0
0.133,8.25735079996248,-1.9727827248265828,3.9089188066935217,0.0,23.61357538848579,22.632201306199512,376.07558311489254,362.55208348074245,0.0
0.134,7.801321236013518,-2.108276751945428,-1.29871171355183,0.0,23.727620595722897,21.772819409908646,379.7097576691298,362.55208348074245,0.0
0.135,7.089104678046613,-2.100689702344801,-3.2873757325543203,0.0,23.742133576879947,20.917887012819623,382.79387656665483,362.55208348074245,0.0
0.136,6.301585496689682,-2.043601069231383,-5.031853112175973,0.0,23.66349814106592,20.057398226356444,383.31725992801813,362.55208348074245,0.0
0.137,5.51055452347091,-1.9507246545259775,-5.50119655733038,0.0,23.497031850900512,19.320049985027907,382.29513543390726,362.55208348074245,0.0
0.138,4.806472102077853,-1.8566332785715833,-5.187564829806593,0.0,23.264056078410867,18.748521619915888,380.12093872628776,362.55208348074245,0.0
0.139,4.240342423821114,-1.7812028170811747,-4.276155028452296,0.0,22.98986860965457,18.363200715334152,377.37494765894866,362.55208348074245,0.0
0.14,3.838181443003382,-1.7305019057739024,-3.051388136564805,0.0,22.699745001686857,18.153179825536427,374.19168042593026,362.55208348074245,0.0
0.14100000000000001,3.59524875348273,-1.708834634302975,-1.5761504895074836,0.0,22.415755274787397,18.107878122218228,370.2366350145554,362.55208348074245,0.0
0.14200000000000002,3.499945636332694,-1.7144716722292184,0.32452670084180646,0.0,22.156471097132663,18.24108374700105,366.26904294294525,362.55208348074245,0.0
0.14300000000000002,3.5548349444923777,-1.742196739176299,2.271153142024863,0.0,21.939429286706606,18.523171673097696,361.9669560026306,362.55208348074245,0.0
