timestamp,iq,id,iq_ref,id_ref,vq,vd,omega,omega_ref,r
0.0,0.0,0.0,0.0,0.0,0.0,0.0,0.0,277.52190278252806,0.0
0.001,0.0,0.0,10.0,0.0,0.0,1.0999999999999999,6.115472199294103,277.52190278252806,0.0
0.002,0.5307369851907212,-0.2913212625381807,10.0,0.0,0.14204533887919985,1.9316189316290207,13.317801563642547,277.52190278252806,0.0
0.003,1.0842913387634832,-0.6024330830807904,10.0,0.0,0.384357124667687,2.6386968949419622,20.697939467553027,277.52190278252806,0.0
0.004,1.5590443546685477,-0.8700465084428163,10.0,0.0,0.6994718867930164,3.2526109522886295,28.232747544420146,277.52190278252806,0.0
0.005,1.9399447555359186,-1.0838738622210777,10.0,0.0,1.065311453102468,3.7994935661768023,35.92944872443006,277.52190278252806,0.0
0.006,2.239750732602683,-1.2510087368845633,10.0,0.0,1.4655018868449925,4.299102221838433,43.75633668444442,277.52190278252806,0.0
0.007,2.4770151619816017,-1.382020589851471,10.0,0.0,1.8883740978591532,4.765668027847139,51.58766747378032,277.52190278252806,0.0
0.008,2.6680767290418097,-1.4872241871505252,10.0,0.0,2.325877945545995,5.209220346273558,59.45942083902103,277.52190278252806,0.0
0.009000000000000001,2.8266491704841292,-1.5730794701170803,10.0,0.0,2.772378685460125,5.636635464737965,67.35059094018146,277.52190278252806,0.0
0.01,2.962077666392183,-1.645500646948331,10.0,0.0,3.224078639851053,6.052647735211881,75.20908322432116,277.52190278252806,0.0
0.011,3.0811061533574158,-1.7084279320504514,10.0,0.0,3.678407615443203,6.460489925470405,83.0265951655913,277.52190278252806,0.0
0.012,3.188848746459569,-1.7638278597420747,10.0,0.0,4.133552631697047,6.862319393890706,90.74118064793086,277.52190278252806,0.0
0.013000000000000001,3.288205119878689,-1.8140726097274587,10.0,0.0,4.588339016389012,7.259628641949282,98.35820682563939,277.52190278252806,0.0
0.014,3.3820602099432007,-1.8592355758795645,10.0,0.0,5.041843166194517,7.653355107498287,105.90865295623543,277.52190278252806,0.0
0.015,3.4721069852858886,-1.899829032412081,10.0,0.0,5.493383198131427,8.044092747085895,113.37727610343421,277.52190278252806,0.0
0.016,3.5596145800153947,-1.9360338400176071,10.0,0.0,5.94241958510469,8.43218525824161,120.68508583176356,277.52190278252806,0.0
0.017,3.645144415105338,-1.9685384477868613,10.0,0.0,6.388575043274759,8.817838951066484,127.83962377537456,277.52190278252806,0.0
0.018000000000000002,3.730251927866576,-1.9959253041084188,10.0,0.0,6.83136783302799,9.201036292373047,134.85405702603322,277.52190278252806,0.0
0.019,3.81544967906247,-2.018253592643655,10.0,0.0,7.270383321112213,9.581672501020332,141.68976328564074,277.52190278252806,0.0
0.02,3.9014648862453374,-2.0350875541282063,10.0,0.0,7.705189334130692,9.959536942333155,148.3432823300447,277.52190278252806,0.0
0.021,3.9891051824829464,-2.0457889559126508,10.0,0.0,8.135310004560049,10.334315260302239,154.92060212100432,277.52190278252806,0.0
0.022,4.079618141396171,-2.0489696811670974,10.0,0.0,8.560139305503519,10.705547790999272,161.01925282597162,277.52190278252806,0.0
0.023,4.171109372430197,-2.048468292080302,10.0,0.0,8.979521969370257,11.072981092896333,166.534238406907,277.52190278252806,0.0
0.024,4.266936196769627,-2.039517194249811,10.0,0.0,9.392730090169543,11.435983292623375,171.8647834235234,277.52190278252806,0.0
0.025,4.367255527950721,-2.0225841458509217,10.0,0.0,9.79914449451603,11.793929226271104,177.02637022703064,277.52190278252806,0.0
0.026000000000000002,4.4734353073349595,-1.9962166741499119,10.0,0.0,10.197980960389518,12.146045424568259,181.63161391243256,277.52190278252806,0.0
0.027,4.582366840795821,-1.966358349113627,10.0,0.0,10.589124658468391,12.491912978736195,185.74793639675826,277.52190278252806,0.0
0.028,4.700058850757774,-1.9240450691803936,10.0,0.0,10.971384864613876,12.830451341534015,189.43662766964098,277.52190278252806,0.0
0.029,4.820934284790598,-1.879137197786803,10.0,0.0,11.344756153370636,13.161242511022618,192.73598774770625,277.52190278252806,0.0
0.03,4.952016225740939,-1.821000614527957,10.0,0.0,11.707923484756042,13.483081433273819,195.59831968863915,277.52190278252806,0.0
0.031,5.086039273572549,-1.7621311371320891,10.0,0.0,12.061063698547066,13.79562148058647,197.80891551030922,277.52190278252806,0.0
0.032,5.230431844273564,-1.6911110488141978,10.0,0.0,12.40292038074925,14.097678592248165,200.4421589734679,277.52190278252806,0.0
0.033,5.380124186618445,-1.6166151787533525,10.0,0.0,12.733312761073865,14.38869342901298,201.91742172589852,277.52190278252806,0.0
0.034,5.537594793894332,-1.535029134414507,10.0,0.0,13.051537880865839,14.667821176756876,203.18880493813168,277.52190278252806,0.0
0.035,5.698947813469154,-1.4530296333491768,10.0,0.0,13.357649178779205,14.934684535625108,203.60405746232266,277.52190278252806,0.0
0.036000000000000004,5.870474243492053,-1.3603000477825025,10.0,0.0,13.65045542338638,15.188218311291084,204.28541056101804,277.52190278252806,0.0
0.037,6.041188711220851,-1.275010780747051,10.0,0.0,13.930879897581198,15.42861600670124,205.2233356988433,277.52190278252806,0.0
0.038,6.228175208801664,-1.168399557236846,10.0,0.0,14.196427351981786,15.654155009933262,200.35169734043586,277.52190278252806,0.0
0.039,6.404895489618571,-1.0845312562500289,10.0,0.0,14.449814560392067,15.86612549236809,209.64773540576442,277.52190278252806,0.0
0.04,6.534612624563911,-1.0851225869390002,10.0,0.0,14.699963825590459,16.069735965364643,218.170241886545,277.52190278252806,0.0
0.041,6.621487035821765,-1.1484636683301073,10.0,0.0,14.952420817214799,16.26974130369247,220.68166573712315,277.52190278252806,0.0
0.042,6.6704785161669795,-1.2647840534085386,10.0,0.0,15.211794475054209,16.47047148862455,233.10654395573727,277.52190278252806,0.0
0.043000000000000003,6.709376245503157,-1.3867642159960276,10.0,0.0,15.477558399636717,16.673277185423842,235.10815372853793,277.52190278252806,0.0
0.044,6.744196093263161,-1.5028656568708394,10.0,0.0,15.74857785831126,16.87893749904121,248.8181267625822,277.52190278252806,0.0
0.045,6.750563942850831,-1.6564343609015326,10.0,0.0,16.02879294551472,17.090781462187255,251.61117095327992,277.52190278252806,0.0
0.046,6.764566527560506,-1.7840489455190416,10.0,0.0,16.314672837580048,17.307985931916857,266.60539535969383,277.52190278252806,0.0
0.047,6.752169677737121,-1.9446655565152717,10.0,0.0,16.610076868775216,17.533561623207692,270.0627790167984,277.52190278252806,0.0
0.048,6.7291903821171735,-2.110358990489937,9.242982488057853,0.0,16.915118177607212,17.685251976195296,282.4272908577939,277.52190278252806,0.0
0.049,6.673349450695471,-2.226231677294698,3.011672686807456,0.0,17.21591345206353,17.180316231249396,286.5451118305089,277.52190278252806,0.0
0.05,6.2470978925288945,-2.217636417716352,0.8625301099701295,0.0,17.43403141915797,16.628190264888232,287.3782958764659,277.52190278252806,0.0
0.051000000000000004,5.708652103111408,-2.109786566885085,0.3473741560522452,0.0,17.563347461911192,16.17287948396428,290.07230530410453,277.52190278252806,0.0
0.052000000000000005,5.18740536044986,-2.0130421256397453,-1.1251345829828212,0.0,17.62463743226802,15.671159667451967,291.2548224293724,277.52190278252806,0.0
0.053,4.672178051421672,-1.9023281970032753,-1.8537223420851898,0.0,17.61841533620038,15.211783800082145,291.42455275596177,277.52190278252806,0.0
0.054,4.2007870770142,-1.7939630514010432,-2.0776140051142207,0.0,17.55606483627264,14.827081838594912,290.7641901080582,277.52190278252806,0.0
0.055,3.8010898540968983,-1.6997834777051966,-1.8798555544177304,0.0,17.45220308853843,14.53786015424736,289.66210708482055,277.52190278252806,0.0
0.056,3.490602604421486,-1.6268179432020684,-1.450216085821836,0.0,17.322720934084504,14.342613845834853,287.884826088272,277.52190278252806,0.0
0.057,3.268980790748747,-1.5794982175401286,-0.6652048206050054,0.0,17.182186849756928,14.257272324313334,285.8084772923921,277.52190278252806,0.0
0.058,3.143025336889572,-1.5570839130882344,0.2901038322362943,0.0,17.04517964547687,14.275284267459373,283.8327048595042,277.52190278252806,0.0
0.059000000000000004,3.10669200563961,-1.5588388878839545,1.2148820279105008,0.0,16.924091546211475,14.372703922757447,281.54371621448894,277.52190278252806,0.0
0.06,3.1452871250023096,-1.573573659689669,2.3191582160985176,0.0,16.826457497553097,14.555886604900728,279.8267867708043,277.52190278252806,0.0
0.061,3.2562806150687558,-1.5952969652636875,3.15457409805808,0.0,16.759147337869965,14.780017266383826,279.696931625655,277.52190278252806,0.0
0.062,3.4138920693505543,-1.613319654744291,3.1977513822014565,0.0,16.722746523090585,14.955171863116146,281.93239743783926,277.52190278252806,0.0
0.063,3.5544342223685423,-1.6218100289955077,2.0359135295562156,0.0,16.708254963735204,14.967053459775723,276.1746931436259,277.52190278252806,0.0
0.064,3.6158929469065204,-1.5728799532510127,4.928237773051907,0.0,16.690933507906912,15.300716747975788,271.28399314736254,277.52190278252806,0.0
0.065,3.8294905527666856,-1.5468208007144408,7.435966867535252,0.0,16.706333320459883,15.823327370331988,276.45487556247167,277.52190278252806,0.0
0.066,4.172906030242635,-1.5889723131379876,4.86119593218125,0.0,16.777351471885126,15.951275091410341,274.2722819301985,277.52190278252806,0.0
0.067,4.359163980211093,-1.5631812050634835,5.984988956841121,0.0,16.850804043263246,16.205840577867733,266.60360070832115,277.52190278252806,0.0
0.068,4.589650037410127,-1.486696525056565,9.928512588521873,0.0,16.934212502429283,16.841353555263282,273.92364701631425,277.52190278252806,0.0
0.069,5.00364273350966,-1.5121330953590255,6.304471992187463,0.0,17.076394282951604,16.94034204292332,266.3328952760844,277.52190278252806,0.0
0.07,5.214408994313304,-1.4460395374133956,10.0,0.0,17.20673207711066,17.46735398496491,269.2710164983637,277.52190278252806,0.0
0.07100000000000001,5.601141665246668,-1.3968203385334865,8.820951430321493,0.0,17.371984109760632,17.747614958280845,264.429458419323,277.52190278252806,0.0
0.07200000000000001,5.891927869285618,-1.3557030825798633,10.0,0.0,17.544706330311104,18.129741710156654,265.54301416421026,277.52190278252806,0.0
0.073,6.251742962954644,-1.263415648110576,10.0,0.0,17.728628558762022,18.44246572493995,259.1428493460817,277.52190278252806,0.0
0.074,6.565438905816632,-1.2059076770598682,10.0,0.0,17.920027963375297,18.71140115831187,261.87018857851484,277.52190278252806,0.0
0.075,6.884896586010745,-1.091275220409016,10.0,0.0,18.107146480343346,18.94057960341519,254.08743631054406,277.52190278252806,0.0
0.076,7.183356329116939,-0.9695783760440817,10.0,0.0,18.286230661811288,19.135916060765254,256.4692367863838,277.52190278252806,0.0
0.077,7.413742689044566,-0.9335495040679364,10.0,0.0,18.46419386339372,19.307269388366127,269.74172393677566,277.52190278252806,0.0
0.078,7.532690083068963,-1.0464098695158437,9.249101234970924,0.0,18.65427100649702,19.385904489468547,272.82502876407807,277.52190278252806,0.0
0.079,7.556473384566682,-1.1888938658767947,7.7544175615042175,0.0,18.84774858134546,19.31735088911551,282.5969989449904,277.52190278252806,0.0
0.08,7.4443902552322765,-1.345137799763191,2.8176815094234335,0.0,19.03078503143765,18.75947325453015,284.56390700149933,277.52190278252806,0.0
0.081,7.072264810907112,-1.3322116926979979,1.7638074389792502,0.0,19.13674576194605,18.248941208766922,289.22720996119637,277.52190278252806,0.0
0.082,6.6031531719499466,-1.3439201328980337,-0.6848971126559507,0.0,19.182474404319944,17.58912070649747,290.3026880305464,277.52190278252806,0.0
0.083,6.061383537591186,-1.2882186703695164,-1.350443999811147,0.0,19.15140388694936,17.006035550011518,293.3296644930648,277.52190278252806,0.0
0.084,5.526566317552088,-1.2640725259899577,-3.022009848175717,0.0,19.06303284441077,16.354347280849264,293.3817324390942,277.52190278252806,0.0
0.085,4.981764097009055,-1.2178217194616017,-3.2066421177560827,0.0,18.913483951935497,15.80997691523853,293.85223803374197,277.52190278252806,0.0
0.08600000000000001,4.495879875300072,-1.1941649693424836,-3.605198267592103,0.0,18.722313177698858,15.311093085337736,293.48655615507363,277.52190278252806,0.0
0.08700000000000001,4.064558118407957,-1.182602612288947,-3.582003861983388,0.0,18.499335806121103,14.892104058159722,292.53681862825454,277.52190278252806,0.0
0.088,3.7009988524389836,-1.1864870306796396,-3.257284257031107,0.0,18.257300178576838,14.563881710718068,291.32847452851,277.52190278252806,0.0
0.089,3.41329250196181,-1.206939561894795,-2.7911779246186645,0.0,18.00885681329259,14.320314641674791,289.9375287748237,277.52190278252806,0.0
0.09,3.198623420552871,-1.2415168139305193,-2.219861307698466,0.0,17.764500050044223,14.155180242994732,288.35048555371145,277.52190278252806,0.0
0.091,3.0506219849843794,-1.2869527024452867,-1.5346255248541731,0.0,17.532717698468947,14.065919844899948,286.9736157800336,277.52190278252806,0.0
0.092,2.9664629664222626,-1.3364058075901695,-0.9407077679902942,0.0,17.32017302492251,14.028663324569855,285.51261866577175,277.52190278252806,0.0
0.093,2.9281096336662884,-1.3883577424854292,-0.29011636969181653,0.0,17.13037734848474,14.042881141579857,283.66637142205326,277.52190278252806,0.0
0.094,2.931398482386305,-1.437079277231716,0.5715625657721781,0.0,16.965822870864894,14.124231071476373,281.88594660065144,277.52190278252806,0.0
0.095,2.9805809521636686,-1.4872495647369868,1.4181345382918558,0.0,16.830890350274792,14.260119505055464,279.6725388272778,277.52190278252806,0.0
0.096,3.0733174022255536,-1.532429776984674,2.5033320645311887,0.0,16.7275080455738,14.470122666569731,278.166469247763,277.52190278252806,0.0
0.097,3.219106746729386,-1.5733491350881528,3.249921189636218,0.0,16.65951361476324,14.70495064656684,278.57219770573624,277.52190278252806,0.0
0.098,3.3944189565239604,-1.6027453067862358,3.0365540114175236,0.0,16.624625810339204,14.860733654995698,280.41848443767543,277.52190278252806,0.0
0.099,3.5295350905653957,-1.6149901976658627,2.084444828896456,0.0,16.609858063480235,14.88174159119753,274.2090429643375,277.52190278252806,0.0
0.1,3.596643461229248,-1.5651337630976636,5.222294163747312,0.0,16.59306122821605,15.247825718319476,270.5472204643138,277.52190278252806,0.0
0.101,3.827677391918937,-1.5467125751029656,7.122952236941321,0.0,16.613024722856743,15.72857299523642,275.5545099871282,277.52190278252806,0.0
0.10200000000000001,4.15430427430482,-1.5840094606246506,4.638981403488118,0.0,16.683353465012388,15.837379903758391,272.2032079151903,277.52190278252806,0.0
0.10300000000000001,4.324194549027156,-1.5541806299742897,6.367819388130435,0.0,16.75387588357792,16.141929220893314,265.88328533320305,277.52190278252806,0.0
0.10400000000000001,4.575337107333573,-1.485417230274716,9.644166853617321,0.0,16.84053530633993,16.740258910861954,272.7201714419853,277.52190278252806,0.0
0.105,4.972847922331216,-1.5124428631188578,6.273741112631615,0.0,16.98202220943247,16.84269650387996,264.778172337314,277.52190278252806,0.0
0.106,5.1830053270240235,-1.441525084661164,10.0,0.0,17.111532969558752,17.373489556559566,268.42654527573126,277.52190278252806,0.0
0.107,5.5666458137562325,-1.3985872856856885,8.631501515890363,0.0,17.277157978837646,17.63625807836447,262.6388716886666,277.52190278252806,0.0
0.108,5.84879285082104,-1.352895487344149,10.0,0.0,17.44790061954133,18.026332297800142,264.6474272056973,277.52190278252806,0.0
0.109,6.206401134461232,-1.2653732735211074,10.0,0.0,17.63140589258109,18.344272933691734,257.8869978205199,277.52190278252806,0.0
0.11,6.522739826595391,-1.2079742254336208,10.0,0.0,17.82291602875464,18.617548859999783,260.9561149240487,277.52190278252806,0.0
0.111,6.841256395391579,-1.099102003040107,10.0,0.0,18.011200789959236,18.85077477164815,253.3756265533306,277.52190278252806,0.0
0.112,7.141207775526686,-0.9780215617971306,10.0,0.0,18.19174953989541,19.04969708212524,256.0718946096336,277.52190278252806,0.0
0.113,7.377256029481143,-0.934387218730369,10.0,0.0,18.37054667256076,19.223816242414596,267.6690012228644,277.52190278252806,0.0
0.114,7.507784311289015,-1.030882597227417,9.76321297680461,0.0,18.559926843053855,19.360358998930742,270.61226511934075,277.52190278252806,0.0
0.115,7.5580083018534,-1.1916586044204691,8.360677405198299,0.0,18.760743679155524,19.346055098055835,282.32245433340165,277.52190278252806,0.0
0.116,7.488020118759632,-1.3531509718804338,2.457577282659111,0.0,18.95620484190819,18.726148553161295,282.4764657440117,277.52190278252806,0.0
0.117,7.092690011055067,-1.3343581566371034,2.3310259477392474,0.0,19.066447100544778,18.275675563432245,288.90623307129187,277.52190278252806,0.0
0.11800000000000001,6.646442079482943,-1.3533392252508802,-0.9977010187884705,0.0,19.122893680044754,17.561513616966806,288.9124490174324,277.52190278252806,0.0
0.11900000000000001,6.0849118611323085,-1.2842912874147987,-1.1147144542077712,0.0,19.09449432310008,17.002134159569902,292.17956079338916,277.52190278252806,0.0
0.12,5.554454693220276,-1.260662276544,-2.8948469222947715,0.0,19.01108824429276,16.353943261369672,292.2701624938102,277.52190278252806,0.0
0.121,5.012473754438804,-1.2146859447684766,-3.087630369618102,0.0,18.866382577159538,15.813139322170866,292.85404998085687,277.52190278252806,0.0
0.122,4.528529167034752,-1.191985285845945,-3.532895585124738,0.0,18.680029773656038,15.312707966172752,292.55363855206815,277.52190278252806,0.0
0.123,4.096251503222883,-1.1805262526950195,-3.5330072284257783,0.0,18.461235627845703,14.890835933961325,291.6831996188456,277.52190278252806,0.0
0.124,3.730143000676876,-1.184002351858712,-3.2394007301776817,0.0,18.22263065463478,14.557518680272253,290.53277415212386,277.52190278252806,0.0
0.125,3.4381602979955517,-1.2038101131624919,-2.794296710512768,0.0,17.97669854612781,14.308155044081133,289.1889761963679,277.52190278252806,0.0
0.126,3.218408885915035,-1.2376535859316475,-2.2390684667731793,0.0,17.733947989243998,14.137011455575177,287.63977680581655,277.52190278252806,0.0
0.127,3.0649926074416363,-1.282584011369842,-1.565647511730396,0.0,17.502962041268486,14.041909469360018,286.22697750769544,277.52190278252806,0.0
0.128,2.975089570754074,-1.3325122212411051,-0.946298609921512,0.0,17.290607288300457,14.002968427868268,284.9171031770551,277.52190278252806,0.0
0.129,2.9344822932825725,-1.3837341639398788,-0.36531344854660475,0.0,17.10072903807821,14.007968664117035,283.162283733696,277.52190278252806,0.0
0.13,2.930969138548111,-1.4331187225593014,0.4556924636212716,0.0,16.935258718524224,14.077962224689493,281.35711120632635,277.52190278252806,0.0
0.131,2.972190394882916,-1.4817279029201607,1.319926643068099,0.0,16.79818795123638,14.206695628122601,279.2204078097348,277.52190278252806,0.0
0.132,3.0580183701028383,-1.5270527900053763,2.3712932910918028,0.0,16.692197246796383,14.406827739260912,277.56888807975827,277.52190278252806,0.0
0.133,3.1957969503923542,-1.5685162888466495,3.1965833031077717,0.0,16.62092655991592,14.642318439603264,277.91252566346384,277.52190278252806,0.0
0.134,3.3679140190265318,-1.6011011499307854,3.020858282445628,0.0,16.583501711488573,14.801995257083481,279.38809269146805,277.52190278252806,0.0
0.135,3.5054088152720237,-1.6137076612585826,2.2644128693541243,0.0,16.566847897287197,14.847106905838826,274.103284011996,277.52190278252806,0.0
0.136,3.582475473442296,-1.5740371328952718,4.941003396795477,0.0,16.55188080614825,15.18092903601169,269.8904347518955,277.52190278252806,0.0
0.137,3.7989406272011745,-1.5538248396464969,7.123742707152045,0.0,16.569965990166757,15.670167162586404,274.75526219131393,277.52190278252806,0.0
0.138,4.123639069157083,-1.5934953966589238,4.7189953933549695,0.0,16.639732352644742,15.7923882202067,272.3407793280071,277.52190278252806,0.0
0.139,4.299606603877723,-1.5658050849489675,5.978048059553593,0.0,16.711301544778735,16.055797630332872,265.10490504651295,277.52190278252806,0.0
0.14,4.528488909629105,-1.4932330395788143,9.720155177660818,0.0,16.794348736838323,16.675646896704183,272.4144850534513,277.52190278252806,0.0
0.14100000000000001,4.931465690147071,-1.5190002789180508,6.116439351482413,0.0,16.934636253110106,16.765947520784174,264.98039818383774,277.52190278252806,0.0
