timestamp,iq,id,iq_ref,id_ref,vq,vd,omega,omega_ref,r
0.0,0.0,0.0,0.0,0.0,0.0,0.0,0.0,487.57279898709476,0.0
0.001,0.0,0.0,10.0,0.0,0.0,1.0999999999999999,6.115472199294103,487.57279898709476,0.0
0.002,0.5307369851907212,-0.2913212625381807,10.0,0.0,0.14204533887919985,1.9316189316290207,13.317801563642547,487.57279898709476,0.0
0.003,1.0842913387634832,-0.6024330830807904,10.0,0.0,0.384357124667687,2.6386968949419622,20.697939467553027,487.57279898709476,0.0
0.004,1.5590443546685477,-0.8700465084428163,10.0,0.0,0.6994718867930164,3.2526109522886295,28.232747544420146,487.57279898709476,0.0
0.005,1.9399447555359186,-1.0838738622210777,10.0,0.0,1.065311453102468,3.7994935661768023,35.92944872443006,487.57279898709476,0.0
0.006,2.239750732602683,-1.2510087368845633,10.0,0.0,1.4655018868449925,4.299102221838433,43.75633668444442,487.57279898709476,0.0
0.007,2.4770151619816017,-1.382020589851471,10.0,0.0,1.8883740978591532,4.765668027847139,51.58766747378032,487.57279898709476,0.0
0.008,2.6680767290418097,-1.4872241871505252,10.0,0.0,2.325877945545995,5.209220346273558,59.45942083902103,487.57279898709476,0.0
0.009000000000000001,2.8266491704841292,-1.5730794701170803,10.0,0.0,2.772378685460125,5.636635464737965,67.35059094018146,487.57279898709476,0.0
0.01,2.962077666392183,-1.645500646948331,10.0,0.0,3.224078639851053,6.052647735211881,75.20908322432116,487.57279898709476,0.0
0.011,3.0811061533574158,-1.7084279320504514,10.0,0.0,3.678407615443203,6.460489925470405,83.0265951655913,487.57279898709476,0.0
0.012,3.188848746459569,-1.7638278597420747,10.0,0.0,4.133552631697047,6.862319393890706,90.74118064793086,487.57279898709476,0.0
0.013000000000000001,3.288205119878689,-1.8140726097274587,10.0,0.0,4.588339016389012,7.259628641949282,98.35820682563939,487.57279898709476,0.0
0.014,3.3820602099432007,-1.8592355758795645,10.0,0.0,5.041843166194517,7.653355107498287,105.90865295623543,487.57279898709476,0.0
0.015,3.4721069852858886,-1.899829032412081,10.0,0.0,5.493383198131427,8.044092747085895,113.37727610343421,487.57279898709476,0.0
0.016,3.5596145800153947,-1.9360338400176071,10.0,0.0,5.94241958510469,8.43218525824161,120.68508583176356,487.57279898709476,0.0
0.017,3.645144415105338,-1.9685384477868613,10.0,0.0,6.388575043274759,8.817838951066484,127.83962377537456,487.57279898709476,0.0
0.018000000000000002,3.730251927866576,-1.9959253041084188,10.0,0.0,6.83136783302799,9.201036292373047,134.85405702603322,487.57279898709476,0.0
0.019,3.81544967906247,-2.018253592643655,10.0,0.0,7.270383321112213,9.581672501020332,141.68976328564074,487.57279898709476,0.0
0.02,3.9014648862453374,-2.0350875541282063,10.0,0.0,7.705189334130692,9.959536942333155,148.3432823300447,487.57279898709476,0.0
0.021,3.9891051824829464,-2.0457889559126508,10.0,0.0,8.135310004560049,10.334315260302239,154.92060212100432,487.57279898709476,0.0
0.022,4.079618141396171,-2.0489696811670974,10.0,0.0,8.560139305503519,10.705547790999272,161.01925282597162,487.57279898709476,0.0
0.023,4.171109372430197,-2.048468292080302,10.0,0.0,8.979521969370257,11.072981092896333,166.534238406907,487.57279898709476,0.0
0.024,4.266936196769627,-2.039517194249811,10.0,0.0,9.392730090169543,11.435983292623375,171.8647834235234,487.57279898709476,0.0
0.025,4.367255527950721,-2.0225841458509217,10.0,0.0,9.79914449451603,11.793929226271104,177.02637022703064,487.57279898709476,0.0
0.026000000000000002,4.4734353073349595,-1.9962166741499119,10.0,0.0,10.197980960389518,12.146045424568259,181.63161391243256,487.57279898709476,0.0
0.027,4.582366840795821,-1.966358349113627,10.0,0.0,10.589124658468391,12.491912978736195,185.74793639675826,487.57279898709476,0.0
0.028,4.700058850757774,-1.9240450691803936,10.0,0.0,10.971384864613876,12.830451341534015,189.43662766964098,487.57279898709476,0.0
0.029,4.820934284790598,-1.879137197786803,10.0,0.0,11.344756153370636,13.161242511022618,192.73598774770625,487.57279898709476,0.0
0.03,4.952016225740939,-1.821000614527957,10.0,0.0,11.707923484756042,13.483081433273819,195.59831968863915,487.57279898709476,0.0
0.031,5.086039273572549,-1.7621311371320891,10.0,0.0,12.061063698547066,13.79562148058647,197.80891551030922,487.57279898709476,0.0
0.032,5.230431844273564,-1.6911110488141978,10.0,0.0,12.40292038074925,14.097678592248165,200.4421589734679,487.57279898709476,0.0
0.033,5.380124186618445,-1.6166151787533525,10.0,0.0,12.733312761073865,14.38869342901298,201.91742172589852,487.57279898709476,0.0
0.034,5.537594793894332,-1.535029134414507,10.0,0.0,13.051537880865839,14.667821176756876,203.18880493813168,487.57279898709476,0.0
0.035,5.698947813469154,-1.4530296333491768,10.0,0.0,13.357649178779205,14.934684535625108,203.60405746232266,487.57279898709476,0.0
0.036000000000000004,5.870474243492053,-1.3603000477825025,10.0,0.0,13.65045542338638,15.188218311291084,204.28541056101804,487.57279898709476,0.0
0.037,6.041188711220851,-1.275010780747051,10.0,0.0,13.930879897581198,15.42861600670124,205.2233356988433,487.57279898709476,0.0
0.038,6.228175208801664,-1.168399557236846,10.0,0.0,14.196427351981786,15.654155009933262,200.35169734043586,487.57279898709476,0.0
0.039,6.404895489618571,-1.0845312562500289,10.0,0.0,14.449814560392067,15.86612549236809,209.64773540576442,487.57279898709476,0.0
0.04,6.534612624563911,-1.0851225869390002,10.0,0.0,14.699963825590459,16.069735965364643,218.170241886545,487.57279898709476,0.0
0.041,6.621487035821765,-1.1484636683301073,10.0,0.0,14.952420817214799,16.26974130369247,220.68166573712315,487.57279898709476,0.0
0.042,6.6704785161669795,-1.2647840534085386,10.0,0.0,15.211794475054209,16.47047148862455,233.10654395573727,487.57279898709476,0.0
0.043000000000000003,6.709376245503157,-1.3867642159960276,10.0,0.0,15.477558399636717,16.673277185423842,235.10815372853793,487.57279898709476,0.0
0.044,6.744196093263161,-1.5028656568708394,10.0,0.0,15.74857785831126,16.87893749904121,248.8181267625822,487.57279898709476,0.0
0.045,6.750563942850831,-1.6564343609015326,10.0,0.0,16.02879294551472,17.090781462187255,251.61117095327992,487.57279898709476,0.0
0.046,6.764566527560506,-1.7840489455190416,10.0,0.0,16.314672837580048,17.307985931916857,266.60539535969383,487.57279898709476,0.0
0.047,6.752169677737121,-1.9446655565152717,10.0,0.0,16.610076868775216,17.533561623207692,270.0627790167984,487.57279898709476,0.0
0.048,6.7291903821171735,-2.110358990489937,10.0,0.0,16.91511817760721,17.768523902508925,283.13731951482634,487.57279898709476,0.0
0.049,6.714097190323873,-2.246352557911731,10.0,0.0,17.22645394156277,18.011924542904307,294.70561782835244,487.57279898709476,0.0
0.05,6.666841209228205,-2.4219663531358275,10.0,0.0,17.548953774962747,18.267165921658286,300.1294548425776,487.57279898709476,0.0
0.051000000000000004,6.612335516543512,-2.59336894353628,10.0,0.0,17.88182590988993,18.53465621226123,310.75154600411304,487.57279898709476,0.0
0.052000000000000005,6.568447424188529,-2.726701034625408,10.0,0.0,18.22111236450049,18.81296732052879,322.35703405819294,487.57279898709476,0.0
0.053,6.5036136539679195,-2.8764091099274185,10.0,0.0,18.569435851849082,19.104068797231378,330.9557012510771,487.57279898709476,0.0
0.054,6.434362099984388,-3.0149932598739144,10.0,0.0,18.925784313874168,19.407861808234543,339.4707232587175,487.57279898709476,0.0
0.055,6.370891759459199,-3.1253006473392393,10.0,0.0,19.28762520191878,19.723199586257838,348.00092263299223,487.57279898709476,0.0
0.056,6.314459991163816,-3.2071523724558277,10.0,0.0,19.65271639484943,20.048760466390505,356.29964302226927,487.57279898709476,0.0
0.057,6.266092078485367,-3.262894600420583,10.0,0.0,20.01916768432525,20.383030530514645,362.98468703488817,487.57279898709476,0.0
0.058,6.234656406121481,-3.2830044001420036,10.0,0.0,20.38405550695561,20.723492962007192,368.0316803659419,487.57279898709476,0.0
0.059000000000000004,6.228510489334133,-3.2600491726267444,10.0,0.0,20.743774617448285,21.0667596267365,372.35801287012686,487.57279898709476,0.0
0.06,6.247959954981508,-3.201438289803519,10.0,0.0,21.095630838529225,21.40947063565305,373.88739853789605,487.57279898709476,0.0
0.061,6.298571070969623,-3.1064761741463998,10.0,0.0,21.436712814499675,21.747723437683817,371.47602194372377,487.57279898709476,0.0
0.062,6.38094735961424,-2.982369480030801,10.0,0.0,21.76480975788002,22.077703876517536,366.2922057853833,487.57279898709476,0.0
0.063,6.53566146196873,-2.7695519558602215,10.0,0.0,22.070926190088084,22.39130117743337,372.07145994459506,487.57279898709476,0.0
0.064,6.708566607552835,-2.560747003310555,10.0,0.0,22.35695033962817,22.686677966487718,365.1882535794375,487.57279898709476,0.0
0.065,6.897199383751794,-2.3667028673086685,10.0,0.0,22.62465294768497,22.962098937664592,356.7297130485294,487.57279898709476,0.0
0.066,7.167218997264825,-2.0824440278168583,10.0,0.0,22.863799361069702,23.20893224280502,357.7888817172531,487.57279898709476,0.0
0.067,7.423387055578651,-1.859201647307153,10.0,0.0,23.082000390168847,23.42951856849048,345.1266644280509,487.57279898709476,0.0
0.068,7.736929428236853,-1.5824320316278497,10.0,0.0,23.27222771500701,23.617938384108047,342.9584987314189,487.57279898709476,0.0
0.069,8.04132723792414,-1.3546495884062866,10.0,0.0,23.43998591632552,23.77619061530866,334.2677598047511,487.57279898709476,0.0
0.07,8.395997401416553,-1.0747195592463576,10.0,0.0,23.578279041856877,23.89942370363377,322.7417355360636,487.57279898709476,0.0
0.07100000000000001,8.726669482066718,-0.8579631993863083,10.0,0.0,23.694022264374595,23.99133556844291,337.9106389559309,487.57279898709476,0.0
0.07200000000000001,8.91385728821635,-0.8925675486457335,10.0,0.0,23.81335639313859,24.06834663115294,344.8606079910171,487.57279898709476,0.0
0.073,8.941721008651788,-1.1508071676799903,10.0,0.0,23.95651852989837,24.148396869281978,362.43451347602996,487.57279898709476,0.0
0.074,8.927907180207171,-1.4305443375681337,10.0,0.0,24.121558169292424,24.236556455607346,368.59250641149885,487.57279898709476,0.0
0.075,8.859340450140312,-1.7499202918046703,10.0,0.0,24.31124378664675,24.33980824926249,387.10067316750514,487.57279898709476,0.0
0.076,8.767176841935807,-2.0562826706616475,10.0,0.0,24.52279212376306,24.461155754889383,396.7190369145668,487.57279898709476,0.0
0.077,8.62162972262067,-2.4016532593838043,10.0,0.0,24.76024751870129,24.606611890707832,408.83095327273656,487.57279898709476,0.0
0.078,8.47560200325128,-2.694417929744825,10.0,0.0,25.017253395580042,24.77587553037574,428.2762610097064,487.57279898709476,0.0
0.079,8.289593068490031,-3.001970310780605,10.0,0.0,25.296388163948027,24.972914099394785,438.0404594767293,487.57279898709476,0.0
0.08,8.078425759776728,-3.30171273584331,10.0,0.0,25.597209455327665,25.19953060295957,447.87571303424875,487.57279898709476,0.0
0.081,7.882675762310951,-3.525181384717318,10.0,0.0,25.912194395051316,25.45298841193994,460.26934286159303,487.57279898709476,0.0
0.082,7.687097883672571,-3.703693402600396,10.0,0.0,26.238428257179056,25.732155000670204,470.03446400235384,487.57279898709476,0.0
0.083,7.512516260295773,-3.813976142857688,10.0,0.0,26.570301373216505,26.033276516525277,477.918982155292,487.57279898709476,0.0
0.084,7.3689562950047955,-3.855399170081403,10.0,0.0,26.902553034827754,26.351518972346824,478.5439455783908,487.57279898709476,0.0
0.085,7.275652065733423,-3.8162994175680955,10.0,0.0,27.228688572811343,26.679990214314294,473.55535348460853,487.57279898709476,0.0
0.08600000000000001,7.267766248696914,-3.6603820503219797,10.0,0.0,27.538297768321378,27.00816228346467,474.1807480051759,487.57279898709476,0.0
0.08700000000000001,7.3464323522243,-3.4076290670194203,10.0,0.0,27.823519596704617,27.32574593569263,475.7079540819185,487.57279898709476,0.0
0.088,7.480709249017063,-3.1292177565686656,10.0,0.0,28.08387989315578,27.6261096079242,459.5304728259807,487.57279898709476,0.0
0.089,7.695613562209921,-2.801501191801076,10.0,0.0,28.314975818165053,27.900176237094435,448.5636800468391,487.57279898709476,0.0
0.09,8.020201174839713,-2.3826535389658305,10.0,0.0,28.50757273742622,28.13639020159123,445.48610120291113,487.57279898709476,0.0
0.091,8.354868291359303,-2.0325776833111755,10.0,0.0,28.670211493617295,28.3346749548736,425.5547717088185,487.57279898709476,0.0
0.092,8.785028497986112,-1.6118087441171771,10.0,0.0,28.79363102476271,28.4854241568831,418.1571209188704,487.57279898709476,0.0
0.093,9.213939198463112,-1.2630473015486263,10.0,0.0,28.885627453703925,28.59056181681997,404.39055654859436,487.57279898709476,0.0
0.094,9.710582044615853,-0.8630683077983461,10.0,0.0,28.938427930857845,28.644043747585243,399.8028636561218,487.57279898709476,0.0
0.095,10.09778552966185,-0.6891582118156743,10.0,0.0,28.976166232752334,28.65983157809586,422.487643054602,487.57279898709476,0.0
0.096,10.19655033502452,-0.9613560624343314,10.0,0.0,29.04339035203631,28.67082236200544,431.03532474074945,487.57279898709476,0.0
0.097,10.169180884367012,-1.3604820806818894,10.0,0.0,29.146173021283875,28.69143476707839,450.5677013529273,487.57279898709476,0.0
0.098,10.043142481850674,-1.8334632082393423,10.0,0.0,29.288775327962842,28.733854728339033,463.78246626216827,487.57279898709476,0.0
0.099,9.878032929363341,-2.2746707669262736,10.0,0.0,29.465162420279952,28.80319459088995,486.89045707977465,487.57279898709476,0.0
0.1,9.638548632068545,-2.744249331321392,7.744300948207878,0.0,29.678086356117042,28.65980445789791,496.4392759976867,487.57279898709476,0.0
0.101,9.24389612434742,-3.1200407100693877,2.88122671914593,0.0,29.892020151089554,28.080681489986276,506.90508006517746,487.57279898709476,0.0
0.10200000000000001,8.567520071083793,-3.3083206177977864,-2.544998125380273,0.0,30.043601145836277,27.103065048537566,511.8457765217227,487.57279898709476,0.0
0.10300000000000001,7.616829625934672,-3.274378804106308,-5.258076128999179,0.0,30.076645998380126,26.09200420718935,511.4889621030504,487.57279898709476,0.0
0.10400000000000001,6.607347270746834,-3.0841468619204164,-5.318830550822593,0.0,29.984694186031238,25.30733788348513,506.97287352484443,487.57279898709476,0.0
0.105,5.749435796641967,-2.8374598446387878,-3.254787007097093,0.0,29.798237670067685,24.90387078354414,499.6765701918905,487.57279898709476,0.0
0.106,5.1929648799759045,-2.610364989823407,0.2723269473319121,0.0,29.567566531849522,24.942079527643045,491.6733750262636,487.57279898709476,0.0
0.107,5.0139877436764,-2.4418028849428928,4.23291876975367,0.0,29.347512498874355,25.367917020258634,482.66192104484566,487.57279898709476,0.0
0.108,5.195021510152497,-2.343561855256063,8.787754539885139,0.0,29.18292672624152,26.168887891130023,478.5602818722017,487.57279898709476,0.0
0.109,5.7295923463637255,-2.2891724266233826,10.0,0.0,29.10989619110638,26.904109286243838,480.64201763459687,487.57279898709476,0.0
0.11,6.357031453034265,-2.2337958004281204,9.93856524373632,0.0,29.11214331440099,27.47595261717095,462.55674176730435,487.57279898709476,0.0
0.111,6.968032244030652,-2.110584748429388,10.0,0.0,29.158350609000934,27.937272802143568,451.1575477226346,487.57279898709476,0.0
0.112,7.605103649793989,-1.8395108479195001,10.0,0.0,29.217483174102057,28.292499503792286,444.0806966498778,487.57279898709476,0.0
0.113,8.170934950154578,-1.5972285250367357,10.0,0.0,29.282284836345916,28.562246062804185,426.94922765104985,487.57279898709476,0.0
0.114,8.771911861197378,-1.2481270213095579,10.0,0.0,29.331602646085422,28.751048984928193,413.599623633093,487.57279898709476,0.0
0.115,9.318970401241975,-0.9569751733339049,10.0,0.0,29.366333278823337,28.87173672551928,405.79383607163015,487.57279898709476,0.0
0.116,9.894614638816435,-0.6064752810630276,10.0,0.0,29.37401615267652,28.925978474592288,414.0931544094228,487.57279898709476,0.0
0.117,10.176077683097297,-0.717472296519797,10.0,0.0,29.402069584674642,28.95035984364817,429.99746306613815,487.57279898709476,0.0
0.11800000000000001,10.210463661440299,-1.1314731075809128,10.0,0.0,29.4741859294407,28.97414059182336,446.6929190248211,487.57279898709476,0.0
0.11900000000000001,10.166353665987494,-1.5630613942688685,10.0,0.0,29.584803417972736,29.007950858940866,463.4435245071854,487.57279898709476,0.0
0.12,10.011013527450535,-2.0677272512296136,10.0,0.0,29.73893754576211,29.066088163484373,478.5333755456837,487.57279898709476,0.0
0.121,9.816161700501858,-2.5281346166099326,10.0,0.0,29.92907014284914,29.15370544993145,502.16431002226375,487.57279898709476,0.0
0.122,9.556948670328676,-2.98903347165608,-0.360469035440973,0.0,30.15504600927344,28.138487588593566,506.41572803848237,487.57279898709476,0.0
0.123,8.708175832397044,-3.148911839197008,-2.6746073340641594,0.0,30.269880134800566,27.187211459408523,510.40734600915675,487.57279898709476,0.0
0.124,7.7248173501599915,-3.1324558317669036,-4.898761789621972,0.0,30.274694290363747,26.220712453236317,511.8161711650894,487.57279898709476,0.0
0.125,6.720788923238116,-3.0032715899490805,-5.845608089368227,0.0,30.16833142322774,25.370042756960185,508.9105647557436,487.57279898709476,0.0
0.126,5.826473493505576,-2.7943140841895624,-4.60618254238184,0.0,29.965844389962342,24.827943429765394,502.44467073152384,487.57279898709476,0.0
0.127,5.177468606713681,-2.582100714685283,-1.5219542477162413,0.0,29.708142231716128,24.709123572156663,494.32117654336355,487.57279898709476,0.0
0.128,4.880939714162699,-2.4090989274428276,2.4723090708012174,0.0,29.44742024063205,25.011070295887148,486.0307065657354,487.57279898709476,0.0
0.129,4.952621492619439,-2.3075741667546965,6.632964983828892,0.0,29.23352741522615,25.6636293808283,478.01720409707673,487.57279898709476,0.0
0.13,5.365043220920638,-2.25224364690787,10.0,0.0,29.101208671278677,26.513660995054714,477.9530838842772,487.57279898709476,0.0
0.131,6.012972863023164,-2.222756792182155,10.0,0.0,29.064434714327238,27.164639179953774,471.34906184211513,487.57279898709476,0.0
0.132,6.644149126773421,-2.164787144950289,10.0,0.0,29.0903541789126,27.68389205807627,452.8420138247034,487.57279898709476,0.0
0.133,7.291942003037956,-1.9542047842090264,10.0,0.0,29.143022621642462,28.08886614109347,450.8086405855853,487.57279898709476,0.0
0.134,7.902908981665752,-1.69082506684296,10.0,0.0,29.204055683098197,28.397881221195515,429.4346939572275,487.57279898709476,0.0
0.135,8.481645515191685,-1.4066436518633636,10.0,0.0,29.261260787944458,28.624546750531344,424.82457393879827,487.57279898709476,0.0
0.136,9.061464341138553,-1.0799692504149851,10.0,0.0,29.302319565230167,28.77627353189934,405.1952648923773,487.57279898709476,0.0
0.137,9.62893811645781,-0.7499684715168526,10.0,0.0,29.321411801259792,28.860309585833445,404.4490410594299,487.57279898709476,0.0
0.138,10.06916982147951,-0.6214349376017958,10.0,0.0,29.33615973813819,28.89510050817792,427.954542613182,487.57279898709476,0.0
0.139,10.195807430707346,-0.9337119922860172,10.0,0.0,29.3885477849176,28.91835931201093,436.89361318150156,487.57279898709476,0.0
0.14,10.187878717877412,-1.3567427591200725,10.0,0.0,29.481433521207283,28.946669574642158,456.15993238555933,487.57279898709476,0.0
0.14100000000000001,10.070160980712874,-1.8505375750916981,10.0,0.0,29.617948832219653,28.994307048599026,470.1491275296394,487.57279898709476,0.0
0.14200000000000002,9.906454886410078,-2.3086903266561345,10.0,0.0,29.79103521403885,29.067662799263104,493.35135800012944,487.57279898709476,0.0
0.14300000000000002,9.66419624940658,-2.7906413099273157,3.7708829915069035,0.0,30.002581613386727,28.49080013123583,499.9861692991124,487.57279898709476,0.0
0.14400000000000002,9.055404154027896,-3.0684412626573456,0.3293436388952369,0.0,30.16102559096467,27.741044755365316,508.5845099064687,487.57279898709476,0.0
0.145,8.23798232281948,-3.1764542851931634,-4.179943773976656,0.0,30.237753066149402,26.704331573429002,511.92211093297055,487.57279898709476,0.0
0.146,7.229934759858643,-3.1047276199290903,-6.092237406686328,0.0,30.194166412217633,25.716414045349048,510.3207884153833,487.57279898709476,0.0
0.147,6.237884539210681,-2.9083110155715257,-5.519056042175574,0.0,30.03525811104435,25.00414753974887,505.07546046543496,487.57279898709476,0.0
