timestamp,iq,id,iq_ref,id_ref,vq,vd,omega,omega_ref,r
0.0,0.0,0.0,0.0,0.0,0.0,0.0,0.0,414.18374679995117,0.0
0.001,0.0,0.0,10.0,0.0,0.0,1.0999999999999999,6.115472199294103,414.18374679995117,0.0
0.002,0.5307369851907212,-0.2913212625381807,10.0,0.0,0.14204533887919985,1.9316189316290207,13.317801563642547,414.18374679995117,0.0
0.003,1.0842913387634832,-0.6024330830807904,10.0,0.0,0.384357124667687,2.6386968949419622,20.697939467553027,414.18374679995117,0.0
0.004,1.5590443546685477,-0.8700465084428163,10.0,0.0,0.6994718867930164,3.2526109522886295,28.232747544420146,414.18374679995117,0.0
0.005,1.9399447555359186,-1.0838738622210777,10.0,0.0,1.065311453102468,3.7994935661768023,35.92944872443006,414.18374679995117,0.0
0.006,2.239750732602683,-1.2510087368845633,10.0,0.0,1.4655018868449925,4.299102221838433,43.75633668444442,414.18374679995117,0.0
0.007,2.4770151619816017,-1.382020589851471,10.0,0.0,1.8883740978591532,4.765668027847139,51.58766747378032,414.18374679995117,0.0
0.008,2.6680767290418097,-1.4872241871505252,10.0,0.0,2.325877945545995,5.209220346273558,59.45942083902103,414.18374679995117,0.0
0.009000000000000001,2.8266491704841292,-1.5730794701170803,10.0,0.0,2.772378685460125,5.636635464737965,67.35059094018146,414.18374679995117,0.0
0.01,2.962077666392183,-1.645500646948331,10.0,0.0,3.224078639851053,6.052647735211881,75.20908322432116,414.18374679995117,0.0
0.011,3.0811061533574158,-1.7084279320504514,10.0,0.0,3.678407615443203,6.460489925470405,83.0265951655913,414.18374679995117,0.0
0.012,3.188848746459569,-1.7638278597420747,10.0,0.0,4.133552631697047,6.862319393890706,90.74118064793086,414.18374679995117,0.0
0.013000000000000001,3.288205119878689,-1.8140726097274587,10.0,0.0,4.588339016389012,7.259628641949282,98.35820682563939,414.18374679995117,0.0
0.014,3.3820602099432007,-1.8592355758795645,10.0,0.0,5.041843166194517,7.653355107498287,105.90865295623543,414.18374679995117,0.0
0.015,3.4721069852858886,-1.899829032412081,10.0,0.0,5.493383198131427,8.044092747085895,113.37727610343421,414.18374679995117,0.0
0.016,3.5596145800153947,-1.9360338400176071,10.0,0.0,5.94241958510469,8.43218525824161,120.68508583176356,414.18374679995117,0.0
0.017,3.645144415105338,-1.9685384477868613,10.0,0.0,6.388575043274759,8.817838951066484,127.83962377537456,414.18374679995117,0.0
0.018000000000000002,3.730251927866576,-1.9959253041084188,10.0,0.0,6.83136783302799,9.201036292373047,134.85405702603322,414.18374679995117,0.0
0.019,3.81544967906247,-2.018253592643655,10.0,0.0,7.270383321112213,9.581672501020332,141.68976328564074,414.18374679995117,0.0
0.02,3.9014648862453374,-2.0350875541282063,10.0,0.0,7.705189334130692,9.959536942333155,148.3432823300447,414.18374679995117,0.0
0.021,3.9891051824829464,-2.0457889559126508,10.0,0.0,8.135310004560049,10.334315260302239,154.92060212100432,414.18374679995117,0.0
0.022,4.079618141396171,-2.0489696811670974,10.0,0.0,8.560139305503519,10.705547790999272,161.01925282597162,414.18374679995117,0.0
0.023,4.171109372430197,-2.048468292080302,10.0,0.0,8.979521969370257,11.072981092896333,166.534238406907,414.18374679995117,0.0
0.024,4.266936196769627,-2.039517194249811,10.0,0.0,9.392730090169543,11.435983292623375,171.8647834235234,414.18374679995117,0.0
0.025,4.367255527950721,-2.0225841458509217,10.0,0.0,9.79914449451603,11.793929226271104,177.02637022703064,414.18374679995117,0.0
0.026000000000000002,4.4734353073349595,-1.9962166741499119,10.0,0.0,10.197980960389518,12.146045424568259,181.63161391243256,414.18374679995117,0.0
0.027,4.582366840795821,-1.966358349113627,10.0,0.0,10.589124658468391,12.491912978736195,185.74793639675826,414.18374679995117,0.0
0.028,4.700058850757774,-1.9240450691803936,10.0,0.0,10.971384864613876,12.830451341534015,189.43662766964098,414.18374679995117,0.0
0.029,4.820934284790598,-1.879137197786803,10.0,0.0,11.344756153370636,13.161242511022618,192.73598774770625,414.18374679995117,0.0
0.03,4.952016225740939,-1.821000614527957,10.0,0.0,11.707923484756042,13.483081433273819,195.59831968863915,414.18374679995117,0.0
0.031,5.086039273572549,-1.7621311371320891,10.0,0.0,12.061063698547066,13.79562148058647,197.80891551030922,414.18374679995117,0.0
0.032,5.230431844273564,-1.6911110488141978,10.0,0.0,12.40292038074925,14.097678592248165,200.4421589734679,414.18374679995117,0.0
0.033,5.380124186618445,-1.6166151787533525,10.0,0.0,12.733312761073865,14.38869342901298,201.91742172589852,414.18374679995117,0.0
0.034,5.537594793894332,-1.535029134414507,10.0,0.0,13.051537880865839,14.667821176756876,203.18880493813168,414.18374679995117,0.0
0.035,5.698947813469154,-1.4530296333491768,10.0,0.0,13.357649178779205,14.934684535625108,203.60405746232266,414.18374679995117,0.0
0.036000000000000004,5.870474243492053,-1.3603000477825025,10.0,0.0,13.65045542338638,15.188218311291084,204.28541056101804,414.18374679995117,0.0
0.037,6.041188711220851,-1.275010780747051,10.0,0.0,13.930879897581198,15.42861600670124,205.2233356988433,414.18374679995117,0.0
0.038,6.228175208801664,-1.168399557236846,10.0,0.0,14.196427351981786,15.654155009933262,200.35169734043586,414.18374679995117,0.0
0.039,6.404895489618571,-1.0845312562500289,10.0,0.0,14.449814560392067,15.86612549236809,209.64773540576442,414.18374679995117,0.0
0.04,6.534612624563911,-1.0851225869390002,10.0,0.0,14.699963825590459,16.069735965364643,218.170241886545,414.18374679995117,0.0
0.041,6.621487035821765,-1.1484636683301073,10.0,0.0,14.952420817214799,16.26974130369247,220.68166573712315,414.18374679995117,0.0
0.042,6.6704785161669795,-1.2647840534085386,10.0,0.0,15.211794475054209,16.47047148862455,233.10654395573727,414.18374679995117,0.0
0.043000000000000003,6.709376245503157,-1.3867642159960276,10.0,0.0,15.477558399636717,16.673277185423842,235.10815372853793,414.18374679995117,0.0
0.044,6.744196093263161,-1.5028656568708394,10.0,0.0,15.74857785831126,16.87893749904121,248.8181267625822,414.18374679995117,0.0
0.045,6.750563942850831,-1.6564343609015326,10.0,0.0,16.02879294551472,17.090781462187255,251.61117095327992,414.18374679995117,0.0
0.046,6.764566527560506,-1.7840489455190416,10.0,0.0,16.314672837580048,17.307985931916857,266.60539535969383,414.18374679995117,0.0
0.047,6.752169677737121,-1.9446655565152717,10.0,0.0,16.610076868775216,17.533561623207692,270.0627790167984,414.18374679995117,0.0
0.048,6.7291903821171735,-2.110358990489937,10.0,0.0,16.91511817760721,17.768523902508925,283.13731951482634,414.18374679995117,0.0
0.049,6.714097190323873,-2.246352557911731,10.0,0.0,17.22645394156277,18.011924542904307,294.70561782835244,414.18374679995117,0.0
0.05,6.666841209228205,-2.4219663531358275,10.0,0.0,17.548953774962747,18.267165921658286,300.1294548425776,414.18374679995117,0.0
0.051000000000000004,6.612335516543512,-2.59336894353628,10.0,0.0,17.88182590988993,18.53465621226123,310.75154600411304,414.18374679995117,0.0
0.052000000000000005,6.568447424188529,-2.726701034625408,10.0,0.0,18.22111236450049,18.81296732052879,322.35703405819294,414.18374679995117,0.0
0.053,6.5036136539679195,-2.8764091099274185,10.0,0.0,18.569435851849082,19.104068797231378,330.9557012510771,414.18374679995117,0.0
0.054,6.434362099984388,-3.0149932598739144,10.0,0.0,18.925784313874168,19.407861808234543,339.4707232587175,414.18374679995117,0.0
0.055,6.370891759459199,-3.1253006473392393,10.0,0.0,19.28762520191878,19.723199586257838,348.00092263299223,414.18374679995117,0.0
0.056,6.314459991163816,-3.2071523724558277,10.0,0.0,19.65271639484943,20.048760466390505,356.29964302226927,414.18374679995117,0.0
0.057,6.266092078485367,-3.262894600420583,10.0,0.0,20.01916768432525,20.383030530514645,362.98468703488817,414.18374679995117,0.0
0.058,6.234656406121481,-3.2830044001420036,10.0,0.0,20.38405550695561,20.723492962007192,368.0316803659419,414.18374679995117,0.0
0.059000000000000004,6.228510489334133,-3.2600491726267444,10.0,0.0,20.743774617448285,21.0667596267365,372.35801287012686,414.18374679995117,0.0
0.06,6.247959954981508,-3.201438289803519,10.0,0.0,21.095630838529225,21.40947063565305,373.88739853789605,414.18374679995117,0.0
0.061,6.298571070969623,-3.1064761741463998,10.0,0.0,21.436712814499675,21.747723437683817,371.47602194372377,414.18374679995117,0.0
0.062,6.38094735961424,-2.982369480030801,10.0,0.0,21.76480975788002,22.077703876517536,366.2922057853833,414.18374679995117,0.0
0.063,6.53566146196873,-2.7695519558602215,10.0,0.0,22.070926190088084,22.39130117743337,372.07145994459506,414.18374679995117,0.0
0.064,6.708566607552835,-2.560747003310555,10.0,0.0,22.35695033962817,22.686677966487718,365.1882535794375,414.18374679995117,0.0
0.065,6.897199383751794,-2.3667028673086685,10.0,0.0,22.62465294768497,22.962098937664592,356.7297130485294,414.18374679995117,0.0
0.066,7.167218997264825,-2.0824440278168583,10.0,0.0,22.863799361069702,23.20893224280502,357.7888817172531,414.18374679995117,0.0
0.067,7.423387055578651,-1.859201647307153,10.0,0.0,23.082000390168847,23.42951856849048,345.1266644280509,414.18374679995117,0.0
0.068,7.736929428236853,-1.5824320316278497,10.0,0.0,23.27222771500701,23.617938384108047,342.9584987314189,414.18374679995117,0.0
0.069,8.04132723792414,-1.3546495884062866,10.0,0.0,23.43998591632552,23.77619061530866,334.2677598047511,414.18374679995117,0.0
0.07,8.395997401416553,-1.0747195592463576,10.0,0.0,23.578279041856877,23.89942370363377,322.7417355360636,414.18374679995117,0.0
0.07100000000000001,8.726669482066718,-0.8579631993863083,10.0,0.0,23.694022264374595,23.99133556844291,337.9106389559309,414.18374679995117,0.0
0.07200000000000001,8.91385728821635,-0.8925675486457335,10.0,0.0,23.81335639313859,24.06834663115294,344.8606079910171,414.18374679995117,0.0
0.073,8.941721008651788,-1.1508071676799903,10.0,0.0,23.95651852989837,24.148396869281978,362.43451347602996,414.18374679995117,0.0
0.074,8.927907180207171,-1.4305443375681337,10.0,0.0,24.121558169292424,24.236556455607346,368.59250641149885,414.18374679995117,0.0
0.075,8.859340450140312,-1.7499202918046703,10.0,0.0,24.31124378664675,24.33980824926249,387.10067316750514,414.18374679995117,0.0
0.076,8.767176841935807,-2.0562826706616475,10.0,0.0,24.52279212376306,24.461155754889383,396.7190369145668,414.18374679995117,0.0
0.077,8.62162972262067,-2.4016532593838043,10.0,0.0,24.76024751870129,24.606611890707832,408.83095327273656,414.18374679995117,0.0
0.078,8.47560200325128,-2.694417929744825,9.487500650120403,0.0,25.017253395580045,24.719500601888992,427.9972068713984,414.18374679995117,0.0
0.079,8.261927013420127,-2.9892097237100184,-0.23376074992499607,0.0,25.289347006521588,23.804631240821433,429.23173025811485,414.18374679995117,0.0
0.08,7.515233116151851,-3.003890222746876,-1.0015022778648497,0.0,25.44141125721663,23.101218801683068,431.2079139522907,414.18374679995117,0.0
0.081,6.732370260980053,-2.9092376069384716,-2.159835796476175,0.0,25.497369246199035,22.442262734856406,432.9277140122128,414.18374679995117,0.0
0.082,5.985823950220326,-2.768914280965223,-3.20717549855983,0.0,25.467346789901566,21.825465507199407,431.25608639704893,414.18374679995117,0.0
0.083,5.31337420449402,-2.590579360109052,-2.5420850869488794,0.0,25.360433248433694,21.417483107898708,426.97743746582177,414.18374679995117,0.0
0.084,4.8109995181668275,-2.4189896955008043,-0.5306975279940014,0.0,25.2063213072842,21.30274603978895,421.97699374363873,414.18374679995117,0.0
0.085,4.551604590668678,-2.285402597067918,1.8915918636606417,0.0,25.043168169257136,21.453919137029196,416.4965821729552,414.18374679995117,0.0
0.08600000000000001,4.533870746173479,-2.2026731666352157,4.608669295272373,0.0,24.90368328839353,21.847672007922945,411.1152993682626,414.18374679995117,0.0
0.08700000000000001,4.747012014399858,-2.1539457844678997,7.32999517193556,0.0,24.812989464971583,22.43665329780794,411.34600442931395,414.18374679995117,0.0
0.088,5.151501943218159,-2.1326012656072644,7.243020065116248,0.0,24.78840252962734,22.878524076357742,410.9994806139347,414.18374679995117,0.0
0.089,5.54228138356614,-2.096792960640526,7.4481246346660495,0.0,24.806735897314773,23.258239498086706,396.6126740909738,414.18374679995117,0.0
0.09,5.946405544760336,-1.973604473124815,10.0,0.0,24.848014819829285,23.83992609557487,394.76412759408447,414.18374679995117,0.0
0.091,6.4821907116107145,-1.8394785710917687,10.0,0.0,24.929812545492695,24.287158045170745,388.9867182562075,414.18374679995117,0.0
0.092,6.975723610430147,-1.7289267536552795,10.0,0.0,25.037334252651664,24.648915805171733,377.0094848004504,414.18374679995117,0.0
0.093,7.4943711012147824,-1.504705137930412,10.0,0.0,25.146720705539465,24.933134064890396,372.21942595359405,414.18374679995117,0.0
0.094,7.948121177609581,-1.3207555377400815,10.0,0.0,25.255598099246658,25.155143110430394,362.31609306306956,414.18374679995117,0.0
0.095,8.427464647523884,-1.0516717577569032,10.0,0.0,25.348028938340892,25.317648709860492,349.4676936560753,414.18374679995117,0.0
0.096,8.856417477271744,-0.8353797750693603,10.0,0.0,25.426365973172906,25.43075545668388,359.28759846004294,414.18374679995117,0.0
0.097,9.203007548907815,-0.7402705306159674,10.0,0.0,25.49988088214106,25.506549852725634,365.81111149532916,414.18374679995117,0.0
0.098,9.297910574142103,-0.9984410582147456,10.0,0.0,25.602973590296983,25.575142868000626,384.0941938952021,414.18374679995117,0.0
0.099,9.295528618744818,-1.3426166698532982,10.0,0.0,25.737893941169062,25.64839689790975,391.7253992007612,414.18374679995117,0.0
0.1,9.24975476209966,-1.6802909632469318,10.0,0.0,25.900350076101763,25.732828864592168,411.17178606994037,414.18374679995117,0.0
0.101,9.13021057654819,-2.0682145698051015,8.142246963613909,0.0,26.094298647996894,25.63340253594135,418.06847912913264,414.18374679995117,0.0
0.10200000000000001,8.887649436959572,-2.37638975653638,4.655053110725957,0.0,26.288929764312286,25.223786187390548,430.60202134831394,414.18374679995117,0.0
0.10300000000000001,8.410343653287162,-2.5982038355668795,-1.7759007443483208,0.0,26.444453930967114,24.252139624605157,434.63371544893056,414.18374679995117,0.0
0.10400000000000001,7.588887567670541,-2.605443591988234,-3.9962474811464244,0.0,26.485839257093946,23.29886864384784,437.96139033691736,414.18374679995117,0.0
0.105,6.673703410493007,-2.52705586281618,-5.897861360509488,0.0,26.41906390475923,22.350544930850347,437.7510288302257,414.18374679995117,0.0
0.106,5.764679045593725,-2.386870136184939,-6.0283534274664135,0.0,26.249497163720534,21.585878903914644,435.27945909475073,414.18374679995117,0.0
0.107,4.990874245591241,-2.2325334839362054,-5.003525682676916,0.0,26.00484531961108,21.07078706251633,431.48546024652205,414.18374679995117,0.0
0.108,4.425784229448,-2.099350949404878,-3.279543393028284,0.0,25.72004276349677,20.816550849036098,426.28779398430953,414.18374679995117,0.0
0.109,4.090656811444309,-2.009300080865956,-0.8017507337656067,0.0,25.429723071451917,20.84578848673384,420.58643777196005,414.18374679995117,0.0
0.11,4.004285586246107,-1.9617435377352694,1.9849004626890459,0.0,25.16702840132233,21.130973657066477,414.9012911152682,414.18374679995117,0.0
0.111,4.145129687769753,-1.9606661498212572,4.820298347881811,0.0,24.959478767999734,21.629041535339947,409.37623366797703,414.18374679995117,0.0
0.112,4.488492901782318,-1.9793391293964606,7.630902202847126,0.0,24.82455568746915,22.300998595121943,409.82839709071345,414.18374679995117,0.0
0.113,4.994757174180504,-2.012482198800398,7.4483739885712925,0.0,24.77377962880851,22.791828060928992,409.02978692555155,414.18374679995117,0.0
0.114,5.45595974125733,-2.014301648438403,7.899218669896241,0.0,24.77703283136077,23.234245531723314,394.9161353939832,414.18374679995117,0.0
0.115,5.923392434700793,-1.9217728662254312,10.0,0.0,24.814006100197442,23.81251850458359,393.5915558783051,414.18374679995117,0.0
0.116,6.482547686885191,-1.8025137236702955,10.0,0.0,24.89291612157754,24.258820942934616,386.61998869641667,414.18374679995117,0.0
0.117,6.988512798989227,-1.6965396459654731,10.0,0.0,24.998100827532742,24.618319529778944,376.0020171552553,414.18374679995117,0.0
0.11800000000000001,7.513696724774574,-1.4739067245333097,10.0,0.0,25.105287040996373,24.899676147819008,369.7755280291821,414.18374679995117,0.0
0.11900000000000001,7.968190496801478,-1.29524272753849,10.0,0.0,25.212463584462537,25.118873249736325,361.64649503526067,414.18374679995117,0.0
0.12,8.449209339671466,-1.0271216739082214,10.0,0.0,25.30313550784443,25.2785011608131,347.87050296697873,414.18374679995117,0.0
0.121,8.879887018158238,-0.8097264209564927,10.0,0.0,25.379470762707427,25.38866911691554,361.4419094795701,414.18374679995117,0.0
0.122,9.190946242368922,-0.7737716994905903,10.0,0.0,25.45740822086265,25.46554406501574,367.50411952861185,414.18374679995117,0.0
0.123,9.292915953128826,-1.0141998565841885,10.0,0.0,25.562046072507304,25.53441918817994,380.28001276748284,414.18374679995117,0.0
0.124,9.277759865450102,-1.3730420640783358,10.0,0.0,25.700176012557346,25.60955745094446,394.1337649257478,414.18374679995117,0.0
0.125,9.233267537559808,-1.7026679564479625,10.0,0.0,25.864677210964548,25.69573747662867,408.86087188573345,414.18374679995117,0.0
0.126,9.105381202128065,-2.0993925953613473,8.891986334792598,0.0,26.061689743456224,25.681490690030955,419.2005284446128,414.18374679995117,0.0
0.127,8.906321551817287,-2.4162182803595846,3.6719902389062957,0.0,26.268459922999632,25.145868099626625,431.67917162783675,414.18374679995117,0.0
0.128,8.373883862164165,-2.6160245433522857,-2.7422856009845287,0.0,26.419801257627483,24.087691954146678,434.0201647807763,414.18374679995117,0.0
0.129,7.492105422261674,-2.5910853529360516,-4.111146357262568,0.0,26.44544947066885,23.15570688337858,436.88225555625047,414.18374679995117,0.0
0.13,6.5720819080462025,-2.501695162396776,-5.769176832562632,0.0,26.365750826274105,22.243175198435882,436.77909223728,414.18374679995117,0.0
0.131,5.683052094220601,-2.3649295247458486,-5.943548627450684,0.0,26.188618559588356,21.499919269241953,434.25447023542455,414.18374679995117,0.0
0.132,4.930352718345536,-2.2150986939559134,-4.881944860877693,0.0,25.939760191641405,21.005702471778747,430.3280870287879,414.18374679995117,0.0
0.133,4.385354472156638,-2.087322129975809,-3.080196659847725,0.0,25.653808867012916,20.77602059503677,425.0973727539008,414.18374679995117,0.0
0.134,4.0720506924444475,-2.0019405749507317,-0.5739757819436822,0.0,25.36537028176012,20.82739202137173,419.5287293811574,414.18374679995117,0.0
0.135,4.00495799278011,-1.9600131439658253,2.1568960786159526,0.0,25.107154495808025,21.124363301596393,413.80280280939354,414.18374679995117,0.0
0.136,4.158960447911637,-1.961550066274946,5.023668804403461,0.0,24.90504575223744,21.636240959373296,408.51251349520373,414.18374679995117,0.0
0.137,4.5148273606735305,-1.9807788522556442,7.725525794545838,0.0,24.776435446036402,22.30765118282075,409.40630399876494,414.18374679995117,0.0
0.138,5.023962213117695,-2.01415932732235,7.326404970777098,0.0,24.731306757197736,22.775691328146124,407.3966108852029,414.18374679995117,0.0
0.139,5.473898090357833,-2.011774536922905,8.399122886705598,0.0,24.73689882008088,23.27000317107295,393.3398480461357,414.18374679995117,0.0
0.14,5.965611585093258,-1.924630055493099,10.0,0.0,24.78180081591509,23.831223213650006,393.4313859852037,414.18374679995117,0.0
0.14100000000000001,6.521756571327561,-1.8063699562977662,10.0,0.0,24.866197450326403,24.268543866881416,384.7432841306335,414.18374679995117,0.0
0.14200000000000002,7.024510471586123,-1.6938610746616822,10.0,0.0,24.97469311063172,24.620830639064714,376.05972555097645,414.18374679995117,0.0
0.14300000000000002,7.544710838092536,-1.4675441765925785,10.0,0.0,25.083798112153588,24.8965437987471,368.01574223666495,414.18374679995117,0.0
0.14400000000000002,7.9941902202602835,-1.2876665405183467,10.0,0.0,25.19204055850403,25.111355414240045,361.81335282360413,414.18374679995117,0.0
0.145,8.471298114812914,-1.0191020577818302,10.0,0.0,25.28319660502844,25.26752303823962,347.15240637273104,414.18374679995117,0.0
