timestamp,iq,id,iq_ref,id_ref,vq,vd,omega,omega_ref,r
0.0,0.0,0.0,0.0,0.0,0.0,0.0,0.0,373.18420103706393,0.0
0.001,0.0,0.0,10.0,0.0,0.0,1.0999999999999999,6.115472199294103,373.18420103706393,0.0
0.002,0.5307369851907212,-0.2913212625381807,10.0,0.0,0.14204533887919985,1.9316189316290207,13.317801563642547,373.18420103706393,0.0
0.003,1.0842913387634832,-0.6024330830807904,10.0,0.0,0.384357124667687,2.6386968949419622,20.697939467553027,373.18420103706393,0.0
0.004,1.5590443546685477,-0.8700465084428163,10.0,0.0,0.6994718867930164,3.2526109522886295,28.232747544420146,373.18420103706393,0.0
0.005,1.9399447555359186,-1.0838738622210777,10.0,0.0,1.065311453102468,3.7994935661768023,35.92944872443006,373.18420103706393,0.0
0.006,2.239750732602683,-1.2510087368845633,10.0,0.0,1.4655018868449925,4.299102221838433,43.75633668444442,373.18420103706393,0.0
0.007,2.4770151619816017,-1.382020589851471,10.0,0.0,1.8883740978591532,4.765668027847139,51.58766747378032,373.18420103706393,0.0
0.008,2.6680767290418097,-1.4872241871505252,10.0,0.0,2.325877945545995,5.209220346273558,59.45942083902103,373.18420103706393,0.0
0.009000000000000001,2.8266491704841292,-1.5730794701170803,10.0,0.0,2.772378685460125,5.636635464737965,67.35059094018146,373.18420103706393,0.0
0.01,2.962077666392183,-1.645500646948331,10.0,0.0,3.224078639851053,6.052647735211881,75.20908322432116,373.18420103706393,0.0
0.011,3.0811061533574158,-1.7084279320504514,10.0,0.0,3.678407615443203,6.460489925470405,83.0265951655913,373.18420103706393,0.0
0.012,3.188848746459569,-1.7638278597420747,10.0,0.0,4.133552631697047,6.862319393890706,90.74118064793086,373.18420103706393,0.0
0.013000000000000001,3.288205119878689,-1.8140726097274587,10.0,0.0,4.588339016389012,7.259628641949282,98.35820682563939,373.18420103706393,0.0
0.014,3.3820602099432007,-1.8592355758795645,10.0,0.0,5.041843166194517,7.653355107498287,105.90865295623543,373.18420103706393,0.0
0.015,3.4721069852858886,-1.899829032412081,10.0,0.0,5.493383198131427,8.044092747085895,113.37727610343421,373.18420103706393,0.0
0.016,3.5596145800153947,-1.9360338400176071,10.0,0.0,5.94241958510469,8.43218525824161,120.68508583176356,373.18420103706393,0.0
0.017,3.645144415105338,-1.9685384477868613,10.0,0.0,6.388575043274759,8.817838951066484,127.83962377537456,373.18420103706393,0.0
0.018000000000000002,3.730251927866576,-1.9959253041084188,10.0,0.0,6.83136783302799,9.201036292373047,134.85405702603322,373.18420103706393,0.0
0.019,3.81544967906247,-2.018253592643655,10.0,0.0,7.270383321112213,9.581672501020332,141.68976328564074,373.18420103706393,0.0
0.02,3.9014648862453374,-2.0350875541282063,10.0,0.0,7.705189334130692,9.959536942333155,148.3432823300447,373.18420103706393,0.0
0.021,3.9891051824829464,-2.0457889559126508,10.0,0.0,8.135310004560049,10.334315260302239,154.92060212100432,373.18420103706393,0.0
0.022,4.079618141396171,-2.0489696811670974,10.0,0.0,8.560139305503519,10.705547790999272,161.01925282597162,373.18420103706393,0.0
0.023,4.171109372430197,-2.048468292080302,10.0,0.0,8.979521969370257,11.072981092896333,166.534238406907,373.18420103706393,0.0
0.024,4.266936196769627,-2.039517194249811,10.0,0.0,9.392730090169543,11.435983292623375,171.8647834235234,373.18420103706393,0.0
0.025,4.367255527950721,-2.0225841458509217,10.0,0.0,9.79914449451603,11.793929226271104,177.02637022703064,373.18420103706393,0.0
0.026000000000000002,4.4734353073349595,-1.9962166741499119,10.0,0.0,10.197980960389518,12.146045424568259,181.63161391243256,373.18420103706393,0.0
0.027,4.582366840795821,-1.966358349113627,10.0,0.0,10.589124658468391,12.491912978736195,185.74793639675826,373.18420103706393,0.0
0.028,4.700058850757774,-1.9240450691803936,10.0,0.0,10.971384864613876,12.830451341534015,189.43662766964098,373.18420103706393,0.0
0.029,4.820934284790598,-1.879137197786803,10.0,0.0,11.344756153370636,13.161242511022618,192.73598774770625,373.18420103706393,0.0
0.03,4.952016225740939,-1.821000614527957,10.0,0.0,11.707923484756042,13.483081433273819,195.59831968863915,373.18420103706393,0.0
0.031,5.086039273572549,-1.7621311371320891,10.0,0.0,12.061063698547066,13.79562148058647,197.80891551030922,373.18420103706393,0.0
0.032,5.230431844273564,-1.6911110488141978,10.0,0.0,12.40292038074925,14.097678592248165,200.4421589734679,373.18420103706393,0.0
0.033,5.380124186618445,-1.6166151787533525,10.0,0.0,12.733312761073865,14.38869342901298,201.91742172589852,373.18420103706393,0.0
0.034,5.537594793894332,-1.535029134414507,10.0,0.0,13.051537880865839,14.667821176756876,203.18880493813168,373.18420103706393,0.0
0.035,5.698947813469154,-1.4530296333491768,10.0,0.0,13.357649178779205,14.934684535625108,203.60405746232266,373.18420103706393,0.0
0.036000000000000004,5.870474243492053,-1.3603000477825025,10.0,0.0,13.65045542338638,15.188218311291084,204.28541056101804,373.18420103706393,0.0
0.037,6.041188711220851,-1.275010780747051,10.0,0.0,13.930879897581198,15.42861600670124,205.2233356988433,373.18420103706393,0.0
0.038,6.228175208801664,-1.168399557236846,10.0,0.0,14.196427351981786,15.654155009933262,200.35169734043586,373.18420103706393,0.0
0.039,6.404895489618571,-1.0845312562500289,10.0,0.0,14.449814560392067,15.86612549236809,209.64773540576442,373.18420103706393,0.0
0.04,6.534612624563911,-1.0851225869390002,10.0,0.0,14.699963825590459,16.069735965364643,218.170241886545,373.18420103706393,0.0
0.041,6.621487035821765,-1.1484636683301073,10.0,0.0,14.952420817214799,16.26974130369247,220.68166573712315,373.18420103706393,0.0
0.042,6.6704785161669795,-1.2647840534085386,10.0,0.0,15.211794475054209,16.47047148862455,233.10654395573727,373.18420103706393,0.0
0.043000000000000003,6.709376245503157,-1.3867642159960276,10.0,0.0,15.477558399636717,16.673277185423842,235.10815372853793,373.18420103706393,0.0
0.044,6.744196093263161,-1.5028656568708394,10.0,0.0,15.74857785831126,16.87893749904121,248.8181267625822,373.18420103706393,0.0
0.045,6.750563942850831,-1.6564343609015326,10.0,0.0,16.02879294551472,17.090781462187255,251.61117095327992,373.18420103706393,0.0
0.046,6.764566527560506,-1.7840489455190416,10.0,0.0,16.314672837580048,17.307985931916857,266.60539535969383,373.18420103706393,0.0
0.047,6.752169677737121,-1.9446655565152717,10.0,0.0,16.610076868775216,17.533561623207692,270.0627790167984,373.18420103706393,0.0
0.048,6.7291903821171735,-2.110358990489937,10.0,0.0,16.91511817760721,17.768523902508925,283.13731951482634,373.18420103706393,0.0
0.049,6.714097190323873,-2.246352557911731,10.0,0.0,17.22645394156277,18.011924542904307,294.70561782835244,373.18420103706393,0.0
0.05,6.666841209228205,-2.4219663531358275,10.0,0.0,17.548953774962747,18.267165921658286,300.1294548425776,373.18420103706393,0.0
0.051000000000000004,6.612335516543512,-2.59336894353628,10.0,0.0,17.88182590988993,18.53465621226123,310.75154600411304,373.18420103706393,0.0
0.052000000000000005,6.568447424188529,-2.726701034625408,10.0,0.0,18.22111236450049,18.81296732052879,322.35703405819294,373.18420103706393,0.0
0.053,6.5036136539679195,-2.8764091099274185,10.0,0.0,18.569435851849082,19.104068797231378,330.9557012510771,373.18420103706393,0.0
0.054,6.434362099984388,-3.0149932598739144,10.0,0.0,18.925784313874168,19.407861808234543,339.4707232587175,373.18420103706393,0.0
0.055,6.370891759459199,-3.1253006473392393,10.0,0.0,19.28762520191878,19.723199586257838,348.00092263299223,373.18420103706393,0.0
0.056,6.314459991163816,-3.2071523724558277,10.0,0.0,19.65271639484943,20.048760466390505,356.29964302226927,373.18420103706393,0.0
0.057,6.266092078485367,-3.262894600420583,10.0,0.0,20.01916768432525,20.383030530514645,362.98468703488817,373.18420103706393,0.0
0.058,6.234656406121481,-3.2830044001420036,10.0,0.0,20.38405550695561,20.723492962007192,368.0316803659419,373.18420103706393,0.0
0.059000000000000004,6.228510489334133,-3.2600491726267444,8.403421313275189,0.0,20.743774617448285,20.891135971196768,371.1374701589082,373.18420103706393,0.0
0.06,6.161112689729546,-3.1648287025278012,6.870993725573608,0.0,21.07404141837492,20.932737641525353,367.3134204730364,373.18420103706393,0.0
0.061,6.046205358945566,-2.984588495788769,8.841726374149776,0.0,21.356567488201446,21.247276520524338,362.73066751521804,373.18420103706393,0.0
0.062,6.103756895346948,-2.7868973194653606,10.0,0.0,21.62235121161704,21.658837148651838,368.52549096531845,373.18420103706393,0.0
0.063,6.273227711304086,-2.632455268585849,8.362060800179108,0.0,21.88770091167031,21.845997763678078,366.04791686990126,373.18420103706393,0.0
0.064,6.390600980416591,-2.44629691806753,9.672210689559334,0.0,22.126298705172655,22.190256815594257,353.39220249253674,373.18420103706393,0.0
0.065,6.634297773680357,-2.2193173734377325,10.0,0.0,22.352356458112293,22.521272152355827,359.04024185256213,373.18420103706393,0.0
0.066,6.920429978377889,-2.009077031299972,10.0,0.0,22.568053327245266,22.809476263046708,347.40271313844784,373.18420103706393,0.0
0.067,7.220043005866833,-1.8070293982290282,10.0,0.0,22.7708780843176,23.060333538604993,346.5140902741228,373.18420103706393,0.0
0.068,7.557453984022775,-1.5603175275709704,10.0,0.0,22.953388263796857,23.272268484992416,334.0835105840549,373.18420103706393,0.0
0.069,7.883367696382313,-1.3448267834346064,10.0,0.0,23.117604056818507,23.448784556111033,334.1767344851019,373.18420103706393,0.0
0.07,8.229107850272516,-1.110994010191142,10.0,0.0,23.259483180034433,23.589298319615626,322.1688275528637,373.18420103706393,0.0
0.07100000000000001,8.588103462678518,-0.8660862205010472,10.0,0.0,23.376624238145773,23.693916503265594,328.94277310146725,373.18420103706393,0.0
0.07200000000000001,8.789967316154994,-0.8911169666288586,10.0,0.0,23.497715468781905,23.78117190660335,345.0837149827567,373.18420103706393,0.0
0.073,8.860898682319103,-1.0923022876493642,10.0,0.0,23.637303194539193,23.866027080927662,349.6517497289734,373.18420103706393,0.0
0.074,8.850990396702766,-1.3779899897710504,10.0,0.0,23.800831459176365,23.958154735474697,367.901325582177,373.18420103706393,0.0
0.075,8.797705127704777,-1.6849120004147105,9.45351876180583,0.0,23.988124206954105,24.003071811563004,374.30828931815864,373.18420103706393,0.0
0.076,8.681499914634145,-1.9816382912436465,6.238796011004053,0.0,24.190750059447648,23.726321485361797,388.06540421288196,373.18420103706393,0.0
0.077,8.356236718257469,-2.2030285999719803,-0.7885734681157857,0.0,24.366823965123544,22.791262261305626,389.8346063531056,373.18420103706393,0.0
0.078,7.6338812227034065,-2.2186330536419625,-1.8396785913880151,0.0,24.431287144642653,21.998174954001097,394.8200551382981,373.18420103706393,0.0
0.079,6.856457496703814,-2.1896613853433626,-4.548761524996601,0.0,24.40665234742984,21.081647678819117,396.6136141832991,373.18420103706393,0.0
0.08,6.017154630147494,-2.105938822312873,-5.679835178959461,0.0,24.283908537169754,20.24153145689543,396.08223131515274,373.18420103706393,0.0
0.081,5.225502721005024,-1.9971342260298284,-5.643124047667174,0.0,24.07829620578248,19.567190118459987,394.13367066840163,373.18420103706393,0.0
0.082,4.561573404551876,-1.897826582523925,-4.878338420604998,0.0,23.81597517886756,19.088596694111704,391.29335554062146,373.18420103706393,0.0
0.083,4.067446999758543,-1.8208981696917306,-3.639272401750487,0.0,23.524557863232822,18.80799452667287,387.84726422371244,373.18420103706393,0.0
0.084,3.750722336574099,-1.775627477234873,-2.062857375162463,0.0,23.230011570375748,18.717224286052925,383.606556983273,373.18420103706393,0.0
0.085,3.604603192594136,-1.7625652743353095,-0.046727314404822806,0.0,22.954858747348,18.824992455832692,379.2802862940541,373.18420103706393,0.0
0.08600000000000001,3.6295387169298214,-1.7767644542334673,2.0554471776347043,0.0,22.7196905554188,19.10134232073175,374.71183358921917,373.18420103706393,0.0
0.08700000000000001,3.803116101928906,-1.8140770102879284,4.324397204530628,0.0,22.53963655853943,19.536258980879595,370.8165812792756,373.18420103706393,0.0
0.088,4.117880714534557,-1.85547498022223,6.295699557080283,0.0,22.425260278495017,20.07094400029959,371.6925602496343,373.18420103706393,0.0
0.089,4.533034760157103,-1.8933183792835975,5.872626479775235,0.0,22.379538922594445,20.431952528851667,371.2085041944408,373.18420103706393,0.0
0.09,4.878299035003453,-1.9043726218907653,6.134411475798212,0.0,22.375328087835314,20.75148761951719,359.5869096310725,373.18420103706393,0.0
0.091,5.219318933194924,-1.8287681132036875,10.0,0.0,22.39506480723699,21.427185459289607,359.76204100320297,373.18420103706393,0.0
0.092,5.749159829687355,-1.7824316279928447,10.0,0.0,22.476056670389433,21.94375900215069,359.0737917133938,373.18420103706393,0.0
0.093,6.238473143085716,-1.7543200518519093,10.0,0.0,22.597977792989337,22.368248321532008,346.4507015447765,373.18420103706393,0.0
0.094,6.725748432797426,-1.626853599843591,10.0,0.0,22.73641554130788,22.713773672500885,347.5609977080174,373.18420103706393,0.0
0.095,7.160156924993104,-1.4885865578698319,10.0,0.0,22.881627339794427,22.995678081960307,335.525349403533,373.18420103706393,0.0
0.096,7.58234134701255,-1.2997295641783002,10.0,0.0,23.021116800491924,23.221817028822276,332.8655134103552,373.18420103706393,0.0
0.097,7.96646052615534,-1.1261020902110843,10.0,0.0,23.1520607576064,23.401259761582274,325.3855796913807,373.18420103706393,0.0
0.098,8.36839259364088,-0.893520010241819,10.0,0.0,23.264006838228468,23.535481281145742,321.4206806436855,373.18420103706393,0.0
0.099,8.67019450322553,-0.8100289387407731,10.0,0.0,23.37132226567928,23.638296367435622,339.79022449789295,373.18420103706393,0.0
0.1,8.77844391177253,-1.0048012605739172,10.0,0.0,23.50044752513063,23.732672071997264,346.1841607074216,373.18420103706393,0.0
0.101,8.815793782521355,-1.2547512635679712,10.0,0.0,23.651644606204027,23.827496740350966,359.56037483752044,373.18420103706393,0.0
0.10200000000000001,8.771346414363029,-1.5824300708616728,10.0,0.0,23.83074961477783,23.93322135918156,370.09843075622126,373.18420103706393,0.0
0.10300000000000001,8.719068572672793,-1.8642178877666002,7.702494765072155,0.0,24.030236456163905,23.79886453004874,383.64885898906306,373.18420103706393,0.0
0.10400000000000001,8.476441464536755,-2.1455612971898055,0.822634069131265,0.0,24.224468827365612,22.990248647241664,385.77955717479927,373.18420103706393,0.0
0.105,7.856316827414615,-2.1976957508688106,-0.3686685851141913,0.0,24.321337728976882,22.285460343829946,392.5984470809575,373.18420103706393,0.0
0.106,7.14808475702296,-2.2148350922527396,-3.972255998632243,0.0,24.3394048931013,21.348060453347856,394.74580730272373,373.18420103706393,0.0
0.107,6.3151969609795415,-2.1429989998472054,-5.261552172171959,0.0,24.253851988186618,20.484955900233086,395.1348968606871,373.18420103706393,0.0
0.108,5.503167714829644,-2.0393120501427067,-5.675603909389871,0.0,24.079856714908498,19.74794812169581,393.78045620337315,373.18420103706393,0.0
0.109,4.789693884518617,-1.9347244406821191,-5.204346132395991,0.0,23.839092423560828,19.193582295398663,391.22082190688604,373.18420103706393,0.0
0.11,4.230270113637625,-1.8475742511312483,-4.10489519285066,0.0,23.55842733396223,18.841205524670315,388.1662218307054,373.18420103706393,0.0
0.111,3.8487010974989113,-1.7885575328886898,-2.7274153626967577,0.0,23.26497073913947,18.67290654804287,384.16502593526707,373.18420103706393,0.0
0.112,3.635658907884332,-1.7622262528576003,-0.8366256639596177,0.0,22.981723632515273,18.70592282885165,379.7767087914067,373.18420103706393,0.0
0.113,3.5959860178994436,-1.7652244329613098,1.291607830427143,0.0,22.73069597724607,18.9247441543145,375.4670872829807,373.18420103706393,0.0
0.114,3.7156947105746267,-1.7968219309109676,3.423589722180978,0.0,22.53009896302351,19.29625156975908,370.8435521476032,373.18420103706393,0.0
0.115,3.9748276745246156,-1.839412457781779,5.758763778764332,0.0,22.391081374743948,19.818790330435828,369.92016371625294,373.18420103706393,0.0
0.116,4.365020893823383,-1.882910607992269,6.253098367647566,0.0,22.32257831261447,20.2658685959449,372.19992779352924,373.18420103706393,0.0
0.117,4.75072867792468,-1.9085766601361507,5.1230590614447635,0.0,22.30802166748257,20.493615135060832,361.87762485226057,373.18420103706393,0.0
0.11800000000000001,5.039867293590257,-1.850101894877575,10.0,0.0,22.311006456075567,21.216947082172865,358.1911202383629,373.18420103706393,0.0
0.11900000000000001,5.577541132824031,-1.8149292836145574,10.0,0.0,22.38274172093412,21.763222167888397,360.55466740153486,373.18420103706393,0.0
0.12,6.0808403256264345,-1.7958748494150436,10.0,0.0,22.500186706229055,22.212057098702303,348.8809491044647,373.18420103706393,0.0
0.121,6.560701182259372,-1.7059864957430309,10.0,0.0,22.641073511513966,22.580001332662707,348.98110774336993,373.18420103706393,0.0
0.122,7.012336853839972,-1.5571300618770314,10.0,0.0,22.78919073547788,22.88035850844804,337.75937139408023,373.18420103706393,0.0
0.123,7.422059942413375,-1.397703731537594,10.0,0.0,22.93648362262526,23.124938506023952,336.77403897226367,373.18420103706393,0.0
0.124,7.823740649826033,-1.1997549527661349,10.0,0.0,23.07332511845402,23.31970214562734,324.4608491187593,373.18420103706393,0.0
0.125,8.21348548327852,-0.9878091228378927,10.0,0.0,23.194624275155867,23.469818446247636,318.2568827509082,373.18420103706393,0.0
0.126,8.572289880615934,-0.808439684070386,10.0,0.0,23.301193966284405,23.581481997103495,335.6920421223007,373.18420103706393,0.0
0.127,8.753035723915112,-0.9028238551468668,10.0,0.0,23.420448996591766,23.67634216319708,340.118000627188,373.18420103706393,0.0
0.128,8.807802354201225,-1.1450551799755835,10.0,0.0,23.562966144498137,23.769424944813565,355.76057486616764,373.18420103706393,0.0
0.129,8.786207574200764,-1.4566532784992643,10.0,0.0,23.732393333364847,23.870374255161956,364.31687431011744,373.18420103706393,0.0
0.13,8.746655862850709,-1.7388530327606952,10.0,0.0,23.922898726363236,23.98230609381067,381.3882765555618,373.18420103706393,0.0
0.131,8.642720489324375,-2.074846980737546,1.6224306879796595,0.0,24.139684100661505,23.191600037546515,382.2019355813898,373.18420103706393,0.0
0.132,8.079315739780057,-2.157201762031369,1.1254238296223855,0.0,24.26141941836608,22.591683231754118,389.89224681737124,373.18420103706393,0.0
0.133,7.442178442522772,-2.2114420599145976,-2.8868122461714005,0.0,24.316132408675177,21.692006793760534,393.632475965043,373.18420103706393,0.0
0.134,6.64463871016734,-2.168672101379571,-4.961409569287069,0.0,24.270159357736322,20.781043951398953,394.59265768860166,373.18420103706393,0.0
0.135,5.809784132655148,-2.0729216269877684,-5.6555849975817765,0.0,24.127582475057448,19.984825370501177,393.7824540323868,373.18420103706393,0.0
0.136,5.0485290830137535,-1.9653844609338262,-5.4564656994275715,0.0,23.908769839034655,19.358205346190626,391.6199085382916,373.18420103706393,0.0
0.137,4.425412515758618,-1.872294956355951,-4.559550027392256,0.0,23.640011990340078,18.929965863552844,388.7408476051712,373.18420103706393,0.0
0.138,3.975915601343473,-1.8034536897803233,-3.27558602651313,0.0,23.34866433397362,18.693154922598847,385.2261786894703,373.18420103706393,0.0
0.139,3.6996693283719684,-1.7666242544376707,-1.6386713451867463,0.0,23.059407523926488,18.64400340592344,380.93528622207936,373.18420103706393,0.0
0.14,3.5904508483957036,-1.7611082321370835,0.42926403665858004,0.0,22.79392277511688,18.791196675168244,376.6756552294476,373.18420103706393,0.0
0.14100000000000001,3.6484972023940685,-1.78239395576538,2.524164991050614,0.0,22.572102417934843,19.099404610032703,371.959487465023,373.18420103706393,0.0
0.14200000000000002,3.849605603163205,-1.8239810329904904,4.894496008983322,0.0,22.407646611215927,19.572855657576557,368.9812812658727,373.18420103706393,0.0
0.14300000000000002,4.1947656014307375,-1.8662856153393592,6.42562830627038,0.0,22.311219123209415,20.09128074641466,371.6572627674014,373.18420103706393,0.0
0.14400000000000002,4.604995578480323,-1.9065423962831083,5.102906938202672,0.0,22.28028209296769,20.345736206615193,366.2267265941347,373.18420103706393,0.0
