timestamp,iq,id,iq_ref,id_ref,vq,vd,omega,omega_ref,r
0.0,0.0,0.0,0.0,0.0,0.0,0.0,0.0,97.74377808755158,0.0
0.001,0.0,0.0,10.0,0.0,0.0,1.0999999999999999,6.115472199294103,97.74377808755158,0.0
0.002,0.5307369851907212,-0.2913212625381807,10.0,0.0,0.14204533887919985,1.9316189316290207,13.317801563642547,97.74377808755158,0.0
0.003,1.0842913387634832,-0.6024330830807904,10.0,0.0,0.384357124667687,2.6386968949419622,20.697939467553027,97.74377808755158,0.0
0.004,1.5590443546685477,-0.8700465084428163,10.0,0.0,0.6994718867930164,3.2526109522886295,28.232747544420146,97.74377808755158,0.0
0.005,1.9399447555359186,-1.0838738622210777,10.0,0.0,1.065311453102468,3.7994935661768023,35.92944872443006,97.74377808755158,0.0
0.006,2.239750732602683,-1.2510087368845633,10.0,0.0,1.4655018868449925,4.299102221838433,43.75633668444442,97.74377808755158,0.0
0.007,2.4770151619816017,-1.382020589851471,10.0,0.0,1.8883740978591532,4.765668027847139,51.58766747378032,97.74377808755158,0.0
0.008,2.6680767290418097,-1.4872241871505252,10.0,0.0,2.325877945545995,5.209220346273558,59.45942083902103,97.74377808755158,0.0
0.009000000000000001,2.8266491704841292,-1.5730794701170803,10.0,0.0,2.772378685460125,5.636635464737965,67.35059094018146,97.74377808755158,0.0
0.01,2.962077666392183,-1.645500646948331,10.0,0.0,3.224078639851053,6.052647735211881,75.20908322432116,97.74377808755158,0.0
0.011,3.0811061533574158,-1.7084279320504514,10.0,0.0,3.678407615443203,6.460489925470405,83.0265951655913,97.74377808755158,0.0
0.012,3.188848746459569,-1.7638278597420747,9.379500165607286,0.0,4.133552631697047,6.794064412107509,90.33256906904101,97.74377808755158,0.0
0.013000000000000001,3.255621030844496,-1.7961267741082811,5.800625304067537,0.0,4.579539476292583,6.7460571899295205,95.33216447191491,97.74377808755158,0.0
0.014,3.129033530281488,-1.7168695920965673,3.3249437387869563,0.0,4.967085635045815,6.5255054987691965,98.31372807242103,97.74377808755158,0.0
0.015,2.865961943044634,-1.559028054758461,1.828462438685201,0.0,5.277252011520619,6.253579464832267,100.23542553501163,97.74377808755158,0.0
0.016,2.552024480693429,-1.3678964419881974,0.8426972329153006,0.0,5.509763084922901,5.978295717289103,100.77228291310128,97.74377808755158,0.0
0.017,2.23526575387899,-1.1841779545631848,0.5439834956149787,0.0,5.673196958741588,5.762494678121223,99.01265016385605,97.74377808755158,0.0
0.018000000000000002,1.9709544000402015,-1.0212492121941417,1.4111111494745479,0.0,5.7826223644752766,5.708894971203677,99.23111441411878,97.74377808755158,0.0
0.019,1.8227909955217365,-0.9104377810493364,1.2870056610775125,0.0,5.8651852889416025,5.662929756247628,101.06759399363133,97.74377808755158,0.0
0.02,1.7213286155927912,-0.8377573205909574,0.33552771226043676,0.0,5.928008663126717,5.536075063494911,100.6263667989919,97.74377808755158,0.0
0.021,1.6017865002952025,-0.7658391152160271,0.5273154224657528,0.0,5.96468003263139,5.470934613930174,98.53012762077859,97.74377808755158,0.0
0.022,1.5196461069141949,-0.7031586034214805,1.5675715162401376,0.0,5.98499454598547,5.536325661604442,99.24800114540007,97.74377808755158,0.0
0.023,1.5210802448443297,-0.6758220717079988,1.193592523350912,0.0,6.007436499401032,5.5446896465850095,101.06314111094838,97.74377808755158,0.0
0.024,1.5175009963526365,-0.6600228591524654,0.25282891034278787,0.0,6.027006107909122,5.455125279620461,98.939191129313,97.74377808755158,0.0
0.025,1.4663072837685394,-0.624222697467006,1.3028497707428621,0.0,6.031882293210101,5.506979756876603,97.46889179190671,97.74377808755158,0.0
0.026000000000000002,1.4790807078194403,-0.6041148214613168,2.040748302402455,0.0,6.039602442962826,5.622888021044341,99.7189644522673,97.74377808755158,0.0
0.027,1.5390359840762866,-0.6161182853857448,0.8959601085750044,0.0,6.059662863948795,5.588204440985218,99.47874333326702,97.74377808755158,0.0
0.028,1.5366328755233505,-0.6070372843832185,0.9987210156179906,0.0,6.073129940080736,5.582610737446999,96.99377316581669,97.74377808755158,0.0
0.029,1.5371487967323314,-0.5827227501854393,2.2487061485605038,0.0,6.082107149493927,5.715313085010525,99.10348882548851,97.74377808755158,0.0
0.03,1.60540502611966,-0.5902583984433452,1.1802512113452237,0.0,6.104528939372499,5.698109998315395,99.36621794646622,97.74377808755158,0.0
0.031,1.6136784410824778,-0.5852360070076352,1.0326622522672224,0.0,6.1223604220531955,5.679091649799172,96.82435269990984,97.74377808755158,0.0
0.032,1.6121855958601083,-0.5571276137553083,2.3127891294218315,0.0,6.133465222270802,5.806295077604516,98.74599609208376,97.74377808755158,0.0
0.033,1.6771828510744395,-0.562019497905254,1.34194525328955,0.0,6.156999076436199,5.795129920979191,98.42607207864134,97.74377808755158,0.0
0.034,1.6885215691108977,-0.5563722989662243,1.495084320099861,0.0,6.176392918797729,5.813391115111526,96.36700564116931,97.74377808755158,0.0
0.035,1.7095753306017898,-0.5323736836802959,2.5383852632996966,0.0,6.19309012064428,5.942794760567027,98.9581744074922,97.74377808755158,0.0
0.036000000000000004,1.779601239904193,-0.544666393178313,1.2306569169388504,0.0,6.222650151049365,5.899152321721585,96.87555639411224,97.74377808755158,0.0
0.037,1.7807490231720977,-0.5258868255622304,2.280648140563222,0.0,6.24270125499665,5.991980450797039,97.78726601967104,97.74377808755158,0.0
0.038,1.8344505894483065,-0.5161838237923733,1.8243584484626276,0.0,6.269150526938226,6.010943404534665,97.82215094691061,97.74377808755158,0.0
0.039,1.856611611404244,-0.5132253890010475,1.8061322562492506,0.0,6.294622769250061,6.031312309117827,96.06637088885674,97.74377808755158,0.0
0.04,1.8843272464228833,-0.4874236204358243,2.700796357263135,0.0,6.316776067594769,6.147959750875029,98.31416131687712,97.74377808755158,0.0
0.041,1.9489651289662486,-0.49866110519338225,1.5711973109596895,0.0,6.349872921289709,6.11512223145788,95.80015167743382,97.74377808755158,0.0
0.042,1.9594506422550029,-0.473315128962582,2.8476383947825177,0.0,6.3734759054404755,6.24007563139915,98.06655779136592,97.74377808755158,0.0
0.043000000000000003,2.028004636388207,-0.47712100667320845,1.7112075407783214,0.0,6.407886037480772,6.209686100760923,95.48990229724839,97.74377808755158,0.0
0.044,2.0387333157868768,-0.4541247722818834,3.0220740457401187,0.0,6.43324855869306,6.340841545683864,97.92369328030718,97.74377808755158,0.0
0.045,2.1119266253979005,-0.4582237883725565,1.8033794022831704,0.0,6.469871226390304,6.306308645142631,95.00331071426825,97.74377808755158,0.0
0.046,2.1231752920780265,-0.43303855715088513,3.290975359035466,0.0,6.496566971668409,6.454208382863866,97.70014975075418,97.74377808755158,0.0
0.047,2.2037747217138546,-0.4427004668335597,1.9429921241604766,0.0,6.536697778568138,6.418080155343873,94.91569691075908,97.74377808755158,0.0
0.048,2.219735129420951,-0.4138877154844556,3.3634993559259505,0.0,6.5659366602806655,6.5583638085573845,97.26002678807757,97.74377808755158,0.0
0.049,2.2956613837844597,-0.4249333510890275,2.196171930261447,0.0,6.607783166573286,6.536739611577129,95.24981924456736,97.74377808755158,0.0
0.05,2.320737910435435,-0.39434780229730526,3.226215290446392,0.0,6.639807735815482,6.644441373413179,96.29107917050327,97.74377808755158,0.0
0.051000000000000004,2.3818352751776533,-0.4006801637320695,2.7201123166489225,0.0,6.680402439562807,6.672133710415141,96.10204627625075,97.74377808755158,0.0
0.052000000000000005,2.4290103876584146,-0.37685373919400367,2.831046081888191,0.0,6.71702267632206,6.713801739280469,94.54511469864198,97.74377808755158,0.0
0.053,2.4646777266035738,-0.3707767243660114,3.6414985045816697,0.0,6.753717484906222,6.839553761619921,96.73520035289384,97.74377808755158,0.0
0.054,2.548855291371253,-0.3729807131405114,2.556541454802317,0.0,6.799621223779389,6.820047404146188,94.88012508840848,97.74377808755158,0.0
0.055,2.5771006212584586,-0.34251709491502047,3.5127156170364304,0.0,6.835610915125313,6.920845574010772,95.0606548488767,97.74377808755158,0.0
0.056,2.6378263375822906,-0.3463106708391894,3.44928196918907,0.0,6.878803383857022,6.992226077641195,96.44671320757823,97.74377808755158,0.0
0.057,2.7053824698417435,-0.3362620355153527,2.769223438638037,0.0,6.923671370433734,6.9797917585143,94.48848302155017,97.74377808755158,0.0
0.058,2.731893381573089,-0.30460799510195424,3.780891482312082,0.0,6.959427668347852,7.088931101099571,95.61424090104143,97.74377808755158,0.0
0.059000000000000004,2.786224341323371,-0.32989454023887244,3.2393079144315533,0.0,7.00562033109828,7.115329969858908,98.65589437538073,97.74377808755158,0.0
0.06,2.8102732112865336,-0.3489047232483584,1.7093600143836123,0.0,7.051671869129276,6.978727718592444,97.50987243857915,97.74377808755158,0.0
0.061,2.743021745638238,-0.3255908539371881,2.284710039274124,0.0,7.0767034007762,6.946616977915101,97.92033130194838,97.74377808755158,0.0
0.062,2.6891365661700006,-0.332739484347514,2.0777150754455413,0.0,7.097040193228945,6.896952373285163,100.53683188657041,97.74377808755158,0.0
0.063,2.6441349785328265,-0.32741300167436926,0.7415342451443374,0.0,7.109719446575271,6.713789289514053,98.39308145095822,97.74377808755158,0.0
0.064,2.5316150147887955,-0.2976471752820149,1.8069164293163662,0.0,7.099593490133426,6.6926914681520895,99.88896501425856,97.74377808755158,0.0
0.065,2.4764731955237433,-0.308210832277795,1.037522778399127,0.0,7.089830007733031,6.582344110321239,99.68178958358862,97.74377808755158,0.0
0.066,2.4080233142798875,-0.2938803002317354,1.1217303787737238,0.0,7.068326142694563,6.505989981327986,99.30821983324113,97.74377808755158,0.0
0.067,2.342487876514136,-0.3009462642643532,1.2928708364905783,0.0,7.042257812624668,6.459628652417115,100.46816346930399,97.74377808755158,0.0
0.068,2.3036870338637323,-0.3061882993736422,0.6856551646416227,0.0,7.014666146892369,6.350404233223673,99.4186391964208,97.74377808755158,0.0
0.069,2.234857650618395,-0.3109007996672525,1.1936686899945252,0.0,6.9793771604951615,6.318479957614137,100.27322232458172,97.74377808755158,0.0
0.07,2.2031038924277633,-0.32080700148819175,0.7410826835437612,0.0,6.945467202374087,6.234159234531241,99.8087720156316,97.74377808755158,0.0
0.07100000000000001,2.149125432555268,-0.3356086688142884,0.9526578987380212,0.0,6.908045289144491,6.188298814684465,100.16606445200664,97.74377808755158,0.0
0.07200000000000001,2.1160720736461998,-0.3450917121124576,0.7497888169059537,0.0,6.870674643342715,6.1219469792272125,100.07864442537826,97.74377808755158,0.0
0.073,2.071812293866338,-0.36217202947742055,0.7701501668418766,0.0,6.832189883052554,6.067299744233473,99.94677431626,97.74377808755158,0.0
0.074,2.036574173251581,-0.3716690793923515,0.814055259113919,0.0,6.792962747609032,6.022328298830485,100.47827001278758,97.74377808755158,0.0
0.075,2.0024291563077408,-0.39281865717289866,0.5209624915977735,0.0,6.755392664226274,5.948655599731619,99.7842961678771,97.74377808755158,0.0
0.076,1.9608815560435904,-0.3978429351248213,0.8475442332497551,0.0,6.714553494068809,5.921676867320863,101.01951949487572,97.74377808755158,0.0
0.077,1.9336454005092947,-0.4204990780083966,0.197175155677203,0.0,6.677542300623692,5.821086176292067,99.55126568877041,97.74377808755158,0.0
0.078,1.8795203793822912,-0.42058979009969155,0.9132271827176692,0.0,6.633956574321411,5.81780423954044,100.21663089416052,97.74377808755158,0.0
0.079,1.8640184178353234,-0.43905740313747654,0.5558160519565285,0.0,6.59643175728744,5.765180144738517,100.37784371830432,97.74377808755158,0.0
0.08,1.831703095810906,-0.45933454611793834,0.44886898357709937,0.0,6.559442822074145,5.70927557730648,99.72027980997224,97.74377808755158,0.0
0.081,1.7976481692845154,-0.467503943702009,0.7578859205189326,0.0,6.52125818594342,5.693746795541369,100.6004199979056,97.74377808755158,0.0
0.082,1.7788509498140588,-0.48847216173507424,0.2892494074487102,0.0,6.487563945257052,5.62303938740904,99.75035767060871,97.74377808755158,0.0
0.083,1.7394761024864147,-0.49494512530884294,0.694214775266587,0.0,6.450670731638875,5.609409112623317,99.85651828555056,97.74377808755158,0.0
0.084,1.7213831719164607,-0.5104149186243385,0.6200070658156691,0.0,6.417740759532908,5.582836516125982,100.92946311999046,97.74377808755158,0.0
0.085,1.7014186989448876,-0.5287045084407576,0.05167779827133279,0.0,6.387303681934455,5.49586920245359,99.70061948161523,97.74377808755158,0.0
0.08600000000000001,1.6518386784216956,-0.5291935245855898,0.6465312035183084,0.0,6.351084476606377,5.490926237169041,99.68718804481163,97.74377808755158,0.0
0.08700000000000001,1.634910668922662,-0.5411311697434211,0.6338128223475079,0.0,6.3193011460885655,5.476874372738543,100.97720525831774,97.74377808755158,0.0
0.088,1.6221082228090342,-0.5576057143620481,-0.043530056113205706,0.0,6.290983785635952,5.387907817857848,99.87439915698829,97.74377808755158,0.0
0.089,1.5710268695747025,-0.5594633836922853,0.4865667838571517,0.0,6.256641103920672,5.37558118799595,99.46018834849218,97.74377808755158,0.0
0.09,1.5498700807943944,-0.5672907897597564,0.6765080854957997,0.0,6.22534246536485,5.378461960962753,99.59538510573434,97.74377808755158,0.0
0.091,1.5439728503763699,-0.5843461947107662,0.5903936366928941,0.0,6.199259588445227,5.3669899178507645,100.03941039997902,97.74377808755158,0.0
0.092,1.536395836425551,-0.597761830464004,0.3454246664462788,0.0,6.175942960789715,5.328745848349327,100.58494956031753,97.74377808755158,0.0
0.093,1.5103363490153294,-0.6092825574582186,0.044243371549366195,0.0,6.152266712561438,5.264105043771902,99.62512031687098,97.74377808755158,0.0
0.094,1.4689191048939,-0.6055119496829664,0.5053445709794466,0.0,6.12396403457303,5.261588941694926,99.5261694286232,97.74377808755158,0.0
0.095,1.453411388729086,-0.6123720426719197,0.5369961016926157,0.0,6.099032330482299,5.256656514747868,99.8173001106304,97.74377808755158,0.0
0.096,1.443824160935976,-0.6242763782903369,0.37069554045823105,0.0,6.077341430094075,5.232014100939122,99.7739336658446,97.74377808755158,0.0
0.097,1.426815225277516,-0.6305551991823972,0.3720772070682026,0.0,6.05592700530574,5.211256938056372,99.75049230496903,97.74377808755158,0.0
0.098,1.4091717241229813,-0.6349074023879928,0.3637307453318108,0.0,6.034994260851659,5.191272817296374,99.72898904035429,97.74377808755158,0.0
0.099,1.39150693136514,-0.6384480827720278,0.35463026811115195,0.0,6.014502331577174,5.172042938481875,99.61155845491878,97.74377808755158,0.0
0.1,1.3740218540026712,-0.6416760852894028,0.39466775715523683,0.0,5.994456280821758,5.158928693770726,99.4698906775299,97.74377808755158,0.0
0.101,1.359649763208323,-0.6457308735772894,0.44824051994989134,0.0,5.975517157357263,5.152019976685876,99.30960515693765,97.74377808755158,0.0
0.10200000000000001,1.3488239099710488,-0.6518545771950321,0.5127250095521574,0.0,5.958414134045804,5.151512908139521,99.02669689083898,97.74377808755158,0.0
0.10300000000000001,1.3439982025122397,-0.656241396377744,0.6413499545686197,0.0,5.943392019284777,5.163272712460539,98.7556085443458,97.74377808755158,0.0
0.10400000000000001,1.3455750063144212,-0.6646683964227134,0.7667758232472637,0.0,5.931931198245074,5.184643215485012,99.36719955234909,97.74377808755158,0.0
0.105,1.3554790960666057,-0.6723064005649853,0.44474610459764463,0.0,5.92450942006699,5.164979376530106,100.13338156283838,97.74377808755158,0.0
0.106,1.343281790291688,-0.6755843364997665,0.037759064600132675,0.0,5.916147628722626,5.106432210972412,99.15832648514534,97.74377808755158,0.0
0.107,1.3065851828972026,-0.663694184092988,0.5111411194707163,0.0,5.901426603832834,5.1129601330274355,98.41995891138725,97.74377808755158,0.0
0.108,1.2963979658565672,-0.6600219667664563,0.8735630981114009,0.0,5.8885454312556735,5.153249385290271,98.56847271524829,97.74377808755158,0.0
0.109,1.3128691981516354,-0.6657530036538752,0.791059249903916,0.0,5.881648437393396,5.173608244257014,99.6464929201418,97.74377808755158,0.0
0.11,1.3252328057704785,-0.6733139418291387,0.23302199913126098,0.0,5.878251421644426,5.129487174322817,99.30419458120603,97.74377808755158,0.0
0.111,1.3019487644911498,-0.6680577337228846,0.38856700366259767,0.0,5.870128208203488,5.114813713430227,98.17788342020515,97.74377808755158,0.0
0.112,1.2857295626174607,-0.6586265291289729,0.9473815308365043,0.0,5.86036509959312,5.162260697019933,97.84368513855041,97.74377808755158,0.0
0.113,1.3044500068707574,-0.6605622362029877,1.113481601153884,0.0,5.856630240026841,5.214448092966206,99.07405514394142,97.74377808755158,0.0
0.114,1.3343078166444602,-0.6708507254140422,0.484993827894481,0.0,5.859599982754293,5.187151452966941,99.4518622234972,97.74377808755158,0.0
0.115,1.3245297928843545,-0.6690208081275044,0.2790094467571349,0.0,5.859238911415441,5.147882207759182,97.98635557000699,97.74377808755158,0.0
0.116,1.3002502407546999,-0.6522198942510712,1.0093369986776852,0.0,5.85315722133616,5.197472624957608,97.26536882954949,97.74377808755158,0.0
0.117,1.3175398763682047,-0.6494168257891701,1.3746144614864586,0.0,5.852502413592601,5.272228421379241,98.63172041983279,97.74377808755158,0.0
0.11800000000000001,1.3586510508769956,-0.6608285316320687,0.6825592430219958,0.0,5.860671984592902,5.255314975885344,99.37993617223607,97.74377808755158,0.0
0.11900000000000001,1.3581515832025348,-0.6593053535918199,0.29208978597350943,0.0,5.866051587300926,5.205344797139457,97.57367044287942,97.74377808755158,0.0
0.12,1.3317606318166357,-0.637905658155334,1.1969237270985575,0.0,5.863557477145946,5.267244034608906,96.68983513022317,97.74377808755158,0.0
0.121,1.3554868893717045,-0.6330768906880381,1.649380812999964,0.0,5.867185534286373,5.360552079508899,98.49018838204799,97.74377808755158,0.0
0.122,1.407676591436682,-0.6470309396454279,0.7417400841425916,0.0,5.881364823262743,5.335023469948014,98.95974474449383,97.74377808755158,0.0
0.123,1.4061442199896612,-0.6432423159283974,0.49480223635024756,0.0,5.891017033286938,5.2960693521520925,96.92923738105387,97.74377808755158,0.0
0.124,1.3865673371888834,-0.6193212566374645,1.5182013251352078,0.0,5.89321518024429,5.379157278776066,96.8606703387428,97.74377808755158,0.0
0.125,1.4239904597768993,-0.6155431467791159,1.5613159237788252,0.0,5.903325923676797,5.444352530083638,98.62489459254178,97.74377808755158,0.0
0.126,1.4652050116952753,-0.6241448147443239,0.6703926318294373,0.0,5.919929082471565,5.401447253017692,97.49895399593214,97.74377808755158,0.0
0.127,1.4529464351185508,-0.611345684768356,1.2358111710504507,0.0,5.929087476703255,5.437358680714247,95.58009634108568,97.74377808755158,0.0
0.128,1.4701380168427898,-0.5971011668018169,2.216876815938341,0.0,5.93948226860487,5.57084418085434,98.02049850934445,97.74377808755158,0.0
0.129,1.5413488666531818,-0.6123927025943218,0.9939085275910267,0.0,5.964010645447173,5.5400221643415986,98.21652023419233,97.74377808755158,0.0
0.13,1.5431345700738754,-0.6059312519687121,0.8911702437006785,0.0,5.982140308027231,5.516179339941726,95.7802785542975,97.74377808755158,0.0
0.131,1.5348419411574914,-0.5779762205636835,2.1289260789806366,0.0,5.993062282960998,5.6346443351745545,97.36288366100683,97.74377808755158,0.0
0.132,1.5928728717035334,-0.5799476726216866,1.3414324698914153,0.0,6.0152349699651015,5.636886844375635,98.10577994181433,97.74377808755158,0.0
0.133,1.6073823659679096,-0.5771192907619869,0.9663643109450377,0.0,6.035083802663756,5.606724074900187,95.52660268780653,97.74377808755158,0.0
0.134,1.6014930260221116,-0.5482203887072375,2.2781246919463896,0.0,6.046780879737576,5.7303997114784435,97.121302575552,97.74377808755158,0.0
0.135,1.6633309363943145,-0.5516033226979646,1.4869995031936538,0.0,6.070336924521365,5.735875053993039,97.18830986173127,97.74377808755158,0.0
0.136,1.6816441452808581,-0.5495474249214665,1.4590505423622189,0.0,6.0918249209829165,5.746599259056829,94.88496073297061,97.74377808755158,0.0
0.137,1.7002293962908992,-0.5261953621804583,2.6393132802883574,0.0,6.109688370380942,5.8866469885183434,97.61007842484064,97.74377808755158,0.0
0.138,1.7751428320948224,-0.5397320796672296,1.2780914309804543,0.0,6.141492807336275,5.8448846337420495,95.60094830532631,97.74377808755158,0.0
