timestamp,iq,id,iq_ref,id_ref,vq,vd,omega,omega_ref,r
0.0,0.0,0.0,0.0,0.0,0.0,0.0,0.0,257.1733963457254,0.0
0.001,0.0,0.0,10.0,0.0,0.0,1.0999999999999999,6.115472199294103,257.1733963457254,0.0
0.002,0.5307369851907212,-0.2913212625381807,10.0,0.0,0.14204533887919985,1.9316189316290207,13.317801563642547,257.1733963457254,0.0
0.003,1.0842913387634832,-0.6024330830807904,10.0,0.0,0.384357124667687,2.6386968949419622,20.697939467553027,257.1733963457254,0.0
0.004,1.5590443546685477,-0.8700465084428163,10.0,0.0,0.6994718867930164,3.2526109522886295,28.232747544420146,257.1733963457254,0.0
0.005,1.9399447555359186,-1.0838738622210777,10.0,0.0,1.065311453102468,3.7994935661768023,35.92944872443006,257.1733963457254,0.0
0.006,2.239750732602683,-1.2510087368845633,10.0,0.0,1.4655018868449925,4.299102221838433,43.75633668444442,257.1733963457254,0.0
0.007,2.4770151619816017,-1.382020589851471,10.0,0.0,1.8883740978591532,4.765668027847139,51.58766747378032,257.1733963457254,0.0
0.008,2.6680767290418097,-1.4872241871505252,10.0,0.0,2.325877945545995,5.209220346273558,59.45942083902103,257.1733963457254,0.0
0.009000000000000001,2.8266491704841292,-1.5730794701170803,10.0,0.0,2.772378685460125,5.636635464737965,67.35059094018146,257.1733963457254,0.0
0.01,2.962077666392183,-1.645500646948331,10.0,0.0,3.224078639851053,6.052647735211881,75.20908322432116,257.1733963457254,0.0
0.011,3.0811061533574158,-1.7084279320504514,10.0,0.0,3.678407615443203,6.460489925470405,83.0265951655913,257.1733963457254,0.0
0.012,3.188848746459569,-1.7638278597420747,10.0,0.0,4.133552631697047,6.862319393890706,90.74118064793086,257.1733963457254,0.0
0.013000000000000001,3.288205119878689,-1.8140726097274587,10.0,0.0,4.588339016389012,7.259628641949282,98.35820682563939,257.1733963457254,0.0
0.014,3.3820602099432007,-1.8592355758795645,10.0,0.0,5.041843166194517,7.653355107498287,105.90865295623543,257.1733963457254,0.0
0.015,3.4721069852858886,-1.899829032412081,10.0,0.0,5.493383198131427,8.044092747085895,113.37727610343421,257.1733963457254,0.0
0.016,3.5596145800153947,-1.9360338400176071,10.0,0.0,5.94241958510469,8.43218525824161,120.68508583176356,257.1733963457254,0.0
0.017,3.645144415105338,-1.9685384477868613,10.0,0.0,6.388575043274759,8.817838951066484,127.83962377537456,257.1733963457254,0.0
0.018000000000000002,3.730251927866576,-1.9959253041084188,10.0,0.0,6.83136783302799,9.201036292373047,134.85405702603322,257.1733963457254,0.0
0.019,3.81544967906247,-2.018253592643655,10.0,0.0,7.270383321112213,9.581672501020332,141.68976328564074,257.1733963457254,0.0
0.02,3.9014648862453374,-2.0350875541282063,10.0,0.0,7.705189334130692,9.959536942333155,148.3432823300447,257.1733963457254,0.0
0.021,3.9891051824829464,-2.0457889559126508,10.0,0.0,8.135310004560049,10.334315260302239,154.92060212100432,257.1733963457254,0.0
0.022,4.079618141396171,-2.0489696811670974,10.0,0.0,8.560139305503519,10.705547790999272,161.01925282597162,257.1733963457254,0.0
0.023,4.171109372430197,-2.048468292080302,10.0,0.0,8.979521969370257,11.072981092896333,166.534238406907,257.1733963457254,0.0
0.024,4.266936196769627,-2.039517194249811,10.0,0.0,9.392730090169543,11.435983292623375,171.8647834235234,257.1733963457254,0.0
0.025,4.367255527950721,-2.0225841458509217,10.0,0.0,9.79914449451603,11.793929226271104,177.02637022703064,257.1733963457254,0.0
0.026000000000000002,4.4734353073349595,-1.9962166741499119,10.0,0.0,10.197980960389518,12.146045424568259,181.63161391243256,257.1733963457254,0.0
0.027,4.582366840795821,-1.966358349113627,10.0,0.0,10.589124658468391,12.491912978736195,185.74793639675826,257.1733963457254,0.0
0.028,4.700058850757774,-1.9240450691803936,10.0,0.0,10.971384864613876,12.830451341534015,189.43662766964098,257.1733963457254,0.0
0.029,4.820934284790598,-1.879137197786803,10.0,0.0,11.344756153370636,13.161242511022618,192.73598774770625,257.1733963457254,0.0
0.03,4.952016225740939,-1.821000614527957,10.0,0.0,11.707923484756042,13.483081433273819,195.59831968863915,257.1733963457254,0.0
0.031,5.086039273572549,-1.7621311371320891,10.0,0.0,12.061063698547066,13.79562148058647,197.80891551030922,257.1733963457254,0.0
0.032,5.230431844273564,-1.6911110488141978,10.0,0.0,12.40292038074925,14.097678592248165,200.4421589734679,257.1733963457254,0.0
0.033,5.380124186618445,-1.6166151787533525,10.0,0.0,12.733312761073865,14.38869342901298,201.91742172589852,257.1733963457254,0.0
0.034,5.537594793894332,-1.535029134414507,10.0,0.0,13.051537880865839,14.667821176756876,203.18880493813168,257.1733963457254,0.0
0.035,5.698947813469154,-1.4530296333491768,10.0,0.0,13.357649178779205,14.934684535625108,203.60405746232266,257.1733963457254,0.0
0.036000000000000004,5.870474243492053,-1.3603000477825025,10.0,0.0,13.65045542338638,15.188218311291084,204.28541056101804,257.1733963457254,0.0
0.037,6.041188711220851,-1.275010780747051,10.0,0.0,13.930879897581198,15.42861600670124,205.2233356988433,257.1733963457254,0.0
0.038,6.228175208801664,-1.168399557236846,10.0,0.0,14.196427351981786,15.654155009933262,200.35169734043586,257.1733963457254,0.0
0.039,6.404895489618571,-1.0845312562500289,10.0,0.0,14.449814560392067,15.86612549236809,209.64773540576442,257.1733963457254,0.0
0.04,6.534612624563911,-1.0851225869390002,10.0,0.0,14.699963825590459,16.069735965364643,218.170241886545,257.1733963457254,0.0
0.041,6.621487035821765,-1.1484636683301073,10.0,0.0,14.952420817214799,16.26974130369247,220.68166573712315,257.1733963457254,0.0
0.042,6.6704785161669795,-1.2647840534085386,10.0,0.0,15.211794475054209,16.47047148862455,233.10654395573727,257.1733963457254,0.0
0.043000000000000003,6.709376245503157,-1.3867642159960276,10.0,0.0,15.477558399636717,16.673277185423842,235.10815372853793,257.1733963457254,0.0
0.044,6.744196093263161,-1.5028656568708394,10.0,0.0,15.74857785831126,16.87893749904121,248.8181267625822,257.1733963457254,0.0
0.045,6.750563942850831,-1.6564343609015326,9.548429488599151,0.0,16.02879294551472,17.04110870593317,251.06600513628723,257.1733963457254,0.0
0.046,6.739376723536587,-1.7736000716935498,8.485564213841023,0.0,16.308556185833837,17.103979098367322,265.0398892933718,257.1733963457254,0.0
0.047,6.645320691850145,-1.8914866949734455,1.419957205822274,0.0,16.578426012817324,16.43218494874786,262.7157911247688,257.1733963457254,0.0
0.048,6.163946724973199,-1.8216420945923573,2.5265823423333265,0.0,16.7452676698658,16.098952607924705,268.0239966875818,257.1733963457254,0.0
0.049,5.742849531443554,-1.7541420518987803,-0.2360264424917311,0.0,16.855375368434636,15.54228140081233,271.4463580140188,257.1733963457254,0.0
0.05,5.219766824708831,-1.6835042624157686,-2.0899367223931646,0.0,16.89171002001915,14.929312167132691,269.80687490279445,257.1733963457254,0.0
0.051000000000000004,4.670485411198288,-1.5664570625684484,-1.3965299523516723,0.0,16.850945468988876,14.531277297901863,270.7751684128365,257.1733963457254,0.0
0.052000000000000005,4.231978945705376,-1.496320492934056,-2.016694428043799,0.0,16.767909335477242,14.136560197533655,270.9310023906204,257.1733963457254,0.0
0.053,3.8462468731333255,-1.443505740052883,-2.2321874773847057,0.0,16.64859684815935,13.79355406650852,270.1137534398561,257.1733963457254,0.0
0.054,3.5176681110185957,-1.4030290596115522,-1.9529665729438728,0.0,16.502990709151014,13.538072872942914,269.14122794670936,257.1733963457254,0.0
0.055,3.262935771209517,-1.3808696007922685,-1.586382142380339,0.0,16.34436429102124,13.355846032908467,268.1317480433585,257.1733963457254,0.0
0.056,3.0776672881776728,-1.3747628927926963,-1.1912257076812516,0.0,16.182927687409233,13.23361280831116,266.98606651303595,257.1733963457254,0.0
0.057,2.9514832734141248,-1.3795076430097024,-0.7165116441930692,0.0,16.025994411302563,13.167753785242763,265.40267983053315,257.1733963457254,0.0
0.058,2.875386530241443,-1.39491834486321,-0.0071111377897441486,0.0,15.879816290201445,13.173183053541383,263.7327059690274,257.1733963457254,0.0
0.059000000000000004,2.8556305856575137,-1.4177596933131258,0.7622826967301126,0.0,15.751157349351246,13.24240308610569,262.0612248822902,257.1733963457254,0.0
0.06,2.886497856799823,-1.4490876590056532,1.549144954733051,0.0,15.645503968584181,13.367103172092174,260.246444636109,257.1733963457254,0.0
0.061,2.964227894063846,-1.48071060842471,2.425804594919822,0.0,15.56605117927164,13.549090217856193,259.4773014437714,257.1733963457254,0.0
0.062,3.0871744412768685,-1.5107600904672736,2.7873371401081593,0.0,15.515731586997248,13.723188443860625,260.6363829767257,257.1733963457254,0.0
0.063,3.2211830456587704,-1.5255512584005524,2.1731665073210045,0.0,15.489180310202974,13.790159311968818,260.7382181676214,257.1733963457254,0.0
0.064,3.2928697722637104,-1.5233297243525552,2.0866006936541877,0.0,15.471588967474336,13.837851978528565,254.99103951416782,257.1733963457254,0.0
0.065,3.354091834207556,-1.4754885305223455,4.982013588696565,0.0,15.455285709693687,14.19235976120303,253.67330198160903,257.1733963457254,0.0
0.066,3.571614071726395,-1.469030763123763,5.6758832986171255,0.0,15.475831613483013,14.533842753465184,257.294971872847,257.1733963457254,0.0
0.067,3.8184457627327886,-1.4935443633357188,3.863832597726931,0.0,15.53123229981692,14.611991499047416,252.80123508543485,257.1733963457254,0.0
0.068,3.947573944584581,-1.4566910066109782,6.1544226040359025,0.0,15.584608786833819,14.946215063314073,249.50652664264524,257.1733963457254,0.0
0.069,4.191304826536404,-1.4121605014922616,7.878445522461511,0.0,15.661540159579886,15.393571425623296,254.14529942282377,257.1733963457254,0.0
0.07,4.500950138271956,-1.4350934675614793,5.589340101601263,0.0,15.778481962601067,15.50321978802593,247.72057243084984,257.1733963457254,0.0
0.07100000000000001,4.681445730134277,-1.3741552210353958,8.896231836736982,0.0,15.887761884781831,15.983488577576448,250.94891360125254,257.1733963457254,0.0
0.07200000000000001,5.018163502337274,-1.3445828776660793,7.3443060789803605,0.0,16.031497118394203,16.1876437306617,247.0428267902339,257.1733963457254,0.0
0.073,5.245211256866756,-1.3062379197925011,9.398655180044596,0.0,16.177352122021475,16.60564647521808,247.9567521629612,257.1733963457254,0.0
0.074,5.5855791223017865,-1.2443724872483048,9.033858935508583,0.0,16.344000151740516,16.900593380119386,244.38705774332098,257.1733963457254,0.0
0.075,5.865166934115078,-1.2137206952620614,10.0,0.0,16.520725026184753,17.26528289639678,246.1959825167686,257.1733963457254,0.0
0.076,6.205061385372393,-1.1383959355577555,10.0,0.0,16.708267159164688,17.566922026325766,239.60420293823512,257.1733963457254,0.0
0.077,6.5091163171862325,-1.0823711555900664,10.0,0.0,16.90180951364012,17.82710435857289,242.8136992468729,257.1733963457254,0.0
0.078,6.800699656280412,-1.0000515725713925,10.0,0.0,17.09352095956035,18.051589075060637,244.26773881368482,257.1733963457254,0.0
0.079,7.075868736114302,-0.9041782066737449,10.0,0.0,17.27878685811878,18.245443699100832,246.113037464186,257.1733963457254,0.0
0.08,7.198735893780766,-1.023430998962172,10.0,0.0,17.47898817003608,18.427675754047886,259.1005566282791,257.1733963457254,0.0
0.081,7.271359685586691,-1.1839399425641786,4.063908942857802,0.0,17.693856012129704,17.95197477288434,259.55979887574165,257.1733963457254,0.0
0.082,7.007618470755656,-1.1778012563794977,3.810423793826362,0.0,17.837386626981267,17.60654598977394,264.74899207437977,257.1733963457254,0.0
0.083,6.664400736983998,-1.2099624164179084,1.1400712372207575,0.0,17.935620416502715,17.053925755290013,267.0152444910349,257.1733963457254,0.0
0.084,6.2283957837509805,-1.1574930293847392,-0.09147345255989059,0.0,17.962675559449586,16.502152900414714,269.4005963027152,257.1733963457254,0.0
0.085,5.741428221593638,-1.1353909402543976,-1.4064213579699505,0.0,17.92994136668023,15.925140404929316,270.0173852665229,257.1733963457254,0.0
0.08600000000000001,5.255789972797724,-1.0861012496100866,-1.8432557290817861,0.0,17.837578498559704,15.416203969693303,271.57260900927986,257.1733963457254,0.0
0.08700000000000001,4.802312928282748,-1.0695362460758944,-2.764859727095799,0.0,17.702229020245312,14.896942887507093,271.5382494018592,257.1733963457254,0.0
0.088,4.370556224772058,-1.0500611924860035,-2.8913284539468176,0.0,17.52651177568419,14.454335912675624,271.3994943750834,257.1733963457254,0.0
0.089,3.99106586458443,-1.0488724683560777,-2.9642119208524917,0.0,17.324169548977643,14.069091789365608,270.87917537327115,257.1733963457254,0.0
0.09,3.66604388782424,-1.0607659841842247,-2.8411102102218226,0.0,17.104857306593143,13.74836539239611,270.01642244278656,257.1733963457254,0.0
0.091,3.396747128347598,-1.0859768401557592,-2.53816400595014,0.0,16.878057907748733,13.496245900023528,268.9841842168188,257.1733963457254,0.0
0.092,3.1846629711197396,-1.1225810552206508,-2.140152771677187,0.0,16.65250085464893,13.308046480431361,267.7514741009802,257.1733963457254,0.0
0.093,3.0254148604601983,-1.1690875480925367,-1.6295784913104425,0.0,16.435429236965142,13.18369080658632,266.552981844387,257.1733963457254,0.0
0.094,2.917889958018656,-1.2206636662879342,-1.124128218000445,0.0,16.23283752173801,13.11079258377981,265.57008214880307,257.1733963457254,0.0
0.095,2.8533223531099026,-1.2739394041086363,-0.7166452282392664,0.0,16.04855972573126,13.07072082538741,264.57184038249034,257.1733963457254,0.0
0.096,2.818875438959305,-1.3230090630567188,-0.29150878545055026,0.0,15.883567438592024,13.062062126550204,263.12758132888916,257.1733963457254,0.0
0.097,2.8079446997671926,-1.3682173221424014,0.37107889151839846,0.0,15.738690722192942,13.107261261091114,261.63147849098385,257.1733963457254,0.0
0.098,2.8316710564659933,-1.4112680534414177,1.0745494890184695,0.0,15.61710508873989,13.201489492864555,259.9082735727592,257.1733963457254,0.0
0.099,2.891002545607255,-1.4519227311445049,1.908803175860465,0.0,15.521142349043838,13.352580337454418,258.4593173797622,257.1733963457254,0.0
0.1,2.9913785859200583,-1.4891844080951646,2.6204220620185983,0.0,15.453577205463922,13.53845331468167,257.9653449625446,257.1733963457254,0.0
0.101,3.1227101143065497,-1.5189229739866161,2.8594887844592094,0.0,15.414254499443274,13.704720922715705,260.1287878450616,257.1733963457254,0.0
0.10200000000000001,3.251264225094869,-1.5341668251911167,1.7482134282073383,0.0,15.396870262801672,13.712970906029305,257.5775931708616,257.1733963457254,0.0
0.10300000000000001,3.2935741513545125,-1.5126416769094901,3.0197687970559857,0.0,15.379529243332568,13.866272760702575,251.85826712454892,257.1733963457254,0.0
0.10400000000000001,3.3971296007014393,-1.4810374127608714,5.93258311242408,0.0,15.375991293704171,14.299236348798054,254.144155612527,257.1733963457254,0.0
0.105,3.665271774372184,-1.497036338013479,4.819931275767029,0.0,15.418179422267434,14.508569853324872,257.31685411050097,257.1733963457254,0.0
0.106,3.8590790874053815,-1.4994106066665511,3.232147449132282,0.0,15.47718326872636,14.519021734995137,249.71654926415732,257.1733963457254,0.0
0.107,3.9434902987385483,-1.4265101501377402,7.106868343119786,0.0,15.52328912580173,14.96907878963293,250.2109206545129,257.1733963457254,0.0
0.108,4.227108573538297,-1.4019578395455505,6.92930740485412,0.0,15.60781835303348,15.290107914250736,252.92208004036794,257.1733963457254,0.0
0.109,4.4865550548855495,-1.4064383244124288,5.616240874980175,0.0,15.716735946445118,15.419122410026263,245.24816540834615,257.1733963457254,0.0
0.11,4.669909617678151,-1.3313152778489978,9.572450500364862,0.0,15.8193548901225,15.976866402562742,250.4235817242143,257.1733963457254,0.0
0.111,5.038325361743237,-1.3318538127912443,7.0522404886459,0.0,15.968296807995067,16.13362050645114,243.6537523184932,257.1733963457254,0.0
0.112,5.26222798898323,-1.2790281549244973,10.0,0.0,16.11220373675446,16.61810390654835,247.93206070969217,257.1733963457254,0.0
0.113,5.624348821046939,-1.2454846802218158,8.514163759904045,0.0,16.287006787009002,16.838015812733072,240.95078889905022,257.1733963457254,0.0
0.114,5.887614959184166,-1.1845631607223241,10.0,0.0,16.459954790458646,17.206379115261832,245.14984927359112,257.1733963457254,0.0
0.115,6.207913466214787,-1.1281240261186505,10.0,0.0,16.6468452342048,17.50774235108974,239.2417749342546,257.1733963457254,0.0
0.116,6.52580792949038,-1.0458734461807886,10.0,0.0,16.83669978471199,17.76589290181945,237.98526473341187,257.1733963457254,0.0
0.117,6.804715872122252,-0.9842618834073718,10.0,0.0,17.027429169135743,17.989712923470158,243.7835993457123,257.1733963457254,0.0
0.11800000000000001,7.053640296940199,-0.9344714476627844,10.0,0.0,17.21660678497802,18.18563127409452,249.47632586403878,257.1733963457254,0.0
0.11900000000000001,7.190873899300431,-1.0268215367593494,8.390570856172511,0.0,17.41711488845656,18.191231893408197,253.08408622522816,257.1733963457254,0.0
0.12,7.1644490401732766,-1.1630898281332913,6.627583776782795,0.0,17.61219825467879,18.04276804437136,264.31226421128144,257.1733963457254,0.0
0.121,7.029223033157679,-1.2287674389680372,0.942106105100593,0.0,17.778788753653206,17.335496855949728,261.49604243882976,257.1733963457254,0.0
0.122,6.55977068002412,-1.1770244779911536,2.3069905303953915,0.0,17.8516445820722,16.972891398541485,269.5948092668403,257.1733963457254,0.0
0.123,6.157810183298353,-1.175449252104391,-1.86660701282102,0.0,17.881298436670697,16.220608626817707,266.50400011523595,257.1733963457254,0.0
0.124,5.602851528939203,-1.0891845250926444,-0.41450847471395935,0.0,17.82328526092455,15.805012179362357,269.3496553429442,257.1733963457254,0.0
0.125,5.166085837092235,-1.078335032510711,-1.9590986785402578,0.0,17.72918296109358,15.283242790835533,269.8822690318682,257.1733963457254,0.0
0.126,4.731180835797229,-1.0601672797965715,-2.3524942498636934,0.0,17.590423994520286,14.819884393594965,270.4542827914211,257.1733963457254,0.0
0.127,4.332099850180764,-1.056820471923898,-2.7713099940971166,0.0,17.419018613541425,14.386400021673541,270.2219994318777,257.1733963457254,0.0
0.128,3.9684747704195558,-1.0607819287646707,-2.7856543451869245,0.0,17.221874561799513,14.01774177658639,269.794732813962,257.1733963457254,0.0
0.129,3.656341840434098,-1.0760249496252772,-2.698234400911452,0.0,17.009216208449327,13.706692959715758,269.0148540713801,257.1733963457254,0.0
0.13,3.3949796137015307,-1.1023664108234497,-2.426709606877049,0.0,16.789463939270295,13.460105232738925,268.01399150355843,257.1733963457254,0.0
0.131,3.1868780799163776,-1.1384238077688367,-2.034684274544537,0.0,16.570731023363496,13.27688613660715,266.8278330799734,257.1733963457254,0.0
0.132,3.030218284771407,-1.1833910152909106,-1.538149430094503,0.0,16.360135308292172,13.155965800192146,265.6901351074818,257.1733963457254,0.0
0.133,2.9239100169723424,-1.2332553074672936,-1.0544678314662699,0.0,16.163542531150664,13.084444864822558,264.75563602056127,257.1733963457254,0.0
0.134,2.859346775404641,-1.284206603546431,-0.6630406847543595,0.0,15.984562937833294,13.044675789322266,263.7446613077917,257.1733963457254,0.0
0.135,2.8234052892122063,-1.3319840177940119,-0.2232659779902466,0.0,15.824250398904065,13.038754539382685,262.2581134536456,257.1733963457254,0.0
0.136,2.813317567207139,-1.374452959107994,0.46916077800361355,0.0,15.68357079827587,13.089913591194462,260.85457545375493,257.1733963457254,0.0
0.137,2.8390413352560673,-1.4175302988754301,1.1341179868686475,0.0,15.566388880852946,13.185179311472025,259.1101170361305,257.1733963457254,0.0
0.138,2.8992295823376577,-1.4565933666128783,1.9869799887768256,0.0,15.474317891253513,13.340002046602294,257.782289234335,257.1733963457254,0.0
0.139,3.001264781840598,-1.4928178264543388,2.644804960788469,0.0,15.410530334032243,13.52334554668729,257.79996857982957,257.1733963457254,0.0
0.14,3.131056529862877,-1.5211238724763754,2.629699565700142,0.0,15.374207303005605,13.660479357574408,259.66542095611396,257.1733963457254,0.0
0.14100000000000001,3.242061623844447,-1.5324398096914258,1.6720531314540588,0.0,15.356191648803774,13.664164787596212,255.90499689431496,257.1733963457254,0.0
