timestamp,iq,id,iq_ref,id_ref,vq,vd,omega,omega_ref,r
0.0,0.0,0.0,0.0,0.0,0.0,0.0,0.0,189.5208672324248,0.0
0.001,0.0,0.0,10.0,0.0,0.0,1.0999999999999999,6.115472199294103,189.5208672324248,0.0
0.002,0.5307369851907212,-0.2913212625381807,10.0,0.0,0.14204533887919985,1.9316189316290207,13.317801563642547,189.5208672324248,0.0
0.003,1.0842913387634832,-0.6024330830807904,10.0,0.0,0.384357124667687,2.6386968949419622,20.697939467553027,189.5208672324248,0.0
0.004,1.5590443546685477,-0.8700465084428163,10.0,0.0,0.6994718867930164,3.2526109522886295,28.232747544420146,189.5208672324248,0.0
0.005,1.9399447555359186,-1.0838738622210777,10.0,0.0,1.065311453102468,3.7994935661768023,35.92944872443006,189.5208672324248,0.0
0.006,2.239750732602683,-1.2510087368845633,10.0,0.0,1.4655018868449925,4.299102221838433,43.75633668444442,189.5208672324248,0.0
0.007,2.4770151619816017,-1.382020589851471,10.0,0.0,1.8883740978591532,4.765668027847139,51.58766747378032,189.5208672324248,0.0
0.008,2.6680767290418097,-1.4872241871505252,10.0,0.0,2.325877945545995,5.209220346273558,59.45942083902103,189.5208672324248,0.0
0.009000000000000001,2.8266491704841292,-1.5730794701170803,10.0,0.0,2.772378685460125,5.636635464737965,67.35059094018146,189.5208672324248,0.0
0.01,2.962077666392183,-1.645500646948331,10.0,0.0,3.224078639851053,6.052647735211881,75.20908322432116,189.5208672324248,0.0
0.011,3.0811061533574158,-1.7084279320504514,10.0,0.0,3.678407615443203,6.460489925470405,83.0265951655913,189.5208672324248,0.0
0.012,3.188848746459569,-1.7638278597420747,10.0,0.0,4.133552631697047,6.862319393890706,90.74118064793086,189.5208672324248,0.0
0.013000000000000001,3.288205119878689,-1.8140726097274587,10.0,0.0,4.588339016389012,7.259628641949282,98.35820682563939,189.5208672324248,0.0
0.014,3.3820602099432007,-1.8592355758795645,10.0,0.0,5.041843166194517,7.653355107498287,105.90865295623543,189.5208672324248,0.0
0.015,3.4721069852858886,-1.899829032412081,10.0,0.0,5.493383198131427,8.044092747085895,113.37727610343421,189.5208672324248,0.0
0.016,3.5596145800153947,-1.9360338400176071,10.0,0.0,5.94241958510469,8.43218525824161,120.68508583176356,189.5208672324248,0.0
0.017,3.645144415105338,-1.9685384477868613,10.0,0.0,6.388575043274759,8.817838951066484,127.83962377537456,189.5208672324248,0.0
0.018000000000000002,3.730251927866576,-1.9959253041084188,10.0,0.0,6.83136783302799,9.201036292373047,134.85405702603322,189.5208672324248,0.0
0.019,3.81544967906247,-2.018253592643655,10.0,0.0,7.270383321112213,9.581672501020332,141.68976328564074,189.5208672324248,0.0
0.02,3.9014648862453374,-2.0350875541282063,10.0,0.0,7.705189334130692,9.959536942333155,148.3432823300447,189.5208672324248,0.0
0.021,3.9891051824829464,-2.0457889559126508,10.0,0.0,8.135310004560049,10.334315260302239,154.92060212100432,189.5208672324248,0.0
0.022,4.079618141396171,-2.0489696811670974,10.0,0.0,8.560139305503519,10.705547790999272,161.01925282597162,189.5208672324248,0.0
0.023,4.171109372430197,-2.048468292080302,10.0,0.0,8.979521969370257,11.072981092896333,166.534238406907,189.5208672324248,0.0
0.024,4.266936196769627,-2.039517194249811,10.0,0.0,9.392730090169543,11.435983292623375,171.8647834235234,189.5208672324248,0.0
0.025,4.367255527950721,-2.0225841458509217,10.0,0.0,9.79914449451603,11.793929226271104,177.02637022703064,189.5208672324248,0.0
0.026000000000000002,4.4734353073349595,-1.9962166741499119,9.96885584308756,0.0,10.197980960389517,12.142619567307891,181.600611057753,189.5208672324248,0.0
0.027,4.580716464469499,-1.9655358614766933,7.760937989473092,0.0,10.588691599102289,12.24302586900892,184.26354978473577,189.5208672324248,0.0
0.028,4.581377580196026,-1.8613726793544625,6.482041800458603,0.0,10.93922066220718,12.25486329099711,186.62033485450826,189.5208672324248,0.0
0.029,4.519428872896521,-1.7073964137528896,5.332654589351526,0.0,11.239984803805443,12.19374721472554,184.01591924115192,189.5208672324248,0.0
0.03,4.401399964260361,-1.5513506625067472,6.689911875942423,0.0,11.488935653635664,12.341975026754001,185.61928041604725,189.5208672324248,0.0
0.031,4.410288802521494,-1.4073159811096212,5.927247156658536,0.0,11.71353084224449,12.400651389280425,187.3087287234909,189.5208672324248,0.0
0.032,4.3996080873026475,-1.304532146606825,5.104644388026047,0.0,11.91166827326374,12.394323744115036,182.28715690644398,189.5208672324248,0.0
0.033,4.396127650850936,-1.1495812513773358,7.687767399809315,0.0,12.073342436534308,12.701088206408098,187.1400030878804,189.5208672324248,0.0
0.034,4.52717654144678,-1.1108171747920983,5.285152950536556,0.0,12.246811090235042,12.688774636931006,182.205654303743,189.5208672324248,0.0
0.035,4.580981425241053,-0.9918399109537637,7.8254794718920735,0.0,12.389001663361631,12.993893303302121,185.49606055290607,189.5208672324248,0.0
0.036000000000000004,4.747414121364594,-0.9659125462231135,6.220524414105719,0.0,12.545822808330687,13.063001291043088,182.9220348439473,189.5208672324248,0.0
0.037,4.869205870947835,-0.8676186325957016,7.573525592469879,0.0,12.683319580725222,13.294027509211862,181.85277671349132,189.5208672324248,0.0
0.038,5.027720613694012,-0.8420417858464293,8.184835562887203,0.0,12.828338783691034,13.553196163559226,184.53463398209985,189.5208672324248,0.0
0.039,5.244394025117831,-0.8003460829923403,6.89376926108619,0.0,12.980442172948546,13.630570552036994,180.73872020998544,189.5208672324248,0.0
0.04,5.388186941787446,-0.7194904995588849,8.879547617367784,0.0,13.11659550497895,13.933113636082307,185.33608092336223,189.5208672324248,0.0
0.041,5.5576831825173825,-0.7912234487394563,6.622715123770017,0.0,13.278086992455032,13.933701729753956,193.62352987316876,189.5208672324248,0.0
0.042,5.580369389165018,-0.8420441068153077,2.437964022459311,0.0,13.428361083447216,13.511825346273913,191.18843958290478,189.5208672324248,0.0
0.043000000000000003,5.342896370681603,-0.78625631141903,3.6388334440865044,0.0,13.514775262917826,13.347456051732838,194.89727133611692,189.5208672324248,0.0
0.044,5.132779632113378,-0.7956909651891535,1.730653526443514,0.0,13.57770678485594,13.006994730493602,196.66004561208322,189.5208672324248,0.0
0.045,4.876149260618369,-0.7448586507174646,0.7778746046637757,0.0,13.594613121346734,12.647276984831528,196.54005457613036,189.5208672324248,0.0
0.046,4.575184440424246,-0.7214943652112635,0.7676782492031524,0.0,13.57179530136128,12.364167664008274,197.94826637887292,189.5208672324248,0.0
0.047,4.322374898628739,-0.6996453068466899,-0.020701643632607514,0.0,13.520778577727002,12.04526707000704,198.41811973899271,189.5208672324248,0.0
0.048,4.061184283485317,-0.6960320926293415,-0.3446008487581862,0.0,13.44279450407577,11.751612621654864,198.58504384993577,189.5208672324248,0.0
0.049,3.8238708277108913,-0.6907116991815749,-0.5187046704048246,0.0,13.342694281817353,11.487105356426657,199.0521544182474,189.5208672324248,0.0
0.05,3.6071654968537126,-0.7039935547826626,-0.8475728264188636,0.0,13.227667563312561,11.2260687883869,198.8856929255171,189.5208672324248,0.0
0.051000000000000004,3.405974399802157,-0.7174439098832714,-0.8579903369846407,0.0,13.09938658035933,11.001739928065646,198.8755874056398,189.5208672324248,0.0
0.052000000000000005,3.2289841768102474,-0.7416751129438837,-0.946484778778141,0.0,12.964031738454953,10.794842655548157,198.6351892255259,189.5208672324248,0.0
0.053,3.071055993384264,-0.7702798039062893,-0.917428908652195,0.0,12.82442685746453,10.614782914170718,198.34189036821655,189.5208672324248,0.0
0.054,2.93366899791987,-0.8039373475019818,-0.8589897113554432,0.0,12.6841927733213,10.458439699500174,197.9895512016225,189.5208672324248,0.0
0.055,2.815279478889865,-0.8411735062840736,-0.7675069677503954,0.0,12.546107178155415,10.324835084844612,197.59970639323745,189.5208672324248,0.0
0.056,2.7143080849568593,-0.8807498704941424,-0.653372955165997,0.0,12.412450719515853,10.212345244228581,197.24494360586624,189.5208672324248,0.0
0.057,2.6291371932178103,-0.9211594297249445,-0.5532323252148048,0.0,12.28496021055193,10.115971955130952,196.88556658440444,189.5208672324248,0.0
0.058,2.5562255402106002,-0.9607767427033591,-0.44719080800370303,0.0,12.164535232409952,10.034318677553802,196.47807563949615,189.5208672324248,0.0
0.059000000000000004,2.493799615634499,-0.9981203256500846,-0.3130174196202722,0.0,12.051699045318808,9.968624622643533,196.08075016642053,189.5208672324248,0.0
0.06,2.4419980359450784,-1.0326900466568305,-0.17995351242241675,0.0,11.947006304927033,9.916585564943182,195.76313477307812,189.5208672324248,0.0
0.061,2.400106203489503,-1.0631400679838043,-0.08356849115774612,0.0,11.850582737940298,9.872642938014044,195.50530223581455,189.5208672324248,0.0
0.062,2.3644995412813086,-1.0890790588042292,-0.01449657255985981,0.0,11.761956053736297,9.83358409243061,194.91902208769352,189.5208672324248,0.0
0.063,2.331939838612688,-1.110947468170712,0.22466195294796965,0.0,11.680432288516462,9.818410682276472,194.205566943781,189.5208672324248,0.0
0.064,2.312158927460866,-1.1315618631859758,0.5345425277906637,0.0,11.607592458161216,9.830147817793396,193.43992417867483,189.5208672324248,0.0
0.065,2.309055993454134,-1.1539597047105314,0.8781733408812524,0.0,11.54546794301073,9.868271354043863,192.51504672631359,189.5208672324248,0.0
0.066,2.3258390354213074,-1.1745916399746148,1.3106702721229864,0.0,11.495413767464145,9.938631275503461,192.10254702738635,189.5208672324248,0.0
0.067,2.3643199329514144,-1.1966876511374418,1.4911033236369886,0.0,11.459625243493452,10.008407385307928,192.12409110741658,189.5208672324248,0.0
0.068,2.4098977720826227,-1.2112067303490552,1.4542990448719584,0.0,11.435769321501917,10.05714547722645,194.0260494977269,189.5208672324248,0.0
0.069,2.442150462344488,-1.22052296215919,0.4582680270637809,0.0,11.420052395608394,9.986336781045226,191.92224469408978,189.5208672324248,0.0
0.07,2.410268096444179,-1.197415147110387,1.4861566542656832,0.0,11.396191270712626,10.047894908214715,188.9893937183536,189.5208672324248,0.0
0.07100000000000001,2.4317555619572495,-1.1801439217412457,2.9578968772744885,0.0,11.379203314383265,10.249841203571188,189.8232397693146,189.5208672324248,0.0
0.07200000000000001,2.544171572734346,-1.1903425152385396,2.5379501264250903,0.0,11.385403340760883,10.356831642405204,192.49765070165643,189.5208672324248,0.0
0.073,2.6303536259098266,-1.1973971060490554,1.1709768255618598,0.0,11.402356427438328,10.299219578665591,189.58400636589474,189.5208672324248,0.0
0.074,2.624260505799382,-1.1648371174586059,2.6271676021080044,0.0,11.408200854421011,10.424446812140289,185.60770770522345,189.5208672324248,0.0
0.075,2.6935969292889776,-1.137321509219742,4.654448527715663,0.0,11.423282445032525,10.738486821232213,189.39497054157218,189.5208672324248,0.0
0.076,2.8766738778582313,-1.1619267484359612,2.7620760764498233,0.0,11.47124160988825,10.774752109473049,190.45506237956616,189.5208672324248,0.0
0.077,2.948326826304583,-1.152540742529499,2.2226882059814197,0.0,11.516752874040616,10.765726789293108,185.1722540383018,189.5208672324248,0.0
0.078,2.9780114255626002,-1.0914370124862331,4.907578508554835,0.0,11.550182929514058,11.060338163100237,187.20842519521472,189.5208672324248,0.0
0.079,3.1453630111054967,-1.0844150227607483,3.9126173504704718,0.0,11.60956973525149,11.174424946241842,188.60998021089858,189.5208672324248,0.0
0.08,3.2538679574421887,-1.0778370899410799,3.2209487128437995,0.0,11.673773186016442,11.20664576484334,182.98769850952678,189.5208672324248,0.0
0.081,3.3235907072825133,-1.017039349735564,6.097421250758682,0.0,11.728156401470633,11.55880905918901,186.95160724319783,189.5208672324248,0.0
0.082,3.532833886878604,-1.0239860518149997,4.141159483815428,0.0,11.813689739444767,11.61492130364546,183.47093094853403,189.5208672324248,0.0
0.083,3.633634789211669,-0.9973567062688385,5.9419969939862325,0.0,11.893282273036258,11.882634733781224,185.02873146196168,189.5208672324248,0.0
0.084,3.826141396291987,-0.9696711452364637,5.208018094977038,0.0,11.988907778024075,12.01262230251434,183.5884186247579,189.5208672324248,0.0
0.085,3.9544389594746296,-0.9543980854202758,5.987498999655596,0.0,12.08656630841697,12.220068687498364,183.50933782310676,189.5208672324248,0.0
0.08600000000000001,4.1333931174826,-0.9061055923243798,6.087154694574348,0.0,12.190044180626588,12.401301622668512,182.30194182376744,189.5208672324248,0.0
0.08700000000000001,4.285192645122926,-0.8948946498622685,6.763041948330585,0.0,12.300547280392383,12.633201686046245,183.51887724004382,189.5208672324248,0.0
0.088,4.486673316784324,-0.8530193174865002,6.214594140116202,0.0,12.418695899382662,12.765229043015285,179.2045255101542,189.5208672324248,0.0
0.089,4.630820632647481,-0.8210693385819365,8.474933422283712,0.0,12.535136647815072,13.136148927278695,183.38069134452866,189.5208672324248,0.0
0.09,4.892554166084952,-0.8197399274904582,6.448252263975451,0.0,12.677198574399563,13.208733362203924,179.65336432414927,189.5208672324248,0.0
0.091,5.0497925336794385,-0.7516090274126611,8.410590803247903,0.0,12.804831646920494,13.509710712097114,179.61486243801275,189.5208672324248,0.0
0.092,5.269003789230018,-0.7472665232941085,8.528901794260282,0.0,12.950002780726376,13.764203603437094,185.16240191104103,189.5208672324248,0.0
0.093,5.483902059823326,-0.7585014619976637,5.798716710959979,0.0,13.10738535858425,13.684814152740753,186.0901625586249,189.5208672324248,0.0
0.094,5.479892772863695,-0.7772278218438455,5.369143433906037,0.0,13.243038283782745,13.61174069952839,189.6087556520381,189.5208672324248,0.0
0.095,5.392039475894819,-0.823117222880223,3.6089680030033096,0.0,13.362679141655695,13.379840089325334,194.45290020760888,189.5208672324248,0.0
0.096,5.225126893234375,-0.7964054729363257,1.1375753954660794,0.0,13.443768666216856,12.946324044532773,192.35988584865882,189.5208672324248,0.0
0.097,4.909918070824509,-0.7489355651734211,2.155692388778768,0.0,13.46844306148816,12.733979196653836,197.5292535790267,189.5208672324248,0.0
0.098,4.677171745810101,-0.7290936975130801,-0.5090753398711843,0.0,13.467707626079433,12.264480660532787,194.53806290209957,189.5208672324248,0.0
0.099,4.340153863410472,-0.6817812758356505,0.9363480418956271,0.0,13.415089932891556,12.06224718757763,196.08971663776956,189.5208672324248,0.0
0.1,4.115032892391502,-0.6834898650911605,0.09483268000718592,0.0,13.348171730761836,11.789347496961891,196.7573772077351,189.5208672324248,0.0
0.101,3.895505634515988,-0.6901648162924874,-0.31136270472868377,0.0,13.261372538523098,11.522676405148816,197.1222145869816,189.5208672324248,0.0
0.10200000000000001,3.6843164862599074,-0.7010733402380342,-0.5697948678975138,0.0,13.157719344448932,11.270662452921371,197.22727743209325,189.5208672324248,0.0
0.10300000000000001,3.4862629707945065,-0.7167865405318619,-0.6993903924500144,0.0,13.040849441352297,11.041487385658806,197.28006691006104,189.5208672324248,0.0
0.10400000000000001,3.306417015538881,-0.7386463560231498,-0.8033771282102729,0.0,12.914996469540176,10.831202769048193,197.20252643194263,189.5208672324248,0.0
0.105,3.143864300545303,-0.7652190973872077,-0.8414234811462471,0.0,12.783404736643341,10.642298424548816,196.99974022649576,189.5208672324248,0.0
0.106,2.998924035642511,-0.7958387353696523,-0.8148191083635221,0.0,12.64918417535068,10.47675018773452,196.71807721819914,189.5208672324248,0.0
0.107,2.8721410808541883,-0.8300645864118981,-0.745959704072956,0.0,12.515289493740674,10.334139931594212,196.38692720755955,189.5208672324248,0.0
0.108,2.7629310196477803,-0.8671282706129305,-0.6490452985045092,0.0,12.38425800142933,10.213118500661373,196.079292008371,189.5208672324248,0.0
0.109,2.670100302560158,-0.9057177068072595,-0.5608119466696948,0.0,12.258101716395206,10.108951866504412,195.75909516979587,189.5208672324248,0.0
0.11,2.590333890283265,-0.9442560235813235,-0.46309580675584083,0.0,12.137997716931997,10.020298707311486,195.386633333079,189.5208672324248,0.0
0.111,2.5218458663319505,-0.9813154236111251,-0.33552254940395,0.0,12.024729952331356,9.948292379512978,195.00868265658218,189.5208672324248,0.0
0.112,2.464610381460799,-1.0163995407904733,-0.2014253653971121,0.0,11.91907699030036,9.891245888797808,194.69239963000217,189.5208672324248,0.0
0.113,2.418240146122732,-1.0480015453478866,-0.09499917608288122,0.0,11.821410054730471,9.844233030974022,194.45674222921383,189.5208672324248,0.0
0.114,2.3792765538575824,-1.0761066557440089,-0.026529225656600985,0.0,11.731584069033188,9.802444490825163,194.0492826728336,189.5208672324248,0.0
0.115,2.3446030111152694,-1.0991955705575398,0.13191639812941958,0.0,11.648820557416272,9.776020979012664,193.40425055792733,189.5208672324248,0.0
0.116,2.318062358124103,-1.1200528047188731,0.4155986223275372,0.0,11.573754452389412,9.776156792045263,192.75847180376022,189.5208672324248,0.0
0.117,2.306688851151738,-1.1421033158187464,0.706111953697738,0.0,11.508425523047869,9.798877736717705,191.87358196681194,189.5208672324248,0.0
0.11800000000000001,2.3121229808998596,-1.1628825562684395,1.1250297248280043,0.0,11.453966792446195,9.855258026157356,191.28278508443987,189.5208672324248,0.0
0.11900000000000001,2.3400798724230114,-1.1841384286302035,1.4028089874938914,0.0,11.412722317403952,9.923900038004756,190.98074859562817,189.5208672324248,0.0
0.12,2.3798383536017758,-1.204203764750662,1.5392284182677045,0.0,11.384461119300298,9.989687881907217,191.57406788738766,189.5208672324248,0.0
0.121,2.4237474646313806,-1.213117220619206,1.2220367658383333,0.0,11.366384652181598,10.005383128132632,193.15191762917505,189.5208672324248,0.0
0.122,2.4355505040689858,-1.2159304087817993,0.3968013909771364,0.0,11.351905672536507,9.929237985085358,189.9134056821208,189.5208672324248,0.0
0.123,2.3986481188600015,-1.180982972013997,2.0121319800072937,0.0,11.327387726625112,10.049375469687593,187.5486963142399,189.5208672324248,0.0
0.124,2.4489684538335488,-1.1711132710042482,3.2142083731296025,0.0,11.316599131021691,10.265218247892436,189.64232492352582,189.5208672324248,0.0
0.125,2.5744830202339113,-1.191512449096747,2.166179491575628,0.0,11.330816279399361,10.31779054885999,191.31930465835427,189.5208672324248,0.0
0.126,2.6353651044493773,-1.191743055982853,1.309705249902108,0.0,11.348690318012574,10.277353573200312,187.2828752244569,189.5208672324248,0.0
0.127,2.6358818441135106,-1.1491459853257044,3.350299886930478,0.0,11.356045271357347,10.476329830936878,185.52169381576817,189.5208672324248,0.0
0.128,2.745334532346685,-1.1324527856295927,4.270882325441401,0.0,11.381152073881298,10.724967451791175,189.10565017747223,189.5208672324248,0.0
0.129,2.901956350957093,-1.1560673393941383,2.4830563151389,0.0,11.431376491149344,10.729251432129237,187.25225669304626,189.5208672324248,0.0
0.13,2.9522587322618605,-1.13279289795654,3.432439162745667,0.0,11.474210530628609,10.85647278574265,183.15930431109032,189.5208672324248,0.0
0.131,3.0470862683476247,-1.0905335344260536,5.542530982936982,0.0,11.521067515947319,11.187943674531237,188.350517531201,189.5208672324248,0.0
0.132,3.244089317630971,-1.1116549937557976,2.958627869893878,0.0,11.599131845774586,11.16490085227587,185.035700207403,189.5208672324248,0.0
0.133,3.296045243786054,-1.0745191047418565,4.660888202043094,0.0,11.662789298008759,11.361311291511386,183.98406269349815,189.5208672324248,0.0
0.134,3.4336344997525705,-1.0281763182607069,5.242075004384793,0.0,11.734995701320285,11.5767391180881,186.53559129406884,189.5208672324248,0.0
0.135,3.583546992280391,-1.0276950184820057,3.9961634634830068,0.0,11.821934731847481,11.619868183197285,181.6616845385302,189.5208672324248,0.0
0.136,3.672740472414678,-0.9694716003776758,6.511708668191266,0.0,11.898093002839186,11.948235174885703,185.9677419146284,189.5208672324248,0.0
0.137,3.8790476941424714,-0.9667883389409007,4.3942112333201395,0.0,11.999759221323558,11.97149926503283,180.40961470463947,189.5208672324248,0.0
0.138,3.9726684856788235,-0.9139581371175585,7.264387363592455,0.0,12.087800737388008,12.331262701840622,184.91257764990334,189.5208672324248,0.0
