timestamp,iq,id,iq_ref,id_ref,vq,vd,omega,omega_ref,r
0.0,0.0,0.0,0.0,0.0,0.0,0.0,0.0,89.66348597554358,0.0
0.001,0.0,0.0,10.0,0.0,0.0,1.0999999999999999,6.115472199294103,89.66348597554358,0.0
0.002,0.5307369851907212,-0.2913212625381807,10.0,0.0,0.14204533887919985,1.9316189316290207,13.317801563642547,89.66348597554358,0.0
0.003,1.0842913387634832,-0.6024330830807904,10.0,0.0,0.384357124667687,2.6386968949419622,20.697939467553027,89.66348597554358,0.0
0.004,1.5590443546685477,-0.8700465084428163,10.0,0.0,0.6994718867930164,3.2526109522886295,28.232747544420146,89.66348597554358,0.0
0.005,1.9399447555359186,-1.0838738622210777,10.0,0.0,1.065311453102468,3.7994935661768023,35.92944872443006,89.66348597554358,0.0
0.006,2.239750732602683,-1.2510087368845633,10.0,0.0,1.4655018868449925,4.299102221838433,43.75633668444442,89.66348597554358,0.0
0.007,2.4770151619816017,-1.382020589851471,10.0,0.0,1.8883740978591532,4.765668027847139,51.58766747378032,89.66348597554358,0.0
0.008,2.6680767290418097,-1.4872241871505252,10.0,0.0,2.325877945545995,5.209220346273558,59.45942083902103,89.66348597554358,0.0
0.009000000000000001,2.8266491704841292,-1.5730794701170803,10.0,0.0,2.772378685460125,5.636635464737965,67.35059094018146,89.66348597554358,0.0
0.01,2.962077666392183,-1.645500646948331,10.0,0.0,3.224078639851053,6.052647735211881,75.20908322432116,89.66348597554358,0.0
0.011,3.0811061533574158,-1.7084279320504514,9.09902014282227,0.0,3.6784076154432026,6.361382141180857,82.42979305665101,89.66348597554358,0.0
0.012,3.1413514317628595,-1.7379659267698884,5.561002155846273,0.0,4.120797040641151,6.299067128361616,87.23894920404135,89.66348597554358,0.0
0.013000000000000001,3.0062399660957984,-1.6571769363909938,3.1806694498661257,0.0,4.503533853148508,6.076230855563473,90.14415853352561,89.66348597554358,0.0
0.014,2.741440076759119,-1.4988646938811918,1.7232580595441727,0.0,4.809106900353025,5.8052168385906295,92.18641247375062,89.66348597554358,0.0
0.015,2.428625573723325,-1.3100558462864778,0.6769018244495977,0.0,5.037835390329487,5.5230980525189075,92.74482989967221,89.66348597554358,0.0
0.016,2.1098645463508983,-1.127735409252979,0.3668796722475165,0.0,5.197311993103391,5.300360687641331,91.28308328902723,89.66348597554358,0.0
0.017,1.8421281916248784,-0.9661511276519001,1.0815570044351697,0.0,5.302616132506365,5.2238228363377015,91.06739325984118,89.66348597554358,0.0
0.018000000000000002,1.6816383947365443,-0.8538675538549165,1.1753629461852184,0.0,5.37900072253702,5.183617578485821,92.77277494514453,89.66348597554358,0.0
0.019,1.580350989540569,-0.7839088487624029,0.2915792138375335,0.0,5.437153705957216,5.06645375204912,92.80116876132473,89.66348597554358,0.0
0.02,1.4667979371330937,-0.717115285763748,0.2460054778896228,0.0,5.471127303512793,4.982124294680177,91.00372312451422,89.66348597554358,0.0
0.021,1.3772419801361337,-0.6544870407918054,1.1313259248051704,0.0,5.487049424258993,5.016181754069468,90.86254026253351,89.66348597554358,0.0
0.022,1.360496328304204,-0.6234147914898782,1.1899268129256257,0.0,5.50199341389601,5.046965034950088,92.44293226756352,89.66348597554358,0.0
0.023,1.3637970526855177,-0.6126338460221001,0.37193634749042337,0.0,5.517646151148948,4.985068890427003,91.5750190448351,89.66348597554358,0.0
0.024,1.3276746650409144,-0.5896508768410151,0.7867776281617176,0.0,5.523123683069046,4.988746549494437,89.61696340511314,89.66348597554358,0.0
0.025,1.3188582463268326,-0.5685652232848775,1.766270673727003,0.0,5.52633163550451,5.0968086002347075,91.20528093044015,89.66348597554358,0.0
0.026000000000000002,1.3713677073584358,-0.5742899508848724,0.9566939615145307,0.0,5.5408655743420185,5.089672667444859,92.33712866996248,89.66348597554358,0.0
0.027,1.380166318468774,-0.5720399655129754,0.3640336648091773,0.0,5.552927780349883,5.027164103690456,89.97430784023274,89.66348597554358,0.0
0.028,1.3526801473128698,-0.5444516289931375,1.5423358610271567,0.0,5.554520692218054,5.110763926401566,89.9025758897449,89.66348597554358,0.0
0.029,1.3900462587720643,-0.5380567043484812,1.5758109371290656,0.0,5.563886736824806,5.173677160465342,91.69447962505807,89.66348597554358,0.0
0.03,1.4305981476321623,-0.5473233306414891,0.659549132977336,0.0,5.579690778515938,5.126025079705688,89.91235039369698,89.66348597554358,0.0
0.031,1.4190170274014693,-0.5313461462556079,1.548125104476343,0.0,5.587299051416617,5.1933040282114975,89.33547785153678,89.66348597554358,0.0
0.032,1.4548375838409084,-0.5217916503585572,1.8398414567965125,0.0,5.599983169172991,5.273762875786377,91.19607176286183,89.66348597554358,0.0
0.033,1.5030902277316276,-0.5336463890947696,0.8942186432608028,0.0,5.620844326131167,5.235558992103691,89.58296614251913,89.66348597554358,0.0
0.034,1.4992808112458906,-0.5184014696404803,1.7015766517624014,0.0,5.634003490497925,5.302428783807963,89.5684782276647,89.66348597554358,0.0
0.035,1.5371760302234174,-0.5077347504718339,1.709770686668404,0.0,5.651512827684425,5.352548708280741,91.14756376667192,89.66348597554358,0.0
0.036000000000000004,1.5699703551645678,-0.5125691022775822,0.9053871392535089,0.0,5.672921669489874,5.307615019906445,88.71218659305592,89.66348597554358,0.0
0.037,1.5609764161508128,-0.4880059315884405,2.1325887198863875,0.0,5.6849459659834825,5.413668870434812,90.06876713623637,89.66348597554358,0.0
0.038,1.6148049004786886,-0.48747621046219286,1.4502456366892313,0.0,5.706560580263572,5.4169789379354825,89.82086250042569,89.66348597554358,0.0
0.039,1.6299250634882747,-0.48495933446281314,1.5726241893457527,0.0,5.726073180717051,5.441279598650508,88.33260927048475,89.66348597554358,0.0
0.04,1.6555999353529234,-0.4646955206639179,2.3300595713668097,0.0,5.7438607364387995,5.544522525560114,90.45676428353914,89.66348597554358,0.0
0.041,1.7126597084538937,-0.4762831860804169,1.2600492817596585,0.0,5.771671110613137,5.507924603351479,88.28012415256117,89.66348597554358,0.0
0.042,1.7159403927262846,-0.4558038283154692,2.3622029654784686,0.0,5.79067204914087,5.609914241347328,89.95325561638657,89.66348597554358,0.0
0.043000000000000003,1.7712401256741672,-0.4557403090432084,1.5227395371573391,0.0,5.818169664073114,5.594192331662307,88.32513269879028,89.66348597554358,0.0
0.044,1.7808059128126539,-0.44253417719035315,2.350184528723015,0.0,5.83989328723254,5.681706718538696,89.63724227212258,89.66348597554358,0.0
0.045,1.8340069083702049,-0.4367520978946703,1.6943921790910788,0.0,5.867692019359666,5.676473969028271,88.2032260065122,89.66348597554358,0.0
0.046,1.84670407196039,-0.4268779973178195,2.4260029115865835,0.0,5.891159273052539,5.760714793713084,89.48837509059177,89.66348597554358,0.0
0.047,1.9011541231827123,-0.4188143942587842,1.7851794783963126,0.0,5.9199156285138805,5.755209042324262,87.80726616913199,89.66348597554358,0.0
0.048,1.9143265173142345,-0.40834391172468,2.6442961371903193,0.0,5.944174656242048,5.853136105577459,89.56833499677262,89.66348597554358,0.0
0.049,1.975319727753532,-0.4045614094120207,1.7647132331577149,0.0,5.975489117093664,5.831773550039618,87.18065198408755,89.66348597554358,0.0
0.05,1.985507903237915,-0.3875501685890267,2.9833830794148124,0.0,5.999702464838931,5.958017441070438,89.58267738240573,89.66348597554358,0.0
0.051000000000000004,2.056448711763403,-0.3940520934765477,1.7831784661870969,0.0,6.0350041910586105,5.922147464672125,87.04348776121958,89.66348597554358,0.0
0.052000000000000005,2.067652068647358,-0.36864991146927417,3.0789732589234133,0.0,6.060329487746818,6.047411170696903,89.17164322992738,89.66348597554358,0.0
0.053,2.1342707231167166,-0.37946125823120247,2.019813952025674,0.0,6.097091895332566,6.02599954567912,87.49152332573523,89.66348597554358,0.0
0.054,2.155420365016287,-0.35198126351288417,2.8815935306198344,0.0,6.124905986771328,6.1141323965717636,88.1917153020795,89.66348597554358,0.0
0.055,2.204888342978365,-0.3573313190462736,2.5462152491823393,0.0,6.159615260211332,6.145493983618121,88.48371172232456,89.66348597554358,0.0
0.056,2.248402059235598,-0.3383244664143551,2.412014781592002,0.0,6.191845510667127,6.161490241674606,86.45313764232809,89.66348597554358,0.0
0.057,2.271326501024081,-0.3270849440430412,3.459405304922391,0.0,6.221406082948465,6.293578309779109,88.71428756972837,89.66348597554358,0.0
0.058,2.3507122681623245,-0.3371358687389425,2.338322325280402,0.0,6.262437401752383,6.273117405340051,87.47274300478807,89.66348597554358,0.0
0.059000000000000004,2.377202988301345,-0.3096493043635875,2.981002037458106,0.0,6.294195466903753,6.338591199817346,86.80986970879401,89.66348597554358,0.0
0.06,2.418253012257175,-0.30946934608043963,3.3409748481226322,0.0,6.329580175220325,6.42961303797962,88.45576788795772,89.66348597554358,0.0
0.061,2.4869257039714587,-0.3075190993353849,2.5301029394166363,0.0,6.370315868962344,6.415132029244006,87.20118457480955,89.66348597554358,0.0
0.062,2.5119966259659834,-0.2798534032753386,3.1820176099980637,0.0,6.4025061683574425,6.483920949104917,87.4880418234547,89.66348597554358,0.0
0.063,2.546743919839939,-0.295099282013529,3.0603434271963783,0.0,6.440310033420926,6.525575206999059,90.30881724920351,89.66348597554358,0.0
0.064,2.573116420437488,-0.3133881688550413,1.6435024015853692,0.0,6.480358256532658,6.409655152493947,89.474741944071,89.66348597554358,0.0
0.065,2.5185792870160153,-0.293198979755106,2.0624274944663528,0.0,6.502405952213296,6.375844905905875,89.55404049561112,89.66348597554358,0.0
0.066,2.4702221772342514,-0.29765519287008857,2.0238726734956174,0.0,6.519559929000715,6.343964083050864,92.08901132882228,89.66348597554358,0.0
0.067,2.435438149958136,-0.29644728594673286,0.7321320033572496,0.0,6.531632993931167,6.178623486557137,90.16746185943377,89.66348597554358,0.0
0.068,2.3377495812453093,-0.2668351596437082,1.687866979212602,0.0,6.522719437895105,6.159470412536953,91.09996272393103,89.66348597554358,0.0
0.069,2.2884351179333247,-0.2762477759234826,1.207251779480099,0.0,6.514113439114434,6.083363973863238,91.6108001498951,89.66348597554358,0.0
0.07,2.239490748415641,-0.2665879798132701,0.9323599247545489,0.0,6.497600692609541,5.993466363170171,90.6858361094974,89.66348597554358,0.0
0.07100000000000001,2.174467052125369,-0.26729541315699246,1.384618443613859,0.0,6.47392387531474,5.970067757414451,92.39215820137353,89.66348597554358,0.0
0.07200000000000001,2.1454134211621216,-0.2761319199636477,0.5041706754174937,0.0,6.451239820589144,5.847815153257687,90.71433289285383,89.66348597554358,0.0
0.073,2.0758009400661392,-0.27106287674881646,1.3325748605042418,0.0,6.41795295109873,5.842815178696471,92.50209483782423,89.66348597554358,0.0
0.074,2.0529629704586174,-0.28906937582502157,0.41030779939623585,0.0,6.389526176431768,5.727069147915454,90.77200917326867,89.66348597554358,0.0
0.075,1.992574899138356,-0.284537739703149,1.264265399696765,0.0,6.3516889311892335,5.729627357539134,92.30556527007124,89.66348597554358,0.0
0.076,1.9759306182046665,-0.3077133208226538,0.47106655835020295,0.0,6.320485861717684,5.633581563314569,90.85558299664918,89.66348597554358,0.0
0.077,1.9285064137578491,-0.308519361415315,1.18413672485018,0.0,6.282655428424829,5.63543996797358,92.40201744675339,89.66348597554358,0.0
0.078,1.9159841004316236,-0.3326084695309929,0.38353418508597437,0.0,6.251435620413961,5.53903572021976,90.82544307586461,89.66348597554358,0.0
0.079,1.868633685467145,-0.33446719545630765,1.1602017995271534,0.0,6.213660937199424,5.547672701939238,92.50860848905022,89.66348597554358,0.0
0.08,1.8614074644135403,-0.35577715658087905,0.2901678677992843,0.0,6.182852928942737,5.448519488697087,90.87736422579958,89.66348597554358,0.0
0.081,1.8106559680461165,-0.3613965238098188,1.0936512169220423,0.0,6.145615430971446,5.458794706064149,91.75832372881122,89.66348597554358,0.0
0.082,1.8054932749293442,-0.37836883155590706,0.6322230878835466,0.0,6.114939964713765,5.405587105491081,91.53085742807399,89.66348597554358,0.0
0.083,1.7755044440812395,-0.39721680052383823,0.7272825237268596,0.0,6.083914838533561,5.372950682044826,91.25153967545342,89.66348597554358,0.0
0.084,1.7546359391927109,-0.4070065975394095,0.8510608630380467,0.0,6.053616980608784,5.355136058520229,92.53127600235989,89.66348597554358,0.0
0.085,1.7380312617694047,-0.42750794862376307,0.18251479931664716,0.0,6.026724696773149,5.26291309062083,90.98752577766176,89.66348597554358,0.0
0.08600000000000001,1.688819197401504,-0.42604283039498747,0.9411495136445303,0.0,5.992933168015127,5.272605750647319,91.69998601773443,89.66348597554358,0.0
0.08700000000000001,1.681288063593766,-0.43967007788562973,0.5645543931862851,0.0,5.9650037065418156,5.2292744854768465,92.02060900247986,89.66348597554358,0.0
0.088,1.6538394410840742,-0.45760790253018635,0.38067167054420903,0.0,5.937370952934784,5.1739662895280345,91.1883014779951,89.66348597554358,0.0
0.089,1.620031047308546,-0.46110675386356215,0.7815772777620746,0.0,5.907176150493799,5.170808518923996,91.41953798693824,89.66348597554358,0.0
0.09,1.608646880097342,-0.47508966123960616,0.6483985031765576,0.0,5.8811881825345385,5.147202498315154,92.5573753288722,89.66348597554358,0.0
0.091,1.5913775686023794,-0.4918793804346435,0.05054093867629139,0.0,5.857145449348015,5.060711521214432,91.1672489266456,89.66348597554358,0.0
0.092,1.5426157955115407,-0.4892153560103457,0.7305665102785708,0.0,5.826396951891448,5.0664378589514225,91.35216008341867,89.66348597554358,0.0
0.093,1.5317227948350591,-0.499122208265549,0.6212241908132854,0.0,5.800412331946553,5.0503994146553595,92.50763670440531,89.66348597554358,0.0
0.094,1.51777066063912,-0.5158839793162466,0.015044373031344316,0.0,5.7771670558595645,4.96920580078784,91.22751457037204,89.66348597554358,0.0
0.095,1.4721999899618843,-0.5138070121400089,0.6394651540996985,0.0,5.74773086189463,4.973428357226251,91.16547782824459,89.66348597554358,0.0
0.096,1.4609788407112023,-0.5227459717722293,0.6554636066364117,0.0,5.722664598201336,4.970579280303483,92.1304036454216,89.66348597554358,0.0
0.097,1.4555315149373562,-0.5367397695968184,0.1483315213491294,0.0,5.70126998134948,4.910050965139312,91.6394448211729,89.66348597554358,0.0
0.098,1.420213365867285,-0.5418669734830512,0.37405134501718273,0.0,5.6763860491156315,4.8871670444027,91.0603861135115,89.66348597554358,0.0
0.099,1.3977704018397625,-0.5455582723722889,0.6496116974682051,0.0,5.652056888870459,4.894253107601622,91.14565105495097,89.66348597554358,0.0
0.1,1.3940789181748576,-0.5567530309063948,0.5921575759543929,0.0,5.632063761419556,4.889303725127972,92.08207048667263,89.66348597554358,0.0
0.101,1.3888866612386674,-0.5689620414786537,0.09976201498227244,0.0,5.614806052043985,4.82979523109113,91.57284110974742,89.66348597554358,0.0
0.10200000000000001,1.3540194106690011,-0.5699322158906001,0.33528315210284365,0.0,5.593307893281878,4.809126571206702,91.13424402203657,89.66348597554358,0.0
0.10300000000000001,1.3316873074481062,-0.5712265787760751,0.5398741154933369,0.0,5.572025362580822,4.810632614884858,91.21278442527755,89.66348597554358,0.0
0.10400000000000001,1.324308277199414,-0.5787137334438863,0.4851109293755078,0.0,5.553832332702292,4.802378313313371,91.45270749083954,89.66348597554358,0.0
0.105,1.3155170333723567,-0.5875380870124831,0.34725718144155016,0.0,5.5375289830003345,4.779407105018114,91.36300087616274,89.66348597554358,0.0
0.106,1.2997839657275063,-0.5903191741195557,0.3751153397737583,0.0,5.520776523485141,4.763188342480733,91.31922263158691,89.66348597554358,0.0
0.107,1.2845995846040275,-0.5930107804874615,0.38044709550124156,0.0,5.504345699497125,4.748737073039403,91.21741152125584,89.66348597554358,0.0
0.108,1.270403804370878,-0.5958642290502587,0.4158133952096539,0.0,5.488399794242007,4.739334515568469,91.11394861246492,89.66348597554358,0.0
0.109,1.259117215361669,-0.5994383884163279,0.45304022323589876,0.0,5.473472846809947,4.734118478393601,90.97613230674177,89.66348597554358,0.0
0.11,1.250333256784715,-0.6046026801317057,0.5088219127854914,0.0,5.460049320898635,4.734548437316579,90.78289538372375,89.66348597554358,0.0
0.111,1.2465621569310639,-0.6083270738716549,0.5942462802126995,0.0,5.448369183864996,4.742758892675756,90.59880990664196,89.66348597554358,0.0
0.112,1.2469804502139468,-0.6147457960622053,0.676935779442613,0.0,5.439346921574197,4.7571381667770165,91.18331815613611,89.66348597554358,0.0
0.113,1.252739989369206,-0.6204955472148844,0.369483332889613,0.0,5.433233098327494,4.733901256751693,91.73364880800993,89.66348597554358,0.0
0.114,1.2378759164000366,-0.6219512285007364,0.07361637862803883,0.0,5.425509593832847,4.684598458319149,90.81238783694457,89.66348597554358,0.0
0.115,1.205756001242035,-0.6110740939160009,0.5227578455467115,0.0,5.4124171183272285,4.695202370121754,90.19878052676503,89.66348597554358,0.0
0.116,1.1994242063515126,-0.6090429589533953,0.824208555124263,0.0,5.401579628052395,4.732480104864257,90.50447659977861,89.66348597554358,0.0
0.117,1.2156931659831292,-0.6152230156458276,0.6629506123751234,0.0,5.396253777865088,4.742340532798462,91.51176405445693,89.66348597554358,0.0
0.11800000000000001,1.2224638958126026,-0.6216545833603964,0.1408241042468299,0.0,5.3930922273716115,4.69427890576897,90.91753661238323,89.66348597554358,0.0
0.11900000000000001,1.1963499694460518,-0.6144396207292203,0.42539731891528443,0.0,5.384582707657956,4.690171844286507,89.95441682809752,89.66348597554358,0.0
0.12,1.1847715153281837,-0.6077485778221488,0.9040479025325996,0.0,5.3758495686739565,4.736442859721445,89.93353444849649,89.66348597554358,0.0
0.121,1.2044993718153818,-0.6114758320734468,0.9117886076035873,0.0,5.373093753528562,4.7709925826813535,91.05612674321283,89.66348597554358,0.0
0.122,1.225782492324908,-0.6195480203148395,0.3365660525687242,0.0,5.374919160357739,4.736315999035013,91.05940006178122,89.66348597554358,0.0
0.123,1.2099766865614927,-0.6159925018781987,0.32097025242215316,0.0,5.372622539228921,4.71127777180952,89.83695876359393,89.66348597554358,0.0
0.124,1.191182988486843,-0.6032680685107692,0.9304561736352954,0.0,5.366687625004384,4.757622363259184,89.34543012500795,89.66348597554358,0.0
0.125,1.2087404926670584,-0.6026326873300293,1.1794010514336397,0.0,5.366038013751061,4.8179088190465444,90.63201252611616,89.66348597554358,0.0
0.126,1.2424351180669735,-0.6133512037984828,0.5264245853738112,0.0,5.372667399825139,4.79425397433308,91.12281051726428,89.66348597554358,0.0
0.127,1.2363889395973624,-0.6112407987382492,0.26643234438254026,0.0,5.375929033099157,4.752560196735587,89.60744079943042,89.66348597554358,0.0
0.128,1.2124599912726226,-0.5931325933563781,1.0246776550606036,0.0,5.3727243267446205,4.803940589340771,88.8920010322891,89.66348597554358,0.0
0.129,1.2312426498519806,-0.5895586342906471,1.390112388063808,0.0,5.374766076842641,4.880172457646576,90.4176440099796,89.66348597554358,0.0
0.13,1.2735346485698,-0.601374698807962,0.6197493188742002,0.0,5.385562345449004,4.856126735917549,90.92943866993109,89.66348597554358,0.0
0.131,1.269979160716795,-0.5985325494333019,0.35119246195457965,0.0,5.392443617945441,4.814541613303807,89.17061868043662,89.66348597554358,0.0
0.132,1.2477853124541343,-0.5775782106327706,1.235531129652884,0.0,5.392201695156551,4.8801717206474535,88.77273247961227,89.66348597554358,0.0
0.133,1.2751708710916065,-0.5737241887511266,1.4433817650243697,0.0,5.398332576361937,4.95000045825898,90.34955855602428,89.66348597554358,0.0
0.134,1.3158086703755674,-0.5850018136478763,0.6481080010135605,0.0,5.412112322165397,4.919704487500129,90.09647713140382,89.66348597554358,0.0
0.135,1.3094278392237662,-0.5782791027223428,0.7703188017651887,0.0,5.4206322218618475,4.916320283539832,88.13310488455421,89.66348597554358,0.0
0.136,1.3062826570503985,-0.5628461355582417,1.7673087360998834,0.0,5.426331311913831,5.022855436442062,89.44787596439706,89.66348597554358,0.0
0.137,1.360407044876289,-0.5685107859856782,1.1120792962899275,0.0,5.442891449469497,5.031276710854244,90.86261517668768,89.66348597554358,0.0
