timestamp,iq,id,iq_ref,id_ref,vq,vd,omega,omega_ref,r
0.0,0.0,0.0,0.0,0.0,0.0,0.0,0.0,467.53370738101376,0.0
0.001,0.0,0.0,10.0,0.0,0.0,1.0999999999999999,6.115472199294103,467.53370738101376,0.0
0.002,0.5307369851907212,-0.2913212625381807,10.0,0.0,0.14204533887919985,1.9316189316290207,13.317801563642547,467.53370738101376,0.0
0.003,1.0842913387634832,-0.6024330830807904,10.0,0.0,0.384357124667687,2.6386968949419622,20.697939467553027,467.53370738101376,0.0
0.004,1.5590443546685477,-0.8700465084428163,10.0,0.0,0.6994718867930164,3.2526109522886295,28.232747544420146,467.53370738101376,0.0
0.005,1.9399447555359186,-1.0838738622210777,10.0,0.0,1.065311453102468,3.7994935661768023,35.92944872443006,467.53370738101376,0.0
0.006,2.239750732602683,-1.2510087368845633,10.0,0.0,1.4655018868449925,4.299102221838433,43.75633668444442,467.53370738101376,0.0
0.007,2.4770151619816017,-1.382020589851471,10.0,0.0,1.8883740978591532,4.765668027847139,51.58766747378032,467.53370738101376,0.0
0.008,2.6680767290418097,-1.4872241871505252,10.0,0.0,2.325877945545995,5.209220346273558,59.45942083902103,467.53370738101376,0.0
0.009000000000000001,2.8266491704841292,-1.5730794701170803,10.0,0.0,2.772378685460125,5.636635464737965,67.35059094018146,467.53370738101376,0.0
0.01,2.962077666392183,-1.645500646948331,10.0,0.0,3.224078639851053,6.052647735211881,75.20908322432116,467.53370738101376,0.0
0.011,3.0811061533574158,-1.7084279320504514,10.0,0.0,3.678407615443203,6.460489925470405,83.0265951655913,467.53370738101376,0.0
0.012,3.188848746459569,-1.7638278597420747,10.0,0.0,4.133552631697047,6.862319393890706,90.74118064793086,467.53370738101376,0.0
0.013000000000000001,3.288205119878689,-1.8140726097274587,10.0,0.0,4.588339016389012,7.259628641949282,98.35820682563939,467.53370738101376,0.0
0.014,3.3820602099432007,-1.8592355758795645,10.0,0.0,5.041843166194517,7.653355107498287,105.90865295623543,467.53370738101376,0.0
0.015,3.4721069852858886,-1.899829032412081,10.0,0.0,5.493383198131427,8.044092747085895,113.37727610343421,467.53370738101376,0.0
0.016,3.5596145800153947,-1.9360338400176071,10.0,0.0,5.94241958510469,8.43218525824161,120.68508583176356,467.53370738101376,0.0
0.017,3.645144415105338,-1.9685384477868613,10.0,0.0,6.388575043274759,8.817838951066484,127.83962377537456,467.53370738101376,0.0
0.018000000000000002,3.730251927866576,-1.9959253041084188,10.0,0.0,6.83136783302799,9.201036292373047,134.85405702603322,467.53370738101376,0.0
0.019,3.81544967906247,-2.018253592643655,10.0,0.0,7.270383321112213,9.581672501020332,141.68976328564074,467.53370738101376,0.0
0.02,3.9014648862453374,-2.0350875541282063,10.0,0.0,7.705189334130692,9.959536942333155,148.3432823300447,467.53370738101376,0.0
0.021,3.9891051824829464,-2.0457889559126508,10.0,0.0,8.135310004560049,10.334315260302239,154.92060212100432,467.53370738101376,0.0
0.022,4.079618141396171,-2.0489696811670974,10.0,0.0,8.560139305503519,10.705547790999272,161.01925282597162,467.53370738101376,0.0
0.023,4.171109372430197,-2.048468292080302,10.0,0.0,8.979521969370257,11.072981092896333,166.534238406907,467.53370738101376,0.0
0.024,4.266936196769627,-2.039517194249811,10.0,0.0,9.392730090169543,11.435983292623375,171.8647834235234,467.53370738101376,0.0
0.025,4.367255527950721,-2.0225841458509217,10.0,0.0,9.79914449451603,11.793929226271104,177.02637022703064,467.53370738101376,0.0
0.026000000000000002,4.4734353073349595,-1.9962166741499119,10.0,0.0,10.197980960389518,12.146045424568259,181.63161391243256,467.53370738101376,0.0
0.027,4.582366840795821,-1.966358349113627,10.0,0.0,10.589124658468391,12.491912978736195,185.74793639675826,467.53370738101376,0.0
0.028,4.700058850757774,-1.9240450691803936,10.0,0.0,10.971384864613876,12.830451341534015,189.43662766964098,467.53370738101376,0.0
0.029,4.820934284790598,-1.879137197786803,10.0,0.0,11.344756153370636,13.161242511022618,192.73598774770625,467.53370738101376,0.0
0.03,4.952016225740939,-1.821000614527957,10.0,0.0,11.707923484756042,13.483081433273819,195.59831968863915,467.53370738101376,0.0
0.031,5.086039273572549,-1.7621311371320891,10.0,0.0,12.061063698547066,13.79562148058647,197.80891551030922,467.53370738101376,0.0
0.032,5.230431844273564,-1.6911110488141978,10.0,0.0,12.40292038074925,14.097678592248165,200.4421589734679,467.53370738101376,0.0
0.033,5.380124186618445,-1.6166151787533525,10.0,0.0,12.733312761073865,14.38869342901298,201.91742172589852,467.53370738101376,0.0
0.034,5.537594793894332,-1.535029134414507,10.0,0.0,13.051537880865839,14.667821176756876,203.18880493813168,467.53370738101376,0.0
0.035,5.698947813469154,-1.4530296333491768,10.0,0.0,13.357649178779205,14.934684535625108,203.60405746232266,467.53370738101376,0.0
0.036000000000000004,5.870474243492053,-1.3603000477825025,10.0,0.0,13.65045542338638,15.188218311291084,204.28541056101804,467.53370738101376,0.0
0.037,6.041188711220851,-1.275010780747051,10.0,0.0,13.930879897581198,15.42861600670124,205.2233356988433,467.53370738101376,0.0
0.038,6.228175208801664,-1.168399557236846,10.0,0.0,14.196427351981786,15.654155009933262,200.35169734043586,467.53370738101376,0.0
0.039,6.404895489618571,-1.0845312562500289,10.0,0.0,14.449814560392067,15.86612549236809,209.64773540576442,467.53370738101376,0.0
0.04,6.534612624563911,-1.0851225869390002,10.0,0.0,14.699963825590459,16.069735965364643,218.170241886545,467.53370738101376,0.0
0.041,6.621487035821765,-1.1484636683301073,10.0,0.0,14.952420817214799,16.26974130369247,220.68166573712315,467.53370738101376,0.0
0.042,6.6704785161669795,-1.2647840534085386,10.0,0.0,15.211794475054209,16.47047148862455,233.10654395573727,467.53370738101376,0.0
0.043000000000000003,6.709376245503157,-1.3867642159960276,10.0,0.0,15.477558399636717,16.673277185423842,235.10815372853793,467.53370738101376,0.0
0.044,6.744196093263161,-1.5028656568708394,10.0,0.0,15.74857785831126,16.87893749904121,248.8181267625822,467.53370738101376,0.0
0.045,6.750563942850831,-1.6564343609015326,10.0,0.0,16.02879294551472,17.090781462187255,251.61117095327992,467.53370738101376,0.0
0.046,6.764566527560506,-1.7840489455190416,10.0,0.0,16.314672837580048,17.307985931916857,266.60539535969383,467.53370738101376,0.0
0.047,6.752169677737121,-1.9446655565152717,10.0,0.0,16.610076868775216,17.533561623207692,270.0627790167984,467.53370738101376,0.0
0.048,6.7291903821171735,-2.110358990489937,10.0,0.0,16.91511817760721,17.768523902508925,283.13731951482634,467.53370738101376,0.0
0.049,6.714097190323873,-2.246352557911731,10.0,0.0,17.22645394156277,18.011924542904307,294.70561782835244,467.53370738101376,0.0
0.05,6.666841209228205,-2.4219663531358275,10.0,0.0,17.548953774962747,18.267165921658286,300.1294548425776,467.53370738101376,0.0
0.051000000000000004,6.612335516543512,-2.59336894353628,10.0,0.0,17.88182590988993,18.53465621226123,310.75154600411304,467.53370738101376,0.0
0.052000000000000005,6.568447424188529,-2.726701034625408,10.0,0.0,18.22111236450049,18.81296732052879,322.35703405819294,467.53370738101376,0.0
0.053,6.5036136539679195,-2.8764091099274185,10.0,0.0,18.569435851849082,19.104068797231378,330.9557012510771,467.53370738101376,0.0
0.054,6.434362099984388,-3.0149932598739144,10.0,0.0,18.925784313874168,19.407861808234543,339.4707232587175,467.53370738101376,0.0
0.055,6.370891759459199,-3.1253006473392393,10.0,0.0,19.28762520191878,19.723199586257838,348.00092263299223,467.53370738101376,0.0
0.056,6.314459991163816,-3.2071523724558277,10.0,0.0,19.65271639484943,20.048760466390505,356.29964302226927,467.53370738101376,0.0
0.057,6.266092078485367,-3.262894600420583,10.0,0.0,20.01916768432525,20.383030530514645,362.98468703488817,467.53370738101376,0.0
0.058,6.234656406121481,-3.2830044001420036,10.0,0.0,20.38405550695561,20.723492962007192,368.0316803659419,467.53370738101376,0.0
0.059000000000000004,6.228510489334133,-3.2600491726267444,10.0,0.0,20.743774617448285,21.0667596267365,372.35801287012686,467.53370738101376,0.0
0.06,6.247959954981508,-3.201438289803519,10.0,0.0,21.095630838529225,21.40947063565305,373.88739853789605,467.53370738101376,0.0
0.061,6.298571070969623,-3.1064761741463998,10.0,0.0,21.436712814499675,21.747723437683817,371.47602194372377,467.53370738101376,0.0
0.062,6.38094735961424,-2.982369480030801,10.0,0.0,21.76480975788002,22.077703876517536,366.2922057853833,467.53370738101376,0.0
0.063,6.53566146196873,-2.7695519558602215,10.0,0.0,22.070926190088084,22.39130117743337,372.07145994459506,467.53370738101376,0.0
0.064,6.708566607552835,-2.560747003310555,10.0,0.0,22.35695033962817,22.686677966487718,365.1882535794375,467.53370738101376,0.0
0.065,6.897199383751794,-2.3667028673086685,10.0,0.0,22.62465294768497,22.962098937664592,356.7297130485294,467.53370738101376,0.0
0.066,7.167218997264825,-2.0824440278168583,10.0,0.0,22.863799361069702,23.20893224280502,357.7888817172531,467.53370738101376,0.0
0.067,7.423387055578651,-1.859201647307153,10.0,0.0,23.082000390168847,23.42951856849048,345.1266644280509,467.53370738101376,0.0
0.068,7.736929428236853,-1.5824320316278497,10.0,0.0,23.27222771500701,23.617938384108047,342.9584987314189,467.53370738101376,0.0
0.069,8.04132723792414,-1.3546495884062866,10.0,0.0,23.43998591632552,23.77619061530866,334.2677598047511,467.53370738101376,0.0
0.07,8.395997401416553,-1.0747195592463576,10.0,0.0,23.578279041856877,23.89942370363377,322.7417355360636,467.53370738101376,0.0
0.07100000000000001,8.726669482066718,-0.8579631993863083,10.0,0.0,23.694022264374595,23.99133556844291,337.9106389559309,467.53370738101376,0.0
0.07200000000000001,8.91385728821635,-0.8925675486457335,10.0,0.0,23.81335639313859,24.06834663115294,344.8606079910171,467.53370738101376,0.0
0.073,8.941721008651788,-1.1508071676799903,10.0,0.0,23.95651852989837,24.148396869281978,362.43451347602996,467.53370738101376,0.0
0.074,8.927907180207171,-1.4305443375681337,10.0,0.0,24.121558169292424,24.236556455607346,368.59250641149885,467.53370738101376,0.0
0.075,8.859340450140312,-1.7499202918046703,10.0,0.0,24.31124378664675,24.33980824926249,387.10067316750514,467.53370738101376,0.0
0.076,8.767176841935807,-2.0562826706616475,10.0,0.0,24.52279212376306,24.461155754889383,396.7190369145668,467.53370738101376,0.0
0.077,8.62162972262067,-2.4016532593838043,10.0,0.0,24.76024751870129,24.606611890707832,408.83095327273656,467.53370738101376,0.0
0.078,8.47560200325128,-2.694417929744825,10.0,0.0,25.017253395580042,24.77587553037574,428.2762610097064,467.53370738101376,0.0
0.079,8.289593068490031,-3.001970310780605,10.0,0.0,25.296388163948027,24.972914099394785,438.0404594767293,467.53370738101376,0.0
0.08,8.078425759776728,-3.30171273584331,10.0,0.0,25.597209455327665,25.19953060295957,447.87571303424875,467.53370738101376,0.0
0.081,7.882675762310951,-3.525181384717318,10.0,0.0,25.912194395051316,25.45298841193994,460.26934286159303,467.53370738101376,0.0
0.082,7.687097883672571,-3.703693402600396,10.0,0.0,26.238428257179056,25.732155000670204,470.03446400235384,467.53370738101376,0.0
0.083,7.512516260295773,-3.813976142857688,5.384070744135133,0.0,26.570301373216513,25.52552429838014,473.1210244483699,467.53370738101376,0.0
0.084,7.126310170797815,-3.7370694391817896,3.7849173504535463,0.0,26.838761542614293,25.28373325078751,468.11078531913296,467.53370738101376,0.0
0.085,6.719376548251156,-3.5013485576855894,6.284266135690822,0.0,27.031036360385208,25.42478786279201,462.4374858726659,467.53370738101376,0.0
0.08600000000000001,6.549389158982411,-3.2584865756194534,9.171878074007836,0.0,27.193831548367175,25.878237597329722,462.5610753314103,467.53370738101376,0.0
0.08700000000000001,6.668041568466368,-3.0447882686272347,9.159809665131675,0.0,27.364613997056228,26.257666593916397,464.0108485100353,467.53370738101376,0.0
0.088,6.873593016274558,-2.8324287055773483,8.470151664528942,0.0,27.53503853166947,26.519065104571713,448.0635495850958,467.53370738101376,0.0
0.089,7.111814694744908,-2.554872207701347,10.0,0.0,27.68615284475107,26.922397244376995,438.28414008687315,467.53370738101376,0.0
0.09,7.513953285326645,-2.2197722067922356,10.0,0.0,27.828403505383793,27.243356089975926,435.83596037896115,467.53370738101376,0.0
0.091,7.916182798081449,-1.9439390724399948,10.0,0.0,27.96153433974349,27.506220256581013,416.7744163541447,467.53370738101376,0.0
0.092,8.388429676634258,-1.5899940007257576,10.0,0.0,28.07146288078268,27.708186228448312,411.4730728933332,467.53370738101376,0.0
0.093,8.846624648379269,-1.2831272751235274,10.0,0.0,28.16037927580557,27.855269479126363,396.4100749540235,467.53370738101376,0.0
0.094,9.351686666116294,-0.9228557453111548,10.0,0.0,28.218551155370644,27.94556117200529,384.6742205968393,467.53370738101376,0.0
0.095,9.82594042527453,-0.6306818646298318,10.0,0.0,28.251398604690273,27.985523590222783,404.2126048073388,467.53370738101376,0.0
0.096,9.968218128866106,-0.8725768208238494,10.0,0.0,28.314487734887862,28.01386650174701,418.2499080144137,467.53370738101376,0.0
0.097,10.000565448673841,-1.2111583134112163,10.0,0.0,28.408927257840766,28.043548606995632,431.33148771708494,467.53370738101376,0.0
0.098,9.907688670519116,-1.665854890503545,10.0,0.0,28.54352184757753,28.090246372809784,447.7797689081847,467.53370738101376,0.0
0.099,9.78147729666495,-2.081289265414915,10.0,0.0,28.71047757039136,28.158688304358613,467.27174592819193,467.53370738101376,0.0
0.1,9.56810139239695,-2.5505880954921425,7.405397532903646,0.0,28.915050441638073,27.973784579384265,477.4394555336451,467.53370738101376,0.0
0.101,9.194552141158878,-2.898647369044286,2.2224852486507416,0.0,29.11426918505264,27.32261084602869,488.5051515211618,467.53370738101376,0.0
0.10200000000000001,8.505402306967305,-3.0796888466986383,-3.520077186509077,0.0,29.24488265059665,26.248694604573757,492.51025032363054,467.53370738101376,0.0
0.10300000000000001,7.521455483719119,-3.0403969607897294,-5.77239201716962,0.0,29.248910623214233,25.20624497901305,492.6470507502286,467.53370738101376,0.0
0.10400000000000001,6.494842225813295,-2.876820128029996,-6.091925664160783,0.0,29.130690303269517,24.358905550544907,489.7197418819958,467.53370738101376,0.0
0.105,5.606245595230617,-2.6609820847100947,-4.850131575054211,0.0,28.91745165603487,23.81175021598578,483.76643336330034,467.53370738101376,0.0
0.106,4.964827715360215,-2.457028148360716,-2.03580457552935,0.0,28.650544787502547,23.656814579695688,476.3232332710571,467.53370738101376,0.0
0.107,4.652931117868546,-2.302126878136995,1.5979002116918242,0.0,28.379835441833322,23.89014052370583,468.77303902580695,467.53370738101376,0.0
0.108,4.683328790823476,-2.2146104707288212,5.360604017868977,0.0,28.15145183301937,24.44416059955534,460.8373872788628,467.53370738101376,0.0
0.109,5.021855351862684,-2.176558314973668,9.395393092362552,0.0,27.997998019612787,25.28920612208627,459.9432492415419,467.53370738101376,0.0
0.11,5.633968101460377,-2.174922125923223,9.918366692417742,0.0,27.94459468056195,25.987633779439232,459.70526473179996,467.53370738101376,0.0
0.111,6.261149866177946,-2.1584622368698265,10.0,0.0,27.964580215246126,26.551759398362357,441.714477674838,467.53370738101376,0.0
0.112,6.88232533161253,-2.030286429847541,10.0,0.0,28.02504501847228,26.998597192235135,436.5091312076696,467.53370738101376,0.0
0.113,7.4888130555064105,-1.7963603301697688,10.0,0.0,28.09969700786876,27.346295792069267,423.2598197168161,467.53370738101376,0.0
0.114,8.029986464361555,-1.5734007376429955,10.0,0.0,28.17946736412784,27.613225533124513,413.4123443312677,467.53370738101376,0.0
0.115,8.600303614318346,-1.2467498856246095,10.0,0.0,28.244251661069786,27.804116183293438,397.44112304178367,467.53370738101376,0.0
0.116,9.116391584801336,-0.9739651330461094,10.0,0.0,28.294906779070978,27.931329692886113,392.3155168790001,467.53370738101376,0.0
0.117,9.646952101420476,-0.6625070831998658,10.0,0.0,28.32168519827401,27.99768658619636,398.56653048064004,467.53370738101376,0.0
0.11800000000000001,9.931228353464132,-0.736489130143986,10.0,0.0,28.363674070550086,28.03412084953728,413.81142045388907,467.53370738101376,0.0
0.11900000000000001,9.971686529570048,-1.118082919692501,10.0,0.0,28.44634297831354,28.069502936920497,429.9373922412963,467.53370738101376,0.0
0.12,9.942340166454144,-1.5137079019118866,10.0,0.0,28.56398601418763,28.113246388045546,445.0277935644607,467.53370738101376,0.0
0.121,9.806196697426419,-1.9864776516192313,10.0,0.0,28.722287514232413,28.179062115607387,459.5595834476574,467.53370738101376,0.0
0.122,9.6378898744731,-2.413794328675677,10.0,0.0,28.91361757400804,28.27127873625211,482.66611053390386,467.53370738101376,0.0
0.123,9.402369570303655,-2.8579179139800246,-0.849419924734188,0.0,29.1396167174835,27.204194674318277,485.2100962777201,467.53370738101376,0.0
0.124,8.559032068491044,-2.9829129198765503,-2.298176685609363,0.0,29.245615755213592,26.305961810634127,489.8367145395233,467.53370738101376,0.0
0.125,7.617917981607368,-2.972333976251381,-4.834515888096073,0.0,29.248777968944534,25.3387315669657,491.8729104630261,467.53370738101376,0.0
0.126,6.636307720088931,-2.861261379757689,-6.096005880667576,0.0,29.14278874075749,24.453706049777402,489.6973816776609,467.53370738101376,0.0
0.127,5.735658184139104,-2.6731451876878376,-5.229878230951476,0.0,28.939313828507547,23.843728449223004,484.4254555200194,467.53370738101376,0.0
0.128,5.04974825284404,-2.4780364363272906,-2.762832633520766,0.0,28.675607846698224,23.603558453802243,477.20098451746526,467.53370738101376,0.0
0.129,4.6700646735290405,-2.321100537660492,0.7527300963917876,0.0,28.398943602188012,23.757982398470386,469.86329941105254,467.53370738101376,0.0
0.13,4.631366960470162,-2.2246669260368255,4.39827672929776,0.0,28.15634983830369,24.23561193918456,461.87856837540727,467.53370738101376,0.0
0.131,4.898533850826555,-2.1831824193842735,8.447193637176458,0.0,27.98217944526368,25.020369207906686,459.0577630021095,467.53370738101376,0.0
0.132,5.4544418897489315,-2.172020458068109,9.942355767614394,0.0,27.903088847721627,25.77473416034409,460.9975714013961,467.53370738101376,0.0
0.133,6.0912128452581955,-2.1625178132886838,9.037812927767263,0.0,27.906410133864952,26.266816499379186,444.0817514311622,467.53370738101376,0.0
0.134,6.656806723737119,-2.055615800668759,10.0,0.0,27.94694333035705,26.769061122391587,434.73898970129227,467.53370738101376,0.0
0.135,7.276280724520328,-1.8283934664397739,10.0,0.0,28.009722232862188,27.153026530728265,428.76174183575245,467.53370738101376,0.0
0.136,7.8255099634291145,-1.6286297087355834,10.0,0.0,28.08491799594531,27.45065281220966,412.6740357366903,467.53370738101376,0.0
0.137,8.40370293523121,-1.3193626284938065,10.0,0.0,28.15033506961871,27.667927107342088,402.2026541210146,467.53370738101376,0.0
0.138,8.9244687127896,-1.0603353917358573,10.0,0.0,28.20553754019705,27.8185133745152,393.4951881808988,467.53370738101376,0.0
0.139,9.473725374196134,-0.7314618743383126,10.0,0.0,28.23669257588871,27.90435068704971,395.2545795422882,467.53370738101376,0.0
0.14,9.860697972958066,-0.6540474294269987,10.0,0.0,28.2680889854984,27.947645352650188,407.530690804522,467.53370738101376,0.0
0.14100000000000001,9.94567958505643,-0.9951179699405185,10.0,0.0,28.33896712461276,27.984271941308386,423.521517695703,467.53370738101376,0.0
0.14200000000000002,9.941475715813802,-1.3824003372807572,10.0,0.0,28.445610463683803,28.025635926749864,439.20368882569744,467.53370738101376,0.0
0.14300000000000002,9.827440547650504,-1.8505905197095116,10.0,0.0,28.593353963785653,28.086029677359843,453.5528417841984,467.53370738101376,0.0
0.14400000000000002,9.67886178180158,-2.275756907363938,10.0,0.0,28.774448889756016,28.170361715480755,476.2935431081649,467.53370738101376,0.0
0.145,9.455690990768055,-2.7296145232396696,2.0533720886350695,0.0,28.991540200811205,27.41330397149166,480.5337577244897,467.53370738101376,0.0
0.146,8.78035154601228,-2.9352989313202262,-0.19673572296209318,0.0,29.129303315092088,26.657671183857772,488.1183962541251,467.53370738101376,0.0
