timestamp,iq,id,iq_ref,id_ref,vq,vd,omega,omega_ref,r
0.0,0.0,0.0,0.0,0.0,0.0,0.0,0.0,398.5682330217854,0.0
0.001,0.0,0.0,10.0,0.0,0.0,1.0999999999999999,6.115472199294103,398.5682330217854,0.0
0.002,0.5307369851907212,-0.2913212625381807,10.0,0.0,0.14204533887919985,1.9316189316290207,13.317801563642547,398.5682330217854,0.0
0.003,1.0842913387634832,-0.6024330830807904,10.0,0.0,0.384357124667687,2.6386968949419622,20.697939467553027,398.5682330217854,0.0
0.004,1.5590443546685477,-0.8700465084428163,10.0,0.0,0.6994718867930164,3.2526109522886295,28.232747544420146,398.5682330217854,0.0
0.005,1.9399447555359186,-1.0838738622210777,10.0,0.0,1.065311453102468,3.7994935661768023,35.92944872443006,398.5682330217854,0.0
0.006,2.239750732602683,-1.2510087368845633,10.0,0.0,1.4655018868449925,4.299102221838433,43.75633668444442,398.5682330217854,0.0
0.007,2.4770151619816017,-1.382020589851471,10.0,0.0,1.8883740978591532,4.765668027847139,51.58766747378032,398.5682330217854,0.0
0.008,2.6680767290418097,-1.4872241871505252,10.0,0.0,2.325877945545995,5.209220346273558,59.45942083902103,398.5682330217854,0.0
0.009000000000000001,2.8266491704841292,-1.5730794701170803,10.0,0.0,2.772378685460125,5.636635464737965,67.35059094018146,398.5682330217854,0.0
0.01,2.962077666392183,-1.645500646948331,10.0,0.0,3.224078639851053,6.052647735211881,75.20908322432116,398.5682330217854,0.0
0.011,3.0811061533574158,-1.7084279320504514,10.0,0.0,3.678407615443203,6.460489925470405,83.0265951655913,398.5682330217854,0.0
0.012,3.188848746459569,-1.7638278597420747,10.0,0.0,4.133552631697047,6.862319393890706,90.74118064793086,398.5682330217854,0.0
0.013000000000000001,3.288205119878689,-1.8140726097274587,10.0,0.0,4.588339016389012,7.259628641949282,98.35820682563939,398.5682330217854,0.0
0.014,3.3820602099432007,-1.8592355758795645,10.0,0.0,5.041843166194517,7.653355107498287,105.90865295623543,398.5682330217854,0.0
0.015,3.4721069852858886,-1.899829032412081,10.0,0.0,5.493383198131427,8.044092747085895,113.37727610343421,398.5682330217854,0.0
0.016,3.5596145800153947,-1.9360338400176071,10.0,0.0,5.94241958510469,8.43218525824161,120.68508583176356,398.5682330217854,0.0
0.017,3.645144415105338,-1.9685384477868613,10.0,0.0,6.388575043274759,8.817838951066484,127.83962377537456,398.5682330217854,0.0
0.018000000000000002,3.730251927866576,-1.9959253041084188,10.0,0.0,6.83136783302799,9.201036292373047,134.85405702603322,398.5682330217854,0.0
0.019,3.81544967906247,-2.018253592643655,10.0,0.0,7.270383321112213,9.581672501020332,141.68976328564074,398.5682330217854,0.0
0.02,3.9014648862453374,-2.0350875541282063,10.0,0.0,7.705189334130692,9.959536942333155,148.3432823300447,398.5682330217854,0.0
0.021,3.9891051824829464,-2.0457889559126508,10.0,0.0,8.135310004560049,10.334315260302239,154.92060212100432,398.5682330217854,0.0
0.022,4.079618141396171,-2.0489696811670974,10.0,0.0,8.560139305503519,10.705547790999272,161.01925282597162,398.5682330217854,0.0
0.023,4.171109372430197,-2.048468292080302,10.0,0.0,8.979521969370257,11.072981092896333,166.534238406907,398.5682330217854,0.0
0.024,4.266936196769627,-2.039517194249811,10.0,0.0,9.392730090169543,11.435983292623375,171.8647834235234,398.5682330217854,0.0
0.025,4.367255527950721,-2.0225841458509217,10.0,0.0,9.79914449451603,11.793929226271104,177.02637022703064,398.5682330217854,0.0
0.026000000000000002,4.4734353073349595,-1.9962166741499119,10.0,0.0,10.197980960389518,12.146045424568259,181.63161391243256,398.5682330217854,0.0
0.027,4.582366840795821,-1.966358349113627,10.0,0.0,10.589124658468391,12.491912978736195,185.74793639675826,398.5682330217854,0.0
0.028,4.700058850757774,-1.9240450691803936,10.0,0.0,10.971384864613876,12.830451341534015,189.43662766964098,398.5682330217854,0.0
0.029,4.820934284790598,-1.879137197786803,10.0,0.0,11.344756153370636,13.161242511022618,192.73598774770625,398.5682330217854,0.0
0.03,4.952016225740939,-1.821000614527957,10.0,0.0,11.707923484756042,13.483081433273819,195.59831968863915,398.5682330217854,0.0
0.031,5.086039273572549,-1.7621311371320891,10.0,0.0,12.061063698547066,13.79562148058647,197.80891551030922,398.5682330217854,0.0
0.032,5.230431844273564,-1.6911110488141978,10.0,0.0,12.40292038074925,14.097678592248165,200.4421589734679,398.5682330217854,0.0
0.033,5.380124186618445,-1.6166151787533525,10.0,0.0,12.733312761073865,14.38869342901298,201.91742172589852,398.5682330217854,0.0
0.034,5.537594793894332,-1.535029134414507,10.0,0.0,13.051537880865839,14.667821176756876,203.18880493813168,398.5682330217854,0.0
0.035,5.698947813469154,-1.4530296333491768,10.0,0.0,13.357649178779205,14.934684535625108,203.60405746232266,398.5682330217854,0.0
0.036000000000000004,5.870474243492053,-1.3603000477825025,10.0,0.0,13.65045542338638,15.188218311291084,204.28541056101804,398.5682330217854,0.0
0.037,6.041188711220851,-1.275010780747051,10.0,0.0,13.930879897581198,15.42861600670124,205.2233356988433,398.5682330217854,0.0
0.038,6.228175208801664,-1.168399557236846,10.0,0.0,14.196427351981786,15.654155009933262,200.35169734043586,398.5682330217854,0.0
0.039,6.404895489618571,-1.0845312562500289,10.0,0.0,14.449814560392067,15.86612549236809,209.64773540576442,398.5682330217854,0.0
0.04,6.534612624563911,-1.0851225869390002,10.0,0.0,14.699963825590459,16.069735965364643,218.170241886545,398.5682330217854,0.0
0.041,6.621487035821765,-1.1484636683301073,10.0,0.0,14.952420817214799,16.26974130369247,220.68166573712315,398.5682330217854,0.0
0.042,6.6704785161669795,-1.2647840534085386,10.0,0.0,15.211794475054209,16.47047148862455,233.10654395573727,398.5682330217854,0.0
0.043000000000000003,6.709376245503157,-1.3867642159960276,10.0,0.0,15.477558399636717,16.673277185423842,235.10815372853793,398.5682330217854,0.0
0.044,6.744196093263161,-1.5028656568708394,10.0,0.0,15.74857785831126,16.87893749904121,248.8181267625822,398.5682330217854,0.0
0.045,6.750563942850831,-1.6564343609015326,10.0,0.0,16.02879294551472,17.090781462187255,251.61117095327992,398.5682330217854,0.0
0.046,6.764566527560506,-1.7840489455190416,10.0,0.0,16.314672837580048,17.307985931916857,266.60539535969383,398.5682330217854,0.0
0.047,6.752169677737121,-1.9446655565152717,10.0,0.0,16.610076868775216,17.533561623207692,270.0627790167984,398.5682330217854,0.0
0.048,6.7291903821171735,-2.110358990489937,10.0,0.0,16.91511817760721,17.768523902508925,283.13731951482634,398.5682330217854,0.0
0.049,6.714097190323873,-2.246352557911731,10.0,0.0,17.22645394156277,18.011924542904307,294.70561782835244,398.5682330217854,0.0
0.05,6.666841209228205,-2.4219663531358275,10.0,0.0,17.548953774962747,18.267165921658286,300.1294548425776,398.5682330217854,0.0
0.051000000000000004,6.612335516543512,-2.59336894353628,10.0,0.0,17.88182590988993,18.53465621226123,310.75154600411304,398.5682330217854,0.0
0.052000000000000005,6.568447424188529,-2.726701034625408,10.0,0.0,18.22111236450049,18.81296732052879,322.35703405819294,398.5682330217854,0.0
0.053,6.5036136539679195,-2.8764091099274185,10.0,0.0,18.569435851849082,19.104068797231378,330.9557012510771,398.5682330217854,0.0
0.054,6.434362099984388,-3.0149932598739144,10.0,0.0,18.925784313874168,19.407861808234543,339.4707232587175,398.5682330217854,0.0
0.055,6.370891759459199,-3.1253006473392393,10.0,0.0,19.28762520191878,19.723199586257838,348.00092263299223,398.5682330217854,0.0
0.056,6.314459991163816,-3.2071523724558277,10.0,0.0,19.65271639484943,20.048760466390505,356.29964302226927,398.5682330217854,0.0
0.057,6.266092078485367,-3.262894600420583,10.0,0.0,20.01916768432525,20.383030530514645,362.98468703488817,398.5682330217854,0.0
0.058,6.234656406121481,-3.2830044001420036,10.0,0.0,20.38405550695561,20.723492962007192,368.0316803659419,398.5682330217854,0.0
0.059000000000000004,6.228510489334133,-3.2600491726267444,10.0,0.0,20.743774617448285,21.0667596267365,372.35801287012686,398.5682330217854,0.0
0.06,6.247959954981508,-3.201438289803519,10.0,0.0,21.095630838529225,21.40947063565305,373.88739853789605,398.5682330217854,0.0
0.061,6.298571070969623,-3.1064761741463998,10.0,0.0,21.436712814499675,21.747723437683817,371.47602194372377,398.5682330217854,0.0
0.062,6.38094735961424,-2.982369480030801,10.0,0.0,21.76480975788002,22.077703876517536,366.2922057853833,398.5682330217854,0.0
0.063,6.53566146196873,-2.7695519558602215,10.0,0.0,22.070926190088084,22.39130117743337,372.07145994459506,398.5682330217854,0.0
0.064,6.708566607552835,-2.560747003310555,10.0,0.0,22.35695033962817,22.686677966487718,365.1882535794375,398.5682330217854,0.0
0.065,6.897199383751794,-2.3667028673086685,10.0,0.0,22.62465294768497,22.962098937664592,356.7297130485294,398.5682330217854,0.0
0.066,7.167218997264825,-2.0824440278168583,10.0,0.0,22.863799361069702,23.20893224280502,357.7888817172531,398.5682330217854,0.0
0.067,7.423387055578651,-1.859201647307153,10.0,0.0,23.082000390168847,23.42951856849048,345.1266644280509,398.5682330217854,0.0
0.068,7.736929428236853,-1.5824320316278497,10.0,0.0,23.27222771500701,23.617938384108047,342.9584987314189,398.5682330217854,0.0
0.069,8.04132723792414,-1.3546495884062866,10.0,0.0,23.43998591632552,23.77619061530866,334.2677598047511,398.5682330217854,0.0
0.07,8.395997401416553,-1.0747195592463576,10.0,0.0,23.578279041856877,23.89942370363377,322.7417355360636,398.5682330217854,0.0
0.07100000000000001,8.726669482066718,-0.8579631993863083,10.0,0.0,23.694022264374595,23.99133556844291,337.9106389559309,398.5682330217854,0.0
0.07200000000000001,8.91385728821635,-0.8925675486457335,10.0,0.0,23.81335639313859,24.06834663115294,344.8606079910171,398.5682330217854,0.0
0.073,8.941721008651788,-1.1508071676799903,10.0,0.0,23.95651852989837,24.148396869281978,362.43451347602996,398.5682330217854,0.0
0.074,8.927907180207171,-1.4305443375681337,10.0,0.0,24.121558169292424,24.236556455607346,368.59250641149885,398.5682330217854,0.0
0.075,8.859340450140312,-1.7499202918046703,10.0,0.0,24.31124378664675,24.33980824926249,387.10067316750514,398.5682330217854,0.0
0.076,8.767176841935807,-2.0562826706616475,10.0,0.0,24.52279212376306,24.461155754889383,396.7190369145668,398.5682330217854,0.0
0.077,8.62162972262067,-2.4016532593838043,7.760582546406717,0.0,24.760247518701288,24.36027597081257,406.1234142897633,398.5682330217854,0.0
0.078,8.352473577801735,-2.642295791309862,2.982842046128699,0.0,24.986886368362665,23.818224128879542,418.83195961241273,398.5682330217854,0.0
0.079,7.788220586274225,-2.7631772814033946,-3.5740678811023026,0.0,25.147546687455627,22.73893493673317,418.59677494479564,398.5682330217854,0.0
0.08,6.887154415406674,-2.659954292986403,-3.6567609665238603,0.0,25.171648711797857,21.93358830446683,419.70472419772085,398.5682330217854,0.0
0.081,6.036994536570589,-2.52314295192025,-4.42210050474582,0.0,25.098788852846113,21.212333044474427,419.15751285021094,398.5682330217854,0.0
0.082,5.28101830800269,-2.371599193535441,-4.354387629275117,0.0,24.945787753778646,20.645674922624206,416.53157805158196,398.5682330217854,0.0
0.083,4.673468518439664,-2.220521881724399,-3.2210536802585956,0.0,24.736317885717526,20.303642823255622,412.2324903191383,398.5682330217854,0.0
0.084,4.2589995420018,-2.1012589583355936,-1.2081523870103066,0.0,24.501983646071004,20.224468839297458,407.0743138931645,398.5682330217854,0.0
0.085,4.072554261392277,-2.0215123046784496,1.2858750172628053,0.0,24.275585929324926,20.400357122410693,402.0552568465593,398.5682330217854,0.0
0.08600000000000001,4.108596858252317,-1.9916276192774727,3.760533302317672,0.0,24.086926963707235,20.777459804390602,396.6433915103798,398.5682330217854,0.0
0.08700000000000001,4.338553207428425,-1.9901669760023804,6.4857143855214865,0.0,23.954982338943065,21.348074885471842,395.2268472201616,398.5682330217854,0.0
0.088,4.74657734949093,-2.002644635224382,7.2274003886468305,0.0,23.8946808337106,21.860184553345185,397.7112725356442,398.5682330217854,0.0
0.089,5.17748531624007,-2.0080024955441313,5.9937573357669365,0.0,23.892085033831673,22.12861587313813,385.1623653929017,398.5682330217854,0.0
0.09,5.516243738354031,-1.9231875691586358,10.0,0.0,23.907208725414325,22.790013257793266,380.18857739671023,398.5682330217854,0.0
0.091,6.0642711806761245,-1.829311597084239,10.0,0.0,23.977481578639892,23.28982541206453,380.6871122216173,398.5682330217854,0.0
0.092,6.5713618849831335,-1.7595835176470929,10.0,0.0,24.083977032952703,23.696383933180687,366.7621506697376,398.5682330217854,0.0
0.093,7.075060169310165,-1.604141880344621,10.0,0.0,24.204077494636927,24.0226002433836,366.65886252131804,398.5682330217854,0.0
0.094,7.54203225799397,-1.423087913507206,10.0,0.0,24.32642802119395,24.2818750218227,351.6354193272781,398.5682330217854,0.0
0.095,7.991538697454305,-1.208713030417628,10.0,0.0,24.440700275467695,24.48268138761979,348.34769931522385,398.5682330217854,0.0
0.096,8.407628415945183,-1.0092831364433281,10.0,0.0,24.54383240138749,24.63355953762516,339.8997289903671,398.5682330217854,0.0
0.097,8.841987706951361,-0.7542503736216499,10.0,0.0,24.625679824745212,24.73604446039619,347.0318038044561,398.5682330217854,0.0
0.098,9.058282848551203,-0.8363464026467256,10.0,0.0,24.72117188886523,24.81701676055998,360.22709563944966,398.5682330217854,0.0
0.099,9.10425415106394,-1.132331339012993,10.0,0.0,24.84694935929965,24.896547145258978,373.76718519636177,398.5682330217854,0.0
0.1,9.1097525728376,-1.4231525488365313,10.0,0.0,24.997132604877486,24.98055712516155,384.547105344044,398.5682330217854,0.0
0.101,9.027075660960879,-1.792754895501837,10.0,0.0,25.178446569922734,25.080333876155834,398.320251473274,398.5682330217854,0.0
0.10200000000000001,8.934954283664764,-2.110860672439349,6.574437316058933,0.0,25.382902425559354,24.820759035705482,411.3728429754808,398.5682330217854,0.0
0.10300000000000001,8.590975160430657,-2.392987605476047,-0.07990453458141111,0.0,25.56880811645194,23.9467817779156,414.31630517170447,398.5682330217854,0.0
0.10400000000000001,7.8793621275037955,-2.4436869853987666,-1.7091163541924344,0.0,25.651481174937413,23.140960575732773,420.20206698772654,398.5682330217854,0.0
0.105,7.075465698273511,-2.431467445772126,-4.8683356018628805,0.0,25.643453664197885,22.17407927745519,421.79953104800967,398.5682330217854,0.0
0.106,6.184133372482774,-2.33542574377256,-5.899380612266688,0.0,25.52909838288088,21.311268190808388,420.8282388761463,398.5682330217854,0.0
0.107,5.35020727876658,-2.203897792051839,-5.636334584878621,0.0,25.326389863361605,20.64536674486216,418.32425631113813,398.5682330217854,0.0
0.108,4.669734521902258,-2.077049047949605,-4.581903535268055,0.0,25.0647239688656,20.205654289059822,414.7823907307287,398.5682330217854,0.0
0.109,4.18682316790265,-1.9755041813004885,-2.9731123221527778,0.0,24.77535197034858,19.996484733705998,410.11754188125747,398.5682330217854,0.0
0.11,3.9095036288916205,-1.9135500663109448,-0.7561809860118789,0.0,24.48820071216551,20.03274550463143,404.86843418618196,398.5682330217854,0.0
0.111,3.8484679431366713,-1.8869227829582806,1.8053708498819105,0.0,24.231081196874406,20.30020719127584,399.72252583251304,398.5682330217854,0.0
0.112,3.9877800076817667,-1.9002550481729663,4.366782098609091,0.0,24.028152623784,20.755415792770254,394.6059003322312,398.5682330217854,0.0
0.113,4.304023013350548,-1.9291784030844041,6.9647181756455465,0.0,23.894086014540182,21.37157592281481,394.7599376608305,398.5682330217854,0.0
0.114,4.7680619230623345,-1.9663367907997613,6.925782464955467,0.0,23.838840268324773,21.834569239972637,395.5063606196444,398.5682330217854,0.0
0.115,5.193895649189146,-1.9765850494393022,6.583189709569915,0.0,23.836174153019886,22.1662414840308,381.9259847556171,398.5682330217854,0.0
0.116,5.57875268747852,-1.887076536853775,10.0,0.0,23.8569934546805,22.805679014703266,380.0614601489021,398.5682330217854,0.0
0.117,6.128629675995627,-1.7969102990105985,10.0,0.0,23.9306513782054,23.292448721216253,377.4574242319047,398.5682330217854,0.0
0.11800000000000001,6.6313722502992185,-1.7293979095669747,10.0,0.0,24.039095779568747,23.68810433614221,364.37984099618296,398.5682330217854,0.0
0.11900000000000001,7.143286980941076,-1.5541566426842714,10.0,0.0,24.157659886825694,24.00375563508433,362.9943175153518,398.5682330217854,0.0
0.12,7.596591712379235,-1.3897757175073489,10.0,0.0,24.27960322415052,24.25495384170617,350.82961210225085,398.5682330217854,0.0
0.121,8.055076209527378,-1.1576232801565443,10.0,0.0,24.390579089548233,24.44732631402638,342.68152143362886,398.5682330217854,0.0
0.122,8.462774318029702,-0.9691331754975328,10.0,0.0,24.49128222849921,24.59129717869057,340.0333125512329,398.5682330217854,0.0
0.123,8.891513061302225,-0.7221144839579097,10.0,0.0,24.57102498499874,24.687856990108482,347.5304735425855,398.5682330217854,0.0
0.124,9.052402284993374,-0.8856735863187581,10.0,0.0,24.6729111351652,24.769324668861262,364.11861156591925,398.5682330217854,0.0
0.125,9.090554573832108,-1.1831562941111082,10.0,0.0,24.80384294502384,24.850246335220056,372.6494354356102,398.5682330217854,0.0
0.126,9.082800221838522,-1.4838275577083477,10.0,0.0,24.959872752450266,24.937403517536517,388.30146073411424,398.5682330217854,0.0
0.127,8.994135133195748,-1.8521906136373731,10.0,0.0,25.146528520881915,25.04112357859474,398.2293913436813,398.5682330217854,0.0
0.128,8.893139270616608,-2.1748073824451972,6.216309233723522,0.0,25.356694932585796,24.74715412009717,413.1261998178564,398.5682330217854,0.0
0.129,8.53047032803739,-2.4367107718936833,-1.3776746713247325,0.0,25.542030962420796,23.744980551785137,414.5297254688171,398.5682330217854,0.0
0.13,7.745611710368044,-2.4490574473450715,-2.2390524212754084,0.0,25.607355132846248,22.925453988361546,419.5586173917156,398.5682330217854,0.0
0.131,6.9149849025191354,-2.4124940721255723,-4.96340222642395,0.0,25.580048791858136,21.98686815994271,420.9826741364321,398.5682330217854,0.0
0.132,6.033371458738973,-2.3113874810942727,-5.899575009928665,0.0,25.450858410865717,21.152345982870248,419.68844834101736,398.5682330217854,0.0
0.133,5.2227912380979085,-2.1801253990975145,-5.463664265413627,0.0,25.237707087155954,20.526016584970197,417.02918040812375,398.5682330217854,0.0
0.134,4.576112735581528,-2.0568680041586633,-4.3186397728302035,0.0,24.97099226340385,20.1256274142986,413.33580355776473,398.5682330217854,0.0
0.135,4.128020311942508,-1.9625635224567008,-2.6196270530104897,0.0,24.68176908592197,19.95687021414841,408.4964391907708,398.5682330217854,0.0
0.136,3.886318845571645,-1.9075054670766725,-0.2992269312033695,0.0,24.39947916489849,20.036426539530048,403.42667941546114,398.5682330217854,0.0
0.137,3.8606650462232586,-1.8893788449949134,2.1870684925146975,0.0,24.151930520640313,20.330491638926695,398.17484137125314,398.5682330217854,0.0
0.138,4.026536026210735,-1.9067769520335194,4.81692143112402,0.0,23.960638308742695,20.816313887175596,393.5597796657971,398.5682330217854,0.0
0.139,4.369555729611093,-1.9357892582700755,7.1745368174119095,0.0,23.840074915475356,21.43139039494127,394.7223531677822,398.5682330217854,0.0
0.14,4.84017160745234,-1.9719512871590015,6.6317088649593945,0.0,23.796763212426743,21.841278134442447,392.76110385477324,398.5682330217854,0.0
0.14100000000000001,5.23964117702566,-1.9719998853696221,7.670404813134004,0.0,23.798415179147376,22.286295269637726,379.6140237656551,398.5682330217854,0.0
0.14200000000000002,5.6787230004212415,-1.8915340069392643,10.0,0.0,23.835551930106035,22.88854009418127,380.4252920210836,398.5682330217854,0.0
0.14300000000000002,6.222875018607016,-1.802756703882276,10.0,0.0,23.92023864387122,23.355512255731192,374.4939729455175,398.5682330217854,0.0
0.14400000000000002,6.716769353596968,-1.7252432035049872,10.0,0.0,24.035515190403945,23.735369015835595,364.31775075525144,398.5682330217854,0.0
0.145,7.225434086665793,-1.5312346296941786,10.0,0.0,24.15668395017841,24.037753577295163,360.572172090366,398.5682330217854,0.0
0.146,7.66272033184512,-1.373998349681972,10.0,0.0,24.280618385058162,24.279001718947185,351.2156835223321,398.5682330217854,0.0
