timestamp,iq,id,iq_ref,id_ref,vq,vd,omega,omega_ref,r
0.0,0.0,0.0,0.0,0.0,0.0,0.0,0.0,225.01081124415424,0.0
0.001,0.0,0.0,10.0,0.0,0.0,1.0999999999999999,6.115472199294103,225.01081124415424,0.0
0.002,0.5307369851907212,-0.2913212625381807,10.0,0.0,0.14204533887919985,1.9316189316290207,13.317801563642547,225.01081124415424,0.0
0.003,1.0842913387634832,-0.6024330830807904,10.0,0.0,0.384357124667687,2.6386968949419622,20.697939467553027,225.01081124415424,0.0
0.004,1.5590443546685477,-0.8700465084428163,10.0,0.0,0.6994718867930164,3.2526109522886295,28.232747544420146,225.01081124415424,0.0
0.005,1.9399447555359186,-1.0838738622210777,10.0,0.0,1.065311453102468,3.7994935661768023,35.92944872443006,225.01081124415424,0.0
0.006,2.239750732602683,-1.2510087368845633,10.0,0.0,1.4655018868449925,4.299102221838433,43.75633668444442,225.01081124415424,0.0
0.007,2.4770151619816017,-1.382020589851471,10.0,0.0,1.8883740978591532,4.765668027847139,51.58766747378032,225.01081124415424,0.0
0.008,2.6680767290418097,-1.4872241871505252,10.0,0.0,2.325877945545995,5.209220346273558,59.45942083902103,225.01081124415424,0.0
0.009000000000000001,2.8266491704841292,-1.5730794701170803,10.0,0.0,2.772378685460125,5.636635464737965,67.35059094018146,225.01081124415424,0.0
0.01,2.962077666392183,-1.645500646948331,10.0,0.0,3.224078639851053,6.052647735211881,75.20908322432116,225.01081124415424,0.0
0.011,3.0811061533574158,-1.7084279320504514,10.0,0.0,3.678407615443203,6.460489925470405,83.0265951655913,225.01081124415424,0.0
0.012,3.188848746459569,-1.7638278597420747,10.0,0.0,4.133552631697047,6.862319393890706,90.74118064793086,225.01081124415424,0.0
0.013000000000000001,3.288205119878689,-1.8140726097274587,10.0,0.0,4.588339016389012,7.259628641949282,98.35820682563939,225.01081124415424,0.0
0.014,3.3820602099432007,-1.8592355758795645,10.0,0.0,5.041843166194517,7.653355107498287,105.90865295623543,225.01081124415424,0.0
0.015,3.4721069852858886,-1.899829032412081,10.0,0.0,5.493383198131427,8.044092747085895,113.37727610343421,225.01081124415424,0.0
0.016,3.5596145800153947,-1.9360338400176071,10.0,0.0,5.94241958510469,8.43218525824161,120.68508583176356,225.01081124415424,0.0
0.017,3.645144415105338,-1.9685384477868613,10.0,0.0,6.388575043274759,8.817838951066484,127.83962377537456,225.01081124415424,0.0
0.018000000000000002,3.730251927866576,-1.9959253041084188,10.0,0.0,6.83136783302799,9.201036292373047,134.85405702603322,225.01081124415424,0.0
0.019,3.81544967906247,-2.018253592643655,10.0,0.0,7.270383321112213,9.581672501020332,141.68976328564074,225.01081124415424,0.0
0.02,3.9014648862453374,-2.0350875541282063,10.0,0.0,7.705189334130692,9.959536942333155,148.3432823300447,225.01081124415424,0.0
0.021,3.9891051824829464,-2.0457889559126508,10.0,0.0,8.135310004560049,10.334315260302239,154.92060212100432,225.01081124415424,0.0
0.022,4.079618141396171,-2.0489696811670974,10.0,0.0,8.560139305503519,10.705547790999272,161.01925282597162,225.01081124415424,0.0
0.023,4.171109372430197,-2.048468292080302,10.0,0.0,8.979521969370257,11.072981092896333,166.534238406907,225.01081124415424,0.0
0.024,4.266936196769627,-2.039517194249811,10.0,0.0,9.392730090169543,11.435983292623375,171.8647834235234,225.01081124415424,0.0
0.025,4.367255527950721,-2.0225841458509217,10.0,0.0,9.79914449451603,11.793929226271104,177.02637022703064,225.01081124415424,0.0
0.026000000000000002,4.4734353073349595,-1.9962166741499119,10.0,0.0,10.197980960389518,12.146045424568259,181.63161391243256,225.01081124415424,0.0
0.027,4.582366840795821,-1.966358349113627,10.0,0.0,10.589124658468391,12.491912978736195,185.74793639675826,225.01081124415424,0.0
0.028,4.700058850757774,-1.9240450691803936,10.0,0.0,10.971384864613876,12.830451341534015,189.43662766964098,225.01081124415424,0.0
0.029,4.820934284790598,-1.879137197786803,10.0,0.0,11.344756153370636,13.161242511022618,192.73598774770625,225.01081124415424,0.0
0.03,4.952016225740939,-1.821000614527957,10.0,0.0,11.707923484756042,13.483081433273819,195.59831968863915,225.01081124415424,0.0
0.031,5.086039273572549,-1.7621311371320891,10.0,0.0,12.061063698547066,13.79562148058647,197.80891551030922,225.01081124415424,0.0
0.032,5.230431844273564,-1.6911110488141978,10.0,0.0,12.40292038074925,14.097678592248165,200.4421589734679,225.01081124415424,0.0
0.033,5.380124186618445,-1.6166151787533525,10.0,0.0,12.733312761073865,14.38869342901298,201.91742172589852,225.01081124415424,0.0
0.034,5.537594793894332,-1.535029134414507,10.0,0.0,13.051537880865839,14.667821176756876,203.18880493813168,225.01081124415424,0.0
0.035,5.698947813469154,-1.4530296333491768,10.0,0.0,13.357649178779205,14.934684535625108,203.60405746232266,225.01081124415424,0.0
0.036000000000000004,5.870474243492053,-1.3603000477825025,10.0,0.0,13.65045542338638,15.188218311291084,204.28541056101804,225.01081124415424,0.0
0.037,6.041188711220851,-1.275010780747051,10.0,0.0,13.930879897581198,15.42861600670124,205.2233356988433,225.01081124415424,0.0
0.038,6.228175208801664,-1.168399557236846,10.0,0.0,14.196427351981786,15.654155009933262,200.35169734043586,225.01081124415424,0.0
0.039,6.404895489618571,-1.0845312562500289,10.0,0.0,14.449814560392067,15.86612549236809,209.64773540576442,225.01081124415424,0.0
0.04,6.534612624563911,-1.0851225869390002,10.0,0.0,14.699963825590459,16.069735965364643,218.170241886545,225.01081124415424,0.0
0.041,6.621487035821765,-1.1484636683301073,8.58301418056046,0.0,14.952420817214799,16.11387286355411,219.2434671895528,225.01081124415424,0.0
0.042,6.596301652756006,-1.2237787850593804,8.104074969602573,0.0,15.191697051521963,16.143967452325924,230.23772565187136,225.01081124415424,0.0
0.043000000000000003,6.525172588482874,-1.3011634740325744,2.554676594366123,0.0,15.417814285895348,15.59690811972422,228.6436507562126,225.01081124415424,0.0
0.044,6.164474031028137,-1.2245520265514163,3.3153856470749217,0.0,15.55741275745856,15.30530397404764,235.76995971051625,225.01081124415424,0.0
0.045,5.817393587161041,-1.2095908141091898,-0.3553603147405253,0.0,15.653011348403966,14.680002807019095,233.38046109732304,225.01081124415424,0.0
0.046,5.344284063295293,-1.0991433402797846,0.7556924933243927,0.0,15.66452035355516,14.3342861274798,237.57742642025391,225.01081124415424,0.0
0.047,4.957804883404818,-1.0728957572471962,-1.4684563199020442,0.0,15.638524030842023,13.806306733423288,236.09360333750104,225.01081124415424,0.0
0.048,4.536777355626615,-1.007513718487659,-0.8373726994590731,0.0,15.555399852561319,13.462634569138807,237.5435530967065,225.01081124415424,0.0
0.049,4.196201344243405,-0.9946236754207951,-1.6876749975873224,0.0,15.445456791330471,13.078426200430531,237.40468652534375,225.01081124415424,0.0
0.05,3.8749463379791766,-0.9822022446379777,-1.7421804647178467,0.0,15.30684974239645,12.75608407464216,237.42380791161952,225.01081124415424,0.0
0.051000000000000004,3.5960653105525457,-0.9859091017138966,-1.8758711245303852,0.0,15.150401154363172,12.465418901585437,237.03206482990151,225.01081124415424,0.0
0.052000000000000005,3.352680087419805,-0.9988859702252268,-1.8002121195288554,0.0,14.981921294793036,12.221818348449688,236.44430906307474,225.01081124415424,0.0
0.053,3.1487072682287582,-1.021307141825873,-1.620669214304673,0.0,14.808265926057292,12.024726152074832,235.75405486141898,225.01081124415424,0.0
0.054,2.9837946312422443,-1.0521500753484352,-1.38297454964944,0.0,14.635435385529115,11.870429284400327,234.99568821853953,225.01081124415424,0.0
0.055,2.854812939056788,-1.0891532619496207,-1.1036399979535672,0.0,14.46822013347721,11.755167763250986,234.21684140973198,225.01081124415424,0.0
0.056,2.757957219929666,-1.1297119728983258,-0.8062768952055728,0.0,14.310291680853908,11.673991776978834,233.51636359541817,225.01081124415424,0.0
0.057,2.689106546781503,-1.170610705037449,-0.5410935115613054,0.0,14.164131748291533,11.617942102099985,232.97388795839512,225.01081124415424,0.0
0.058,2.6421623303634916,-1.208041531558041,-0.34948646019219165,0.0,14.030691245093388,11.575781700341441,232.0771245409031,225.01081124415424,0.0
0.059000000000000004,2.6074637076627423,-1.2414973490368688,0.02823211558633254,0.0,13.909684583696666,11.567473667593784,230.97006480256024,225.01081124415424,0.0
0.06,2.5936287103055666,-1.272466968180464,0.5221694491736999,0.0,13.803019885095868,11.599626556400338,229.8519389162737,225.01081124415424,0.0
0.061,2.6055892299643277,-1.304985882259161,1.0328211155957798,0.0,13.713504329593011,11.667675989300665,228.46715775630906,225.01081124415424,0.0
0.062,2.644987244342366,-1.334704948638021,1.6906482304565476,0.0,13.642689181091365,11.783009212946142,227.6681903821176,225.01081124415424,0.0
0.063,2.7169404162029136,-1.3639536339030838,2.063558126172653,0.0,13.593409034519805,11.906648547996197,227.78002306930966,225.01081124415424,0.0
0.064,2.8033640525408363,-1.3847878994637428,1.9799496643250603,0.0,13.563420118469425,11.991282836845127,229.62860678361804,225.01081124415424,0.0
0.065,2.8691722639688413,-1.3945625328439561,1.0094798517762342,0.0,13.545760389925192,11.952164543548527,226.40876542903234,225.01081124415424,0.0
0.066,2.868139971872027,-1.3650995419023104,2.6054209872203016,0.0,13.522616129568341,12.101221963996426,222.53269830031581,225.01081124415424,0.0
0.067,2.950133072618451,-1.346126139457206,4.56823568101695,0.0,13.514899592932416,12.423979857323971,225.22406217132183,225.01081124415424,0.0
0.068,3.1450572908499246,-1.368348899028768,3.220421236242265,0.0,13.542864736870163,12.525180838793986,227.4285711287216,225.01081124415424,0.0
0.069,3.2562761653277543,-1.3642906946427187,2.093989158696715,0.0,13.57748483448296,12.498344018418269,221.2388954688099,225.01081124415424,0.0
0.07,3.2879076573382817,-1.3007274106328712,5.226546146406008,0.0,13.599007861099679,12.831131203888493,220.76800847176335,225.01081124415424,0.0
0.07100000000000001,3.484587684131248,-1.280664031910078,5.504417672653185,0.0,13.650085964782336,13.110713783456353,224.23758440311218,225.01081124415424,0.0
0.07200000000000001,3.6889365130129943,-1.295021483966279,3.777361975389191,0.0,13.725794469566932,13.154179502565112,218.62392829789516,225.01081124415424,0.0
0.073,3.790547256958885,-1.2440906876560454,6.64805885746029,0.0,13.792532733669255,13.524783020696685,220.21315985539286,225.01081124415424,0.0
0.074,4.034508423317894,-1.222744849291519,5.901419592599055,0.0,13.887818788917503,13.728343104609857,220.90171896493877,225.01081124415424,0.0
0.075,4.217924124520313,-1.2139588112770217,5.598230960618257,0.0,13.993179241234298,13.877455313318588,214.64024341578164,225.01081124415424,0.0
0.076,4.389255026916853,-1.1394826731011833,8.832674413480547,0.0,14.094810354371083,14.36400077027118,220.69398818386708,225.01081124415424,0.0
0.077,4.699085020742511,-1.162944368289405,5.8489702600407,0.0,14.238258449741918,14.419134911138334,213.62066120089935,225.01081124415424,0.0
0.078,4.8609290199632875,-1.0868537528602862,9.499535251957113,0.0,14.364270565013292,14.89979509812503,218.85497737774037,225.01081124415424,0.0
0.079,5.176058755568925,-1.0915083412748587,6.943935502200741,0.0,14.527020398336099,14.99432302462342,212.64183124750502,225.01081124415424,0.0
0.08,5.368058921299052,-1.0075335816412756,10.0,0.0,14.673664271532623,15.439427513185478,215.87116875375585,225.01081124415424,0.0
0.081,5.675235190913935,-1.00939762790221,8.647442071717776,0.0,14.851198998950736,15.643474535121602,214.87700915782847,225.01081124415424,0.0
0.082,5.935208604487501,-0.929866005780496,9.245859890544727,0.0,15.022617836924658,15.898696554162772,209.2135605686981,225.01081124415424,0.0
0.083,6.176434042389591,-0.8895053136501571,10.0,0.0,15.198772633092183,16.198574424915538,217.55970810938473,225.01081124415424,0.0
0.084,6.425641225449103,-0.8939988335508937,8.092282819031563,0.0,15.388197630828612,16.243689161451165,221.27384167263742,225.01081124415424,0.0
0.085,6.489541407536489,-0.9498995687420929,6.272585733120388,0.0,15.569295748116993,16.117608468267317,224.69809074437313,225.01081124415424,0.0
0.08600000000000001,6.381180107577718,-1.020213554958483,4.563588402250341,0.0,15.726851515490035,15.865011665410433,232.39507588131704,225.01081124415424,0.0
0.08700000000000001,6.181732887962009,-1.016072877863489,0.6412531874067584,0.0,15.842233411497473,15.259918800410592,229.91143593907046,225.01081124415424,0.0
0.088,5.755167424095329,-0.9544754454397752,1.834066911580888,0.0,15.878833520608529,14.942234002148242,234.3890781329971,225.01081124415424,0.0
0.089,5.411105517890319,-0.9396541599449924,-0.4985368542708617,0.0,15.878990771902053,14.425044298181684,233.89014974253723,225.01081124415424,0.0
0.09,5.012272893882804,-0.8846100526842481,-0.33786604402475806,0.0,15.821506688725835,14.041020086105501,235.7694284367548,225.01081124415424,0.0
0.091,4.6568660564408235,-0.8770132529218508,-1.3850915630595444,0.0,15.73108338575836,13.607954797601572,235.64467345246084,225.01081124415424,0.0
0.092,4.308700551726935,-0.8592497332402401,-1.4290526929956315,0.0,15.604517865069887,13.249534375692768,236.21169201971475,225.01081124415424,0.0
0.093,4.001687031872035,-0.8657500398766157,-1.8245707843781922,0.0,15.455659523186203,12.901521897290182,236.0834324856553,225.01081124415424,0.0
0.094,3.720930073777548,-0.8780105279298334,-1.871167229763476,0.0,15.288169418270115,12.600067534652775,235.7952739475836,225.01081124415424,0.0
0.095,3.4759047099201763,-0.9010640670438511,-1.8349325877619278,0.0,15.109696172003904,12.340606593304885,235.31340488155595,225.01081124415424,0.0
0.096,3.2667331401385007,-0.9334365934856679,-1.697023991122117,0.0,14.92645459874699,12.124610639712941,234.7406666270949,225.01081124415424,0.0
0.097,3.0936697801118522,-0.9725720998635959,-1.5079534177209943,0.0,14.743918767893724,11.94825405516734,234.13254229369673,225.01081124415424,0.0
0.098,2.9529407542472237,-1.0173526229383074,-1.2951085615173366,0.0,14.566535364145665,11.806551333684205,233.43476965531374,225.01081124415424,0.0
0.099,2.840475658258743,-1.0645242556809364,-1.0304618264374383,0.0,14.397461102995038,11.69922710657142,232.71339911611474,225.01081124415424,0.0
0.1,2.7541527845811715,-1.1124290357131743,-0.7468024355575431,0.0,14.23935965472431,11.62265480684548,232.05698024043951,225.01081124415424,0.0
0.101,2.6913413276238813,-1.1587616470728377,-0.4890546876827817,0.0,14.09402866075731,11.569491282151018,231.54515029344302,225.01081124415424,0.0
0.10200000000000001,2.6475313661296247,-1.2004217797122556,-0.2984831046774197,0.0,13.962033702194303,11.52968738837594,230.82346773588154,225.01081124415424,0.0
0.10300000000000001,2.614732095481812,-1.2367877479781386,0.004231609186046814,0.0,13.84284150529294,11.515227110973314,229.7928871671081,225.01081124415424,0.0
0.10400000000000001,2.59777816744531,-1.2684015713619157,0.47170113434323024,0.0,13.737236361231009,11.540225081627003,228.78635074040744,225.01081124415424,0.0
0.105,2.604210728274931,-1.3009554404980412,0.9372139527310228,0.0,13.647956316011772,11.597817334608592,227.463216590353,225.01081124415424,0.0
0.106,2.6356186683480134,-1.3300198581416824,1.5742569742962567,0.0,13.57623504786206,11.702751414158655,226.59381700723839,225.01081124415424,0.0
0.107,2.6988583487729745,-1.3587092089786854,1.9931267082227224,0.0,13.525044498897953,11.823082914008987,226.37076531138626,225.01081124415424,0.0
0.108,2.7798852600656874,-1.3809494098619297,2.0910530154764624,0.0,13.493165683404088,11.924564841998572,228.28002872521682,225.01081124415424,0.0
0.109,2.8549778515092905,-1.3911324247427677,1.1037291337505573,0.0,13.475520671886617,11.895675889631555,226.38926801718708,225.01081124415424,0.0
0.11,2.8573481014384257,-1.3719601411881603,2.0353249200351016,0.0,13.454540484944381,11.980750305080283,222.21478020771477,225.01081124415424,0.0
0.111,2.905953562693385,-1.3457722576170503,4.150529135135652,0.0,13.441476813883966,12.273252867849376,222.89066679234634,225.01081124415424,0.0
0.112,3.078661945588457,-1.3533083983917917,3.833787287337946,0.0,13.460060620527432,12.460693294320855,226.29109045195042,225.01081124415424,0.0
0.113,3.227258939239852,-1.3628965940150257,2.120772665457941,0.0,13.496509429264512,12.431365283408011,221.8171758806597,225.01081124415424,0.0
0.114,3.2606651346049422,-1.318750485044602,4.389666304738246,0.0,13.521428602093616,12.67313468944614,218.06127717660806,225.01081124415424,0.0
0.115,3.413328121516659,-1.282102798431048,6.337110997439531,0.0,13.56444301380584,13.068290185361072,223.00090741467653,225.01081124415424,0.0
0.116,3.662986483263119,-1.311893123633998,3.8873949167000705,0.0,13.64631494657679,13.113352567124384,219.74947629952436,225.01081124415424,0.0
0.117,3.771020413984248,-1.2787257667069487,5.565723823722456,0.0,13.720559611732975,13.361822095806458,217.29620119018568,225.01081124415424,0.0
0.11800000000000001,3.960049940811536,-1.2255638537815885,6.86950747893148,0.0,13.806710626389231,13.699789142494922,220.9513806408695,225.01081124415424,0.0
0.11900000000000001,4.1917495228717225,-1.2343249613319565,5.082512059622418,0.0,13.919538585208498,13.77937059454573,215.1736727476032,225.01081124415424,0.0
0.12,4.330965735119919,-1.1691119292115897,8.069737391221077,0.0,14.021780848742171,14.195744650415623,219.75524363232628,225.01081124415424,0.0
0.121,4.607234005609172,-1.1568652551360148,5.831507624977816,0.0,14.154741287682365,14.275630651817815,213.3830271180507,225.01081124415424,0.0
0.122,4.758090764774483,-1.0946003269077942,9.13389372337664,0.0,14.27566760750441,14.732637304656825,218.30659113911662,225.01081124415424,0.0
0.123,5.066129270129284,-1.0854566396381826,6.739153913894061,0.0,14.429818804310772,14.827215016169687,211.55956972825257,225.01081124415424,0.0
0.124,5.247568448174127,-1.011818907073263,10.0,0.0,14.57000393887834,15.293512619246991,216.12146636971497,225.01081124415424,0.0
0.125,5.5666332966466285,-1.014306343641436,8.050178621808595,0.0,14.743810315645028,15.446827421459684,212.243131957884,225.01081124415424,0.0
0.126,5.802544302959231,-0.9280020984445454,10.0,0.0,14.90604919361898,15.813410384301083,210.990660808092,225.01081124415424,0.0
0.127,6.08624675966967,-0.918645209474215,10.0,0.0,15.08855626474491,16.1112125646988,216.18010024669056,225.01081124415424,0.0
0.128,6.379455950011092,-0.8765382982447658,8.35708425315839,0.0,15.278054655452479,16.187348515646306,218.0554767489594,225.01081124415424,0.0
0.129,6.470970816639044,-0.9309155855439195,7.4889493469759225,0.0,15.462619372899242,16.18862048493251,224.25541884644883,225.01081124415424,0.0
0.13,6.438255974957857,-1.024791906770265,4.396532222208256,0.0,15.63863743799186,15.88125097562336,229.42953000387496,225.01081124415424,0.0
0.131,6.240965296091652,-1.004195881049753,1.7652894558979861,0.0,15.763112419602777,15.3850825169664,228.6664412997891,225.01081124415424,0.0
0.132,5.86336143769204,-0.9682881884701664,2.11027750738456,0.0,15.821779171260367,15.054803033298155,231.23485546385803,225.01081124415424,0.0
0.133,5.535329441664265,-0.9410863816067463,0.7638299831530664,0.0,15.838918177556184,14.64416654596122,234.4379681179285,225.01081124415424,0.0
0.134,5.1779049524597065,-0.9289128773455173,-0.9319979126199165,0.0,15.812212567088618,14.139267388547069,234.15328724454284,225.01081124415424,0.0
0.135,4.784704876991892,-0.8804933480369719,-0.8810822359309687,0.0,15.732483188745082,13.744424352630503,235.51004597093547,225.01081124415424,0.0
0.136,4.431369805994327,-0.870949050791646,-1.6644539463950943,0.0,15.620676767240331,13.329347494608351,235.38675756583447,225.01081124415424,0.0
0.137,4.095695651982618,-0.8588760544194449,-1.7065692070613996,0.0,15.477310715455355,12.9811895249006,235.59605102452687,225.01081124415424,0.0
0.138,3.8024343554806785,-0.8672932325685623,-1.9170683342113262,0.0,15.314512091438228,12.659678996680395,235.2784806561145,225.01081124415424,0.0
0.139,3.5424440844089573,-0.8851036439166661,-1.8609598441247481,0.0,15.137717250467599,12.387982900914393,234.8328584099165,225.01081124415424,0.0
