timestamp,iq,id,iq_ref,id_ref,vq,vd,omega,omega_ref,r
0.0,0.0,0.0,0.0,0.0,0.0,0.0,0.0,357.23053679968876,0.0
0.001,0.0,0.0,10.0,0.0,0.0,1.0999999999999999,6.115472199294103,357.23053679968876,0.0
0.002,0.5307369851907212,-0.2913212625381807,10.0,0.0,0.14204533887919985,1.9316189316290207,13.317801563642547,357.23053679968876,0.0
0.003,1.0842913387634832,-0.6024330830807904,10.0,0.0,0.384357124667687,2.6386968949419622,20.697939467553027,357.23053679968876,0.0
0.004,1.5590443546685477,-0.8700465084428163,10.0,0.0,0.6994718867930164,3.2526109522886295,28.232747544420146,357.23053679968876,0.0
0.005,1.9399447555359186,-1.0838738622210777,10.0,0.0,1.065311453102468,3.7994935661768023,35.92944872443006,357.23053679968876,0.0
0.006,2.239750732602683,-1.2510087368845633,10.0,0.0,1.4655018868449925,4.299102221838433,43.75633668444442,357.23053679968876,0.0
0.007,2.4770151619816017,-1.382020589851471,10.0,0.0,1.8883740978591532,4.765668027847139,51.58766747378032,357.23053679968876,0.0
0.008,2.6680767290418097,-1.4872241871505252,10.0,0.0,2.325877945545995,5.209220346273558,59.45942083902103,357.23053679968876,0.0
0.009000000000000001,2.8266491704841292,-1.5730794701170803,10.0,0.0,2.772378685460125,5.636635464737965,67.35059094018146,357.23053679968876,0.0
0.01,2.962077666392183,-1.645500646948331,10.0,0.0,3.224078639851053,6.052647735211881,75.20908322432116,357.23053679968876,0.0
0.011,3.0811061533574158,-1.7084279320504514,10.0,0.0,3.678407615443203,6.460489925470405,83.0265951655913,357.23053679968876,0.0
0.012,3.188848746459569,-1.7638278597420747,10.0,0.0,4.133552631697047,6.862319393890706,90.74118064793086,357.23053679968876,0.0
0.013000000000000001,3.288205119878689,-1.8140726097274587,10.0,0.0,4.588339016389012,7.259628641949282,98.35820682563939,357.23053679968876,0.0
0.014,3.3820602099432007,-1.8592355758795645,10.0,0.0,5.041843166194517,7.653355107498287,105.90865295623543,357.23053679968876,0.0
0.015,3.4721069852858886,-1.899829032412081,10.0,0.0,5.493383198131427,8.044092747085895,113.37727610343421,357.23053679968876,0.0
0.016,3.5596145800153947,-1.9360338400176071,10.0,0.0,5.94241958510469,8.43218525824161,120.68508583176356,357.23053679968876,0.0
0.017,3.645144415105338,-1.9685384477868613,10.0,0.0,6.388575043274759,8.817838951066484,127.83962377537456,357.23053679968876,0.0
0.018000000000000002,3.730251927866576,-1.9959253041084188,10.0,0.0,6.83136783302799,9.201036292373047,134.85405702603322,357.23053679968876,0.0
0.019,3.81544967906247,-2.018253592643655,10.0,0.0,7.270383321112213,9.581672501020332,141.68976328564074,357.23053679968876,0.0
0.02,3.9014648862453374,-2.0350875541282063,10.0,0.0,7.705189334130692,9.959536942333155,148.3432823300447,357.23053679968876,0.0
0.021,3.9891051824829464,-2.0457889559126508,10.0,0.0,8.135310004560049,10.334315260302239,154.92060212100432,357.23053679968876,0.0
0.022,4.079618141396171,-2.0489696811670974,10.0,0.0,8.560139305503519,10.705547790999272,161.01925282597162,357.23053679968876,0.0
0.023,4.171109372430197,-2.048468292080302,10.0,0.0,8.979521969370257,11.072981092896333,166.534238406907,357.23053679968876,0.0
0.024,4.266936196769627,-2.039517194249811,10.0,0.0,9.392730090169543,11.435983292623375,171.8647834235234,357.23053679968876,0.0
0.025,4.367255527950721,-2.0225841458509217,10.0,0.0,9.79914449451603,11.793929226271104,177.02637022703064,357.23053679968876,0.0
0.026000000000000002,4.4734353073349595,-1.9962166741499119,10.0,0.0,10.197980960389518,12.146045424568259,181.63161391243256,357.23053679968876,0.0
0.027,4.582366840795821,-1.966358349113627,10.0,0.0,10.589124658468391,12.491912978736195,185.74793639675826,357.23053679968876,0.0
0.028,4.700058850757774,-1.9240450691803936,10.0,0.0,10.971384864613876,12.830451341534015,189.43662766964098,357.23053679968876,0.0
0.029,4.820934284790598,-1.879137197786803,10.0,0.0,11.344756153370636,13.161242511022618,192.73598774770625,357.23053679968876,0.0
0.03,4.952016225740939,-1.821000614527957,10.0,0.0,11.707923484756042,13.483081433273819,195.59831968863915,357.23053679968876,0.0
0.031,5.086039273572549,-1.7621311371320891,10.0,0.0,12.061063698547066,13.79562148058647,197.80891551030922,357.23053679968876,0.0
0.032,5.230431844273564,-1.6911110488141978,10.0,0.0,12.40292038074925,14.097678592248165,200.4421589734679,357.23053679968876,0.0
0.033,5.380124186618445,-1.6166151787533525,10.0,0.0,12.733312761073865,14.38869342901298,201.91742172589852,357.23053679968876,0.0
0.034,5.537594793894332,-1.535029134414507,10.0,0.0,13.051537880865839,14.667821176756876,203.18880493813168,357.23053679968876,0.0
0.035,5.698947813469154,-1.4530296333491768,10.0,0.0,13.357649178779205,14.934684535625108,203.60405746232266,357.23053679968876,0.0
0.036000000000000004,5.870474243492053,-1.3603000477825025,10.0,0.0,13.65045542338638,15.188218311291084,204.28541056101804,357.23053679968876,0.0
0.037,6.041188711220851,-1.275010780747051,10.0,0.0,13.930879897581198,15.42861600670124,205.2233356988433,357.23053679968876,0.0
0.038,6.228175208801664,-1.168399557236846,10.0,0.0,14.196427351981786,15.654155009933262,200.35169734043586,357.23053679968876,0.0
0.039,6.404895489618571,-1.0845312562500289,10.0,0.0,14.449814560392067,15.86612549236809,209.64773540576442,357.23053679968876,0.0
0.04,6.534612624563911,-1.0851225869390002,10.0,0.0,14.699963825590459,16.069735965364643,218.170241886545,357.23053679968876,0.0
0.041,6.621487035821765,-1.1484636683301073,10.0,0.0,14.952420817214799,16.26974130369247,220.68166573712315,357.23053679968876,0.0
0.042,6.6704785161669795,-1.2647840534085386,10.0,0.0,15.211794475054209,16.47047148862455,233.10654395573727,357.23053679968876,0.0
0.043000000000000003,6.709376245503157,-1.3867642159960276,10.0,0.0,15.477558399636717,16.673277185423842,235.10815372853793,357.23053679968876,0.0
0.044,6.744196093263161,-1.5028656568708394,10.0,0.0,15.74857785831126,16.87893749904121,248.8181267625822,357.23053679968876,0.0
0.045,6.750563942850831,-1.6564343609015326,10.0,0.0,16.02879294551472,17.090781462187255,251.61117095327992,357.23053679968876,0.0
0.046,6.764566527560506,-1.7840489455190416,10.0,0.0,16.314672837580048,17.307985931916857,266.60539535969383,357.23053679968876,0.0
0.047,6.752169677737121,-1.9446655565152717,10.0,0.0,16.610076868775216,17.533561623207692,270.0627790167984,357.23053679968876,0.0
0.048,6.7291903821171735,-2.110358990489937,10.0,0.0,16.91511817760721,17.768523902508925,283.13731951482634,357.23053679968876,0.0
0.049,6.714097190323873,-2.246352557911731,10.0,0.0,17.22645394156277,18.011924542904307,294.70561782835244,357.23053679968876,0.0
0.05,6.666841209228205,-2.4219663531358275,10.0,0.0,17.548953774962747,18.267165921658286,300.1294548425776,357.23053679968876,0.0
0.051000000000000004,6.612335516543512,-2.59336894353628,10.0,0.0,17.88182590988993,18.53465621226123,310.75154600411304,357.23053679968876,0.0
0.052000000000000005,6.568447424188529,-2.726701034625408,10.0,0.0,18.22111236450049,18.81296732052879,322.35703405819294,357.23053679968876,0.0
0.053,6.5036136539679195,-2.8764091099274185,10.0,0.0,18.569435851849082,19.104068797231378,330.9557012510771,357.23053679968876,0.0
0.054,6.434362099984388,-3.0149932598739144,10.0,0.0,18.925784313874168,19.407861808234543,339.4707232587175,357.23053679968876,0.0
0.055,6.370891759459199,-3.1253006473392393,10.0,0.0,19.28762520191878,19.723199586257838,348.00092263299223,357.23053679968876,0.0
0.056,6.314459991163816,-3.2071523724558277,10.0,0.0,19.65271639484943,20.048760466390505,356.29964302226927,357.23053679968876,0.0
0.057,6.266092078485367,-3.262894600420583,6.189849601264918,0.0,20.01916768432525,19.963913986653782,360.7911772294324,357.23053679968876,0.0
0.058,6.0312162038983095,-3.1869659609224796,3.908476093385925,0.0,20.331579624255372,19.736700369036775,358.1337028526016,357.23053679968876,0.0
0.059000000000000004,5.699822599003854,-2.996132046617066,5.228181621272199,0.0,20.569796564252165,19.76553518811328,354.6872517751538,357.23053679968876,0.0
0.06,5.504108131996697,-2.7977536051561875,6.976840010241429,0.0,20.767162002739287,20.012678242111406,357.40354780310855,357.23053679968876,0.0
0.061,5.4908176768375,-2.638280398072683,5.616961886229861,0.0,20.95394693441293,20.0872751624249,359.82734062500543,357.23053679968876,0.0
0.062,5.466543541815251,-2.4670522516036897,4.379097437028253,0.0,21.1122727009098,20.053061826003216,349.83241950287334,357.23053679968876,0.0
0.063,5.425913035918158,-2.2418331597267347,9.450539171062456,0.0,21.228282738473062,20.61256624940762,346.9886751021485,357.23053679968876,0.0
0.064,5.716825859576299,-2.09910800160287,10.0,0.0,21.375194638145555,21.105040792409326,350.73060143442063,357.23053679968876,0.0
0.065,6.068311465266614,-2.0218855308938446,9.149369576148885,0.0,21.54959558195423,21.428140827775763,340.2416810554558,357.23053679968876,0.0
0.066,6.392449556877025,-1.8903600588820755,10.0,0.0,21.72517085770447,21.80630627082832,340.25469763934603,357.23053679968876,0.0
0.067,6.771971334633468,-1.7166433275113069,10.0,0.0,21.903211564454274,22.11720037827502,332.72039049777356,357.23053679968876,0.0
0.068,7.11583287880696,-1.5785577032548819,10.0,0.0,22.081085359919275,22.380779593570512,329.6104486836493,357.23053679968876,0.0
0.069,7.497657147265857,-1.3544087757650827,10.0,0.0,22.24425417158601,22.597226212794215,318.55250508417663,357.23053679968876,0.0
0.07,7.833027839153302,-1.186456821509241,10.0,0.0,22.396517538315194,22.775272517839184,319.66076882707495,357.23053679968876,0.0
0.07100000000000001,8.189172578230288,-0.9750929525697175,10.0,0.0,22.52978869283517,22.91491831467299,317.0647465187691,357.23053679968876,0.0
0.07200000000000001,8.514663703067654,-0.8084244371221377,10.0,0.0,22.647477413576695,23.02168407093407,322.12539411466196,357.23053679968876,0.0
0.073,8.619889807211228,-0.982425480660848,10.0,0.0,22.7848806378139,23.12122216343577,338.02538371973804,357.23053679968876,0.0
0.074,8.648168986870784,-1.235345680699297,10.0,0.0,22.944578560446402,23.22248832038991,344.7124576041199,357.23053679968876,0.0
0.075,8.640198972440553,-1.4952494041758482,10.0,0.0,23.124493514093107,23.3307571472958,360.7958139321766,357.23053679968876,0.0
0.076,8.570448326480781,-1.8092696144027827,4.781856531872462,0.0,23.329187040955922,22.87978767629303,363.5538096039169,357.23053679968876,0.0
0.077,8.212147236316442,-1.9524986221181704,3.3396259679600435,0.0,23.4809292567786,22.426636191186198,375.60742742285527,357.23053679968876,0.0
0.078,7.720491583116457,-2.0785025302236537,-2.870951847740818,0.0,23.584610242322782,21.4157319330347,375.2247606460377,357.23053679968876,0.0
0.079,6.9305978569545506,-2.023228535642051,-2.859560697795514,0.0,23.569492525012357,20.661616757249572,378.8238452498082,357.23053679968876,0.0
0.08,6.175514993921097,-1.9730917919025865,-4.8750360841819615,0.0,23.475512759988945,19.834745300982014,379.56133816664754,357.23053679968876,0.0
0.081,5.417205529995578,-1.8953500908706207,-5.467090556271228,0.0,23.300193606164996,19.112054988174393,378.4246880057628,357.23053679968876,0.0
0.082,4.736629875473393,-1.8114830058634985,-5.11070698788959,0.0,23.061689374102222,18.556504755866193,376.2850567266439,357.23053679968876,0.0
0.083,4.189868158010263,-1.7452671302072515,-4.2314365475997056,0.0,22.78503546654278,18.179153068706324,373.6015401898267,357.23053679968876,0.0
0.084,3.8000536260789444,-1.7023160638712107,-3.053388313092488,0.0,22.494249322482887,17.970075742237213,370.56072319288444,357.23053679968876,0.0
0.085,3.562881219029391,-1.6858878913905386,-1.666281678553303,0.0,22.21025647187257,17.915819600919388,366.73772818357065,357.23053679968876,0.0
0.08600000000000001,3.4651173633294468,-1.6944466956868054,0.1501439122647712,0.0,21.950343042388894,18.032907837373422,362.8514494812218,357.23053679968876,0.0
0.08700000000000001,3.510908143436025,-1.7228000292710286,2.037074136623878,0.0,21.73116305815029,18.29567935163628,358.7305753048604,357.23053679968876,0.0
0.088,3.682074765106588,-1.7680966256457318,4.082510839752853,0.0,21.564877316027214,18.6980140305669,355.4380930379839,357.23053679968876,0.0
0.089,3.974815314269092,-1.8135826471550283,5.7466764108081545,0.0,21.46000411241178,19.175600718985766,356.7645528636787,357.23053679968876,0.0
0.09,4.345374417762296,-1.8546792025669228,5.088106337320842,0.0,21.417442658879988,19.468022958514414,355.63874989752384,357.23053679968876,0.0
0.091,4.636368620194764,-1.8600989842173896,5.666925689419931,0.0,21.408564785081673,19.768898886970156,344.8935445120865,357.23053679968876,0.0
0.092,4.940757221226383,-1.7925617093798276,10.0,0.0,21.423178993460134,20.479076611754156,346.4592424179525,357.23053679968876,0.0
0.093,5.460911793144439,-1.776294284762693,10.0,0.0,21.50623550951963,21.022194124891122,347.14919467868384,357.23053679968876,0.0
0.094,5.945699146567346,-1.7767827205348583,10.0,0.0,21.635514527467986,21.47118047516301,335.14147538679526,357.23053679968876,0.0
0.095,6.417762775536153,-1.6878411486815152,10.0,0.0,21.786975821387102,21.841116966550207,337.42141530449896,357.23053679968876,0.0
0.096,6.8444595327913405,-1.565920415877192,10.0,0.0,21.94776277016309,22.14698993118221,326.124730210901,357.23053679968876,0.0
0.097,7.2419266406521485,-1.411773288760409,10.0,0.0,22.10732134386987,22.398899879936472,326.10718429787676,357.23053679968876,0.0
0.098,7.6177216207247564,-1.2394988119855301,10.0,0.0,22.25870633390734,22.604211914456613,315.7360352620054,357.23053679968876,0.0
0.099,7.993502373475314,-1.0328202449039288,10.0,0.0,22.39447213078184,22.76655331152665,308.1652490601537,357.23053679968876,0.0
0.1,8.332450193049663,-0.8670879504260465,10.0,0.0,22.516731720954155,22.892710695951454,320.86329862981574,357.23053679968876,0.0
0.101,8.55199613670078,-0.8849726099389859,10.0,0.0,22.64300572604291,22.99771772534514,326.94839830834917,357.23053679968876,0.0
0.10200000000000001,8.617118080596983,-1.10544431632492,10.0,0.0,22.791226074669485,23.099883497916256,342.8777182317079,357.23053679968876,0.0
0.10300000000000001,8.616797768020453,-1.3823597477752125,10.0,0.0,22.963096946086193,23.207341181915297,349.69859007488066,357.23053679968876,0.0
0.10400000000000001,8.588449877899553,-1.6522159407265375,9.760071738378972,0.0,23.15544152567127,23.297963140665324,366.9902437694504,357.23053679968876,0.0
0.105,8.49379244168962,-1.9560400708010213,1.0166478213964911,0.0,23.368335935551514,22.449508852328883,366.31465436132567,357.23053679968876,0.0
0.106,7.914508665201567,-2.008647435780439,1.2636013498424834,0.0,23.477844044457097,21.88456320216458,373.4775958598042,357.23053679968876,0.0
0.107,7.30542336480356,-2.0519883660757,-2.480339989997928,0.0,23.524148206138367,21.03396639051926,377.416055689933,357.23053679968876,0.0
0.108,6.5538149991572,-2.0177314121650025,-4.651425093964773,0.0,23.47656059625385,20.14826579538577,378.407107670578,357.23053679968876,0.0
0.109,5.757452285785795,-1.9337591508222407,-5.358716792996171,0.0,23.336267308635836,19.370369077737777,378.01354643282116,357.23053679968876,0.0
0.11,5.024913098370437,-1.8422460356058479,-5.369766270449075,0.0,23.122986957954456,18.73470586104526,376.34740024597573,357.23053679968876,0.0
0.111,4.409815780801312,-1.7644581497124832,-4.727861811489232,0.0,22.859826784375848,18.27233622927241,373.8435482328358,357.23053679968876,0.0
0.112,3.945210699110752,-1.7092006031874685,-3.6420659192507427,0.0,22.571445213719,17.9878616326859,371.0782664407803,357.23053679968876,0.0
0.113,3.6394604562378827,-1.6805459321009715,-2.397902319633892,0.0,22.280854902114925,17.85798285162692,367.52493299848686,357.23053679968876,0.0
0.114,3.476577514173481,-1.6781367985594902,-0.7241795604751626,0.0,22.006357285586652,17.898560406223094,363.6498478404898,357.23053679968876,0.0
0.115,3.458425029547401,-1.6984103824815924,1.1491699081153444,0.0,21.76562137173768,18.097329601548402,359.81888137478757,357.23053679968876,0.0
0.116,3.573572855219437,-1.7399514328109806,3.0387696952154863,0.0,21.573202748503146,18.428422982181225,355.6266960926476,357.23053679968876,0.0
0.117,3.806572300978663,-1.7881707268190938,5.150900743355885,0.0,21.438024037492944,18.896125119074945,354.4416526420179,357.23053679968876,0.0
0.11800000000000001,4.1549670679163935,-1.8340432810211433,5.771311310247433,0.0,21.367697199295282,19.314669593149382,357.0852429011563,357.23053679968876,0.0
0.11900000000000001,4.507691914778216,-1.8640564078282575,4.450969119663576,0.0,21.34910021073159,19.497569403878057,348.6102822230723,357.23053679968876,0.0
0.12,4.749931881560785,-1.819019338763174,8.77465200447172,0.0,21.3453986932319,20.126008926034757,342.88672992799343,357.23053679968876,0.0
0.121,5.21329891458008,-1.7847891007735683,10.0,0.0,21.401596324209645,20.734237820921546,346.9432821586421,357.23053679968876,0.0
0.122,5.713546111881129,-1.7895055544705318,9.818865327399692,0.0,21.51385819386486,21.204691774103203,338.6900629243894,357.23053679968876,0.0
0.123,6.173320779126301,-1.7491821510362862,10.0,0.0,21.65745653295798,21.615489938220296,336.7909787187434,357.23053679968876,0.0
0.124,6.633043007798398,-1.6160768308596267,10.0,0.0,21.813536503368404,21.9517850746275,331.3954200582337,357.23053679968876,0.0
0.125,7.019877853130714,-1.512427266379671,10.0,0.0,21.977567591487485,22.232104083735194,326.43270278367464,357.23053679968876,0.0
0.126,7.428854238368524,-1.3094359211914322,10.0,0.0,22.13193491937951,22.459675246821185,316.94534224450683,357.23053679968876,0.0
0.127,7.77931417693983,-1.1583587129919675,10.0,0.0,22.279034051340886,22.64546519699733,317.4656879105405,357.23053679968876,0.0
0.128,8.148752101929485,-0.9512381674962853,10.0,0.0,22.408729777201202,22.790252492988838,314.1788459705275,357.23053679968876,0.0
0.129,8.46575780597161,-0.8153224681540392,10.0,0.0,22.527055138601945,22.902354383772494,321.2789002619076,357.23053679968876,0.0
0.13,8.57784497821305,-0.9865895312923674,10.0,0.0,22.66495668687962,23.005919089711718,336.91233543113304,357.23053679968876,0.0
0.131,8.610436209129928,-1.2367339628269232,10.0,0.0,22.82522776776087,23.11045331620635,342.6163863523062,357.23053679968876,0.0
0.132,8.601777808619197,-1.500724821490976,10.0,0.0,23.00646271334115,23.22183956450498,359.6007978384522,357.23053679968876,0.0
0.133,8.5376476153595,-1.807156936025561,4.387403892080611,0.0,23.211780413205442,22.729792847914123,361.5025072927559,357.23053679968876,0.0
0.134,8.156842674464965,-1.9440472446089405,3.3938294599980754,0.0,23.359355284223028,22.295562588084675,372.74948749449345,357.23053679968876,0.0
0.135,7.672232139724418,-2.0638717666287896,-2.384850147818735,0.0,23.46056143649227,21.34329293821343,373.5038565861162,357.23053679968876,0.0
0.136,6.913261287163212,-2.021888187565926,-2.9247678914943984,0.0,23.450603569630353,20.57340740126442,376.98790948243055,357.23053679968876,0.0
0.137,6.161052820752765,-1.971121842086911,-4.864368066478979,0.0,23.359488473547653,19.74671101229209,377.62340077680204,357.23053679968876,0.0
0.138,5.404464433496092,-1.8909614883935906,-5.386042353435856,0.0,23.186505272724524,19.031287220727453,376.54142900007287,357.23053679968876,0.0
0.139,4.728248202989143,-1.807012343780167,-5.03816538707511,0.0,22.950845210456695,18.480408598889408,374.46360770740876,357.23053679968876,0.0
0.14,4.185180926034852,-1.7414865663351544,-4.171585449820253,0.0,22.67729494815904,18.105872094602724,371.8478926231483,357.23053679968876,0.0
0.14100000000000001,3.79766259388254,-1.6994364577765468,-3.009901465924627,0.0,22.389675807495475,17.897749997138117,368.87410314342765,357.23053679968876,0.0
0.14200000000000002,3.561155579912585,-1.6838579451784619,-1.6394423895016832,0.0,22.108713235851607,17.84295244213635,365.1361728705813,357.23053679968876,0.0
0.14300000000000002,3.4625537145497405,-1.6931696751051768,0.15046638621257724,0.0,21.851547241289865,17.95720489508493,361.3297957694266,357.23053679968876,0.0
