timestamp,iq,id,iq_ref,id_ref,vq,vd,omega,omega_ref,r
0.0,0.0,0.0,0.0,0.0,0.0,0.0,0.0,89.88012294416747,0.0
0.001,0.0,0.0,10.0,0.0,0.0,1.0999999999999999,6.115472199294103,89.88012294416747,0.0
0.002,0.5307369851907212,-0.2913212625381807,10.0,0.0,0.14204533887919985,1.9316189316290207,13.317801563642547,89.88012294416747,0.0
0.003,1.0842913387634832,-0.6024330830807904,10.0,0.0,0.384357124667687,2.6386968949419622,20.697939467553027,89.88012294416747,0.0
0.004,1.5590443546685477,-0.8700465084428163,10.0,0.0,0.6994718867930164,3.2526109522886295,28.232747544420146,89.88012294416747,0.0
0.005,1.9399447555359186,-1.0838738622210777,10.0,0.0,1.065311453102468,3.7994935661768023,35.92944872443006,89.88012294416747,0.0
0.006,2.239750732602683,-1.2510087368845633,10.0,0.0,1.4655018868449925,4.299102221838433,43.75633668444442,89.88012294416747,0.0
0.007,2.4770151619816017,-1.382020589851471,10.0,0.0,1.8883740978591532,4.765668027847139,51.58766747378032,89.88012294416747,0.0
0.008,2.6680767290418097,-1.4872241871505252,10.0,0.0,2.325877945545995,5.209220346273558,59.45942083902103,89.88012294416747,0.0
0.009000000000000001,2.8266491704841292,-1.5730794701170803,10.0,0.0,2.772378685460125,5.636635464737965,67.35059094018146,89.88012294416747,0.0
0.01,2.962077666392183,-1.645500646948331,10.0,0.0,3.224078639851053,6.052647735211881,75.20908322432116,89.88012294416747,0.0
0.011,3.0811061533574158,-1.7084279320504514,9.209108708894506,0.0,3.6784076154432026,6.373491883448801,82.5025713424331,89.88012294416747,0.0
0.012,3.14714870557817,-1.7411370130503592,5.63614016585588,0.0,4.122356834358796,6.316492491723419,87.36595293003596,89.88012294416747,0.0
0.013000000000000001,3.016171111721485,-1.662804366982635,3.229591072195766,0.0,4.507267510332845,6.095665207036349,90.3082770417093,89.88012294416747,0.0
0.014,2.753232396046316,-1.5055451218299274,1.7541474753836759,0.0,4.815089199734661,5.824791896488364,92.3816285603297,89.88012294416747,0.0
0.015,2.4405918663818915,-1.3166550040100853,0.692456659911854,0.0,5.045836068632842,5.541517603307918,92.96405024506653,89.88012294416747,0.0
0.016,2.1207357491103354,-1.1336901564778927,0.37040654453444866,0.0,5.206943589272818,5.3168945894017625,91.51512495224566,89.88012294416747,0.0
0.017,1.8512092033733998,-0.9711108574492245,1.0785191708641038,0.0,5.313423982040346,5.238406877858604,91.26545656817346,89.88012294416747,0.0
0.018000000000000002,1.688784808391673,-0.8577403147308413,1.189500026660141,0.0,5.390562597668074,5.1987141626114015,92.98575727781994,89.88012294416747,0.0
0.019,1.5868704650391614,-0.7872624251048974,0.29829332850037615,0.0,5.449399217776635,5.081148368915117,93.0431687185255,89.88012294416747,0.0
0.02,1.4727006073277986,-0.7200263466255656,0.23795715040402077,0.0,5.4839044067682465,4.995037444905042,91.23401591978617,89.88012294416747,0.0
0.021,1.3819213672847979,-0.6566472852095523,1.1289946200174934,0.0,5.500048648488722,5.028449633461197,91.06489260074045,89.88012294416747,0.0
0.022,1.3643549586054702,-0.6250666987675111,1.2017085829746255,0.0,5.5150796109983,5.060247701117228,92.64466033957625,89.88012294416747,0.0
0.023,1.3678338972053816,-0.6142871879879694,0.3841793396026387,0.0,5.5309173437011925,4.999155354525343,91.80885945976723,89.88012294416747,0.0
0.024,1.3321288281540382,-0.5914255617949535,0.782792414351148,0.0,5.536655084701174,5.0017410935006374,89.83710856710726,89.88012294416747,0.0
0.025,1.322842804979152,-0.570087692353999,1.7690980044517346,0.0,5.539959076122111,5.109813928700704,91.41362875069873,89.88012294416747,0.0
0.026000000000000002,1.3752555163722007,-0.5755255996494864,0.965502854590687,0.0,5.554551500417875,5.103293098652152,92.5619257834609,89.88012294416747,0.0
0.027,1.3843066524764691,-0.5732856497510501,0.3645363098166734,0.0,5.566731825717422,5.040341727753963,90.19179777032963,89.88012294416747,0.0
0.028,1.3566425437358787,-0.5456033540142491,1.546483568120684,0.0,5.568376328365135,5.124060953659235,90.11039612208093,89.88012294416747,0.0
0.029,1.3940544980650798,-0.5390756446278523,1.5848816604658997,0.0,5.577787078263465,5.187585068750067,91.90621999346259,89.88012294416747,0.0
0.03,1.4349158178434671,-0.5484151684189611,0.66670875428212,0.0,5.5937017893919325,5.140194221085649,90.127402659649,89.88012294416747,0.0
0.031,1.4235774546179183,-0.5324563398359468,1.5536446240341006,0.0,5.6014370782590674,5.207534437187671,89.5517690023302,89.88012294416747,0.0
0.032,1.4595294875241445,-0.5228255773776189,1.844744992111868,0.0,5.6142330642651075,5.287997735105298,91.41501573962405,89.88012294416747,0.0
0.033,1.507812767612438,-0.5346208919021794,0.8977726955103775,0.0,5.635189573684591,5.249664705044174,89.78736924118802,89.88012294416747,0.0
0.034,1.5039875599181105,-0.5192170931750612,1.71252348175819,0.0,5.648404758150785,5.317256544031647,89.79470862833233,89.88012294416747,0.0
0.035,1.5422517377590463,-0.5086063380131916,1.709707931344385,0.0,5.6660444629885705,5.366706187519547,91.35724212112905,89.88012294416747,0.0
0.036000000000000004,1.574809334465735,-0.5133130660244944,0.9136699931764105,0.0,5.687489009324232,5.322240125588771,88.9095940366954,89.88012294416747,0.0
0.037,1.5660978516328279,-0.4885851724272153,2.147199324467957,0.0,5.699575359257434,5.4292975693870735,90.29365197340964,89.88012294416747,0.0
0.038,1.6204449767788849,-0.48834338553469103,1.4510350658184143,0.0,5.721379500954941,5.431879243440106,89.9911623278199,89.88012294416747,0.0
0.039,1.6354536135792253,-0.4855847929976685,1.6011694947767625,0.0,5.740960368577854,5.458752115232921,88.5816264597058,89.88012294416747,0.0
0.04,1.662469811332275,-0.4656258844960554,2.3189223936784247,0.0,5.759102542607949,5.559525565813516,90.6389554974568,89.88012294416747,0.0
0.041,1.7185341958391074,-0.4770194414949131,1.2826695492700295,0.0,5.786960724647985,5.524973626546899,88.49070005545066,89.88012294416747,0.0
0.042,1.7227708718671957,-0.456440654850484,2.3706914991602703,0.0,5.806200292456481,5.6268022518249365,90.17197710244314,89.88012294416747,0.0
0.043000000000000003,1.7781055276390834,-0.4565897065836979,1.5271344340812751,0.0,5.833920949569029,5.610656029323802,88.51296714238856,89.88012294416747,0.0
0.044,1.7877279907848591,-0.4428619681780205,2.370310972126352,0.0,5.8557433769782525,5.699576360231468,89.87704081459474,89.88012294416747,0.0
0.045,1.8413991713092854,-0.4376089560585129,1.6883049573189919,0.0,5.883835040788228,5.692526868553797,88.35428346651388,89.88012294416747,0.0
0.046,1.8537163610801468,-0.4268252308011319,2.464942026135957,0.0,5.907278909392325,5.7804234510732835,89.7718477068986,89.88012294416747,0.0
0.047,1.9095155239670214,-0.41987042014204456,1.7572426583162855,0.0,5.9365108574680345,5.770246725033047,87.91538168046907,89.88012294416747,0.0
0.048,1.9212961672904592,-0.4078169872084817,2.7051230841680343,0.0,5.960545608616049,5.8746168277895885,89.83714987139014,89.88012294416747,0.0
0.049,1.9844643144323226,-0.40597508947010374,1.7446687194352721,0.0,5.9925318205030305,5.848993921253782,87.34571655814784,89.88012294416747,0.0
0.05,1.9940423259126059,-0.38720502814473956,3.015729439916617,0.0,6.016710832779324,5.978131249669118,89.79194922517775,89.88012294416747,0.0
0.051000000000000004,2.0654909659714393,-0.39499401470285367,1.7934948435915623,0.0,6.05243016580417,5.9418527633783125,87.29259809264231,89.88012294416747,0.0
0.052000000000000005,2.0772952244232856,-0.36878016544659065,3.0690456583745327,0.0,6.077988303613681,6.064723012579336,89.32772145944726,89.88012294416747,0.0
0.053,2.142560088273484,-0.3793456888324629,2.057007989819258,0.0,6.114701998627351,6.046721306513291,87.7443948435826,89.88012294416747,0.0
0.054,2.1653299884924317,-0.35197852016709774,2.870028578757439,0.0,6.142828109746002,6.131891741638391,88.32449419643538,89.88012294416747,0.0
0.055,2.213656420060078,-0.3570564454432258,2.5955351898083676,0.0,6.1774908967323245,6.167945057218814,88.81419770070556,89.88012294416747,0.0
0.056,2.259242415442342,-0.33889913255690296,2.3613426901078958,0.0,6.2102446529078,6.176311883685892,86.59451167975627,89.88012294416747,0.0
0.057,2.2797524848891597,-0.3249745936135403,3.5040418132266566,0.0,6.239209589957529,6.313355983978551,88.83783840314254,89.88012294416747,0.0
0.058,2.359951192419281,-0.3369681888925353,2.392801296943768,0.0,6.280440984201677,6.29731196279077,87.80659224942507,89.88012294416747,0.0
0.059000000000000004,2.3896569883995453,-0.3100036005182901,2.9291596807499296,0.0,6.312858796228673,6.354641660045156,86.78013491614551,89.88012294416747,0.0
0.06,2.427795049400441,-0.30792971010461967,3.4733882276699255,0.0,6.3478093147166454,6.460083596349647,88.6211287351227,89.88012294416747,0.0
0.061,2.501979764278952,-0.31004312057264205,2.565481260271782,0.0,6.39006218904189,6.445385400962865,87.61758137039818,89.88012294416747,0.0
0.062,2.5294341362906874,-0.282226104302868,3.0898803583717305,0.0,6.423538950501575,6.500867149239751,87.35545032398197,89.88012294416747,0.0
0.063,2.557284448728339,-0.29554990596865993,3.246192607781693,0.0,6.460959998988918,6.5633097646409935,90.49412975824437,89.88012294416747,0.0
0.064,2.588799283202836,-0.32285292275601796,1.6707128225097239,0.0,6.5037532979976005,6.445196195809009,90.31047073080332,89.88012294416747,0.0
0.065,2.5362596057235565,-0.3017385164687192,1.758238858363892,0.0,6.527860295362741,6.374650488425235,89.6341964595841,89.88012294416747,0.0
0.066,2.4710006640070046,-0.29481166080074317,2.0988352588193324,0.0,6.541951212192382,6.356813482021937,92.09162786051021,89.88012294416747,0.0
0.067,2.4342531905056988,-0.29944247909060095,0.8480045091928488,0.0,6.553427995267299,6.204561554146447,90.86101491715291,89.88012294416747,0.0
0.068,2.345445366428292,-0.2700923263380304,1.4535020611416445,0.0,6.545257082261491,6.15719692149013,90.9737297556466,89.88012294416747,0.0
0.069,2.2846665329397147,-0.2736221824114744,1.3862085737800096,0.0,6.533848582986238,6.106091995112565,92.33349964396393,89.88012294416747,0.0
0.07,2.2432434151413583,-0.2707339828762355,0.6817898626233794,0.0,6.51811744049114,5.98609234271455,90.89572965380769,89.88012294416747,0.0
0.07100000000000001,2.167574056452975,-0.26350883565102623,1.3905187906050975,0.0,6.491193562806331,5.969433308774123,92.73369588744076,89.88012294416747,0.0
0.07200000000000001,2.135824588090821,-0.276833191321911,0.44299994435583034,0.0,6.46683410009201,5.843169176024974,91.01682721368508,89.88012294416747,0.0
0.073,2.0669753825066537,-0.26686090995892164,1.2900672385384961,0.0,6.431053975867568,5.8370040190325305,92.21241677980044,89.88012294416747,0.0
0.074,2.0417029747038757,-0.2880691072935587,0.668949517124487,0.0,6.400667972886768,5.753175215821982,91.27377997695982,89.88012294416747,0.0
0.075,1.9989734796274075,-0.2888268883400993,1.1243313482168733,0.0,6.364808963824766,5.735441391649095,92.06410413356646,89.88012294416747,0.0
0.076,1.9764145048870034,-0.3118339998669404,0.7073294580195615,0.0,6.333285677709159,5.66752521502535,91.34039068473976,89.88012294416747,0.0
0.077,1.942421135953182,-0.31661766338732955,1.0545835050271886,0.0,6.298419234414714,5.649129972360545,92.31669749571917,89.88012294416747,0.0
0.078,1.9220969936300765,-0.3400623194570426,0.5420643540219672,0.0,6.267730986715699,5.57113368451833,91.30908972773325,89.88012294416747,0.0
0.079,1.8826939789513684,-0.34275400844981474,1.031578570179268,0.0,6.23237357423087,5.560971046169216,92.74854538277032,89.88012294416747,0.0
0.08,1.8654023686970986,-0.3646997876164457,0.28316651827470674,0.0,6.201922757978017,5.46257650951664,91.18647577671284,89.88012294416747,0.0
0.081,1.814783342579469,-0.36424382530770083,1.0511377929779915,0.0,6.164407956039562,5.468332482410839,92.57365016665895,89.88012294416747,0.0
0.082,1.8055525743384018,-0.3812734219073979,0.3306153257800215,0.0,6.133098046833426,5.383333387928306,91.46599175982632,89.88012294416747,0.0
0.083,1.758836455224208,-0.391708799079308,0.8685858410397462,0.0,6.097396814622564,5.375131658744109,91.62453602452408,89.88012294416747,0.0
0.084,1.7456113790047167,-0.4042773380105227,0.7718695778873039,0.0,6.065723718225083,5.349149082350884,92.3342147669634,89.88012294416747,0.0
0.085,1.7269083317552862,-0.42612218967723325,0.3924892884396831,0.0,6.036896922122054,5.28375786918476,91.35115039536063,89.88012294416747,0.0
0.08600000000000001,1.6918512602326214,-0.4299781606212657,0.8693111997291338,0.0,6.004619392599892,5.281936558256263,91.95773599833379,89.88012294416747,0.0
0.08700000000000001,1.682261167125283,-0.44444022313031395,0.5452422677008935,0.0,5.9769397521036485,5.237358163358977,92.28300331261842,89.88012294416747,0.0
0.088,1.6539164060509135,-0.46125418380384064,0.35857980687406843,0.0,5.949275151216304,5.180199485318236,91.45346326875003,89.88012294416747,0.0
0.089,1.6187032703227535,-0.46406762996407136,0.7576164255624385,0.0,5.918802482084504,5.175340864976176,91.65295827278575,89.88012294416747,0.0
0.09,1.6058362569557376,-0.4776648650896914,0.6401405702583931,0.0,5.8923587792338985,5.1520713695979055,92.84418984303957,89.88012294416747,0.0
0.091,1.5888172521565873,-0.49343940757341775,0.014884116142762416,0.0,5.8678317244524765,5.062624422466956,91.43475585305495,89.88012294416747,0.0
0.092,1.5381352115599753,-0.490851134574084,0.7040547820461978,0.0,5.836370224981342,5.067135636779131,91.54844588152827,89.88012294416747,0.0
0.093,1.5262186567515765,-0.5003303061101774,0.6305265384359324,0.0,5.809574588487498,5.053873766879769,92.70355859541193,89.88012294416747,0.0
0.094,1.5138721575900602,-0.5169333391194245,0.024735824981654053,0.0,5.78586387056876,4.974595773636774,91.49335369567592,89.88012294416747,0.0
0.095,1.4694936347196688,-0.5160770410620198,0.6137059673345759,0.0,5.756336202001189,4.976477303243697,91.3423323383465,89.88012294416747,0.0
0.096,1.4575035494215347,-0.5249305863040497,0.674594552057499,0.0,5.730931906208266,4.976901080083252,92.13492639752667,89.88012294416747,0.0
0.097,1.4539108023082319,-0.5388781827928678,0.2557494879338196,0.0,5.709556117839939,4.9283355080882085,92.04531582241803,89.88012294416747,0.0
0.098,1.4247654685815638,-0.5475685090719523,0.27890284670563226,0.0,5.686277811034754,4.892394293800774,91.35309791493303,89.88012294416747,0.0
0.099,1.397593575009376,-0.5491838355100935,0.6102820507404776,0.0,5.661823996126744,4.896637004073351,91.35836048294269,89.88012294416747,0.0
0.1,1.3907999660853492,-0.5588143266742138,0.5928683913478978,0.0,5.641283034500469,4.8932563453002595,92.11206307180444,89.88012294416747,0.0
0.101,1.3860575821176373,-0.5696247619128572,0.19369769564064976,0.0,5.623550946124119,4.844878742455188,91.94643929297898,89.88012294416747,0.0
0.10200000000000001,1.3562935328945516,-0.5740123304015827,0.25584642156526605,0.0,5.603128834482272,4.8136203794406285,91.42183743588556,89.88012294416747,0.0
0.10300000000000001,1.330605554265946,-0.5731790657151954,0.5027302051947928,0.0,5.581487562902763,4.81250940766026,91.38157535289055,89.88012294416747,0.0
0.10400000000000001,1.3201407137120234,-0.5803703742400422,0.5078467226050689,0.0,5.562698697887764,4.808333637653456,91.50062260409084,89.88012294416747,0.0
0.105,1.3133030509309236,-0.5884834812611889,0.43211810040569243,0.0,5.546191671060665,4.79496273903018,91.62666489023253,89.88012294416747,0.0
0.106,1.3026346447065977,-0.5940784699204744,0.35163153787419343,0.0,5.530532574736257,4.7742871399869165,91.56341129542892,89.88012294416747,0.0
0.107,1.286688615762042,-0.5966729395766408,0.3664254517633849,0.0,5.514601269915548,4.758192766490323,91.43465029505133,89.88012294416747,0.0
0.108,1.2713770156877633,-0.5987285705785518,0.41526067844334325,0.0,5.4988538329409,4.748863451375948,91.31641656820426,89.88012294416747,0.0
0.109,1.2596090359454675,-0.6020051281025166,0.4600146056265082,0.0,5.484088073169895,4.744468265569799,91.13830466382132,89.88012294416747,0.0
0.11,1.2512568932983517,-0.6067191691122709,0.5364887406214423,0.0,5.470845149731211,4.7478016938385394,90.99603859941497,89.88012294416747,0.0
0.111,1.2489546341160054,-0.6110012393923537,0.5964626162721385,0.0,5.459683748783979,4.75547959899175,90.9981310331417,89.88012294416747,0.0
0.112,1.2500582458803597,-0.6163714137197028,0.5842363185190309,0.0,5.450954176920001,4.759184522139665,91.71306969323092,89.88012294416747,0.0
0.113,1.2495759097238501,-0.6210332363994198,0.20843752098378787,0.0,5.443927153308706,4.7204944841299055,91.56895000249463,89.88012294416747,0.0
0.114,1.2252269221125278,-0.6181723629474769,0.263609095768661,0.0,5.433372513951054,4.69747117403736,90.72427875242386,89.88012294416747,0.0
0.115,1.2042842473398359,-0.6108842363050854,0.6775031627214845,0.0,5.420797922323769,4.722731566984148,90.41796005471616,89.88012294416747,0.0
0.116,1.2095069813107848,-0.6129220169165026,0.825284140469845,0.0,5.412303866287572,4.755541500871793,91.17670475206145,89.88012294416747,0.0
0.117,1.2262363957060565,-0.6206872008436775,0.4329459737182588,0.0,5.4087740016696335,4.737798019403121,91.76373863922628,89.88012294416747,0.0
0.11800000000000001,1.2178102452330788,-0.6229330931939336,0.12059287318525991,0.0,5.403992171685877,4.692134610924391,90.68537059049685,89.88012294416747,0.0
0.11900000000000001,1.1899785565280567,-0.6111864502420087,0.6517244210866815,0.0,5.393807594204412,4.715084585822465,89.94730067279079,89.88012294416747,0.0
0.12,1.1917902544874626,-0.6091445175661054,1.0200876026534764,0.0,5.386829325796067,4.769452136313335,90.61123919187267,89.88012294416747,0.0
0.121,1.2192215789784244,-0.6174064389132433,0.6808071806354836,0.0,5.386914869952591,4.773681297962225,91.63385001936925,89.88012294416747,0.0
0.122,1.2261661633098828,-0.6218919049717295,0.1519644961351767,0.0,5.387825557911313,4.722226615755474,90.69419096377396,89.88012294416747,0.0
0.123,1.1987771845351864,-0.6103292678654688,0.6136533437367546,0.0,5.382182964111212,4.735164904154976,89.52584633234186,89.88012294416747,0.0
0.124,1.195725203790626,-0.6036225485925092,1.2013684255710635,0.0,5.3777763457821095,4.806338702954433,90.18447826947339,89.88012294416747,0.0
0.125,1.2307779121285536,-0.6109527185704525,0.8690089037522388,0.0,5.3818011550561655,4.823631444098003,91.39615221321135,89.88012294416747,0.0
0.126,1.2473544751063084,-0.6154342240776647,0.2480116391928182,0.0,5.387572421423189,4.773138393327098,90.59857444205734,89.88012294416747,0.0
0.127,1.2227257443327746,-0.6037401235866947,0.6396160097909246,0.0,5.386386089967338,4.780433153696237,89.16665294513095,89.88012294416747,0.0
0.128,1.2177889199144174,-0.5936864153605309,1.362711458244486,0.0,5.385058900794021,4.862801023885073,89.84698819780695,89.88012294416747,0.0
0.129,1.2586486628115252,-0.5994203364540858,1.02287517937009,0.0,5.39283248595947,4.88764250301411,91.33150492535653,89.88012294416747,0.0
0.13,1.2809648124333766,-0.6035893851972405,0.2661029957834118,0.0,5.4027141166720885,4.828884436311563,90.25404561701902,89.88012294416747,0.0
0.131,1.2539755404302164,-0.5887955439937977,0.801093423223651,0.0,5.404062764623381,4.846598989621394,88.5589595460164,89.88012294416747,0.0
0.132,1.2547229429026345,-0.5769955927685861,1.6618480927064718,0.0,5.405897946887789,4.951657954772081,89.91948517997844,89.88012294416747,0.0
0.133,1.308487294924238,-0.5868469380014655,0.9811916533673417,0.0,5.419257154928692,4.957008181914356,91.32371999162476,89.88012294416747,0.0
0.134,1.3241704315449059,-0.5883704442993121,0.2646382770696094,0.0,5.431884537120168,4.889957498639074,89.3465357919227,89.88012294416747,0.0
0.135,1.2935562209964393,-0.565292448927479,1.2585662484430826,0.0,5.43399029821109,4.950896627051067,88.34942584401088,89.88012294416747,0.0
0.136,1.3171233360267787,-0.5563924804021692,1.7724281934005606,0.0,5.44123117945005,5.049639428203719,90.321003170864,89.88012294416747,0.0
0.137,1.3713173463413426,-0.5715297938851777,0.782230727707034,0.0,5.459376356848766,5.019446026704841,90.20793845680832,89.88012294416747,0.0
