timestamp,iq,id,iq_ref,id_ref,vq,vd,omega,omega_ref,r
0.0,0.0,0.0,0.0,0.0,0.0,0.0,0.0,430.8808937869412,0.0
0.001,0.0,0.0,10.0,0.0,0.0,1.0999999999999999,6.115472199294103,430.8808937869412,0.0
0.002,0.5307369851907212,-0.2913212625381807,10.0,0.0,0.14204533887919985,1.9316189316290207,13.317801563642547,430.8808937869412,0.0
0.003,1.0842913387634832,-0.6024330830807904,10.0,0.0,0.384357124667687,2.6386968949419622,20.697939467553027,430.8808937869412,0.0
0.004,1.5590443546685477,-0.8700465084428163,10.0,0.0,0.6994718867930164,3.2526109522886295,28.232747544420146,430.8808937869412,0.0
0.005,1.9399447555359186,-1.0838738622210777,10.0,0.0,1.065311453102468,3.7994935661768023,35.92944872443006,430.8808937869412,0.0
0.006,2.239750732602683,-1.2510087368845633,10.0,0.0,1.4655018868449925,4.299102221838433,43.75633668444442,430.8808937869412,0.0
0.007,2.4770151619816017,-1.382020589851471,10.0,0.0,1.8883740978591532,4.765668027847139,51.58766747378032,430.8808937869412,0.0
0.008,2.6680767290418097,-1.4872241871505252,10.0,0.0,2.325877945545995,5.209220346273558,59.45942083902103,430.8808937869412,0.0
0.009000000000000001,2.8266491704841292,-1.5730794701170803,10.0,0.0,2.772378685460125,5.636635464737965,67.35059094018146,430.8808937869412,0.0
0.01,2.962077666392183,-1.645500646948331,10.0,0.0,3.224078639851053,6.052647735211881,75.20908322432116,430.8808937869412,0.0
0.011,3.0811061533574158,-1.7084279320504514,10.0,0.0,3.678407615443203,6.460489925470405,83.0265951655913,430.8808937869412,0.0
0.012,3.188848746459569,-1.7638278597420747,10.0,0.0,4.133552631697047,6.862319393890706,90.74118064793086,430.8808937869412,0.0
0.013000000000000001,3.288205119878689,-1.8140726097274587,10.0,0.0,4.588339016389012,7.259628641949282,98.35820682563939,430.8808937869412,0.0
0.014,3.3820602099432007,-1.8592355758795645,10.0,0.0,5.041843166194517,7.653355107498287,105.90865295623543,430.8808937869412,0.0
0.015,3.4721069852858886,-1.899829032412081,10.0,0.0,5.493383198131427,8.044092747085895,113.37727610343421,430.8808937869412,0.0
0.016,3.5596145800153947,-1.9360338400176071,10.0,0.0,5.94241958510469,8.43218525824161,120.68508583176356,430.8808937869412,0.0
0.017,3.645144415105338,-1.9685384477868613,10.0,0.0,6.388575043274759,8.817838951066484,127.83962377537456,430.8808937869412,0.0
0.018000000000000002,3.730251927866576,-1.9959253041084188,10.0,0.0,6.83136783302799,9.201036292373047,134.85405702603322,430.8808937869412,0.0
0.019,3.81544967906247,-2.018253592643655,10.0,0.0,7.270383321112213,9.581672501020332,141.68976328564074,430.8808937869412,0.0
0.02,3.9014648862453374,-2.0350875541282063,10.0,0.0,7.705189334130692,9.959536942333155,148.3432823300447,430.8808937869412,0.0
0.021,3.9891051824829464,-2.0457889559126508,10.0,0.0,8.135310004560049,10.334315260302239,154.92060212100432,430.8808937869412,0.0
0.022,4.079618141396171,-2.0489696811670974,10.0,0.0,8.560139305503519,10.705547790999272,161.01925282597162,430.8808937869412,0.0
0.023,4.171109372430197,-2.048468292080302,10.0,0.0,8.979521969370257,11.072981092896333,166.534238406907,430.8808937869412,0.0
0.024,4.266936196769627,-2.039517194249811,10.0,0.0,9.392730090169543,11.435983292623375,171.8647834235234,430.8808937869412,0.0
0.025,4.367255527950721,-2.0225841458509217,10.0,0.0,9.79914449451603,11.793929226271104,177.02637022703064,430.8808937869412,0.0
0.026000000000000002,4.4734353073349595,-1.9962166741499119,10.0,0.0,10.197980960389518,12.146045424568259,181.63161391243256,430.8808937869412,0.0
0.027,4.582366840795821,-1.966358349113627,10.0,0.0,10.589124658468391,12.491912978736195,185.74793639675826,430.8808937869412,0.0
0.028,4.700058850757774,-1.9240450691803936,10.0,0.0,10.971384864613876,12.830451341534015,189.43662766964098,430.8808937869412,0.0
0.029,4.820934284790598,-1.879137197786803,10.0,0.0,11.344756153370636,13.161242511022618,192.73598774770625,430.8808937869412,0.0
0.03,4.952016225740939,-1.821000614527957,10.0,0.0,11.707923484756042,13.483081433273819,195.59831968863915,430.8808937869412,0.0
0.031,5.086039273572549,-1.7621311371320891,10.0,0.0,12.061063698547066,13.79562148058647,197.80891551030922,430.8808937869412,0.0
0.032,5.230431844273564,-1.6911110488141978,10.0,0.0,12.40292038074925,14.097678592248165,200.4421589734679,430.8808937869412,0.0
0.033,5.380124186618445,-1.6166151787533525,10.0,0.0,12.733312761073865,14.38869342901298,201.91742172589852,430.8808937869412,0.0
0.034,5.537594793894332,-1.535029134414507,10.0,0.0,13.051537880865839,14.667821176756876,203.18880493813168,430.8808937869412,0.0
0.035,5.698947813469154,-1.4530296333491768,10.0,0.0,13.357649178779205,14.934684535625108,203.60405746232266,430.8808937869412,0.0
0.036000000000000004,5.870474243492053,-1.3603000477825025,10.0,0.0,13.65045542338638,15.188218311291084,204.28541056101804,430.8808937869412,0.0
0.037,6.041188711220851,-1.275010780747051,10.0,0.0,13.930879897581198,15.42861600670124,205.2233356988433,430.8808937869412,0.0
0.038,6.228175208801664,-1.168399557236846,10.0,0.0,14.196427351981786,15.654155009933262,200.35169734043586,430.8808937869412,0.0
0.039,6.404895489618571,-1.0845312562500289,10.0,0.0,14.449814560392067,15.86612549236809,209.64773540576442,430.8808937869412,0.0
0.04,6.534612624563911,-1.0851225869390002,10.0,0.0,14.699963825590459,16.069735965364643,218.170241886545,430.8808937869412,0.0
0.041,6.621487035821765,-1.1484636683301073,10.0,0.0,14.952420817214799,16.26974130369247,220.68166573712315,430.8808937869412,0.0
0.042,6.6704785161669795,-1.2647840534085386,10.0,0.0,15.211794475054209,16.47047148862455,233.10654395573727,430.8808937869412,0.0
0.043000000000000003,6.709376245503157,-1.3867642159960276,10.0,0.0,15.477558399636717,16.673277185423842,235.10815372853793,430.8808937869412,0.0
0.044,6.744196093263161,-1.5028656568708394,10.0,0.0,15.74857785831126,16.87893749904121,248.8181267625822,430.8808937869412,0.0
0.045,6.750563942850831,-1.6564343609015326,10.0,0.0,16.02879294551472,17.090781462187255,251.61117095327992,430.8808937869412,0.0
0.046,6.764566527560506,-1.7840489455190416,10.0,0.0,16.314672837580048,17.307985931916857,266.60539535969383,430.8808937869412,0.0
0.047,6.752169677737121,-1.9446655565152717,10.0,0.0,16.610076868775216,17.533561623207692,270.0627790167984,430.8808937869412,0.0
0.048,6.7291903821171735,-2.110358990489937,10.0,0.0,16.91511817760721,17.768523902508925,283.13731951482634,430.8808937869412,0.0
0.049,6.714097190323873,-2.246352557911731,10.0,0.0,17.22645394156277,18.011924542904307,294.70561782835244,430.8808937869412,0.0
0.05,6.666841209228205,-2.4219663531358275,10.0,0.0,17.548953774962747,18.267165921658286,300.1294548425776,430.8808937869412,0.0
0.051000000000000004,6.612335516543512,-2.59336894353628,10.0,0.0,17.88182590988993,18.53465621226123,310.75154600411304,430.8808937869412,0.0
0.052000000000000005,6.568447424188529,-2.726701034625408,10.0,0.0,18.22111236450049,18.81296732052879,322.35703405819294,430.8808937869412,0.0
0.053,6.5036136539679195,-2.8764091099274185,10.0,0.0,18.569435851849082,19.104068797231378,330.9557012510771,430.8808937869412,0.0
0.054,6.434362099984388,-3.0149932598739144,10.0,0.0,18.925784313874168,19.407861808234543,339.4707232587175,430.8808937869412,0.0
0.055,6.370891759459199,-3.1253006473392393,10.0,0.0,19.28762520191878,19.723199586257838,348.00092263299223,430.8808937869412,0.0
0.056,6.314459991163816,-3.2071523724558277,10.0,0.0,19.65271639484943,20.048760466390505,356.29964302226927,430.8808937869412,0.0
0.057,6.266092078485367,-3.262894600420583,10.0,0.0,20.01916768432525,20.383030530514645,362.98468703488817,430.8808937869412,0.0
0.058,6.234656406121481,-3.2830044001420036,10.0,0.0,20.38405550695561,20.723492962007192,368.0316803659419,430.8808937869412,0.0
0.059000000000000004,6.228510489334133,-3.2600491726267444,10.0,0.0,20.743774617448285,21.0667596267365,372.35801287012686,430.8808937869412,0.0
0.06,6.247959954981508,-3.201438289803519,10.0,0.0,21.095630838529225,21.40947063565305,373.88739853789605,430.8808937869412,0.0
0.061,6.298571070969623,-3.1064761741463998,10.0,0.0,21.436712814499675,21.747723437683817,371.47602194372377,430.8808937869412,0.0
0.062,6.38094735961424,-2.982369480030801,10.0,0.0,21.76480975788002,22.077703876517536,366.2922057853833,430.8808937869412,0.0
0.063,6.53566146196873,-2.7695519558602215,10.0,0.0,22.070926190088084,22.39130117743337,372.07145994459506,430.8808937869412,0.0
0.064,6.708566607552835,-2.560747003310555,10.0,0.0,22.35695033962817,22.686677966487718,365.1882535794375,430.8808937869412,0.0
0.065,6.897199383751794,-2.3667028673086685,10.0,0.0,22.62465294768497,22.962098937664592,356.7297130485294,430.8808937869412,0.0
0.066,7.167218997264825,-2.0824440278168583,10.0,0.0,22.863799361069702,23.20893224280502,357.7888817172531,430.8808937869412,0.0
0.067,7.423387055578651,-1.859201647307153,10.0,0.0,23.082000390168847,23.42951856849048,345.1266644280509,430.8808937869412,0.0
0.068,7.736929428236853,-1.5824320316278497,10.0,0.0,23.27222771500701,23.617938384108047,342.9584987314189,430.8808937869412,0.0
0.069,8.04132723792414,-1.3546495884062866,10.0,0.0,23.43998591632552,23.77619061530866,334.2677598047511,430.8808937869412,0.0
0.07,8.395997401416553,-1.0747195592463576,10.0,0.0,23.578279041856877,23.89942370363377,322.7417355360636,430.8808937869412,0.0
0.07100000000000001,8.726669482066718,-0.8579631993863083,10.0,0.0,23.694022264374595,23.99133556844291,337.9106389559309,430.8808937869412,0.0
0.07200000000000001,8.91385728821635,-0.8925675486457335,10.0,0.0,23.81335639313859,24.06834663115294,344.8606079910171,430.8808937869412,0.0
0.073,8.941721008651788,-1.1508071676799903,10.0,0.0,23.95651852989837,24.148396869281978,362.43451347602996,430.8808937869412,0.0
0.074,8.927907180207171,-1.4305443375681337,10.0,0.0,24.121558169292424,24.236556455607346,368.59250641149885,430.8808937869412,0.0
0.075,8.859340450140312,-1.7499202918046703,10.0,0.0,24.31124378664675,24.33980824926249,387.10067316750514,430.8808937869412,0.0
0.076,8.767176841935807,-2.0562826706616475,10.0,0.0,24.52279212376306,24.461155754889383,396.7190369145668,430.8808937869412,0.0
0.077,8.62162972262067,-2.4016532593838043,10.0,0.0,24.76024751870129,24.606611890707832,408.83095327273656,430.8808937869412,0.0
0.078,8.47560200325128,-2.694417929744825,10.0,0.0,25.017253395580042,24.77587553037574,428.2762610097064,430.8808937869412,0.0
0.079,8.289593068490031,-3.001970310780605,8.017281449149845,0.0,25.29638816394803,24.754815058801267,436.30330796299694,430.8808937869412,0.0
0.08,7.975759580891895,-3.245052057479114,3.949533830744011,0.0,25.56916687664825,24.368810652993087,441.93892245438326,430.8808937869412,0.0
0.081,7.456950354907911,-3.305730405093991,1.0211462983764301,0.0,25.78031107826827,23.821170086641615,446.6008119174338,430.8808937869412,0.0
0.082,6.807287887526237,-3.226784040975352,-1.4669976144537742,0.0,25.906285919561956,23.171270821151793,446.38911249591354,430.8808937869412,0.0
0.083,6.097535125158974,-3.0425172222905923,-1.516230090783358,0.0,25.93519346376315,22.690001012258946,442.46266305917834,430.8808937869412,0.0
0.084,5.505761403423647,-2.8149878131384902,0.3311769348618707,0.0,25.889897705835057,22.52145361802701,437.72948405971505,430.8808937869412,0.0
0.085,5.153607065555992,-2.6189314408919406,2.6292805318657777,0.0,25.812985877420985,22.632367952787504,431.64771457083884,430.8808937869412,0.0
0.08600000000000001,5.060913242040591,-2.4708200311365562,5.662497068464903,0.0,25.740524973973738,23.041847231494415,426.6471911434101,430.8808937869412,0.0
0.08700000000000001,5.246020958169935,-2.3621797163180593,8.20509580861458,0.0,25.70578876820943,23.631197401027027,428.72731721207384,430.8808937869412,0.0
0.088,5.629157765886859,-2.29640602535066,7.186568540031388,0.0,25.727312497116568,23.980380974396706,422.6673298704327,430.8808937869412,0.0
0.089,5.965386774667449,-2.199845316762957,10.0,0.0,25.771638269435012,24.583307473713838,408.3784618059828,430.8808937869412,0.0
0.09,6.481276898910651,-2.0571520436102952,10.0,0.0,25.857093461492394,25.048853962152453,410.2964379738916,430.8808937869412,0.0
0.091,6.994220940472677,-1.8883844932173113,10.0,0.0,25.96342028537621,25.42512637762356,396.2738043478829,430.8808937869412,0.0
0.092,7.481272482428249,-1.697645153147556,10.0,0.0,26.077448016515,25.72595800473644,391.6446372931021,430.8808937869412,0.0
0.093,7.981626815637512,-1.431214026865531,10.0,0.0,26.182756106760873,25.957940781018447,376.0492992797637,430.8808937869412,0.0
0.094,8.439159636214372,-1.1969060819906514,10.0,0.0,26.27762210293695,26.131931021765478,374.1077818191108,430.8808937869412,0.0
0.095,8.909394580097995,-0.9223239802747196,10.0,0.0,26.352539571830107,26.250858322433995,362.9476946356551,430.8808937869412,0.0
0.096,9.369264395555824,-0.6514674132378344,10.0,0.0,26.40480962254392,26.319501309663444,375.2649079534778,430.8808937869412,0.0
0.097,9.502228794209671,-0.8897382486457928,10.0,0.0,26.48763532447453,26.376479617543993,392.17821169353635,430.8808937869412,0.0
0.098,9.545826335699045,-1.1961325129936937,10.0,0.0,26.599196947724323,26.43257657925225,401.06093973394434,430.8808937869412,0.0
0.099,9.484935135190984,-1.5928293246906882,10.0,0.0,26.74578481146315,26.501354014585438,419.1814813309284,430.8808937869412,0.0
0.1,9.392585323571957,-1.9593182729070717,10.0,0.0,26.920938448548256,26.587462060032202,433.1615392069303,430.8808937869412,0.0
0.101,9.220184395831286,-2.382387880654162,5.704426747725909,0.0,27.130060293839534,26.22800221082793,442.45629031419566,430.8808937869412,0.0
0.10200000000000001,8.805987252831974,-2.638528652313642,0.9412972288206802,0.0,27.306268758486333,25.488249692968907,451.9741208289823,430.8808937869412,0.0
0.10300000000000001,8.091585936334313,-2.7544261222230815,-4.028550298993043,0.0,27.401068438856,24.415483513874747,454.7958642435844,430.8808937869412,0.0
0.10400000000000001,7.134251915051888,-2.693277400217559,-5.678571710860529,0.0,27.371226199159572,23.425832769875782,455.3148449811668,430.8808937869412,0.0
0.105,6.169126396149346,-2.5549828795016243,-6.18240159159399,0.0,27.230802198974192,22.589832270411524,453.2622559197554,430.8808937869412,0.0
0.106,5.321059868312762,-2.3876891514276566,-5.37992068221642,0.0,27.003801183979956,22.000336682587005,449.29133395274494,430.8808937869412,0.0
0.107,4.679911746933166,-2.229375010825639,-3.5785641003692366,0.0,26.72480909351721,21.699260595028328,443.65361499709786,430.8808937869412,0.0
0.108,4.2874933314741295,-2.112611488966353,-0.8874318346472663,0.0,26.43234775734635,21.715158435076887,437.3936162407713,430.8808937869412,0.0
0.109,4.172252332453457,-2.0423492879810117,2.177440318977724,0.0,26.164161131907658,22.019197297482723,431.0863618071996,430.8808937869412,0.0
0.11,4.3141590174623206,-2.024921819112996,5.329012855560991,0.0,25.951982655687782,22.56527572325082,425.11203171494844,430.8808937869412,0.0
0.111,4.68763031675056,-2.032060088875574,8.373866522406487,0.0,25.81658935402926,23.299283860735677,425.8097720462278,430.8808937869412,0.0
0.112,5.2411800004026645,-2.0602460946027157,8.07570757417394,0.0,25.77116527421744,23.825950081123324,423.299919592526,430.8808937869412,0.0
0.113,5.744979201144284,-2.0528106985205348,9.40644354296899,0.0,25.781850470799263,24.394887402295737,408.1899061894032,430.8808937869412,0.0
0.114,6.3062048010166745,-1.9592782295716746,10.0,0.0,25.838146662216584,24.90328653761601,407.8789361154908,430.8808937869412,0.0
0.115,6.876343303313107,-1.8073566262161018,10.0,0.0,25.923877096344583,25.30343683472179,395.98230113924274,430.8808937869412,0.0
0.116,7.390656486325299,-1.6506896210104536,10.0,0.0,26.02533536223129,25.621272080421413,388.8865950371512,430.8808937869412,0.0
0.117,7.92069965934814,-1.3910437025656344,10.0,0.0,26.12143694512242,25.86430801093735,376.01545677731633,430.8808937869412,0.0
0.11800000000000001,8.387357270749627,-1.1789688530761513,10.0,0.0,26.21150018851663,26.04661860116688,372.8409119975962,430.8808937869412,0.0
0.11900000000000001,8.876846000240398,-0.8975400834006346,10.0,0.0,26.28195175042496,26.17052727258291,361.16538330950175,430.8808937869412,0.0
0.12,9.333562730626419,-0.6476436961657188,10.0,0.0,26.333074708384977,26.243746280000607,374.55107522435424,430.8808937869412,0.0
0.121,9.471948201492745,-0.8874107374820124,10.0,0.0,26.415280609707903,26.304100447981117,390.8100797287961,430.8808937869412,0.0
0.122,9.520264418913742,-1.1924581012045765,10.0,0.0,26.5264588772929,26.3627088600882,399.9826981864668,430.8808937869412,0.0
0.123,9.461652125749094,-1.5898318397419589,10.0,0.0,26.67304079693201,26.433504772165424,417.8118933820474,430.8808937869412,0.0
0.124,9.372487375115538,-1.9543245338890287,10.0,0.0,26.848164574785713,26.521101284636845,431.9789191074675,430.8808937869412,0.0
0.125,9.202634178545779,-2.3759125578893205,5.848749122723417,0.0,27.05726538179977,26.178605131262437,441.2291222920257,430.8808937869412,0.0
0.126,8.79851509458671,-2.634394459476337,1.120165245393478,0.0,27.235423621709533,25.455391523463135,450.84790388116943,430.8808937869412,0.0
0.127,8.095854908619625,-2.754519716599316,-3.8888956501206717,0.0,27.334073636116045,24.39185567031828,453.7386786195005,430.8808937869412,0.0
0.128,7.146864969303457,-2.696286187728588,-5.5628608676117945,0.0,27.30889812302043,23.40785513042478,454.3774972987839,430.8808937869412,0.0
0.129,6.186480474026224,-2.5601712089044826,-6.117236242371931,0.0,27.17344979486306,22.5716478492497,452.35162408700376,430.8808937869412,0.0
0.13,5.337993047395402,-2.3949019292683293,-5.31900693948248,0.0,26.951107100432193,21.982595212418445,448.4958509676489,430.8808937869412,0.0
0.131,4.696340109069349,-2.2361941037255995,-3.5672699516121247,0.0,26.67628824374795,21.67701929441364,442.9915863097092,430.8808937869412,0.0
0.132,4.299807950494286,-2.119002107044505,-0.9362445478699541,0.0,26.38708963955216,21.683616515133814,436.7859358874005,430.8808937869412,0.0
0.133,4.177124710333471,-2.047063808556698,2.1075302422797924,0.0,26.120729324981117,21.97866896107339,430.530078497787,430.8808937869412,0.0
0.134,4.310831320673888,-2.0277500885511577,5.238967089978104,0.0,25.90910516024541,22.515665876768168,424.5128529999627,430.8808937869412,0.0
0.135,4.675579504562977,-2.033791406885521,8.311260246760018,0.0,25.773200785769575,23.24565332906452,425.0812465628252,430.8808937869412,0.0
0.136,5.223565866424004,-2.0611966633142824,8.085059937569945,0.0,25.72683975899479,23.776815615139114,423.07792666899365,430.8808937869412,0.0
0.137,5.726969627087091,-2.054954878778771,9.164749555665185,0.0,25.737270414641735,24.321358880956808,408.058821039421,430.8808937869412,0.0
0.138,6.273791743619295,-1.9593407124431712,10.0,0.0,25.7906571908542,24.838455143241394,407.1489049479572,430.8808937869412,0.0
0.139,6.8434659241766,-1.8079446467189495,10.0,0.0,25.87471749010758,25.243632013779447,395.996448577747,430.8808937869412,0.0
0.14,7.356977189891758,-1.656646837419677,10.0,0.0,25.975760648123742,25.565907729765932,388.1719539826901,430.8808937869412,0.0
0.14100000000000001,7.88868918665269,-1.398438487006523,10.0,0.0,26.072037121484477,25.812706982968834,376.13141857662845,430.8808937869412,0.0
0.14200000000000002,8.354816338252428,-1.1900747831521166,10.0,0.0,26.16302794890959,25.998497091479166,372.32699783540136,430.8808937869412,0.0
0.14300000000000002,8.846262583018518,-0.9070178810307586,10.0,0.0,26.234446082248404,26.125409456472692,357.70699536049216,430.8808937869412,0.0
0.14400000000000002,9.304874665738062,-0.654391149701153,10.0,0.0,26.28645526732766,26.201239531649254,374.8047282131477,430.8808937869412,0.0
0.145,9.454967223215352,-0.8785140265657922,10.0,0.0,26.368026325185035,26.262763457320787,388.85931454723067,430.8808937869412,0.0
0.146,9.511472495118959,-1.1730538943257012,10.0,0.0,26.47775082650879,26.321577441876286,399.07025186595854,430.8808937869412,0.0
0.147,9.45325922549352,-1.573439802105922,10.0,0.0,26.62348132733392,26.392450990486434,415.78076546913445,430.8808937869412,0.0
