timestamp,iq,id,iq_ref,id_ref,vq,vd,omega,omega_ref,r
0.0,0.0,0.0,0.0,0.0,0.0,0.0,0.0,329.92191842333375,0.0
0.001,0.0,0.0,10.0,0.0,0.0,1.0999999999999999,6.115472199294103,329.92191842333375,0.0
0.002,0.5307369851907212,-0.2913212625381807,10.0,0.0,0.14204533887919985,1.9316189316290207,13.317801563642547,329.92191842333375,0.0
0.003,1.0842913387634832,-0.6024330830807904,10.0,0.0,0.384357124667687,2.6386968949419622,20.697939467553027,329.92191842333375,0.0
0.004,1.5590443546685477,-0.8700465084428163,10.0,0.0,0.6994718867930164,3.2526109522886295,28.232747544420146,329.92191842333375,0.0
0.005,1.9399447555359186,-1.0838738622210777,10.0,0.0,1.065311453102468,3.7994935661768023,35.92944872443006,329.92191842333375,0.0
0.006,2.239750732602683,-1.2510087368845633,10.0,0.0,1.4655018868449925,4.299102221838433,43.75633668444442,329.92191842333375,0.0
0.007,2.4770151619816017,-1.382020589851471,10.0,0.0,1.8883740978591532,4.765668027847139,51.58766747378032,329.92191842333375,0.0
0.008,2.6680767290418097,-1.4872241871505252,10.0,0.0,2.325877945545995,5.209220346273558,59.45942083902103,329.92191842333375,0.0
0.009000000000000001,2.8266491704841292,-1.5730794701170803,10.0,0.0,2.772378685460125,5.636635464737965,67.35059094018146,329.92191842333375,0.0
0.01,2.962077666392183,-1.645500646948331,10.0,0.0,3.224078639851053,6.052647735211881,75.20908322432116,329.92191842333375,0.0
0.011,3.0811061533574158,-1.7084279320504514,10.0,0.0,3.678407615443203,6.460489925470405,83.0265951655913,329.92191842333375,0.0
0.012,3.188848746459569,-1.7638278597420747,10.0,0.0,4.133552631697047,6.862319393890706,90.74118064793086,329.92191842333375,0.0
0.013000000000000001,3.288205119878689,-1.8140726097274587,10.0,0.0,4.588339016389012,7.259628641949282,98.35820682563939,329.92191842333375,0.0
0.014,3.3820602099432007,-1.8592355758795645,10.0,0.0,5.041843166194517,7.653355107498287,105.90865295623543,329.92191842333375,0.0
0.015,3.4721069852858886,-1.899829032412081,10.0,0.0,5.493383198131427,8.044092747085895,113.37727610343421,329.92191842333375,0.0
0.016,3.5596145800153947,-1.9360338400176071,10.0,0.0,5.94241958510469,8.43218525824161,120.68508583176356,329.92191842333375,0.0
0.017,3.645144415105338,-1.9685384477868613,10.0,0.0,6.388575043274759,8.817838951066484,127.83962377537456,329.92191842333375,0.0
0.018000000000000002,3.730251927866576,-1.9959253041084188,10.0,0.0,6.83136783302799,9.201036292373047,134.85405702603322,329.92191842333375,0.0
0.019,3.81544967906247,-2.018253592643655,10.0,0.0,7.270383321112213,9.581672501020332,141.68976328564074,329.92191842333375,0.0
0.02,3.9014648862453374,-2.0350875541282063,10.0,0.0,7.705189334130692,9.959536942333155,148.3432823300447,329.92191842333375,0.0
0.021,3.9891051824829464,-2.0457889559126508,10.0,0.0,8.135310004560049,10.334315260302239,154.92060212100432,329.92191842333375,0.0
0.022,4.079618141396171,-2.0489696811670974,10.0,0.0,8.560139305503519,10.705547790999272,161.01925282597162,329.92191842333375,0.0
0.023,4.171109372430197,-2.048468292080302,10.0,0.0,8.979521969370257,11.072981092896333,166.534238406907,329.92191842333375,0.0
0.024,4.266936196769627,-2.039517194249811,10.0,0.0,9.392730090169543,11.435983292623375,171.8647834235234,329.92191842333375,0.0
0.025,4.367255527950721,-2.0225841458509217,10.0,0.0,9.79914449451603,11.793929226271104,177.02637022703064,329.92191842333375,0.0
0.026000000000000002,4.4734353073349595,-1.9962166741499119,10.0,0.0,10.197980960389518,12.146045424568259,181.63161391243256,329.92191842333375,0.0
0.027,4.582366840795821,-1.966358349113627,10.0,0.0,10.589124658468391,12.491912978736195,185.74793639675826,329.92191842333375,0.0
0.028,4.700058850757774,-1.9240450691803936,10.0,0.0,10.971384864613876,12.830451341534015,189.43662766964098,329.92191842333375,0.0
0.029,4.820934284790598,-1.879137197786803,10.0,0.0,11.344756153370636,13.161242511022618,192.73598774770625,329.92191842333375,0.0
0.03,4.952016225740939,-1.821000614527957,10.0,0.0,11.707923484756042,13.483081433273819,195.59831968863915,329.92191842333375,0.0
0.031,5.086039273572549,-1.7621311371320891,10.0,0.0,12.061063698547066,13.79562148058647,197.80891551030922,329.92191842333375,0.0
0.032,5.230431844273564,-1.6911110488141978,10.0,0.0,12.40292038074925,14.097678592248165,200.4421589734679,329.92191842333375,0.0
0.033,5.380124186618445,-1.6166151787533525,10.0,0.0,12.733312761073865,14.38869342901298,201.91742172589852,329.92191842333375,0.0
0.034,5.537594793894332,-1.535029134414507,10.0,0.0,13.051537880865839,14.667821176756876,203.18880493813168,329.92191842333375,0.0
0.035,5.698947813469154,-1.4530296333491768,10.0,0.0,13.357649178779205,14.934684535625108,203.60405746232266,329.92191842333375,0.0
0.036000000000000004,5.870474243492053,-1.3603000477825025,10.0,0.0,13.65045542338638,15.188218311291084,204.28541056101804,329.92191842333375,0.0
0.037,6.041188711220851,-1.275010780747051,10.0,0.0,13.930879897581198,15.42861600670124,205.2233356988433,329.92191842333375,0.0
0.038,6.228175208801664,-1.168399557236846,10.0,0.0,14.196427351981786,15.654155009933262,200.35169734043586,329.92191842333375,0.0
0.039,6.404895489618571,-1.0845312562500289,10.0,0.0,14.449814560392067,15.86612549236809,209.64773540576442,329.92191842333375,0.0
0.04,6.534612624563911,-1.0851225869390002,10.0,0.0,14.699963825590459,16.069735965364643,218.170241886545,329.92191842333375,0.0
0.041,6.621487035821765,-1.1484636683301073,10.0,0.0,14.952420817214799,16.26974130369247,220.68166573712315,329.92191842333375,0.0
0.042,6.6704785161669795,-1.2647840534085386,10.0,0.0,15.211794475054209,16.47047148862455,233.10654395573727,329.92191842333375,0.0
0.043000000000000003,6.709376245503157,-1.3867642159960276,10.0,0.0,15.477558399636717,16.673277185423842,235.10815372853793,329.92191842333375,0.0
0.044,6.744196093263161,-1.5028656568708394,10.0,0.0,15.74857785831126,16.87893749904121,248.8181267625822,329.92191842333375,0.0
0.045,6.750563942850831,-1.6564343609015326,10.0,0.0,16.02879294551472,17.090781462187255,251.61117095327992,329.92191842333375,0.0
0.046,6.764566527560506,-1.7840489455190416,10.0,0.0,16.314672837580048,17.307985931916857,266.60539535969383,329.92191842333375,0.0
0.047,6.752169677737121,-1.9446655565152717,10.0,0.0,16.610076868775216,17.533561623207692,270.0627790167984,329.92191842333375,0.0
0.048,6.7291903821171735,-2.110358990489937,10.0,0.0,16.91511817760721,17.768523902508925,283.13731951482634,329.92191842333375,0.0
0.049,6.714097190323873,-2.246352557911731,10.0,0.0,17.22645394156277,18.011924542904307,294.70561782835244,329.92191842333375,0.0
0.05,6.666841209228205,-2.4219663531358275,10.0,0.0,17.548953774962747,18.267165921658286,300.1294548425776,329.92191842333375,0.0
0.051000000000000004,6.612335516543512,-2.59336894353628,10.0,0.0,17.88182590988993,18.53465621226123,310.75154600411304,329.92191842333375,0.0
0.052000000000000005,6.568447424188529,-2.726701034625408,10.0,0.0,18.22111236450049,18.81296732052879,322.35703405819294,329.92191842333375,0.0
0.053,6.5036136539679195,-2.8764091099274185,9.408480860157866,0.0,18.569435851849082,19.039001691848743,330.6834392637446,329.92191842333375,0.0
0.054,6.4033475561834665,-2.998358957420921,5.237663048977916,0.0,18.917447830066084,18.834771139994267,336.40941153642433,329.92191842333375,0.0
0.055,6.085068407711595,-2.9822073735605255,2.309801981507155,0.0,19.207239382576347,18.439416347191013,337.3216995552363,329.92191842333375,0.0
0.056,5.621853841034364,-2.8473426646878677,1.7796601607821403,0.0,19.413842698417866,18.131310010163844,337.1794722429532,329.92191842333375,0.0
0.057,5.181524530934325,-2.679106796100103,1.7781982787275084,0.0,19.551817750516605,17.92361932804902,336.298156184305,329.92191842333375,0.0
0.058,4.829487299408522,-2.511485731576779,2.155093930441879,0.0,19.638470270782285,17.826289162231518,334.9516608400247,329.92191842333375,0.0
0.059000000000000004,4.588204172956915,-2.363275650336385,2.7780441784151186,0.0,19.692097624148445,17.83513360737666,333.03184167695105,329.92191842333375,0.0
0.06,4.466161531403343,-2.228718992082209,3.706854527415781,0.0,19.727927555096944,17.955407838560628,332.22325063260087,329.92191842333375,0.0
0.061,4.461962809043148,-2.112022104053323,4.0881367274982,0.0,19.760710824968363,18.09913201128419,334.18801869371913,329.92191842333375,0.0
0.062,4.515100333148508,-2.0171988448401756,3.063091694235214,0.0,19.795324595491827,18.1093072031876,325.9676838179329,329.92191842333375,0.0
0.063,4.544873258077439,-1.8821579054851842,7.212801478182348,0.0,19.813588237416372,18.585901133018695,321.1897893637561,329.92191842333375,0.0
0.064,4.831136091174268,-1.802225420362345,9.689069995866504,0.0,19.870242744161608,19.216363290773558,326.9365587674802,329.92191842333375,0.0
0.065,5.260323529610681,-1.81145695782245,6.845538890562989,0.0,19.986092809979652,19.40754558677019,318.78370382221846,329.92191842333375,0.0
0.066,5.530670384044334,-1.735762458890445,10.0,0.0,20.10105738855843,19.94117441323674,317.1402107198619,329.92191842333375,0.0
0.067,5.961262698768087,-1.6438944558558717,10.0,0.0,20.248539856581505,20.356730517744857,316.81948958642175,329.92191842333375,0.0
0.068,6.348997893392907,-1.5926881968995836,10.0,0.0,20.41811567979823,20.707134310342987,307.97881363928275,329.92191842333375,0.0
0.069,6.75268668894629,-1.450726041687524,10.0,0.0,20.590670525469342,20.998926890438344,307.65996201037467,329.92191842333375,0.0
0.07,7.098340816010341,-1.3414734163467172,10.0,0.0,20.7645509773475,21.24481063106978,301.9823122504823,329.92191842333375,0.0
0.07100000000000001,7.464234475751776,-1.1539253610897782,10.0,0.0,20.926093998276144,21.44670228152496,293.483714318555,329.92191842333375,0.0
0.07200000000000001,7.781131872658703,-1.0155134809664603,10.0,0.0,21.078322055896432,21.61335929196514,296.2301101556709,329.92191842333375,0.0
0.073,8.109244167565494,-0.8403663583334152,10.0,0.0,21.214110944110313,21.745650028652644,301.54622276939205,329.92191842333375,0.0
0.074,8.246325909909148,-0.9576269098330679,10.0,0.0,21.364200149062853,21.866492711784062,313.50597172541086,329.92191842333375,0.0
0.075,8.285469578340225,-1.1916800363312403,10.0,0.0,21.535937940233076,21.98732506099361,324.0435819937853,329.92191842333375,0.0
0.076,8.308125073600438,-1.4044404059653925,9.159350272016566,0.0,21.723648296602008,22.01867581652673,332.0539228512811,329.92191842333375,0.0
0.077,8.215710982173547,-1.6688481076061819,5.132859798989218,0.0,21.92267993637151,21.64154718239982,339.2163490455022,329.92191842333375,0.0
0.078,7.908367686198522,-1.7782530340130434,1.4587023956569558,0.0,22.07348601363971,20.991025787669265,346.1199553983874,329.92191842333375,0.0
0.079,7.351067343397363,-1.8340709159056137,-2.1550811505361622,0.0,22.149205261452153,20.118092128839034,347.1088479116654,329.92191842333375,0.0
0.08,6.630834742996886,-1.7735629655939973,-2.821396702058488,0.0,22.122845165247128,19.37651946808359,350.33368047217414,329.92191842333375,0.0
0.081,5.9251092035703925,-1.721781806290395,-4.637930602801257,0.0,22.019872964566773,18.583739973549612,350.69900844642916,329.92191842333375,0.0
0.082,5.220072732344923,-1.6498434239942794,-5.0283654901597234,0.0,21.84052462404152,17.90565546623954,349.98951554066264,329.92191842333375,0.0
0.083,4.593610041034312,-1.5860991610136264,-4.87429500844975,0.0,21.605010181732883,17.36015720880154,348.58764293556703,329.92191842333375,0.0
0.084,4.079764053897435,-1.5414903758218907,-4.36001595102428,0.0,21.33422783417002,16.950945756048128,346.4659958566944,329.92191842333375,0.0
0.085,3.6877349244790363,-1.5203103168122825,-3.464633185921574,0.0,21.04771885744896,16.686911271765464,343.94940549368374,329.92191842333375,0.0
0.08600000000000001,3.423086604531626,-1.521354831484206,-2.3466128751197424,0.0,20.76378402717575,16.55984876867616,341.3494098457106,329.92191842333375,0.0
0.08700000000000001,3.2791125574087006,-1.542272067241027,-1.1608899653569527,0.0,20.497826880407466,16.549539011818414,338.309420394835,329.92191842333375,0.0
0.088,3.2384300120979894,-1.579730681925588,0.27522974036584724,0.0,20.261345747887958,16.662815794014442,335.253472866513,329.92191842333375,0.0
0.089,3.299474122112489,-1.6273178139518776,1.7498879600950588,0.0,20.064700405216062,16.881846314297203,331.9511987530692,329.92191842333375,0.0
0.09,3.4488284807125122,-1.6815464458588643,3.3807322135195967,0.0,19.91511192702913,17.208136995618037,329.19101911916033,329.92191842333375,0.0
0.091,3.686895362776087,-1.73157806518674,4.768131023515769,0.0,19.81807255659998,17.59845137411244,329.88927816742273,329.92191842333375,0.0
0.092,3.986564059350801,-1.7728072726614956,4.41932790194368,0.0,19.77380345769212,17.85720515843901,331.13439982037016,329.92191842333375,0.0
0.093,4.22826615214162,-1.7867363350158718,3.7846422614995996,0.0,19.760956551891937,17.995738721967772,321.5898872081367,329.92191842333375,0.0
0.094,4.4151903700308734,-1.719222631839224,8.640218879768302,0.0,19.755681895051683,18.641449879937728,320.77239134580464,329.92191842333375,0.0
0.095,4.849612047360517,-1.712632906786957,9.140462081709625,0.0,19.815456086968457,19.182616300130146,324.13569940182066,329.92191842333375,0.0
0.096,5.289026821739564,-1.7376007454279014,7.516670243916744,0.0,19.926181861213824,19.448032554909982,314.2920634101432,329.92191842333375,0.0
0.097,5.618277734717209,-1.6665334313850455,10.0,0.0,20.044309600581517,19.9555605004997,315.7450949240236,329.92191842333375,0.0
0.098,6.051753978857863,-1.5874746182521289,10.0,0.0,20.193391564267227,20.354925250180692,311.3752424698385,329.92191842333375,0.0
0.099,6.440733898645332,-1.5332608732054527,10.0,0.0,20.362328882728644,20.690808692526936,307.2035387275129,329.92191842333375,0.0
0.1,6.846733209067721,-1.3818841765881724,10.0,0.0,20.531851514401126,20.96922739753611,301.4894973083299,329.92191842333375,0.0
0.101,7.186568203776583,-1.2767944248445424,10.0,0.0,20.702217647681632,21.20343463889786,300.86365108571124,329.92191842333375,0.0
0.10200000000000001,7.54736964688282,-1.0940921833989945,10.0,0.0,20.8599215427287,21.394967960656892,289.00421174816483,329.92191842333375,0.0
0.10300000000000001,7.874733226746255,-0.93535506907202,10.0,0.0,21.00537432028545,21.550716360390812,294.7542795343952,329.92191842333375,0.0
0.10400000000000001,8.129995653391825,-0.8801838456304476,10.0,0.0,21.14737519662462,21.680629966774642,308.1858337517083,329.92191842333375,0.0
0.105,8.235419678056077,-1.03429522942757,10.0,0.0,21.30567131042035,21.802708281707382,312.2578477286158,329.92191842333375,0.0
0.106,8.270967885795331,-1.2563249668377439,10.0,0.0,21.48322780160693,21.925552313921756,327.47836883272913,329.92191842333375,0.0
0.107,8.255842666293821,-1.5178223840030616,6.808253338404969,0.0,21.681857465410374,21.70479471548046,331.177829432184,329.92191842333375,0.0
0.108,8.054491430942166,-1.676294433768114,4.945963928589026,0.0,21.853365354291846,21.375038858493493,343.23741332218583,329.92191842333375,0.0
0.109,7.699130925580226,-1.8195533704566527,-1.2169829654004038,0.0,21.988920631124554,20.473184255088984,342.28113429441754,329.92191842333375,0.0
0.11,7.030228655142231,-1.778530942590938,-0.8624356102270969,0.0,22.014789863501434,19.84572596241172,347.2324724957931,329.92191842333375,0.0
0.111,6.388492585731197,-1.7637417270108506,-3.511210251639472,0.0,21.974109753937743,19.052591683063618,348.70875853236595,329.92191842333375,0.0
0.112,5.691961948605942,-1.707513893071556,-4.437221671016217,0.0,21.85214705781809,18.329530320366295,349.1213884945296,329.92191842333375,0.0
0.113,5.03062480325155,-1.6443678346894584,-4.835531352809992,0.0,21.663690706958036,17.69780665314093,348.3137001739386,329.92191842333375,0.0
0.114,4.445816977572881,-1.5893595127955975,-4.6156050100205634,0.0,21.425488169636946,17.19630020144798,346.6138574321054,329.92191842333375,0.0
0.115,3.97047283652459,-1.5524332385233253,-3.932603029191676,0.0,21.157443433927664,16.84049487291402,344.4128775301036,329.92191842333375,0.0
0.116,3.620624956222245,-1.538194097842153,-2.9770226692584503,0.0,20.8794255962037,16.625479248869674,342.19793370656504,329.92191842333375,0.0
0.117,3.3967579637314778,-1.5432987827989568,-1.992310910321497,0.0,20.60841188659976,16.52405278371205,339.58167666765775,329.92191842333375,0.0
0.11800000000000001,3.278463598734648,-1.5654599931681303,-0.7807799733110903,0.0,20.356743587731497,16.53986258981632,336.50744896567954,329.92191842333375,0.0
0.11900000000000001,3.2599747309496108,-1.6004323682230364,0.6904785722545528,0.0,20.135448448512832,16.67949854787184,333.45856060615347,329.92191842333375,0.0
0.12,3.3403322220385254,-1.6474486076712236,2.179556330189393,0.0,19.95506848161034,16.92310315141949,329.8805755504148,329.92191842333375,0.0
0.121,3.508863226617989,-1.698524088367508,3.968962286787922,0.0,19.822235112234964,17.288518339975752,328.04326752073797,329.92191842333375,0.0
0.122,3.7745386196833874,-1.7456874878115842,4.906402810652289,0.0,19.743903817784634,17.661794087606555,330.25051154191175,329.92191842333375,0.0
0.123,4.070814133742575,-1.7820376644141591,3.79949486887962,0.0,19.714260112974273,17.828841299579747,327.0415226380205,329.92191842333375,0.0
0.124,4.26511193099987,-1.771614986554722,5.432793278678364,0.0,19.702775503511695,18.148541321812463,317.6200131476572,329.92191842333375,0.0
0.125,4.532300216790207,-1.72457014946815,10.0,0.0,19.719338651917724,18.89373490265868,322.56119317720925,329.92191842333375,0.0
0.126,5.035768244882673,-1.7524188544741173,7.864252972769678,0.0,19.812298649489293,19.232751599820055,322.06838286653596,329.92191842333375,0.0
0.127,5.393334775831029,-1.7438539306701384,8.189193483674302,0.0,19.92864368835134,19.56996591537087,311.05265371939237,329.92191842333375,0.0
0.128,5.7479312415507025,-1.6460543021700627,10.0,0.0,20.0564033449853,20.045602669019914,316.4238801743158,329.92191842333375,0.0
0.129,6.1604909426231735,-1.5734336840512955,10.0,0.0,20.211940439612704,20.426508045343404,306.8304074486647,329.92191842333375,0.0
0.13,6.551534349005278,-1.4898546172595752,10.0,0.0,20.381546871243806,20.745987415805985,308.18896055975864,329.92191842333375,0.0
0.131,6.933261211553919,-1.3576951039831315,10.0,0.0,20.55243884096557,21.012399971568886,298.17522390358374,329.92191842333375,0.0
0.132,7.287363231008815,-1.215387943322245,10.0,0.0,20.71855067675153,21.23412651521313,298.0437835800488,329.92191842333375,0.0
0.133,7.619717067672168,-1.070040196863559,10.0,0.0,20.87565880281945,21.417273686233116,291.9253287463352,329.92191842333375,0.0
0.134,7.963350737175411,-0.8790298779563215,10.0,0.0,21.015813175767377,21.56334078747917,295.20729990287805,329.92191842333375,0.0
0.135,8.159099401595284,-0.9157502145509726,10.0,0.0,21.162508161759607,21.69072059950427,311.0141373523937,329.92191842333375,0.0
0.136,8.238597323544617,-1.0998577223272195,10.0,0.0,21.327156252844556,21.81324464415585,315.4626874423423,329.92191842333375,0.0
0.137,8.268694244934265,-1.317559938253142,10.0,0.0,21.509698107960254,21.93746541131739,329.57570089593935,329.92191842333375,0.0
0.138,8.239136495338872,-1.591062460104426,5.443214029108766,0.0,21.714316109524923,21.56982415214571,332.9230811111648,329.92191842333375,0.0
0.139,7.9602893294691945,-1.709529687931027,3.739512294617742,0.0,21.87200455485837,21.14794709871227,343.1015577011834,329.92191842333375,0.0
0.14,7.53073571513119,-1.8189767792376905,-1.4815223931700787,0.0,21.982590958080593,20.27121222276225,343.13012551846913,329.92191842333375,0.0
0.14100000000000001,6.8512351221357175,-1.7725654193329827,-1.6278883727642848,0.0,21.988245512883015,19.599769092938104,347.4667029314666,329.92191842333375,0.0
0.14200000000000002,6.188014817138772,-1.7442962309202112,-3.971624924344356,0.0,21.923544802096412,18.80584759831845,348.4000343044166,329.92191842333375,0.0
0.14300000000000002,5.489388109101284,-1.6810963735615947,-4.623071769630167,0.0,21.779252720501187,18.106843129450613,348.38634850599817,329.92191842333375,0.0
