timestamp,iq,id,iq_ref,id_ref,vq,vd,omega,omega_ref,r
0.0,0.0,0.0,0.0,0.0,0.0,0.0,0.0,383.8453053867371,0.0
0.001,0.0,0.0,10.0,0.0,0.0,1.0999999999999999,6.115472199294103,383.8453053867371,0.0
0.002,0.5307369851907212,-0.2913212625381807,10.0,0.0,0.14204533887919985,1.9316189316290207,13.317801563642547,383.8453053867371,0.0
0.003,1.0842913387634832,-0.6024330830807904,10.0,0.0,0.384357124667687,2.6386968949419622,20.697939467553027,383.8453053867371,0.0
0.004,1.5590443546685477,-0.8700465084428163,10.0,0.0,0.6994718867930164,3.2526109522886295,28.232747544420146,383.8453053867371,0.0
0.005,1.9399447555359186,-1.0838738622210777,10.0,0.0,1.065311453102468,3.7994935661768023,35.92944872443006,383.8453053867371,0.0
0.006,2.239750732602683,-1.2510087368845633,10.0,0.0,1.4655018868449925,4.299102221838433,43.75633668444442,383.8453053867371,0.0
0.007,2.4770151619816017,-1.382020589851471,10.0,0.0,1.8883740978591532,4.765668027847139,51.58766747378032,383.8453053867371,0.0
0.008,2.6680767290418097,-1.4872241871505252,10.0,0.0,2.325877945545995,5.209220346273558,59.45942083902103,383.8453053867371,0.0
0.009000000000000001,2.8266491704841292,-1.5730794701170803,10.0,0.0,2.772378685460125,5.636635464737965,67.35059094018146,383.8453053867371,0.0
0.01,2.962077666392183,-1.645500646948331,10.0,0.0,3.224078639851053,6.052647735211881,75.20908322432116,383.8453053867371,0.0
0.011,3.0811061533574158,-1.7084279320504514,10.0,0.0,3.678407615443203,6.460489925470405,83.0265951655913,383.8453053867371,0.0
0.012,3.188848746459569,-1.7638278597420747,10.0,0.0,4.133552631697047,6.862319393890706,90.74118064793086,383.8453053867371,0.0
0.013000000000000001,3.288205119878689,-1.8140726097274587,10.0,0.0,4.588339016389012,7.259628641949282,98.35820682563939,383.8453053867371,0.0
0.014,3.3820602099432007,-1.8592355758795645,10.0,0.0,5.041843166194517,7.653355107498287,105.90865295623543,383.8453053867371,0.0
0.015,3.4721069852858886,-1.899829032412081,10.0,0.0,5.493383198131427,8.044092747085895,113.37727610343421,383.8453053867371,0.0
0.016,3.5596145800153947,-1.9360338400176071,10.0,0.0,5.94241958510469,8.43218525824161,120.68508583176356,383.8453053867371,0.0
0.017,3.645144415105338,-1.9685384477868613,10.0,0.0,6.388575043274759,8.817838951066484,127.83962377537456,383.8453053867371,0.0
0.018000000000000002,3.730251927866576,-1.9959253041084188,10.0,0.0,6.83136783302799,9.201036292373047,134.85405702603322,383.8453053867371,0.0
0.019,3.81544967906247,-2.018253592643655,10.0,0.0,7.270383321112213,9.581672501020332,141.68976328564074,383.8453053867371,0.0
0.02,3.9014648862453374,-2.0350875541282063,10.0,0.0,7.705189334130692,9.959536942333155,148.3432823300447,383.8453053867371,0.0
0.021,3.9891051824829464,-2.0457889559126508,10.0,0.0,8.135310004560049,10.334315260302239,154.92060212100432,383.8453053867371,0.0
0.022,4.079618141396171,-2.0489696811670974,10.0,0.0,8.560139305503519,10.705547790999272,161.01925282597162,383.8453053867371,0.0
0.023,4.171109372430197,-2.048468292080302,10.0,0.0,8.979521969370257,11.072981092896333,166.534238406907,383.8453053867371,0.0
0.024,4.266936196769627,-2.039517194249811,10.0,0.0,9.392730090169543,11.435983292623375,171.8647834235234,383.8453053867371,0.0
0.025,4.367255527950721,-2.0225841458509217,10.0,0.0,9.79914449451603,11.793929226271104,177.02637022703064,383.8453053867371,0.0
0.026000000000000002,4.4734353073349595,-1.9962166741499119,10.0,0.0,10.197980960389518,12.146045424568259,181.63161391243256,383.8453053867371,0.0
0.027,4.582366840795821,-1.966358349113627,10.0,0.0,10.589124658468391,12.491912978736195,185.74793639675826,383.8453053867371,0.0
0.028,4.700058850757774,-1.9240450691803936,10.0,0.0,10.971384864613876,12.830451341534015,189.43662766964098,383.8453053867371,0.0
0.029,4.820934284790598,-1.879137197786803,10.0,0.0,11.344756153370636,13.161242511022618,192.73598774770625,383.8453053867371,0.0
0.03,4.952016225740939,-1.821000614527957,10.0,0.0,11.707923484756042,13.483081433273819,195.59831968863915,383.8453053867371,0.0
0.031,5.086039273572549,-1.7621311371320891,10.0,0.0,12.061063698547066,13.79562148058647,197.80891551030922,383.8453053867371,0.0
0.032,5.230431844273564,-1.6911110488141978,10.0,0.0,12.40292038074925,14.097678592248165,200.4421589734679,383.8453053867371,0.0
0.033,5.380124186618445,-1.6166151787533525,10.0,0.0,12.733312761073865,14.38869342901298,201.91742172589852,383.8453053867371,0.0
0.034,5.537594793894332,-1.535029134414507,10.0,0.0,13.051537880865839,14.667821176756876,203.18880493813168,383.8453053867371,0.0
0.035,5.698947813469154,-1.4530296333491768,10.0,0.0,13.357649178779205,14.934684535625108,203.60405746232266,383.8453053867371,0.0
0.036000000000000004,5.870474243492053,-1.3603000477825025,10.0,0.0,13.65045542338638,15.188218311291084,204.28541056101804,383.8453053867371,0.0
0.037,6.041188711220851,-1.275010780747051,10.0,0.0,13.930879897581198,15.42861600670124,205.2233356988433,383.8453053867371,0.0
0.038,6.228175208801664,-1.168399557236846,10.0,0.0,14.196427351981786,15.654155009933262,200.35169734043586,383.8453053867371,0.0
0.039,6.404895489618571,-1.0845312562500289,10.0,0.0,14.449814560392067,15.86612549236809,209.64773540576442,383.8453053867371,0.0
0.04,6.534612624563911,-1.0851225869390002,10.0,0.0,14.699963825590459,16.069735965364643,218.170241886545,383.8453053867371,0.0
0.041,6.621487035821765,-1.1484636683301073,10.0,0.0,14.952420817214799,16.26974130369247,220.68166573712315,383.8453053867371,0.0
0.042,6.6704785161669795,-1.2647840534085386,10.0,0.0,15.211794475054209,16.47047148862455,233.10654395573727,383.8453053867371,0.0
0.043000000000000003,6.709376245503157,-1.3867642159960276,10.0,0.0,15.477558399636717,16.673277185423842,235.10815372853793,383.8453053867371,0.0
0.044,6.744196093263161,-1.5028656568708394,10.0,0.0,15.74857785831126,16.87893749904121,248.8181267625822,383.8453053867371,0.0
0.045,6.750563942850831,-1.6564343609015326,10.0,0.0,16.02879294551472,17.090781462187255,251.61117095327992,383.8453053867371,0.0
0.046,6.764566527560506,-1.7840489455190416,10.0,0.0,16.314672837580048,17.307985931916857,266.60539535969383,383.8453053867371,0.0
0.047,6.752169677737121,-1.9446655565152717,10.0,0.0,16.610076868775216,17.533561623207692,270.0627790167984,383.8453053867371,0.0
0.048,6.7291903821171735,-2.110358990489937,10.0,0.0,16.91511817760721,17.768523902508925,283.13731951482634,383.8453053867371,0.0
0.049,6.714097190323873,-2.246352557911731,10.0,0.0,17.22645394156277,18.011924542904307,294.70561782835244,383.8453053867371,0.0
0.05,6.666841209228205,-2.4219663531358275,10.0,0.0,17.548953774962747,18.267165921658286,300.1294548425776,383.8453053867371,0.0
0.051000000000000004,6.612335516543512,-2.59336894353628,10.0,0.0,17.88182590988993,18.53465621226123,310.75154600411304,383.8453053867371,0.0
0.052000000000000005,6.568447424188529,-2.726701034625408,10.0,0.0,18.22111236450049,18.81296732052879,322.35703405819294,383.8453053867371,0.0
0.053,6.5036136539679195,-2.8764091099274185,10.0,0.0,18.569435851849082,19.104068797231378,330.9557012510771,383.8453053867371,0.0
0.054,6.434362099984388,-3.0149932598739144,10.0,0.0,18.925784313874168,19.407861808234543,339.4707232587175,383.8453053867371,0.0
0.055,6.370891759459199,-3.1253006473392393,10.0,0.0,19.28762520191878,19.723199586257838,348.00092263299223,383.8453053867371,0.0
0.056,6.314459991163816,-3.2071523724558277,10.0,0.0,19.65271639484943,20.048760466390505,356.29964302226927,383.8453053867371,0.0
0.057,6.266092078485367,-3.262894600420583,10.0,0.0,20.01916768432525,20.383030530514645,362.98468703488817,383.8453053867371,0.0
0.058,6.234656406121481,-3.2830044001420036,10.0,0.0,20.38405550695561,20.723492962007192,368.0316803659419,383.8453053867371,0.0
0.059000000000000004,6.228510489334133,-3.2600491726267444,10.0,0.0,20.743774617448285,21.0667596267365,372.35801287012686,383.8453053867371,0.0
0.06,6.247959954981508,-3.201438289803519,10.0,0.0,21.095630838529225,21.40947063565305,373.88739853789605,383.8453053867371,0.0
0.061,6.298571070969623,-3.1064761741463998,10.0,0.0,21.436712814499675,21.747723437683817,371.47602194372377,383.8453053867371,0.0
0.062,6.38094735961424,-2.982369480030801,10.0,0.0,21.76480975788002,22.077703876517536,366.2922057853833,383.8453053867371,0.0
0.063,6.53566146196873,-2.7695519558602215,10.0,0.0,22.070926190088084,22.39130117743337,372.07145994459506,383.8453053867371,0.0
0.064,6.708566607552835,-2.560747003310555,10.0,0.0,22.35695033962817,22.686677966487718,365.1882535794375,383.8453053867371,0.0
0.065,6.897199383751794,-2.3667028673086685,10.0,0.0,22.62465294768497,22.962098937664592,356.7297130485294,383.8453053867371,0.0
0.066,7.167218997264825,-2.0824440278168583,10.0,0.0,22.863799361069702,23.20893224280502,357.7888817172531,383.8453053867371,0.0
0.067,7.423387055578651,-1.859201647307153,10.0,0.0,23.082000390168847,23.42951856849048,345.1266644280509,383.8453053867371,0.0
0.068,7.736929428236853,-1.5824320316278497,10.0,0.0,23.27222771500701,23.617938384108047,342.9584987314189,383.8453053867371,0.0
0.069,8.04132723792414,-1.3546495884062866,10.0,0.0,23.43998591632552,23.77619061530866,334.2677598047511,383.8453053867371,0.0
0.07,8.395997401416553,-1.0747195592463576,10.0,0.0,23.578279041856877,23.89942370363377,322.7417355360636,383.8453053867371,0.0
0.07100000000000001,8.726669482066718,-0.8579631993863083,10.0,0.0,23.694022264374595,23.99133556844291,337.9106389559309,383.8453053867371,0.0
0.07200000000000001,8.91385728821635,-0.8925675486457335,10.0,0.0,23.81335639313859,24.06834663115294,344.8606079910171,383.8453053867371,0.0
0.073,8.941721008651788,-1.1508071676799903,10.0,0.0,23.95651852989837,24.148396869281978,362.43451347602996,383.8453053867371,0.0
0.074,8.927907180207171,-1.4305443375681337,10.0,0.0,24.121558169292424,24.236556455607346,368.59250641149885,383.8453053867371,0.0
0.075,8.859340450140312,-1.7499202918046703,10.0,0.0,24.31124378664675,24.33980824926249,387.10067316750514,383.8453053867371,0.0
0.076,8.767176841935807,-2.0562826706616475,5.20951979666422,0.0,24.522792123763065,23.93420293252245,392.055118225058,383.8453053867371,0.0
0.077,8.366723068230746,-2.274334334978707,2.650199139504588,0.0,24.693547154780035,23.39982078993934,399.5375458446144,383.8453053867371,0.0
0.078,7.817145745926615,-2.369587912924483,-1.2479370748523868,0.0,24.802085845367877,22.589199555424987,405.92204064108046,383.8453053867371,0.0
0.079,7.064845992500866,-2.3767212352367277,-4.660951825628857,0.0,24.818540673120378,21.61130125263279,406.6591710975775,383.8453053867371,0.0
0.08,6.191586908214379,-2.27576303136396,-5.257655710985775,0.0,24.724383452169292,20.789866484750828,406.4174275844349,383.8453053867371,0.0
0.081,5.3841378538453775,-2.154545600093646,-5.362505176391462,0.0,24.545174141124107,20.115679874358623,404.55164950043826,383.8453053867371,0.0
0.082,4.704121082770291,-2.038165960646154,-4.636679575530152,0.0,24.3048775141177,19.638607658924496,401.66693848334256,383.8453053867371,0.0
0.083,4.198412496093086,-1.9398085280894712,-3.3725403979483577,0.0,24.031247807081755,19.365837832682253,397.6129138597725,383.8453053867371,0.0
0.084,3.876417236227717,-1.874736261552055,-1.483204170893683,0.0,23.751529713131646,19.318530004279268,392.94041388625766,383.8453053867371,0.0
0.085,3.7499561526570284,-1.8459081019958197,0.7620947308685349,0.0,23.492532270850425,19.486761432838982,388.34901085565747,383.8453053867371,0.0
0.08600000000000001,3.8110844325707793,-1.8527025424977221,3.012759191479425,0.0,23.277293385704063,19.82940135433796,383.1846529141428,383.8453053867371,0.0
0.08700000000000001,4.033731888817474,-1.8807402399247997,5.601544686962694,0.0,23.120858583534208,20.354633217681467,380.8395639030488,383.8453053867371,0.0
0.088,4.4163338609056675,-1.9142413996168093,6.8041466073465715,0.0,23.035995198507532,20.878237028393784,383.73398829996665,383.8453053867371,0.0
0.089,4.8450204406102255,-1.941738217916109,5.358047579755363,0.0,23.01466817147076,21.126567703246714,374.85977744228717,383.8453053867371,0.0
0.09,5.153825682191228,-1.896797924176238,9.885008288039606,0.0,23.015088514128585,21.83067756532099,367.47914092842495,383.8453053867371,0.0
0.091,5.697155164283022,-1.8484562790761476,10.0,0.0,23.081009630704443,22.375119766072135,370.275068180847,383.8453053867371,0.0
0.092,6.2149863952668944,-1.8056826315653338,10.0,0.0,23.19056117092263,22.81903180069883,358.8547506325811,383.8453053867371,0.0
0.093,6.699350924881399,-1.7110110319638125,10.0,0.0,23.323562621100624,23.181405999936935,357.70750854391997,383.8453053867371,0.0
0.094,7.172066359751026,-1.5342726981078862,10.0,0.0,23.46100684545648,23.473687871729503,346.25305160358596,383.8453053867371,0.0
0.095,7.587541961322748,-1.3747125604247934,10.0,0.0,23.598150602749428,23.709510816954207,345.07461281273254,383.8453053867371,0.0
0.096,8.013556687704641,-1.1493564360801893,10.0,0.0,23.72196870653448,23.89275897949944,330.54440143469157,383.8453053867371,0.0
0.097,8.41137959200288,-0.9379564491787704,10.0,0.0,23.830729378879834,24.030563763959677,333.5487690130559,383.8453053867371,0.0
0.098,8.775012156207465,-0.7669090772400877,10.0,0.0,23.925693251392445,24.129442784188903,341.43389510498633,383.8453053867371,0.0
0.099,8.91910381528508,-0.9253153538338768,10.0,0.0,24.040183802821424,24.215716532789973,352.358302762508,383.8453053867371,0.0
0.1,8.940268512508734,-1.224737301589557,10.0,0.0,24.183205025454775,24.30392476157,366.8897359093695,383.8453053867371,0.0
0.101,8.932302355383593,-1.5068279162396572,10.0,0.0,24.348780696836773,24.398702213991374,376.8606445596512,383.8453053867371,0.0
0.10200000000000001,8.846041402885792,-1.858654445722506,9.80819631222646,0.0,24.543156558419312,24.488870125857225,390.1058728128574,383.8453053867371,0.0
0.10300000000000001,8.744279705225512,-2.1537818021601045,3.122976511362146,0.0,24.75605736894349,23.866333868695058,399.35975787693803,383.8453053867371,0.0
0.10400000000000001,8.221919325998387,-2.3236325375302167,-1.6591105455801802,0.0,24.901146780025368,22.924605964784888,401.7243547881726,383.8453053867371,0.0
0.105,7.430048135732998,-2.306586908107267,-3.02019949521182,0.0,24.93398093301782,22.071543105620798,406.03982036187057,383.8453053867371,0.0
0.106,6.595994808890188,-2.251197512171242,-5.399877431812136,0.0,24.87230300753588,21.142743418192687,406.63596537206615,383.8453053867371,0.0
0.107,5.736750968556167,-2.144128270962672,-5.925856536763219,0.0,24.712689183285743,20.352771273948896,405.1600238452412,383.8453053867371,0.0
0.108,4.971418654669874,-2.0255643250478506,-5.401032957935783,0.0,24.478068185397696,19.764419462549153,402.5416607394425,383.8453053867371,0.0
0.109,4.3702697255818785,-1.924259922608045,-4.278814958563476,0.0,24.198116261349245,19.388109535704075,399.237197406098,383.8453053867371,0.0
0.11,3.957992176753706,-1.852061535338167,-2.7805022120848495,0.0,23.901599758445855,19.214366672337803,394.9728503613684,383.8453053867371,0.0
0.111,3.7302599746977108,-1.8146296791588776,-0.7596041394663535,0.0,23.61396509918914,19.256589872278948,390.2879049745784,383.8453053867371,0.0
0.112,3.690349391815738,-1.8097454397312407,1.5184425580502285,0.0,23.35915327807697,19.498316284397397,385.56454124994985,383.8453053867371,0.0
0.113,3.8236343939467106,-1.8355225025207584,3.862932061732371,0.0,23.156879599588983,19.910441795559432,380.68483108197614,383.8453053867371,0.0
0.114,4.111836064314439,-1.8743281784057784,6.334391888766837,0.0,23.020056693785452,20.47917373997429,380.3431424426455,383.8453053867371,0.0
0.115,4.538559876280823,-1.9171710700412772,6.5402578378730745,0.0,22.958113934324818,20.93122325288604,381.9525183569141,383.8453053867371,0.0
0.116,4.941578850082197,-1.937517720526889,5.754497751037013,0.0,22.949380104738488,21.203316420519013,370.1033039012733,383.8453053867371,0.0
0.117,5.272140260697716,-1.86515001272587,10.0,0.0,22.96056506051112,21.889858171254676,367.3873246380258,383.8453053867371,0.0
0.11800000000000001,5.815107588367914,-1.8050550320326684,10.0,0.0,23.033398924981807,22.409988428066818,368.0413837633905,383.8453053867371,0.0
0.11900000000000001,6.316439859856197,-1.766602274726769,10.0,0.0,23.14733357518992,22.835672169057823,354.9675680757638,383.8453053867371,0.0
0.12,6.809767778655274,-1.6393699209398647,10.0,0.0,23.278832103132835,23.180928252617512,355.8044613465361,383.8453053867371,0.0
0.121,7.263073372018618,-1.4812368026453706,10.0,0.0,23.415584067162897,23.45987824453355,342.0455579144303,383.8453053867371,0.0
0.122,7.691989296742181,-1.29252188294284,10.0,0.0,23.547378523997217,23.681960737875027,340.4256421155079,383.8453053867371,0.0
0.123,8.093437265439736,-1.1027892814935334,10.0,0.0,23.669218347519855,23.855144310256293,330.7372956400715,383.8453053867371,0.0
0.124,8.505795776712475,-0.8655474158583094,10.0,0.0,23.77199326672298,23.981848551198674,329.28342914817694,383.8453053867371,0.0
0.125,8.808691993060654,-0.7927402225720477,10.0,0.0,23.87152474549489,24.07696486128156,345.78398322148917,383.8453053867371,0.0
0.126,8.898491157520466,-1.0242790241920976,10.0,0.0,23.996812047508968,24.165673742306247,355.751255721284,383.8453053867371,0.0
0.127,8.933068987830072,-1.2815793817317784,10.0,0.0,24.144429158737275,24.255134895740415,366.8759711965253,383.8453053867371,0.0
0.128,8.878447235057406,-1.6249593699828555,10.0,0.0,24.32142946931838,24.356765816062087,380.00521568600794,383.8453053867371,0.0
0.129,8.815948795221267,-1.9192884796408882,7.815436624021261,0.0,24.519835243053414,24.23196031490629,392.6244149344027,383.8453053867371,0.0
0.13,8.566513065395469,-2.2173871542708756,1.4180459043472302,0.0,24.71576745241209,23.484421541717694,396.1556713042806,383.8453053867371,0.0
0.131,7.966391700240324,-2.2951664246815016,-0.47068593976715256,0.0,24.82292729651491,22.750962263996794,403.19512378152933,383.8453053867371,0.0
0.132,7.240780739452943,-2.3177804105284108,-4.1839103623394465,0.0,24.8477349741744,21.785813522451512,405.18219603646844,383.8453053867371,0.0
0.133,6.380311917924329,-2.2396794584399053,-5.390815396306314,0.0,24.76472976532522,20.911428574076357,405.4060614957975,383.8453053867371,0.0
0.134,5.547288364414129,-2.126982632241048,-5.718355687061434,0.0,24.590970941162453,20.17524912068124,403.8139004936062,383.8453053867371,0.0
0.135,4.823443706734636,-2.0125324869573187,-5.12196113703448,0.0,24.349507506357227,19.635483210429513,401.0223550024228,383.8453053867371,0.0
0.136,4.266902332717337,-1.9150278041602975,-3.8979588875996374,0.0,24.06863281035251,19.308204954225104,397.4626179837866,383.8453053867371,0.0
0.137,3.897930663515551,-1.8492965212670636,-2.254263504252026,0.0,23.776862364037548,19.189154993586587,393.0061799083169,383.8453053867371,0.0
0.138,3.715180714889603,-1.8197323829547223,-0.1176532117329776,0.0,23.499769223904803,19.287835940380877,388.4229118357931,383.8453053867371,0.0
0.139,3.7213290583027896,-1.8218463834979923,2.1282047600383445,0.0,23.260781673907637,19.5721139351904,383.6090971625251,383.8453053867371,0.0
0.14,3.8924168160320005,-1.851956616810782,4.537474178914485,0.0,23.077411664050125,20.027868261961842,379.49026548670923,383.8453053867371,0.0
0.14100000000000001,4.218526463766086,-1.888983060121601,6.640440415822684,0.0,22.961725894286563,20.592782563268067,380.5005247745253,383.8453053867371,0.0
0.14200000000000002,4.654830985695612,-1.9254844346320632,6.1687585780367815,0.0,22.91774501839303,20.971989792006887,379.4890774776425,383.8453053867371,0.0
0.14300000000000002,5.019429110073029,-1.9331127912593382,6.718044505569102,0.0,22.91655705844661,21.338273732226654,367.36563889805643,383.8453053867371,0.0
0.14400000000000002,5.396255641387784,-1.8559111230236074,10.0,0.0,22.94354782144462,21.98552779034103,367.6561150264616,383.8453053867371,0.0
0.145,5.930681652713733,-1.7927140091377325,10.0,0.0,23.02638524810918,22.482917368066758,365.34043996173534,383.8453053867371,0.0
