timestamp,iq,id,iq_ref,id_ref,vq,vd,omega,omega_ref,r
0.0,0.0,0.0,0.0,0.0,0.0,0.0,0.0,106.30569139361334,0.0
0.001,0.0,0.0,10.0,0.0,0.0,1.0999999999999999,6.115472199294103,106.30569139361334,0.0
0.002,0.5307369851907212,-0.2913212625381807,10.0,0.0,0.14204533887919985,1.9316189316290207,13.317801563642547,106.30569139361334,0.0
0.003,1.0842913387634832,-0.6024330830807904,10.0,0.0,0.384357124667687,2.6386968949419622,20.697939467553027,106.30569139361334,0.0
0.004,1.5590443546685477,-0.8700465084428163,10.0,0.0,0.6994718867930164,3.2526109522886295,28.232747544420146,106.30569139361334,0.0
0.005,1.9399447555359186,-1.0838738622210777,10.0,0.0,1.065311453102468,3.7994935661768023,35.92944872443006,106.30569139361334,0.0
0.006,2.239750732602683,-1.2510087368845633,10.0,0.0,1.4655018868449925,4.299102221838433,43.75633668444442,106.30569139361334,0.0
0.007,2.4770151619816017,-1.382020589851471,10.0,0.0,1.8883740978591532,4.765668027847139,51.58766747378032,106.30569139361334,0.0
0.008,2.6680767290418097,-1.4872241871505252,10.0,0.0,2.325877945545995,5.209220346273558,59.45942083902103,106.30569139361334,0.0
0.009000000000000001,2.8266491704841292,-1.5730794701170803,10.0,0.0,2.772378685460125,5.636635464737965,67.35059094018146,106.30569139361334,0.0
0.01,2.962077666392183,-1.645500646948331,10.0,0.0,3.224078639851053,6.052647735211881,75.20908322432116,106.30569139361334,0.0
0.011,3.0811061533574158,-1.7084279320504514,10.0,0.0,3.678407615443203,6.460489925470405,83.0265951655913,106.30569139361334,0.0
0.012,3.188848746459569,-1.7638278597420747,10.0,0.0,4.133552631697047,6.862319393890706,90.74118064793086,106.30569139361334,0.0
0.013000000000000001,3.288205119878689,-1.8140726097274587,9.952786814136795,0.0,4.588339016389011,7.254435191504329,98.32736945806917,106.30569139361334,0.0
0.014,3.3795875719156636,-1.857865255291101,6.239475628423081,0.0,5.041173085885291,7.235767443266031,103.61066847653062,106.30569139361334,0.0
0.015,3.2735573378639318,-1.7880629262660102,3.6247763483631847,0.0,5.438740790959715,7.0263432181178,106.70844692069443,106.30569139361334,0.0
0.016,3.0202671221151265,-1.633427462268601,2.07185957101047,0.0,5.759297425262409,6.759745954675488,108.70354460219832,106.30569139361334,0.0
0.017,2.7100906142605217,-1.440527338919768,1.0503321981726739,0.0,6.001466010862204,6.486611751475563,109.33204518498586,106.30569139361334,0.0
0.018000000000000002,2.392919661854105,-1.253827781521504,0.7058183688651796,0.0,6.173496367501709,6.269113619346324,107.32645500419612,106.30569139361334,0.0
0.019,2.126007503640675,-1.0854032745550526,1.698405823154221,0.0,6.289914175072012,6.229386722238241,107.70146679065104,106.30569139361334,0.0
0.02,1.9827415730269597,-0.9717762921507558,1.4969421759563843,0.0,6.379902789179664,6.186277550648718,109.76228311308864,106.30569139361334,0.0
0.021,1.8826313652111346,-0.8960101321738597,0.4319680975428297,0.0,6.449383616944188,6.050925109029006,108.92188958388228,106.30569139361334,0.0
0.022,1.7580479067901262,-0.8182694835459708,0.8260028802433239,0.0,6.490587308020988,6.002752639577057,106.45177215863411,106.30569139361334,0.0
0.023,1.6828109884941513,-0.7532788553880432,2.059600785217197,0.0,6.516481820433819,6.102303434326456,108.12168976585737,106.30569139361334,0.0
0.024,1.7027144657995212,-0.7303375866670456,1.2064819978831296,0.0,6.547868327802576,6.085367803499157,109.67110609279749,106.30569139361334,0.0
0.025,1.6902374318478228,-0.7096093937241994,0.39811968742122916,0.0,6.572371932815226,5.994447228721738,106.80390876809696,106.30569139361334,0.0
0.026000000000000002,1.6381126460612172,-0.6635947205010688,1.8267361760266567,0.0,6.580478787723755,6.085909464871549,106.4252249081744,106.30569139361334,0.0
0.027,1.6711264614468417,-0.645018719011799,2.014882770842326,0.0,6.595337967324821,6.17129335589062,108.51240383151342,106.30569139361334,0.0
0.028,1.7200797512778054,-0.6517654062235577,0.949226184793813,0.0,6.618177513675873,6.125466361626845,106.60552263126537,106.30569139361334,0.0
0.029,1.711789149327677,-0.6309868402311296,1.8996684725413182,0.0,6.631797296834161,6.2031127380500894,105.8392712348264,106.30569139361334,0.0
0.03,1.7552040942894094,-0.6153275120643822,2.287458372348675,0.0,6.650304998880525,6.302650371282878,107.99983425563454,106.30569139361334,0.0
0.031,1.8148973478190684,-0.6262597313018218,1.1902354333243927,0.0,6.678274831443315,6.2633804806676325,105.89229302863232,106.30569139361334,0.0
0.032,1.8154297738685345,-0.6047894404593749,2.248140030475311,0.0,6.697049637503257,6.358714663116895,106.3238563299218,106.30569139361334,0.0
0.033,1.8704040514126612,-0.5925358156446212,2.0321767304674903,0.0,6.722347185380937,6.4060160526854935,107.59311608762815,106.30569139361334,0.0
0.034,1.906801356869716,-0.5937817445716094,1.3846726046741669,0.0,6.750104705857822,6.378597276422979,104.71341028800862,106.30569139361334,0.0
0.035,1.9119177773372538,-0.5620518202878902,2.8404483155399785,0.0,6.76884184570029,6.523107666090719,106.81471616394266,106.30569139361334,0.0
0.036000000000000004,1.9886148369026624,-0.5666130361260746,1.7847051298696628,0.0,6.8009753435103235,6.515965710896017,105.14221633066221,106.30569139361334,0.0
0.037,2.009413221839473,-0.5545399014180845,2.6325897971394014,0.0,6.82780763904362,6.615055194510772,105.90721869750053,106.30569139361334,0.0
0.038,2.075335220437372,-0.5430251197897801,2.254073340681371,0.0,6.8607197587530315,6.649759866437898,105.84377445516493,106.30569139361334,0.0
0.039,2.109576983267625,-0.5411448441297745,2.2904146312336513,0.0,6.893719451177894,6.688960615743234,104.50250331567435,106.30569139361334,0.0
0.04,2.153015055398454,-0.5141703682021156,2.9790820817583348,0.0,6.924390859695363,6.798495495706626,106.14956157599684,106.30569139361334,0.0
0.041,2.2181736871382416,-0.5232505731301351,2.157114249773252,0.0,6.964217182658782,6.7961078237317505,103.8427051891232,106.30569139361334,0.0
0.042,2.248690742268878,-0.4945423366412306,3.3351723052549773,0.0,6.996573398065313,6.933042325926577,106.19374337153859,106.30569139361334,0.0
0.043000000000000003,2.326776456311112,-0.5033765054569357,2.1607726942680276,0.0,7.040646283085291,6.91027020368585,103.50509278363609,106.30569139361334,0.0
0.044,2.3505776176204796,-0.4714146039448316,3.533103974319051,0.0,7.074430516524708,7.055045748483065,105.85098177394772,106.30569139361334,0.0
0.045,2.4311705237892376,-0.48025834838453396,2.364706575359889,0.0,7.120606312003394,7.037847927393016,103.4820983464895,106.30569139361334,0.0
0.046,2.460564339989133,-0.4470185440984208,3.5773842195602423,0.0,7.156699929909337,7.169638592091171,105.07834659078144,106.30569139361334,0.0
0.047,2.535755063913383,-0.45488491518856067,2.79153354544259,0.0,7.203560951357277,7.18531216004549,103.900790323543,106.30569139361334,0.0
0.048,2.5829843088065934,-0.4244688011332298,3.404360689762508,0.0,7.243878791198871,7.274930656266529,103.78100497322323,106.30569139361334,0.0
0.049,2.6414456041258534,-0.42732766644045006,3.4895002291262958,0.0,7.289745333002753,7.356897714700249,105.10096810166087,106.30569139361334,0.0
0.05,2.716019376989374,-0.41198092829111044,2.841565897827003,0.0,7.337505196620121,7.355512047572633,102.2511305323305,106.30569139361334,0.0
0.051000000000000004,2.747037996868235,-0.38418320373517467,4.307030291105012,0.0,7.377446224843327,7.524055049635048,104.27311831558569,106.30569139361334,0.0
0.052000000000000005,2.8450467013269702,-0.39933421881247977,3.3163621302576964,0.0,7.432192039354521,7.545638941395892,104.41134490078623,106.30569139361334,0.0
0.053,2.90472628054389,-0.37132610922900655,3.2661923025856967,0.0,7.480389259385723,7.5693423593270435,101.65584713346166,106.30569139361334,0.0
0.054,2.941733641586516,-0.3493992183062118,4.690439628849498,0.0,7.52400522230125,7.749190047711425,104.6575193112273,106.30569139361334,0.0
0.055,3.046516419972052,-0.372744651706747,3.2060852607905383,0.0,7.584031624346947,7.726737077787807,106.37666145718472,106.30569139361334,0.0
0.056,3.0650674855160656,-0.3737508892421879,2.345804487176115,0.0,7.635687320990607,7.631751914218143,105.09923482630987,106.30569139361334,0.0
0.057,3.0092569869880146,-0.3655738524853538,2.9965823682865778,0.0,7.671769395194328,7.637943876821632,107.5905344115611,106.30569139361334,0.0
0.058,2.9782435570453205,-0.38403458590152706,1.7380841454814866,0.0,7.7069749092813735,7.5050356395738955,108.16592160680047,106.30569139361334,0.0
0.059000000000000004,2.8986141021545997,-0.3596934722887666,1.4317882457299294,0.0,7.722506918403376,7.376280316453567,107.22458960019902,106.30569139361334,0.0
0.06,2.7946268873353994,-0.3469065989540987,1.8932652669647934,0.0,7.722447049370456,7.326421456972028,109.91931377590936,106.30569139361334,0.0
0.061,2.731002710641538,-0.3485009049878127,0.5097669552866662,0.0,7.717710523689732,7.130701699326543,107.869232405443,106.30569139361334,0.0
0.062,2.6111140634232957,-0.32016871435133654,1.5191722304015487,0.0,7.690743190782182,7.091501337684016,109.16821775988167,106.30569139361334,0.0
0.063,2.5468279212349443,-0.3337034024435124,0.8410542895195303,0.0,7.664324692597638,6.974709841835355,108.6711364381457,106.30569139361334,0.0
0.064,2.4740066408907095,-0.32577884336569496,1.065940499942195,0.0,7.627861846267201,6.9058417877244,108.8289587104825,106.30569139361334,0.0
0.065,2.4129055563062813,-0.3423616880138445,0.9617966906051025,0.0,7.590061837660787,6.832502479761033,109.05373673762432,106.30569139361334,0.0
0.066,2.363748856303482,-0.34918677421763467,0.8219272235940811,0.0,7.549292830154611,6.753169124609986,108.99123463121353,106.30569139361334,0.0
0.067,2.3074716552920114,-0.36674180446679816,0.8263228444234745,0.0,7.506530190349323,6.685273342296007,108.98471663694038,106.30569139361334,0.0
0.068,2.262094282751689,-0.37721975605779645,0.8027915891267807,0.0,7.462231260665678,6.621687218911281,109.32981542580175,106.30569139361334,0.0
0.069,2.2156266349321423,-0.39878140861173517,0.6000009543742078,0.0,7.4182706138769525,6.542615825161597,108.91726825812555,106.30569139361334,0.0
0.07,2.167916270601138,-0.407123298849971,0.7801587695671901,0.0,7.371500883792797,6.49368423572498,109.60782834738627,106.30569139361334,0.0
0.07100000000000001,2.127655693801237,-0.431135604051309,0.40185735539909695,0.0,7.327072902443161,6.405505658317866,108.7145840308507,106.30569139361334,0.0
0.07200000000000001,2.0773870826811804,-0.43676354305520826,0.8243905872945092,0.0,7.27864881172619,6.37709075162188,110.2944186500333,106.30569139361334,0.0
0.073,2.047110627781045,-0.4623058613272718,-0.005413994860985927,0.0,7.234979015031208,6.253998814095556,108.5160701342804,106.30569139361334,0.0
0.074,1.9802953301547395,-0.46254104248979744,0.8616564756087914,0.0,7.183137450998245,6.249571806415486,108.81520845614837,106.30569139361334,0.0
0.075,1.9602089094642667,-0.4842416933339386,0.6869921440494555,0.0,7.138422062381807,6.214060915223593,109.97117129424707,106.30569139361334,0.0
0.076,1.935510669623945,-0.5121781344361149,0.07235592599376717,0.0,7.09748312552062,6.114282175794243,108.5121120702432,106.30569139361334,0.0
0.077,1.8819524101818077,-0.5149095711930867,0.7798213312294018,0.0,7.050681302034859,6.1099993995184185,108.76446945018134,106.30569139361334,0.0
0.078,1.864480448357444,-0.5356413440063887,0.6290548606946555,0.0,7.010384563911988,6.079192085916682,110.25779868721405,106.30569139361334,0.0
0.079,1.8427309944317698,-0.5593702241889226,-0.15713083075770706,0.0,6.973439627333173,5.964680788821992,108.51649869964245,106.30569139361334,0.0
0.08,1.7793343062454152,-0.5582372191621157,0.691411089967799,0.0,6.928376135348,5.965883737134469,108.62975499826042,106.30569139361334,0.0
0.081,1.7619206111151062,-0.5735519877226882,0.6115423046123436,0.0,6.889635241984521,5.946470595403295,110.08989802478308,106.30569139361334,0.0
0.082,1.7450856727976447,-0.5959593651639549,-0.15637127496068293,0.0,6.8551387876172045,5.843130578873027,108.50217995226171,106.30569139361334,0.0
0.083,1.6874444794405838,-0.5960808844398309,0.6155228757135178,0.0,6.813547270379532,5.845434592815052,108.38009200967261,106.30569139361334,0.0
0.084,1.6717538534646643,-0.6094031535813658,0.6558228408474773,0.0,6.777809540672634,5.841212665220881,109.34865442560594,106.30569139361334,0.0
0.085,1.6649810099962603,-0.6273270740275878,0.14111200256088408,0.0,6.747061799734681,5.777406072074335,109.08354949417864,106.30569139361334,0.0
0.08600000000000001,1.6265512393537054,-0.6383238231576531,0.24588588726888227,0.0,6.71403857677571,5.737737146185392,108.36740554958247,106.30569139361334,0.0
0.08700000000000001,1.594423656580945,-0.6429583793155631,0.5833407180072756,0.0,6.6807506172098154,5.7379548195221695,108.35854825143058,106.30569139361334,0.0
0.088,1.5833707727287425,-0.6562635228786708,0.5672407985050509,0.0,6.652230441164546,5.730570931512064,108.78097428294659,106.30569139361334,0.0
0.089,1.5734463462567208,-0.6723911836673647,0.331274953853713,0.0,6.627464885173922,5.696259329055218,108.63207896968434,106.30569139361334,0.0
0.09,1.5512880181733688,-0.6789536980603731,0.38245873472412484,0.0,6.6023053245120185,5.673230377411702,108.62934353967944,106.30569139361334,0.0
0.091,1.5303105809270385,-0.6843801462425295,0.3605899282659162,0.0,6.577890108908062,5.649156893163503,108.63115003795284,106.30569139361334,0.0
0.092,1.5090293979592357,-0.688672127243801,0.3364320926858231,0.0,6.553926919867999,5.624741717684495,108.50824057863582,106.30569139361334,0.0
0.093,1.4873482843106067,-0.6920654257135093,0.37586133049410564,0.0,6.530248875205697,5.607122646035764,108.33411762543687,106.30569139361334,0.0
0.094,1.4690563289465501,-0.6960007395654537,0.44263854477534337,0.0,6.507575679383768,5.59764418223209,108.16545156890999,106.30569139361334,0.0
0.095,1.455806179237771,-0.7016030872337029,0.5083739712858208,0.0,6.486798861868652,5.594683966914254,107.90014349882924,106.30569139361334,0.0
0.096,1.4472054897944397,-0.7086924901544944,0.6250834852740366,0.0,6.46852751541787,5.602936357991971,107.71055782606558,106.30569139361334,0.0
0.097,1.4470783540339247,-0.7150624431768725,0.705827657331342,0.0,6.45353834352319,5.61617911714248,107.88556326834632,106.30569139361334,0.0
0.098,1.4510373439384718,-0.722642161685302,0.6025262174436448,0.0,6.4421424342387335,5.6139913228331455,108.79740976818935,106.30569139361334,0.0
0.099,1.447754869469801,-0.7264819094546597,0.1216857837763663,0.0,6.432013911521334,5.559423945812373,108.20534077414834,106.30569139361334,0.0
0.1,1.4136078201401225,-0.7196787611126683,0.39872378699152344,0.0,6.416654759578285,5.54830638959386,107.17419237233777,106.30569139361334,0.0
0.101,1.3955406087641893,-0.7124480541169208,0.9056129781095634,0.0,6.400992420921575,5.591398027551779,106.95363272871447,106.30569139361334,0.0
0.10200000000000001,1.4106647434801214,-0.7171793040449854,1.009413386570204,0.0,6.391798224488377,5.633119093935213,108.01639307628263,106.30569139361334,0.0
0.10300000000000001,1.4341485101986164,-0.7272202083402054,0.46092619595943196,0.0,6.388752741310034,5.605945065993319,108.38561025270019,106.30569139361334,0.0
0.10400000000000001,1.4218051017420443,-0.7274534757189943,0.25551841915978146,0.0,6.383219654024049,5.565666521583332,106.99895540376257,106.30569139361334,0.0
0.105,1.3956158725972887,-0.7129599029355397,0.9419132035271016,0.0,6.372615395345698,5.609177408055507,106.23048262284419,106.30569139361334,0.0
0.106,1.4084667743781498,-0.711426236169916,1.3269016816939796,0.0,6.367398883566012,5.681086073279969,107.3525504662981,106.30569139361334,0.0
0.107,1.4470827399818926,-0.7223557532246097,0.7553991692401794,0.0,6.371112473030417,5.674447812453828,108.30344105243263,106.30569139361334,0.0
0.108,1.4506542779111191,-0.7236845969348619,0.2599763795847192,0.0,6.373827755103346,5.620056545403,106.70178304540819,106.30569139361334,0.0
0.109,1.4217360769956084,-0.7046900735646492,1.056844466578991,0.0,6.368729696256073,5.66720236821047,105.56880547118116,106.30569139361334,0.0
0.11,1.4361905912474484,-0.6984322266581455,1.6307021129168262,0.0,6.368357607648262,5.762400284502828,106.96772343703923,106.30569139361334,0.0
0.111,1.4872465678616895,-0.7103176985357683,0.9246228095535369,0.0,6.378912499906072,5.759162288186781,107.97742781506763,106.30569139361334,0.0
0.112,1.496896707282834,-0.7098991072244663,0.40305325632479283,0.0,6.387923203543476,5.706440767336407,106.09416596077568,106.30569139361334,0.0
0.113,1.4714898220586596,-0.6873682734084392,1.3467994377991417,0.0,6.388286478925453,5.771811503198148,104.8920315823466,106.30569139361334,0.0
0.114,1.4977573149724184,-0.6794435566271687,1.9620032251263488,0.0,6.3945040898476275,5.885772954730405,107.00528711813209,106.30569139361334,0.0
0.115,1.5610105470671014,-0.6946100969457784,0.8983794999884192,0.0,6.413243651433669,5.859114193961933,107.4758482252972,106.30569139361334,0.0
0.116,1.5619877242388998,-0.689181806722169,0.6513973780890254,0.0,6.426694603456476,5.820988512103407,105.11732928224386,106.30569139361334,0.0
0.117,1.5444470104332777,-0.660938329527092,1.8425404707293904,0.0,6.431935392501928,5.923455305332785,105.42256002314907,106.30569139361334,0.0
0.11800000000000001,1.592698629221169,-0.6568848442050452,1.698756413981425,0.0,6.446735333352297,5.982988735770367,107.44863602323855,106.30569139361334,0.0
0.11900000000000001,1.6343105736319852,-0.6622125042930852,0.6742889676404356,0.0,6.466635200624293,5.922700441021886,105.21539847906438,106.30569139361334,0.0
0.12,1.614813270292692,-0.6403426754531777,1.801810668873012,0.0,6.47605729392097,6.007263846885878,104.18961930732631,106.30569139361334,0.0
0.121,1.6568874358713404,-0.6281536582694555,2.335860975604915,0.0,6.49187142487257,6.1269603069742775,106.51347688872161,106.30569139361334,0.0
0.122,1.7263409429027545,-0.6446572551667181,1.1718543299561812,0.0,6.5200110745683855,6.095668155942649,105.21889080590815,106.30569139361334,0.0
0.123,1.7306211157947173,-0.6314321900815413,1.8300153772399668,0.0,6.540587751063115,6.154580682693664,103.98954143110963,106.30569139361334,0.0
0.124,1.767827254775136,-0.6129647315130479,2.467851564264262,0.0,6.56309884279179,6.26919012095996,106.47193030766438,106.30569139361334,0.0
0.125,1.8322027457592365,-0.6249984788589824,1.2249947368463763,0.0,6.596328155967964,6.224787869067838,104.48284426579688,106.30569139361334,0.0
0.126,1.8302779493766672,-0.6025627928979389,2.2377662290582885,0.0,6.619206049708135,6.312837688611957,104.8836209854571,106.30569139361334,0.0
0.127,1.8800812660074826,-0.5872422866277061,2.0515985733097435,0.0,6.647140237198584,6.358266545728009,106.09549932177869,106.30569139361334,0.0
0.128,1.9129896700252773,-0.5867854947991272,1.4477613258672952,0.0,6.676926849613155,6.334263623944665,103.33269274899257,106.30569139361334,0.0
0.129,1.9183611250659418,-0.5545645197866163,2.858894598706562,0.0,6.697794769274842,6.47664091205356,105.51297928051792,106.30569139361334,0.0
0.13,1.993120976345592,-0.5591232130041771,1.7766784540748393,0.0,6.731637291785308,6.4655422855895015,103.66609853388212,106.30569139361334,0.0
0.131,2.0116950538235048,-0.5447221976803284,2.7265147559900536,0.0,6.759356000780523,6.5729463786701094,104.83646029065554,106.30569139361334,0.0
0.132,2.0796304960594756,-0.5361393795117845,2.1560261886329233,0.0,6.794243148338973,6.592842670042564,104.10985556009767,106.30569139361334,0.0
0.133,2.1075642472983014,-0.5306468408757794,2.5412869122470134,0.0,6.82711285921055,6.65992825409083,103.88661810089808,106.30569139361334,0.0
0.134,2.162343456559994,-0.5092617008356921,2.6770963747739636,0.0,6.8611067173817455,6.728932308956852,104.50443697363876,106.30569139361334,0.0
0.135,2.209989702629433,-0.5121344244116183,2.386199482603367,0.0,6.8991314462161775,6.756385296414334,102.98587072996388,106.30569139361334,0.0
0.136,2.252044288276075,-0.4840075467535069,3.178680811077303,0.0,6.932976317134762,6.870827831102914,104.44596667814228,106.30569139361334,0.0
