timestamp,iq,id,iq_ref,id_ref,vq,vd,omega,omega_ref,r
0.0,0.0,0.0,0.0,0.0,0.0,0.0,0.0,284.0194732672314,0.0
0.001,0.0,0.0,10.0,0.0,0.0,1.0999999999999999,6.115472199294103,284.0194732672314,0.0
0.002,0.5307369851907212,-0.2913212625381807,10.0,0.0,0.14204533887919985,1.9316189316290207,13.317801563642547,284.0194732672314,0.0
0.003,1.0842913387634832,-0.6024330830807904,10.0,0.0,0.384357124667687,2.6386968949419622,20.697939467553027,284.0194732672314,0.0
0.004,1.5590443546685477,-0.8700465084428163,10.0,0.0,0.6994718867930164,3.2526109522886295,28.232747544420146,284.0194732672314,0.0
0.005,1.9399447555359186,-1.0838738622210777,10.0,0.0,1.065311453102468,3.7994935661768023,35.92944872443006,284.0194732672314,0.0
0.006,2.239750732602683,-1.2510087368845633,10.0,0.0,1.4655018868449925,4.299102221838433,43.75633668444442,284.0194732672314,0.0
0.007,2.4770151619816017,-1.382020589851471,10.0,0.0,1.8883740978591532,4.765668027847139,51.58766747378032,284.0194732672314,0.0
0.008,2.6680767290418097,-1.4872241871505252,10.0,0.0,2.325877945545995,5.209220346273558,59.45942083902103,284.0194732672314,0.0
0.009000000000000001,2.8266491704841292,-1.5730794701170803,10.0,0.0,2.772378685460125,5.636635464737965,67.35059094018146,284.0194732672314,0.0
0.01,2.962077666392183,-1.645500646948331,10.0,0.0,3.224078639851053,6.052647735211881,75.20908322432116,284.0194732672314,0.0
0.011,3.0811061533574158,-1.7084279320504514,10.0,0.0,3.678407615443203,6.460489925470405,83.0265951655913,284.0194732672314,0.0
0.012,3.188848746459569,-1.7638278597420747,10.0,0.0,4.133552631697047,6.862319393890706,90.74118064793086,284.0194732672314,0.0
0.013000000000000001,3.288205119878689,-1.8140726097274587,10.0,0.0,4.588339016389012,7.259628641949282,98.35820682563939,284.0194732672314,0.0
0.014,3.3820602099432007,-1.8592355758795645,10.0,0.0,5.041843166194517,7.653355107498287,105.90865295623543,284.0194732672314,0.0
0.015,3.4721069852858886,-1.899829032412081,10.0,0.0,5.493383198131427,8.044092747085895,113.37727610343421,284.0194732672314,0.0
0.016,3.5596145800153947,-1.9360338400176071,10.0,0.0,5.94241958510469,8.43218525824161,120.68508583176356,284.0194732672314,0.0
0.017,3.645144415105338,-1.9685384477868613,10.0,0.0,6.388575043274759,8.817838951066484,127.83962377537456,284.0194732672314,0.0
0.018000000000000002,3.730251927866576,-1.9959253041084188,10.0,0.0,6.83136783302799,9.201036292373047,134.85405702603322,284.0194732672314,0.0
0.019,3.81544967906247,-2.018253592643655,10.0,0.0,7.270383321112213,9.581672501020332,141.68976328564074,284.0194732672314,0.0
0.02,3.9014648862453374,-2.0350875541282063,10.0,0.0,7.705189334130692,9.959536942333155,148.3432823300447,284.0194732672314,0.0
0.021,3.9891051824829464,-2.0457889559126508,10.0,0.0,8.135310004560049,10.334315260302239,154.92060212100432,284.0194732672314,0.0
0.022,4.079618141396171,-2.0489696811670974,10.0,0.0,8.560139305503519,10.705547790999272,161.01925282597162,284.0194732672314,0.0
0.023,4.171109372430197,-2.048468292080302,10.0,0.0,8.979521969370257,11.072981092896333,166.534238406907,284.0194732672314,0.0
0.024,4.266936196769627,-2.039517194249811,10.0,0.0,9.392730090169543,11.435983292623375,171.8647834235234,284.0194732672314,0.0
0.025,4.367255527950721,-2.0225841458509217,10.0,0.0,9.79914449451603,11.793929226271104,177.02637022703064,284.0194732672314,0.0
0.026000000000000002,4.4734353073349595,-1.9962166741499119,10.0,0.0,10.197980960389518,12.146045424568259,181.63161391243256,284.0194732672314,0.0
0.027,4.582366840795821,-1.966358349113627,10.0,0.0,10.589124658468391,12.491912978736195,185.74793639675826,284.0194732672314,0.0
0.028,4.700058850757774,-1.9240450691803936,10.0,0.0,10.971384864613876,12.830451341534015,189.43662766964098,284.0194732672314,0.0
0.029,4.820934284790598,-1.879137197786803,10.0,0.0,11.344756153370636,13.161242511022618,192.73598774770625,284.0194732672314,0.0
0.03,4.952016225740939,-1.821000614527957,10.0,0.0,11.707923484756042,13.483081433273819,195.59831968863915,284.0194732672314,0.0
0.031,5.086039273572549,-1.7621311371320891,10.0,0.0,12.061063698547066,13.79562148058647,197.80891551030922,284.0194732672314,0.0
0.032,5.230431844273564,-1.6911110488141978,10.0,0.0,12.40292038074925,14.097678592248165,200.4421589734679,284.0194732672314,0.0
0.033,5.380124186618445,-1.6166151787533525,10.0,0.0,12.733312761073865,14.38869342901298,201.91742172589852,284.0194732672314,0.0
0.034,5.537594793894332,-1.535029134414507,10.0,0.0,13.051537880865839,14.667821176756876,203.18880493813168,284.0194732672314,0.0
0.035,5.698947813469154,-1.4530296333491768,10.0,0.0,13.357649178779205,14.934684535625108,203.60405746232266,284.0194732672314,0.0
0.036000000000000004,5.870474243492053,-1.3603000477825025,10.0,0.0,13.65045542338638,15.188218311291084,204.28541056101804,284.0194732672314,0.0
0.037,6.041188711220851,-1.275010780747051,10.0,0.0,13.930879897581198,15.42861600670124,205.2233356988433,284.0194732672314,0.0
0.038,6.228175208801664,-1.168399557236846,10.0,0.0,14.196427351981786,15.654155009933262,200.35169734043586,284.0194732672314,0.0
0.039,6.404895489618571,-1.0845312562500289,10.0,0.0,14.449814560392067,15.86612549236809,209.64773540576442,284.0194732672314,0.0
0.04,6.534612624563911,-1.0851225869390002,10.0,0.0,14.699963825590459,16.069735965364643,218.170241886545,284.0194732672314,0.0
0.041,6.621487035821765,-1.1484636683301073,10.0,0.0,14.952420817214799,16.26974130369247,220.68166573712315,284.0194732672314,0.0
0.042,6.6704785161669795,-1.2647840534085386,10.0,0.0,15.211794475054209,16.47047148862455,233.10654395573727,284.0194732672314,0.0
0.043000000000000003,6.709376245503157,-1.3867642159960276,10.0,0.0,15.477558399636717,16.673277185423842,235.10815372853793,284.0194732672314,0.0
0.044,6.744196093263161,-1.5028656568708394,10.0,0.0,15.74857785831126,16.87893749904121,248.8181267625822,284.0194732672314,0.0
0.045,6.750563942850831,-1.6564343609015326,10.0,0.0,16.02879294551472,17.090781462187255,251.61117095327992,284.0194732672314,0.0
0.046,6.764566527560506,-1.7840489455190416,10.0,0.0,16.314672837580048,17.307985931916857,266.60539535969383,284.0194732672314,0.0
0.047,6.752169677737121,-1.9446655565152717,10.0,0.0,16.610076868775216,17.533561623207692,270.0627790167984,284.0194732672314,0.0
0.048,6.7291903821171735,-2.110358990489937,10.0,0.0,16.91511817760721,17.768523902508925,283.13731951482634,284.0194732672314,0.0
0.049,6.714097190323873,-2.246352557911731,5.938121504427579,0.0,17.22645394156277,17.56511790839134,290.1731326994901,284.0194732672314,0.0
0.05,6.445544826334205,-2.319230753220308,2.3586783177731077,0.0,17.492972195520746,17.089455952625727,291.1607681917418,284.0194732672314,0.0
0.051000000000000004,5.98569576503537,-2.2564568871147435,1.7934476224021614,0.0,17.67763852128166,16.709528946311185,294.707032605128,284.0194732672314,0.0
0.052000000000000005,5.514669416306399,-2.1834473416153055,-0.0865601776699112,0.0,17.798442202491156,16.232127129897172,297.414918002412,284.0194732672314,0.0
0.053,5.006402838627932,-2.0864206887603607,-1.5744573236637036,0.0,17.84948249757924,15.720876315244249,297.6000263851575,284.0194732672314,0.0
0.054,4.495834103404578,-1.9583215667293064,-1.8028170462157203,0.0,17.831173044798355,15.306693908642433,297.4079308278021,284.0194732672314,0.0
0.055,4.05280903707569,-1.8421987646705156,-1.840653843143727,0.0,17.761783779629233,14.973847416930091,296.3375659045446,284.0194732672314,0.0
0.056,3.693093460733282,-1.7447161961111357,-1.4286523078881093,0.0,17.656486937284836,14.748183647453843,294.5146244300239,284.0194732672314,0.0
0.057,3.4297568835744943,-1.6762228969057908,-0.6221330822556901,0.0,17.53259396500026,14.644523537881835,292.241052533072,284.0194732672314,0.0
0.058,3.2755304931179596,-1.6335546971858133,0.43243707356186434,0.0,17.4067157100098,14.661109204100812,290.2351350883229,284.0194732672314,0.0
0.059000000000000004,3.2244063324467973,-1.622617959466975,1.3732391777254787,0.0,17.294307487988412,14.760472401867926,287.78957485702136,284.0194732672314,0.0
0.06,3.2565583779769094,-1.6272990315975548,2.5583182774783566,0.0,17.203700693257424,14.955561170972349,286.25488334609446,284.0194732672314,0.0
0.061,3.3710881045912022,-1.6403859592540595,3.3033099321531783,0.0,17.143056206230877,15.179901925237651,286.26080186642747,284.0194732672314,0.0
0.062,3.530488798683189,-1.6480256186521482,3.2779373859947123,0.0,17.111619736590757,15.349114479665628,288.71952250050765,284.0194732672314,0.0
0.063,3.6661235720768817,-1.6514027930837376,2.0015765766218596,0.0,17.10054326195093,15.344790349984969,281.51437539064557,284.0194732672314,0.0
0.064,3.723186495943906,-1.586216437683705,5.629201110318759,0.0,17.08293775096871,15.746672718717356,277.6850141016233,284.0194732672314,0.0
0.065,3.973785511995064,-1.5618163850694793,7.6072263464859615,0.0,17.105248885724375,16.26091756759273,282.8759316284401,284.0194732672314,0.0
0.066,4.3266129672466755,-1.6000536965272159,5.0232029994654726,0.0,17.18120349667851,16.38564119460506,278.57752843832674,284.0194732672314,0.0
0.067,4.518191301269374,-1.5667742696171265,7.226824042811214,0.0,17.25799189916378,16.756181126059822,273.5764795203587,284.0194732672314,0.0
0.068,4.816156555749924,-1.501111497540239,9.831778439263958,0.0,17.35726534388663,17.330994283141344,279.0522127303077,284.0194732672314,0.0
0.069,5.217656770756614,-1.524440886289767,7.143584439658696,0.0,17.50731562032858,17.495317213959957,270.85573036001983,284.0194732672314,0.0
0.07,5.472575833639969,-1.446940754420715,10.0,0.0,17.650034853815093,17.975274436207407,274.8703056629278,284.0194732672314,0.0
0.07100000000000001,5.846499465263006,-1.3926209701923011,9.430197817386293,0.0,17.821277711231268,18.291683055038135,267.6440521793389,284.0194732672314,0.0
0.07200000000000001,6.169159337543994,-1.3325473306083617,10.0,0.0,18.00097224227695,18.630198010006374,271.20013018806,284.0194732672314,0.0
0.073,6.512993519664191,-1.2396857440057518,10.0,0.0,18.186934777584444,18.912537739445806,262.02258319680254,284.0194732672314,0.0
0.074,6.834617213249956,-1.1382275044098604,10.0,0.0,18.372303241815608,19.15329948499882,262.93043637576983,284.0194732672314,0.0
0.075,7.1290308950826935,-1.040321506248808,10.0,0.0,18.553455956777196,19.3593526343539,261.53798666790095,284.0194732672314,0.0
0.076,7.4343048518984505,-0.8913744500413145,10.0,0.0,18.721693598976923,19.53227974183823,265.158688703376,284.0194732672314,0.0
0.077,7.587638467495001,-0.9674884805431107,10.0,0.0,18.900262201622382,19.690923944646638,276.4922818040814,284.0194732672314,0.0
0.078,7.650433608660327,-1.152664694617565,9.260057299981035,0.0,19.096446607527305,19.764792761064427,285.57694715983905,284.0194732672314,0.0
0.079,7.660912623764765,-1.298118194839371,4.70214988317614,0.0,19.294547577367183,19.356398007332768,287.60153883032297,284.0194732672314,0.0
0.08,7.367455900469548,-1.383321561867169,3.6540333923032664,0.0,19.439916810220723,18.9713241158438,293.9975190854838,284.0194732672314,0.0
0.081,7.011837114544758,-1.4044741936598912,0.3562628065403164,0.0,19.533716486466943,18.323204436482666,297.4431850815313,284.0194732672314,0.0
0.082,6.476878976274882,-1.4024218014026872,-1.5008073096264152,0.0,19.55288693768621,17.633265893111997,298.41055049955577,284.0194732672314,0.0
0.083,5.897227504112897,-1.3389207175674191,-2.1284007909619014,0.0,19.494181894147186,17.022185747970205,300.95893605963124,284.0194732672314,0.0
0.084,5.337276969346204,-1.3066970368367121,-3.5719881989236377,0.0,19.377329746405852,16.36962247702897,300.8436059409064,284.0194732672314,0.0
0.085,4.784339696355685,-1.2605394318577243,-3.6825644662979666,0.0,19.202151386604143,15.828126397757451,300.7393355192779,284.0194732672314,0.0
0.08600000000000001,4.300355158044533,-1.2355649710377246,-3.7976278780041897,0.0,18.988055640215048,15.359419804303297,300.0574817684401,284.0194732672314,0.0
0.08700000000000001,3.8880865741363633,-1.2270583195114875,-3.617081087597361,0.0,18.747812822059764,14.977694775464254,298.8377498311385,284.0194732672314,0.0
0.088,3.5525004601932872,-1.2357255926285915,-3.1553978845856525,0.0,18.494460249394237,14.691889438815457,297.3623286576611,284.0194732672314,0.0
0.089,3.2981010633153423,-1.260638317347171,-2.55111585175125,0.0,18.240516127318262,14.4958116426638,295.6571147630653,284.0194732672314,0.0
0.09,3.119933049710257,-1.3002027523468616,-1.8148853194116743,0.0,17.996461598437502,14.385944239676498,294.1175908480401,284.0194732672314,0.0
0.091,3.015394013618485,-1.3465803162148466,-1.1461045377071617,0.0,17.770531669821565,14.338579318597999,292.6249683724472,284.0194732672314,0.0
0.092,2.9666112866478125,-1.39705308790289,-0.48584825096287165,0.0,17.567546471206377,14.343618990096433,290.65380455833434,284.0194732672314,0.0
0.093,2.9620111470018404,-1.447365605246123,0.43339034318252656,0.0,17.39039340879343,14.42238804516341,288.67173865257183,284.0194732672314,0.0
0.094,3.009467803568496,-1.4979284442310077,1.3779006422103772,0.0,17.243891345243377,14.565002401815207,286.4077348072741,284.0194732672314,0.0
0.095,3.1061564207213186,-1.5464590683487227,2.486019949458818,0.0,17.131133663976605,14.780991955932736,284.6128480837884,284.0194732672314,0.0
0.096,3.2576987564778213,-1.5902788770938292,3.3775295630361066,0.0,17.055585578969055,15.035388880171158,284.83191188271934,284.0194732672314,0.0
0.097,3.4464428893825847,-1.6239895871570182,3.2598732774157466,0.0,17.016301974905602,15.215687584669013,286.58770190578036,284.0194732672314,0.0
0.098,3.6012469139877243,-1.638831802330567,2.3562959794997447,0.0,17.000272138266734,15.260670117018662,280.7664250620392,284.0194732672314,0.0
0.099,3.686496942064923,-1.5953514411908019,5.299464883422239,0.0,16.985412276649612,15.624506302037654,276.47663375521216,284.0194732672314,0.0
0.1,3.924431554600355,-1.5738853437103095,7.519788931955959,0.0,17.00649555258464,16.139956531594393,281.4880012109197,284.0194732672314,0.0
0.101,4.271264244218256,-1.615162053527517,5.039419924665297,0.0,17.08177062293654,16.275153984769034,278.25481723428413,284.0194732672314,0.0
0.10200000000000001,4.46471358546268,-1.5844856359965613,6.713658473312563,0.0,17.159250758544136,16.5955180294448,271.94338990689437,284.0194732672314,0.0
0.10300000000000001,4.733675208043905,-1.5132378848114925,9.990132970610816,0.0,17.2534887966035,17.207612207358594,278.9997053162462,284.0194732672314,0.0
0.10400000000000001,5.145029683983446,-1.538732956960027,6.512172945444748,0.0,17.4030293840965,17.31002104741816,270.2405962213802,284.0194732672314,0.0
0.105,5.365190944898458,-1.4576315766381782,10.0,0.0,17.538680694289262,17.81547944453255,274.11024823907985,284.0194732672314,0.0
0.106,5.742861308946343,-1.401457028602557,9.173192179501228,0.0,17.70594452669349,18.118787874718244,267.4949241761857,284.0194732672314,0.0
0.107,6.050156711313383,-1.3524503441006446,10.0,0.0,17.881983829061006,18.477682992965743,269.97881575994273,284.0194732672314,0.0
0.108,6.405160879645562,-1.2545993771237036,10.0,0.0,18.066035173494082,18.774046946927392,261.7852337592626,284.0194732672314,0.0
0.109,6.722647703701352,-1.17526153302224,10.0,0.0,18.25356912569863,19.027806130973378,264.9001808312852,284.0194732672314,0.0
0.11,7.0307555582594174,-1.0673733830180625,10.0,0.0,18.436651283027864,19.244225796074375,258.74781701823474,284.0194732672314,0.0
0.111,7.335840378500509,-0.9273337978503573,10.0,0.0,18.608741718265875,19.426833458717258,263.19603317584466,284.0194732672314,0.0
0.112,7.523677591708312,-0.9571924321896943,10.0,0.0,18.78656872187338,19.590778153369214,276.0943202364818,284.0194732672314,0.0
0.113,7.625817866813728,-1.087640609351292,8.897847679920599,0.0,18.977058207729705,19.625517265578463,278.0525963167867,284.0194732672314,0.0
0.114,7.613246700095401,-1.2404977881981492,7.978378409272581,0.0,19.16748246412286,19.58811554967201,290.3001774513696,284.0194732672314,0.0
0.115,7.506671980270409,-1.4019380363364073,1.7917808001397484,0.0,19.3513539787928,18.913762894210947,289.745719947421,284.0194732672314,0.0
0.116,7.0673399345982935,-1.380462975854443,2.011747085312173,0.0,19.445426417315236,18.458555701048965,296.7386175693587,284.0194732672314,0.0
0.117,6.603651483452606,-1.4005502278122477,-1.6118931686779723,0.0,19.486995240989415,17.704088789434092,296.2795839994192,284.0194732672314,0.0
0.11800000000000001,6.0127342603241996,-1.3306898136480454,-1.5049774910300755,0.0,19.441074973057045,17.137586588461957,299.29313329889646,284.0194732672314,0.0
0.11900000000000001,5.470032170500094,-1.3049730405099316,-3.1644887410853713,0.0,19.34096627091715,16.493315244160605,299.5328826805746,284.0194732672314,0.0
0.12,4.923923646609078,-1.2640530741205194,-3.439497526057858,0.0,19.182197275989648,15.944449226958753,299.7351395619122,284.0194732672314,0.0
0.121,4.435140549937353,-1.24027646770999,-3.6977826296734824,0.0,18.98221235179345,15.45723669383132,299.26600339370935,284.0194732672314,0.0
0.122,4.008384538766527,-1.2297855423659576,-3.6156798468368363,0.0,18.7525884309804,15.052416409007275,298.2033228081775,284.0194732672314,0.0
0.123,3.6532233742425277,-1.2346615658622788,-3.22617804948038,0.0,18.506086145604275,14.7419400984511,296.85457557005725,284.0194732672314,0.0
0.124,3.377157788618717,-1.2556254872008952,-2.6801554534485046,0.0,18.25544372882244,14.520844260776254,295.31556095150523,284.0194732672314,0.0
0.125,3.1776172171104102,-1.2906311687371352,-2.023609021015235,0.0,18.01139695570689,14.382742453807722,293.6802521225712,284.0194732672314,0.0
0.126,3.0487068134332933,-1.3356700420110106,-1.3025623951016039,0.0,17.782548898450813,14.318980553440056,292.2884486614715,284.0194732672314,0.0
0.127,2.983764572985298,-1.3840267434443168,-0.6893504184941559,0.0,17.57507830530851,14.304807430963738,290.5571417545995,284.0194732672314,0.0
0.128,2.9623591253981645,-1.4354885195842313,0.11092635006814522,0.0,17.392114687593846,14.354908063026711,288.4497268239675,284.0194732672314,0.0
0.129,2.990507147585309,-1.4825020710323789,1.1203312798167784,0.0,17.237114367754856,14.481423707782188,286.4273836560933,284.0194732672314,0.0
0.13,3.0711566721031986,-1.5331547078622039,2.1074237598652723,0.0,17.115367298912105,14.669683912110967,284.344978272808,284.0194732672314,0.0
0.131,3.2023094791052027,-1.5781497928838253,3.1453714014521443,0.0,17.029063890370587,14.917626391371618,283.7986884940333,284.0194732672314,0.0
0.132,3.380884755505098,-1.6157465313573778,3.420724138571493,0.0,16.979870760991165,15.133721854185348,285.8321327559528,284.0194732672314,0.0
0.133,3.5557776534917505,-1.6338214697151519,2.385875412724529,0.0,16.95881876666568,15.189249104550871,282.57536856760976,284.0194732672314,0.0
0.134,3.6421264914617413,-1.6128512176468148,4.028698553892259,0.0,16.942937219698198,15.42042802003738,275.5953205906203,284.0194732672314,0.0
0.135,3.8081960143018745,-1.580074441439343,7.602964069153097,0.0,16.948365976113973,15.986237705412796,279.6283560178106,284.0194732672314,0.0
0.136,4.1691111337364495,-1.609333024127541,5.630357528052169,0.0,17.013379037283492,16.20523995530913,281.43404681612503,284.0194732672314,0.0
0.137,4.402508802886621,-1.6044956411433866,4.7533663934060035,0.0,17.09296631937055,16.310035734520543,272.4901928192706,284.0194732672314,0.0
0.138,4.565055126697075,-1.5146126180652355,9.340586196312833,0.0,17.165235692461295,16.910128634758085,275.9111787411446,284.0194732672314,0.0
0.139,4.952698926045861,-1.505971395219376,7.711176180636683,0.0,17.29023571398445,17.191316527837234,274.37143719068035,284.0194732672314,0.0
0.14,5.23687163238173,-1.485571389646036,8.57752731663433,0.0,17.428696934278598,17.541095799173828,268.85127740628116,284.0194732672314,0.0
0.14100000000000001,5.568540363923042,-1.3988348748684172,10.0,0.0,17.578952943107183,17.983909915810255,271.547280390584,284.0194732672314,0.0
0.14200000000000002,5.924390839795977,-1.378396440785498,10.0,0.0,17.757083900115212,18.34741662980162,265.6464950087516,284.0194732672314,0.0
