timestamp,iq,id,iq_ref,id_ref,vq,vd,omega,omega_ref,r
0.0,0.0,0.0,0.0,0.0,0.0,0.0,0.0,366.7796015646354,0.0
0.001,0.0,0.0,10.0,0.0,0.0,1.0999999999999999,6.115472199294103,366.7796015646354,0.0
0.002,0.5307369851907212,-0.2913212625381807,10.0,0.0,0.14204533887919985,1.9316189316290207,13.317801563642547,366.7796015646354,0.0
0.003,1.0842913387634832,-0.6024330830807904,10.0,0.0,0.384357124667687,2.6386968949419622,20.697939467553027,366.7796015646354,0.0
0.004,1.5590443546685477,-0.8700465084428163,10.0,0.0,0.6994718867930164,3.2526109522886295,28.232747544420146,366.7796015646354,0.0
0.005,1.9399447555359186,-1.0838738622210777,10.0,0.0,1.065311453102468,3.7994935661768023,35.92944872443006,366.7796015646354,0.0
0.006,2.239750732602683,-1.2510087368845633,10.0,0.0,1.4655018868449925,4.299102221838433,43.75633668444442,366.7796015646354,0.0
0.007,2.4770151619816017,-1.382020589851471,10.0,0.0,1.8883740978591532,4.765668027847139,51.58766747378032,366.7796015646354,0.0
0.008,2.6680767290418097,-1.4872241871505252,10.0,0.0,2.325877945545995,5.209220346273558,59.45942083902103,366.7796015646354,0.0
0.009000000000000001,2.8266491704841292,-1.5730794701170803,10.0,0.0,2.772378685460125,5.636635464737965,67.35059094018146,366.7796015646354,0.0
0.01,2.962077666392183,-1.645500646948331,10.0,0.0,3.224078639851053,6.052647735211881,75.20908322432116,366.7796015646354,0.0
0.011,3.0811061533574158,-1.7084279320504514,10.0,0.0,3.678407615443203,6.460489925470405,83.0265951655913,366.7796015646354,0.0
0.012,3.188848746459569,-1.7638278597420747,10.0,0.0,4.133552631697047,6.862319393890706,90.74118064793086,366.7796015646354,0.0
0.013000000000000001,3.288205119878689,-1.8140726097274587,10.0,0.0,4.588339016389012,7.259628641949282,98.35820682563939,366.7796015646354,0.0
0.014,3.3820602099432007,-1.8592355758795645,10.0,0.0,5.041843166194517,7.653355107498287,105.90865295623543,366.7796015646354,0.0
0.015,3.4721069852858886,-1.899829032412081,10.0,0.0,5.493383198131427,8.044092747085895,113.37727610343421,366.7796015646354,0.0
0.016,3.5596145800153947,-1.9360338400176071,10.0,0.0,5.94241958510469,8.43218525824161,120.68508583176356,366.7796015646354,0.0
0.017,3.645144415105338,-1.9685384477868613,10.0,0.0,6.388575043274759,8.817838951066484,127.83962377537456,366.7796015646354,0.0
0.018000000000000002,3.730251927866576,-1.9959253041084188,10.0,0.0,6.83136783302799,9.201036292373047,134.85405702603322,366.7796015646354,0.0
0.019,3.81544967906247,-2.018253592643655,10.0,0.0,7.270383321112213,9.581672501020332,141.68976328564074,366.7796015646354,0.0
0.02,3.9014648862453374,-2.0350875541282063,10.0,0.0,7.705189334130692,9.959536942333155,148.3432823300447,366.7796015646354,0.0
0.021,3.9891051824829464,-2.0457889559126508,10.0,0.0,8.135310004560049,10.334315260302239,154.92060212100432,366.7796015646354,0.0
0.022,4.079618141396171,-2.0489696811670974,10.0,0.0,8.560139305503519,10.705547790999272,161.01925282597162,366.7796015646354,0.0
0.023,4.171109372430197,-2.048468292080302,10.0,0.0,8.979521969370257,11.072981092896333,166.534238406907,366.7796015646354,0.0
0.024,4.266936196769627,-2.039517194249811,10.0,0.0,9.392730090169543,11.435983292623375,171.8647834235234,366.7796015646354,0.0
0.025,4.367255527950721,-2.0225841458509217,10.0,0.0,9.79914449451603,11.793929226271104,177.02637022703064,366.7796015646354,0.0
0.026000000000000002,4.4734353073349595,-1.9962166741499119,10.0,0.0,10.197980960389518,12.146045424568259,181.63161391243256,366.7796015646354,0.0
0.027,4.582366840795821,-1.966358349113627,10.0,0.0,10.589124658468391,12.491912978736195,185.74793639675826,366.7796015646354,0.0
0.028,4.700058850757774,-1.9240450691803936,10.0,0.0,10.971384864613876,12.830451341534015,189.43662766964098,366.7796015646354,0.0
0.029,4.820934284790598,-1.879137197786803,10.0,0.0,11.344756153370636,13.161242511022618,192.73598774770625,366.7796015646354,0.0
0.03,4.952016225740939,-1.821000614527957,10.0,0.0,11.707923484756042,13.483081433273819,195.59831968863915,366.7796015646354,0.0
0.031,5.086039273572549,-1.7621311371320891,10.0,0.0,12.061063698547066,13.79562148058647,197.80891551030922,366.7796015646354,0.0
0.032,5.230431844273564,-1.6911110488141978,10.0,0.0,12.40292038074925,14.097678592248165,200.4421589734679,366.7796015646354,0.0
0.033,5.380124186618445,-1.6166151787533525,10.0,0.0,12.733312761073865,14.38869342901298,201.91742172589852,366.7796015646354,0.0
0.034,5.537594793894332,-1.535029134414507,10.0,0.0,13.051537880865839,14.667821176756876,203.18880493813168,366.7796015646354,0.0
0.035,5.698947813469154,-1.4530296333491768,10.0,0.0,13.357649178779205,14.934684535625108,203.60405746232266,366.7796015646354,0.0
0.036000000000000004,5.870474243492053,-1.3603000477825025,10.0,0.0,13.65045542338638,15.188218311291084,204.28541056101804,366.7796015646354,0.0
0.037,6.041188711220851,-1.275010780747051,10.0,0.0,13.930879897581198,15.42861600670124,205.2233356988433,366.7796015646354,0.0
0.038,6.228175208801664,-1.168399557236846,10.0,0.0,14.196427351981786,15.654155009933262,200.35169734043586,366.7796015646354,0.0
0.039,6.404895489618571,-1.0845312562500289,10.0,0.0,14.449814560392067,15.86612549236809,209.64773540576442,366.7796015646354,0.0
0.04,6.534612624563911,-1.0851225869390002,10.0,0.0,14.699963825590459,16.069735965364643,218.170241886545,366.7796015646354,0.0
0.041,6.621487035821765,-1.1484636683301073,10.0,0.0,14.952420817214799,16.26974130369247,220.68166573712315,366.7796015646354,0.0
0.042,6.6704785161669795,-1.2647840534085386,10.0,0.0,15.211794475054209,16.47047148862455,233.10654395573727,366.7796015646354,0.0
0.043000000000000003,6.709376245503157,-1.3867642159960276,10.0,0.0,15.477558399636717,16.673277185423842,235.10815372853793,366.7796015646354,0.0
0.044,6.744196093263161,-1.5028656568708394,10.0,0.0,15.74857785831126,16.87893749904121,248.8181267625822,366.7796015646354,0.0
0.045,6.750563942850831,-1.6564343609015326,10.0,0.0,16.02879294551472,17.090781462187255,251.61117095327992,366.7796015646354,0.0
0.046,6.764566527560506,-1.7840489455190416,10.0,0.0,16.314672837580048,17.307985931916857,266.60539535969383,366.7796015646354,0.0
0.047,6.752169677737121,-1.9446655565152717,10.0,0.0,16.610076868775216,17.533561623207692,270.0627790167984,366.7796015646354,0.0
0.048,6.7291903821171735,-2.110358990489937,10.0,0.0,16.91511817760721,17.768523902508925,283.13731951482634,366.7796015646354,0.0
0.049,6.714097190323873,-2.246352557911731,10.0,0.0,17.22645394156277,18.011924542904307,294.70561782835244,366.7796015646354,0.0
0.05,6.666841209228205,-2.4219663531358275,10.0,0.0,17.548953774962747,18.267165921658286,300.1294548425776,366.7796015646354,0.0
0.051000000000000004,6.612335516543512,-2.59336894353628,10.0,0.0,17.88182590988993,18.53465621226123,310.75154600411304,366.7796015646354,0.0
0.052000000000000005,6.568447424188529,-2.726701034625408,10.0,0.0,18.22111236450049,18.81296732052879,322.35703405819294,366.7796015646354,0.0
0.053,6.5036136539679195,-2.8764091099274185,10.0,0.0,18.569435851849082,19.104068797231378,330.9557012510771,366.7796015646354,0.0
0.054,6.434362099984388,-3.0149932598739144,10.0,0.0,18.925784313874168,19.407861808234543,339.4707232587175,366.7796015646354,0.0
0.055,6.370891759459199,-3.1253006473392393,10.0,0.0,19.28762520191878,19.723199586257838,348.00092263299223,366.7796015646354,0.0
0.056,6.314459991163816,-3.2071523724558277,10.0,0.0,19.65271639484943,20.048760466390505,356.29964302226927,366.7796015646354,0.0
0.057,6.266092078485367,-3.262894600420583,10.0,0.0,20.01916768432525,20.383030530514645,362.98468703488817,366.7796015646354,0.0
0.058,6.234656406121481,-3.2830044001420036,7.6707103736347175,0.0,20.38405550695561,20.467271103107013,366.7435887764282,366.7796015646354,0.0
0.059000000000000004,6.101313752836937,-3.2069001710543024,5.7916196307467604,0.0,20.712306041385297,20.41052265038682,364.2653164555807,366.7796015646354,0.0
0.06,5.8963593562101515,-3.03470727405058,7.055898642261063,0.0,20.983876500720466,20.57134725217317,359.53001616339475,366.7796015646354,0.0
0.061,5.823838002465682,-2.836106468285009,9.496044642366453,0.0,21.22424821463659,21.004947514556477,364.94372308686644,366.7796015646354,0.0
0.062,5.94693561551732,-2.6996903880601937,6.807549965408297,0.0,21.470923022632352,21.084823096653487,366.44520466103427,366.7796015646354,0.0
0.063,5.97858861685799,-2.510580273005521,6.060153147360396,0.0,21.681479956184464,21.12379904410773,353.8305512519283,366.7796015646354,0.0
0.064,6.013571299224667,-2.2519487537586995,10.0,0.0,21.848320425160196,21.617258647095667,353.9802857750372,366.7796015646354,0.0
0.065,6.309597489059908,-2.0605804740465503,10.0,0.0,22.029358611961275,22.00644481409778,353.58869178089424,366.7796015646354,0.0
0.066,6.624858319356065,-1.9334679155246204,10.0,0.0,22.21914289814217,22.34309775364556,340.91928169966445,366.7796015646354,0.0
0.067,6.992360789921094,-1.7320617461712666,10.0,0.0,22.402730496616094,22.627791164397458,342.29279520903964,366.7796015646354,0.0
0.068,7.337935109556156,-1.552421753839551,10.0,0.0,22.578682338854875,22.868035843467357,330.75280408837847,366.7796015646354,0.0
0.069,7.703587124648498,-1.328025569488815,10.0,0.0,22.738176284421495,23.06508526039033,327.1572204472508,366.7796015646354,0.0
0.07,8.040751451849308,-1.1432124678155742,10.0,0.0,22.883340297783207,23.22494757433651,322.0420362210012,366.7796015646354,0.0
0.07100000000000001,8.412868983948732,-0.8986715889944388,10.0,0.0,23.004922775549762,23.345778772965314,322.22329158106527,366.7796015646354,0.0
0.07200000000000001,8.677012317057233,-0.8328248544107506,10.0,0.0,23.12163239338656,23.44135050818695,332.8313168226474,366.7796015646354,0.0
0.073,8.742009885892164,-1.061410625091691,10.0,0.0,23.262031125082576,23.534527732429353,347.807284017104,366.7796015646354,0.0
0.074,8.768047139755327,-1.3027401995203167,10.0,0.0,23.42196810151357,23.630212985180503,353.8338378389847,366.7796015646354,0.0
0.075,8.71914458160818,-1.6164987828463744,10.0,0.0,23.607580053998166,23.737963064234464,371.28818818711267,366.7796015646354,0.0
0.076,8.656438683912883,-1.9009303031709588,4.419722512017402,0.0,23.81355570054213,23.24607743011841,375.3728369177444,366.7796015646354,0.0
0.077,8.240231769100937,-2.0819417420462942,2.291465793170449,0.0,23.96681216209314,22.69082816152739,382.5200032763927,366.7796015646354,0.0
0.078,7.692834074512357,-2.157657250345424,-1.4395214032712698,0.0,24.055736642154105,21.873355118787067,388.3683170223626,366.7796015646354,0.0
0.079,6.9561241401488205,-2.159754051685449,-4.579565430833494,0.0,24.053494862999344,20.913990973093547,389.137085544058,366.7796015646354,0.0
0.08,6.113409876716432,-2.0702383764285006,-5.187524531475416,0.0,23.94567315489904,20.10019547289285,389.3442494925275,366.7796015646354,0.0
0.081,5.331286010433768,-1.9705444266105419,-5.516752984989109,0.0,23.7571828898613,19.404468295678868,387.9496142773142,366.7796015646354,0.0
0.082,4.655703215223001,-1.8769331829256959,-5.031135504509233,0.0,23.50866863629878,18.882667885880792,385.39652790875743,366.7796015646354,0.0
0.083,4.130900491145269,-1.8012750916254474,-3.9407615836720726,0.0,23.225439489506527,18.554253519890004,382.4238817487967,366.7796015646354,0.0
0.084,3.776545272364198,-1.7526233581751889,-2.6108813055333195,0.0,22.933096711027886,18.399471814031106,378.5608423648671,366.7796015646354,0.0
0.085,3.5813507135371525,-1.734322768689874,-0.7971740215708278,0.0,22.652983492302337,18.43507084864788,374.32538855848054,366.7796015646354,0.0
0.08600000000000001,3.5495133533313385,-1.74269606078084,1.2450950116839934,0.0,22.405545566935885,18.647161342783196,370.1671447088872,366.7796015646354,0.0
0.08700000000000001,3.6680575031223626,-1.7772595895623013,3.290341505038157,0.0,22.207778738764667,19.004495188825672,365.68361461149163,366.7796015646354,0.0
0.088,3.9184330942177596,-1.8212673520463176,5.5430664232673665,0.0,22.07001719660024,19.507310369995878,364.67057371338717,366.7796015646354,0.0
0.089,4.294161137148346,-1.8649617944508425,6.070677150832081,0.0,22.00067963780893,19.942751480871024,367.0512134578846,366.7796015646354,0.0
0.09,4.6677076370779815,-1.891611189376941,4.877641159650866,0.0,21.984314435002098,20.153871823910997,357.27083263884606,366.7796015646354,0.0
0.091,4.940464810364974,-1.8367488611508531,9.862919258428038,0.0,21.98439643672582,20.876286739081316,353.38857661433474,366.7796015646354,0.0
0.092,5.467869011150627,-1.8091109752053,10.0,0.0,22.054220185622434,21.436407573138567,356.12561828193674,366.7796015646354,0.0
0.093,5.970665097201002,-1.7994094840197266,10.0,0.0,22.172282857864165,21.89609436380635,345.2405664880275,366.7796015646354,0.0
0.094,6.445947391981382,-1.725626844993799,10.0,0.0,22.316488866567504,22.27436565106619,345.3538445841965,366.7796015646354,0.0
0.095,6.897240840274664,-1.5825307926526544,10.0,0.0,22.46909866375923,22.584340954105922,335.0470859965239,366.7796015646354,0.0
0.096,7.29832024183147,-1.4382714501518539,10.0,0.0,22.623007444384072,22.838973906872535,334.2172591024527,366.7796015646354,0.0
0.097,7.700771879594583,-1.2369696410307491,10.0,0.0,22.76628803664478,23.043275556286595,320.85773313351467,366.7796015646354,0.0
0.098,8.077331974249539,-1.0421696021522635,10.0,0.0,22.896255748435408,23.20407800595091,318.3302634335205,366.7796015646354,0.0
0.099,8.434932233132235,-0.8592157251512917,10.0,0.0,23.011130007932078,23.326226554297314,325.0092794325536,366.7796015646354,0.0
0.1,8.670638838137814,-0.8632959427364115,10.0,0.0,23.129010059018082,23.425295949796944,335.1266073233091,366.7796015646354,0.0
0.101,8.727165201491657,-1.1098128128052127,10.0,0.0,23.27208509807718,23.52238557693635,349.3807034842175,366.7796015646354,0.0
0.10200000000000001,8.746176374344518,-1.3609646571034113,10.0,0.0,23.43572313011643,23.622547779887466,356.8646078457321,366.7796015646354,0.0
0.10300000000000001,8.689985928890051,-1.6824077426596808,10.0,0.0,23.625860800215058,23.735428626475894,372.72575692072905,366.7796015646354,0.0
0.10400000000000001,8.625359565760869,-1.9633159940242235,3.0700693851083454,0.0,23.835958264757217,23.100289783266934,377.44229260777405,366.7796015646354,0.0
0.105,8.129811815873817,-2.113390594813136,0.6051746311544601,0.0,23.97523122209739,22.401699442903364,382.8547937510554,366.7796015646354,0.0
0.106,7.486463084389862,-2.139480279561161,-2.261827862350419,0.0,24.032086968981584,21.561986988528528,387.70474611157806,366.7796015646354,0.0
0.107,6.713534866172905,-2.114171158355966,-4.896055488081171,0.0,23.99624099555982,20.629424957073287,388.2962119183323,366.7796015646354,0.0
0.108,5.879332039663119,-2.0209898905682997,-5.406954494995254,0.0,23.86072656809012,19.840710945652063,387.9485281892008,366.7796015646354,0.0
0.109,5.121826368553647,-1.9227071708199455,-5.444801896675148,0.0,23.650012895730832,19.193246264067284,386.21411957536367,366.7796015646354,0.0
0.11,4.48735863094982,-1.8370563558172273,-4.771942769863879,0.0,23.38718535999616,18.726066055796412,383.5705409644728,366.7796015646354,0.0
0.111,4.011378413704218,-1.7720504347929258,-3.6180628584168186,0.0,23.09762841384524,18.44553246029121,380.4515401331277,366.7796015646354,0.0
0.112,3.702040952782591,-1.7353538143122071,-2.195281828429196,0.0,22.805587233716256,18.338330962434526,376.5138076971148,366.7796015646354,0.0
0.113,3.548810846384638,-1.7288916918294586,-0.32375767174755055,0.0,22.531686154546197,18.418047280380275,372.3387685697147,366.7796015646354,0.0
0.114,3.5561047527367626,-1.7453274368034215,1.708170221901712,0.0,22.295019368259684,18.664864054586335,368.1852181287454,366.7796015646354,0.0
0.115,3.705952883003267,-1.7858257426418918,3.770889276745261,0.0,22.110991394214928,19.053501934573635,364.09903289210837,366.7796015646354,0.0
0.116,3.984390944162041,-1.830710067537733,5.840787581789057,0.0,21.98876229825353,19.562805146739322,364.1530518283958,366.7796015646354,0.0
0.117,4.3713480856810225,-1.8731957406536461,5.840043611007735,0.0,21.933911013898637,19.948393403300408,366.10298495235753,366.7796015646354,0.0
0.11800000000000001,4.71925282407274,-1.8924734165172463,4.87184321514965,0.0,21.92479937124917,20.14904315212542,354.3091008721783,366.7796015646354,0.0
0.11900000000000001,4.988477172341225,-1.8152885319763603,10.0,0.0,21.927980753689027,20.8763603811695,352.78608552891114,366.7796015646354,0.0
0.12,5.516658718441868,-1.7839247901619057,10.0,0.0,22.00089755803512,21.424574731116262,354.59602520983,366.7796015646354,0.0
0.121,6.012990182743241,-1.775351576472527,10.0,0.0,22.12071470085359,21.875944680890804,342.70812241076334,366.7796015646354,0.0
0.122,6.492340806676779,-1.6876196586343577,10.0,0.0,22.26412234554237,22.24639409598007,343.60030555493995,366.7796015646354,0.0
0.123,6.935517370567717,-1.552577885976834,10.0,0.0,22.416256891457245,22.550183418240618,332.1988142196796,366.7796015646354,0.0
0.124,7.341258395567403,-1.3980339542736573,10.0,0.0,22.56790750024591,22.798607515755542,332.0411859690541,366.7796015646354,0.0
0.125,7.734135390407927,-1.210694499756694,10.0,0.0,22.71017355722737,22.998195205215374,320.27571260012104,366.7796015646354,0.0
0.126,8.1184363570641,-1.0023145702798928,10.0,0.0,22.83712337975939,23.153706395043603,313.6596115588185,366.7796015646354,0.0
0.127,8.46894548397829,-0.8298740967044806,10.0,0.0,22.950044686222512,23.271648453848215,329.7428770337601,366.7796015646354,0.0
0.128,8.666288130942874,-0.8920173038785424,10.0,0.0,23.072028225444676,23.370885837521712,333.9753061701462,366.7796015646354,0.0
0.129,8.72038559041723,-1.1333468751454636,10.0,0.0,23.217661969879593,23.468420542677535,350.5002006235652,366.7796015646354,0.0
0.13,8.7103880176223,-1.4256530538688335,10.0,0.0,23.388226194333505,23.57240585936346,357.65571016547636,366.7796015646354,0.0
0.131,8.672843055438081,-1.7069973449962208,10.0,0.0,23.580157338247393,23.6870790369385,375.73907293916074,366.7796015646354,0.0
0.132,8.58164673072343,-2.025978749650923,1.1640351099770259,0.0,23.796637197128153,22.84717801934167,375.3418877899009,366.7796015646354,0.0
0.133,7.998020201827304,-2.095469052674978,1.277004822354284,0.0,23.91193308764723,22.276988361585744,382.58111536412406,366.7796015646354,0.0
0.134,7.379056956985549,-2.1423833625482596,-2.5006241027521776,0.0,23.96314609439464,21.420928071415474,386.92514475545954,366.7796015646354,0.0
0.135,6.611855437807995,-2.1117887906274246,-4.8740942303281605,0.0,23.91979722544026,20.51049222081579,387.6257957661166,366.7796015646354,0.0
0.136,5.792077108426808,-2.020019804503404,-5.432881677671499,0.0,23.779951015566922,19.731536751488793,387.0620562907731,366.7796015646354,0.0
0.137,5.046689622786595,-1.9206709264700634,-5.353836487261136,0.0,23.566183193025772,19.104569893652332,385.19008489540397,366.7796015646354,0.0
0.138,4.428979259030217,-1.8352410972879323,-4.601955622884249,0.0,23.302691674525402,18.661333647679562,382.50297952107417,366.7796015646354,0.0
0.139,3.9726241220584715,-1.7719394806061604,-3.4156367152837355,0.0,23.015116803734607,18.40307010707565,379.32487824504125,366.7796015646354,0.0
0.14,3.6821529574013314,-1.7378942940623314,-1.9520388440713337,0.0,22.72736111160951,18.318396286952975,375.3584559843528,366.7796015646354,0.0
0.14100000000000001,3.5477739269978805,-1.7334449901308093,-0.05461625792429192,0.0,22.459764635117622,18.41937176709191,371.2782432203068,366.7796015646354,0.0
0.14200000000000002,3.571971103218628,-1.752817564545538,1.9405037075419918,0.0,22.231200830513757,18.67997354221928,367.02845584812434,366.7796015646354,0.0
0.14300000000000002,3.7348113955127724,-1.7934687096464987,4.062908850798343,0.0,22.055831484099965,19.087501665086897,363.2738522906888,366.7796015646354,0.0
0.14400000000000002,4.028136597656983,-1.837198042844246,5.975268122255574,0.0,21.943155599815054,19.5952381401412,364.1537212817791,366.7796015646354,0.0
0.145,4.417400888054239,-1.8787375694990613,5.561592429538992,0.0,21.896653006064124,19.936419640425925,364.2333069849842,366.7796015646354,0.0
