timestamp,iq,id,iq_ref,id_ref,vq,vd,omega,omega_ref,r
0.0,0.0,0.0,0.0,0.0,0.0,0.0,0.0,203.11630555690064,0.0
0.001,0.0,0.0,10.0,0.0,0.0,1.0999999999999999,6.115472199294103,203.11630555690064,0.0
0.002,0.5307369851907212,-0.2913212625381807,10.0,0.0,0.14204533887919985,1.9316189316290207,13.317801563642547,203.11630555690064,0.0
0.003,1.0842913387634832,-0.6024330830807904,10.0,0.0,0.384357124667687,2.6386968949419622,20.697939467553027,203.11630555690064,0.0
0.004,1.5590443546685477,-0.8700465084428163,10.0,0.0,0.6994718867930164,3.2526109522886295,28.232747544420146,203.11630555690064,0.0
0.005,1.9399447555359186,-1.0838738622210777,10.0,0.0,1.065311453102468,3.7994935661768023,35.92944872443006,203.11630555690064,0.0
0.006,2.239750732602683,-1.2510087368845633,10.0,0.0,1.4655018868449925,4.299102221838433,43.75633668444442,203.11630555690064,0.0
0.007,2.4770151619816017,-1.382020589851471,10.0,0.0,1.8883740978591532,4.765668027847139,51.58766747378032,203.11630555690064,0.0
0.008,2.6680767290418097,-1.4872241871505252,10.0,0.0,2.325877945545995,5.209220346273558,59.45942083902103,203.11630555690064,0.0
0.009000000000000001,2.8266491704841292,-1.5730794701170803,10.0,0.0,2.772378685460125,5.636635464737965,67.35059094018146,203.11630555690064,0.0
0.01,2.962077666392183,-1.645500646948331,10.0,0.0,3.224078639851053,6.052647735211881,75.20908322432116,203.11630555690064,0.0
0.011,3.0811061533574158,-1.7084279320504514,10.0,0.0,3.678407615443203,6.460489925470405,83.0265951655913,203.11630555690064,0.0
0.012,3.188848746459569,-1.7638278597420747,10.0,0.0,4.133552631697047,6.862319393890706,90.74118064793086,203.11630555690064,0.0
0.013000000000000001,3.288205119878689,-1.8140726097274587,10.0,0.0,4.588339016389012,7.259628641949282,98.35820682563939,203.11630555690064,0.0
0.014,3.3820602099432007,-1.8592355758795645,10.0,0.0,5.041843166194517,7.653355107498287,105.90865295623543,203.11630555690064,0.0
0.015,3.4721069852858886,-1.899829032412081,10.0,0.0,5.493383198131427,8.044092747085895,113.37727610343421,203.11630555690064,0.0
0.016,3.5596145800153947,-1.9360338400176071,10.0,0.0,5.94241958510469,8.43218525824161,120.68508583176356,203.11630555690064,0.0
0.017,3.645144415105338,-1.9685384477868613,10.0,0.0,6.388575043274759,8.817838951066484,127.83962377537456,203.11630555690064,0.0
0.018000000000000002,3.730251927866576,-1.9959253041084188,10.0,0.0,6.83136783302799,9.201036292373047,134.85405702603322,203.11630555690064,0.0
0.019,3.81544967906247,-2.018253592643655,10.0,0.0,7.270383321112213,9.581672501020332,141.68976328564074,203.11630555690064,0.0
0.02,3.9014648862453374,-2.0350875541282063,10.0,0.0,7.705189334130692,9.959536942333155,148.3432823300447,203.11630555690064,0.0
0.021,3.9891051824829464,-2.0457889559126508,10.0,0.0,8.135310004560049,10.334315260302239,154.92060212100432,203.11630555690064,0.0
0.022,4.079618141396171,-2.0489696811670974,10.0,0.0,8.560139305503519,10.705547790999272,161.01925282597162,203.11630555690064,0.0
0.023,4.171109372430197,-2.048468292080302,10.0,0.0,8.979521969370257,11.072981092896333,166.534238406907,203.11630555690064,0.0
0.024,4.266936196769627,-2.039517194249811,10.0,0.0,9.392730090169543,11.435983292623375,171.8647834235234,203.11630555690064,0.0
0.025,4.367255527950721,-2.0225841458509217,10.0,0.0,9.79914449451603,11.793929226271104,177.02637022703064,203.11630555690064,0.0
0.026000000000000002,4.4734353073349595,-1.9962166741499119,10.0,0.0,10.197980960389518,12.146045424568259,181.63161391243256,203.11630555690064,0.0
0.027,4.582366840795821,-1.966358349113627,10.0,0.0,10.589124658468391,12.491912978736195,185.74793639675826,203.11630555690064,0.0
0.028,4.700058850757774,-1.9240450691803936,10.0,0.0,10.971384864613876,12.830451341534015,189.43662766964098,203.11630555690064,0.0
0.029,4.820934284790598,-1.879137197786803,10.0,0.0,11.344756153370636,13.161242511022618,192.73598774770625,203.11630555690064,0.0
0.03,4.952016225740939,-1.821000614527957,9.322823771538815,0.0,11.70792348475604,13.408592048143088,195.1953063480618,203.11630555690064,0.0
0.031,5.050701684214438,-1.743411133569325,8.17237446344943,0.0,12.05155555964209,13.538201122062258,196.0868222892626,203.11630555690064,0.0
0.032,5.099641539660373,-1.6185195846088714,7.796911325525399,0.0,12.36082315885539,13.65501951447304,200.67025775975364,203.11630555690064,0.0
0.033,5.130324097053313,-1.4919051116695923,5.529654068251356,0.0,12.638167160854724,13.542553477884411,191.7487340592199,203.11630555690064,0.0
0.034,5.065745793480376,-1.3014293004687447,10.0,0.0,12.856843964492558,13.990889509186621,197.93689048359445,203.11630555690064,0.0
0.035,5.2479212791923135,-1.248857358164381,7.0597257393709185,0.0,13.09460853535536,14.027440903271664,192.38375808038825,203.11630555690064,0.0
0.036000000000000004,5.336760404909587,-1.1186781247194613,9.943617415739144,0.0,13.298457792284488,14.4227938930695,196.89127210171526,203.11630555690064,0.0
0.037,5.553001541225772,-1.0955147792951618,7.752110739627493,0.0,13.520211246838258,14.50619372470689,197.08365531349915,203.11630555690064,0.0
0.038,5.698733317471359,-0.977174256197038,7.716245636169562,0.0,13.715343515013846,14.607530739992816,190.8507436160907,203.11630555690064,0.0
0.039,5.808169445305281,-0.884192300076708,10.0,0.0,13.892051647958212,14.959238255324351,198.9873367846277,203.11630555690064,0.0
0.04,6.019198926574561,-0.8934262995775377,6.909243065650478,0.0,14.088205278647585,14.908506144339139,203.70340774231127,203.11630555690064,0.0
0.041,6.026855249018571,-0.9038530783910477,4.545336564954587,0.0,14.260724940843978,14.65460856113219,203.73989263038726,203.11630555690064,0.0
0.042,5.842922397828595,-0.9076536269659985,4.520858250181726,0.0,14.39091667105515,14.48460832970285,211.20276124659858,203.11630555690064,0.0
0.043000000000000003,5.653275936534046,-0.911765280723225,0.7085593851790843,0.0,14.491503481529817,13.944540984665505,208.7584251110753,203.11630555690064,0.0
0.044,5.284544776205171,-0.8315655678138301,1.874306257398981,0.0,14.519161791495675,13.673558162796805,212.45051179052342,203.11630555690064,0.0
0.045,4.984214347309697,-0.8214846077899267,-0.06507914466130948,0.0,14.516649079804543,13.236798626737945,212.01510214763294,203.11630555690064,0.0
0.046,4.650656669651752,-0.7688576537896659,0.06363771087660641,0.0,14.465023530336845,12.910704521499046,213.4037490290313,203.11630555690064,0.0
0.047,4.351506092524032,-0.7645219022787613,-0.7335601645438796,0.0,14.38600046216583,12.552649323693103,213.24136258174332,203.11630555690064,0.0
0.048,4.065984687371562,-0.7509148402524695,-0.7536175111483132,0.0,14.27762076172354,12.25667885827387,213.87532620340534,203.11630555690064,0.0
0.049,3.814362326762603,-0.7628130338272923,-1.1781895284443697,0.0,14.151926856697047,11.957788366531267,213.77945994236694,203.11630555690064,0.0
0.05,3.580257540960166,-0.7756630521924031,-1.2368879417798349,0.0,14.010207813083362,11.697241730998513,213.71738196550737,203.11630555690064,0.0
0.051000000000000004,3.372777390858656,-0.7989469310076305,-1.3118597174361177,0.0,13.859038736763793,11.461399712121972,213.40186121596813,203.11630555690064,0.0
0.052000000000000005,3.1892213581729276,-0.8279578655090691,-1.2569548992571695,0.0,13.702360730195535,11.258930597351796,213.01596510220057,203.11630555690064,0.0
0.053,3.031702541347364,-0.8630404741498383,-1.16300343782639,0.0,13.544672590412553,11.086317715501357,212.5674625734185,203.11630555690064,0.0
0.054,2.898391861514645,-0.9026360255170482,-1.03326374360054,0.0,13.38949666098681,10.941618146221545,212.069652450182,203.11630555690064,0.0
0.055,2.7870543292255956,-0.9450323985524837,-0.8738921509150939,0.0,13.239636013095884,10.823018440933744,211.53885839113073,203.11630555690064,0.0
0.056,2.695499493312099,-0.9887268078258752,-0.6927206497317648,0.0,13.097283880754988,10.728585447216538,211.08124358897513,203.11630555690064,0.0
0.057,2.621931054719951,-1.031879372243807,-0.543562628974708,0.0,12.964033500269707,10.651133186794413,210.6045551293989,203.11630555690064,0.0
0.058,2.561670520076168,-1.0724392274042311,-0.38010089491157917,0.0,12.840392990214204,10.590483299330234,210.14891922712482,203.11630555690064,0.0
0.059000000000000004,2.5137773107752586,-1.1083133457476624,-0.22260908047677974,0.0,12.72659209688401,10.543889479530787,209.79278356164815,203.11630555690064,0.0
0.06,2.4761291769114426,-1.1392110297479607,-0.11130602778591925,0.0,12.622551914963486,10.504905732661918,209.0882640666234,203.11630555690064,0.0
0.061,2.44387219182728,-1.1657235775137778,0.18123413462923033,0.0,12.527624779962364,10.493654516647265,208.25320269683297,203.11630555690064,0.0
0.062,2.427035925292692,-1.1904924919512188,0.5473958481251193,0.0,12.44352469197035,10.512917515062318,207.35838387258963,203.11630555690064,0.0
0.063,2.4294514960597278,-1.2165420421066402,0.9523844770899021,0.0,12.372378673991765,10.562297261438118,206.27363874855425,203.11630555690064,0.0
0.064,2.4543594433174114,-1.2404066707629091,1.4631837071910554,0.0,12.315649846099255,10.649046741909281,205.76135079920303,203.11630555690064,0.0
0.065,2.5047107419243644,-1.264922025737522,1.6928772294436403,0.0,12.275726891803755,10.736317123316661,205.8749608039849,203.11630555690064,0.0
0.066,2.5633860389413945,-1.2816247974981607,1.6084856745818672,0.0,12.25011542242247,10.793337395210632,207.69887165364904,203.11630555690064,0.0
0.067,2.6047116207855168,-1.2897359516220552,0.6507045887823111,0.0,12.233492326404724,10.733623428055054,205.15841031641995,203.11630555690064,0.0
0.068,2.58262395690751,-1.263728481907449,1.9005142098016625,0.0,12.20961821006336,10.828118316028412,201.8142521714899,203.11630555690064,0.0
0.069,2.62569089000248,-1.2465457239800883,3.585613816120794,0.0,12.195950965478602,11.07868092477598,203.4677091631192,203.11630555690064,0.0
0.07,2.7704217702894156,-1.2618884989872472,2.7553712842439593,0.0,12.210566239057133,11.179153146120058,206.06256348289594,203.11630555690064,0.0
0.07100000000000001,2.863476369965935,-1.264836671416592,1.428481545095635,0.0,12.233938078629377,11.124595529538487,201.6959521672748,203.11630555690064,0.0
0.07200000000000001,2.866085003675619,-1.2188949321792901,3.625990736802457,0.0,12.244433899545847,11.333469363340235,198.7499779835072,203.11630555690064,0.0
0.073,2.985216414462289,-1.1931350024821705,5.1426411044202,0.0,12.27239334687653,11.654283475524897,203.10640510682165,203.11630555690064,0.0
0.074,3.1840527246708583,-1.2217613128687117,2.96452654726376,0.0,12.333044754132102,11.670372336245698,201.26129537287844,203.11630555690064,0.0
0.075,3.2552966572120465,-1.1974688629849433,3.9056315160755912,0.0,12.386281474143122,11.8103716742834,196.66691007636902,203.11630555690064,0.0
0.076,3.368978634392947,-1.1447804084331379,6.267318119135615,0.0,12.442641650454945,12.180276649002428,202.1450680068219,203.11630555690064,0.0
0.077,3.5936353964968637,-1.1640423629871153,3.537951529409962,0.0,12.533002006153941,12.171404528920695,197.55009309159473,203.11630555690064,0.0
0.078,3.6679151500684366,-1.1172245261234148,5.891101111676606,0.0,12.608096532674324,12.45267157109179,198.58649132193318,203.11630555690064,0.0
0.079,3.8582572987160195,-1.0795518288110315,5.418200138857056,0.0,12.700132492424052,12.617575920049473,198.84146662561562,203.11630555690064,0.0
0.08,4.002542687781157,-1.065161085222331,5.333460876328685,0.0,12.79824903627294,12.75663314962575,194.65707312689415,203.11630555690064,0.0
0.081,4.154308042019312,-0.9955717498474059,7.510249949989488,0.0,12.892948729239214,13.116639166281711,198.36866767603277,203.11630555690064,0.0
0.082,4.388840105564176,-1.0098698243568882,5.701929054228854,0.0,13.016447736124245,13.205150487850874,193.29801114508675,203.11630555690064,0.0
0.083,4.545127999675268,-0.9417798077145265,8.335440263820006,0.0,13.128815091901933,13.590083672247488,197.07857515147577,203.11630555690064,0.0
0.084,4.800265365156756,-0.9535522761514375,6.505535564679741,0.0,13.270414902236006,13.693633413519011,193.3148226394754,203.11630555690064,0.0
0.085,4.978873207651443,-0.877157135973215,8.485426649854176,0.0,13.399688515559845,14.019979739037781,193.77889780602698,203.11630555690064,0.0
0.08600000000000001,5.212781943416025,-0.8770261433883871,8.346763144087129,0.0,13.549418942320626,14.267623014341785,195.74836078912816,203.11630555690064,0.0
0.08700000000000001,5.457631301724719,-0.8328608733919521,7.435711100214263,0.0,13.704083784161972,14.382051572966809,190.49900143388058,203.11630555690064,0.0
0.088,5.632542934558923,-0.7590644134155765,10.0,0.0,13.847049039784254,14.774894273299946,197.331332606484,203.11630555690064,0.0
0.089,5.8695816399362855,-0.8373884550635534,6.824516685889337,0.0,14.024355649058657,14.743478034348803,203.65666047066966,203.11630555690064,0.0
0.09,5.90453666455523,-0.8746535759182025,3.656449204658821,0.0,14.184105896388036,14.41472682477165,202.2254596521947,203.11630555690064,0.0
0.091,5.704080286879653,-0.8594851344355083,4.380958072943362,0.0,14.292964818255122,14.268602162999265,208.83106275981692,203.11630555690064,0.0
0.092,5.515789224192583,-0.8815795731533707,1.0210089471030916,0.0,14.378907454432051,13.789843820184366,207.79791894093336,203.11630555690064,0.0
0.093,5.188584633174116,-0.8114369573690646,1.4907647227045442,0.0,14.400443360586348,13.486937796228375,209.92961113541978,203.11630555690064,0.0
0.094,4.886629831783429,-0.8014658645467714,0.3567855696761435,0.0,14.389139679677001,13.116983682937066,210.56938522552153,203.11630555690064,0.0
0.095,4.587243907616203,-0.7656668520143456,-0.03763227206094211,0.0,14.338132775079123,12.780761345467647,211.70488586488048,203.11630555690064,0.0
0.096,4.295366146662775,-0.7637800685138705,-0.6912683948202165,0.0,14.25875477113436,12.43421745066244,211.6081158129674,203.11630555690064,0.0
0.097,4.018679330498001,-0.7519184731242909,-0.7278014714243497,0.0,14.1513742704457,12.144424639913002,212.24397152297254,203.11630555690064,0.0
0.098,3.7731174867543276,-0.764614211336962,-1.137005986087634,0.0,14.027267685908251,11.852470828972876,212.1135927242018,203.11630555690064,0.0
0.099,3.544566395211469,-0.7776780156367122,-1.1617894583752708,0.0,13.88768643982138,11.601352605500296,212.07441706077432,203.11630555690064,0.0
0.1,3.3435137382672506,-0.8017042823277654,-1.2317827417002718,0.0,13.73946374728896,11.373766934671842,211.78760762561942,203.11630555690064,0.0
0.101,3.165951036632406,-0.8313498386244851,-1.175091044810006,0.0,13.586325505452663,11.178574951774566,211.4316080677398,203.11630555690064,0.0
0.10200000000000001,3.013648254884645,-0.8668204936997754,-1.080244290978591,0.0,13.432587206005586,11.01243224791184,211.0157703851629,203.11630555690064,0.0
0.10300000000000001,2.8847707021228244,-0.9065844685971831,-0.9513200979727676,0.0,13.281627796804901,10.873416681169335,210.5524848002312,203.11630555690064,0.0
0.10400000000000001,2.7771144278117323,-0.9489769404455825,-0.7940390979402245,0.0,13.136128304004384,10.75977181290113,210.09519813210557,203.11630555690064,0.0
0.105,2.68867396310175,-0.9923252268760258,-0.6351846896294502,0.0,12.99815866044597,10.667494545468543,209.6697734233521,203.11630555690064,0.0
0.106,2.6163881807230984,-1.0348490895694564,-0.48800701391723056,0.0,12.869002396532107,10.592316072083163,209.2105323420105,203.11630555690064,0.0
0.107,2.5570688990821706,-1.0744982902914981,-0.31932874109753495,0.0,12.749180085123584,10.534624916054693,208.80297293255322,203.11630555690064,0.0
0.108,2.5103360947379363,-1.109744745658062,-0.1724157101254149,0.0,12.63905150733617,10.489741710828408,208.4772826192859,203.11630555690064,0.0
0.109,2.4732210949597944,-1.1401255602887186,-0.06318032411560237,0.0,12.538436891860568,10.452496052429527,207.8315930227045,203.11630555690064,0.0
0.11,2.4410174724994285,-1.1668224191092995,0.21251159951704768,0.0,12.4467920184166,10.441318504535321,206.94815750738977,203.11630555690064,0.0
0.111,2.424097418759711,-1.1902660457401386,0.6159108376695284,0.0,12.365505707868799,10.465250390733356,206.11723093070688,203.11630555690064,0.0
0.112,2.4280460024598085,-1.2168213258937763,1.0013648722729083,0.0,12.297427861546165,10.51642286393724,205.0806278807287,203.11630555690064,0.0
0.113,2.4538969425829986,-1.2406176077617879,1.500023174023712,0.0,12.24362708538013,10.603864060458479,204.65209901042655,203.11630555690064,0.0
0.114,2.504305061889208,-1.2648812534931209,1.6989296746395324,0.0,12.206381544694592,10.688787808038777,204.98492641263303,203.11630555690064,0.0
0.115,2.5618971856366053,-1.2795314743255486,1.5138297649789703,0.0,12.182721820669887,10.733313519304513,206.86990819671752,203.11630555690064,0.0
0.116,2.5939156561099175,-1.2878280697964892,0.5338028465385576,0.0,12.166646763467709,10.662122614594779,203.70190369788818,203.11630555690064,0.0
0.117,2.5650715488502605,-1.2554753595861259,2.1119491145433487,0.0,12.141418357436924,10.783332689804023,200.8357504711753,203.11630555690064,0.0
0.11800000000000001,2.6193365136708167,-1.242280322812551,3.5678312787570503,0.0,12.129705872587154,11.028006905069873,202.82583661493229,203.11630555690064,0.0
0.11900000000000001,2.762719473804956,-1.2610008727353428,2.5756928962982353,0.0,12.14582326860819,11.108118930644991,204.9584189776971,203.11630555690064,0.0
0.12,2.8440165433431863,-1.261975409868741,1.4909805807078595,0.0,12.168260121170075,11.064925674326496,200.39785657183114,203.11630555690064,0.0
0.121,2.850379957772041,-1.2145199499608386,3.7984462734915376,0.0,12.178904116882721,11.293076773366352,198.32766286203525,203.11630555690064,0.0
0.122,2.9795602866624997,-1.1937110811371057,4.881429555338135,0.0,12.209484401956558,11.581384464115114,202.26092662706014,203.11630555690064,0.0
0.123,3.1635302495373843,-1.2193866457030638,2.9233514621240957,0.0,12.268869828388379,11.598756098597038,199.7605741180569,203.11630555690064,0.0
0.124,3.2318858317256947,-1.1918772416898153,4.207085031014158,0.0,12.320771085538096,11.775441171372037,196.29933526233685,203.11630555690064,0.0
0.125,3.3624423662088456,-1.1469258204762514,6.005874161819816,0.0,12.380481161956975,12.110999668312964,201.24359620679445,203.11630555690064,0.0
0.126,3.571823222470428,-1.166419500315063,3.5524707830920796,0.0,12.470369899422472,12.109384731389637,196.52797412379056,203.11630555690064,0.0
0.127,3.6475054494811223,-1.1156750017110082,5.976165138925127,0.0,12.54533143780425,12.401829338425546,198.2217077179253,203.11630555690064,0.0
0.128,3.840340761661433,-1.0843163996258867,5.178244320247503,0.0,12.639099281808116,12.540062342913444,197.65386657775417,203.11630555690064,0.0
0.129,3.9721358069261887,-1.0651657604042106,5.516789280124538,0.0,12.735520657566854,12.706498883268871,194.56646891002404,203.11630555690064,0.0
0.13,4.1333749199601035,-0.9993972603649983,7.145986480458369,0.0,12.831900521173162,13.025341797621492,197.1272643754654,203.11630555690064,0.0
0.131,4.349067934039651,-1.0074288507628941,5.925479159552048,0.0,12.952067849798265,13.149276789178037,192.5293874456174,203.11630555690064,0.0
0.132,4.518700184616657,-0.9416003644362183,8.330286805588873,0.0,13.0652904953166,13.533066311291883,196.32002031284023,203.11630555690064,0.0
0.133,4.772953271162381,-0.9610432158701634,6.502933224418064,0.0,13.20836682701548,13.638470658342756,193.17893003757817,203.11630555690064,0.0
0.134,4.953246708337351,-0.8842686817136012,8.172852117242318,0.0,13.339036332978006,13.932317070657021,192.83257385570582,203.11630555690064,0.0
0.135,5.169749509880047,-0.8779723941357482,8.448867525190442,0.0,13.486098683283702,14.201495924484213,195.06737003659504,203.11630555690064,0.0
0.136,5.418346724906133,-0.8378255581072687,7.411958789948889,0.0,13.641019494854195,14.316462347365759,190.20907958070774,203.11630555690064,0.0
0.137,5.594773126731665,-0.764475970626876,9.970176277654467,0.0,13.784277881293233,14.710276288065687,196.6399413758149,203.11630555690064,0.0
