timestamp,iq,id,iq_ref,id_ref,vq,vd,omega,omega_ref,r
0.0,0.0,0.0,0.0,0.0,0.0,0.0,0.0,217.64025677390453,0.0
0.001,0.0,0.0,10.0,0.0,0.0,1.0999999999999999,6.115472199294103,217.64025677390453,0.0
0.002,0.5307369851907212,-0.2913212625381807,10.0,0.0,0.14204533887919985,1.9316189316290207,13.317801563642547,217.64025677390453,0.0
0.003,1.0842913387634832,-0.6024330830807904,10.0,0.0,0.384357124667687,2.6386968949419622,20.697939467553027,217.64025677390453,0.0
0.004,1.5590443546685477,-0.8700465084428163,10.0,0.0,0.6994718867930164,3.2526109522886295,28.232747544420146,217.64025677390453,0.0
0.005,1.9399447555359186,-1.0838738622210777,10.0,0.0,1.065311453102468,3.7994935661768023,35.92944872443006,217.64025677390453,0.0
0.006,2.239750732602683,-1.2510087368845633,10.0,0.0,1.4655018868449925,4.299102221838433,43.75633668444442,217.64025677390453,0.0
0.007,2.4770151619816017,-1.382020589851471,10.0,0.0,1.8883740978591532,4.765668027847139,51.58766747378032,217.64025677390453,0.0
0.008,2.6680767290418097,-1.4872241871505252,10.0,0.0,2.325877945545995,5.209220346273558,59.45942083902103,217.64025677390453,0.0
0.009000000000000001,2.8266491704841292,-1.5730794701170803,10.0,0.0,2.772378685460125,5.636635464737965,67.35059094018146,217.64025677390453,0.0
0.01,2.962077666392183,-1.645500646948331,10.0,0.0,3.224078639851053,6.052647735211881,75.20908322432116,217.64025677390453,0.0
0.011,3.0811061533574158,-1.7084279320504514,10.0,0.0,3.678407615443203,6.460489925470405,83.0265951655913,217.64025677390453,0.0
0.012,3.188848746459569,-1.7638278597420747,10.0,0.0,4.133552631697047,6.862319393890706,90.74118064793086,217.64025677390453,0.0
0.013000000000000001,3.288205119878689,-1.8140726097274587,10.0,0.0,4.588339016389012,7.259628641949282,98.35820682563939,217.64025677390453,0.0
0.014,3.3820602099432007,-1.8592355758795645,10.0,0.0,5.041843166194517,7.653355107498287,105.90865295623543,217.64025677390453,0.0
0.015,3.4721069852858886,-1.899829032412081,10.0,0.0,5.493383198131427,8.044092747085895,113.37727610343421,217.64025677390453,0.0
0.016,3.5596145800153947,-1.9360338400176071,10.0,0.0,5.94241958510469,8.43218525824161,120.68508583176356,217.64025677390453,0.0
0.017,3.645144415105338,-1.9685384477868613,10.0,0.0,6.388575043274759,8.817838951066484,127.83962377537456,217.64025677390453,0.0
0.018000000000000002,3.730251927866576,-1.9959253041084188,10.0,0.0,6.83136783302799,9.201036292373047,134.85405702603322,217.64025677390453,0.0
0.019,3.81544967906247,-2.018253592643655,10.0,0.0,7.270383321112213,9.581672501020332,141.68976328564074,217.64025677390453,0.0
0.02,3.9014648862453374,-2.0350875541282063,10.0,0.0,7.705189334130692,9.959536942333155,148.3432823300447,217.64025677390453,0.0
0.021,3.9891051824829464,-2.0457889559126508,10.0,0.0,8.135310004560049,10.334315260302239,154.92060212100432,217.64025677390453,0.0
0.022,4.079618141396171,-2.0489696811670974,10.0,0.0,8.560139305503519,10.705547790999272,161.01925282597162,217.64025677390453,0.0
0.023,4.171109372430197,-2.048468292080302,10.0,0.0,8.979521969370257,11.072981092896333,166.534238406907,217.64025677390453,0.0
0.024,4.266936196769627,-2.039517194249811,10.0,0.0,9.392730090169543,11.435983292623375,171.8647834235234,217.64025677390453,0.0
0.025,4.367255527950721,-2.0225841458509217,10.0,0.0,9.79914449451603,11.793929226271104,177.02637022703064,217.64025677390453,0.0
0.026000000000000002,4.4734353073349595,-1.9962166741499119,10.0,0.0,10.197980960389518,12.146045424568259,181.63161391243256,217.64025677390453,0.0
0.027,4.582366840795821,-1.966358349113627,10.0,0.0,10.589124658468391,12.491912978736195,185.74793639675826,217.64025677390453,0.0
0.028,4.700058850757774,-1.9240450691803936,10.0,0.0,10.971384864613876,12.830451341534015,189.43662766964098,217.64025677390453,0.0
0.029,4.820934284790598,-1.879137197786803,10.0,0.0,11.344756153370636,13.161242511022618,192.73598774770625,217.64025677390453,0.0
0.03,4.952016225740939,-1.821000614527957,10.0,0.0,11.707923484756042,13.483081433273819,195.59831968863915,217.64025677390453,0.0
0.031,5.086039273572549,-1.7621311371320891,10.0,0.0,12.061063698547066,13.79562148058647,197.80891551030922,217.64025677390453,0.0
0.032,5.230431844273564,-1.6911110488141978,10.0,0.0,12.40292038074925,14.097678592248165,200.4421589734679,217.64025677390453,0.0
0.033,5.380124186618445,-1.6166151787533525,10.0,0.0,12.733312761073865,14.38869342901298,201.91742172589852,217.64025677390453,0.0
0.034,5.537594793894332,-1.535029134414507,10.0,0.0,13.051537880865839,14.667821176756876,203.18880493813168,217.64025677390453,0.0
0.035,5.698947813469154,-1.4530296333491768,10.0,0.0,13.357649178779205,14.934684535625108,203.60405746232266,217.64025677390453,0.0
0.036000000000000004,5.870474243492053,-1.3603000477825025,10.0,0.0,13.65045542338638,15.188218311291084,204.28541056101804,217.64025677390453,0.0
0.037,6.041188711220851,-1.275010780747051,10.0,0.0,13.930879897581198,15.42861600670124,205.2233356988433,217.64025677390453,0.0
0.038,6.228175208801664,-1.168399557236846,10.0,0.0,14.196427351981786,15.654155009933262,200.35169734043586,217.64025677390453,0.0
0.039,6.404895489618571,-1.0845312562500289,10.0,0.0,14.449814560392067,15.86612549236809,209.64773540576442,217.64025677390453,0.0
0.04,6.534612624563911,-1.0851225869390002,9.113713720311189,0.0,14.699963825590455,15.972244474598874,217.49111316192813,217.64025677390453,0.0
0.041,6.574985868248933,-1.1231441539039113,5.193516278349101,0.0,14.93988652155134,15.667263743851572,216.3738091503278,217.64025677390453,0.0
0.042,6.364424311978782,-1.1090024586279577,5.764832760385038,0.0,15.1233830726914,15.542385646845235,225.3035534181905,217.64025677390453,0.0
0.043000000000000003,6.162605522888512,-1.128633044190372,1.2233276600108267,0.0,15.278342940381444,14.963160740029245,223.69930353785296,217.64025677390453,0.0
0.044,5.758482702014783,-1.0327261945148614,1.9648621325401097,0.0,15.349138271300955,14.626773476051024,227.9727034057339,217.64025677390453,0.0
0.045,5.393697240439044,-1.0081769300698058,-0.27516226771866137,0.0,15.377473992138492,14.11337161537342,227.43513247456033,217.64025677390453,0.0
0.046,4.987217009338175,-0.9321537967452911,-0.10432555913843089,0.0,15.343518902803268,13.736400765599072,229.50121054491575,217.64025677390453,0.0
0.047,4.62564894823475,-0.9125927182490705,-1.2559741320262514,0.0,15.273870750122796,13.301049466175556,229.05271960187068,217.64025677390453,0.0
0.048,4.271210501039147,-0.8797435389213761,-1.1458532887833766,0.0,15.164234483826927,12.961270808492406,229.80951514772104,217.64025677390453,0.0
0.049,3.9677703784658,-0.8791023586317415,-1.6459436454467244,0.0,15.031841940353758,12.61822927129371,229.68299838021628,217.64025677390453,0.0
0.05,3.6885404843583522,-0.8830517772025037,-1.7031126777574581,0.0,14.878825345353711,12.322645830606099,229.47814511150037,217.64025677390453,0.0
0.051000000000000004,3.4449817074505416,-0.8991209932252888,-1.719064926775463,0.0,14.713280185361702,12.064135183937157,229.03127365083267,217.64025677390453,0.0
0.052000000000000005,3.235512736411134,-0.9242307718283838,-1.6095393652108978,0.0,14.541039860188116,11.847734419243444,228.47879875476673,217.64025677390453,0.0
0.053,3.0608770775909973,-0.9574026790882492,-1.441687336986547,0.0,14.367781303075077,11.670233398750607,227.8594492353364,217.64025677390453,0.0
0.054,2.9185523068321197,-0.99668298270554,-1.234204501885701,0.0,14.198087613949353,11.528210584369868,227.18750620327904,217.64025677390453,0.0
0.055,2.8050944397905924,-1.0397531723740847,-0.9937054801507679,0.0,14.0355059301255,11.418857864221446,226.4916297636816,217.64025677390453,0.0
0.056,2.717303505721428,-1.0844751921822946,-0.7342809902498177,0.0,13.882735862951407,11.338836375454427,225.86202742335342,217.64025677390453,0.0
0.057,2.652289683273563,-1.1283376862730727,-0.5016975265802186,0.0,13.741618307769922,11.280803576079917,225.3486710292895,217.64025677390453,0.0
0.058,2.605287580223697,-1.168331595335413,-0.32210347210210877,0.0,13.612769933225085,11.23641190559162,224.75714238638113,217.64025677390453,0.0
0.059000000000000004,2.56992638112727,-1.2026111657503897,-0.09750800677268856,0.0,13.495738042740928,11.209903836209227,223.79039244939844,217.64025677390453,0.0
0.06,2.5455293028092005,-1.2333088402282062,0.3243656049637189,0.0,13.390792482855359,11.220833593978396,222.7882490551886,217.64025677390453,0.0
0.061,2.5433449863412063,-1.263043591512841,0.7739573792557972,0.0,13.300398300631793,11.265408483065153,221.6223071335488,217.64025677390453,0.0
0.062,2.5648623994736517,-1.292130287910669,1.317107836479261,0.0,13.226403214630174,11.349348338963285,220.62928179186406,217.64025677390453,0.0
0.063,2.6144822220496837,-1.3195032331711616,1.7837302571420297,0.0,13.170921779833204,11.458148656020075,220.00588533136002,217.64025677390453,0.0
0.064,2.684587088696584,-1.3441122261234177,2.0717722018194946,0.0,13.134301779993756,11.570323850493986,221.12583829110645,217.64025677390453,0.0
0.065,2.7637539981467705,-1.3577293284060425,1.4769399067742617,0.0,13.11381309090721,11.59130024226176,221.99467220989192,217.64025677390453,0.0
0.066,2.7904715510187,-1.3566860777923588,0.9989787930216529,0.0,13.097219981315765,11.559355464660353,217.76739703875876,217.64025677390453,0.0
0.067,2.7864512759632234,-1.3149692215512476,3.11134497593969,0.0,13.074513283242936,11.766795150903274,215.26611400363623,217.64025677390453,0.0
0.068,2.8973839021883094,-1.3054000186887749,4.385727921203636,0.0,13.074185779849223,12.058035869229162,218.72835503624407,217.64025677390453,0.0
0.069,3.0798646961892833,-1.3348906015243776,2.6437264222763233,0.0,13.10635475476801,12.096792209970591,218.76458269917143,217.64025677390453,0.0
0.07,3.1546005045289696,-1.3219195742800398,2.6143693315599745,0.0,13.13746074744383,12.142684418162872,213.10671279051715,217.64025677390453,0.0
0.07100000000000001,3.2146021333038686,-1.2660392666940918,5.4886397257209865,0.0,13.164028238109283,12.497708497986537,215.22346450247701,217.64025677390453,0.0
0.07200000000000001,3.4254730905086195,-1.2637965839688738,4.454431792455329,0.0,13.223753495666646,12.654785553288782,217.3491056697439,217.64025677390453,0.0
0.073,3.570933849572862,-1.2596720559952366,3.394522719863497,0.0,13.292782661748646,12.68198753623907,210.7702969071524,217.64025677390453,0.0
0.074,3.6504430861067214,-1.1910805521148327,6.752626699826758,0.0,13.350125289370368,13.086071357596325,213.92334852564755,217.64025677390453,0.0
0.075,3.8964515815828995,-1.1869723632731124,5.213269973061757,0.0,13.442376050631854,13.226304937699203,212.70216642156393,217.64025677390453,0.0
0.076,4.049963171073216,-1.1711943382389887,5.873241928626975,0.0,13.537730592912153,13.435304528408594,209.24359484879184,217.64025677390453,0.0
0.077,4.241801289282266,-1.1090534848519462,7.686494334264145,0.0,13.637771926413116,13.806230582231422,212.6770043297944,217.64025677390453,0.0
0.078,4.494794784943073,-1.1225411597833987,6.019422118203961,0.0,13.767006784722605,13.922646792858465,206.80146824672929,217.64025677390453,0.0
0.079,4.670213658855614,-1.0556341091031953,9.065578045008277,0.0,13.88746512593971,14.375326601189066,212.09641191859708,217.64025677390453,0.0
0.08,4.968938156801602,-1.0696637610794388,6.4735446576274525,0.0,14.043357946092346,14.448093524893444,206.26873109270602,217.64025677390453,0.0
0.081,5.143427920741295,-0.9853922576346943,9.50110032738497,0.0,14.18152801470148,14.871917866735883,209.37571021039633,217.64025677390453,0.0
0.082,5.429626561400686,-0.9889882039749167,8.030256234174894,0.0,14.349501779765813,15.04537142147117,207.9875500740733,217.64025677390453,0.0
0.083,5.66317151272033,-0.9090392382329273,8.820863369334717,0.0,14.509193178102223,15.297124264800475,203.39857196614,217.64025677390453,0.0
0.084,5.888045526312977,-0.8762522442881482,10.0,0.0,14.675283641261414,15.639069229670078,208.65196336685017,217.64025677390453,0.0
0.085,6.179583388080166,-0.8447142995957622,8.695801119666898,0.0,14.855818250614933,15.778355076566886,212.09378955417444,217.64025677390453,0.0
0.08600000000000001,6.312739935962561,-0.900354179836666,7.030352698202066,0.0,15.038663749996196,15.739876620502168,216.59646757358468,217.64025677390453,0.0
0.08700000000000001,6.27270719602176,-0.9878599418558092,4.789451580500144,0.0,15.20844608885257,15.499421088121796,223.77894524152782,217.64025677390453,0.0
0.088,6.1048302113578226,-0.9832273962222604,1.136825861852337,0.0,15.335820002945376,14.938675665904485,221.43682808289344,217.64025677390453,0.0
0.089,5.712117772003526,-0.9235208076047897,2.269918728079638,0.0,15.387860584115597,14.649428248272002,228.15420423822292,217.64025677390453,0.0
0.09,5.395988098904271,-0.9046605236400727,-1.1939088242282834,0.0,15.404294800055597,14.03280481075102,224.53616633303497,217.64025677390453,0.0
0.091,4.953399676494721,-0.8250817479689256,0.5461510327743859,0.0,15.348858188165316,13.751055428103568,227.08946016044112,217.64025677390453,0.0
0.092,4.637462958194304,-0.8259417831421683,-0.8249879147940553,0.0,15.271680690825095,13.354038594518226,227.14590211652967,217.64025677390453,0.0
0.093,4.323559139162388,-0.8118256053459114,-0.9482653462645811,0.0,15.160957879951038,13.02052661948183,227.9275446515952,217.64025677390453,0.0
0.094,4.038743527056225,-0.8249119689814683,-1.4419594925742594,0.0,15.029536814438618,12.684410658223669,227.90671749035099,217.64025677390453,0.0
0.095,3.772064647367242,-0.8365645291315065,-1.53421051911661,0.0,14.878797177331776,12.390040035728244,227.89022152244598,217.64025677390453,0.0
0.096,3.5339443771500187,-0.8592694886336835,-1.6284621826495238,0.0,14.71607546162981,12.124113779975485,227.53818935880594,217.64025677390453,0.0
0.097,3.3230829386057974,-0.8878751654297342,-1.5514254266785148,0.0,14.545952866775313,11.898738093557636,227.10405990699223,217.64025677390453,0.0
0.098,3.143568342340439,-0.9235002611266142,-1.42899873210254,0.0,14.37393766652317,11.70922227634352,226.5899791227993,217.64025677390453,0.0
0.099,2.9935019225625723,-0.9644711125376921,-1.2614555634950166,0.0,14.20432294727309,11.55337416263958,226.00939260234165,217.64025677390453,0.0
0.1,2.8704075690344677,-1.008796804861794,-1.054853661550566,0.0,14.040551006219161,11.429239880599155,225.38449308268235,217.64025677390453,0.0
0.101,2.7718311459196547,-1.0547683682932878,-0.8198462648086977,0.0,13.885356446120802,11.334539090286887,224.7963261816061,217.64025677390453,0.0
0.10200000000000001,2.6956140335321654,-1.100360954553644,-0.5973235083475887,0.0,13.740766731855377,11.26331447037079,224.2237669541957,217.64025677390453,0.0
0.10300000000000001,2.6376705314827715,-1.143411598592332,-0.3768789964452961,0.0,13.607793172006538,11.212388623865959,223.81313622543777,217.64025677390453,0.0
0.10400000000000001,2.5957534703150973,-1.1809792986705283,-0.23329242658166738,0.0,13.486726324060317,11.170879525300652,223.11705265708034,217.64025677390453,0.0
0.105,2.561704199649448,-1.2133975376813966,0.05998139876529329,0.0,13.3768055803426,11.155565156048333,222.1779827070595,217.64025677390453,0.0
0.106,2.542936165518699,-1.2422667899093633,0.484139114444162,0.0,13.279196909426387,11.176238750868402,221.2227257209546,217.64025677390453,0.0
0.107,2.5459248597161115,-1.2721161165916421,0.9259429180261112,0.0,13.196411198496579,11.228924523649043,219.98845956508782,217.64025677390453,0.0
0.108,2.573077188130512,-1.299171656842685,1.5195939680476664,0.0,13.129850252098601,11.325989856341584,219.2395232429887,217.64025677390453,0.0
0.109,2.630191999164227,-1.3263871863897678,1.8780694644063884,0.0,13.082375086457347,11.434177249294752,219.07010472629815,217.64025677390453,0.0
0.11,2.701990086839297,-1.3476494711841984,1.9484802432277224,0.0,13.052532872707456,11.52363217556132,220.8585977561747,217.64025677390453,0.0
0.111,2.767808108163683,-1.3561167360312218,1.0220503184667464,0.0,13.03533914924443,11.492023986845386,219.2707665317763,217.64025677390453,0.0
0.112,2.764751320307399,-1.3387586901746484,1.7996608330872288,0.0,13.014709921563426,11.55765312738804,215.398527609674,217.64025677390453,0.0
0.113,2.8006363355898944,-1.312313983814286,3.758197585780683,0.0,12.999971193463715,11.818341449198764,215.59208962981063,217.64025677390453,0.0
0.114,2.951918327816981,-1.3169856504741393,3.6818982471533097,0.0,13.013553500751232,12.00722660225035,218.82656734020958,217.64025677390453,0.0
0.115,3.0937067257423823,-1.329385260282534,2.052796286290785,0.0,13.045983333027483,11.9860593445674,215.34710344336136,217.64025677390453,0.0
0.116,3.1266768116318175,-1.2938103056285368,3.8154597680203244,0.0,13.069016215197788,12.17822697301066,210.8688147479103,217.64025677390453,0.0
0.117,3.250494719592548,-1.2569353388032554,6.122318536005794,0.0,13.105262075191142,12.576318687470943,216.02669319177008,217.64025677390453,0.0
0.11800000000000001,3.493529196626593,-1.286449983430572,3.559514949897253,0.0,13.18130788120845,12.607753220938598,214.24788666547562,217.64025677390453,0.0
0.11900000000000001,3.5870031152618846,-1.2604737950483453,4.482841914128771,0.0,13.249740032802485,12.762991097308237,209.22173550268383,217.64025677390453,0.0
0.12,3.721288144788495,-1.1960674055021268,7.080102708236875,0.0,13.32002781590781,13.172177204848317,214.95647519286314,217.64025677390453,0.0
0.121,3.974160172833715,-1.2128790754077923,4.239570678957634,0.0,13.426698779041697,13.18256927599341,209.13502664545456,217.64025677390453,0.0
0.122,4.074572542028324,-1.1548361819804094,7.235347253946422,0.0,13.517189018000632,13.552013339547992,212.20339209539023,217.64025677390453,0.0
0.123,4.319336722410526,-1.127645264633226,5.7555331757637305,0.0,13.633164067445215,13.674904770142923,208.57546528049926,217.64025677390453,0.0
0.124,4.467706264535849,-1.093586622487711,7.660144498143268,0.0,13.746356213542304,14.007536941036438,210.41490648852027,217.64025677390453,0.0
0.125,4.722140517999786,-1.050912624588187,6.8126773969866035,0.0,13.877138808771544,14.179453542639505,206.6235349783678,217.64025677390453,0.0
0.126,4.9027246582576645,-1.020437084600782,8.818530370018214,0.0,14.009109235218542,14.5590553287565,209.80151879599228,217.64025677390453,0.0
0.127,5.193458336998232,-0.9912924184806946,7.3079258409850905,0.0,14.16294163975921,14.697494087723658,204.1289500221434,217.64025677390453,0.0
0.128,5.387661650445089,-0.9320351411089756,10.0,0.0,14.309007825892833,15.13025138633838,208.05060945159397,217.64025677390453,0.0
0.129,5.697603137297205,-0.932072247437757,8.408803588016418,0.0,14.48433977774445,15.300235696377388,206.52850196020552,217.64025677390453,0.0
0.13,5.940028283485155,-0.8513886296440365,9.280974881847635,0.0,14.650261396394209,15.559038225826779,205.27135197150977,217.64025677390453,0.0
0.131,6.160066683221855,-0.8459279363842152,10.0,0.0,14.825677266043291,15.857143741745489,215.9171031797681,217.64025677390453,0.0
0.132,6.340295892320168,-0.9592621347203831,4.726930077547264,0.0,15.025883469068908,15.53812752138247,216.6040453919065,217.64025677390453,0.0
0.133,6.202949238965948,-0.9496349163278974,4.3938210852980415,0.0,15.17197509374913,15.304032677395377,219.30539347757562,217.64025677390453,0.0
0.134,5.975641319236559,-0.9701604378706141,3.0264956754267756,0.0,15.282402151116242,14.984512179748354,224.75000798649276,217.64025677390453,0.0
0.135,5.70966144797595,-0.9348995702627656,0.23309090884232297,0.0,15.345750502329645,14.441369874018537,223.34969168910732,217.64025677390453,0.0
0.136,5.297915824109282,-0.8850213681043195,0.8761547083830172,0.0,15.343315794287387,14.100179919511099,225.43421551683252,217.64025677390453,0.0
0.137,4.964608777916486,-0.8552032798747383,-0.2440467929088661,0.0,15.304224353914933,13.6957590053552,226.69748317386015,217.64025677390453,0.0
0.138,4.623328825421556,-0.841659892417795,-0.966252885422235,0.0,15.227408374426169,13.29383810772661,226.8211906302832,217.64025677390453,0.0
