timestamp,iq,id,iq_ref,id_ref,vq,vd,omega,omega_ref,r
0.0,0.0,0.0,0.0,0.0,0.0,0.0,0.0,123.65781184960933,0.0
0.001,0.0,0.0,10.0,0.0,0.0,1.0999999999999999,6.115472199294103,123.65781184960933,0.0
0.002,0.5307369851907212,-0.2913212625381807,10.0,0.0,0.14204533887919985,1.9316189316290207,13.317801563642547,123.65781184960933,0.0
0.003,1.0842913387634832,-0.6024330830807904,10.0,0.0,0.384357124667687,2.6386968949419622,20.697939467553027,123.65781184960933,0.0
0.004,1.5590443546685477,-0.8700465084428163,10.0,0.0,0.6994718867930164,3.2526109522886295,28.232747544420146,123.65781184960933,0.0
0.005,1.9399447555359186,-1.0838738622210777,10.0,0.0,1.065311453102468,3.7994935661768023,35.92944872443006,123.65781184960933,0.0
0.006,2.239750732602683,-1.2510087368845633,10.0,0.0,1.4655018868449925,4.299102221838433,43.75633668444442,123.65781184960933,0.0
0.007,2.4770151619816017,-1.382020589851471,10.0,0.0,1.8883740978591532,4.765668027847139,51.58766747378032,123.65781184960933,0.0
0.008,2.6680767290418097,-1.4872241871505252,10.0,0.0,2.325877945545995,5.209220346273558,59.45942083902103,123.65781184960933,0.0
0.009000000000000001,2.8266491704841292,-1.5730794701170803,10.0,0.0,2.772378685460125,5.636635464737965,67.35059094018146,123.65781184960933,0.0
0.01,2.962077666392183,-1.645500646948331,10.0,0.0,3.224078639851053,6.052647735211881,75.20908322432116,123.65781184960933,0.0
0.011,3.0811061533574158,-1.7084279320504514,10.0,0.0,3.678407615443203,6.460489925470405,83.0265951655913,123.65781184960933,0.0
0.012,3.188848746459569,-1.7638278597420747,10.0,0.0,4.133552631697047,6.862319393890706,90.74118064793086,123.65781184960933,0.0
0.013000000000000001,3.288205119878689,-1.8140726097274587,10.0,0.0,4.588339016389012,7.259628641949282,98.35820682563939,123.65781184960933,0.0
0.014,3.3820602099432007,-1.8592355758795645,10.0,0.0,5.041843166194517,7.653355107498287,105.90865295623543,123.65781184960933,0.0
0.015,3.4721069852858886,-1.899829032412081,10.0,0.0,5.493383198131427,8.044092747085895,113.37727610343421,123.65781184960933,0.0
0.016,3.5596145800153947,-1.9360338400176071,7.677557578762661,0.0,5.94241958510469,8.176716591905505,119.27508238816597,123.65781184960933,0.0
0.017,3.524302944910844,-1.9007607413705387,4.772481731011216,0.0,6.355572628935355,8.049407127708992,122.94875729567718,123.65781184960933,0.0
0.018000000000000002,3.332650911004129,-1.7722281727252411,2.9427348227949315,0.0,6.700893570398789,7.824651120267614,125.56952160956959,123.65781184960933,0.0
0.019,3.0591147454457848,-1.5906514491818202,1.6132355682491246,0.0,6.970518703068419,7.557127816671191,126.14852925732472,123.65781184960933,0.0
0.02,2.7503163357450036,-1.402305649817755,1.298824570294404,0.0,7.167526721416833,7.353261602883313,123.45349524609526,123.65781184960933,0.0
0.021,2.487827495022623,-1.22732249031243,2.6483847419442776,0.0,7.307082626999668,7.366864329552553,125.05148803301365,123.65781184960933,0.0
0.022,2.369425429337656,-1.1117994199061045,1.8354515866510366,0.0,7.423085508541504,7.300543464132519,127.64057712540254,123.65781184960933,0.0
0.023,2.2612387367977558,-1.0213260945894624,0.5010793876986597,0.0,7.512059180306386,7.124519878599386,125.084284940356,123.65781184960933,0.0
0.024,2.111097261990836,-0.9199465938792519,1.764960749314465,0.0,7.5642861145165075,7.142800385866673,123.01977461281027,123.65781184960933,0.0
0.025,2.063527854619172,-0.8470119459137972,2.8035962854553222,0.0,7.606109389763252,7.269817851250398,125.99886550868011,123.65781184960933,0.0
0.026000000000000002,2.0995597222244697,-0.8295176471724984,1.290640300929692,0.0,7.655257057641803,7.207065184450897,125.29959534900094,123.65781184960933,0.0
0.027,2.0687024406159407,-0.792561928383006,1.6238575457753623,0.0,7.689324505973118,7.211040627550473,122.22966136179035,123.65781184960933,0.0
0.028,2.064675872123816,-0.7441290285372153,3.173106044258847,0.0,7.715424691986117,7.385244783275995,125.47033709002977,123.65781184960933,0.0
0.029,2.1485122872336846,-0.7458644053314716,1.5346429277349305,0.0,7.757010495416196,7.3396528428807954,124.11206219703745,123.65781184960933,0.0
0.03,2.1472230904112592,-0.7225281505361967,2.2092378707568128,0.0,7.787294182668323,7.394348927567332,122.21981044972621,123.65781184960933,0.0
0.031,2.1852007078279754,-0.6866728825462594,3.1697437584112618,0.0,7.816308392732951,7.54132304083814,124.9799228037224,123.65781184960933,0.0
0.032,2.267453977900443,-0.6946473190484985,1.7764664718720349,0.0,7.858354333813342,7.504967519858661,122.16848769841002,123.65781184960933,0.0
0.033,2.2796114726773027,-0.6638513826447893,3.1970772660402202,0.0,7.889092831318316,7.646137313584335,123.75929220722475,123.65781184960933,0.0
0.034,2.362474048666088,-0.652868584873529,2.400660208056702,0.0,7.929974310054558,7.665458684957071,122.72579057919512,123.65781184960933,0.0
0.035,2.3961480019889785,-0.6412094475296883,2.9267312347756573,0.0,7.96752710092434,7.749892541479447,122.10985217984559,123.65781184960933,0.0
0.036000000000000004,2.4649354331545177,-0.6131078243197459,3.25018003114806,0.0,8.006793411179721,7.852727070875359,123.30544181590848,123.65781184960933,0.0
0.037,2.535241273322719,-0.6169429504920076,2.655908913453623,0.0,8.053119423460213,7.873554699340259,120.59326213616137,123.65781184960933,0.0
0.038,2.583545112053554,-0.5816556597420222,4.042644250461657,0.0,8.092975644114919,8.050805400575838,123.3894146389995,123.65781184960933,0.0
0.039,2.687734433360199,-0.5947702262467158,2.6472519711486924,0.0,8.148366788050732,8.0359783627024,120.25881604867774,123.65781184960933,0.0
0.04,2.727882070130399,-0.5569251678118062,4.246541224318885,0.0,8.192442011712727,8.214674536820077,122.87491287562032,123.65781184960933,0.0
0.041,2.8322154970001856,-0.5660449728210917,2.946321800587485,0.0,8.251360959555665,8.209816386162059,120.11850290508745,123.65781184960933,0.0
0.042,2.8793409167613273,-0.5264842182937902,4.3599198752991395,0.0,8.299459316500409,8.37569346590471,121.88398274375116,123.65781184960933,0.0
0.043000000000000003,2.978795631699387,-0.5347492791773942,3.4949182470258666,0.0,8.360640309967415,8.410037749064813,120.7212535805179,123.65781184960933,0.0
0.044,3.0479390650937943,-0.498193944053394,4.105648411333414,0.0,8.415033894931256,8.516284807088168,120.02096907067438,123.65781184960933,0.0
0.045,3.123452064170624,-0.49769638463158183,4.492159094044521,0.0,8.474923649015885,8.646140395696209,121.92062425227753,123.65781184960933,0.0
0.046,3.231042545843321,-0.48411591914514096,3.5597033792162627,0.0,8.540321110943568,8.651484342400458,119.0178844701944,123.65781184960933,0.0
0.047,3.282178638096432,-0.4460909886353286,5.057472544051977,0.0,8.59566628364769,8.832363740576149,120.17542376732871,123.65781184960933,0.0
0.048,3.3946492361113445,-0.456137676964961,4.51352677630763,0.0,8.665050263920328,8.914017585245343,121.38921855003424,123.65781184960933,0.0
0.049,3.4923789104035974,-0.43381783088085357,3.929315317950614,0.0,8.733105580680075,8.925995082541046,120.78631671573372,123.65781184960933,0.0
0.05,3.5304074184151464,-0.41936646577748005,4.259481186439633,0.0,8.794186663792885,8.982534882762174,122.42715850345856,123.65781184960933,0.0
0.051000000000000004,3.547284936504793,-0.45855253993606304,3.451366826038722,0.0,8.859268600425006,8.945858331033733,126.23674868587916,123.65781184960933,0.0
0.052000000000000005,3.5256222176924377,-0.466010194853425,1.5207823664657205,0.0,8.914603169520394,8.71762615544258,124.11489878980616,123.65781184960933,0.0
0.053,3.38959685607696,-0.43060012062892694,2.5771364451002534,0.0,8.93761137943326,8.66800161015519,126.13924286186185,123.65781184960933,0.0
0.054,3.3002222359913462,-0.44081323483492496,1.5401500989498866,0.0,8.954833857131007,8.50947925611821,126.95067974852907,123.65781184960933,0.0
0.055,3.191121215760796,-0.4144071989979692,1.1015029766270774,0.0,8.951475056571153,8.341757431285194,126.00204440292339,123.65781184960933,0.0
0.056,3.058063959739869,-0.40483810252586516,1.552378323896777,0.0,8.930891413330425,8.257999956262386,127.85496849304387,123.65781184960933,0.0
0.057,2.973977683242273,-0.40259161477089744,0.5839447124021904,0.0,8.903838964223162,8.077442331535213,126.66401333078772,123.65781184960933,0.0
0.058,2.849245377193009,-0.40088745968072126,1.1493602787184791,0.0,8.86127100537154,7.99699496368021,127.34360667190978,123.65781184960933,0.0
0.059000000000000004,2.772725057086312,-0.4076960090000412,0.7727056599344455,0.0,8.815681087595603,7.880419285147383,127.5244581797186,123.65781184960933,0.0
0.06,2.687194796232526,-0.4245557430833651,0.6436134427289479,0.0,8.764779078999947,7.769151710478328,127.3880163443088,123.65781184960933,0.0
0.061,2.6098461265390345,-0.43227023008303456,0.6745323154868519,0.0,8.708520510026089,7.676265741649788,127.74370835233479,123.65781184960933,0.0
0.062,2.537916406061122,-0.45449478475409233,0.4558273464465987,0.0,8.650966757210576,7.569814560040342,127.39994812162175,123.65781184960933,0.0
0.063,2.4683794817808455,-0.4651419435895312,0.5902860990829972,0.0,8.589472203440861,7.492160398256747,127.83959780656583,123.65781184960933,0.0
0.064,2.407069159969165,-0.4915771388988599,0.3286433970413887,0.0,8.52916308876543,7.392045678680082,127.33137389325081,123.65781184960933,0.0
0.065,2.3444646890405956,-0.5037470341977776,0.5460197332624848,0.0,8.465947750129663,7.328712732182301,127.94915390078286,123.65781184960933,0.0
0.066,2.2923015655025827,-0.5328314736446651,0.1942163089847253,0.0,8.405798240093858,7.229631305317854,127.16821432234075,123.65781184960933,0.0
0.067,2.2327431774031163,-0.5442952172017581,0.5495820734784691,0.0,8.342725705772008,7.1830811299289214,127.8859292919074,123.65781184960933,0.0
0.068,2.190016847560142,-0.5739332690057933,0.14844341427216,0.0,8.284450955606317,7.091304120890799,127.16172298117344,123.65781184960933,0.0
0.069,2.135373392456553,-0.5870040281326037,0.4755074583234995,0.0,8.223967382539293,7.048449285940594,127.39368986416619,123.65781184960933,0.0
0.07,2.0965644694777836,-0.6130443867618779,0.3221652366815557,0.0,8.167980415141901,6.987415839334207,127.1494391754733,123.65781184960933,0.0
0.07100000000000001,2.0561899995689545,-0.632306278219761,0.40937430776935946,0.0,8.113347204297689,6.942066563144988,127.28857592466139,123.65781184960933,0.0
0.07200000000000001,2.0204825497346377,-0.6552120277689708,0.30349829242479753,0.0,8.061969400454807,6.88679451587417,127.15600231805583,123.65781184960933,0.0
0.073,1.9818054775396226,-0.673324554412647,0.33480319104311285,0.0,8.011965492704448,6.840311595390716,127.15142932062577,123.65781184960933,0.0
0.074,1.9456194333051506,-0.6911249528165383,0.3021535150479786,0.0,7.964090602238766,6.793165756978764,127.1235304026719,123.65781184960933,0.0
0.075,1.9092822198909025,-0.7075123926444088,0.28144578849428425,0.0,7.917913231375485,6.747630893233709,127.02681948127025,123.65781184960933,0.0
0.076,1.8737009535920652,-0.7216420164003683,0.2961111728785011,0.0,7.8731904954389025,6.70740261548336,126.9884485124715,123.65781184960933,0.0
0.077,1.8405258673645506,-0.7352342063524999,0.2819902906492515,0.0,7.830271049978119,6.668318387847368,126.92560471108337,123.65781184960933,0.0
0.078,1.8083676179142711,-0.7476580946552516,0.2807342627285818,0.0,7.788965832113595,6.632059340757168,126.81526341586071,123.65781184960933,0.0
0.079,1.7778592550171886,-0.7587324903350177,0.30433039467739453,0.0,7.7492591759682545,6.600938148807291,126.82578725152648,123.65781184960933,0.0
0.08,1.7510358574691074,-0.7678588144859122,0.26738872282534043,0.0,7.711304217942257,6.567304355315971,126.89491288624833,123.65781184960933,0.0
0.081,1.7235266382938412,-0.7753069043635314,0.20045489509802183,0.0,7.674509403014757,6.529002921173498,126.7590040088915,123.65781184960933,0.0
0.082,1.6934552936380214,-0.7797572791908995,0.2373974121836202,0.0,7.637978986497997,6.498617919829598,126.47884641192462,123.65781184960933,0.0
0.083,1.6664602379503948,-0.784225188664927,0.349265865043904,0.0,7.602510077792389,6.482223224291268,126.19817098724666,123.65781184960933,0.0
0.084,1.6474784810007104,-0.7910622590971746,0.464199986006514,0.0,7.569655989056316,6.477263218921083,125.89354518395474,123.65781184960933,0.0
0.085,1.6361910436335303,-0.8010829983811073,0.5941555543090162,0.0,7.540625219273742,6.48371137705885,125.47835671975572,123.65781184960933,0.0
0.08600000000000001,1.6347157832590398,-0.8099103467712234,0.7835443377070623,0.0,7.516013143213277,6.506194257162868,125.24595144112975,123.65781184960933,0.0
0.08700000000000001,1.6426345734148113,-0.8226952791217919,0.8838655811048459,0.0,7.497428631843922,6.532223271069332,125.65379035927218,123.65781184960933,0.0
0.088,1.6562724237982087,-0.8328081016522301,0.6599863369370018,0.0,7.48429003415699,6.526740027515157,126.75647175718389,123.65781184960933,0.0
0.089,1.6520710882577794,-0.8384047534731591,0.07765903890540171,0.0,7.4724314753583325,6.459272563619192,125.62437388285245,123.65781184960933,0.0
0.09,1.6116871841205922,-0.825362758168013,0.6240423557386885,0.0,7.453521440048169,6.4676916441646215,124.42714336917767,123.65781184960933,0.0
0.091,1.6009965065391898,-0.8186048632276023,1.214964297380396,0.0,7.436731367833169,6.533687529029326,124.4473572723498,123.65781184960933,0.0
0.092,1.6305271907444816,-0.8248341133822529,1.1969618915669238,0.0,7.428972687792559,6.580160052091767,125.93571586608766,123.65781184960933,0.0
0.093,1.6597320205533055,-0.8348678836892353,0.43000355453321193,0.0,7.427678550294472,6.534106837391412,125.61071358174856,123.65781184960933,0.0
0.094,1.6389784561236753,-0.8280025799300641,0.572975679381373,0.0,7.421052983959579,6.518500987900264,123.86702645993518,123.65781184960933,0.0
0.095,1.6233154693870835,-0.8117251400845806,1.442727094184805,0.0,7.411807523963649,6.599551494001366,123.37272929090146,123.65781184960933,0.0
0.096,1.659924864294754,-0.8118513743928285,1.692726504288741,0.0,7.411768320749785,6.686191161148956,125.16097587394914,123.65781184960933,0.0
0.097,1.7117438413006725,-0.8250661264253523,0.7835715725215027,0.0,7.421849364952565,6.656321911143391,125.34327301987786,123.65781184960933,0.0
0.098,1.7065906965122444,-0.8187836716910168,0.6755683878544603,0.0,7.4271121621934055,6.6287439252597435,123.08808860863742,123.65781184960933,0.0
0.099,1.6910700475111085,-0.7939409370910482,1.8088578258843968,0.0,7.426421004863145,6.73184762766075,122.79408848707874,123.65781184960933,0.0
0.1,1.7400242470467953,-0.7903114759409575,1.9644951202890437,0.0,7.435958520125498,6.824818883653903,124.82336008707199,123.65781184960933,0.0
0.101,1.7982192394815446,-0.8018831973818584,0.9382038379177917,0.0,7.455148593430932,6.789086444396626,124.09324642468293,123.65781184960933,0.0
0.10200000000000001,1.7933890396125673,-0.789142646255458,1.2989063233615847,0.0,7.467329237641787,6.809899714528088,121.28144474845391,123.65781184960933,0.0
0.10300000000000001,1.8041282061997619,-0.767854848251152,2.728570832487651,0.0,7.478158892175487,6.982276182893633,123.5037339815283,123.65781184960933,0.0
0.10400000000000001,1.8961353816985327,-0.7781815839410549,1.6189669946312655,0.0,7.506492046998305,6.99213150498154,125.01810955047448,123.65781184960933,0.0
0.105,1.9239307337410791,-0.7756887406292695,0.8481762331495248,0.0,7.532599938426438,6.928006247988819,121.7425121269716,123.65781184960933,0.0
0.106,1.902278813640137,-0.7367797428753533,2.5051279421273387,0.0,7.545429453692674,7.06553656617209,122.12777541994377,123.65781184960933,0.0
0.107,1.9697637542370519,-0.726772208601451,2.32779665993791,0.0,7.5700173104580175,7.146880983266369,124.32348203422283,123.65781184960933,0.0
0.108,2.027236347259998,-0.7328098690024357,1.2232866509522442,0.0,7.601045041243107,7.097179820334672,121.07448576085754,123.65781184960933,0.0
0.109,2.022926125181338,-0.7015261203034479,2.8736180485224088,0.0,7.620498293695618,7.24918195095611,121.9817735070059,123.65781184960933,0.0
0.11,2.1051114814861798,-0.6946955210406945,2.436734558874265,0.0,7.6527679055331115,7.31428520450934,123.42653727651101,123.65781184960933,0.0
0.111,2.1586819416222016,-0.6988287508744555,1.7166654198526905,0.0,7.688843842816516,7.29619542644319,120.12052168164989,123.65781184960933,0.0
0.112,2.1744393717547386,-0.6646346409043242,3.4050461189628463,0.0,7.715700524169917,7.475247175491111,122.47156459306059,123.65781184960933,0.0
0.113,2.2725142535748604,-0.6695950673716108,2.2413871358229827,0.0,7.758664300303868,7.4835624599342,120.91800912900537,123.65781184960933,0.0
0.114,2.306391486370147,-0.6581412573235093,3.0455628950566336,0.0,7.79685370389877,7.592692770104202,121.10383404372638,123.65781184960933,0.0
0.115,2.384196172658067,-0.6387063974671559,2.978190215754958,0.0,7.840113901667465,7.671056494137453,122.03295348964797,123.65781184960933,0.0
0.116,2.442990938391314,-0.6401510744552513,2.5298790763937786,0.0,7.88723771512987,7.691579989639756,119.26126976112646,123.65781184960933,0.0
0.117,2.485584833859585,-0.603543378442581,3.959686361539362,0.0,7.927660203464991,7.872428048853516,122.37485838554049,123.65781184960933,0.0
0.11800000000000001,2.5880250582543547,-0.6167235777612299,2.415721583973033,0.0,7.983941147773153,7.844256866866922,118.94775041964935,123.65781184960933,0.0
0.11900000000000001,2.6172506485556033,-0.5791869614493423,4.1763761812182025,0.0,8.027516049664342,8.031452138293243,122.06355335777538,123.65781184960933,0.0
0.12,2.7227450525449557,-0.5866482181983047,2.63441729707353,0.0,8.086649092914554,8.005751221001871,118.53453489564203,123.65781184960933,0.0
0.121,2.7550312342276024,-0.5474502206428105,4.450159297679878,0.0,8.132912347812011,8.201188372727604,121.56449907796323,123.65781184960933,0.0
0.122,2.8652537449890603,-0.5585000002768591,2.956110334235735,0.0,8.195700448127598,8.187403714418656,118.79675064642335,123.65781184960933,0.0
0.123,2.909270396534793,-0.5172471383823563,4.388595162037538,0.0,8.246182959975993,8.350050546102384,120.38040759924657,123.65781184960933,0.0
0.124,3.0055444674072143,-0.5241534356074999,3.629540728129556,0.0,8.309054125121635,8.393510128514176,119.79013217710546,123.65781184960933,0.0
0.125,3.0776863974217075,-0.4893223093114992,3.963355235925147,0.0,8.366083645129077,8.476248137803074,118.13112587517033,123.65781184960933,0.0
0.126,3.143090658580472,-0.48238847117042505,4.848125246637105,0.0,8.425269603132111,8.643928804836872,120.64654640755921,123.65781184960933,0.0
0.127,3.263680736300362,-0.4796289827413638,3.6205276348631625,0.0,8.495070826692428,8.644265697627738,118.421058298483,123.65781184960933,0.0
0.128,3.318805152424935,-0.4393741451766306,4.785639224912531,0.0,8.553525179927977,8.787129489522213,118.3358119576771,123.65781184960933,0.0
0.129,3.412781152608086,-0.44037240200674377,4.881482394234808,0.0,8.620932833656376,8.910657854416852,121.3513499987623,123.65781184960933,0.0
0.13,3.5192109679723784,-0.43530225585807913,3.3967779922006742,0.0,8.693384859856744,8.85353071258965,120.79022779727151,123.65781184960933,0.0
0.131,3.5138918817325675,-0.42856747787062427,3.706014933469447,0.0,8.752188845137226,8.859873992765133,121.71845132821839,123.65781184960933,0.0
0.132,3.4915085225410754,-0.4568259112723127,3.2612967732099163,0.0,8.808922535361262,8.821860955058547,125.81592592036496,123.65781184960933,0.0
0.133,3.4554203392733482,-0.4631176159826227,1.1909783364290756,0.0,8.856591055976356,8.573780610269258,123.52653093056254,123.65781184960933,0.0
0.134,3.306817013136474,-0.42185700396469367,2.3369886405207523,0.0,8.870083105681937,8.518024953880682,125.32199217216976,123.65781184960933,0.0
0.135,3.2117632608292412,-0.4299126857754042,1.4226162164915412,0.0,8.877949115897456,8.366122877909813,125.98497103504133,123.65781184960933,0.0
0.136,3.1053037017537264,-0.40643671674431786,1.0678551932014368,0.0,8.867175404082817,8.211077636211208,125.21023279831682,123.65781184960933,0.0
0.137,2.9809710944829564,-0.4018944390667671,1.4397001020766131,0.0,8.841709648425553,8.12752208891919,126.60051718395185,123.65781184960933,0.0
