timestamp,iq,id,iq_ref,id_ref,vq,vd,omega,omega_ref,r
0.0,0.0,0.0,0.0,0.0,0.0,0.0,0.0,474.32128360561245,0.0
0.001,0.0,0.0,10.0,0.0,0.0,1.0999999999999999,6.115472199294103,474.32128360561245,0.0
0.002,0.5307369851907212,-0.2913212625381807,10.0,0.0,0.14204533887919985,1.9316189316290207,13.317801563642547,474.32128360561245,0.0
0.003,1.0842913387634832,-0.6024330830807904,10.0,0.0,0.384357124667687,2.6386968949419622,20.697939467553027,474.32128360561245,0.0
0.004,1.5590443546685477,-0.8700465084428163,10.0,0.0,0.6994718867930164,3.2526109522886295,28.232747544420146,474.32128360561245,0.0
0.005,1.9399447555359186,-1.0838738622210777,10.0,0.0,1.065311453102468,3.7994935661768023,35.92944872443006,474.32128360561245,0.0
0.006,2.239750732602683,-1.2510087368845633,10.0,0.0,1.4655018868449925,4.299102221838433,43.75633668444442,474.32128360561245,0.0
0.007,2.4770151619816017,-1.382020589851471,10.0,0.0,1.8883740978591532,4.765668027847139,51.58766747378032,474.32128360561245,0.0
0.008,2.6680767290418097,-1.4872241871505252,10.0,0.0,2.325877945545995,5.209220346273558,59.45942083902103,474.32128360561245,0.0
0.009000000000000001,2.8266491704841292,-1.5730794701170803,10.0,0.0,2.772378685460125,5.636635464737965,67.35059094018146,474.32128360561245,0.0
0.01,2.962077666392183,-1.645500646948331,10.0,0.0,3.224078639851053,6.052647735211881,75.20908322432116,474.32128360561245,0.0
0.011,3.0811061533574158,-1.7084279320504514,10.0,0.0,3.678407615443203,6.460489925470405,83.0265951655913,474.32128360561245,0.0
0.012,3.188848746459569,-1.7638278597420747,10.0,0.0,4.133552631697047,6.862319393890706,90.74118064793086,474.32128360561245,0.0
0.013000000000000001,3.288205119878689,-1.8140726097274587,10.0,0.0,4.588339016389012,7.259628641949282,98.35820682563939,474.32128360561245,0.0
0.014,3.3820602099432007,-1.8592355758795645,10.0,0.0,5.041843166194517,7.653355107498287,105.90865295623543,474.32128360561245,0.0
0.015,3.4721069852858886,-1.899829032412081,10.0,0.0,5.493383198131427,8.044092747085895,113.37727610343421,474.32128360561245,0.0
0.016,3.5596145800153947,-1.9360338400176071,10.0,0.0,5.94241958510469,8.43218525824161,120.68508583176356,474.32128360561245,0.0
0.017,3.645144415105338,-1.9685384477868613,10.0,0.0,6.388575043274759,8.817838951066484,127.83962377537456,474.32128360561245,0.0
0.018000000000000002,3.730251927866576,-1.9959253041084188,10.0,0.0,6.83136783302799,9.201036292373047,134.85405702603322,474.32128360561245,0.0
0.019,3.81544967906247,-2.018253592643655,10.0,0.0,7.270383321112213,9.581672501020332,141.68976328564074,474.32128360561245,0.0
0.02,3.9014648862453374,-2.0350875541282063,10.0,0.0,7.705189334130692,9.959536942333155,148.3432823300447,474.32128360561245,0.0
0.021,3.9891051824829464,-2.0457889559126508,10.0,0.0,8.135310004560049,10.334315260302239,154.92060212100432,474.32128360561245,0.0
0.022,4.079618141396171,-2.0489696811670974,10.0,0.0,8.560139305503519,10.705547790999272,161.01925282597162,474.32128360561245,0.0
0.023,4.171109372430197,-2.048468292080302,10.0,0.0,8.979521969370257,11.072981092896333,166.534238406907,474.32128360561245,0.0
0.024,4.266936196769627,-2.039517194249811,10.0,0.0,9.392730090169543,11.435983292623375,171.8647834235234,474.32128360561245,0.0
0.025,4.367255527950721,-2.0225841458509217,10.0,0.0,9.79914449451603,11.793929226271104,177.02637022703064,474.32128360561245,0.0
0.026000000000000002,4.4734353073349595,-1.9962166741499119,10.0,0.0,10.197980960389518,12.146045424568259,181.63161391243256,474.32128360561245,0.0
0.027,4.582366840795821,-1.966358349113627,10.0,0.0,10.589124658468391,12.491912978736195,185.74793639675826,474.32128360561245,0.0
0.028,4.700058850757774,-1.9240450691803936,10.0,0.0,10.971384864613876,12.830451341534015,189.43662766964098,474.32128360561245,0.0
0.029,4.820934284790598,-1.879137197786803,10.0,0.0,11.344756153370636,13.161242511022618,192.73598774770625,474.32128360561245,0.0
0.03,4.952016225740939,-1.821000614527957,10.0,0.0,11.707923484756042,13.483081433273819,195.59831968863915,474.32128360561245,0.0
0.031,5.086039273572549,-1.7621311371320891,10.0,0.0,12.061063698547066,13.79562148058647,197.80891551030922,474.32128360561245,0.0
0.032,5.230431844273564,-1.6911110488141978,10.0,0.0,12.40292038074925,14.097678592248165,200.4421589734679,474.32128360561245,0.0
0.033,5.380124186618445,-1.6166151787533525,10.0,0.0,12.733312761073865,14.38869342901298,201.91742172589852,474.32128360561245,0.0
0.034,5.537594793894332,-1.535029134414507,10.0,0.0,13.051537880865839,14.667821176756876,203.18880493813168,474.32128360561245,0.0
0.035,5.698947813469154,-1.4530296333491768,10.0,0.0,13.357649178779205,14.934684535625108,203.60405746232266,474.32128360561245,0.0
0.036000000000000004,5.870474243492053,-1.3603000477825025,10.0,0.0,13.65045542338638,15.188218311291084,204.28541056101804,474.32128360561245,0.0
0.037,6.041188711220851,-1.275010780747051,10.0,0.0,13.930879897581198,15.42861600670124,205.2233356988433,474.32128360561245,0.0
0.038,6.228175208801664,-1.168399557236846,10.0,0.0,14.196427351981786,15.654155009933262,200.35169734043586,474.32128360561245,0.0
0.039,6.404895489618571,-1.0845312562500289,10.0,0.0,14.449814560392067,15.86612549236809,209.64773540576442,474.32128360561245,0.0
0.04,6.534612624563911,-1.0851225869390002,10.0,0.0,14.699963825590459,16.069735965364643,218.170241886545,474.32128360561245,0.0
0.041,6.621487035821765,-1.1484636683301073,10.0,0.0,14.952420817214799,16.26974130369247,220.68166573712315,474.32128360561245,0.0
0.042,6.6704785161669795,-1.2647840534085386,10.0,0.0,15.211794475054209,16.47047148862455,233.10654395573727,474.32128360561245,0.0
0.043000000000000003,6.709376245503157,-1.3867642159960276,10.0,0.0,15.477558399636717,16.673277185423842,235.10815372853793,474.32128360561245,0.0
0.044,6.744196093263161,-1.5028656568708394,10.0,0.0,15.74857785831126,16.87893749904121,248.8181267625822,474.32128360561245,0.0
0.045,6.750563942850831,-1.6564343609015326,10.0,0.0,16.02879294551472,17.090781462187255,251.61117095327992,474.32128360561245,0.0
0.046,6.764566527560506,-1.7840489455190416,10.0,0.0,16.314672837580048,17.307985931916857,266.60539535969383,474.32128360561245,0.0
0.047,6.752169677737121,-1.9446655565152717,10.0,0.0,16.610076868775216,17.533561623207692,270.0627790167984,474.32128360561245,0.0
0.048,6.7291903821171735,-2.110358990489937,10.0,0.0,16.91511817760721,17.768523902508925,283.13731951482634,474.32128360561245,0.0
0.049,6.714097190323873,-2.246352557911731,10.0,0.0,17.22645394156277,18.011924542904307,294.70561782835244,474.32128360561245,0.0
0.05,6.666841209228205,-2.4219663531358275,10.0,0.0,17.548953774962747,18.267165921658286,300.1294548425776,474.32128360561245,0.0
0.051000000000000004,6.612335516543512,-2.59336894353628,10.0,0.0,17.88182590988993,18.53465621226123,310.75154600411304,474.32128360561245,0.0
0.052000000000000005,6.568447424188529,-2.726701034625408,10.0,0.0,18.22111236450049,18.81296732052879,322.35703405819294,474.32128360561245,0.0
0.053,6.5036136539679195,-2.8764091099274185,10.0,0.0,18.569435851849082,19.104068797231378,330.9557012510771,474.32128360561245,0.0
0.054,6.434362099984388,-3.0149932598739144,10.0,0.0,18.925784313874168,19.407861808234543,339.4707232587175,474.32128360561245,0.0
0.055,6.370891759459199,-3.1253006473392393,10.0,0.0,19.28762520191878,19.723199586257838,348.00092263299223,474.32128360561245,0.0
0.056,6.314459991163816,-3.2071523724558277,10.0,0.0,19.65271639484943,20.048760466390505,356.29964302226927,474.32128360561245,0.0
0.057,6.266092078485367,-3.262894600420583,10.0,0.0,20.01916768432525,20.383030530514645,362.98468703488817,474.32128360561245,0.0
0.058,6.234656406121481,-3.2830044001420036,10.0,0.0,20.38405550695561,20.723492962007192,368.0316803659419,474.32128360561245,0.0
0.059000000000000004,6.228510489334133,-3.2600491726267444,10.0,0.0,20.743774617448285,21.0667596267365,372.35801287012686,474.32128360561245,0.0
0.06,6.247959954981508,-3.201438289803519,10.0,0.0,21.095630838529225,21.40947063565305,373.88739853789605,474.32128360561245,0.0
0.061,6.298571070969623,-3.1064761741463998,10.0,0.0,21.436712814499675,21.747723437683817,371.47602194372377,474.32128360561245,0.0
0.062,6.38094735961424,-2.982369480030801,10.0,0.0,21.76480975788002,22.077703876517536,366.2922057853833,474.32128360561245,0.0
0.063,6.53566146196873,-2.7695519558602215,10.0,0.0,22.070926190088084,22.39130117743337,372.07145994459506,474.32128360561245,0.0
0.064,6.708566607552835,-2.560747003310555,10.0,0.0,22.35695033962817,22.686677966487718,365.1882535794375,474.32128360561245,0.0
0.065,6.897199383751794,-2.3667028673086685,10.0,0.0,22.62465294768497,22.962098937664592,356.7297130485294,474.32128360561245,0.0
0.066,7.167218997264825,-2.0824440278168583,10.0,0.0,22.863799361069702,23.20893224280502,357.7888817172531,474.32128360561245,0.0
0.067,7.423387055578651,-1.859201647307153,10.0,0.0,23.082000390168847,23.42951856849048,345.1266644280509,474.32128360561245,0.0
0.068,7.736929428236853,-1.5824320316278497,10.0,0.0,23.27222771500701,23.617938384108047,342.9584987314189,474.32128360561245,0.0
0.069,8.04132723792414,-1.3546495884062866,10.0,0.0,23.43998591632552,23.77619061530866,334.2677598047511,474.32128360561245,0.0
0.07,8.395997401416553,-1.0747195592463576,10.0,0.0,23.578279041856877,23.89942370363377,322.7417355360636,474.32128360561245,0.0
0.07100000000000001,8.726669482066718,-0.8579631993863083,10.0,0.0,23.694022264374595,23.99133556844291,337.9106389559309,474.32128360561245,0.0
0.07200000000000001,8.91385728821635,-0.8925675486457335,10.0,0.0,23.81335639313859,24.06834663115294,344.8606079910171,474.32128360561245,0.0
0.073,8.941721008651788,-1.1508071676799903,10.0,0.0,23.95651852989837,24.148396869281978,362.43451347602996,474.32128360561245,0.0
0.074,8.927907180207171,-1.4305443375681337,10.0,0.0,24.121558169292424,24.236556455607346,368.59250641149885,474.32128360561245,0.0
0.075,8.859340450140312,-1.7499202918046703,10.0,0.0,24.31124378664675,24.33980824926249,387.10067316750514,474.32128360561245,0.0
0.076,8.767176841935807,-2.0562826706616475,10.0,0.0,24.52279212376306,24.461155754889383,396.7190369145668,474.32128360561245,0.0
0.077,8.62162972262067,-2.4016532593838043,10.0,0.0,24.76024751870129,24.606611890707832,408.83095327273656,474.32128360561245,0.0
0.078,8.47560200325128,-2.694417929744825,10.0,0.0,25.017253395580042,24.77587553037574,428.2762610097064,474.32128360561245,0.0
0.079,8.289593068490031,-3.001970310780605,10.0,0.0,25.296388163948027,24.972914099394785,438.0404594767293,474.32128360561245,0.0
0.08,8.078425759776728,-3.30171273584331,10.0,0.0,25.597209455327665,25.19953060295957,447.87571303424875,474.32128360561245,0.0
0.081,7.882675762310951,-3.525181384717318,10.0,0.0,25.912194395051316,25.45298841193994,460.26934286159303,474.32128360561245,0.0
0.082,7.687097883672571,-3.703693402600396,10.0,0.0,26.238428257179056,25.732155000670204,470.03446400235384,474.32128360561245,0.0
0.083,7.512516260295773,-3.813976142857688,8.790808354245199,0.0,26.570301373216502,25.900265435492244,476.59100852483755,474.32128360561245,0.0
0.084,7.303764263375518,-3.8272355966337512,5.489838843811095,0.0,26.886153933645215,25.754954312173084,472.94398260714337,474.32128360561245,0.0
0.085,6.983594565783994,-3.6524209893551047,7.327124812642877,0.0,27.13652792436073,25.924001855670433,467.0041064805646,474.32128360561245,0.0
0.08600000000000001,6.841841479049341,-3.4238260358177697,10.0,0.0,27.3553719715381,26.38921659737544,467.64702937175434,474.32128360561245,0.0
0.08700000000000001,6.961871211323713,-3.2007035919544675,10.0,0.0,27.57659556887865,26.788444716336585,469.78568634648815,474.32128360561245,0.0
0.088,7.1665530579208,-2.9706907044604147,9.081976315187479,0.0,27.792549425195546,27.04757507200337,453.8559509428116,474.32128360561245,0.0
0.089,7.390865601569134,-2.6757284851291208,10.0,0.0,27.982675216195936,27.389923058577327,442.33000973295424,474.32128360561245,0.0
0.09,7.757031559978641,-2.3000792416918756,10.0,0.0,28.149651432168888,27.66983345875722,440.69433478288545,474.32128360561245,0.0
0.091,8.128740810248487,-1.9850861261312711,10.0,0.0,28.297028316285243,27.901224082570845,420.6687715078462,474.32128360561245,0.0
0.092,8.577176343488949,-1.6038328020853907,10.0,0.0,28.414018639881885,28.078602516260982,415.28272963355283,474.32128360561245,0.0
0.093,9.023320825238159,-1.2727772367622876,10.0,0.0,28.50444419554279,28.20535060128176,399.71858471777415,474.32128360561245,0.0
0.094,9.522485787304502,-0.8954839813285118,10.0,0.0,28.5603103016952,28.278019732356757,398.08584990379205,474.32128360561245,0.0
0.095,9.958869468062108,-0.6534011982069399,10.0,0.0,28.595000536750838,28.305998005676805,408.6733199163991,474.32128360561245,0.0
0.096,10.087815725471673,-0.8965946015228057,10.0,0.0,28.658191677828878,28.324827223662957,424.53465526479044,474.32128360561245,0.0
0.097,10.068206656335171,-1.3046131587464784,10.0,0.0,28.759396733859166,28.351539094137394,439.6168061101977,474.32128360561245,0.0
0.098,9.988641388512793,-1.7187600206465559,10.0,0.0,28.89462844057065,28.394256371936518,457.7057143666552,474.32128360561245,0.0
0.099,9.814278252415717,-2.1971597102952085,10.0,0.0,29.069091201633242,28.464609384919328,471.20283336667,474.32128360561245,0.0
0.1,9.610954309415694,-2.629081996695023,8.945649957957244,0.0,29.275870442495354,28.450016870454437,493.28611936663816,474.32128360561245,0.0
0.101,9.296807367312445,-3.031618120982388,-2.2856413996370906,0.0,29.50047225863237,27.26518590680867,495.57663442298383,474.32128360561245,0.0
0.10200000000000001,8.354844000602343,-3.103707104350172,-3.6434524359836384,0.0,29.58803522371869,26.284726421636087,498.0783874903098,474.32128360561245,0.0
0.10300000000000001,7.341717623993576,-3.0297143893710112,-5.131900008493601,0.0,29.55993585529775,25.362942326636606,498.48030572145115,474.32128360561245,0.0
0.10400000000000001,6.3699961739756015,-2.8768800290867063,-5.574449345222656,0.0,29.426396161737454,24.59348884871579,495.1190625072812,474.32128360561245,0.0
0.105,5.544927961925345,-2.672890918138018,-4.101805527154386,0.0,29.208354631139606,24.13508335141117,488.7201546791783,474.32128360561245,0.0
0.106,4.975145848416671,-2.4806693909687945,-1.0463403238385691,0.0,28.94717222699195,24.07651433532673,481.09294801984873,474.32128360561245,0.0
0.107,4.743388210558204,-2.332635477977115,2.69954636168384,0.0,28.691889646493223,24.398972382839624,473.1339683046517,474.32128360561245,0.0
0.108,4.850317631990811,-2.2511857184012154,6.690909372291957,0.0,28.486901994372225,25.051167619126858,465.9138533056167,474.32128360561245,0.0
0.109,5.274834943312475,-2.2090859301116783,10.0,0.0,28.36381615197596,25.896103295484004,466.9587993106698,474.32128360561245,0.0
0.11,5.918575352475845,-2.194822604033477,9.928492191736108,0.0,28.33638449346933,26.536713782884956,460.21568192534414,474.32128360561245,0.0
0.111,6.532143894301148,-2.1552408554104154,10.0,0.0,28.3715456904657,27.058045857177657,442.5465970457416,474.32128360561245,0.0
0.112,7.163691164902194,-1.96151375400608,10.0,0.0,28.43440981152346,27.466711251310237,441.47821365391326,474.32128360561245,0.0
0.113,7.754238299719809,-1.7178682808363912,10.0,0.0,28.50699032885408,27.7821518060114,421.11495569146274,474.32128360561245,0.0
0.114,8.312120003832659,-1.4501670289566566,10.0,0.0,28.576846166946673,28.01784484087128,417.0201792412317,474.32128360561245,0.0
0.115,8.870286592395892,-1.137834349216246,10.0,0.0,28.631606142463347,28.18113464835359,398.0333822284925,474.32128360561245,0.0
0.116,9.415283270728509,-0.8214510608400154,10.0,0.0,28.665540266252616,28.27920350390839,399.95116033784774,474.32128360561245,0.0
0.117,9.883084437487009,-0.6229779079515518,10.0,0.0,28.687219649284458,28.324850724726524,412.36506259177816,474.32128360561245,0.0
0.11800000000000001,10.051272136198582,-0.8628161202879099,10.0,0.0,28.739662750980816,28.354278526575335,424.1924860487046,474.32128360561245,0.0
0.11900000000000001,10.046205966089977,-1.2862893818338081,10.0,0.0,28.83398799933911,28.388247014107975,440.4844912430363,474.32128360561245,0.0
0.12,9.973656667196721,-1.7154062302425768,10.0,0.0,28.96524569232434,28.436180938900357,459.5892570178485,474.32128360561245,0.0
0.121,9.805411167797574,-2.2007100852635624,10.0,0.0,29.13726326405851,28.51022875245698,472.65528668735635,474.32128360561245,0.0
0.122,9.604658885312308,-2.63853450457865,7.753751507319935,0.0,29.342791507549364,28.36738650371595,491.7511638591767,474.32128360561245,0.0
0.123,9.222454786648152,-3.024469374175157,-1.9684858811258819,0.0,29.55155729327951,27.252432604424072,495.2950289187965,474.32128360561245,0.0
0.124,8.306076570702746,-3.0866730808392533,-3.950155864067625,0.0,29.63093416954453,26.24606891216261,498.6658541939853,474.32128360561245,0.0
0.125,7.2864265385511064,-3.0114360574936647,-5.879014207545749,0.0,29.59283887932225,25.25891928017785,498.3361803751736,474.32128360561245,0.0
0.126,6.28537514353609,-2.8407368924897716,-5.954326265835526,0.0,29.441813617006744,24.477598492522386,494.444296894218,474.32128360561245,0.0
0.127,5.451222223973063,-2.626517318748427,-4.20961465824376,0.0,29.20590164069574,24.033724962020692,487.8258395382437,474.32128360561245,0.0
0.128,4.892057968364006,-2.434779472856215,-1.0354315395829365,0.0,28.930244541654925,23.995527152836196,480.13256083534037,474.32128360561245,0.0
0.129,4.679431601856268,-2.293386542435852,2.7530950395714546,0.0,28.66469752771244,24.33637676494621,472.1332482908174,474.32128360561245,0.0
0.13,4.8062541250235755,-2.220287688328209,6.774631664980895,0.0,28.453163231727544,25.004993736240984,465.0010298969999,474.32128360561245,0.0
0.131,5.249153942715329,-2.18577979345823,10.0,0.0,28.326579182576026,25.852719976691375,466.18357074975205,474.32128360561245,0.0
0.132,5.900652978381949,-2.179563331005867,9.915371233178782,0.0,28.297087430463623,26.494216444734654,458.67417372603705,474.32128360561245,0.0
0.133,6.520865162754817,-2.1408585063741996,10.0,0.0,28.330499134281823,27.017061192856552,441.4806885641528,474.32128360561245,0.0
0.134,7.157608820724253,-1.946971815865591,10.0,0.0,28.39191365482077,27.426276668346958,440.88608065440684,474.32128360561245,0.0
0.135,7.747576668610867,-1.7098657158331712,10.0,0.0,28.463965466756378,27.742183021654384,420.0402552386369,474.32128360561245,0.0
0.136,8.308781362120525,-1.4406269747596963,10.0,0.0,28.533157532311424,27.97787108301744,416.56033746444234,474.32128360561245,0.0
0.137,8.865462946626703,-1.1328375408138227,10.0,0.0,28.58783474712395,28.141286617439107,397.3708762612792,474.32128360561245,0.0
0.138,9.411008025920003,-0.8166626286709182,10.0,0.0,28.621684447901124,28.239385177022648,398.97598418891016,474.32128360561245,0.0
0.139,9.873085779332156,-0.6279636000537987,10.0,0.0,28.644363890532496,28.285685748643168,412.36854367023693,474.32128360561245,0.0
0.14,10.04094854638723,-0.8670384155242282,10.0,0.0,28.697590666050683,28.315780080522817,423.62866045192044,474.32128360561245,0.0
0.14100000000000001,10.035494037427696,-1.2896162383471468,10.0,0.0,28.792597009560836,28.35046628042244,439.5317032651708,474.32128360561245,0.0
0.14200000000000002,9.96055715721814,-1.721742979804198,10.0,0.0,28.924879502041986,28.399373006416546,459.6952514356202,474.32128360561245,0.0
0.14300000000000002,9.794252330053878,-2.2030433596738774,10.0,0.0,29.097446192245535,28.47416147124536,472.0784699035011,474.32128360561245,0.0
0.14400000000000002,9.593554385313304,-2.6402684525952416,7.725675479008952,0.0,29.30351681633425,28.32896578695243,490.74253186122775,474.32128360561245,0.0
0.145,9.210844514446002,-3.023802616336745,-1.7705679824105163,0.0,29.51227731666716,27.23714430429945,494.70791408487196,474.32128360561245,0.0
0.146,8.30619094277814,-3.0891941549315356,-3.9571253990252178,0.0,29.594337346309487,26.22550693290642,498.1583759203385,474.32128360561245,0.0
