timestamp,iq,id,iq_ref,id_ref,vq,vd,omega,omega_ref,r
0.0,0.0,0.0,0.0,0.0,0.0,0.0,0.0,129.24597175558426,0.0
0.001,0.0,0.0,10.0,0.0,0.0,1.0999999999999999,6.115472199294103,129.24597175558426,0.0
0.002,0.5307369851907212,-0.2913212625381807,10.0,0.0,0.14204533887919985,1.9316189316290207,13.317801563642547,129.24597175558426,0.0
0.003,1.0842913387634832,-0.6024330830807904,10.0,0.0,0.384357124667687,2.6386968949419622,20.697939467553027,129.24597175558426,0.0
0.004,1.5590443546685477,-0.8700465084428163,10.0,0.0,0.6994718867930164,3.2526109522886295,28.232747544420146,129.24597175558426,0.0
0.005,1.9399447555359186,-1.0838738622210777,10.0,0.0,1.065311453102468,3.7994935661768023,35.92944872443006,129.24597175558426,0.0
0.006,2.239750732602683,-1.2510087368845633,10.0,0.0,1.4655018868449925,4.299102221838433,43.75633668444442,129.24597175558426,0.0
0.007,2.4770151619816017,-1.382020589851471,10.0,0.0,1.8883740978591532,4.765668027847139,51.58766747378032,129.24597175558426,0.0
0.008,2.6680767290418097,-1.4872241871505252,10.0,0.0,2.325877945545995,5.209220346273558,59.45942083902103,129.24597175558426,0.0
0.009000000000000001,2.8266491704841292,-1.5730794701170803,10.0,0.0,2.772378685460125,5.636635464737965,67.35059094018146,129.24597175558426,0.0
0.01,2.962077666392183,-1.645500646948331,10.0,0.0,3.224078639851053,6.052647735211881,75.20908322432116,129.24597175558426,0.0
0.011,3.0811061533574158,-1.7084279320504514,10.0,0.0,3.678407615443203,6.460489925470405,83.0265951655913,129.24597175558426,0.0
0.012,3.188848746459569,-1.7638278597420747,10.0,0.0,4.133552631697047,6.862319393890706,90.74118064793086,129.24597175558426,0.0
0.013000000000000001,3.288205119878689,-1.8140726097274587,10.0,0.0,4.588339016389012,7.259628641949282,98.35820682563939,129.24597175558426,0.0
0.014,3.3820602099432007,-1.8592355758795645,10.0,0.0,5.041843166194517,7.653355107498287,105.90865295623543,129.24597175558426,0.0
0.015,3.4721069852858886,-1.899829032412081,10.0,0.0,5.493383198131427,8.044092747085895,113.37727610343421,129.24597175558426,0.0
0.016,3.5596145800153947,-1.9360338400176071,10.0,0.0,5.94241958510469,8.43218525824161,120.68508583176356,129.24597175558426,0.0
0.017,3.645144415105338,-1.9685384477868613,6.934355750211171,0.0,6.388575043274761,8.480618083589714,126.05862950026031,129.24597175558426,0.0
0.018000000000000002,3.5711751767382522,-1.906156503950949,4.279457338516035,0.0,6.787771178262992,8.316432704002718,129.25212534193778,129.24597175558426,0.0
0.019,3.3522698917164044,-1.7581393916900767,2.682647881813762,0.0,7.114971098883363,8.082825308721675,131.2806806514584,129.24597175558426,0.0
0.02,3.06932255258872,-1.5699349697440026,1.6480231380947141,0.0,7.366867972622135,7.83639317224253,130.490683990028,129.24597175558426,0.0
0.021,2.7752898817105773,-1.3820063377539884,2.0305743464654737,0.0,7.550141840039672,7.721734937548471,128.80291755460323,129.24597175558426,0.0
0.022,2.5706185810404696,-1.2222456207826364,2.8788881061876728,0.0,7.687928104699103,7.745932430916231,131.85010709338457,129.24597175558426,0.0
0.023,2.4725054974407534,-1.1259762566172036,1.3292519834190002,0.0,7.8053634693408815,7.611291416500653,132.74738322556468,129.24597175558426,0.0
0.024,2.3377622855520017,-1.0270907506300775,0.8455998026291409,0.0,7.887676484059993,7.477993283803379,129.18188567415453,129.24597175558426,0.0
0.025,2.211302800072523,-0.9168737948723024,2.6289894391485116,0.0,7.937293373963987,7.5798287589566264,130.19295378460183,129.24597175558426,0.0
0.026000000000000002,2.2122504853335623,-0.8641447318122705,2.1139855636346874,0.0,7.987434095013876,7.600589212679726,132.17733459749553,129.24597175558426,0.0
0.027,2.2090612758683346,-0.833219385500505,1.0924815287687228,0.0,8.031762291867391,7.517432577949172,128.2453114102815,129.24597175558426,0.0
0.028,2.164984874402701,-0.7726788242990774,3.068499725828772,0.0,8.056991797293467,7.679417980468857,129.46545486697516,129.24597175558426,0.0
0.029,2.2364945015300153,-0.7542288547760287,2.4562331663680244,0.0,8.094472801393378,7.732311466769238,130.78430692077384,129.24597175558426,0.0
0.03,2.2789459353791317,-0.7491771572591002,1.781423787816789,0.0,8.133123866681704,7.711602777351414,127.21337849734348,129.24597175558426,0.0
0.031,2.2905349290052874,-0.7069713837035002,3.5872139321143766,0.0,8.16124683838347,7.901364798102069,129.68205444675186,129.24597175558426,0.0
0.032,2.392924935807367,-0.7093564474970059,2.3485151304985115,0.0,8.206218129742963,7.909501133515144,127.96225155201829,129.24597175558426,0.0
0.033,2.428792268155377,-0.6948436070257327,3.221253779900959,0.0,8.245885662418043,8.026787697483025,128.10599079575104,129.24597175558426,0.0
0.034,2.5129061895671017,-0.6728656587988734,3.1607839676329146,0.0,8.291042652322158,8.112039434446311,129.0367332629823,129.24597175558426,0.0
0.035,2.577906235794183,-0.6733748898640146,2.6975051189433064,0.0,8.340484911831627,8.136616855599641,126.0741994254713,129.24597175558426,0.0
0.036000000000000004,2.62645507545985,-0.6338884364139937,4.2104897609999306,0.0,8.38309208531533,8.330051487800757,129.27908226210963,129.24597175558426,0.0
0.037,2.7381359940978394,-0.6470031560297169,2.6077172376155175,0.0,8.442619488363,8.305169137483759,125.64755226541162,129.24597175558426,0.0
0.038,2.774038121094569,-0.606686008827769,4.459466430866247,0.0,8.489139882685834,8.505615474211389,128.84744229243995,129.24597175558426,0.0
0.039,2.8894050603608705,-0.6142709030715292,2.8635067119835247,0.0,8.552290381087978,8.484264813639612,125.19101239631952,129.24597175558426,0.0
0.04,2.9295538717350595,-0.5719169492352445,4.7322712536363865,0.0,8.602255979728303,8.689625265877368,128.1591391953885,129.24597175558426,0.0
0.041,3.048227447700434,-0.582630417882922,3.2590761797038597,0.0,8.669363084817979,8.686054523963822,125.43729395975731,129.24597175558426,0.0
0.042,3.103101021737273,-0.5387005396754341,4.658085575477719,0.0,8.72446298391803,8.85332519364065,126.67984609090266,129.24597175558426,0.0
0.043000000000000003,3.206210357453074,-0.5444060172031984,4.062470766551861,0.0,8.79184686138589,8.919077772131853,126.77720182348986,129.24597175558426,0.0
0.044,3.293919345993875,-0.510900496647277,4.038480599579204,0.0,8.855324946919655,8.979693814860653,123.80421635661047,129.24597175558426,0.0
0.045,3.357443302623828,-0.4928429129941596,5.579390887008639,0.0,8.916865549176642,9.204225549813026,126.99544310888841,129.24597175558426,0.0
0.046,3.5045361049017676,-0.5026788584049151,4.006282797336626,0.0,8.995967794534877,9.208462210073378,125.51056280101155,129.24597175558426,0.0
0.047,3.5759867241121603,-0.4579995643740682,4.7860770408207856,0.0,9.062570399585827,9.31530523643313,123.41342049019823,129.24597175558426,0.0
0.048,3.6585635426348087,-0.4471761026314458,5.892973708881301,0.0,9.132453258916275,9.523715967868425,129.41241112125235,129.24597175558426,0.0
0.049,3.778458321927791,-0.5013085862296176,2.8918139996975634,0.0,9.222251713270435,9.364714719865422,129.47542309140687,129.24597175558426,0.0
0.05,3.7272648676233473,-0.4842195316390101,2.8580135012620778,0.0,9.284749076547929,9.263717212128487,129.1979268507396,129.24597175558426,0.0
0.051000000000000004,3.634226173407151,-0.484178263531887,2.997242070644155,0.0,9.3310633037781,9.20444466093011,133.60166366927868,129.24597175558426,0.0
0.052000000000000005,3.5596674857894604,-0.48672698062524034,0.7518167422376747,0.0,9.36709962472676,8.91461278445184,131.2642611445668,129.24597175558426,0.0
0.053,3.380838556961941,-0.43485816428397106,1.9003351107037876,0.0,9.364818068964253,8.825084596826455,132.62023490837146,129.24597175558426,0.0
0.054,3.2602146139804127,-0.43792228257954346,1.1886055972735878,0.0,9.354667591191383,8.665985986665065,133.17246792112263,129.24597175558426,0.0
0.055,3.143449782396509,-0.4181412856203439,0.873224129242617,0.0,9.327415749331195,8.505845415437838,132.70354578902862,129.24597175558426,0.0
0.056,3.0153306364062287,-0.4199574204088359,1.0731094549551772,0.0,9.287272619330627,8.397060375399095,133.42455304483767,129.24597175558426,0.0
0.057,2.923339749239494,-0.4221721586163134,0.6708200141581222,0.0,9.240490758181178,8.257726640747808,133.27781564341538,129.24597175558426,0.0
0.058,2.820347106329617,-0.43536685277868714,0.7038702759909539,0.0,9.185882978657332,8.145715798504707,133.42175292361202,129.24597175558426,0.0
0.059000000000000004,2.736719001305892,-0.4446630624219381,0.5901438242123573,0.0,9.126425528980699,8.03477401534307,133.68591881670935,129.24597175558426,0.0
0.06,2.653731766816784,-0.4661452458511208,0.41366140705244225,0.0,9.064089724036338,7.918997178903686,133.39684032676604,129.24597175558426,0.0
0.061,2.575648434778744,-0.47818962254620256,0.516691966312278,0.0,8.997519875544643,7.8294219254832855,133.75187600342662,129.24597175558426,0.0
0.062,2.506070068137058,-0.5049416180961721,0.2941150855035657,0.0,8.931471762303623,7.723506237084403,133.34788631316204,129.24597175558426,0.0
0.063,2.438022794924906,-0.5192500455185672,0.4550907850600785,0.0,8.862743298607784,7.648299818347528,133.76581098989848,129.24597175558426,0.0
0.064,2.3787347504675367,-0.5487392081780794,0.2009300543487127,0.0,8.79646776302616,7.550014969899132,133.25525763928312,129.24597175558426,0.0
0.065,2.317113935385167,-0.5643083213280058,0.41611387081940787,0.0,8.728409006977756,7.487328289070788,133.6012324488413,129.24597175558426,0.0
0.066,2.2661343363628466,-0.5937113958299799,0.1995738591077445,0.0,8.663966105515078,7.40312470900908,133.18579258798076,129.24597175558426,0.0
0.067,2.2126637749017704,-0.6113698695111763,0.36789558121405186,0.0,8.59919553755241,7.346949952126585,133.40198194461348,129.24597175558426,0.0
0.068,2.167394737164844,-0.6385972541300013,0.21824080100739707,0.0,8.538102978269015,7.276215259628725,133.0924695428894,129.24597175558426,0.0
0.069,2.1204297183675584,-0.6574564325071863,0.3345320239963847,0.0,8.477848441439475,7.2254468244735,133.20770121039203,129.24597175558426,0.0
0.07,2.0797457167066136,-0.6813873446392398,0.23729889569699347,0.0,8.420986323328119,7.165876812802749,133.0309974146573,129.24597175558426,0.0
0.07100000000000001,2.0376334301174635,-0.7003963804877882,0.2878005369736325,0.0,8.365705100682849,7.117330613819562,133.02389355006713,129.24597175558426,0.0
0.07200000000000001,1.9993339542501798,-0.719938438683962,0.25357325132388553,0.0,8.313056916446875,7.067632714115437,132.96262092966677,129.24597175558426,0.0
0.073,1.9612021091193221,-0.7376842438992463,0.2470430697832402,0.0,8.26246037865581,7.021075247050874,132.8562623178029,129.24597175558426,0.0
0.074,1.9245528274505692,-0.7533286701627206,0.26411947009298764,0.0,8.213811176774222,6.979707681295395,132.79910282945175,129.24597175558426,0.0
0.075,1.8904419865110649,-0.7681903869713795,0.2571679035298864,0.0,8.167368483091565,6.940062215288922,132.7162971595856,129.24597175558426,0.0
0.076,1.857598903054435,-0.78174511634466,0.2638674844229536,0.0,8.1229479152395,6.903815126849537,132.6112790558437,129.24597175558426,0.0
0.077,1.8269697455971226,-0.7933777756721428,0.28272346329130116,0.0,8.080488740560991,6.871798628821208,132.71237869844722,129.24597175558426,0.0
0.078,1.799806409287175,-0.802309036194317,0.19750957256091395,0.0,8.03993994561167,6.831857450778356,132.6882723485892,129.24597175558426,0.0
0.079,1.7687129590507105,-0.808723399798112,0.17513974155987277,0.0,8.000068179744185,6.7933956147049575,132.3927705616799,129.24597175558426,0.0
0.08,1.7371835709187013,-0.8131482735716913,0.2914226469535728,0.0,7.960759999335168,6.770964901747625,132.05278995470505,129.24597175558426,0.0
0.081,1.7137646474136792,-0.8192841414630967,0.43334476844978864,0.0,7.923770262401636,6.763555834060002,131.77062189645713,129.24597175558426,0.0
0.082,1.699735160416768,-0.8295506590679768,0.5491822961650197,0.0,7.89080655065032,6.765820660616111,131.26177187466567,129.24597175558426,0.0
0.083,1.694762326433864,-0.8393047012207882,0.7834493058699357,0.0,7.862335972190505,6.789580346000016,131.12188367172405,129.24597175558426,0.0
0.084,1.7032896233010433,-0.8515534581005606,0.8346342881793478,0.0,7.840338242950308,6.810416951961319,131.27889112543775,129.24597175558426,0.0
0.085,1.713525347039945,-0.862760637103659,0.7358013676239614,0.0,7.823734249351805,6.814545996675676,132.41285615816457,129.24597175558426,0.0
0.08600000000000001,1.7153830901124139,-0.8673585183868444,0.13715000723474824,0.0,7.80959725473571,6.7516364226209085,131.5543429348007,129.24597175558426,0.0
0.08700000000000001,1.677551544708085,-0.858300757327276,0.5433229071245198,0.0,7.789540669646361,6.748449686526971,130.18979766620728,129.24597175558426,0.0
0.088,1.6620338997004642,-0.8496710830851141,1.2161572823149982,0.0,7.770312382900511,6.814854643302343,129.79340012715713,129.24597175558426,0.0
0.089,1.6901449315515085,-0.8552007046010296,1.4088817681243475,0.0,7.760341975615956,6.883920235459028,131.24698695594032,129.24597175558426,0.0
0.09,1.7312088777982617,-0.868182378750862,0.6620782017291931,0.0,7.759647856216849,6.8567706667413955,131.66486427949067,129.24597175558426,0.0
0.091,1.723040432728195,-0.866933540464046,0.42895061471495066,0.0,7.7560410029328395,6.815399812468174,129.6756224893628,129.24597175558426,0.0
0.092,1.698078695399277,-0.8456131006137299,1.419275002441097,0.0,7.746324989549241,6.891736423469373,128.66243277294518,129.24597175558426,0.0
0.093,1.728766076309867,-0.8422433910817455,1.9317052504763017,0.0,7.745056774954113,7.002306626165249,130.4467443084592,129.24597175558426,0.0
0.094,1.7915595560059516,-0.8571217758607973,1.0275417571905487,0.0,7.7566427215090945,6.990510291432776,131.32932168255275,129.24597175558426,0.0
0.095,1.799086008494208,-0.8541019268392286,0.5654195708740852,0.0,7.765409472695168,6.939060404290348,128.74270985685388,129.24597175558426,0.0
0.096,1.775152940632115,-0.8240752863163225,1.8637581027108225,0.0,7.764881828081088,7.043778543335691,127.82387154627904,129.24597175558426,0.0
0.097,1.822562232870782,-0.8168402355627107,2.3373982600912955,0.0,7.774383172655285,7.171634783183698,130.14672556371076,129.24597175558426,0.0
0.098,1.897849961427059,-0.8336879302526701,1.166963713294169,0.0,7.797645603680292,7.146363774564032,129.93048430868583,129.24597175558426,0.0
0.099,1.9035880301878585,-0.8236665439469887,1.2682392152756163,0.0,7.814783861300307,7.148912450316642,126.91053446311957,129.24597175558426,0.0
0.1,1.908810786395593,-0.7964194213149882,2.801568510983393,0.0,7.827566191107121,7.320056429268787,128.7120197689999,129.24597175558426,0.0
0.101,1.9994444455979408,-0.8007283811842671,1.9061653779090693,0.0,7.8569311426404065,7.351619130760966,130.4633215952893,129.24597175558426,0.0
0.10200000000000001,2.0378464119109974,-0.7996427763846833,1.0183409663673229,0.0,7.886353363042937,7.290937523615995,127.01379738704458,129.24597175558426,0.0
0.10300000000000001,2.021670858331458,-0.7604115737506416,2.7654248141750823,0.0,7.902460624448969,7.442487097156924,127.57217848261561,129.24597175558426,0.0
0.10400000000000001,2.098883634417527,-0.750415649510113,2.5029721991192506,0.0,7.931404877428367,7.525496652444882,129.66852475758762,129.24597175558426,0.0
0.105,2.1600267849431343,-0.7557884993507846,1.4505735316132138,0.0,7.966446633363508,7.484006731429924,126.13611176652203,129.24597175558426,0.0
0.106,2.1630194272254357,-0.7212816825900534,3.247878627036628,0.0,7.989985743261545,7.658679766135812,127.674262976168,129.24597175558426,0.0
0.107,2.2584361766048455,-0.717745245542227,2.4945201100078105,0.0,8.02859430573272,7.706931004524599,128.3156185731367,129.24597175558426,0.0
0.108,2.308005745506255,-0.7173405011322544,2.1831458433479325,0.0,8.06815797828103,7.723001906073966,124.93371651504846,129.24597175558426,0.0
0.109,2.343251030397059,-0.6816756673753145,3.917219424797412,0.0,8.101453289460286,7.931902635700292,128.5207593289552,129.24597175558426,0.0
0.11,2.460201696944788,-0.6951865497604286,2.1309501421103354,0.0,8.154151987884182,7.896900346100499,125.29301288870649,129.24597175558426,0.0
0.111,2.4824260789114785,-0.6681983713753441,3.7843529509034672,0.0,8.194976779059491,8.069129981746329,127.55800972464698,129.24597175558426,0.0
0.112,2.5854228160822172,-0.6604280507015595,2.6687341532425934,0.0,8.248357201191597,8.077859639845366,125.34939285278791,129.24597175558426,0.0
0.113,2.621127895056384,-0.6430194400530621,3.812008378200089,0.0,8.295435302955795,8.225073135754196,127.03666135088098,129.24597175558426,0.0
0.114,2.7206407526395786,-0.6260055002963315,2.9904672332005915,0.0,8.3508294968677,8.24988146050463,124.8366593535236,129.24597175558426,0.0
0.115,2.763289231992145,-0.6103813276045615,4.134561355899885,0.0,8.401616584264929,8.408117932965176,126.94500122911244,129.24597175558426,0.0
0.116,2.871028718311243,-0.5972270821271073,3.1034001233701867,0.0,8.461857884892892,8.419315931412557,123.81191621668391,129.24597175558426,0.0
0.117,2.9145080087682587,-0.572828629914796,4.724283184973452,0.0,8.514642568014217,8.620321682092577,126.99971640132794,129.24597175558426,0.0
0.11800000000000001,3.0394938091342767,-0.5754430693828254,3.152845646193999,0.0,8.582780930755014,8.604124720999257,123.46025661734343,129.24597175558426,0.0
0.11900000000000001,3.084472349582637,-0.5347149193999524,4.980432689568663,0.0,8.637979520219604,8.809412461002697,126.04938160891,129.24597175558426,0.0
0.12,3.2048387213374876,-0.5466934149460448,3.7178360952521237,0.0,8.709911940747979,8.82973927465514,124.63824151557823,129.24597175558426,0.0
0.121,3.2754439367006385,-0.5035822602374976,4.469483444318067,0.0,8.77182178861536,8.943970913363195,123.51155289262815,129.24597175558426,0.0
0.122,3.356194525071207,-0.5001784627443139,5.090171944422671,0.0,8.839020509389643,9.105553121940899,125.83556108199241,129.24597175558426,0.0
0.123,3.481038435969338,-0.49273909857896725,3.9622719564764575,0.0,8.914873286861008,9.114495773748043,123.62349928119727,129.24597175558426,0.0
0.124,3.5436251608188507,-0.4495645712056611,5.1245275816178975,0.0,8.979360247396546,9.263620456142165,123.2471217464386,129.24597175558426,0.0
0.125,3.644877300618686,-0.4484794088892259,5.3727048490886915,0.0,9.052623357536866,9.409446441391308,128.15791066583427,129.24597175558426,0.0
0.126,3.7374078668599116,-0.49431035219124364,2.928191000288356,0.0,9.138195010574455,9.267472002198296,128.22579885968258,129.24597175558426,0.0
0.127,3.6853407587763733,-0.4789563127291448,2.9044486323232133,0.0,9.198864800615132,9.176738337791779,128.0951369232025,129.24597175558426,0.0
0.128,3.5973992945728126,-0.4819737292675968,2.9812879488870787,0.0,9.244879701424942,9.118987657313214,132.55816185942695,129.24597175558426,0.0
0.129,3.526541351152341,-0.4837412709931852,0.7166535797364233,0.0,9.280682299530342,8.828650320325492,130.0007755277178,129.24597175558426,0.0
0.13,3.347821701910209,-0.4327608798421423,1.9877987078696648,0.0,9.278245385682562,8.752349866615678,131.66686975165294,129.24597175558426,0.0
0.131,3.2342204522351308,-0.438161601813793,1.1305426159414047,0.0,9.269526001176969,8.587135086470463,131.89527909995167,129.24597175558426,0.0
0.132,3.1165784888144596,-0.41714326093492043,0.9898448683483676,0.0,9.24279105239102,8.44247025805278,131.6114619896761,129.24597175558426,0.0
0.133,2.995822504938934,-0.4214379283860019,1.108098521145238,0.0,9.204945712470307,8.336120035473957,132.37088120979618,129.24597175558426,0.0
0.134,2.907465843017428,-0.4238080353509128,0.6971398165430718,0.0,9.160467649375413,8.198743980099348,132.17017550140642,129.24597175558426,0.0
0.135,2.8060391874669994,-0.4370623863447632,0.7682506332797314,0.0,9.108134064592223,8.092862866331103,132.3955504927194,129.24597175558426,0.0
0.136,2.7258011508248767,-0.4465544295362706,0.6240673502518925,0.0,9.051357308151651,7.983577153636058,132.66655403363802,129.24597175558426,0.0
0.137,2.6441294722436446,-0.467933584524347,0.45435975701204123,0.0,8.991586442702404,7.870497838417872,132.37215288041418,129.24597175558426,0.0
