timestamp,iq,id,vq,vd,omega,r
0.0,0.0,0.0,0.0,0.0,0.0,1196.1986296181324
0.01,0.0,0.0,3.1113126356367626,0.0,-4.3664258657156445,1196.1986296181324
0.02,2.9086970948949813,-0.04259787956780656,3.0963384176948945,0.04259830554660223,-9.193587637665441,1196.1986296181324
0.03,2.8679970416072784,-0.0628007377556973,3.231714705375484,0.06280179174187055,-14.142682464507573,1196.1986296181324
0.04,2.9666258623498267,-0.10604027652563036,3.3620360039658164,0.10604239091456885,-19.32551429384574,1196.1986296181324
0.05,3.057655808761482,-0.1302177886322918,3.494964366159368,0.13022120519911662,-24.751222392560585,1196.1986296181324
0.06,3.1467063498482455,-0.17485628825116964,3.630273359413401,0.17486145338087697,-30.516879616149208,1196.1986296181324
0.07,3.2328507216550744,-0.20294624757770982,3.7682946708034026,0.20295344216989292,-36.6455165549394,1196.1986296181324
0.08,3.314183183796905,-0.2489027964070588,3.909228402342567,0.24891248002720598,-43.2331870524775,1196.1986296181324
0.09,3.3901517205794227,-0.2799677969998713,4.053400144376208,0.27998028029798844,-50.31161649403339,1196.1986296181324
0.1,3.4582695209509033,-0.32580289158529896,4.201077555980343,0.325818632912332,-57.96956314292643,1196.1986296181324
0.11,3.5180900447532575,-0.35700257484431486,4.3525787667651255,0.35702188619709635,-66.23744170511075,1196.1986296181324
0.12,3.56678229002606,-0.3987191030779377,4.508201752941881,0.3987424016217499,-75.18302107337058,1196.1986296181324
0.13,3.6045686399015358,-0.4237702219561258,4.668192439141335,0.4237977582021576,-84.81606231839149,1196.1986296181324
0.14,3.6292848089211094,-0.45272026895339423,4.832774891722905,0.4527523324021156,-95.1585157625688,1196.1986296181324
0.15,3.642981028522308,-0.46016987644209606,5.001993778543483,0.4602065415895818,-106.16962847169563,1196.1986296181324
0.16,3.6460699417599924,-0.462261902797827,5.175815069460375,0.4623031905643407,-117.79039992533889,1196.1986296181324
0.17,3.6451764102923434,-0.43525817131639166,5.3538365891802,0.43530381166461857,-129.8913751961416,1196.1986296181324
0.18,3.6463058041853547,-0.39286072813283357,5.535492530312892,0.3929102970883418,-142.29421326596778,1196.1986296181324
0.19,3.663791612177948,-0.31497730589141226,5.719646598580038,0.3150300246199794,-154.74395357638545,1196.1986296181324
0.2,3.711971012182109,-0.2165226989293707,5.904930980062315,0.21657758288492715,-166.90874815933572,1196.1986296181324
0.21,3.8134542693196165,-0.08585286714409446,6.089315907948194,0.08590860962832234,-178.3747128180957,1196.1986296181324
0.22,3.987798950514606,0.055013422234765685,6.270657514947839,-0.05495822988476015,-188.62220463144382,1196.1986296181324
0.23,4.257293572962711,0.20460415452290426,6.446335518164434,-0.20455100821444394,-197.0421942687653,1196.1986296181324
0.24,4.631962816622231,0.33209644214092227,6.6140466054243525,-0.33204661679688335,-201.3613264366788,1196.1986296181324
0.25,4.741056310893765,-3.347787548941138,6.786504716158724,3.3478708521606664,-213.2172348211791,1196.1986296181324
0.26,5.18547060759701,0.15008401833612606,6.963189319719163,-0.15000221595678112,-221.5961298983044,1196.1986296181324
0.27,4.229378228825208,-2.790495991383321,7.2044185004309185,2.79060569872258,-236.33538832731324,1196.1986296181324
0.28,4.722863358411075,0.2701779815323666,7.39148268883576,-0.2700709759729232,-249.7261356345088,1196.1986296181324
0.29,3.941706120887687,-2.024552967713238,7.642473874525026,2.0246802188023585,-264.0739909805255,1196.1986296181324
0.3,4.654831035268053,0.6667598935123968,7.823325655956977,-0.6666393100222113,-278.27536662374547,1196.1986296181324
0.31,4.292081817823106,-1.0919874300314394,8.06086230550121,1.0921189333959251,-288.03029684438997,1196.1986296181324
0.32,5.454535821926628,1.1156997777888495,8.212319948356004,-1.1155794314221417,-293.62221445605996,1196.1986296181324
0.33,5.201891321526373,-5.664828727781211,8.426426642019194,5.665005722435197,-309.69612696489423,1196.1986296181324
0.34,6.469215531140758,0.6117775281154578,8.592585849222415,-0.6116066512367533,-319.50799530980737,1196.1986296181324
0.35000000000000003,4.125457298295616,-4.212744323889625,8.928484719831072,4.212957328211568,-336.95972136163687,1196.1986296181324
0.36,5.57186362472741,1.0526219712169622,9.095806931372906,-1.052419493114731,-353.01783842246573,1196.1986296181324
0.37,4.105762757788709,-2.4456747977117193,9.409891609146824,2.4459017325619277,-364.24035507146414,1196.1986296181324
0.38,6.242144392608127,1.6910012201371691,9.53230946981803,-1.690791195299162,-370.5242411262848,1196.1986296181324
0.39,5.327629861161866,-7.6826444833946885,9.798035188324748,7.682931334677529,-390.46334501732247,1196.1986296181324
0.4,7.633062848339546,0.9340517662692389,9.938176714867375,-0.9337742555040607,-402.2915782564601,1196.1986296181324
0.41000000000000003,3.825703705661257,-5.10272570050979,10.370269343947514,5.103054238531974,-420.23146235292444,1196.1986296181324
0.42,6.503315817041503,1.7068820218653227,10.494125343858283,-1.7065705526633579,-437.35538952086455,1196.1986296181324
0.43,4.738736109948205,-2.432589342241502,10.843161568814443,2.432925137336889,-442.55718410726314,1196.1986296181324
0.44,7.074947740774963,-5.973613921818087,10.957175619062284,5.974009453052692,-459.99729630875817,1196.1986296181324
0.45,7.1091365555603785,-1.6387530642356185,11.220252622481226,1.639164983000866,-477.1459629928469,1196.1986296181324
0.46,4.840605021833429,-3.144360113705947,11.603393772327017,3.144803476072332,-494.24615801466103,1196.1986296181324
0.47000000000000003,6.515459316106536,0.32141572755954506,11.790970061612661,-0.3209755793504359,-505.0844106313593,1196.1986296181324
0.48,6.525868632677295,-7.763452657657735,12.048888442755981,7.763970440393421,-523.8666454478778,1196.1986296181324
0.49,8.283513166944026,-1.934614846351054,12.241145662736502,1.935151975235203,-541.7778196599666,1196.1986296181324
0.5,4.851934680193335,-3.818990281103635,12.697647054614059,3.8195655998905953,-559.1173816970643,1196.1986296181324
0.51,7.304608558462337,0.45375773192561675,12.859543396139907,-0.45318695071597576,-562.7450648389519,1196.1986296181324
0.52,5.57108476047142,-11.312973594152476,13.200325160047367,11.313657505098059,-590.4870725671365,1196.1986296181324
0.53,9.951987462742782,0.45884140730396616,13.295851394180184,-0.4581620847724567,-610.0901085624026,1196.1986296181324
0.54,3.7863612731406544,-4.937851749562871,13.908288862101692,4.938580450611876,-621.1480268576535,1196.1986296181324
0.55,9.913983992251042,-1.8437281115649968,13.881496606104424,1.8444752498951176,-625.9220913380063,1196.1986296181324
0.56,5.016298358051932,-9.038037448512785,14.397457346038578,9.03887496721739,-651.7916993374807,1196.1986296181324
0.5700000000000001,9.101103872198806,0.39629830962607926,14.517382532967993,-0.39546475390456964,-671.7682174668191,1196.1986296181324
0.58,6.259861038570623,-2.850995034033391,14.975584274104467,2.851857099705241,-677.7982547444867,1196.1986296181324
0.59,5.580807197351092,-9.976310620415715,15.293966417944679,9.97727244919377,-705.4032566561054,1196.1986296181324
0.6,9.710323017768896,0.017826197718682657,15.426390076544921,-0.016864547202605717,-724.5288096049597,1196.1986296181324
0.61,6.722675397352302,-7.458823760385994,15.900294215134497,7.459859999139675,-740.0222345941112,1196.1986296181324
0.62,7.795995644417068,-7.310519925220992,16.16448188356681,7.311629269173925,-765.7339076706376,1196.1986296181324
0.63,8.41672605595341,-1.6293228338580972,16.48075703342739,1.6304484710393687,-770.8825204133437,1196.1986296181324
0.64,5.739980025568808,-15.449845755268854,16.915657043004153,15.451125890907678,-806.4769877771336,1196.1986296181324
0.65,12.706022189326598,-1.1130680225740441,16.943128359616516,1.1143592888930942,-830.5802857525381,1196.1986296181324
0.66,5.816132239012484,-4.059239880029828,17.645995357124743,4.0605717387476785,-836.7160878418754,1196.1986296181324
0.67,4.76791597682609,-12.882099316146478,18.015554641699993,12.88355999585749,-866.3025438931916,1196.1986296181324
0.68,12.00840333417219,-0.13498166695609193,18.027086039624866,0.13644369648377327,-865.1943058121153,1196.1986296181324
0.6900000000000001,2.5520611207857096,-18.427683780086568,18.808129092096088,18.42933008645205,-899.1954454109947,1196.1986296181324
0.7000000000000001,13.009096433059868,-0.6909407531517302,18.676315185206818,0.6925939689247439,-908.7962467865591,1196.1986296181324
0.71,4.041487062769679,-19.86899467391543,19.466765351271725,19.870846579635185,-942.527284022898,1196.1986296181324
0.72,12.651255729957109,-2.183895021870603,19.43557426608477,2.1857687665405745,-962.2964740218076,1196.1986296181324
0.73,5.96090014374911,-16.863849604518766,20.14531054516376,16.865891987684783,-991.3168016502142,1196.1986296181324
0.74,10.683107970240552,-5.43092932762917,20.30791383804914,5.433026020088463,-1011.8832010636746,1196.1986296181324
0.75,8.055218296145812,-16.886084916984412,20.82377979687258,16.888350470292874,-1038.9838404033533,1196.1986296181324
0.76,9.727549091909335,-6.445946624480387,21.144243247626882,6.448276637255095,-1056.788533591,1196.1986296181324
0.77,7.468221511968841,-18.807945117564127,21.644342535848217,18.81046320979001,-1086.0965745598116,1196.1986296181324
0.78,10.222779603619305,-5.469764796876869,21.924964451152324,5.472337586750721,-1093.8013184615443,1196.1986296181324
0.79,3.876106536078618,-22.61584247041571,22.616046829154087,22.618641418714265,-1121.1148200578712,1196.1986296181324
0.8,10.509930019276826,-3.2482670255247768,22.705541113981496,3.251098456493588,-1117.9766786467094,1196.1986296181324
0.81,-0.394508773791987,-22.983343081895704,23.60872420506376,22.986404346295334,-1144.8487590734978,1196.1986296181324
0.8200000000000001,12.173663775882568,-2.2340554433044497,23.405762366485423,2.237139048258513,-1138.993693222681,1196.1986296181324
0.8300000000000001,-2.5449472910448026,-21.154926434779135,24.501790139847856,21.158221588997545,-1157.6132527368632,1196.1986296181324
0.84,14.30653253176844,-0.031130954970796765,24.067864220146717,0.0344264204987578,-1154.0579399146163,1196.1986296181324
0.85,-4.573354255652646,-19.338464259284166,25.38594406219095,19.34195310945472,-1159.9930275831248,1196.1986296181324
0.86,11.685105994065264,-18.390243664607258,24.95752379377946,18.39391641721446,-1187.8948347916942,1196.1986296181324
0.87,8.007741918163957,-6.497502780456652,25.58966317876024,6.501240508091657,-1185.3845942771384,1196.1986296181324
0.88,0.3022017595607194,-22.69448932053654,26.357017347899358,22.69845399306475,-1211.0027982791428,1196.1986296181324
0.89,12.119790051010492,-2.9693743066699687,26.211687639363866,2.973368672941245,-1209.885289331227,1196.1986296181324
0.9,-3.7592501552400748,-20.124767949892075,27.402523446569006,20.12896356384285,-1217.1964929604299,1196.1986296181324
0.91,11.025102990248833,-20.111432177208165,27.06962152996997,20.11582890548071,-1242.4334970737718,1196.1986296181324
0.92,6.999951977595273,-6.862644583040801,27.73099680603909,6.867109937759179,-1238.968328170213,1196.1986296181324
0.93,-1.0359586045316513,-22.992163515752196,28.53127918868919,22.996858792105733,-1262.827577161685,1196.1986296181324
0.9400000000000001,12.827132658024112,-5.456247337357277,28.2959043836861,5.460997176184185,-1263.8431851364853,1196.1986296181324
0.9500000000000001,-4.3784149155068715,-17.75884378930737,29.576619568131434,17.763771216572174,-1263.2364516741798,1196.1986296181324
0.96,5.012093372861145,-22.45556403549464,29.51648435933574,22.460716018399797,-1286.7330640363832,1196.1986296181324
0.97,8.841031898398066,-4.24624687921745,29.795689657647223,4.2514413245914,-1282.5931271678987,1196.1986296181324
0.98,-5.558915566169915,-20.143195398923154,30.933712627921732,20.148591276251093,-1286.3721050841752,1196.1986296181324
0.99,7.4187274521300886,-23.66515402822565,30.712536186522776,23.670786557093873,-1308.2562568676024,1196.1986296181324
1.0,6.837588263469241,-5.542981577328229,31.219835799393223,5.548669536012223,-1302.1080740297095,1196.1986296181324
1.01,-5.22529496879028,-21.715919592941585,32.245088149542426,21.721824710821508,-1311.9441716989143,1196.1986296181324
1.02,9.609644904474141,-22.256377873638364,31.954066858378148,22.262505555297025,-1333.1158951282057,1196.1986296181324
1.03,4.913668110475527,-7.650210305792141,32.67727292863891,7.6564144895538595,-1326.4021149560583,1196.1986296181324
1.04,-4.974218683155395,-22.143230533706262,33.602099849398684,22.149656149773318,-1337.2944158447085,1196.1986296181324
1.05,9.182898306813842,-22.224416328570086,33.3581573897748,22.231064188800428,-1357.3839221437986,1196.1986296181324
1.06,4.032462531473711,-8.2880419848972,34.112298550899496,8.29477272554739,-1350.0352965013376,1196.1986296181324
1.07,-5.817216833243813,-21.793935096495243,35.04446761236578,21.8008837764964,-1357.2513609224998,1196.1986296181324
1.08,8.070567445384633,-23.1215569816984,34.81556248897785,23.12873687726937,-1376.6473392659832,1196.1986296181324
1.09,4.118641761278173,-7.419472548144199,35.5175570180198,7.426726638440652,-1368.7618215426762,1196.1986296181324
1.1,-7.297321776653383,-20.64817209403057,36.537742071802796,20.655632666047964,-1369.356748523395,1196.1986296181324
1.11,5.004706538179058,-24.311860453813896,36.38355166446904,24.319564144435827,-1388.1812786086994,1196.1986296181324
1.12,5.490736600592888,-5.724500949152846,36.869715980372014,5.732261884784269,-1380.9226638512432,1196.1986296181324
1.1300000000000001,-8.585088194232497,-18.85081218987331,38.034692261642604,18.85876163362663,-1376.4875193182247,1196.1986296181324
1.1400000000000001,1.0666001734007118,-24.952319414054003,38.01282904367935,24.960518381001464,-1394.9891678310282,1196.1986296181324
1.1500000000000001,8.020522145308622,-4.336587845914003,38.18068355879375,4.344830178739924,-1388.9052417825394,1196.1986296181324
1.16,-8.8168477955351,-16.77738130350148,39.49545281434989,16.785791410140433,-1379.1310561775933,1196.1986296181324
1.17,-3.3097324575514775,-24.84734451550441,39.679862952860844,24.856003095588523,-1392.748817382388,1196.1986296181324
1.18,8.671618111279301,-20.383420189526742,39.59101056985243,20.39228260381275,-1410.2512771014328,1196.1986296181324
1.19,0.31546022970778054,-13.597337837952285,40.54145820940997,13.60633622561667,-1401.4148240376026,1196.1986296181324
1.2,-6.314442089768027,-22.28128955151688,41.34808965937226,22.290510752076784,-1407.329379062535,1196.1986296181324
1.21,6.6926555870833235,-23.406937724594126,41.199936515574436,23.41639299453127,-1424.7785407173876,1196.1986296181324
1.22,1.9827883883198947,-8.434680822832878,41.975543892666735,8.444220439578253,-1416.3774925230766,1196.1986296181324
1.23,-8.975720225350775,-18.98561328385471,43.011688795797866,18.995342756732924,-1409.024513980261,1196.1986296181324
1.24,0.26368735133592125,-24.97820236119928,43.0331885812525,24.988181616101105,-1425.4001756151808,1196.1986296181324
1.25,6.872285881487001,-10.58626844843146,43.24320098591683,10.59635356601777,-1429.0854660524199,1196.1986296181324
1.26,-5.295793707980786,-15.508110689476723,44.37548326129676,15.518350888169929,-1416.676435470551,1196.1986296181324
1.27,-6.834220187343547,-24.12844792228147,44.93895747710993,24.138929405453897,-1422.5070454303068,1196.1986296181324
1.28,6.970139953323737,-22.99927247847012,44.77028886980602,23.009983954367335,-1439.1582862752841,1196.1986296181324
1.29,-0.10890264497080793,-10.591485599711863,45.684221500261934,10.602302990465073,-1430.0475337001028,1196.1986296181324
1.3,-9.013888860610848,-19.312708760312642,46.63566648515617,19.323719278153455,-1423.3755713778164,1196.1986296181324
1.31,0.44579599310798024,-24.941679310754452,46.66746758532976,24.95293924538837,-1438.8684107096599,1196.1986296181324
1.32,5.599968875619572,-12.273360279551989,46.96898646629002,12.284742947788706,-1444.6575582467055,1196.1986296181324
1.33,-4.45732586830929,-15.299844881341414,48.02009656477082,15.311380548026944,-1430.6941453543861,1196.1986296181324
1.34,-7.765847611178348,-23.835306167567353,48.688925685353816,23.847080187314557,-1434.1023298206158,1196.1986296181324
1.35,6.322574416537053,-23.4760485150724,48.52021930818232,23.488057295304756,-1450.4596074035862,1196.1986296181324
1.36,-0.6210754234468432,-10.273783251546043,49.44671529302293,10.285894769610914,-1441.9553240148869,1196.1986296181324
1.37,-9.441775449738826,-18.280889940773132,50.41551831039083,18.293184267737413,-1431.5129983095846,1196.1986296181324
1.3800000000000001,-1.7508332532821287,-24.928978694797802,50.54778664769073,24.94152231154903,-1444.1491619203762,1196.1986296181324
1.3900000000000001,5.196838248201235,-19.66085171711776,50.77187103568066,19.67359194238616,-1459.1772468389656,1196.1986296181324
1.4000000000000001,-1.7733341014928998,-15.049421976248002,51.70895577621698,15.062312695736162,-1445.658019230621,1196.1986296181324
1.41,-9.7721235366148,-22.30540765916966,52.63539181303048,22.31852143273441,-1444.457425485449,1196.1986296181324
1.42,3.7456766976525806,-24.431505566314424,52.50579774747877,24.44486365493484,-1460.568668770998,1196.1986296181324
1.43,0.8781990491205891,-7.97503500440469,53.245882537919314,7.98847284337515,-1454.034303907172,1196.1986296181324
1.44,-9.341387757373779,-16.276619402208713,54.30917514913817,16.290220007373193,-1436.58708594579,1196.1986296181324
1.45,-5.812420046052509,-24.36386541314886,54.65511699793046,24.377709656967475,-1440.0402942434657,1196.1986296181324
1.46,5.285352651276765,-23.33914936678015,54.66675345012629,23.353227002092428,-1455.3519882697096,1196.1986296181324
1.47,-3.5218635692191986,-13.968333954312962,55.716275498775815,13.982551272964786,-1445.649805768919,1196.1986296181324
1.48,-9.292668607467823,-19.20124504798401,56.55888473221894,19.215654379086313,-1438.3707205789183,1196.1986296181324
1.49,-0.2319595082694299,-24.932126944976805,56.658821953798686,24.94678559734856,-1451.7264635456586,1196.1986296181324
1.5,3.290802005867674,-17.148867285222572,57.08770436289905,17.163697426267177,-1466.5396072399512,1196.1986296181324
1.51,-1.1493478985009942,-15.071234679255703,57.92696004725425,15.0862155326471,-1449.4634937005467,1196.1986296181324
1.52,-9.718602121833861,-23.098230186735798,58.90245510946612,23.113442022429062,-1449.7066742870436,1196.1986296181324
1.53,4.602139082788968,-24.18562325424466,58.765098117752885,24.20107694617047,-1465.6648434718438,1196.1986296181324
1.54,-1.7696108780175708,-9.92576112603607,59.71228258615927,9.941314075573139,-1459.3639600314514,1196.1986296181324
1.55,-9.153486857512174,-16.482970796776424,60.66383507416217,16.49868857602146,-1442.4033619936513,1196.1986296181324
1.56,-5.440957516181353,-24.43556404533775,61.031148022476785,24.45152618022324,-1447.6717756409628,1196.1986296181324
1.57,4.388643272314749,-23.144841122789543,61.1415210386274,23.161034706086262,-1462.459104365093,1196.1986296181324
1.58,-4.152667514646557,-14.556137067692307,62.2069156226363,14.572476212359701,-1450.7253830225036,1196.1986296181324
1.59,-10.251645607074101,-19.42492040794455,63.091463476722524,19.441453801816024,-1442.0020152629108,1196.1986296181324
1.6,-0.48758932730027205,-24.94086097180523,63.182387303745315,24.95764377428642,-1454.6319581343453,1196.1986296181324
1.61,1.9365670745343007,-18.505576971159797,63.69517906971569,18.522544829410702,-1468.7209722574346,1196.1986296181324
1.62,-1.3946696009977098,-15.039059356193253,64.50679322537326,15.056177605037718,-1448.9701433089394,1196.1986296181324
1.6300000000000001,-10.099427037008617,-22.93596650700242,65.51185865468989,22.953314115511954,-1448.4659986244037,1196.1986296181324
1.6400000000000001,4.201899308802625,-24.300911967519912,65.40302952938929,24.318502585149123,-1464.4527181777896,1196.1986296181324
1.6500000000000001,-3.1538535648405945,-10.771637650994354,66.42989660183301,10.789335985000074,-1459.1480846513919,1196.1986296181324
