timestamp,iq,id,iq_ref,id_ref,vq,vd,omega,omega_ref,r
0.0,0.0,0.0,0.0,0.0,0.0,0.0,0.0,90.83143654464394,0.0
0.001,0.0,0.0,10.0,0.0,0.0,1.0999999999999999,6.115472199294103,90.83143654464394,0.0
0.002,0.5307369851907212,-0.2913212625381807,10.0,0.0,0.14204533887919985,1.9316189316290207,13.317801563642547,90.83143654464394,0.0
0.003,1.0842913387634832,-0.6024330830807904,10.0,0.0,0.384357124667687,2.6386968949419622,20.697939467553027,90.83143654464394,0.0
0.004,1.5590443546685477,-0.8700465084428163,10.0,0.0,0.6994718867930164,3.2526109522886295,28.232747544420146,90.83143654464394,0.0
0.005,1.9399447555359186,-1.0838738622210777,10.0,0.0,1.065311453102468,3.7994935661768023,35.92944872443006,90.83143654464394,0.0
0.006,2.239750732602683,-1.2510087368845633,10.0,0.0,1.4655018868449925,4.299102221838433,43.75633668444442,90.83143654464394,0.0
0.007,2.4770151619816017,-1.382020589851471,10.0,0.0,1.8883740978591532,4.765668027847139,51.58766747378032,90.83143654464394,0.0
0.008,2.6680767290418097,-1.4872241871505252,10.0,0.0,2.325877945545995,5.209220346273558,59.45942083902103,90.83143654464394,0.0
0.009000000000000001,2.8266491704841292,-1.5730794701170803,10.0,0.0,2.772378685460125,5.636635464737965,67.35059094018146,90.83143654464394,0.0
0.01,2.962077666392183,-1.645500646948331,10.0,0.0,3.224078639851053,6.052647735211881,75.20908322432116,90.83143654464394,0.0
0.011,3.0811061533574158,-1.7084279320504514,9.692538433870455,0.0,3.6784076154432026,6.426669153196156,82.82286593975249,90.83143654464394,0.0
0.012,3.1726271917719795,-1.7550252226407819,5.965732782203706,0.0,4.129202264388479,6.392970291563219,87.92948591611534,90.83143654464394,0.0
0.013000000000000001,3.0597809060829664,-1.6874707546200238,3.441442300307567,0.0,4.523650597887748,6.180645186306135,91.02720483358007,90.83143654464394,0.0
0.014,2.8047559868661147,-1.5349194404607003,1.8906251586858398,0.0,4.841316487634062,5.910574722422219,93.20710280857439,90.83143654464394,0.0
0.015,2.493024458054739,-1.345513060233138,0.7769195085493759,0.0,5.080899553333915,5.624018662779615,93.94523246114692,90.83143654464394,0.0
0.016,2.1693009286575977,-1.1600864390631307,0.3767167230980837,0.0,5.2493658419731,5.389683538718554,92.56026289743029,90.83143654464394,0.0
0.017,1.891411882637828,-0.9930461875438019,1.051913241428532,0.0,5.3610318278868325,5.30123276056658,92.1081653863162,90.83143654464394,0.0
0.018000000000000002,1.7195741543055583,-0.8746018240370999,1.2651947085688544,0.0,5.441327659923449,5.265625914679661,93.91380781892762,90.83143654464394,0.0
0.019,1.615678811943878,-0.8019166715889006,0.33154977952030684,0.0,5.503222301033478,5.146485690094814,94.14558027013605,90.83143654464394,0.0
0.02,1.4990860472693994,-0.7329231158914592,0.1825221166611719,0.0,5.540151015971785,5.05017860914601,92.25662333103601,90.83143654464394,0.0
0.021,1.4018297987670973,-0.6657736217335277,1.1127487183472713,0.0,5.55705964252098,5.080542570288491,91.91170622498599,90.83143654464394,0.0
0.022,1.3801948225713818,-0.6317956775129299,1.2744045745688604,0.0,5.572247723606818,5.119448161035658,93.49227382641008,90.83143654464394,0.0
0.023,1.3856345066992644,-0.6216527208136002,0.45751240103915247,0.0,5.589031609864069,5.0636925881501895,92.86890179809896,90.83143654464394,0.0
0.024,1.3530812254651134,-0.5998947626571502,0.7488237626601641,0.0,5.596269604376831,5.059039390469632,90.82958821741764,90.83143654464394,0.0
0.025,1.3407967426622236,-0.5772236359008543,1.7684990362730888,0.0,5.600042235308634,5.165852238785595,92.29177559265027,90.83143654464394,0.0
0.026000000000000002,1.3919797021393023,-0.5806833999076764,1.0228019581767103,0.0,5.614726173287165,5.1643846636659045,93.56373477315692,90.83143654464394,0.0
0.027,1.40307380603578,-0.5787523307156262,0.35949938563825246,0.0,5.627547944704682,5.098317405823931,91.1674573038158,90.83143654464394,0.0
0.028,1.3741642730254409,-0.5507873420149105,1.5542779127170985,0.0,5.629423975131091,5.181488704282061,90.98704326464204,90.83143654464394,0.0
0.029,1.411180557382795,-0.5433098155097904,1.642928865103995,0.0,5.638886654332116,5.24997340881938,92.79772747373404,90.83143654464394,0.0
0.03,1.4543554039449815,-0.5533669824024375,0.7179238512670925,0.0,5.6554325996900126,5.205539779498874,91.11034960347892,90.83143654464394,0.0
0.031,1.4452209135964535,-0.5381316696340833,1.5588236558063022,0.0,5.664104131506623,5.270389678687849,90.47179945868088,90.83143654464394,0.0
0.032,1.480706113261634,-0.5276963023141052,1.881695099064956,0.0,5.677397962782956,5.3527338849859945,92.3691436741317,90.83143654464394,0.0
0.033,1.5297196890107925,-0.5393800594806499,0.9176459200446634,0.0,5.698986398522989,5.313862288321384,90.7187862953245,90.83143654464394,0.0
0.034,1.525936411330665,-0.523405036264502,1.743951111941458,0.0,5.712654740897118,5.382477054098391,90.76725092707632,90.83143654464394,0.0
0.035,1.5648142779185161,-0.5124452865434466,1.7203606522412278,0.0,5.7307719033743805,5.430424776947657,92.28706762758986,90.83143654464394,0.0
0.036000000000000004,1.5967587455842835,-0.5166253068761748,0.945895991154996,0.0,5.752441521622653,5.387309122859877,89.79980114154702,90.83143654464394,0.0
0.037,1.5889552786070429,-0.4912193772076111,2.199845588207386,0.0,5.764796160170452,5.497528924336487,91.270498499626,90.83143654464394,0.0
0.038,1.6449806017383293,-0.4917571446062266,1.4601062896180759,0.0,5.787250528721663,5.4978105704906515,90.76741787921821,90.83143654464394,0.0
0.039,1.6597603616091765,-0.48802248907805273,1.7122867864762261,0.0,5.8070714352510855,5.534381216170331,89.67706328927565,90.83143654464394,0.0
0.04,1.6918199988552745,-0.469367741054889,2.269007814001191,0.0,5.826552639968268,5.624615633495789,91.44605354482879,90.83143654464394,0.0
0.041,1.7437592007221054,-0.4794447284338389,1.378366516222775,0.0,5.854404182038194,5.598844260696649,89.4040193589284,90.83143654464394,0.0
0.042,1.7519350279007968,-0.4587626888355126,2.413657781030126,0.0,5.874517638391607,5.7008436825200235,91.12847164866434,90.83143654464394,0.0
0.043000000000000003,1.8080273078864506,-0.4598508491724804,1.5484612851219468,0.0,5.903146209325065,5.683041588071792,89.35039613973439,90.83143654464394,0.0
0.044,1.8179940249056115,-0.4443115346138661,2.4523094436360218,0.0,5.92541150751554,5.777422406485111,90.89050033235567,90.83143654464394,0.0
0.045,1.8736945355917964,-0.4409334962427264,1.6816667094482616,0.0,5.954672166653058,5.76475510152506,89.10141953040288,90.83143654464394,0.0
0.046,1.8853138819889872,-0.42690912204095444,2.5935072805670685,0.0,5.978231128602337,5.863568360142884,90.892367641149,90.83143654464394,0.0
0.047,1.9449089143414766,-0.4237106957398664,1.6974239142289602,0.0,6.009103937067366,5.840729352990671,88.56382276324258,90.83143654464394,0.0
0.048,1.9536828520054534,-0.4063700968477797,2.8843724909961788,0.0,6.032730082355554,5.962417521688448,90.87548544693365,90.83143654464394,0.0
0.049,2.0224523460500348,-0.4102355926643003,1.7281006601277475,0.0,6.066761040513439,5.927763195913798,88.18326958192627,90.83143654464394,0.0
0.05,2.0318835168234948,-0.3868352022128364,3.1006902622586163,0.0,6.091310772370244,6.062175239230849,90.65474578972983,90.83143654464394,0.0
0.051000000000000004,2.10398229246406,-0.39745960841176164,1.8667190659059765,0.0,6.128249423959469,6.028301770169048,88.3761922528794,90.83143654464394,0.0
0.052000000000000005,2.1189738693185576,-0.3695735722604334,3.0305482772488337,0.0,6.154933155444956,6.140942352686,89.99010328787963,90.83143654464394,0.0
0.053,2.179390588091739,-0.37850951563502655,2.2320060923163627,0.0,6.191474386166309,6.1390133943473035,88.86912924824969,90.83143654464394,0.0
0.054,2.2097777425397616,-0.35240479644421097,2.812116185095276,0.0,6.221207719436922,6.209990567168065,88.84909561602909,90.83143654464394,0.0
0.055,2.2528115726379214,-0.35595352917503653,2.841956410491726,0.0,6.255716844454849,6.269894830133312,89.9665494623986,90.83143654464394,0.0
0.056,2.308134989705724,-0.34360419618456706,2.291878358129422,0.0,6.291371569311246,6.260797353713535,87.54715952463786,90.83143654464394,0.0
0.057,2.3265099473205866,-0.32151110786163495,3.5344160972098533,0.0,6.320244327654408,6.396887018076888,89.36737389517313,90.83143654464394,0.0
0.058,2.4026346909377874,-0.335665112157011,2.6389495384369273,0.0,6.361616647955313,6.403138320760653,89.2937036037567,90.83143654464394,0.0
0.059000000000000004,2.4437582519951606,-0.3120456311092613,2.691162013554017,0.0,6.396737183536294,6.4238374187766,87.19590830683595,90.83143654464394,0.0
0.06,2.4698115913203225,-0.29835554331395864,3.7764149443924717,0.0,6.429145860513769,6.562379726474919,89.09920541445447,90.83143654464394,0.0
0.061,2.5527953351536303,-0.31160964022555615,2.842088701885103,0.0,6.473762752101553,6.567812576688544,89.95527459527064,90.83143654464394,0.0
0.062,2.591041657284262,-0.2960375146409093,2.422815730970754,0.0,6.512615764768494,6.537009808668042,88.99487095127773,90.83143654464394,0.0
0.063,2.578305546786471,-0.2932522604655343,2.9213832089008682,0.0,6.544352542663251,6.573991206373806,90.81857093633111,90.83143654464394,0.0
0.064,2.579552595478773,-0.3170652275417216,2.0096618724573063,0.0,6.57926106145924,6.504908583849246,92.3655536889,90.83143654464394,0.0
0.065,2.5433477745916275,-0.3059410940492211,1.2208293247303057,0.0,6.602308681768237,6.372565709355715,90.78896124787242,90.83143654464394,0.0
0.066,2.4549507531966346,-0.2860688475920026,2.0095502982118063,0.0,6.607742546821613,6.359771141047247,92.57700654733497,90.83143654464394,0.0
0.067,2.4113063480146915,-0.2941471575765078,1.0980719484536197,0.0,6.612440905101673,6.244566502222815,92.28195158361446,90.83143654464394,0.0
0.068,2.341510906225432,-0.27358250666306017,1.2310942799241729,0.0,6.602806068970958,6.172340457613172,91.77973757281623,90.83143654464394,0.0
0.069,2.2759704946476784,-0.2741530264972756,1.4727182750415635,0.0,6.58718051568325,6.138133440855292,93.56443187563858,90.83143654464394,0.0
0.07,2.240146082244075,-0.2785478535109912,0.5530411703204445,0.0,6.5701745418216895,6.005489130222548,91.8747247089177,90.83143654464394,0.0
0.07100000000000001,2.162031946907026,-0.2684544575597847,1.3874618720381466,0.0,6.540450512458242,5.993626012266123,93.53467264041467,90.83143654464394,0.0
0.07200000000000001,2.1308756497115606,-0.28498911887288525,0.5304555453319528,0.0,6.51443232093945,5.880007951552266,92.12788154390923,90.83143654464394,0.0
0.073,2.0697903394120534,-0.27778827160876685,1.220886643592022,0.0,6.478696702688966,5.866075182994577,93.08349991511474,90.83143654464394,0.0
0.074,2.04274899400609,-0.2991916657951855,0.720556824284555,0.0,6.447567751240911,5.790385233252845,92.33175932924168,90.83143654464394,0.0
0.075,2.003652342976987,-0.30172049916855104,1.0814238893751105,0.0,6.412046837692696,5.767880276852664,93.09559298933375,90.83143654464394,0.0
0.076,1.9795475516638943,-0.3246099281432602,0.6768654948821744,0.0,6.380320068712764,5.6982241912266955,92.34704221899052,90.83143654464394,0.0
0.077,1.9438905386654932,-0.3291292296029321,1.035984823310323,0.0,6.345068596939047,5.67959097085405,93.43866843722779,90.83143654464394,0.0
0.078,1.9228371910891475,-0.3523230269174671,0.4640993952658514,0.0,6.31398507499544,5.59475663307554,92.2925741588797,90.83143654464394,0.0
0.079,1.8793715302008005,-0.35385309365843565,1.0225351582975375,0.0,6.2774628408367015,5.587014854316401,93.8791124665098,90.83143654464394,0.0
0.08,1.8626591840150668,-0.37477039892521313,0.19878924526383246,0.0,6.246104255129863,5.48160232342483,92.1519591816575,90.83143654464394,0.0
0.081,1.807603783400951,-0.3744943171660581,1.0491606613198428,0.0,6.207100732858373,5.491262472553924,93.16709630094587,90.83143654464394,0.0
0.082,1.799809485645206,-0.3910830903864475,0.5182355041126392,0.0,6.174791103598775,5.429457591836597,92.77341274219232,90.83143654464394,0.0
0.083,1.7644076523816707,-0.40855953634889874,0.6956575215139309,0.0,6.141288470517074,5.399244168432689,92.5095734865641,90.83143654464394,0.0
0.084,1.743492129185264,-0.4181799920243925,0.810795779908843,0.0,6.108998244067829,5.381539501529398,93.73972816878069,90.83143654464394,0.0
0.085,1.72693281747266,-0.43937620604916505,0.1666355225591789,0.0,6.080401952559148,5.2919796368355225,92.23247941197103,90.83143654464394,0.0
0.08600000000000001,1.679339736366142,-0.4388720252041325,0.9062494722907375,0.0,6.04544188169875,5.301384912308726,92.7923978968301,90.83143654464394,0.0
0.08700000000000001,1.672198255978126,-0.453094303190693,0.6066806163393419,0.0,6.016487837858682,5.266314571528216,93.39158186904419,90.83143654464394,0.0
0.088,1.6492684074863133,-0.47287681729535147,0.2814871769882934,0.0,5.988956018096218,5.201531139202869,92.41172092406183,90.83143654464394,0.0
0.089,1.611697456475119,-0.4754060420206113,0.7556148056852958,0.0,5.957779426656196,5.199782347810304,92.53893207532015,90.83143654464394,0.0
0.09,1.6000353761200141,-0.488710638388583,0.6749342747493727,0.0,5.930983828574146,5.182381761052021,93.84835916191797,90.83143654464394,0.0
0.091,1.5862878768396445,-0.5057218581405404,-0.009948494722278545,0.0,5.906865919833505,5.090906977946126,92.47688663061304,90.83143654464394,0.0
0.092,1.5349642406202466,-0.5038915851612767,0.6593332700704959,0.0,5.875640881431103,5.09214582909001,92.45178048969815,90.83143654464394,0.0
0.093,1.5210519033483787,-0.5124957408715624,0.6556829010773968,0.0,5.848626991841253,5.08406105377981,93.66329190351875,90.83143654464394,0.0
0.094,1.511634733396472,-0.5277474278506843,0.021608640578347327,0.0,5.82509765768997,5.005268467398671,92.62719100190584,90.83143654464394,0.0
0.095,1.4668978824387278,-0.5289461609553967,0.5217015468121842,0.0,5.796021342087426,4.998180050437062,92.26041162603157,90.83143654464394,0.0
0.096,1.4501989228710508,-0.5358804177545217,0.6908014839354444,0.0,5.769894597265833,5.003882424675448,92.4344759361414,90.83143654464394,0.0
0.097,1.4477004029554283,-0.5500597144383099,0.587738934965556,0.0,5.748441144417463,4.993481854844955,93.61913446658626,90.83143654464394,0.0
0.098,1.4398420246241117,-0.5642197163819647,-0.03246730947629928,0.0,5.729508787117845,4.915623371731059,92.65357741236384,90.83143654464394,0.0
0.099,1.3954309941157779,-0.5620214868435289,0.43208980895770965,0.0,5.704300411968136,4.905767476243355,92.21293248640269,90.83143654464394,0.0
0.1,1.3759928430224124,-0.5657068820893261,0.6385973125206978,0.0,5.681054660557045,4.914140673312224,92.29401451322228,90.83143654464394,0.0
0.101,1.3733487458278304,-0.5768803734337016,0.583430519425121,0.0,5.662163034089377,4.911315022437426,93.07876672480965,90.83143654464394,0.0
0.10200000000000001,1.369341414647519,-0.5884976826998957,0.16858111182977664,0.0,5.646044174286835,4.8622153725566974,92.74573207303436,90.83143654464394,0.0
0.10300000000000001,1.3402991054504436,-0.5898527479099075,0.3159554824335189,0.0,5.626660119556911,4.839928057226027,92.4724007953014,90.83143654464394,0.0
0.10400000000000001,1.3186034168484726,-0.5900214355068994,0.43621147879342637,0.0,5.606990743750484,4.831781586503229,92.5081391420353,90.83143654464394,0.0
0.105,1.3059065470798354,-0.5943504337106458,0.4015752794525589,0.0,5.588948161378861,4.8186499821695055,92.4811754333583,90.83143654464394,0.0
0.106,1.293416394334022,-0.5988672638811905,0.3985597449039162,0.0,5.571850238147748,4.8062888813294,92.38439755162403,90.83143654464394,0.0
0.107,1.2813016228297902,-0.6029927060875377,0.4314190757012497,0.0,5.5556346274967305,4.798306503321397,92.2716965847704,90.83143654464394,0.0
0.108,1.2713643475042389,-0.6075173231346723,0.4733669587268039,0.0,5.540698793563134,4.7947584284446965,92.09740979410185,90.83143654464394,0.0
0.109,1.264017516320256,-0.6129880678691301,0.5478506215664978,0.0,5.52745827128555,4.798554080421401,91.95478440370586,90.83143654464394,0.0
0.11,1.2622014088597382,-0.6176786458161175,0.6079298381738742,0.0,5.516382622560217,4.806636295679908,91.77439080527253,90.83143654464394,0.0
0.111,1.2635675296557107,-0.6232621226731967,0.6886970947842515,0.0,5.507790036908075,4.820917896238938,92.7027952180318,90.83143654464394,0.0
0.112,1.2686737349828827,-0.6298007524300819,0.20578130167074105,0.0,5.502148284381737,4.77843564699023,92.69420409448387,90.83143654464394,0.0
0.113,1.2435844999047572,-0.6272256703395653,0.19144918794630694,0.0,5.492473836855638,4.745700950747073,91.8090879411551,90.83143654464394,0.0
0.114,1.2170705207613222,-0.6178349577529546,0.6242307506455784,0.0,5.479486136894211,4.765687217764781,91.3394700142069,90.83143654464394,0.0
0.115,1.2175741723756537,-0.6180378495700457,0.8539593794240505,0.0,5.469912058856442,4.802997880154206,91.94085428788442,90.83143654464394,0.0
0.116,1.235559956162085,-0.625387444818887,0.5421730651528833,0.0,5.465832881420597,4.797052887942934,92.8431633450863,90.83143654464394,0.0
0.117,1.2338830131630496,-0.6296537587450611,0.07090126854752166,0.0,5.4619629210866,4.742936764293084,91.80965508069605,90.83143654464394,0.0
0.11800000000000001,1.2031265550348034,-0.617985980279304,0.5778732153821255,0.0,5.45174222565052,4.7576913300567965,90.88901281060497,90.83143654464394,0.0
0.11900000000000001,1.1996386324349764,-0.6141996292994025,1.0376185877680548,0.0,5.4437192355112884,4.815526748099335,91.38704404477296,90.83143654464394,0.0
0.12,1.2276242724363557,-0.6217948690834858,0.7830468956827663,0.0,5.443155426076283,4.831062685844304,92.48710062143861,90.83143654464394,0.0
0.121,1.2410753075297745,-0.62771843749545,0.21646196658199401,0.0,5.44477723148675,4.784010266130783,91.86561144822521,90.83143654464394,0.0
0.122,1.2172072809815375,-0.6188712940136584,0.5168648041528838,0.0,5.440499192917701,4.783295423624704,90.66367111693461,90.83143654464394,0.0
0.123,1.2080668853656924,-0.6100230596463776,1.1195126240752775,0.0,5.435692639609364,4.846278256580346,90.85886830656207,90.83143654464394,0.0
0.124,1.2375145683294884,-0.6136116810218438,1.021639711642364,0.0,5.438148255622402,4.882359003260567,92.15634632648266,90.83143654464394,0.0
0.125,1.2621444236006814,-0.620565660859188,0.3596516038636819,0.0,5.4446954362705124,4.840822466892552,91.85265125868634,90.83143654464394,0.0
0.126,1.2439277332161651,-0.6128743928247122,0.501286990621421,0.0,5.445518665934841,4.8285442103422955,90.39477012230324,90.83143654464394,0.0
0.127,1.2313390141799958,-0.5989074690597496,1.2345942230363747,0.0,5.443572298043911,4.8980261363017,90.47237120762956,90.83143654464394,0.0
0.128,1.26345047571469,-0.599777260396791,1.1993843337433576,0.0,5.449004105822741,4.945500924770511,91.91910044465436,90.83143654464394,0.0
0.129,1.2944109332603786,-0.6076789407655088,0.4651430762308546,0.0,5.459500698597754,4.9052724400222,91.50294738514728,90.83143654464394,0.0
0.13,1.2792742137641153,-0.5988661835151644,0.6665044975793617,0.0,5.463876363519213,4.9015832756697275,89.75294611807804,90.83143654464394,0.0
0.131,1.2726221137573903,-0.5842841381739202,1.5522900353796394,0.0,5.465929648098243,4.994703752994971,90.54371042216731,90.83143654464394,0.0
0.132,1.3189051439149142,-0.5882567250988976,1.1597851445597729,0.0,5.4776724569670545,5.021526463360008,92.18563538731195,90.83143654464394,0.0
0.133,1.3434646510367803,-0.5918369382319572,0.3252806735607734,0.0,5.4912773535608785,4.956732025191904,90.54233702405793,90.83143654464394,0.0
0.134,1.315332836342294,-0.5725284545919993,1.1498208503936427,0.0,5.494882581346781,5.00216207934921,89.06946413210069,90.83143654464394,0.0
0.135,1.3319235972868944,-0.5608766154425981,1.903877020497694,0.0,5.501581674299787,5.116004125961642,91.16106781919592,90.83143654464394,0.0
0.136,1.3926233873913219,-0.57612030738865,0.8547788642045593,0.0,5.520788387124299,5.089679449012806,91.49348082087471,90.83143654464394,0.0
0.137,1.3941306942035347,-0.5717369372200499,0.6819519206028577,0.0,5.53480735333347,5.059829122959748,89.32629680654085,90.83143654464394,0.0
0.138,1.3818810383377638,-0.5469874945225097,1.7805953251508162,0.0,5.541760785321373,5.1583073052825625,90.33029365070237,90.83143654464394,0.0
