timestamp,iq,id,iq_ref,id_ref,vq,vd,omega,omega_ref,r
0.0,0.0,0.0,0.0,0.0,0.0,0.0,0.0,21.681548739494183,0.0
0.001,0.0,0.0,10.0,0.0,0.0,1.0999999999999999,6.115472199294103,21.681548739494183,0.0
0.002,0.5307369851907212,-0.2913212625381807,8.13436272575414,0.0,0.14204533887919993,1.7263988314619763,12.170911913199244,21.681548739494183,0.0
0.003,0.9853633933973855,-0.5481126213755965,5.20174923706452,0.0,0.35785986386341123,1.9557296676014486,16.378836892781166,21.681548739494183,0.0
0.004,1.2015943925893404,-0.6723923886235248,3.1508138657406897,0.0,0.5861288807720466,1.9681929708376218,19.169488876383664,21.681548739494183,0.0
0.005,1.2238089784564272,-0.6852167115420769,1.7806084725705462,0.0,0.7929852041619975,1.8717423114521043,20.944213880804202,21.681548739494183,0.0
0.006,1.1285642131843312,-0.6304892710836738,0.9006193189471765,0.0,0.9633625675947919,1.7332246674158656,22.02973351690267,21.681548739494183,0.0
0.007,0.9803203985182427,-0.5447536494638211,0.3543776531238578,0.0,1.0939667863070823,1.589664204382747,22.62165446780803,21.681548739494183,0.0
0.008,0.8208737535096771,-0.453036622514286,0.049016120388040374,0.0,1.1879230200965822,1.4614495503857448,22.957032562816522,21.681548739494183,0.0
0.009000000000000001,0.6747812522592447,-0.36912200382363136,-0.13142776534943001,0.0,1.2513487273209554,1.3531324817510908,22.80187983743051,21.681548739494183,0.0
0.01,0.550853625976081,-0.29959217472686,-0.06505471363578652,0.0,1.290791021945687,1.2832662791268583,22.472171397078387,21.681548739494183,0.0
0.011,0.4610845566337399,-0.2479240556141627,0.09189327996443197,0.0,1.3143142720340932,1.249566796371236,22.499680654585234,21.681548739494183,0.0
0.012,0.4063782256089735,-0.21379880117873273,0.06995733206009835,0.0,1.3288781520413266,1.2227271584138386,22.80723427465625,21.681548739494183,0.0
0.013000000000000001,0.36907943252641795,-0.19160189259502233,-0.09507633332703003,0.0,1.3372012728522429,1.1856493324681971,22.681298492579607,21.681548739494183,0.0
0.014,0.33407064178982426,-0.1736990068078288,-0.04210593981956334,0.0,1.3392369506367492,1.164066660188104,22.3466821554642,21.681548739494183,0.0
0.015,0.31042412364866845,-0.16022805780384258,0.11855089457843959,0.0,1.3376080178822292,1.1642393998513365,22.19504416826689,21.681548739494183,0.0
0.016,0.30261093970531405,-0.15443956659305838,0.18923493388936824,0.0,1.3356572278263381,1.171023633305374,22.40436185000188,21.681548739494183,0.0
0.017,0.30360183264048135,-0.15378465862596105,0.07734796191679594,0.0,1.3345657851571668,1.1637328270360245,22.553215359348084,21.681548739494183,0.0
0.018000000000000002,0.29979057555269395,-0.15294791245589964,-0.005795458954844679,0.0,1.3327689131289417,1.1494641977595466,22.231751392371823,21.681548739494183,0.0
0.019,0.2917185426427486,-0.14918321342034654,0.14943449800450914,0.0,1.3293191159436815,1.155199284731355,22.026320121408286,21.681548739494183,0.0
0.02,0.29278094617976175,-0.14881724664478596,0.24870241966713647,0.0,1.326785197819172,1.169185470382581,22.234649868748985,21.681548739494183,0.0
0.021,0.3008626244072153,-0.15182513697221064,0.13900653470423918,0.0,1.3262378176760081,1.1675820585240388,22.471106465544114,21.681548739494183,0.0
0.022,0.30243308703262606,-0.1534383337967706,0.012882659046175193,0.0,1.3257322071087339,1.1532156482577562,22.211931128535024,21.681548739494183,0.0
0.023,0.2955659757077685,-0.1509925659304483,0.1371665036603117,0.0,1.323555350138017,1.155938866497498,21.941771573280544,21.681548739494183,0.0
0.024,0.29527286511592643,-0.15011980112224182,0.2696440529496882,0.0,1.3217969542381078,1.171465340243738,22.142334806705637,21.681548739494183,0.0
0.025,0.30357636830221413,-0.15289056543530816,0.16475457556502693,0.0,1.3220805570253318,1.171484392563747,22.409342707377498,21.681548739494183,0.0
0.026000000000000002,0.3059482485506319,-0.15442270881478615,0.023972685550263717,0.0,1.3224785328944473,1.156914915007237,22.210201258683167,21.681548739494183,0.0
0.027,0.2988623829172543,-0.15204174331389916,0.11825688470553919,0.0,1.3211025357821071,1.1564244276226727,21.91905928827473,21.681548739494183,0.0
0.028,0.29660403316988837,-0.1504283827985163,0.2614527644219517,0.0,1.3196614296408615,1.1708316538584602,22.050400353928566,21.681548739494183,0.0
0.029,0.30375500775267494,-0.15224848940535146,0.19209371545069032,0.0,1.3200215020692248,1.173783401970961,22.355908298241204,21.681548739494183,0.0
0.03,0.30726381754321297,-0.15389994160143547,0.03259614770690139,0.0,1.3208042007415033,1.1593103812218133,22.224454512668835,21.681548739494183,0.0
0.031,0.30033962793217417,-0.15187266850310654,0.09289398276133914,0.0,1.3198218129088617,1.1553874189033535,21.911088263841258,21.681548739494183,0.0
0.032,0.29636146981917627,-0.14947087891602123,0.24728171193165716,0.0,1.3183014435040419,1.1685065413879856,21.954318064122184,21.681548739494183,0.0
0.033,0.30236807454963976,-0.1505361593832203,0.222939118544914,0.0,1.3183862220354303,1.1752396440179467,22.26939405229629,21.681548739494183,0.0
0.034,0.3074214713020683,-0.15283119417949734,0.05952267132984068,0.0,1.3193776339995942,1.1630797233827974,22.23644867801178,21.681548739494183,0.0
0.035,0.30211780212839456,-0.1516290573035789,0.07044635908691921,0.0,1.3188987272995136,1.1557046437096368,21.910908925135512,21.681548739494183,0.0
0.036000000000000004,0.29692068783338543,-0.14858539581834537,0.23092263366863952,0.0,1.317407421907508,1.1670809805409175,21.874685382636066,21.681548739494183,0.0
0.037,0.3016146179829807,-0.14899238433900497,0.24710303848694365,0.0,1.317278086089956,1.17677733147466,22.198250352095652,21.681548739494183,0.0
0.038,0.3077228754538142,-0.1517702922444073,0.08015353763113608,0.0,1.3184328189319212,1.1663398955706552,22.23515733012106,21.681548739494183,0.0
0.039,0.3036556904086199,-0.15107076651304055,0.05616396271216406,0.0,1.3183236079897847,1.1566007912383984,21.895445454016727,21.681548739494183,0.0
0.04,0.29765036728740313,-0.14758995442579464,0.22388093361910444,0.0,1.3168755136363532,1.1671333524869887,21.813908443124085,21.681548739494183,0.0
0.041,0.30161881049998374,-0.14763573129242863,0.26332584202912657,0.0,1.3166653284193262,1.1786330364068134,22.150295717029323,21.681548739494183,0.0
0.042,0.30839474179296816,-0.15069411261027987,0.09044473530115599,0.0,1.3179620942922812,1.1688446945786743,22.22111899414098,21.681548739494183,0.0
0.043000000000000003,0.3048836202731757,-0.15019255206944873,0.049637394198859486,0.0,1.318064593922457,1.1578588497467783,21.867357272966505,21.681548739494183,0.0
0.044,0.2984267092723989,-0.14643850754608528,0.22466016945137385,0.0,1.316650329814264,1.1683175670447765,21.769937407013934,21.681548739494183,0.0
0.045,0.302201823829374,-0.14633948804746097,0.27248621575246157,0.0,1.316450012147075,1.1806197918314754,22.11803223107776,21.681548739494183,0.0
0.046,0.3092996960119541,-0.1495412898582277,0.09407396880471336,0.0,1.3178531371194455,1.1708251399510077,22.192049770564466,21.681548739494183,0.0
0.047,0.30588530664022145,-0.14906841432112075,0.05196018875065689,0.0,1.3180524500793425,1.1597484339720716,21.828299621595512,21.681548739494183,0.0
0.048,0.29943555086183987,-0.14523270639261443,0.2323677544141206,0.0,1.316706962028592,1.1707406291524454,21.74633737128996,21.681548739494183,0.0
0.049,0.3034963875990438,-0.1451650999815305,0.2727009932489385,0.0,1.3166261626750193,1.182620447026026,22.101582996196754,21.681548739494183,0.0
0.05,0.3104261015715223,-0.14831784481315663,0.09087783822851625,0.0,1.3180889030397522,1.1721786635666953,22.143019651406227,21.681548739494183,0.0
0.051000000000000004,0.30661038461827766,-0.14768316834911654,0.06554480150465908,0.0,1.3182598491627173,1.1624479560049332,21.774471152593076,21.681548739494183,0.0
0.052000000000000005,0.3007485266124431,-0.14402606478538488,0.24888982678024585,0.0,1.3170446952898405,1.1747353441703057,21.74814455994202,21.681548739494183,0.0
0.053,0.30568567957802295,-0.14422653882932107,0.2613871649012956,0.0,1.3172384188012582,1.184612029666141,22.1101771360707,21.681548739494183,0.0
0.054,0.3118350175585672,-0.1470264756238424,0.0760845928711904,0.0,1.318706426818076,1.1723851070108084,22.07117336999393,21.681548739494183,0.0
0.055,0.3068283508909324,-0.14588793448344883,0.09169022960457845,0.0,1.31865170287429,1.1657095498969101,21.690527574695025,21.681548739494183,0.0
0.056,0.3021536705835515,-0.1427376900377899,0.2819233389020218,0.0,1.3175997541358744,1.1809298099225431,21.77589170602272,21.681548739494183,0.0
0.057,0.30899551532125946,-0.14369594675746883,0.23829784357288952,0.0,1.3183119369574854,1.1870223637683712,22.16217836833409,21.681548739494183,0.0
0.058,0.3138062253420497,-0.14584361728743925,0.04034821612880529,0.0,1.3197888180726174,1.1707779167913093,21.97433682493442,21.681548739494183,0.0
0.059000000000000004,0.30633025513403345,-0.1435121749797083,0.1313411069742383,0.0,1.3192156310193799,1.1691647807139953,21.571603870756576,21.681548739494183,0.0
0.06,0.3034889199086697,-0.1410650448361309,0.3338070327505358,0.0,1.3182925791710192,1.1892547496387373,21.83463061695501,21.681548739494183,0.0
0.061,0.313292136918646,-0.14356366941696397,0.2007628408767102,0.0,1.3197701494052956,1.1894771288989334,22.22113200406465,21.681548739494183,0.0
0.062,0.3159215821318189,-0.14503802517303974,0.0021163146761858376,0.0,1.321259393429524,1.1691131444898692,21.846075557192098,21.681548739494183,0.0
0.063,0.30594106535110516,-0.14093769091916247,0.18799926993548272,0.0,1.320097534284936,1.174492224562673,21.497410362977966,21.681548739494183,0.0
0.064,0.3060399254211396,-0.139199153621338,0.3641732508077106,0.0,1.319439533301865,1.1966268392815778,21.927427448976502,21.681548739494183,0.0
0.065,0.31731702175709997,-0.14331998588543265,0.1467059207136196,0.0,1.3215314708110204,1.189559554314958,22.192791510410938,21.681548739494183,0.0
0.066,0.31655321904349437,-0.14385659077136345,0.00891146228723394,0.0,1.32272530428741,1.1706222637318107,21.71603751338641,21.681548739494183,0.0
0.067,0.3068132953572756,-0.13864352089178317,0.24694357306057535,0.0,1.3213272216222325,1.1823233159022961,21.540996903526047,21.681548739494183,0.0
0.068,0.3102933459762648,-0.13786761225793076,0.3358693963504388,0.0,1.3212058331896934,1.1996357692384156,21.983216394294338,21.681548739494183,0.0
0.069,0.3196532509153091,-0.14217896729220858,0.11174297441829151,0.0,1.3233098370741292,1.1886668847151296,22.024311347402882,21.681548739494183,0.0
0.07,0.316321138335477,-0.14176962531283302,0.08776787178493234,0.0,1.3240184109497188,1.17906942339544,21.603224881110034,21.681548739494183,0.0
0.07100000000000001,0.31079154683876975,-0.13783529675110895,0.29909434351519815,0.0,1.3232676985837846,1.1945631624507809,21.717172192057802,21.681548739494183,0.0
0.07200000000000001,0.3174334523606452,-0.13846194573163428,0.24176445351567777,0.0,1.324249706033453,1.1992269982243704,22.14643502135174,21.681548739494183,0.0
0.073,0.3213236842756014,-0.14026296267761773,0.022484176050134086,0.0,1.3257917416897664,1.179613613088927,21.78228624486485,21.681548739494183,0.0
0.074,0.31202689269606915,-0.13674070364015636,0.20355118923987198,0.0,1.3248127766033235,1.185287493651084,21.423508853310867,21.681548739494183,0.0
0.075,0.31269305002808756,-0.13493507814393813,0.3855202838786962,0.0,1.324335699867531,1.2083357747044365,21.90023793209208,21.681548739494183,0.0
0.076,0.3244751393518167,-0.1394193925538743,0.14496885256211145,0.0,1.3267224897507084,1.199461803335372,22.09632759570413,21.681548739494183,0.0
0.077,0.322828503563761,-0.13981930755112332,0.04277623219398724,0.0,1.3279823510142597,1.1831771849941277,21.60424774756385,21.681548739494183,0.0
0.078,0.3144731384761497,-0.13453840207514217,0.2895891661834298,0.0,1.3269028655650006,1.1977209873576398,21.609927419072942,21.681548739494183,0.0
0.079,0.3197832096574933,-0.13438841674946722,0.2874655436330959,0.0,1.3274220195659547,1.207333071638619,22.047240936211068,21.681548739494183,0.0
0.08,0.32573091764924245,-0.13721608147584347,0.06515186309686416,0.0,1.3291630095680693,1.191001447090835,21.766596242909387,21.681548739494183,0.0
0.081,0.31871647292836125,-0.13491623035360753,0.20462373471355289,0.0,1.3288154778444845,1.1948731926804534,21.382221345707716,21.681548739494183,0.0
0.082,0.31921325790434935,-0.1329695555315432,0.3998044572522528,0.0,1.3286987381330149,1.2182733805072743,21.891400520796147,21.681548739494183,0.0
0.083,0.331051678195149,-0.13736867009976247,0.14311635189501792,0.0,1.331437060526099,1.2078371183833545,22.038223390063962,21.681548739494183,0.0
0.084,0.32849783610244254,-0.13744010112043165,0.06613817075541248,0.0,1.3328217907340747,1.193216902672457,21.54987110488623,21.681548739494183,0.0
0.085,0.3208204239987613,-0.13207712179209624,0.31163108969035846,0.0,1.3320153843138394,1.2087901613581653,21.667222793691405,21.681548739494183,0.0
0.08600000000000001,0.32673944511365083,-0.1322432337087054,0.25309850474579837,0.0,1.3329188465083084,1.2131040735563527,22.102942328386572,21.681548739494183,0.0
0.08700000000000001,0.3301080929391865,-0.1340383354496314,0.03102480150929096,0.0,1.334359153775485,1.1929227981979382,21.604169736251404,21.681548739494183,0.0
0.088,0.3207124546978711,-0.12990690634357857,0.2811848876093029,0.0,1.3331648945610277,1.2057092342902496,21.42809158065473,21.681548739494183,0.0
0.089,0.32524485164460293,-0.12910446731101172,0.3717585369960343,0.0,1.3333217508747255,1.2239665813768696,21.910283424463,21.681548739494183,0.0
0.09,0.3352160789491778,-0.13392276420342722,0.12837526824221127,0.0,1.3358266933142067,1.2116844722953752,21.780002472339604,21.681548739494183,0.0
0.091,0.33151011757198445,-0.13316130161645404,0.1925312069754551,0.0,1.3367209867480994,1.2108794223387096,21.348764341864825,21.681548739494183,0.0
0.092,0.3305564005842723,-0.13054430438299575,0.41147811618913765,0.0,1.3371650907731252,1.2337547566021496,21.88364070363252,21.681548739494183,0.0
0.093,0.34164516643423537,-0.13418097207242408,0.14201901566390746,0.0,1.3402785212401642,1.2213276962784618,21.961652920840145,21.681548739494183,0.0
0.094,0.3376600207775993,-0.13360375836628424,0.10021186524663514,0.0,1.3417380424435608,1.2090997431739288,21.470794488386513,21.681548739494183,0.0
0.095,0.33086008305518816,-0.12820845033618744,0.34774862398452755,0.0,1.3412411044699155,1.2265957941584291,21.740743222976924,21.681548739494183,0.0
0.096,0.3378307984196859,-0.1290296282352598,0.2121823118544946,0.0,1.3426877480412838,1.2240701062581136,22.04250504379161,21.681548739494183,0.0
0.097,0.3377534973233362,-0.1299240690576238,0.05769183840417713,0.0,1.3438273351769525,1.2063815728209752,21.462864535844858,21.681548739494183,0.0
0.098,0.3293144779237077,-0.1246498829951009,0.34969893441404665,0.0,1.3424950053802398,1.2251690558597013,21.598593765038014,21.681548739494183,0.0
0.099,0.33694468902053853,-0.12533076670476154,0.28266386956203016,0.0,1.3433022959357586,1.2307269161064158,22.01684849620495,21.681548739494183,0.0
0.1,0.3412714313720524,-0.1282061697279722,0.07018350641145443,0.0,1.3448941289558538,1.2127075905382696,21.484000175455023,21.681548739494183,0.0
0.101,0.33369526927026655,-0.12430350359796427,0.3385831524268098,0.0,1.3440667988125914,1.2291747907768538,21.516090623243617,21.681548739494183,0.0
0.10200000000000001,0.3406409188187002,-0.1244047746055438,0.32419250969501845,0.0,1.3450190881796482,1.238805787745257,21.9834199620434,21.681548739494183,0.0
0.10300000000000001,0.3467537569346198,-0.12789699862302295,0.08750912806963515,0.0,1.3472223802386862,1.2210746927047853,21.50942489391486,21.681548739494183,0.0
0.10400000000000001,0.33961898830772697,-0.12451253992685664,0.3262279005896973,0.0,1.34702502089102,1.2348088880978412,21.487785916937806,21.681548739494183,0.0
0.105,0.34531525097635973,-0.12388495094636004,0.3389850173037886,0.0,1.3481856268165326,1.245468086550357,21.95948205418442,21.681548739494183,0.0
0.106,0.35143885655217005,-0.12729287156514887,0.10035761553357936,0.0,1.3506772391526183,1.2281842064016553,21.51530650509258,21.681548739494183,0.0
0.107,0.344468295247706,-0.12391763955437475,0.3241078124235163,0.0,1.3507859475128519,1.2407046689762764,21.499438460356583,21.681548739494183,0.0
0.108,0.3495664863562028,-0.12293024471868888,0.3338629375828901,0.0,1.3520609701827064,1.2501890112931116,21.967448034196476,21.681548739494183,0.0
0.109,0.35483579614471306,-0.1259638176803578,0.09699915771592049,0.0,1.3545004917913992,1.2321712124426367,21.48387309060811,21.681548739494183,0.0
0.11,0.3473336581288713,-0.12209165375809719,0.34076338599896405,0.0,1.3544380075931097,1.246259776827511,21.541189319995027,21.681548739494183,0.0
0.111,0.3530192519635492,-0.12139986381793855,0.3135088655004972,0.0,1.3557532529989422,1.2527971601144339,21.968229497887766,21.681548739494183,0.0
0.112,0.356920413214684,-0.1240598689150276,0.0971219689701921,0.0,1.3578902306529652,1.2349100444006218,21.42095461281225,21.681548739494183,0.0
0.113,0.34935165060414874,-0.1196774095109318,0.3733653527747698,0.0,1.3575161283847832,1.2524475547070693,21.600841343157718,21.681548739494183,0.0
0.114,0.35662971564640156,-0.11996169594574431,0.28422906156539984,0.0,1.359008283475934,1.2547502031042241,21.921453925584064,21.681548739494183,0.0
0.115,0.3588203829905543,-0.12223910276838229,0.12152371849132804,0.0,1.3608291597838278,1.2397973845872905,21.367695222000968,21.681548739494183,0.0
0.116,0.35264649957830435,-0.11767006411677323,0.40154160545780815,0.0,1.3604472982893352,1.2596519903986816,21.676537095945477,21.681548739494183,0.0
0.117,0.3611126272436934,-0.11922585866249007,0.24717078492104078,0.0,1.3623059113119758,1.25670896747346,21.809745991499636,21.681548739494183,0.0
0.11800000000000001,0.36108404378449216,-0.12064400131448051,0.17928436462390696,0.0,1.3638247984860925,1.248410115572874,21.31369811641731,21.681548739494183,0.0
0.11900000000000001,0.3579439038161408,-0.1165887389854929,0.43098680839583847,0.0,1.3639016514700295,1.2698043001595682,21.75760552177727,21.681548739494183,0.0
0.12,0.36763110285055844,-0.1195027731803561,0.20827253789302846,0.0,1.3664713339989678,1.2609541640994886,21.638507445979005,21.681548739494183,0.0
0.121,0.3652169992661291,-0.11947509395227934,0.2682519887273117,0.0,1.3678668496119673,1.2624333155797425,21.323989909412195,21.681548739494183,0.0
0.122,0.3664736766678645,-0.11652635539221944,0.42908634531153705,0.0,1.3689466443623657,1.280833712639157,21.869675892184393,21.681548739494183,0.0
0.123,0.3751607311292451,-0.12041467248639101,0.1543620823985357,0.0,1.3722157016096261,1.2647310277646628,21.49998534606533,21.681548739494183,0.0
0.124,0.36945147355389063,-0.11754852736961167,0.34102298939235576,0.0,1.3731934255109226,1.2745603483786976,21.57179171930633,21.681548739494183,0.0
0.125,0.3735571212649551,-0.11588725310407011,0.3062173729737346,0.0,1.374902230365452,1.2773005686215009,21.900703005970293,21.681548739494183,0.0
0.126,0.3747705367360169,-0.11752417324305806,0.13957018697699175,0.0,1.3769108507167527,1.261862093805316,21.3426631602218,21.681548739494183,0.0
0.127,0.3681436858187342,-0.11231978923744708,0.42197896564396187,0.0,1.3765859101092972,1.281640853774825,21.72380627124622,21.681548739494183,0.0
0.128,0.3762101732062167,-0.11398215318184057,0.23098483481423077,0.0,1.3785062434334776,1.274622219386901,21.602789548421597,21.681548739494183,0.0
0.129,0.3742453003835722,-0.11415446503158547,0.2922807881372687,0.0,1.3795350106504762,1.2774467788283852,21.35325317885061,21.681548739494183,0.0
0.13,0.37654202391459435,-0.11153432366873946,0.42033192852919754,0.0,1.3804534184215127,1.2932921366406636,21.838785169235692,21.681548739494183,0.0
0.131,0.38419411207853965,-0.11536356245690581,0.17599356903924218,0.0,1.3833119388770005,1.2786683060382797,21.423163714141456,21.681548739494183,0.0
0.132,0.3793312352869625,-0.11231670479221866,0.38638814683988737,0.0,1.3840487774957029,1.291990935023366,21.669992244721985,21.681548739494183,0.0
