timestamp,iq,id,iq_ref,id_ref,vq,vd,omega,omega_ref,r
0.0,0.0,0.0,0.0,0.0,0.0,0.0,0.0,295.58509152869544,0.0
0.001,0.0,0.0,10.0,0.0,0.0,1.0999999999999999,6.115472199294103,295.58509152869544,0.0
0.002,0.5307369851907212,-0.2913212625381807,10.0,0.0,0.14204533887919985,1.9316189316290207,13.317801563642547,295.58509152869544,0.0
0.003,1.0842913387634832,-0.6024330830807904,10.0,0.0,0.384357124667687,2.6386968949419622,20.697939467553027,295.58509152869544,0.0
0.004,1.5590443546685477,-0.8700465084428163,10.0,0.0,0.6994718867930164,3.2526109522886295,28.232747544420146,295.58509152869544,0.0
0.005,1.9399447555359186,-1.0838738622210777,10.0,0.0,1.065311453102468,3.7994935661768023,35.92944872443006,295.58509152869544,0.0
0.006,2.239750732602683,-1.2510087368845633,10.0,0.0,1.4655018868449925,4.299102221838433,43.75633668444442,295.58509152869544,0.0
0.007,2.4770151619816017,-1.382020589851471,10.0,0.0,1.8883740978591532,4.765668027847139,51.58766747378032,295.58509152869544,0.0
0.008,2.6680767290418097,-1.4872241871505252,10.0,0.0,2.325877945545995,5.209220346273558,59.45942083902103,295.58509152869544,0.0
0.009000000000000001,2.8266491704841292,-1.5730794701170803,10.0,0.0,2.772378685460125,5.636635464737965,67.35059094018146,295.58509152869544,0.0
0.01,2.962077666392183,-1.645500646948331,10.0,0.0,3.224078639851053,6.052647735211881,75.20908322432116,295.58509152869544,0.0
0.011,3.0811061533574158,-1.7084279320504514,10.0,0.0,3.678407615443203,6.460489925470405,83.0265951655913,295.58509152869544,0.0
0.012,3.188848746459569,-1.7638278597420747,10.0,0.0,4.133552631697047,6.862319393890706,90.74118064793086,295.58509152869544,0.0
0.013000000000000001,3.288205119878689,-1.8140726097274587,10.0,0.0,4.588339016389012,7.259628641949282,98.35820682563939,295.58509152869544,0.0
0.014,3.3820602099432007,-1.8592355758795645,10.0,0.0,5.041843166194517,7.653355107498287,105.90865295623543,295.58509152869544,0.0
0.015,3.4721069852858886,-1.899829032412081,10.0,0.0,5.493383198131427,8.044092747085895,113.37727610343421,295.58509152869544,0.0
0.016,3.5596145800153947,-1.9360338400176071,10.0,0.0,5.94241958510469,8.43218525824161,120.68508583176356,295.58509152869544,0.0
0.017,3.645144415105338,-1.9685384477868613,10.0,0.0,6.388575043274759,8.817838951066484,127.83962377537456,295.58509152869544,0.0
0.018000000000000002,3.730251927866576,-1.9959253041084188,10.0,0.0,6.83136783302799,9.201036292373047,134.85405702603322,295.58509152869544,0.0
0.019,3.81544967906247,-2.018253592643655,10.0,0.0,7.270383321112213,9.581672501020332,141.68976328564074,295.58509152869544,0.0
0.02,3.9014648862453374,-2.0350875541282063,10.0,0.0,7.705189334130692,9.959536942333155,148.3432823300447,295.58509152869544,0.0
0.021,3.9891051824829464,-2.0457889559126508,10.0,0.0,8.135310004560049,10.334315260302239,154.92060212100432,295.58509152869544,0.0
0.022,4.079618141396171,-2.0489696811670974,10.0,0.0,8.560139305503519,10.705547790999272,161.01925282597162,295.58509152869544,0.0
0.023,4.171109372430197,-2.048468292080302,10.0,0.0,8.979521969370257,11.072981092896333,166.534238406907,295.58509152869544,0.0
0.024,4.266936196769627,-2.039517194249811,10.0,0.0,9.392730090169543,11.435983292623375,171.8647834235234,295.58509152869544,0.0
0.025,4.367255527950721,-2.0225841458509217,10.0,0.0,9.79914449451603,11.793929226271104,177.02637022703064,295.58509152869544,0.0
0.026000000000000002,4.4734353073349595,-1.9962166741499119,10.0,0.0,10.197980960389518,12.146045424568259,181.63161391243256,295.58509152869544,0.0
0.027,4.582366840795821,-1.966358349113627,10.0,0.0,10.589124658468391,12.491912978736195,185.74793639675826,295.58509152869544,0.0
0.028,4.700058850757774,-1.9240450691803936,10.0,0.0,10.971384864613876,12.830451341534015,189.43662766964098,295.58509152869544,0.0
0.029,4.820934284790598,-1.879137197786803,10.0,0.0,11.344756153370636,13.161242511022618,192.73598774770625,295.58509152869544,0.0
0.03,4.952016225740939,-1.821000614527957,10.0,0.0,11.707923484756042,13.483081433273819,195.59831968863915,295.58509152869544,0.0
0.031,5.086039273572549,-1.7621311371320891,10.0,0.0,12.061063698547066,13.79562148058647,197.80891551030922,295.58509152869544,0.0
0.032,5.230431844273564,-1.6911110488141978,10.0,0.0,12.40292038074925,14.097678592248165,200.4421589734679,295.58509152869544,0.0
0.033,5.380124186618445,-1.6166151787533525,10.0,0.0,12.733312761073865,14.38869342901298,201.91742172589852,295.58509152869544,0.0
0.034,5.537594793894332,-1.535029134414507,10.0,0.0,13.051537880865839,14.667821176756876,203.18880493813168,295.58509152869544,0.0
0.035,5.698947813469154,-1.4530296333491768,10.0,0.0,13.357649178779205,14.934684535625108,203.60405746232266,295.58509152869544,0.0
0.036000000000000004,5.870474243492053,-1.3603000477825025,10.0,0.0,13.65045542338638,15.188218311291084,204.28541056101804,295.58509152869544,0.0
0.037,6.041188711220851,-1.275010780747051,10.0,0.0,13.930879897581198,15.42861600670124,205.2233356988433,295.58509152869544,0.0
0.038,6.228175208801664,-1.168399557236846,10.0,0.0,14.196427351981786,15.654155009933262,200.35169734043586,295.58509152869544,0.0
0.039,6.404895489618571,-1.0845312562500289,10.0,0.0,14.449814560392067,15.86612549236809,209.64773540576442,295.58509152869544,0.0
0.04,6.534612624563911,-1.0851225869390002,10.0,0.0,14.699963825590459,16.069735965364643,218.170241886545,295.58509152869544,0.0
0.041,6.621487035821765,-1.1484636683301073,10.0,0.0,14.952420817214799,16.26974130369247,220.68166573712315,295.58509152869544,0.0
0.042,6.6704785161669795,-1.2647840534085386,10.0,0.0,15.211794475054209,16.47047148862455,233.10654395573727,295.58509152869544,0.0
0.043000000000000003,6.709376245503157,-1.3867642159960276,10.0,0.0,15.477558399636717,16.673277185423842,235.10815372853793,295.58509152869544,0.0
0.044,6.744196093263161,-1.5028656568708394,10.0,0.0,15.74857785831126,16.87893749904121,248.8181267625822,295.58509152869544,0.0
0.045,6.750563942850831,-1.6564343609015326,10.0,0.0,16.02879294551472,17.090781462187255,251.61117095327992,295.58509152869544,0.0
0.046,6.764566527560506,-1.7840489455190416,10.0,0.0,16.314672837580048,17.307985931916857,266.60539535969383,295.58509152869544,0.0
0.047,6.752169677737121,-1.9446655565152717,10.0,0.0,16.610076868775216,17.533561623207692,270.0627790167984,295.58509152869544,0.0
0.048,6.7291903821171735,-2.110358990489937,10.0,0.0,16.91511817760721,17.768523902508925,283.13731951482634,295.58509152869544,0.0
0.049,6.714097190323873,-2.246352557911731,10.0,0.0,17.22645394156277,18.011924542904307,294.70561782835244,295.58509152869544,0.0
0.05,6.666841209228205,-2.4219663531358275,5.954135638434423,0.0,17.54895377496275,17.822120841886075,297.43440862525654,295.58509152869544,0.0
0.051000000000000004,6.399491252647388,-2.478006894955957,4.571247069016765,0.0,17.824631576568876,17.60082433070231,302.31853188052276,295.58509152869544,0.0
0.052000000000000005,6.0554950776665555,-2.461544676262954,2.0618510378653827,0.0,18.048240697421587,17.202186652747137,309.72901486119,295.58509152869544,0.0
0.053,5.595029278921032,-2.397035793721823,-1.7848296857931976,0.0,18.20269378350091,16.514944011494027,308.17179345659537,295.58509152869544,0.0
0.054,4.978364486661898,-2.231067037255559,-1.1320860027748676,0.0,18.255365822461112,16.08536802450382,307.9545427748651,295.58509152869544,0.0
0.055,4.469358787412083,-2.0784229914455734,-1.1471551743714326,0.0,18.24468190135184,15.745655773397727,307.2826004953955,295.58509152869544,0.0
0.056,4.0604142417171785,-1.9574826885507564,-0.9281591243036384,0.0,18.189318154382555,15.502980455548682,305.64989062956204,295.58509152869544,0.0
0.057,3.7549578719091072,-1.863171630168451,-0.21245218239556607,0.0,18.106058436932187,15.38508485311876,303.7307907940299,295.58509152869544,0.0
0.058,3.563690461960065,-1.7985550674621826,0.665640742717172,0.0,18.013170419670004,15.378070842926434,301.45352746095404,295.58509152869544,0.0
0.059000000000000004,3.4788325303836674,-1.760107935606712,1.745588049932504,0.0,17.925286784237763,15.47990440494359,299.0230919155616,295.58509152869544,0.0
0.06,3.494347071633552,-1.7421032239153464,2.926425818760049,0.0,17.85477882158297,15.679303749861432,297.7369723472922,295.58509152869544,0.0
0.061,3.6010922680786024,-1.7358320477816434,3.5479667947088025,0.0,17.81075180742764,15.896686667491647,298.7539050479838,295.58509152869544,0.0
0.062,3.752327670740018,-1.7234064191042204,3.00781230917012,0.0,17.791561679057697,16.006727746446256,298.35128599500115,295.58509152869544,0.0
0.063,3.853214394714208,-1.701293020407729,3.1814598909983776,0.0,17.782986453850356,16.118763297914352,290.8057439262083,295.58509152869544,0.0
0.064,3.9668874422337197,-1.6313027397837903,7.002024401419662,0.0,17.778994509428887,16.625768224055566,290.6520319360886,295.58509152869544,0.0
0.065,4.289736292952052,-1.6208591845691855,7.128210992405604,0.0,17.82565336379633,17.022971699940932,294.3192813646064,295.58509152869544,0.0
0.066,4.608177929161435,-1.6323635417771232,5.307244379787577,0.0,17.908736595160583,17.15175242890081,285.45316515487445,295.58509152869544,0.0
0.067,4.8086652854689556,-1.5607380020909514,9.841621748391765,0.0,17.988395723346834,17.774085391942037,287.51018520942927,295.58509152869544,0.0
0.068,5.234138419834597,-1.5410459718787068,8.89386078430702,0.0,18.120872367092108,18.147756320545252,287.19833607519166,295.58509152869544,0.0
0.069,5.581023655138884,-1.5314763604417456,9.133652905960862,0.0,18.27661270236722,18.499259919145633,279.8529559092008,295.58509152869544,0.0
0.07,5.942142775978213,-1.4367107187233916,10.0,0.0,18.441600839500218,18.887833199601964,282.45596505872214,295.58509152869544,0.0
0.07100000000000001,6.291521659867965,-1.3870150410297222,10.0,0.0,18.624428622836433,19.210564008766095,275.76191353144424,295.58509152869544,0.0
0.07200000000000001,6.653352079827603,-1.2672437432682666,10.0,0.0,18.808568822778604,19.482996957990775,274.4820135716394,295.58509152869544,0.0
0.073,6.960053576391965,-1.1853903080348607,10.0,0.0,18.993732132750978,19.716481771864714,273.95778650148657,295.58509152869544,0.0
0.074,7.284888382305358,-1.0326815569481884,10.0,0.0,19.167748164846298,19.912469621663675,263.6075960796559,295.58509152869544,0.0
0.075,7.578454577267098,-0.9010949575503977,10.0,0.0,19.331013940289104,20.07721635630561,277.56180558985164,295.58509152869544,0.0
0.076,7.737822471514633,-0.9713280414842389,10.0,0.0,19.503469316878515,20.227220188610026,285.0958615820191,295.58509152869544,0.0
0.077,7.827155477397446,-1.113736576150955,10.0,0.0,19.688642147013425,20.371236223638295,291.60171029800995,295.58509152869544,0.0
0.078,7.840052858661751,-1.3443697364778409,7.698519669965394,0.0,19.893644859926965,20.265679719993187,303.11097819143924,295.58509152869544,0.0
0.079,7.7314517342690845,-1.4724782006282373,1.8686268566233082,0.0,20.07937725063792,19.58498082933249,303.4943114868853,295.58509152869544,0.0
0.08,7.251783504092495,-1.4979273095340433,1.5978680093183844,0.0,20.17998483054984,19.07111801581434,308.22031219404045,295.58509152869544,0.0
0.081,6.758859126254263,-1.4895165030566848,-0.8914845509126401,0.0,20.217965691317175,18.397006047747272,312.0400063835443,295.58509152869544,0.0
0.082,6.171977519304194,-1.467723044822835,-2.965880794213068,0.0,20.182424096860135,17.650441034389036,312.4783335928682,295.58509152869544,0.0
0.083,5.541583522353842,-1.4043638819129995,-3.353976819516725,0.0,20.069028587175225,17.01650628616555,313.57887128475704,295.58509152869544,0.0
0.084,4.962580724101556,-1.361136784251491,-4.084183463021771,0.0,19.899457764522793,16.41557005910166,313.335159672601,295.58509152869544,0.0
0.085,4.432839406008303,-1.3261778570769787,-4.139828338382795,0.0,19.683337190416626,15.911433019631986,312.52177068041897,295.58509152869544,0.0
0.08600000000000001,3.982507761236075,-1.3067529493587688,-3.9025006338090247,0.0,19.436627819196865,15.50699919069941,311.1628259502476,295.58509152869544,0.0
0.08700000000000001,3.6192930957257836,-1.3066710232875107,-3.3788056129388737,0.0,19.174331239415157,15.209021279546487,309.46330528645007,295.58509152869544,0.0
0.088,3.3477143834688743,-1.324644841574556,-2.667827418617641,0.0,18.910444465768613,15.013823664390486,307.6129618908284,295.58509152869544,0.0
0.089,3.1645872222699443,-1.3579980366863684,-1.8629344244281318,0.0,18.656915721250563,14.910613781412376,305.88696321073024,295.58509152869544,0.0
0.09,3.0618359702005606,-1.4006360994356832,-1.1029538011994076,0.0,18.4227755178378,14.877392317009175,303.8682591407736,295.58509152869544,0.0
0.091,3.0213965392752344,-1.4491102354462289,-0.1764334423418683,0.0,18.213632962659666,14.921817236828153,301.6377512277939,295.58509152869544,0.0
0.092,3.042117253541237,-1.4996080573167112,0.8782939171569986,0.0,18.034917174026884,15.04495654222521,299.3659250604275,295.58509152869544,0.0
0.093,3.121881920996367,-1.5530969358636721,1.9763986655228702,0.0,17.891765693218556,15.239587680667135,296.70970637044974,295.58509152869544,0.0
0.094,3.2588878356950834,-1.602444775553697,3.293261862094216,0.0,17.78728584791569,15.52004145738092,295.7101226963803,295.58509152869544,0.0
0.095,3.460468102670213,-1.6460848205937597,3.791803387452074,0.0,17.72560629137198,15.782869037496404,297.50499584638135,295.58509152869544,0.0
0.096,3.671232815175752,-1.6716646522362415,2.875167769274703,0.0,17.69875482952448,15.886262254987034,295.51943361868456,295.58509152869544,0.0
0.097,3.7943392117752195,-1.6630854212810602,3.868605462223206,0.0,17.68372832188929,16.083641450449065,288.0405107556509,295.58509152869544,0.0
0.098,3.960106648950102,-1.6193319697895268,7.683512701470467,0.0,17.685215297209304,16.65248214086585,290.2667304507557,295.58509152869544,0.0
0.099,4.329747668863593,-1.6340742665895338,6.623586464697485,0.0,17.74549683120191,16.970843663516714,293.0902037902943,295.58509152869544,0.0
0.1,4.621221633437606,-1.6388464223160064,5.236798672312185,0.0,17.831963878222254,17.0930840666031,283.4978018320073,295.58509152869544,0.0
0.101,4.814418873289596,-1.552903905971405,10.0,0.0,17.91250686249403,17.73123020131441,286.7589828386458,295.58509152869544,0.0
0.10200000000000001,5.240449301781518,-1.5389603762307706,8.608465681035362,0.0,18.04813579870174,18.0679838578832,284.98313855625565,295.58509152869544,0.0
0.10300000000000001,5.569554996110378,-1.5222018420645687,9.602407351954838,0.0,18.202173203484687,18.475932647315403,280.00761867523215,295.58509152869544,0.0
0.10400000000000001,5.953752249717743,-1.4357503685808002,10.0,0.0,18.372259669990996,18.853315431904935,280.96417757899815,295.58509152869544,0.0
0.105,6.300811697237638,-1.3923939280923414,10.0,0.0,18.559171074586743,19.17165809151458,276.12034584154736,295.58509152869544,0.0
0.106,6.66154087871559,-1.268671073905923,10.0,0.0,18.746049655128253,19.440648010135458,272.4914557981701,295.58509152869544,0.0
0.107,6.963069697201442,-1.1879028233394253,10.0,0.0,18.933492090457246,19.671865916729733,273.08394324521873,295.58509152869544,0.0
0.108,7.282911198015016,-1.037007555181471,10.0,0.0,19.109521275921065,19.86653899929285,263.42004472357183,295.58509152869544,0.0
0.109,7.578787079944277,-0.8961252646578295,10.0,0.0,19.27342675181879,20.02999976014195,276.5523693432475,295.58509152869544,0.0
0.11,7.727598257074337,-0.9790329102964557,10.0,0.0,19.447816420137137,20.1800945218309,284.9762413743612,295.58509152869544,0.0
0.111,7.814929327579906,-1.1211014831068278,10.0,0.0,19.634575064345306,20.324500468198476,290.6399279031751,295.58509152869544,0.0
0.112,7.82746895220484,-1.3493668854004597,7.6445614320604545,0.0,19.8407869472936,20.213537393873075,302.7411478980409,295.58509152869544,0.0
0.113,7.714079260307512,-1.4771385000385246,1.5223908709340996,0.0,20.02705355810178,19.497005701585504,302.4632970139609,295.58509152869544,0.0
0.114,7.216656660347989,-1.4901466134407455,1.5925342581214208,0.0,20.123193514928253,18.99327390688594,307.175724958607,295.58509152869544,0.0
0.115,6.722326560412127,-1.4814991410436407,-0.8795860485007418,0.0,20.158264993504414,18.326296704732016,311.0383729891857,295.58509152869544,0.0
0.116,6.140250886741894,-1.4595371554032808,-2.9654428783949784,0.0,20.120802260311095,17.58388634553333,311.4843337068101,295.58509152869544,0.0
0.117,5.514211098451427,-1.3970266542872682,-3.347415658988334,0.0,20.00618822925089,16.9538559313441,312.54415638209184,295.58509152869544,0.0
0.11800000000000001,4.939519463308322,-1.3543143216166833,-4.046917645163166,0.0,19.835959308295173,16.35919734677731,312.29775052212455,295.58509152869544,0.0
0.11900000000000001,4.415023105199908,-1.3204995261147408,-4.090841305113808,0.0,19.61999491679984,15.861092828879306,311.4962564556898,295.58509152869544,0.0
0.12,3.9699213916594096,-1.3024400057235175,-3.8492059211663667,0.0,19.374168113376225,15.461937677363656,310.1611804903258,295.58509152869544,0.0
0.121,3.6113340375789145,-1.3036778596447947,-3.3274288281006923,0.0,19.11332523427866,15.168088078868415,308.49047317217014,295.58509152869544,0.0
0.122,3.343377434066565,-1.3227837686863317,-2.6211289854576005,0.0,18.851270954696684,14.97590371691858,306.6727134578103,295.58509152869544,0.0
0.123,3.162796027539089,-1.3570230792776803,-1.8231253475688232,0.0,18.599778931952557,14.874634153629767,304.98800120219903,295.58509152869544,0.0
0.124,3.0615715936557595,-1.4002584419647242,-1.0747983164982293,0.0,18.36772265194362,14.842007155096177,303.0078061605467,295.58509152869544,0.0
0.125,3.021532596932101,-1.449024986184805,-0.15892794199057336,0.0,18.16054126631955,14.886091744600968,300.81512525835194,295.58509152869544,0.0
0.126,3.0417190867364625,-1.4996383566952811,0.8851121718102375,0.0,17.98356628352233,15.008114541520168,298.574900015372,295.58509152869544,0.0
0.127,3.1202344912732625,-1.5530731290291677,1.9753267084334376,0.0,17.84186276994837,15.201285928757263,295.95171749903716,295.58509152869544,0.0
0.128,3.2555730521699444,-1.602318173864527,3.283251706897446,0.0,17.73852935366407,15.479837342724796,294.97939091618554,295.58509152869544,0.0
0.129,3.4550651204931877,-1.645927063243457,3.775472004448356,0.0,17.677688947788276,15.740674514506518,296.77764084965327,295.58509152869544,0.0
0.13,3.6635831624030173,-1.6715047222795494,2.864421544504913,0.0,17.651393753278416,15.843264111026352,294.84917447106733,295.58509152869544,0.0
0.131,3.785012650873486,-1.6631573117602765,3.836013904374163,0.0,17.636813046124043,16.03767882931561,287.4327957722429,295.58509152869544,0.0
0.132,3.9480311601923206,-1.6195358529053632,7.625726211350897,0.0,17.638416995145192,16.601628694088898,289.5717256804187,295.58509152869544,0.0
0.133,4.313790801883177,-1.6337320003940348,6.616394915745773,0.0,17.69825332655385,16.92181702620782,292.460107660538,295.58509152869544,0.0
0.134,4.604557359021486,-1.6388979770491232,5.203453764367709,0.0,17.784551153990712,17.042313219691884,282.9928822834493,295.58509152869544,0.0
0.135,4.79525299293586,-1.5545018380212259,10.0,0.0,17.86493358297267,17.68307021984536,286.1561812961308,295.58509152869544,0.0
0.136,5.221390853127242,-1.5415490636937224,8.574368370442116,0.0,18.000772625286032,18.018036612992084,284.6127388658976,295.58509152869544,0.0
0.137,5.5486478983728516,-1.5253996182694745,9.455813112186693,0.0,18.154877491429346,18.412568612567853,279.2317303704701,295.58509152869544,0.0
0.138,5.924555833504357,-1.436886802516357,10.0,0.0,18.323450155637296,18.796026706630382,280.553539926576,295.58509152869544,0.0
0.139,6.271691714370856,-1.3937271357871,10.0,0.0,18.509648927648023,19.118128521285325,275.3983733559661,295.58509152869544,0.0
0.14,6.632647977731585,-1.2727690118655586,10.0,0.0,18.696564206959092,19.39040620151483,272.4153795547513,295.58509152869544,0.0
0.14100000000000001,6.935024801648007,-1.1937838561259304,10.0,0.0,18.884536940469864,19.62449575365529,272.72639403979787,295.58509152869544,0.0
0.14200000000000002,7.25585247500085,-1.0435995432640075,10.0,0.0,19.061390932986182,19.821706348103124,262.6932122924358,295.58509152869544,0.0
