timestamp,iq,id,iq_ref,id_ref,vq,vd,omega,omega_ref,r
0.0,0.0,0.0,0.0,0.0,0.0,0.0,0.0,258.11428180121123,0.0
0.001,0.0,0.0,10.0,0.0,0.0,1.0999999999999999,6.115472199294103,258.11428180121123,0.0
0.002,0.5307369851907212,-0.2913212625381807,10.0,0.0,0.14204533887919985,1.9316189316290207,13.317801563642547,258.11428180121123,0.0
0.003,1.0842913387634832,-0.6024330830807904,10.0,0.0,0.384357124667687,2.6386968949419622,20.697939467553027,258.11428180121123,0.0
0.004,1.5590443546685477,-0.8700465084428163,10.0,0.0,0.6994718867930164,3.2526109522886295,28.232747544420146,258.11428180121123,0.0
0.005,1.9399447555359186,-1.0838738622210777,10.0,0.0,1.065311453102468,3.7994935661768023,35.92944872443006,258.11428180121123,0.0
0.006,2.239750732602683,-1.2510087368845633,10.0,0.0,1.4655018868449925,4.299102221838433,43.75633668444442,258.11428180121123,0.0
0.007,2.4770151619816017,-1.382020589851471,10.0,0.0,1.8883740978591532,4.765668027847139,51.58766747378032,258.11428180121123,0.0
0.008,2.6680767290418097,-1.4872241871505252,10.0,0.0,2.325877945545995,5.209220346273558,59.45942083902103,258.11428180121123,0.0
0.009000000000000001,2.8266491704841292,-1.5730794701170803,10.0,0.0,2.772378685460125,5.636635464737965,67.35059094018146,258.11428180121123,0.0
0.01,2.962077666392183,-1.645500646948331,10.0,0.0,3.224078639851053,6.052647735211881,75.20908322432116,258.11428180121123,0.0
0.011,3.0811061533574158,-1.7084279320504514,10.0,0.0,3.678407615443203,6.460489925470405,83.0265951655913,258.11428180121123,0.0
0.012,3.188848746459569,-1.7638278597420747,10.0,0.0,4.133552631697047,6.862319393890706,90.74118064793086,258.11428180121123,0.0
0.013000000000000001,3.288205119878689,-1.8140726097274587,10.0,0.0,4.588339016389012,7.259628641949282,98.35820682563939,258.11428180121123,0.0
0.014,3.3820602099432007,-1.8592355758795645,10.0,0.0,5.041843166194517,7.653355107498287,105.90865295623543,258.11428180121123,0.0
0.015,3.4721069852858886,-1.899829032412081,10.0,0.0,5.493383198131427,8.044092747085895,113.37727610343421,258.11428180121123,0.0
0.016,3.5596145800153947,-1.9360338400176071,10.0,0.0,5.94241958510469,8.43218525824161,120.68508583176356,258.11428180121123,0.0
0.017,3.645144415105338,-1.9685384477868613,10.0,0.0,6.388575043274759,8.817838951066484,127.83962377537456,258.11428180121123,0.0
0.018000000000000002,3.730251927866576,-1.9959253041084188,10.0,0.0,6.83136783302799,9.201036292373047,134.85405702603322,258.11428180121123,0.0
0.019,3.81544967906247,-2.018253592643655,10.0,0.0,7.270383321112213,9.581672501020332,141.68976328564074,258.11428180121123,0.0
0.02,3.9014648862453374,-2.0350875541282063,10.0,0.0,7.705189334130692,9.959536942333155,148.3432823300447,258.11428180121123,0.0
0.021,3.9891051824829464,-2.0457889559126508,10.0,0.0,8.135310004560049,10.334315260302239,154.92060212100432,258.11428180121123,0.0
0.022,4.079618141396171,-2.0489696811670974,10.0,0.0,8.560139305503519,10.705547790999272,161.01925282597162,258.11428180121123,0.0
0.023,4.171109372430197,-2.048468292080302,10.0,0.0,8.979521969370257,11.072981092896333,166.534238406907,258.11428180121123,0.0
0.024,4.266936196769627,-2.039517194249811,10.0,0.0,9.392730090169543,11.435983292623375,171.8647834235234,258.11428180121123,0.0
0.025,4.367255527950721,-2.0225841458509217,10.0,0.0,9.79914449451603,11.793929226271104,177.02637022703064,258.11428180121123,0.0
0.026000000000000002,4.4734353073349595,-1.9962166741499119,10.0,0.0,10.197980960389518,12.146045424568259,181.63161391243256,258.11428180121123,0.0
0.027,4.582366840795821,-1.966358349113627,10.0,0.0,10.589124658468391,12.491912978736195,185.74793639675826,258.11428180121123,0.0
0.028,4.700058850757774,-1.9240450691803936,10.0,0.0,10.971384864613876,12.830451341534015,189.43662766964098,258.11428180121123,0.0
0.029,4.820934284790598,-1.879137197786803,10.0,0.0,11.344756153370636,13.161242511022618,192.73598774770625,258.11428180121123,0.0
0.03,4.952016225740939,-1.821000614527957,10.0,0.0,11.707923484756042,13.483081433273819,195.59831968863915,258.11428180121123,0.0
0.031,5.086039273572549,-1.7621311371320891,10.0,0.0,12.061063698547066,13.79562148058647,197.80891551030922,258.11428180121123,0.0
0.032,5.230431844273564,-1.6911110488141978,10.0,0.0,12.40292038074925,14.097678592248165,200.4421589734679,258.11428180121123,0.0
0.033,5.380124186618445,-1.6166151787533525,10.0,0.0,12.733312761073865,14.38869342901298,201.91742172589852,258.11428180121123,0.0
0.034,5.537594793894332,-1.535029134414507,10.0,0.0,13.051537880865839,14.667821176756876,203.18880493813168,258.11428180121123,0.0
0.035,5.698947813469154,-1.4530296333491768,10.0,0.0,13.357649178779205,14.934684535625108,203.60405746232266,258.11428180121123,0.0
0.036000000000000004,5.870474243492053,-1.3603000477825025,10.0,0.0,13.65045542338638,15.188218311291084,204.28541056101804,258.11428180121123,0.0
0.037,6.041188711220851,-1.275010780747051,10.0,0.0,13.930879897581198,15.42861600670124,205.2233356988433,258.11428180121123,0.0
0.038,6.228175208801664,-1.168399557236846,10.0,0.0,14.196427351981786,15.654155009933262,200.35169734043586,258.11428180121123,0.0
0.039,6.404895489618571,-1.0845312562500289,10.0,0.0,14.449814560392067,15.86612549236809,209.64773540576442,258.11428180121123,0.0
0.04,6.534612624563911,-1.0851225869390002,10.0,0.0,14.699963825590459,16.069735965364643,218.170241886545,258.11428180121123,0.0
0.041,6.621487035821765,-1.1484636683301073,10.0,0.0,14.952420817214799,16.26974130369247,220.68166573712315,258.11428180121123,0.0
0.042,6.6704785161669795,-1.2647840534085386,10.0,0.0,15.211794475054209,16.47047148862455,233.10654395573727,258.11428180121123,0.0
0.043000000000000003,6.709376245503157,-1.3867642159960276,10.0,0.0,15.477558399636717,16.673277185423842,235.10815372853793,258.11428180121123,0.0
0.044,6.744196093263161,-1.5028656568708394,10.0,0.0,15.74857785831126,16.87893749904121,248.8181267625822,258.11428180121123,0.0
0.045,6.750563942850831,-1.6564343609015326,10.0,0.0,16.02879294551472,17.090781462187255,251.61117095327992,258.11428180121123,0.0
0.046,6.764566527560506,-1.7840489455190416,8.690794404374007,0.0,16.314672837580048,17.163973316397993,265.3706592206785,258.11428180121123,0.0
0.047,6.681071850555808,-1.9108714654022911,1.738486496480058,0.0,16.59195825720091,16.516096600799735,263.28834636338814,258.11428180121123,0.0
0.048,6.214640784323274,-1.8464303471323258,2.7279022795034553,0.0,16.768370715091322,16.18956738445043,269.2515596186602,258.11428180121123,0.0
0.049,5.799029089856662,-1.7818912564302636,-0.36507712630707534,0.0,16.888034116763237,15.604263418784699,272.10123510640625,258.11428180121123,0.0
0.05,5.260454947014061,-1.7051024708143334,-1.9297844032320386,0.0,16.929399406190655,15.003355222217124,270.6941167457506,258.11428180121123,0.0
0.051000000000000004,4.710325079415952,-1.587033928363046,-1.3520235723496032,0.0,16.8943176952051,14.601003682422732,271.76779979720885,258.11428180121123,0.0
0.052000000000000005,4.266878910599662,-1.5157689283732054,-2.0254002780387097,0.0,16.81585053676428,14.198807859468397,271.91270960695965,258.11428180121123,0.0
0.053,3.874301510345002,-1.459683470206016,-2.2358394609715937,0.0,16.699553761473624,13.851319412239542,271.1165774674625,258.11428180121123,0.0
0.054,3.5398292012060586,-1.4164796238514534,-1.9677963478855265,0.0,16.555946250471816,13.591405446476045,270.14747987961846,258.11428180121123,0.0
0.055,3.2799566858139153,-1.3917668993614285,-1.603579534747582,0.0,16.39842173276348,13.40574679810477,269.1298917628866,258.11428180121123,0.0
0.056,3.090615491155024,-1.3834553912818124,-1.204941575998399,0.0,16.237416663344995,13.281338376389376,267.9471759952062,258.11428180121123,0.0
0.057,2.961531965464495,-1.3865826222791107,-0.7119126340981463,0.0,16.080498369187318,13.215822869804583,266.34066416727524,258.11428180121123,0.0
0.058,2.8845129735661263,-1.4009441738537423,0.009079456206686487,0.0,15.934268852150163,13.222727178828945,264.6657256398958,258.11428180121123,0.0
0.059000000000000004,2.8650357641770117,-1.4234216358882104,0.7810342815095535,0.0,15.80568162302721,13.293395518241242,262.96277720663636,258.11428180121123,0.0
0.06,2.896813576045871,-1.4542565803107845,1.584023544085027,0.0,15.700187020023915,13.42105724003082,261.132033298451,258.11428180121123,0.0
0.061,2.976111145173682,-1.486226946224017,2.4692179832053065,0.0,15.621216440306139,13.606339870533219,260.4062550944853,258.11428180121123,0.0
0.062,3.101811697004093,-1.5155686143873763,2.8091873522554245,0.0,15.571579061449222,13.780707781207845,261.7006321724217,258.11428180121123,0.0
0.063,3.236718377926685,-1.5298806457582397,2.126135309575111,0.0,15.545623118314605,13.84055701516079,261.427532709454,258.11428180121123,0.0
0.064,3.30533333673108,-1.5252853287056503,2.2295525319765375,0.0,15.52759908769927,13.903833567636688,255.69098695449122,258.11428180121123,0.0
0.065,3.374021587119668,-1.4788628660835343,5.122058357925125,0.0,15.512644597675141,14.269251972479093,254.794235301504,258.11428180121123,0.0
0.066,3.5996904483253886,-1.4745022141931565,5.603634649415815,0.0,15.535711950055951,14.596544729410592,258.41683762129594,258.11428180121123,0.0
0.067,3.842371744704263,-1.4955693292892378,3.7893079313189917,0.0,15.5915628320713,14.664584989991845,253.28908306537159,258.11428180121123,0.0
0.068,3.9661077345271285,-1.4536691679708276,6.401437196639566,0.0,15.643812963047257,15.025699653166011,250.74425416828777,258.11428180121123,0.0
0.069,4.222215657681481,-1.4126882321509782,7.747551921510709,0.0,15.722860645916029,15.450944678554226,254.7308559504835,258.11428180121123,0.0
0.07,4.524992950379736,-1.4323679975016412,5.7880852889201275,0.0,15.839102646583518,15.581823069891556,248.28056367319533,258.11428180121123,0.0
0.07100000000000001,4.71620661996399,-1.3717651135043147,9.111568608844365,0.0,15.949945171424776,16.078409922952186,252.0093312400937,258.11428180121123,0.0
0.07200000000000001,5.063098643828886,-1.3488241235366702,7.308234331006355,0.0,16.097444649031512,16.268574753500165,247.13614991212395,258.11428180121123,0.0
0.073,5.289274565953408,-1.3050241834878533,9.854606313882101,0.0,16.244622078426676,16.731196878453684,249.35900741493072,258.11428180121123,0.0
0.074,5.649372515797588,-1.2546150410321504,8.830730306341525,0.0,16.418236971108033,16.98683543793153,244.2342956242049,258.11428180121123,0.0
0.075,5.919457838116259,-1.212405190867496,10.0,0.0,16.59591523837548,17.34702165115095,247.07737800059738,258.11428180121123,0.0
0.076,6.251997945919778,-1.1356846381226564,10.0,0.0,16.783827137937845,17.643385814203388,240.41588185718365,258.11428180121123,0.0
0.077,6.557969752458287,-1.0676437339541587,10.0,0.0,16.97586696991814,17.898573253265628,242.2672696443974,258.11428180121123,0.0
0.078,6.842625934456799,-0.9912388671907226,10.0,0.0,17.166497436304315,18.119193469665213,245.96283213728486,258.11428180121123,0.0
0.079,7.100909197411587,-0.9210241502529767,10.0,0.0,17.35316730749633,18.311250113958415,248.38102339325945,258.11428180121123,0.0
0.08,7.22695456665394,-1.0301580936062633,9.936423421613556,0.0,17.553082736936698,18.484492499331875,259.23287208410807,258.11428180121123,0.0
0.081,7.2857578727565455,-1.2023578966318795,4.499313173360282,0.0,17.76818150086966,18.057747917609177,262.22124879972796,258.11428180121123,0.0
0.082,7.042973104040078,-1.2080389063152714,2.964055145565168,0.0,17.917998843271974,17.60797474749695,265.081665126546,258.11428180121123,0.0
0.083,6.65393683766387,-1.2186895491911232,1.4641731489028,0.0,18.00897189504234,17.108892330895486,269.01959391053975,258.11428180121123,0.0
0.084,6.227101245490188,-1.1748685622899222,-0.6138443641873623,0.0,18.03601258498764,16.498293907133245,270.71310926072397,258.11428180121123,0.0
0.085,5.713810492498057,-1.1417996890922668,-1.5865903138745967,0.0,17.996089997379446,15.917431142314472,271.34542303972427,258.11428180121123,0.0
0.08600000000000001,5.2171143633516435,-1.0895969579260967,-2.0350586157598762,0.0,17.89666178035389,15.400562008182424,272.7470082291848,258.11428180121123,0.0
0.08700000000000001,4.757153230727695,-1.0701810391456588,-2.882178474769886,0.0,17.75387574786351,14.882367227585956,272.6800481034402,258.11428180121123,0.0
0.088,4.3246012815908115,-1.0509193488943895,-2.994356074919861,0.0,17.57162421382268,14.440826087452514,272.52608815429625,258.11428180121123,0.0
0.089,3.9468594095078418,-1.049696606407124,-3.0614941638787423,0.0,17.363501834401504,14.056176580582108,271.8096157913839,258.11428180121123,0.0
0.09,3.623499264210945,-1.062319249374505,-2.840211322324306,0.0,17.139127460386693,13.74598447717904,270.88341028443415,258.11428180121123,0.0
0.091,3.3613499261385833,-1.0894556480208095,-2.5047998536816496,0.0,16.90903009085447,13.504659405584933,269.8385889972161,258.11428180121123,0.0
0.092,3.157879806281791,-1.128620988525873,-2.099632282032677,0.0,16.681846774585154,13.325431642195499,268.58146633459603,258.11428180121123,0.0
0.093,3.0066080949669782,-1.1770369894777817,-1.5757427960564865,0.0,16.464393120303487,13.209589678305026,267.36882627222815,258.11428180121123,0.0
0.094,2.906438568460727,-1.2298041375640323,-1.061968209582715,0.0,16.2624208613409,13.144368785830329,266.3950739841312,258.11428180121123,0.0
0.095,2.8485057872889263,-1.2834695767647935,-0.6578999873634488,0.0,16.079499265858335,13.11015342595006,265.31683505394926,258.11428180121123,0.0
0.096,2.81852249286276,-1.333690952058992,-0.19080605479985246,0.0,15.916435990826347,13.11112592744452,263.7886181041789,258.11428180121123,0.0
0.097,2.8149912747867205,-1.3778168106633908,0.5165590570556478,0.0,15.774127924140549,13.168922675308913,262.3494892305123,258.11428180121123,0.0
0.098,2.8468056534581683,-1.4225308131664518,1.1937714195959463,0.0,15.65630762059906,13.270593756644544,260.5305903614187,258.11428180121123,0.0
0.099,2.913055505282088,-1.462235857434032,2.079057768540658,0.0,15.564356870389691,13.433955734337058,259.2326887193143,258.11428180121123,0.0
0.1,3.0221488682017195,-1.4989389675753437,2.716824520411838,0.0,15.501577684643376,13.621750147052854,259.435203189827,258.11428180121123,0.0
0.101,3.1570330075838626,-1.5268900082577592,2.602358071269325,0.0,15.466563442116922,13.7517719012952,261.1075348009532,258.11428180121123,0.0
0.10200000000000001,3.265049617715259,-1.5378587464628095,1.7362597357088072,0.0,15.448979850063079,13.760630917719807,256.7678262799535,258.11428180121123,0.0
0.10300000000000001,3.307995308839663,-1.5030366635915822,3.919578551421231,0.0,15.430100402359201,14.012027866458174,252.43617938009444,258.11428180121123,0.0
0.10400000000000001,3.464419523953424,-1.482731989634931,6.142183025561932,0.0,15.436363300993024,14.442273272799397,256.51676729925157,258.11428180121123,0.0
0.105,3.7393229252565003,-1.51545434778268,4.117864211002965,0.0,15.488826956533407,14.556544182034783,256.91155139393834,258.11428180121123,0.0
0.106,3.8880025047413582,-1.499836970918685,3.93249946773231,0.0,15.545426202406775,14.650881712556188,249.27305699431346,258.11428180121123,0.0
0.107,4.009482094278284,-1.4220184621604293,7.840158915613725,0.0,15.597395414550178,15.161265642258234,252.7712162689114,258.11428180121123,0.0
0.108,4.327299951510437,-1.4213900729122009,6.144509933637762,0.0,15.695915160719721,15.366464949308082,252.50910950840617,258.11428180121123,0.0
0.109,4.540906897129917,-1.4051807720906233,6.331615036818421,0.0,15.803326123779405,15.578215765993708,245.0934561079618,258.11428180121123,0.0
0.11,4.7617221732676995,-1.3219607786362555,10.0,0.0,15.912178965929913,16.15903028131594,251.84830698818237,258.11428180121123,0.0
0.111,5.14211937009844,-1.344354700117996,6.85149130211364,0.0,16.071523506695137,16.269993284031685,243.79714600594255,258.11428180121123,0.0
0.112,5.359684365128187,-1.266972289479238,10.0,0.0,16.21729388927033,16.74348730681378,248.8746175807389,258.11428180121123,0.0
0.113,5.70596847971363,-1.237200885880004,8.553499142969056,0.0,16.39333560557668,16.957693181668816,241.42354323041795,258.11428180121123,0.0
0.114,5.97370238936512,-1.1578845279559062,10.0,0.0,16.56476665240224,17.315674854596885,244.45943975892752,258.11428180121123,0.0
0.115,6.282857330325776,-1.1095618188583796,10.0,0.0,16.75033042741657,17.60920675193524,241.5335375120844,258.11428180121123,0.0
0.116,6.605037107717063,-1.0131951658391394,10.0,0.0,16.936573909922156,17.85959361093775,235.88071668404723,258.11428180121123,0.0
0.117,6.881341442092837,-0.9511474967738915,10.0,0.0,17.123370153010452,18.076394453283147,246.75699622461144,258.11428180121123,0.0
0.11800000000000001,7.096909191611511,-0.9541214101071094,10.0,0.0,17.314114463181767,18.269245426599543,251.86830795851,258.11428180121123,0.0
0.11900000000000001,7.219681634150066,-1.0632165120511066,7.68649869832689,0.0,17.517040161748096,18.196051299233325,255.2299649033813,258.11428180121123,0.0
0.12,7.147457916221493,-1.1872950995709866,6.03451339486954,0.0,17.704911571328918,18.00105811749432,266.10146402983105,258.11428180121123,0.0
0.121,6.973775792041314,-1.23761904668438,0.518892009358467,0.0,17.858791370085036,17.272535691996193,263.3561518564488,258.11428180121123,0.0
0.122,6.478288554423821,-1.182899509961433,1.8391293954972294,0.0,17.917908557905054,16.885402590149972,268.4605232678755,258.11428180121123,0.0
0.123,6.057328816019921,-1.175464880672539,-0.8165187248827692,0.0,17.93213010290392,16.27892154901545,269.0316462266942,258.11428180121123,0.0
0.124,5.571116500638719,-1.1207021789568345,-1.211253848546951,0.0,17.878331838393603,15.766920141402903,271.33212560980087,258.11428180121123,0.0
0.125,5.106472578388551,-1.1017617325677218,-2.4936719781861862,0.0,17.77717743748741,15.209869113370608,271.3066913604564,258.11428180121123,0.0
0.126,4.645707266415443,-1.0698538264697914,-2.612878949106402,0.0,17.627112908661726,14.74415690764063,271.68365230188823,258.11428180121123,0.0
0.127,4.23802790388613,-1.0606641439530715,-2.937053124829089,0.0,17.44479182612975,14.315779456739287,271.37860894105495,258.11428180121123,0.0
0.128,3.8761717312148174,-1.0627682176675248,-2.9171747158108854,0.0,17.23818845169461,13.953163394792654,270.6832281918882,258.11428180121123,0.0
0.129,3.5694010617795313,-1.0783647939339809,-2.6951738051342753,0.0,17.017678391160477,13.660496129592586,269.77863848334187,258.11428180121123,0.0
0.13,3.3212444551248748,-1.107302904556286,-2.359522517682419,0.0,16.792979836565536,13.433975737409709,268.7222859188245,258.11428180121123,0.0
0.131,3.129195542923763,-1.1471197455430862,-1.937426276599882,0.0,16.57218956961413,13.269355416905766,267.4961910547325,258.11428180121123,0.0
0.132,2.9884468723348063,-1.1952116146091942,-1.4181979370890785,0.0,16.36190823449487,13.165574121335208,266.35386277581057,258.11428180121123,0.0
0.133,2.896898169361698,-1.247100626765179,-0.92942960737411,0.0,16.16750377597699,13.108377925304476,265.49907595412265,258.11428180121123,0.0
0.134,2.845288893819689,-1.2981560730610189,-0.5758841380592625,0.0,15.991917352678788,13.076224754632399,264.2837401417786,258.11428180121123,0.0
0.135,2.817340331607339,-1.3451185308109272,-0.02991081529291062,0.0,15.83532957053275,13.088808118596805,262.8115875085241,258.11428180121123,0.0
0.136,2.819330883892539,-1.3882297516275734,0.6591924442612083,0.0,15.699931512710073,13.154317546899952,261.28188025996883,258.11428180121123,0.0
0.137,2.856359317133461,-1.4312575915754322,1.392370083951267,0.0,15.588926153686089,13.269441512227237,259.40558758172693,258.11428180121123,0.0
0.138,2.9307547837780272,-1.4702218619646792,2.3176033652670585,0.0,15.504389518440561,13.448583212668737,258.4553946772342,258.11428180121123,0.0
0.139,3.0506510173259556,-1.5060746246143581,2.7892886887531905,0.0,15.449774877951313,13.631545501288029,259.1685531268337,258.11428180121123,0.0
0.14,3.186733061343745,-1.5288991169288895,2.4221667506972357,0.0,15.421070096901019,13.731879768068966,260.8453188813314,258.11428180121123,0.0
