timestamp,iq,id,iq_ref,id_ref,vq,vd,omega,omega_ref,r
0.0,0.0,0.0,0.0,0.0,0.0,0.0,0.0,403.7186357345539,0.0
0.001,0.0,0.0,10.0,0.0,0.0,1.0999999999999999,6.115472199294103,403.7186357345539,0.0
0.002,0.5307369851907212,-0.2913212625381807,10.0,0.0,0.14204533887919985,1.9316189316290207,13.317801563642547,403.7186357345539,0.0
0.003,1.0842913387634832,-0.6024330830807904,10.0,0.0,0.384357124667687,2.6386968949419622,20.697939467553027,403.7186357345539,0.0
0.004,1.5590443546685477,-0.8700465084428163,10.0,0.0,0.6994718867930164,3.2526109522886295,28.232747544420146,403.7186357345539,0.0
0.005,1.9399447555359186,-1.0838738622210777,10.0,0.0,1.065311453102468,3.7994935661768023,35.92944872443006,403.7186357345539,0.0
0.006,2.239750732602683,-1.2510087368845633,10.0,0.0,1.4655018868449925,4.299102221838433,43.75633668444442,403.7186357345539,0.0
0.007,2.4770151619816017,-1.382020589851471,10.0,0.0,1.8883740978591532,4.765668027847139,51.58766747378032,403.7186357345539,0.0
0.008,2.6680767290418097,-1.4872241871505252,10.0,0.0,2.325877945545995,5.209220346273558,59.45942083902103,403.7186357345539,0.0
0.009000000000000001,2.8266491704841292,-1.5730794701170803,10.0,0.0,2.772378685460125,5.636635464737965,67.35059094018146,403.7186357345539,0.0
0.01,2.962077666392183,-1.645500646948331,10.0,0.0,3.224078639851053,6.052647735211881,75.20908322432116,403.7186357345539,0.0
0.011,3.0811061533574158,-1.7084279320504514,10.0,0.0,3.678407615443203,6.460489925470405,83.0265951655913,403.7186357345539,0.0
0.012,3.188848746459569,-1.7638278597420747,10.0,0.0,4.133552631697047,6.862319393890706,90.74118064793086,403.7186357345539,0.0
0.013000000000000001,3.288205119878689,-1.8140726097274587,10.0,0.0,4.588339016389012,7.259628641949282,98.35820682563939,403.7186357345539,0.0
0.014,3.3820602099432007,-1.8592355758795645,10.0,0.0,5.041843166194517,7.653355107498287,105.90865295623543,403.7186357345539,0.0
0.015,3.4721069852858886,-1.899829032412081,10.0,0.0,5.493383198131427,8.044092747085895,113.37727610343421,403.7186357345539,0.0
0.016,3.5596145800153947,-1.9360338400176071,10.0,0.0,5.94241958510469,8.43218525824161,120.68508583176356,403.7186357345539,0.0
0.017,3.645144415105338,-1.9685384477868613,10.0,0.0,6.388575043274759,8.817838951066484,127.83962377537456,403.7186357345539,0.0
0.018000000000000002,3.730251927866576,-1.9959253041084188,10.0,0.0,6.83136783302799,9.201036292373047,134.85405702603322,403.7186357345539,0.0
0.019,3.81544967906247,-2.018253592643655,10.0,0.0,7.270383321112213,9.581672501020332,141.68976328564074,403.7186357345539,0.0
0.02,3.9014648862453374,-2.0350875541282063,10.0,0.0,7.705189334130692,9.959536942333155,148.3432823300447,403.7186357345539,0.0
0.021,3.9891051824829464,-2.0457889559126508,10.0,0.0,8.135310004560049,10.334315260302239,154.92060212100432,403.7186357345539,0.0
0.022,4.079618141396171,-2.0489696811670974,10.0,0.0,8.560139305503519,10.705547790999272,161.01925282597162,403.7186357345539,0.0
0.023,4.171109372430197,-2.048468292080302,10.0,0.0,8.979521969370257,11.072981092896333,166.534238406907,403.7186357345539,0.0
0.024,4.266936196769627,-2.039517194249811,10.0,0.0,9.392730090169543,11.435983292623375,171.8647834235234,403.7186357345539,0.0
0.025,4.367255527950721,-2.0225841458509217,10.0,0.0,9.79914449451603,11.793929226271104,177.02637022703064,403.7186357345539,0.0
0.026000000000000002,4.4734353073349595,-1.9962166741499119,10.0,0.0,10.197980960389518,12.146045424568259,181.63161391243256,403.7186357345539,0.0
0.027,4.582366840795821,-1.966358349113627,10.0,0.0,10.589124658468391,12.491912978736195,185.74793639675826,403.7186357345539,0.0
0.028,4.700058850757774,-1.9240450691803936,10.0,0.0,10.971384864613876,12.830451341534015,189.43662766964098,403.7186357345539,0.0
0.029,4.820934284790598,-1.879137197786803,10.0,0.0,11.344756153370636,13.161242511022618,192.73598774770625,403.7186357345539,0.0
0.03,4.952016225740939,-1.821000614527957,10.0,0.0,11.707923484756042,13.483081433273819,195.59831968863915,403.7186357345539,0.0
0.031,5.086039273572549,-1.7621311371320891,10.0,0.0,12.061063698547066,13.79562148058647,197.80891551030922,403.7186357345539,0.0
0.032,5.230431844273564,-1.6911110488141978,10.0,0.0,12.40292038074925,14.097678592248165,200.4421589734679,403.7186357345539,0.0
0.033,5.380124186618445,-1.6166151787533525,10.0,0.0,12.733312761073865,14.38869342901298,201.91742172589852,403.7186357345539,0.0
0.034,5.537594793894332,-1.535029134414507,10.0,0.0,13.051537880865839,14.667821176756876,203.18880493813168,403.7186357345539,0.0
0.035,5.698947813469154,-1.4530296333491768,10.0,0.0,13.357649178779205,14.934684535625108,203.60405746232266,403.7186357345539,0.0
0.036000000000000004,5.870474243492053,-1.3603000477825025,10.0,0.0,13.65045542338638,15.188218311291084,204.28541056101804,403.7186357345539,0.0
0.037,6.041188711220851,-1.275010780747051,10.0,0.0,13.930879897581198,15.42861600670124,205.2233356988433,403.7186357345539,0.0
0.038,6.228175208801664,-1.168399557236846,10.0,0.0,14.196427351981786,15.654155009933262,200.35169734043586,403.7186357345539,0.0
0.039,6.404895489618571,-1.0845312562500289,10.0,0.0,14.449814560392067,15.86612549236809,209.64773540576442,403.7186357345539,0.0
0.04,6.534612624563911,-1.0851225869390002,10.0,0.0,14.699963825590459,16.069735965364643,218.170241886545,403.7186357345539,0.0
0.041,6.621487035821765,-1.1484636683301073,10.0,0.0,14.952420817214799,16.26974130369247,220.68166573712315,403.7186357345539,0.0
0.042,6.6704785161669795,-1.2647840534085386,10.0,0.0,15.211794475054209,16.47047148862455,233.10654395573727,403.7186357345539,0.0
0.043000000000000003,6.709376245503157,-1.3867642159960276,10.0,0.0,15.477558399636717,16.673277185423842,235.10815372853793,403.7186357345539,0.0
0.044,6.744196093263161,-1.5028656568708394,10.0,0.0,15.74857785831126,16.87893749904121,248.8181267625822,403.7186357345539,0.0
0.045,6.750563942850831,-1.6564343609015326,10.0,0.0,16.02879294551472,17.090781462187255,251.61117095327992,403.7186357345539,0.0
0.046,6.764566527560506,-1.7840489455190416,10.0,0.0,16.314672837580048,17.307985931916857,266.60539535969383,403.7186357345539,0.0
0.047,6.752169677737121,-1.9446655565152717,10.0,0.0,16.610076868775216,17.533561623207692,270.0627790167984,403.7186357345539,0.0
0.048,6.7291903821171735,-2.110358990489937,10.0,0.0,16.91511817760721,17.768523902508925,283.13731951482634,403.7186357345539,0.0
0.049,6.714097190323873,-2.246352557911731,10.0,0.0,17.22645394156277,18.011924542904307,294.70561782835244,403.7186357345539,0.0
0.05,6.666841209228205,-2.4219663531358275,10.0,0.0,17.548953774962747,18.267165921658286,300.1294548425776,403.7186357345539,0.0
0.051000000000000004,6.612335516543512,-2.59336894353628,10.0,0.0,17.88182590988993,18.53465621226123,310.75154600411304,403.7186357345539,0.0
0.052000000000000005,6.568447424188529,-2.726701034625408,10.0,0.0,18.22111236450049,18.81296732052879,322.35703405819294,403.7186357345539,0.0
0.053,6.5036136539679195,-2.8764091099274185,10.0,0.0,18.569435851849082,19.104068797231378,330.9557012510771,403.7186357345539,0.0
0.054,6.434362099984388,-3.0149932598739144,10.0,0.0,18.925784313874168,19.407861808234543,339.4707232587175,403.7186357345539,0.0
0.055,6.370891759459199,-3.1253006473392393,10.0,0.0,19.28762520191878,19.723199586257838,348.00092263299223,403.7186357345539,0.0
0.056,6.314459991163816,-3.2071523724558277,10.0,0.0,19.65271639484943,20.048760466390505,356.29964302226927,403.7186357345539,0.0
0.057,6.266092078485367,-3.262894600420583,10.0,0.0,20.01916768432525,20.383030530514645,362.98468703488817,403.7186357345539,0.0
0.058,6.234656406121481,-3.2830044001420036,10.0,0.0,20.38405550695561,20.723492962007192,368.0316803659419,403.7186357345539,0.0
0.059000000000000004,6.228510489334133,-3.2600491726267444,10.0,0.0,20.743774617448285,21.0667596267365,372.35801287012686,403.7186357345539,0.0
0.06,6.247959954981508,-3.201438289803519,10.0,0.0,21.095630838529225,21.40947063565305,373.88739853789605,403.7186357345539,0.0
0.061,6.298571070969623,-3.1064761741463998,10.0,0.0,21.436712814499675,21.747723437683817,371.47602194372377,403.7186357345539,0.0
0.062,6.38094735961424,-2.982369480030801,10.0,0.0,21.76480975788002,22.077703876517536,366.2922057853833,403.7186357345539,0.0
0.063,6.53566146196873,-2.7695519558602215,10.0,0.0,22.070926190088084,22.39130117743337,372.07145994459506,403.7186357345539,0.0
0.064,6.708566607552835,-2.560747003310555,10.0,0.0,22.35695033962817,22.686677966487718,365.1882535794375,403.7186357345539,0.0
0.065,6.897199383751794,-2.3667028673086685,10.0,0.0,22.62465294768497,22.962098937664592,356.7297130485294,403.7186357345539,0.0
0.066,7.167218997264825,-2.0824440278168583,10.0,0.0,22.863799361069702,23.20893224280502,357.7888817172531,403.7186357345539,0.0
0.067,7.423387055578651,-1.859201647307153,10.0,0.0,23.082000390168847,23.42951856849048,345.1266644280509,403.7186357345539,0.0
0.068,7.736929428236853,-1.5824320316278497,10.0,0.0,23.27222771500701,23.617938384108047,342.9584987314189,403.7186357345539,0.0
0.069,8.04132723792414,-1.3546495884062866,10.0,0.0,23.43998591632552,23.77619061530866,334.2677598047511,403.7186357345539,0.0
0.07,8.395997401416553,-1.0747195592463576,10.0,0.0,23.578279041856877,23.89942370363377,322.7417355360636,403.7186357345539,0.0
0.07100000000000001,8.726669482066718,-0.8579631993863083,10.0,0.0,23.694022264374595,23.99133556844291,337.9106389559309,403.7186357345539,0.0
0.07200000000000001,8.91385728821635,-0.8925675486457335,10.0,0.0,23.81335639313859,24.06834663115294,344.8606079910171,403.7186357345539,0.0
0.073,8.941721008651788,-1.1508071676799903,10.0,0.0,23.95651852989837,24.148396869281978,362.43451347602996,403.7186357345539,0.0
0.074,8.927907180207171,-1.4305443375681337,10.0,0.0,24.121558169292424,24.236556455607346,368.59250641149885,403.7186357345539,0.0
0.075,8.859340450140312,-1.7499202918046703,10.0,0.0,24.31124378664675,24.33980824926249,387.10067316750514,403.7186357345539,0.0
0.076,8.767176841935807,-2.0562826706616475,10.0,0.0,24.52279212376306,24.461155754889383,396.7190369145668,403.7186357345539,0.0
0.077,8.62162972262067,-2.4016532593838043,10.0,0.0,24.76024751870129,24.606611890707832,408.83095327273656,403.7186357345539,0.0
0.078,8.47560200325128,-2.694417929744825,4.2328573576541455,0.0,25.017253395580042,24.141489839717703,422.11902748215886,403.7186357345539,0.0
0.079,7.976933282862312,-2.8607477054336132,-2.5951836645330504,0.0,25.217415108294055,23.108560777546415,422.1842791734685,403.7186357345539,0.0
0.08,7.108823154396294,-2.7811920961721883,-2.812465944577016,0.0,25.283853328743895,22.333825579208074,423.90807901688027,403.7186357345539,0.0
0.081,6.271586253917558,-2.653506194973696,-3.876260299106163,0.0,25.2529243142757,21.61177812431877,423.957979607767,403.7186357345539,0.0
0.082,5.5050368283949265,-2.49896770955361,-4.10360403328167,0.0,25.137161081381162,21.02042071406028,421.47864270000514,403.7186357345539,0.0
0.083,4.868471985340005,-2.3343665061913965,-3.041535649055244,0.0,24.957277683234594,20.658080319625654,417.10285564026174,403.7186357345539,0.0
0.084,4.424305919932403,-2.196977561995455,-0.9874843182406208,0.0,24.745681813631286,20.571803206131467,412.03920902450335,403.7186357345539,0.0
0.085,4.2170222955119625,-2.1006470242692714,1.4611332567390782,0.0,24.537395349930968,20.740161174998164,406.86894770807635,403.7186357345539,0.0
0.08600000000000001,4.237591524722449,-2.0544866410994733,4.014760795217355,0.0,24.362658992715943,21.12293210263361,401.3761610522358,403.7186357345539,0.0
0.08700000000000001,4.463432945065856,-2.038659163561466,6.784578869960825,0.0,24.242393945288473,21.70445915067534,400.6543187726976,403.7186357345539,0.0
0.088,4.873933407268391,-2.0416135052915654,7.176143179348477,0.0,24.19279135977362,22.188284245816515,402.06072463253105,403.7186357345539,0.0
0.089,5.290232563404508,-2.033969876667225,6.489519360451978,0.0,24.195661199758387,22.497634407166647,388.80279034558225,403.7186357345539,0.0
0.09,5.653519497968663,-1.9363066429670408,10.0,0.0,24.218512552458915,23.133557073678794,385.1141763977869,403.7186357345539,0.0
0.091,6.1995738192488865,-1.8287925160924288,10.0,0.0,24.291821114921397,23.61663469641911,383.7434821376111,403.7186357345539,0.0
0.092,6.701515865419742,-1.7488258195624247,10.0,0.0,24.398385388062117,24.00898233126566,369.7315759880255,403.7186357345539,0.0
0.093,7.211998900825616,-1.5692749007864486,10.0,0.0,24.514577063273354,24.32161791650868,368.376316719564,403.7186357345539,0.0
0.094,7.6737652750310765,-1.3896440966519235,10.0,0.0,24.632449250220738,24.568919639939985,355.134988172922,403.7186357345539,0.0
0.095,8.135685059353985,-1.1537534453594502,10.0,0.0,24.739112727215673,24.75708489718943,347.8245213493846,403.7186357345539,0.0
0.096,8.55186475048466,-0.9561262659278218,10.0,0.0,24.83454629901152,24.89593940823228,345.4335035059521,403.7186357345539,0.0
0.097,8.99007393359756,-0.6997460370893847,10.0,0.0,24.90809641135415,24.98641061211932,352.95610269381797,403.7186357345539,0.0
0.098,9.134319671635001,-0.8951535196881149,10.0,0.0,25.007397258225463,25.063704767498926,371.2404703071161,403.7186357345539,0.0
0.099,9.17823826383207,-1.1850155760354677,10.0,0.0,25.134428187319834,25.139811004266406,376.8470810780785,403.7186357345539,0.0
0.1,9.15172105965976,-1.5172536169940587,10.0,0.0,25.290014211123484,25.224365788647496,396.97868819602155,403.7186357345539,0.0
0.101,9.068455414801413,-1.8737269652449622,9.88999337169815,0.0,25.474386798882882,25.312817016750326,404.00211698092477,403.7186357345539,0.0
0.10200000000000001,8.939891554288657,-2.2254714182079733,6.375444166782832,0.0,25.684294407020055,25.03866940276898,416.6970937670218,403.7186357345539,0.0
0.10300000000000001,8.58515795063174,-2.4849066459553426,-0.10182880659035476,0.0,25.870816923467956,24.173307833774714,422.67647105509377,403.7186357345539,0.0
0.10400000000000001,7.860541756084527,-2.5372414613822167,-3.2810958038317466,0.0,25.95531350879113,23.20434847872547,426.8172104200241,403.7186357345539,0.0
0.105,6.966890098389211,-2.4815710020595745,-5.5824512331516045,0.0,25.92781740139729,22.210433810861705,427.41210091140897,403.7186357345539,0.0
0.106,6.034821660963274,-2.3535489974284443,-6.116831130612599,0.0,25.790153722040273,21.370983776157328,425.83274617266454,403.7186357345539,0.0
0.107,5.2041118002940605,-2.2075461314029754,-5.548294865621492,0.0,25.567531311932022,20.751652565410676,422.8720513677024,403.7186357345539,0.0
0.108,4.556069075428157,-2.0750020888684113,-4.259481619471904,0.0,25.292118205741378,20.371053930282958,418.76422737872474,403.7186357345539,0.0
0.109,4.12014780336315,-1.9763123131473088,-2.356025541424784,0.0,24.99665611175305,20.238936796851124,413.5598608969209,403.7186357345539,0.0
0.11,3.905029491931266,-1.9202968121661108,0.14774544785346944,0.0,24.712353706469656,20.36616921694064,408.2863920550232,403.7186357345539,0.0
0.111,3.915953910028121,-1.9049210283381866,2.7388023055976163,0.0,24.468073602512295,20.708873829846958,402.5500099644106,403.7186357345539,0.0
0.112,4.122817241830675,-1.9245468416008058,5.618679608605354,0.0,24.284804567538472,21.261110183503014,398.5042626981171,403.7186357345539,0.0
0.113,4.5200719730771395,-1.953385164269287,7.693696972116481,0.0,24.178062028788535,21.897619748133145,401.2038743847035,403.7186357345539,0.0
0.114,5.018256223558366,-1.992850248877779,6.369038742321774,0.0,24.149697476456865,22.24251380327227,394.3060685351307,403.7186357345539,0.0
0.115,5.403187305292457,-1.9656689476555866,9.912067339102414,0.0,24.15527419089174,22.915701149122178,383.5674921024436,403.7186357345539,0.0
0.116,5.96711394591481,-1.8997060584554644,10.0,0.0,24.220627863668327,23.438187118910413,387.2537645975167,403.7186357345539,0.0
0.117,6.503878477210707,-1.8142519089573734,10.0,0.0,24.322954438593293,23.86067570035217,374.142040095607,403.7186357345539,0.0
0.11800000000000001,6.997795878335346,-1.6919929036811316,10.0,0.0,24.444703265084527,24.202184812331495,371.30873706786883,403.7186357345539,0.0
0.11900000000000001,7.488269975851981,-1.483595145209906,10.0,0.0,24.566726956745505,24.472704919046436,358.3975180075819,403.7186357345539,0.0
0.12,7.924382284055319,-1.2970434710312793,10.0,0.0,24.685163583336944,24.685307771328795,356.79402574885313,403.7186357345539,0.0
0.121,8.370588980762873,-1.0533679923611063,10.0,0.0,24.788078046585536,24.843772387486233,341.76537602162745,403.7186357345539,0.0
0.122,8.796768932922417,-0.8155456623569086,10.0,0.0,24.872823823611263,24.954264260582335,351.7917314192619,403.7186357345539,0.0
0.123,9.080054029113334,-0.8008487937516806,10.0,0.0,24.96090577799748,25.035281963011972,361.7971381934861,403.7186357345539,0.0
0.124,9.182175856182631,-1.0229764093949276,10.0,0.0,25.072862313594854,25.10860554062157,371.4125819271095,403.7186357345539,0.0
0.125,9.167860547686931,-1.3677357129517662,10.0,0.0,25.216657800628262,25.18838831623516,388.2040518787352,403.7186357345539,0.0
0.126,9.126094515647026,-1.686110355294561,10.0,0.0,25.38562563414184,25.279023473430165,399.07752293629454,403.7186357345539,0.0
0.127,9.007141586663412,-2.066123285271811,8.456186793564545,0.0,25.585377875897624,25.220339607416932,410.09572315384816,403.7186357345539,0.0
0.128,8.795372745566826,-2.35658727914811,2.8833158105947962,0.0,25.787437416903124,24.612026719349064,422.35334399770613,403.7186357345539,0.0
0.129,8.229301517482003,-2.526365490967326,-3.4318416939657146,0.0,25.924230678362644,23.505962605194938,423.563644296551,403.7186357345539,0.0
0.13,7.323308269126107,-2.476330348130547,-4.235441929008115,0.0,25.929536554430555,22.59293832283143,426.05289883657065,403.7186357345539,0.0
0.131,6.4164319765385,-2.3830764662906754,-5.70341183003811,0.0,25.833251839081317,21.709002829249254,426.06173037743315,403.7186357345539,0.0
0.132,5.555446012110801,-2.257307384997773,-5.931258546898153,0.0,25.645299985784956,20.979088666807243,423.64676043549923,403.7186357345539,0.0
0.133,4.824247649045706,-2.1248615150322907,-4.923054822940647,0.0,25.389840546690756,20.488373572376602,420.21684273992065,403.7186357345539,0.0
0.134,4.293512799776169,-2.0112036652621543,-3.373078045205024,0.0,25.099677637287865,20.232668301579952,415.52394286269356,403.7186357345539,0.0
0.135,3.972785029170063,-1.9367442879683483,-1.144681177872875,0.0,24.805906538740967,20.23311386082583,410.2180825023087,403.7186357345539,0.0
0.136,3.875619534420216,-1.9021417394154372,1.4432545346420191,0.0,24.538495419405468,20.474007640712173,404.94084680083046,403.7186357345539,0.0
0.137,3.988992581050862,-1.908227663113347,4.069650274718363,0.0,24.322930267084452,20.913652414882716,399.2766498105014,403.7186357345539,0.0
0.138,4.286965998922623,-1.936430258632912,6.946168629123418,0.0,24.17592753368276,21.546285912488294,398.4728594810101,403.7186357345539,0.0
0.139,4.75682443000965,-1.9733048725786173,7.400521556404495,0.0,24.110662604960638,22.073464732209167,400.46652302496153,403.7186357345539,0.0
0.14,5.220744054853528,-1.991421029750614,6.436210911524713,0.0,24.106266082232274,22.384448902454196,387.41459413543987,403.7186357345539,0.0
0.14100000000000001,5.6004535371586135,-1.912061744363674,10.0,0.0,24.12449694583696,23.02842606277785,383.1383101531064,403.7186357345539,0.0
0.14200000000000002,6.158448782052625,-1.8132941825606046,10.0,0.0,24.195231600169077,23.516608320429555,382.3977730130693,403.7186357345539,0.0
0.14300000000000002,6.66735385620144,-1.7388317755845801,10.0,0.0,24.30050782568383,23.91264621204188,368.38894166495083,403.7186357345539,0.0
0.14400000000000002,7.178667611850744,-1.567790428452768,10.0,0.0,24.41679029369359,24.228452474664497,367.21867117291987,403.7186357345539,0.0
0.145,7.6430500195081645,-1.3894724525642497,10.0,0.0,24.535120577288218,24.478337430540016,353.7580984453575,403.7186357345539,0.0
0.146,8.103081786023383,-1.1591992629751595,10.0,0.0,24.643059457015024,24.669107248947352,347.2721402230136,403.7186357345539,0.0
