timestamp,iq,id,iq_ref,id_ref,vq,vd,omega,omega_ref,r
0.0,0.0,0.0,0.0,0.0,0.0,0.0,0.0,242.8892146642736,0.0
0.001,0.0,0.0,10.0,0.0,0.0,1.0999999999999999,6.115472199294103,242.8892146642736,0.0
0.002,0.5307369851907212,-0.2913212625381807,10.0,0.0,0.14204533887919985,1.9316189316290207,13.317801563642547,242.8892146642736,0.0
0.003,1.0842913387634832,-0.6024330830807904,10.0,0.0,0.384357124667687,2.6386968949419622,20.697939467553027,242.8892146642736,0.0
0.004,1.5590443546685477,-0.8700465084428163,10.0,0.0,0.6994718867930164,3.2526109522886295,28.232747544420146,242.8892146642736,0.0
0.005,1.9399447555359186,-1.0838738622210777,10.0,0.0,1.065311453102468,3.7994935661768023,35.92944872443006,242.8892146642736,0.0
0.006,2.239750732602683,-1.2510087368845633,10.0,0.0,1.4655018868449925,4.299102221838433,43.75633668444442,242.8892146642736,0.0
0.007,2.4770151619816017,-1.382020589851471,10.0,0.0,1.8883740978591532,4.765668027847139,51.58766747378032,242.8892146642736,0.0
0.008,2.6680767290418097,-1.4872241871505252,10.0,0.0,2.325877945545995,5.209220346273558,59.45942083902103,242.8892146642736,0.0
0.009000000000000001,2.8266491704841292,-1.5730794701170803,10.0,0.0,2.772378685460125,5.636635464737965,67.35059094018146,242.8892146642736,0.0
0.01,2.962077666392183,-1.645500646948331,10.0,0.0,3.224078639851053,6.052647735211881,75.20908322432116,242.8892146642736,0.0
0.011,3.0811061533574158,-1.7084279320504514,10.0,0.0,3.678407615443203,6.460489925470405,83.0265951655913,242.8892146642736,0.0
0.012,3.188848746459569,-1.7638278597420747,10.0,0.0,4.133552631697047,6.862319393890706,90.74118064793086,242.8892146642736,0.0
0.013000000000000001,3.288205119878689,-1.8140726097274587,10.0,0.0,4.588339016389012,7.259628641949282,98.35820682563939,242.8892146642736,0.0
0.014,3.3820602099432007,-1.8592355758795645,10.0,0.0,5.041843166194517,7.653355107498287,105.90865295623543,242.8892146642736,0.0
0.015,3.4721069852858886,-1.899829032412081,10.0,0.0,5.493383198131427,8.044092747085895,113.37727610343421,242.8892146642736,0.0
0.016,3.5596145800153947,-1.9360338400176071,10.0,0.0,5.94241958510469,8.43218525824161,120.68508583176356,242.8892146642736,0.0
0.017,3.645144415105338,-1.9685384477868613,10.0,0.0,6.388575043274759,8.817838951066484,127.83962377537456,242.8892146642736,0.0
0.018000000000000002,3.730251927866576,-1.9959253041084188,10.0,0.0,6.83136783302799,9.201036292373047,134.85405702603322,242.8892146642736,0.0
0.019,3.81544967906247,-2.018253592643655,10.0,0.0,7.270383321112213,9.581672501020332,141.68976328564074,242.8892146642736,0.0
0.02,3.9014648862453374,-2.0350875541282063,10.0,0.0,7.705189334130692,9.959536942333155,148.3432823300447,242.8892146642736,0.0
0.021,3.9891051824829464,-2.0457889559126508,10.0,0.0,8.135310004560049,10.334315260302239,154.92060212100432,242.8892146642736,0.0
0.022,4.079618141396171,-2.0489696811670974,10.0,0.0,8.560139305503519,10.705547790999272,161.01925282597162,242.8892146642736,0.0
0.023,4.171109372430197,-2.048468292080302,10.0,0.0,8.979521969370257,11.072981092896333,166.534238406907,242.8892146642736,0.0
0.024,4.266936196769627,-2.039517194249811,10.0,0.0,9.392730090169543,11.435983292623375,171.8647834235234,242.8892146642736,0.0
0.025,4.367255527950721,-2.0225841458509217,10.0,0.0,9.79914449451603,11.793929226271104,177.02637022703064,242.8892146642736,0.0
0.026000000000000002,4.4734353073349595,-1.9962166741499119,10.0,0.0,10.197980960389518,12.146045424568259,181.63161391243256,242.8892146642736,0.0
0.027,4.582366840795821,-1.966358349113627,10.0,0.0,10.589124658468391,12.491912978736195,185.74793639675826,242.8892146642736,0.0
0.028,4.700058850757774,-1.9240450691803936,10.0,0.0,10.971384864613876,12.830451341534015,189.43662766964098,242.8892146642736,0.0
0.029,4.820934284790598,-1.879137197786803,10.0,0.0,11.344756153370636,13.161242511022618,192.73598774770625,242.8892146642736,0.0
0.03,4.952016225740939,-1.821000614527957,10.0,0.0,11.707923484756042,13.483081433273819,195.59831968863915,242.8892146642736,0.0
0.031,5.086039273572549,-1.7621311371320891,10.0,0.0,12.061063698547066,13.79562148058647,197.80891551030922,242.8892146642736,0.0
0.032,5.230431844273564,-1.6911110488141978,10.0,0.0,12.40292038074925,14.097678592248165,200.4421589734679,242.8892146642736,0.0
0.033,5.380124186618445,-1.6166151787533525,10.0,0.0,12.733312761073865,14.38869342901298,201.91742172589852,242.8892146642736,0.0
0.034,5.537594793894332,-1.535029134414507,10.0,0.0,13.051537880865839,14.667821176756876,203.18880493813168,242.8892146642736,0.0
0.035,5.698947813469154,-1.4530296333491768,10.0,0.0,13.357649178779205,14.934684535625108,203.60405746232266,242.8892146642736,0.0
0.036000000000000004,5.870474243492053,-1.3603000477825025,10.0,0.0,13.65045542338638,15.188218311291084,204.28541056101804,242.8892146642736,0.0
0.037,6.041188711220851,-1.275010780747051,10.0,0.0,13.930879897581198,15.42861600670124,205.2233356988433,242.8892146642736,0.0
0.038,6.228175208801664,-1.168399557236846,10.0,0.0,14.196427351981786,15.654155009933262,200.35169734043586,242.8892146642736,0.0
0.039,6.404895489618571,-1.0845312562500289,10.0,0.0,14.449814560392067,15.86612549236809,209.64773540576442,242.8892146642736,0.0
0.04,6.534612624563911,-1.0851225869390002,10.0,0.0,14.699963825590459,16.069735965364643,218.170241886545,242.8892146642736,0.0
0.041,6.621487035821765,-1.1484636683301073,10.0,0.0,14.952420817214799,16.26974130369247,220.68166573712315,242.8892146642736,0.0
0.042,6.6704785161669795,-1.2647840534085386,10.0,0.0,15.211794475054209,16.47047148862455,233.10654395573727,242.8892146642736,0.0
0.043000000000000003,6.709376245503157,-1.3867642159960276,10.0,0.0,15.477558399636717,16.673277185423842,235.10815372853793,242.8892146642736,0.0
0.044,6.744196093263161,-1.5028656568708394,9.246828606907268,0.0,15.748577858311263,16.796088645801014,248.0448336778235,242.8892146642736,0.0
0.045,6.709808635133189,-1.6367606506695083,2.726932442128981,0.0,16.018343952065173,16.228194860685136,246.26481944110893,242.8892146642736,0.0
0.046,6.326200450562302,-1.5768546957948617,3.583183512717918,0.0,16.196415452957908,15.945306668590293,256.05291132466067,242.8892146642736,0.0
0.047,5.962873759973581,-1.5474096470979641,-1.4424993956618248,0.0,16.325751088743978,15.183256669285608,252.4288577268927,242.8892146642736,0.0
0.048,5.375956808327654,-1.427217740370669,0.27413097259597485,0.0,16.353021501767937,14.810359000857312,254.6324364306321,242.8892146642736,0.0
0.049,4.935150222019585,-1.3569772373684994,-0.9450905969373222,0.0,16.3337505703837,14.368817019220431,256.7253801828104,242.8892146642736,0.0
0.05,4.509551165855791,-1.3157101464638654,-2.129924128211833,0.0,16.268415559004715,13.893770500178894,255.92288180785556,242.8892146642736,0.0
0.051000000000000004,4.094288931896651,-1.259309885516071,-1.8590116121702343,0.0,16.156318039064256,13.54276669915479,256.17582899871223,242.8892146642736,0.0
0.052000000000000005,3.7523960739628546,-1.2324224206551833,-2.118351350942957,0.0,16.01793627249022,13.21787262184677,255.722829479769,242.8892146642736,0.0
0.053,3.4573394299341236,-1.2186932746917258,-2.020187739626289,0.0,15.859661943435414,12.954058472508526,254.92013023640644,242.8892146642736,0.0
0.054,3.2165329633367916,-1.2175231314929047,-1.7391472736663403,0.0,15.690842208060026,12.754269265226474,253.9949823232722,242.8892146642736,0.0
0.055,3.031344523647933,-1.2293497471953718,-1.3876309936892133,0.0,15.520238154653235,12.611396054972776,253.03838512354113,242.8892146642736,0.0
0.056,2.897309189573282,-1.2506738607596999,-1.0108240984163501,0.0,15.354634571896803,12.516575358435334,252.20300016857345,242.8892146642736,0.0
0.057,2.8074249305103542,-1.2765581382328615,-0.6862694759755086,0.0,15.198743307148671,12.455156227947931,251.04071491492135,242.8892146642736,0.0
0.058,2.7488396071577976,-1.3051667462276868,-0.18664185165593583,0.0,15.055187359931312,12.441548919463354,249.6519438812722,242.8892146642736,0.0
0.059000000000000004,2.7258182988086546,-1.3353334499603615,0.44011637299866013,0.0,14.927658527917885,12.480840366259192,248.32728538981036,242.8892146642736,0.0
0.06,2.740149367281937,-1.3701872556840258,1.0480649114742087,0.0,14.820343975377652,12.562249911544308,246.6840250256437,242.8892146642736,0.0
0.061,2.789060065242455,-1.4033186642645188,1.8317469899438326,0.0,14.735197749506572,12.699675724202867,245.5262601457169,242.8892146642736,0.0
0.062,2.877843344013123,-1.4358353863409377,2.3842589750928074,0.0,14.675554252831066,12.858506776904992,245.51798912981278,242.8892146642736,0.0
0.063,2.9900116460713244,-1.4612934530678148,2.362106738389473,0.0,14.640233431212504,12.9760778283418,247.35907785999535,242.8892146642736,0.0
0.064,3.084746244258243,-1.4716561717913563,1.3968637413409675,0.0,14.621087115291802,12.963105362384791,243.9653443525571,242.8892146642736,0.0
0.065,3.1077837074267936,-1.4432558433833735,3.082969198177253,0.0,14.59933052105536,13.143052766687216,239.33053786342336,242.8892146642736,0.0
0.066,3.217367178457431,-1.421051878775517,5.435959210752632,0.0,14.595585893850016,13.532973810768993,242.49055645775329,242.8892146642736,0.0
0.067,3.458793381942276,-1.446237336864265,3.859936495652871,0.0,14.634200273809228,13.661174841262316,244.72396614640687,242.8892146642736,0.0
0.068,3.6013433257281027,-1.4400859955618694,2.7248841365047483,0.0,14.6808448166977,13.658055442565328,237.25372937030914,242.8892146642736,0.0
0.069,3.662274986022617,-1.3649089858152632,6.516357377493254,0.0,14.714305007768523,14.08304803493257,238.22283526375395,242.8892146642736,0.0
0.07,3.9193745987154043,-1.3491167963280475,6.0784682247760475,0.0,14.785933068222862,14.355133207168127,240.89912305064405,242.8892146642736,0.0
0.07100000000000001,4.142931212512308,-1.3540916704024912,4.760225247467293,0.0,14.878311997898379,14.444524600858044,233.57651906039962,242.8892146642736,0.0
0.07200000000000001,4.288306433969478,-1.283935710615655,8.514654198628248,0.0,14.962625269658043,14.946628654324988,237.85078959236628,242.8892146642736,0.0
0.073,4.612642862346507,-1.2831327413380125,6.4279031833639895,0.0,15.089330852565766,15.10564347352363,233.24683749395936,242.8892146642736,0.0
0.074,4.81304522937621,-1.2488528705600026,8.826303004270592,0.0,15.215504603009773,15.527317963456055,235.4751800021659,242.8892146642736,0.0
0.075,5.1347419444408695,-1.2097723739237591,7.786272096788402,0.0,15.36727237148041,15.747672366420709,231.43191516847767,242.8892146642736,0.0
0.076,5.365283671529252,-1.177876019069041,9.922477508590475,0.0,15.522781009332798,16.18440838747994,234.20508036699133,242.8892146642736,0.0
0.077,5.711367140150721,-1.1362967048504444,8.62273625230647,0.0,15.70215762449037,16.392924313631745,227.95101731252208,242.8892146642736,0.0
0.078,5.961318529692369,-1.0785833069152293,10.0,0.0,15.878515490116678,16.738988915329884,231.91894237372557,242.8892146642736,0.0
0.079,6.263754428042833,-1.0270066489989238,9.98690695030117,0.0,16.06674773095873,17.022101535553908,228.21031508945325,242.8892146642736,0.0
0.08,6.570251966056512,-0.9403023153099979,10.0,0.0,16.25544629961236,17.26660691360559,227.79705599630861,242.8892146642736,0.0
0.081,6.805578172184747,-0.934477846297237,10.0,0.0,16.449951900951273,17.482579772926506,240.30848940376973,242.8892146642736,0.0
0.082,6.949403726728773,-1.0350786308289863,6.029775067954798,0.0,16.657728559077015,17.24621361498569,241.5463317313506,242.8892146642736,0.0
0.083,6.831284624173211,-1.0633138486056042,5.424282733493596,0.0,16.82319080170621,17.041791188007807,246.68294894159675,242.8892146642736,0.0
0.084,6.615292210098121,-1.1225265834244578,2.818036785597286,0.0,16.957895626027003,16.616303071589353,250.69247950445072,242.8892146642736,0.0
0.085,6.291470092563617,-1.0876763433731051,0.7352388557685305,0.0,17.032155502520034,16.077249445230667,251.70549036532964,242.8892146642736,0.0
0.08600000000000001,5.847012646619015,-1.062154063088042,0.14057066831850928,0.0,17.04262508029705,15.6005937457145,253.8223320933935,242.8892146642736,0.0
0.08700000000000001,5.426581342936438,-1.0188604491908175,-1.0271813700046195,0.0,16.999875055618904,15.091947400532243,255.0078658332198,242.8892146642736,0.0
0.088,4.991171289467051,-0.9967440543632418,-1.7411347516072304,0.0,16.90853553159829,14.60672412865215,255.36773261209993,242.8892146642736,0.0
0.089,4.58199239290565,-0.9716141624343552,-2.04585332052556,0.0,16.77526450862782,14.175165300880074,255.98215953165843,242.8892146642736,0.0
0.09,4.211397788647486,-0.9683425560218087,-2.483996228978657,0.0,16.612056127391106,13.764960336850283,255.70042866076855,242.8892146642736,0.0
0.091,3.873522913619423,-0.9719569775511838,-2.4712429334986696,0.0,16.424578390307435,13.418699612897639,255.3500566533975,242.8892146642736,0.0
0.092,3.5845071887788684,-0.9889006250471655,-2.4206653497043833,0.0,16.22305001154613,13.12216616987664,254.68347174567643,242.8892146642736,0.0
0.093,3.3407721736456346,-1.0170077468703609,-2.205315466657875,0.0,16.014943473284447,12.88223663899504,253.84677201999736,242.8892146642736,0.0
0.094,3.1436940556071926,-1.0546279966851935,-1.8965411773755791,0.0,15.807511792022172,12.696542323198912,252.8371912506894,242.8892146642736,0.0
0.095,2.990550096504882,-1.1006121372503332,-1.49123055858575,0.0,15.60693590027053,12.565045750351093,251.86444897556186,242.8892146642736,0.0
0.096,2.8805130839433453,-1.1512597776326667,-1.0946117641348678,0.0,15.418379339445679,12.476788838605342,251.0063433409035,242.8892146642736,0.0
0.097,2.805912101981553,-1.2037377144234567,-0.7467302335719879,0.0,15.245118840171896,12.419908480259265,250.29734631726495,242.8892146642736,0.0
0.098,2.758752328734965,-1.2520219652569176,-0.4663130382826286,0.0,15.08828284321466,12.383198749234129,249.33847573925797,242.8892146642736,0.0
0.099,2.72873459886534,-1.294861020262779,-0.05137036002898254,0.0,14.947688926392946,12.380146266823985,248.08958624669012,242.8892146642736,0.0
0.1,2.7202896916289703,-1.3334804347640072,0.5210706704307797,0.0,14.82466889805746,12.422787490038022,246.7931300787891,242.8892146642736,0.0
0.101,2.740657635836537,-1.3717010385532533,1.1302596002361383,0.0,14.722033067148732,12.5078240371359,245.1944185684793,242.8892146642736,0.0
0.10200000000000001,2.7925089426780323,-1.4063592738694726,1.906563316348973,0.0,14.641594673887559,12.647894901596993,244.16635181986732,242.8892146642736,0.0
0.10300000000000001,2.8825956682819562,-1.439417235281205,2.407825319099031,0.0,14.58649699980074,12.803899596679216,244.3860534311947,242.8892146642736,0.0
0.10400000000000001,2.9925963742832318,-1.4641245834719658,2.2830061257661223,0.0,14.554896791317693,12.90885211314632,246.11651412037884,242.8892146642736,0.0
0.105,3.07750658125168,-1.474166841964072,1.3855027866130065,0.0,14.537809430281886,12.894432066038371,242.3137729735152,242.8892146642736,0.0
0.106,3.097887109289063,-1.441634982583873,3.29262777695241,0.0,14.517309873522112,13.097111313852075,238.35213188874636,242.8892146642736,0.0
0.107,3.2174626880788573,-1.4226471926558786,5.318819147092103,0.0,14.517364858921418,13.468332973633904,241.68025571374943,242.8892146642736,0.0
0.108,3.449298354245262,-1.4491746050761,3.666846824095807,0.0,14.55764440502448,13.576152929256082,243.2517203740521,242.8892146642736,0.0
0.109,3.577686640977213,-1.4390713067128615,2.877489436846689,0.0,14.603301355135295,13.595104899680058,236.06661165058568,242.8892146642736,0.0
0.11,3.64632391144454,-1.3644319876354383,6.538269828716775,0.0,14.63817851516254,14.021040568166834,237.56652610362627,242.8892146642736,0.0
0.111,3.9033794991644113,-1.3531819020867286,5.841539487802954,0.0,14.711670409816156,14.26703250244392,239.90107408294858,242.8892146642736,0.0
0.112,4.113337852190896,-1.353730286737759,4.704146903955049,0.0,14.802585131599217,14.357103688988817,232.4499725305666,242.8892146642736,0.0
0.113,4.255100463025871,-1.280748004263304,8.534090101483105,0.0,14.885381964939768,14.866432602962513,236.97827245581126,242.8892146642736,0.0
0.114,4.579976510447734,-1.2834405340097215,6.329049560945402,0.0,15.011858007440475,15.017935678330407,232.2025850977612,242.8892146642736,0.0
0.115,4.776546235942088,-1.248591705965893,8.823759535635563,0.0,15.136976456845618,15.445030643702719,234.64618403405555,242.8892146642736,0.0
0.116,5.098094248772282,-1.2124099286513954,7.684390373790563,0.0,15.288661050623322,15.658245665772082,230.5260239360735,242.8892146642736,0.0
0.117,5.324351538092118,-1.1800113926726552,9.86810233006359,0.0,15.44329666604568,16.095236830123884,233.35446851101915,242.8892146642736,0.0
0.11800000000000001,5.667888038958816,-1.1392855646286897,8.549227504123309,0.0,15.62201198063593,16.301552646964446,227.18351185351244,242.8892146642736,0.0
0.11900000000000001,5.91440156077955,-1.0826405840912994,10.0,0.0,15.797663655872537,16.6542010139942,231.2465773213306,242.8892146642736,0.0
0.12,6.218328774321792,-1.0325160306263164,9.840821243284944,0.0,15.986067749212689,16.926165465375774,227.14501354501814,242.8892146642736,0.0
0.121,6.517517821186661,-0.9458806261856978,10.0,0.0,16.17379922940316,17.1790038087393,228.13393379589914,242.8892146642736,0.0
0.122,6.766461721943673,-0.9199152712078176,10.0,0.0,16.366051560907774,17.399347739603748,239.2595189801313,242.8892146642736,0.0
0.123,6.917372050580776,-1.0158328168266144,6.101438149289149,0.0,16.571923635916225,17.17393000981151,239.18490524872345,242.8892146642736,0.0
0.124,6.8070070094285064,-1.0467294867469639,6.175788109148576,0.0,16.737106188679654,17.052454632404103,246.42122606217396,242.8892146642736,0.0
0.125,6.635494872722267,-1.1256270400412027,2.5223075884443205,0.0,16.88199271258916,16.574781375763884,248.83419716099434,242.8892146642736,0.0
0.126,6.3010520412994,-1.0821756261497704,1.2563722140669231,0.0,16.959054627382695,16.091719601293622,250.4894295156695,242.8892146642736,0.0
0.127,5.8807921067990065,-1.0649382955494866,0.3527538882153758,0.0,16.978642581022733,15.620815698130652,252.77431016560504,242.8892146642736,0.0
0.128,5.4710795808932025,-1.0230657548856614,-0.8885373917657038,0.0,16.94474774281545,15.112320901613217,253.9856649025417,242.8892146642736,0.0
0.129,5.037217267979606,-1.0014585162284029,-1.60517926261672,0.0,16.861434837931498,14.628496137094432,254.36344154514325,242.8892146642736,0.0
0.13,4.628509154409179,-0.9745392623171523,-1.9088098527261823,0.0,16.73532570154039,14.19910888169921,255.11943455128068,242.8892146642736,0.0
0.131,4.257433587431123,-0.9710517890272912,-2.409108554664968,0.0,16.578774323726105,13.784784118124115,254.90978074386155,242.8892146642736,0.0
0.132,3.9162552238126187,-0.9727762419361511,-2.4244873117512826,0.0,16.39667017188861,13.433366881193246,254.611834452165,242.8892146642736,0.0
0.133,3.6222616930008082,-0.9879799779318058,-2.392740363781923,0.0,16.19928987797221,13.131454409372322,254.00242340640244,242.8892146642736,0.0
0.134,3.37329720168641,-1.0142518353407899,-2.1991669283219335,0.0,15.994194233220389,12.885416922499216,253.21082000915388,242.8892146642736,0.0
0.135,3.170609333485299,-1.0503463486608338,-1.906581283146454,0.0,15.788712082147553,12.693528327041925,252.23421021472885,242.8892146642736,0.0
0.136,3.011903112214843,-1.0950822595421732,-1.5117263414384912,0.0,15.589149291700023,12.556219368816938,251.2912018726756,242.8892146642736,0.0
0.137,2.8966384825738563,-1.1449373947996861,-1.1242420424958883,0.0,15.400848590244259,12.462451797884105,250.4438639030755,242.8892146642736,0.0
0.138,2.817130411968505,-1.197139947536742,-0.7761195500838616,0.0,15.22724493128929,12.40124278654506,249.7081492284316,242.8892146642736,0.0
0.139,2.7656559263347344,-1.2460511277560236,-0.47645155840349096,0.0,15.069738941392663,12.363143677318803,248.86162637560415,242.8892146642736,0.0
0.14,2.733250815475684,-1.2901287593369952,-0.11291424910306569,0.0,14.928533067234781,12.353146121469907,247.5887086865978,242.8892146642736,0.0
