timestamp,iq,id,iq_ref,id_ref,vq,vd,omega,omega_ref,r
0.0,0.0,0.0,0.0,0.0,0.0,0.0,0.0,479.06989877929493,0.0
0.001,0.0,0.0,10.0,0.0,0.0,1.0999999999999999,6.115472199294103,479.06989877929493,0.0
0.002,0.5307369851907212,-0.2913212625381807,10.0,0.0,0.14204533887919985,1.9316189316290207,13.317801563642547,479.06989877929493,0.0
0.003,1.0842913387634832,-0.6024330830807904,10.0,0.0,0.384357124667687,2.6386968949419622,20.697939467553027,479.06989877929493,0.0
0.004,1.5590443546685477,-0.8700465084428163,10.0,0.0,0.6994718867930164,3.2526109522886295,28.232747544420146,479.06989877929493,0.0
0.005,1.9399447555359186,-1.0838738622210777,10.0,0.0,1.065311453102468,3.7994935661768023,35.92944872443006,479.06989877929493,0.0
0.006,2.239750732602683,-1.2510087368845633,10.0,0.0,1.4655018868449925,4.299102221838433,43.75633668444442,479.06989877929493,0.0
0.007,2.4770151619816017,-1.382020589851471,10.0,0.0,1.8883740978591532,4.765668027847139,51.58766747378032,479.06989877929493,0.0
0.008,2.6680767290418097,-1.4872241871505252,10.0,0.0,2.325877945545995,5.209220346273558,59.45942083902103,479.06989877929493,0.0
0.009000000000000001,2.8266491704841292,-1.5730794701170803,10.0,0.0,2.772378685460125,5.636635464737965,67.35059094018146,479.06989877929493,0.0
0.01,2.962077666392183,-1.645500646948331,10.0,0.0,3.224078639851053,6.052647735211881,75.20908322432116,479.06989877929493,0.0
0.011,3.0811061533574158,-1.7084279320504514,10.0,0.0,3.678407615443203,6.460489925470405,83.0265951655913,479.06989877929493,0.0
0.012,3.188848746459569,-1.7638278597420747,10.0,0.0,4.133552631697047,6.862319393890706,90.74118064793086,479.06989877929493,0.0
0.013000000000000001,3.288205119878689,-1.8140726097274587,10.0,0.0,4.588339016389012,7.259628641949282,98.35820682563939,479.06989877929493,0.0
0.014,3.3820602099432007,-1.8592355758795645,10.0,0.0,5.041843166194517,7.653355107498287,105.90865295623543,479.06989877929493,0.0
0.015,3.4721069852858886,-1.899829032412081,10.0,0.0,5.493383198131427,8.044092747085895,113.37727610343421,479.06989877929493,0.0
0.016,3.5596145800153947,-1.9360338400176071,10.0,0.0,5.94241958510469,8.43218525824161,120.68508583176356,479.06989877929493,0.0
0.017,3.645144415105338,-1.9685384477868613,10.0,0.0,6.388575043274759,8.817838951066484,127.83962377537456,479.06989877929493,0.0
0.018000000000000002,3.730251927866576,-1.9959253041084188,10.0,0.0,6.83136783302799,9.201036292373047,134.85405702603322,479.06989877929493,0.0
0.019,3.81544967906247,-2.018253592643655,10.0,0.0,7.270383321112213,9.581672501020332,141.68976328564074,479.06989877929493,0.0
0.02,3.9014648862453374,-2.0350875541282063,10.0,0.0,7.705189334130692,9.959536942333155,148.3432823300447,479.06989877929493,0.0
0.021,3.9891051824829464,-2.0457889559126508,10.0,0.0,8.135310004560049,10.334315260302239,154.92060212100432,479.06989877929493,0.0
0.022,4.079618141396171,-2.0489696811670974,10.0,0.0,8.560139305503519,10.705547790999272,161.01925282597162,479.06989877929493,0.0
0.023,4.171109372430197,-2.048468292080302,10.0,0.0,8.979521969370257,11.072981092896333,166.534238406907,479.06989877929493,0.0
0.024,4.266936196769627,-2.039517194249811,10.0,0.0,9.392730090169543,11.435983292623375,171.8647834235234,479.06989877929493,0.0
0.025,4.367255527950721,-2.0225841458509217,10.0,0.0,9.79914449451603,11.793929226271104,177.02637022703064,479.06989877929493,0.0
0.026000000000000002,4.4734353073349595,-1.9962166741499119,10.0,0.0,10.197980960389518,12.146045424568259,181.63161391243256,479.06989877929493,0.0
0.027,4.582366840795821,-1.966358349113627,10.0,0.0,10.589124658468391,12.491912978736195,185.74793639675826,479.06989877929493,0.0
0.028,4.700058850757774,-1.9240450691803936,10.0,0.0,10.971384864613876,12.830451341534015,189.43662766964098,479.06989877929493,0.0
0.029,4.820934284790598,-1.879137197786803,10.0,0.0,11.344756153370636,13.161242511022618,192.73598774770625,479.06989877929493,0.0
0.03,4.952016225740939,-1.821000614527957,10.0,0.0,11.707923484756042,13.483081433273819,195.59831968863915,479.06989877929493,0.0
0.031,5.086039273572549,-1.7621311371320891,10.0,0.0,12.061063698547066,13.79562148058647,197.80891551030922,479.06989877929493,0.0
0.032,5.230431844273564,-1.6911110488141978,10.0,0.0,12.40292038074925,14.097678592248165,200.4421589734679,479.06989877929493,0.0
0.033,5.380124186618445,-1.6166151787533525,10.0,0.0,12.733312761073865,14.38869342901298,201.91742172589852,479.06989877929493,0.0
0.034,5.537594793894332,-1.535029134414507,10.0,0.0,13.051537880865839,14.667821176756876,203.18880493813168,479.06989877929493,0.0
0.035,5.698947813469154,-1.4530296333491768,10.0,0.0,13.357649178779205,14.934684535625108,203.60405746232266,479.06989877929493,0.0
0.036000000000000004,5.870474243492053,-1.3603000477825025,10.0,0.0,13.65045542338638,15.188218311291084,204.28541056101804,479.06989877929493,0.0
0.037,6.041188711220851,-1.275010780747051,10.0,0.0,13.930879897581198,15.42861600670124,205.2233356988433,479.06989877929493,0.0
0.038,6.228175208801664,-1.168399557236846,10.0,0.0,14.196427351981786,15.654155009933262,200.35169734043586,479.06989877929493,0.0
0.039,6.404895489618571,-1.0845312562500289,10.0,0.0,14.449814560392067,15.86612549236809,209.64773540576442,479.06989877929493,0.0
0.04,6.534612624563911,-1.0851225869390002,10.0,0.0,14.699963825590459,16.069735965364643,218.170241886545,479.06989877929493,0.0
0.041,6.621487035821765,-1.1484636683301073,10.0,0.0,14.952420817214799,16.26974130369247,220.68166573712315,479.06989877929493,0.0
0.042,6.6704785161669795,-1.2647840534085386,10.0,0.0,15.211794475054209,16.47047148862455,233.10654395573727,479.06989877929493,0.0
0.043000000000000003,6.709376245503157,-1.3867642159960276,10.0,0.0,15.477558399636717,16.673277185423842,235.10815372853793,479.06989877929493,0.0
0.044,6.744196093263161,-1.5028656568708394,10.0,0.0,15.74857785831126,16.87893749904121,248.8181267625822,479.06989877929493,0.0
0.045,6.750563942850831,-1.6564343609015326,10.0,0.0,16.02879294551472,17.090781462187255,251.61117095327992,479.06989877929493,0.0
0.046,6.764566527560506,-1.7840489455190416,10.0,0.0,16.314672837580048,17.307985931916857,266.60539535969383,479.06989877929493,0.0
0.047,6.752169677737121,-1.9446655565152717,10.0,0.0,16.610076868775216,17.533561623207692,270.0627790167984,479.06989877929493,0.0
0.048,6.7291903821171735,-2.110358990489937,10.0,0.0,16.91511817760721,17.768523902508925,283.13731951482634,479.06989877929493,0.0
0.049,6.714097190323873,-2.246352557911731,10.0,0.0,17.22645394156277,18.011924542904307,294.70561782835244,479.06989877929493,0.0
0.05,6.666841209228205,-2.4219663531358275,10.0,0.0,17.548953774962747,18.267165921658286,300.1294548425776,479.06989877929493,0.0
0.051000000000000004,6.612335516543512,-2.59336894353628,10.0,0.0,17.88182590988993,18.53465621226123,310.75154600411304,479.06989877929493,0.0
0.052000000000000005,6.568447424188529,-2.726701034625408,10.0,0.0,18.22111236450049,18.81296732052879,322.35703405819294,479.06989877929493,0.0
0.053,6.5036136539679195,-2.8764091099274185,10.0,0.0,18.569435851849082,19.104068797231378,330.9557012510771,479.06989877929493,0.0
0.054,6.434362099984388,-3.0149932598739144,10.0,0.0,18.925784313874168,19.407861808234543,339.4707232587175,479.06989877929493,0.0
0.055,6.370891759459199,-3.1253006473392393,10.0,0.0,19.28762520191878,19.723199586257838,348.00092263299223,479.06989877929493,0.0
0.056,6.314459991163816,-3.2071523724558277,10.0,0.0,19.65271639484943,20.048760466390505,356.29964302226927,479.06989877929493,0.0
0.057,6.266092078485367,-3.262894600420583,10.0,0.0,20.01916768432525,20.383030530514645,362.98468703488817,479.06989877929493,0.0
0.058,6.234656406121481,-3.2830044001420036,10.0,0.0,20.38405550695561,20.723492962007192,368.0316803659419,479.06989877929493,0.0
0.059000000000000004,6.228510489334133,-3.2600491726267444,10.0,0.0,20.743774617448285,21.0667596267365,372.35801287012686,479.06989877929493,0.0
0.06,6.247959954981508,-3.201438289803519,10.0,0.0,21.095630838529225,21.40947063565305,373.88739853789605,479.06989877929493,0.0
0.061,6.298571070969623,-3.1064761741463998,10.0,0.0,21.436712814499675,21.747723437683817,371.47602194372377,479.06989877929493,0.0
0.062,6.38094735961424,-2.982369480030801,10.0,0.0,21.76480975788002,22.077703876517536,366.2922057853833,479.06989877929493,0.0
0.063,6.53566146196873,-2.7695519558602215,10.0,0.0,22.070926190088084,22.39130117743337,372.07145994459506,479.06989877929493,0.0
0.064,6.708566607552835,-2.560747003310555,10.0,0.0,22.35695033962817,22.686677966487718,365.1882535794375,479.06989877929493,0.0
0.065,6.897199383751794,-2.3667028673086685,10.0,0.0,22.62465294768497,22.962098937664592,356.7297130485294,479.06989877929493,0.0
0.066,7.167218997264825,-2.0824440278168583,10.0,0.0,22.863799361069702,23.20893224280502,357.7888817172531,479.06989877929493,0.0
0.067,7.423387055578651,-1.859201647307153,10.0,0.0,23.082000390168847,23.42951856849048,345.1266644280509,479.06989877929493,0.0
0.068,7.736929428236853,-1.5824320316278497,10.0,0.0,23.27222771500701,23.617938384108047,342.9584987314189,479.06989877929493,0.0
0.069,8.04132723792414,-1.3546495884062866,10.0,0.0,23.43998591632552,23.77619061530866,334.2677598047511,479.06989877929493,0.0
0.07,8.395997401416553,-1.0747195592463576,10.0,0.0,23.578279041856877,23.89942370363377,322.7417355360636,479.06989877929493,0.0
0.07100000000000001,8.726669482066718,-0.8579631993863083,10.0,0.0,23.694022264374595,23.99133556844291,337.9106389559309,479.06989877929493,0.0
0.07200000000000001,8.91385728821635,-0.8925675486457335,10.0,0.0,23.81335639313859,24.06834663115294,344.8606079910171,479.06989877929493,0.0
0.073,8.941721008651788,-1.1508071676799903,10.0,0.0,23.95651852989837,24.148396869281978,362.43451347602996,479.06989877929493,0.0
0.074,8.927907180207171,-1.4305443375681337,10.0,0.0,24.121558169292424,24.236556455607346,368.59250641149885,479.06989877929493,0.0
0.075,8.859340450140312,-1.7499202918046703,10.0,0.0,24.31124378664675,24.33980824926249,387.10067316750514,479.06989877929493,0.0
0.076,8.767176841935807,-2.0562826706616475,10.0,0.0,24.52279212376306,24.461155754889383,396.7190369145668,479.06989877929493,0.0
0.077,8.62162972262067,-2.4016532593838043,10.0,0.0,24.76024751870129,24.606611890707832,408.83095327273656,479.06989877929493,0.0
0.078,8.47560200325128,-2.694417929744825,10.0,0.0,25.017253395580042,24.77587553037574,428.2762610097064,479.06989877929493,0.0
0.079,8.289593068490031,-3.001970310780605,10.0,0.0,25.296388163948027,24.972914099394785,438.0404594767293,479.06989877929493,0.0
0.08,8.078425759776728,-3.30171273584331,10.0,0.0,25.597209455327665,25.19953060295957,447.87571303424875,479.06989877929493,0.0
0.081,7.882675762310951,-3.525181384717318,10.0,0.0,25.912194395051316,25.45298841193994,460.26934286159303,479.06989877929493,0.0
0.082,7.687097883672571,-3.703693402600396,10.0,0.0,26.238428257179056,25.732155000670204,470.03446400235384,479.06989877929493,0.0
0.083,7.512516260295773,-3.813976142857688,10.0,0.0,26.570301373216505,26.033276516525277,477.918982155292,479.06989877929493,0.0
0.084,7.3689562950047955,-3.855399170081403,7.219942041525534,0.0,26.90255303482776,26.04571259691464,476.09516515025774,479.06989877929493,0.0
0.085,7.134163490797526,-3.7381584026319756,8.161597880333028,0.0,27.18951242362515,26.245904566089642,469.8762699269113,479.06989877929493,0.0
0.08600000000000001,7.026860135827385,-3.530615064089232,10.0,0.0,27.4461377108951,26.657036393006837,470.07843002044166,479.06989877929493,0.0
0.08700000000000001,7.125625986635527,-3.288579775365703,10.0,0.0,27.6936652037556,27.022396267624018,472.40662623037394,479.06989877929493,0.0
0.088,7.301730470929757,-3.032545900026776,10.0,0.0,27.927232561391744,27.35758906930127,457.20029387896983,479.06989877929493,0.0
0.089,7.5461000204249356,-2.7426696837198645,10.0,0.0,28.141636418391613,27.657499720972872,444.4904179143568,479.06989877929493,0.0
0.09,7.896662950227355,-2.3489737138001843,10.0,0.0,28.32418316033056,27.912741466393978,443.37535513893795,479.06989877929493,0.0
0.091,8.252974849710196,-2.010939946710309,10.0,0.0,28.48075264793703,28.12502503182179,422.7746172217256,479.06989877929493,0.0
0.092,8.686652509642617,-1.614916978569871,10.0,0.0,28.60271135450108,28.28759576586972,417.4830378618277,479.06989877929493,0.0
0.093,9.125577122328536,-1.2687429515474031,10.0,0.0,28.694612350522466,28.402160366373145,401.47228657721655,479.06989877929493,0.0
0.094,9.620080970572685,-0.8820024542078744,10.0,0.0,28.74969999255493,28.464452429248375,399.8572584070282,479.06989877929493,0.0
0.095,10.02241605832502,-0.6879359265543834,10.0,0.0,28.788028163603165,28.486712228868996,416.76126229277946,479.06989877929493,0.0
0.096,10.152092964660586,-0.9175309187958778,10.0,0.0,28.851945611931765,28.500337756813003,426.7703313276315,479.06989877929493,0.0
0.097,10.120175469589881,-1.3332334603352214,10.0,0.0,28.95426519786881,28.523800170316605,443.2172388702357,479.06989877929493,0.0
0.098,10.019146795344126,-1.7732670172653409,10.0,0.0,29.09294573240942,28.565942280279863,462.5755992952745,479.06989877929493,0.0
0.099,9.841709684043478,-2.246404131808679,10.0,0.0,29.269617171522768,28.636246028201484,475.9051448917586,479.06989877929493,0.0
0.1,9.628437651011193,-2.683031141732948,9.006852663738947,0.0,29.47894944146318,28.6296258907741,498.03895659031474,479.06989877929493,0.0
0.101,9.308720504365018,-3.0893365935273747,-2.249743763649322,0.0,29.707013800264956,27.449343026234146,500.42609538124805,479.06989877929493,0.0
0.10200000000000001,8.363020025801536,-3.1591992691621127,-3.6568751251355067,0.0,29.797865276534424,26.468506279714298,502.8324500060151,479.06989877929493,0.0
0.10300000000000001,7.344690897551983,-3.0790445212637803,-5.097677949786239,0.0,29.772032281499815,25.55298055769847,502.9607879898044,479.06989877929493,0.0
0.10400000000000001,6.37344626616813,-2.916493434514273,-5.400755833785966,0.0,29.640150941703613,24.804147187557035,499.23241618297556,479.06989877929493,0.0
0.105,5.5592011841904,-2.7045981403825405,-3.738195104408363,0.0,29.424891427385898,24.382775992225373,492.4651982893984,479.06989877929493,0.0
0.106,5.013861241115649,-2.507116257152776,-0.4885391527208274,0.0,29.169416690752826,24.374697455305398,484.6876384995404,479.06989877929493,0.0
0.107,4.81826653232902,-2.3578534395684034,3.3440633450057193,0.0,28.92423748298907,24.74703103218294,476.2458285141691,479.06989877929493,0.0
0.108,4.965757503978393,-2.27549481695647,7.593209040342639,0.0,28.733242733377985,25.468513378136855,469.8579411260463,479.06989877929493,0.0
0.109,5.445601378125879,-2.230694313147639,10.0,0.0,28.629391224130543,26.269695646703486,471.6927265733281,479.06989877929493,0.0
0.11,6.084967092718685,-2.205222003924569,10.0,0.0,28.61368914368806,26.890774838028396,459.7173288272901,479.06989877929493,0.0
0.111,6.7028383925348916,-2.1353490409720135,10.0,0.0,28.654233887589776,27.386603716342705,444.7591718322966,479.06989877929493,0.0
0.112,7.340442804910571,-1.906857626309347,10.0,0.0,28.715871718949384,27.772946408852608,442.60930926345054,479.06989877929493,0.0
0.113,7.916084130746004,-1.6716890706169822,10.0,0.0,28.78639640944447,28.069874113529313,422.452955449928,479.06989877929493,0.0
0.114,8.495160656800348,-1.3643449013566906,10.0,0.0,28.84810522829602,28.286219512180256,416.34816351449024,479.06989877929493,0.0
0.115,9.03994797336082,-1.0739719580869278,10.0,0.0,28.896410123060434,28.43296541329015,400.8407012365157,479.06989877929493,0.0
0.116,9.605448681741517,-0.7296427292013705,10.0,0.0,28.919586632714697,28.513110009009225,402.23039412574786,479.06989877929493,0.0
0.117,10.01404381603759,-0.6330849762316211,10.0,0.0,28.9412818904376,28.54826733843304,417.7963953858794,479.06989877929493,0.0
0.11800000000000001,10.10386984379495,-0.9832359288429622,10.0,0.0,29.00380553764757,28.57628354897645,434.4674098105405,479.06989877929493,0.0
0.11900000000000001,10.099076351305257,-1.3832115295387988,10.0,0.0,29.103374247741286,28.60917604763793,449.08765215520594,479.06989877929493,0.0
0.12,9.977602904872143,-1.8691136664086372,10.0,0.0,29.24572481574051,28.66205031162538,464.6841195434374,479.06989877929493,0.0
0.121,9.815966662071805,-2.315215348254341,10.0,0.0,29.423339916972875,28.740437458257706,487.8283046672078,479.06989877929493,0.0
0.122,9.576468194274636,-2.7890324104289133,2.5006205473261884,0.0,29.63869108276601,28.028544129585615,493.0005977288007,479.06989877929493,0.0
0.123,8.908926269706539,-3.0200086456023136,-0.22483297296530935,0.0,29.78198701435993,27.255603784679234,500.8998467739415,479.06989877929493,0.0
0.124,8.069358373138002,-3.1001711915541597,-4.392756975482164,0.0,29.840167436006794,26.2287470117258,503.9040822424867,479.06989877929493,0.0
0.125,7.068676378310516,-3.020015356720709,-6.143216544386697,0.0,29.78022537090243,25.26120198614341,502.1762808096367,479.06989877929493,0.0
0.126,6.097982320981257,-2.8283575484445365,-5.510379648265108,0.0,29.609242209188224,24.56830343722919,497.218559052438,479.06989877929493,0.0
0.127,5.328834511656943,-2.611809120839073,-3.2130053723972036,0.0,29.364163759800174,24.248878546871595,489.9044785980121,479.06989877929493,0.0
0.128,4.867065686681536,-2.4273735432596877,0.33568905662859816,0.0,29.09352823705748,24.34737403769917,482.10760283074507,479.06989877929493,0.0
0.129,4.765569217994837,-2.3017516155861255,4.203749899747603,0.0,28.847831759403523,24.805503098928334,473.4514333076789,479.06989877929493,0.0
0.13,4.998301787052833,-2.2394949496321908,8.588019315996855,0.0,28.66692582165969,25.61022308634217,469.7275489701148,479.06989877929493,0.0
0.131,5.5554517457859545,-2.213548968713013,10.0,0.0,28.582350985190047,26.368896492548032,471.9858504803128,479.06989877929493,0.0
0.132,6.201226518134939,-2.186696504665477,9.474207011104095,0.0,28.579406661751925,26.905824313496694,454.59546182443216,479.06989877929493,0.0
0.133,6.796118672429353,-2.0786691017372405,10.0,0.0,28.618835063070826,27.3928796894253,443.73602501154755,479.06989877929493,0.0
0.134,7.431352968608769,-1.8318412093085183,10.0,0.0,28.676955367712846,27.765987586967178,437.7113368300019,479.06989877929493,0.0
0.135,7.994553712727986,-1.6113300466371567,10.0,0.0,28.74478648267528,28.051996986327758,420.617531728018,479.06989877929493,0.0
0.136,8.587552337661828,-1.2836315875781625,10.0,0.0,28.800593707207756,28.256590715946995,409.02419242388737,479.06989877929493,0.0
0.137,9.125358197637757,-1.0075360461846854,10.0,0.0,28.844186057286215,28.393077136709536,400.2516203322564,479.06989877929493,0.0
0.138,9.691044285617226,-0.6666697331901026,10.0,0.0,28.86233347541761,28.463426739325687,404.7747696968424,479.06989877929493,0.0
0.139,10.017370688563012,-0.7034326464390709,10.0,0.0,28.89315369558481,28.49831708004912,420.5882784040017,479.06989877929493,0.0
0.14,10.105787014704294,-1.0354526709166114,10.0,0.0,28.960535501367673,28.526337876870848,434.76274204723643,479.06989877929493,0.0
0.14100000000000001,10.05305855156739,-1.4952328114505722,10.0,0.0,29.071236821468382,28.564979068795157,451.0808425874072,479.06989877929493,0.0
0.14200000000000002,9.947886553060126,-1.933284532300443,10.0,0.0,29.218320016639602,28.621867908741542,470.8332446841212,479.06989877929493,0.0
0.14300000000000002,9.748586125174734,-2.424058292279428,10.0,0.0,29.405988372677527,28.70864751129273,483.6869403713558,479.06989877929493,0.0
0.14400000000000002,9.5191605769862,-2.862984089101527,4.2939859529940865,0.0,29.626941953417422,28.201098250043824,497.55543638219723,479.06989877929493,0.0
0.145,8.936633434594631,-3.140029332189631,-2.8251174284556635,0.0,29.801130968729908,27.102141771685574,502.2415356905628,479.06989877929493,0.0
0.146,7.961207378965041,-3.1432990741189446,-5.39988345175112,0.0,29.845594653856654,26.019938208641726,503.6971687263837,479.06989877929493,0.0
