timestamp,iq,id,iq_ref,id_ref,vq,vd,omega,omega_ref,r
0.0,0.0,0.0,0.0,0.0,0.0,0.0,0.0,220.21548056384012,0.0
0.001,0.0,0.0,10.0,0.0,0.0,1.0999999999999999,6.115472199294103,220.21548056384012,0.0
0.002,0.5307369851907212,-0.2913212625381807,10.0,0.0,0.14204533887919985,1.9316189316290207,13.317801563642547,220.21548056384012,0.0
0.003,1.0842913387634832,-0.6024330830807904,10.0,0.0,0.384357124667687,2.6386968949419622,20.697939467553027,220.21548056384012,0.0
0.004,1.5590443546685477,-0.8700465084428163,10.0,0.0,0.6994718867930164,3.2526109522886295,28.232747544420146,220.21548056384012,0.0
0.005,1.9399447555359186,-1.0838738622210777,10.0,0.0,1.065311453102468,3.7994935661768023,35.92944872443006,220.21548056384012,0.0
0.006,2.239750732602683,-1.2510087368845633,10.0,0.0,1.4655018868449925,4.299102221838433,43.75633668444442,220.21548056384012,0.0
0.007,2.4770151619816017,-1.382020589851471,10.0,0.0,1.8883740978591532,4.765668027847139,51.58766747378032,220.21548056384012,0.0
0.008,2.6680767290418097,-1.4872241871505252,10.0,0.0,2.325877945545995,5.209220346273558,59.45942083902103,220.21548056384012,0.0
0.009000000000000001,2.8266491704841292,-1.5730794701170803,10.0,0.0,2.772378685460125,5.636635464737965,67.35059094018146,220.21548056384012,0.0
0.01,2.962077666392183,-1.645500646948331,10.0,0.0,3.224078639851053,6.052647735211881,75.20908322432116,220.21548056384012,0.0
0.011,3.0811061533574158,-1.7084279320504514,10.0,0.0,3.678407615443203,6.460489925470405,83.0265951655913,220.21548056384012,0.0
0.012,3.188848746459569,-1.7638278597420747,10.0,0.0,4.133552631697047,6.862319393890706,90.74118064793086,220.21548056384012,0.0
0.013000000000000001,3.288205119878689,-1.8140726097274587,10.0,0.0,4.588339016389012,7.259628641949282,98.35820682563939,220.21548056384012,0.0
0.014,3.3820602099432007,-1.8592355758795645,10.0,0.0,5.041843166194517,7.653355107498287,105.90865295623543,220.21548056384012,0.0
0.015,3.4721069852858886,-1.899829032412081,10.0,0.0,5.493383198131427,8.044092747085895,113.37727610343421,220.21548056384012,0.0
0.016,3.5596145800153947,-1.9360338400176071,10.0,0.0,5.94241958510469,8.43218525824161,120.68508583176356,220.21548056384012,0.0
0.017,3.645144415105338,-1.9685384477868613,10.0,0.0,6.388575043274759,8.817838951066484,127.83962377537456,220.21548056384012,0.0
0.018000000000000002,3.730251927866576,-1.9959253041084188,10.0,0.0,6.83136783302799,9.201036292373047,134.85405702603322,220.21548056384012,0.0
0.019,3.81544967906247,-2.018253592643655,10.0,0.0,7.270383321112213,9.581672501020332,141.68976328564074,220.21548056384012,0.0
0.02,3.9014648862453374,-2.0350875541282063,10.0,0.0,7.705189334130692,9.959536942333155,148.3432823300447,220.21548056384012,0.0
0.021,3.9891051824829464,-2.0457889559126508,10.0,0.0,8.135310004560049,10.334315260302239,154.92060212100432,220.21548056384012,0.0
0.022,4.079618141396171,-2.0489696811670974,10.0,0.0,8.560139305503519,10.705547790999272,161.01925282597162,220.21548056384012,0.0
0.023,4.171109372430197,-2.048468292080302,10.0,0.0,8.979521969370257,11.072981092896333,166.534238406907,220.21548056384012,0.0
0.024,4.266936196769627,-2.039517194249811,10.0,0.0,9.392730090169543,11.435983292623375,171.8647834235234,220.21548056384012,0.0
0.025,4.367255527950721,-2.0225841458509217,10.0,0.0,9.79914449451603,11.793929226271104,177.02637022703064,220.21548056384012,0.0
0.026000000000000002,4.4734353073349595,-1.9962166741499119,10.0,0.0,10.197980960389518,12.146045424568259,181.63161391243256,220.21548056384012,0.0
0.027,4.582366840795821,-1.966358349113627,10.0,0.0,10.589124658468391,12.491912978736195,185.74793639675826,220.21548056384012,0.0
0.028,4.700058850757774,-1.9240450691803936,10.0,0.0,10.971384864613876,12.830451341534015,189.43662766964098,220.21548056384012,0.0
0.029,4.820934284790598,-1.879137197786803,10.0,0.0,11.344756153370636,13.161242511022618,192.73598774770625,220.21548056384012,0.0
0.03,4.952016225740939,-1.821000614527957,10.0,0.0,11.707923484756042,13.483081433273819,195.59831968863915,220.21548056384012,0.0
0.031,5.086039273572549,-1.7621311371320891,10.0,0.0,12.061063698547066,13.79562148058647,197.80891551030922,220.21548056384012,0.0
0.032,5.230431844273564,-1.6911110488141978,10.0,0.0,12.40292038074925,14.097678592248165,200.4421589734679,220.21548056384012,0.0
0.033,5.380124186618445,-1.6166151787533525,10.0,0.0,12.733312761073865,14.38869342901298,201.91742172589852,220.21548056384012,0.0
0.034,5.537594793894332,-1.535029134414507,10.0,0.0,13.051537880865839,14.667821176756876,203.18880493813168,220.21548056384012,0.0
0.035,5.698947813469154,-1.4530296333491768,10.0,0.0,13.357649178779205,14.934684535625108,203.60405746232266,220.21548056384012,0.0
0.036000000000000004,5.870474243492053,-1.3603000477825025,10.0,0.0,13.65045542338638,15.188218311291084,204.28541056101804,220.21548056384012,0.0
0.037,6.041188711220851,-1.275010780747051,10.0,0.0,13.930879897581198,15.42861600670124,205.2233356988433,220.21548056384012,0.0
0.038,6.228175208801664,-1.168399557236846,10.0,0.0,14.196427351981786,15.654155009933262,200.35169734043586,220.21548056384012,0.0
0.039,6.404895489618571,-1.0845312562500289,10.0,0.0,14.449814560392067,15.86612549236809,209.64773540576442,220.21548056384012,0.0
0.04,6.534612624563911,-1.0851225869390002,10.0,0.0,14.699963825590459,16.069735965364643,218.170241886545,220.21548056384012,0.0
0.041,6.621487035821765,-1.1484636683301073,6.163976032190453,0.0,14.952420817214797,15.847778667233415,217.25784477865025,220.21548056384012,0.0
0.042,6.467714457194877,-1.157200925586511,6.649750943989725,0.0,15.15776406734787,15.782842005815297,227.23644715019154,220.21548056384012,0.0
0.043000000000000003,6.308540257127619,-1.1988907968429996,1.5902400923555682,0.0,15.34057783959148,15.199500828975685,225.7300015968291,220.21548056384012,0.0
0.044,5.911578146083233,-1.1038435951468397,2.288317658706891,0.0,15.435904026027625,14.862232878073588,230.54958232518405,220.21548056384012,0.0
0.045,5.541006475455141,-1.0778114224536326,-0.22481372308401593,0.0,15.486057731750652,14.32159237590345,229.80005354158152,220.21548056384012,0.0
0.046,5.113603255614364,-0.9903236898890238,0.054104938939834035,0.0,15.467768687829183,13.939152298639359,232.2560257807513,220.21548056384012,0.0
0.047,4.73602297270252,-0.9650256488629583,-1.2942866328141616,0.0,15.41115663338624,13.47927486411825,231.65339496450468,220.21548056384012,0.0
0.048,4.359872423764779,-0.9222045533364831,-1.1073503686975057,0.0,15.30976070083783,13.13137162992937,232.6247414852399,220.21548056384012,0.0
0.049,4.041077757571574,-0.9161528445484146,-1.7171162382791083,0.0,15.183476561113936,12.770481425401254,232.4407947068936,220.21548056384012,0.0
0.05,3.744932706409105,-0.9136240678875718,-1.7473959905364955,0.0,15.03351416656482,12.465206722267016,232.2765955180374,220.21548056384012,0.0
0.051000000000000004,3.4886792314638653,-0.9251626158280624,-1.7859075456503666,0.0,14.869315069197253,12.19675620818369,231.83574407107068,220.21548056384012,0.0
0.052000000000000005,3.2683376854310273,-0.946610547788133,-1.6816844572393137,0.0,14.696934717194312,11.97225552636245,231.26010690601314,220.21548056384012,0.0
0.053,3.084902415153826,-0.9768035267006924,-1.5043121381322724,0.0,14.522449080570318,11.789410066010868,230.61203751712765,220.21548056384012,0.0
0.054,2.9362575284619323,-1.0139524938900717,-1.2842430132224028,0.0,14.350911918175274,11.644351053414397,229.9087394274416,220.21548056384012,0.0
0.055,2.8187692120954844,-1.055632433575279,-1.0295265570153882,0.0,14.186235874453565,11.53389961070513,229.1832177836024,220.21548056384012,0.0
0.056,2.728920573447386,-1.0994890087177829,-0.7564431072934177,0.0,14.031389714701927,11.454226189889592,228.51705239588438,220.21548056384012,0.0
0.057,2.663368352580788,-1.1428424635646564,-0.5063761317548483,0.0,13.888391143125624,11.398124285901316,227.99652035575065,220.21548056384012,0.0
0.058,2.617337556302594,-1.1824163435081037,-0.3239205096070883,0.0,13.75800183055344,11.355310029217039,227.30926541245475,220.21548056384012,0.0
0.059000000000000004,2.582892527236128,-1.2168164271666693,-0.051230886445285506,0.0,13.639758293973053,11.335238214504823,226.30246777762756,220.21548056384012,0.0
0.06,2.5625841404569822,-1.2474564409301263,0.39129805883043733,0.0,13.534358330256872,11.353189987609534,225.29067535618194,220.21548056384012,0.0
0.061,2.565001248758474,-1.2784062875044855,0.8464423216298287,0.0,13.44439162320833,11.403978200706383,224.0186153050439,220.21548056384012,0.0
0.062,2.5917719973651043,-1.307067671765465,1.4444409997868042,0.0,13.371343661977292,11.498998722494251,223.08139600628596,220.21548056384012,0.0
0.063,2.6487981487509478,-1.3351237980770085,1.8843914947413216,0.0,13.317902109099808,11.61362179447728,222.7074108133718,220.21548056384012,0.0
0.064,2.7246136366059077,-1.358907481803947,2.0464647887030787,0.0,13.283602662655214,11.71709751921032,223.97463803243693,220.21548056384012,0.0
0.065,2.801824185380058,-1.367708718327123,1.375259604484551,0.0,13.263811032508674,11.72360741813533,223.96518753014013,220.21548056384012,0.0
0.066,2.8203317845822222,-1.361551185961822,1.3424877859699516,0.0,13.245884214343867,11.72933058553427,219.75471719005841,220.21548056384012,0.0
0.067,2.8344350313327142,-1.323091115206075,3.452330589748625,0.0,13.226153362275952,11.9637328998271,218.1134454089937,220.21548056384012,0.0
0.068,2.966272519568583,-1.3173110315207244,4.293986831829447,0.0,13.231584618346286,12.229844564836522,221.48067754559602,220.21548056384012,0.0
0.069,3.1422408173412797,-1.3422293341503542,2.597718793710725,0.0,13.265882729436644,12.256844004465531,220.0589743236555,220.21548056384012,0.0
0.07,3.209958414160014,-1.322645278889569,3.310135467082838,0.0,13.29704754427588,12.374212573020454,214.10567823296026,220.21548056384012,0.0
0.07100000000000001,3.3056705409340017,-1.276253617255371,6.347881535739253,0.0,13.331925492259533,12.800137509045348,218.87092297867758,220.21548056384012,0.0
0.07200000000000001,3.561119908645504,-1.2946428389953386,3.9787047387322163,0.0,13.408394870055048,12.868828528728255,218.6047165017564,220.21548056384012,0.0
0.073,3.675310298672624,-1.2762882702283533,4.127915617813645,0.0,13.481883517257534,12.968395899665577,211.94650593582128,220.21548056384012,0.0
0.074,3.7868792439477232,-1.204833312513383,7.539710647061394,0.0,13.55030353717253,13.428030062575868,218.00817970621193,220.21548056384012,0.0
0.075,4.065279971296768,-1.2178836433669535,4.530946770442348,0.0,13.659995057358097,13.45395244391041,212.85327622122253,220.21548056384012,0.0
0.076,4.177130635028759,-1.1704746041220564,7.182020556363226,0.0,13.755964166033086,13.800437928610517,214.78281242753673,220.21548056384012,0.0
0.077,4.42162833359037,-1.1294918301961663,6.271579134569162,0.0,13.872950897571183,13.969436241247092,212.49569175556528,220.21548056384012,0.0
0.078,4.591420119676124,-1.104094228552658,7.492337358637636,0.0,13.992754878777605,14.260389095155482,212.88963948541814,220.21548056384012,0.0
0.079,4.8370840824198895,-1.0475114045722578,7.368621904495422,0.0,14.123703612632815,14.483085661556386,210.14356930681902,220.21548056384012,0.0
0.08,5.03968229509562,-1.0259323030211263,8.842376106365196,0.0,14.262019256811772,14.84012839768292,212.61188985293387,220.21548056384012,0.0
0.081,5.331090929795212,-0.9884689964587821,7.684251740416832,0.0,14.418302437479145,15.003138234651495,206.8324570544974,220.21548056384012,0.0
0.082,5.5385038206723385,-0.93267535693965,10.0,0.0,14.569495616495153,15.411887626554085,210.693351440947,220.21548056384012,0.0
0.083,5.845367643658065,-0.9233098746900238,8.858416505238058,0.0,14.745972150147551,15.614468838528717,209.6440257724753,220.21548056384012,0.0
0.084,6.105615595570946,-0.8457217666111085,9.48879388738756,0.0,14.916618114565988,15.869638293174626,210.66147965978703,220.21548056384012,0.0
0.085,6.3054656560345155,-0.8843909589768919,9.075606952772219,0.0,15.1007459202482,16.045220035036742,221.18227005848908,220.21548056384012,0.0
0.08600000000000001,6.412674148006212,-0.9886977568073241,3.8055438584747048,0.0,15.295106175386088,15.636286878742045,220.41872052788463,220.21548056384012,0.0
0.08700000000000001,6.204490511158521,-0.9581885470763116,4.185286224136485,0.0,15.424738008332007,15.406127639729341,224.2649046982892,220.21548056384012,0.0
0.088,5.954518700195278,-0.9794782513398603,2.2216998975897093,0.0,15.521037693648362,15.017570651173216,227.68590824965412,220.21548056384012,0.0
0.089,5.64858438925203,-0.9316943189662,0.4364938450491094,0.0,15.563382581973727,14.531915583584464,227.78579832997022,220.21548056384012,0.0
0.09,5.252267816252719,-0.8992105054717282,0.3108456272297584,0.0,15.549832094547028,14.143626748072895,229.49939811469687,220.21548056384012,0.0
0.091,4.903957669952725,-0.8646793920600445,-0.6387934406421367,0.0,15.495334187971503,13.723958882445103,230.27299876520817,220.21548056384012,0.0
0.092,4.550254877136201,-0.8515473797043833,-1.1261689479114665,0.0,15.403220075265747,13.332117303348443,230.5106157845483,220.21548056384012,0.0
0.093,4.224806726732494,-0.8387458779205075,-1.3479288097886086,0.0,15.279856370848227,12.982990909773333,231.0487112130377,220.21548056384012,0.0
0.094,3.9311804393495353,-0.8461883309728054,-1.7253088305252913,0.0,15.134863082368541,12.646190991559802,230.8865056175415,220.21548056384012,0.0
0.095,3.6616318666085217,-0.8579602566880667,-1.7509162833142033,0.0,14.971909618213632,12.356242796847926,230.61661430987252,220.21548056384012,0.0
0.096,3.426783710001916,-0.8808085636966099,-1.719981966940035,0.0,14.798652275516808,12.10579073602011,230.1570460266758,220.21548056384012,0.0
0.097,3.226110653127092,-0.9126268519501852,-1.5896134799700334,0.0,14.620946989644692,11.896814892098515,229.61230198577042,220.21548056384012,0.0
0.098,3.0596370141804607,-0.9513456085921472,-1.4112096737366442,0.0,14.444055528315706,11.725592207513222,229.03313236986017,220.21548056384012,0.0
0.099,2.923900153537975,-0.995513282223491,-1.2098013838417216,0.0,14.27220220119412,11.587439837360876,228.38282235011522,220.21548056384012,0.0
0.1,2.8149264783390056,-1.0421816768298067,-0.9663197918319977,0.0,14.10841081643984,11.481315999399188,227.7087431488345,220.21548056384012,0.0
0.101,2.7302811523443262,-1.0895923146532263,-0.7042128170415749,0.0,13.95513467257933,11.40404360717251,227.10678781322068,220.21548056384012,0.0
0.10200000000000001,2.667510043656508,-1.135453031188296,-0.47214822172847626,0.0,13.81402947632283,11.348135244214708,226.61967060844196,220.21548056384012,0.0
0.10300000000000001,2.6219876198454717,-1.1768474845567223,-0.29263151978513857,0.0,13.685538746101376,11.305513144720003,226.04525405861335,220.21548056384012,0.0
0.10400000000000001,2.5875488993789926,-1.2121213506656687,-0.06372097981856495,0.0,13.569101059690894,11.281022209542712,225.09648935504237,220.21548056384012,0.0
0.105,2.5640719977213857,-1.2433887010284805,0.36185128405490596,0.0,13.464944718282553,11.294098514846192,224.11516116937645,220.21548056384012,0.0
0.106,2.5626502940465627,-1.2737932352202828,0.8135185708325006,0.0,13.375543466802863,11.340800852772947,222.93466925434032,220.21548056384012,0.0
0.107,2.585138077962016,-1.3029712365189443,1.3765726414455628,0.0,13.302658109064751,11.42882423339127,221.94850231818887,220.21548056384012,0.0
0.108,2.6365224521989257,-1.3310086250129696,1.8523258919777996,0.0,13.24865595788364,11.542031653699453,221.46913795289151,220.21548056384012,0.0
0.109,2.7094353858821147,-1.3553401785376629,2.0794715007359637,0.0,13.213770860854234,11.651240022354006,222.81778662121485,220.21548056384012,0.0
0.11,2.787284926759269,-1.367999144164826,1.3791241060005492,0.0,13.194444281076969,11.658895054772035,223.05520030881033,220.21548056384012,0.0
0.111,2.8062810089823946,-1.3635911236347764,1.232020064753108,0.0,13.177204390604652,11.65336288174489,218.9351608972677,220.21548056384012,0.0
0.112,2.8135762237156037,-1.3248206661243804,3.3048429671901425,0.0,13.156914601756009,11.875528983855357,217.03990862631076,220.21548056384012,0.0
0.113,2.9358266786960883,-1.3178671119841758,4.2842248220439085,0.0,13.160493215622964,12.14707867397894,220.52473669806358,220.21548056384012,0.0
0.114,3.111872114009844,-1.3426358543221621,2.538718224825266,0.0,13.193663034314158,12.171889218899562,219.6683096810628,220.21548056384012,0.0
0.115,3.1764952469760637,-1.3256901482571404,2.972403442153431,0.0,13.223885210537759,12.257348040802373,213.77166398200535,220.21548056384012,0.0
0.116,3.25375405845375,-1.2754568075186947,5.985164457500502,0.0,13.254274840908709,12.656497819719283,217.28095613496814,220.21548056384012,0.0
0.117,3.4912086620548637,-1.2851372788137927,4.259863625307828,0.0,13.323107671384093,12.773513463805582,218.54201382852307,220.21548056384012,0.0
0.11800000000000001,3.6237490473138205,-1.27585702297508,3.646069445883533,0.0,13.39564115036537,12.823241578773578,212.0700900288459,220.21548056384012,0.0
0.11900000000000001,3.712701889552218,-1.2036316403044074,6.963485251072061,0.0,13.458042103409921,13.237844501714237,215.87769439359505,220.21548056384012,0.0
0.12,3.9644525623446154,-1.202570030595568,5.103060930399935,0.0,13.55626873020282,13.352603348754691,213.33459643029587,220.21548056384012,0.0
0.121,4.1086647136432575,-1.1775700054608562,6.4434187533849645,0.0,13.653409192352745,13.61840674759054,212.03683245151498,220.21548056384012,0.0
0.122,4.3254785857622515,-1.1238503096665196,7.174087223898663,0.0,13.761756781885232,13.911906401864345,213.6858333979899,220.21548056384012,0.0
0.123,4.547247791639458,-1.1230462341315157,6.414883222319701,0.0,13.889068326540949,14.0738452508599,208.5837347314166,220.21548056384012,0.0
0.124,4.7419606195612864,-1.0500905297996033,9.082250013930592,0.0,14.011825514909484,14.514123037501825,212.97284791902328,220.21548056384012,0.0
0.125,5.034423568469115,-1.0712287667597904,6.960119746575419,0.0,14.1693895262143,14.632316970890592,208.3075749114349,220.21548056384012,0.0
0.126,5.237391988792962,-0.9869608035680502,9.411835306893664,0.0,14.313535671406814,15.025956029632976,209.85533074568292,220.21548056384012,0.0
0.127,5.514392111856109,-0.989976138980055,8.741558887951225,0.0,14.48380547448156,15.267957905999818,210.96186502492446,220.21548056384012,0.0
0.128,5.778342629254175,-0.9265367190242171,8.280827903719608,0.0,14.654239995336246,15.432544375278233,203.50103441858832,220.21548056384012,0.0
0.129,5.981169649829563,-0.8593654073960324,10.0,0.0,14.817335260953767,15.771760423058133,210.72196045930875,220.21548056384012,0.0
0.13,6.233724722526224,-0.8695258629958573,8.619292095658494,0.0,14.999831968019787,15.898542014390538,217.7778140993941,220.21548056384012,0.0
0.131,6.350884943666675,-0.9291680282288035,5.115741940260275,0.0,15.183216197132076,15.648949605647442,217.1341583253803,220.21548056384012,0.0
0.132,6.213901232730306,-0.9458424088695057,5.468383049651777,0.0,15.32454052267697,15.532720694691335,224.99857646373593,220.21548056384012,0.0
0.133,6.052291508927623,-0.9951847611132898,1.4883430214750026,0.0,15.445370439512171,15.017323525700895,224.6306537425967,220.21548056384012,0.0
0.134,5.7080790854225025,-0.9283779670128227,1.6281526502570483,0.0,15.49473547689132,14.656975794088345,227.06568366293902,220.21548056384012,0.0
0.135,5.360110763360865,-0.9154570594698308,0.3421356590949012,0.0,15.502376005482576,14.229573765251041,228.23401089251468,220.21548056384012,0.0
0.136,5.008363534337697,-0.871133597021251,-0.3222132589796707,0.0,15.461765906537064,13.820670293051943,229.42848750570008,220.21548056384012,0.0
0.137,4.653715707233157,-0.8595852925729238,-1.0115816349909705,0.0,15.383499391401358,13.414902914688973,229.53898828256817,220.21548056384012,0.0
0.138,4.320249510177528,-0.8395058148820229,-1.1600671006122978,0.0,15.270389530441413,13.06558070859557,230.25340458431836,220.21548056384012,0.0
