timestamp,iq,id,iq_ref,id_ref,vq,vd,omega,omega_ref,r
0.0,0.0,0.0,0.0,0.0,0.0,0.0,0.0,89.34220150487626,0.0
0.001,0.0,0.0,10.0,0.0,0.0,1.0999999999999999,6.115472199294103,89.34220150487626,0.0
0.002,0.5307369851907212,-0.2913212625381807,10.0,0.0,0.14204533887919985,1.9316189316290207,13.317801563642547,89.34220150487626,0.0
0.003,1.0842913387634832,-0.6024330830807904,10.0,0.0,0.384357124667687,2.6386968949419622,20.697939467553027,89.34220150487626,0.0
0.004,1.5590443546685477,-0.8700465084428163,10.0,0.0,0.6994718867930164,3.2526109522886295,28.232747544420146,89.34220150487626,0.0
0.005,1.9399447555359186,-1.0838738622210777,10.0,0.0,1.065311453102468,3.7994935661768023,35.92944872443006,89.34220150487626,0.0
0.006,2.239750732602683,-1.2510087368845633,10.0,0.0,1.4655018868449925,4.299102221838433,43.75633668444442,89.34220150487626,0.0
0.007,2.4770151619816017,-1.382020589851471,10.0,0.0,1.8883740978591532,4.765668027847139,51.58766747378032,89.34220150487626,0.0
0.008,2.6680767290418097,-1.4872241871505252,10.0,0.0,2.325877945545995,5.209220346273558,59.45942083902103,89.34220150487626,0.0
0.009000000000000001,2.8266491704841292,-1.5730794701170803,10.0,0.0,2.772378685460125,5.636635464737965,67.35059094018146,89.34220150487626,0.0
0.01,2.962077666392183,-1.645500646948331,10.0,0.0,3.224078639851053,6.052647735211881,75.20908322432116,89.34220150487626,0.0
0.011,3.0811061533574158,-1.7084279320504514,8.935752779446034,0.0,3.678407615443203,6.343422731209471,82.32206106870447,89.34220150487626,0.0
0.012,3.1327571068706352,-1.7332571589921222,5.449465261616098,0.0,4.118483135188458,6.273212650393957,87.05166099885754,89.34220150487626,0.0
0.013000000000000001,2.9915099097542397,-1.6488211151527807,3.1075707015997485,0.0,4.497993837785893,6.047339304428957,89.90203358603142,89.34220150487626,0.0
0.014,2.7239181242030996,-1.4889355585511221,1.6767860872012572,0.0,4.8002230847392955,5.776059625775994,91.89709616021851,89.34220150487626,0.0
0.015,2.410799656104626,-1.3002457234031835,0.6537058535542906,0.0,5.025944412831803,5.495666973761806,92.4179848074638,89.34220150487626,0.0
0.016,2.093662829295243,-1.1188737951451013,0.3625036969057722,0.0,5.182990329156732,5.275838151131467,90.935214115327,89.34220150487626,0.0
0.017,1.8286370918179913,-0.9587957679673933,1.0879589168696628,0.0,5.286553907879168,5.202390361013572,90.77678841530913,89.34220150487626,0.0
0.018000000000000002,1.671137223966007,-0.8481749841154594,1.15282589777427,0.0,5.3618488437656335,5.161199251568525,92.45948451957541,89.34220150487626,0.0
0.019,1.5707087356363727,-0.7789400415615555,0.28030501549413644,0.0,5.418985539276541,5.044502914834504,92.4403154698714,89.34220150487626,0.0
0.02,1.4579769128290607,-0.712763949088094,0.25890840069619436,0.0,5.452151910816412,4.962957678145516,90.65916058123028,89.34220150487626,0.0
0.021,1.3702753021583283,-0.6512730008618322,1.13631625425321,0.0,5.467744878153243,4.998132291264371,90.56398418048289,89.34220150487626,0.0
0.022,1.3548430681375865,-0.620996395037285,1.1716866278708393,0.0,5.48258049290984,5.027285932002968,92.14677838819885,89.34220150487626,0.0
0.023,1.3578451387416466,-0.6102000336557216,0.3522437551796318,0.0,5.497963076570908,4.964030800304501,91.22527284993774,89.34220150487626,0.0
0.024,1.3210128460500885,-0.5869843009413893,0.7941658108595746,0.0,5.503036121711264,4.969526867895805,89.2894796827677,89.34220150487626,0.0
0.025,1.3129671162787078,-0.5662954524276532,1.7625896126656766,0.0,5.506107853087345,5.0776047382318215,90.89843233018321,89.34220150487626,0.0
0.026000000000000002,1.365647344115274,-0.5724834236712251,0.9425509807048538,0.0,5.520567763681352,5.069418224778358,92.00231690582396,89.34220150487626,0.0
0.027,1.3740100639778163,-0.5701979828863217,0.3640075388750026,0.0,5.532449753671836,5.007663864541452,89.65063815506129,89.34220150487626,0.0
0.028,1.34682883862952,-0.5427415540448894,1.5367625477544886,0.0,5.533970755874873,5.0911351867092645,89.5975424606328,89.34220150487626,0.0
0.029,1.3841557853891682,-0.5365659419518598,1.5607569854111694,0.0,5.543282037032565,5.152945538536995,91.38368070293723,89.34220150487626,0.0
0.03,1.4241609818525172,-0.545682391812366,0.6472730722783437,0.0,5.55890779086285,5.104755506333173,89.59001884943125,89.34220150487626,0.0
0.031,1.4121229028182198,-0.5296215999856704,1.5416258255857844,0.0,5.566294114490184,5.172184935386315,89.01722732147073,89.34220150487626,0.0
0.032,1.4478412579851851,-0.5202212363400076,1.8312713314000988,0.0,5.578811316577342,5.252478132144668,90.8718699790271,89.34220150487626,0.0
0.033,1.495999966274647,-0.532150701605539,0.8886533178804061,0.0,5.599512362947282,5.214469018530417,89.27674594642532,89.34220150487626,0.0
0.034,1.4922089434127017,-0.5171313195942862,1.6868698897658025,0.0,5.6125709666449115,5.280459523554888,89.23461096867804,89.34220150487626,0.0
0.035,1.5296478558860152,-0.5064362433218816,1.7090132840014252,0.0,5.629896495905374,5.331454255493055,90.83451451365136,89.34220150487626,0.0
0.036000000000000004,1.5627613547244645,-0.5114579194109301,0.8941383814270165,0.0,5.651248280566124,5.285956298190412,88.41838607685558,89.34220150487626,0.0
0.037,1.5534152419241964,-0.4871468170879087,2.11144075410511,0.0,5.663190653014114,5.3905545325008575,89.73539800059831,89.34220150487626,0.0
0.038,1.6064958252372918,-0.48622621971140595,1.4490028272765265,0.0,5.684540456960164,5.394913659654691,89.56381291661643,89.34220150487626,0.0
0.039,1.621788726212714,-0.48403969949956926,1.5325792551500652,0.0,5.703959881977455,5.415638227547955,87.97025603816273,89.34220150487626,0.0
0.04,1.6455782442055498,-0.46339011614188325,2.3430771490440487,0.0,5.721260232315115,5.522087367233764,90.17887766808985,89.34220150487626,0.0
0.041,1.703919204300143,-0.4751754259832954,1.2303995724483516,0.0,5.748978341503726,5.482942505189818,87.97080248491687,89.34220150487626,0.0
0.042,1.7059628974387406,-0.45491625505073985,2.3481511542344355,0.0,5.767663791668081,5.584921993387253,89.62723597669044,89.34220150487626,0.0
0.043000000000000003,1.7611366682247231,-0.4545126231680253,1.5170840636295089,0.0,5.794836837837975,5.569928504141906,88.0508822819749,89.34220150487626,0.0
0.044,1.770640212948903,-0.44209028839483544,2.3181741032162906,0.0,5.816430809960121,5.655088591486879,89.27464799426707,89.34220150487626,0.0
0.045,1.8230139553799514,-0.435464266087212,1.7069667821763006,0.0,5.843776754498441,5.652982285379128,87.99236364654129,89.34220150487626,0.0
0.046,1.8364794739491392,-0.4269636909763612,2.361607334622539,0.0,5.867308670933038,5.730986268697168,89.05088939898026,89.34220150487626,0.0
0.047,1.8885360677895655,-0.4171679405136972,1.8352575794620152,0.0,5.895295267256191,5.7335065965979926,87.6767322766989,89.34220150487626,0.0
0.048,1.9042322724345817,-0.4092054914447457,2.538990832884469,0.0,5.919957324844157,5.8200416901965735,89.13165651536117,89.34220150487626,0.0
0.049,1.9612996813939636,-0.4020751640233521,1.8136341634484838,0.0,5.95010197450752,5.807442461082831,86.9860694094833,89.34220150487626,0.0
0.05,1.9731976641404076,-0.3884146313174298,2.9099890373413464,0.0,5.974540880969736,5.926232118656859,89.2402110952693,89.34220150487626,0.0
0.051000000000000004,2.0423531005786812,-0.3920543287348357,1.783938098544418,0.0,6.008951834586104,5.893269430932367,86.68414274732176,89.34220150487626,0.0
0.052000000000000005,2.053204705728428,-0.3685704129351455,3.088552860093735,0.0,6.034005796356249,6.021310118298267,88.93678257720518,89.34220150487626,0.0
0.053,2.1218397802577575,-0.37946673689744803,1.9662871344287354,0.0,6.070791865479817,5.995115413519219,87.10203007381419,89.34220150487626,0.0
0.054,2.140669217541215,-0.3519022126560749,2.9060651004348497,0.0,6.0981387963069515,6.088432132291868,87.99551504103516,89.34220150487626,0.0
0.055,2.192206192814928,-0.35794956083951945,2.472789481462775,0.0,6.13302355947123,6.1126130016157045,88.0017961451819,89.34220150487626,0.0
0.056,2.2327493337878157,-0.33754796627131123,2.48305298298635,0.0,6.164533284367124,6.1393816259266165,86.32713694756761,89.34220150487626,0.0
0.057,2.2589986318809796,-0.3301182887984879,3.3505332273665815,0.0,6.194955650628195,6.259462560782098,88.47595018194345,89.34220150487626,0.0
0.058,2.3348112329617687,-0.3361044125853596,2.2847891234079913,0.0,6.235076644139991,6.236594091760938,86.97543361810011,89.34220150487626,0.0
0.059000000000000004,2.3578458610926423,-0.3085386452233193,3.0587150841974196,0.0,6.265806595750797,6.314038182635905,86.81401433275545,89.34220150487626,0.0
0.06,2.4040776468509915,-0.31068303609493086,3.1647065985909597,0.0,6.301719501957517,6.385875516407742,88.21156707284995,89.34220150487626,0.0
0.061,2.4652024648901545,-0.3044496761764991,2.4772365728639745,0.0,6.340517737421003,6.37117737732244,86.62452765061548,89.34220150487626,0.0
0.062,2.487110860913158,-0.27663707213883715,3.2979330225238166,0.0,6.370969282584656,6.457181510029733,87.09889635131469,89.34220150487626,0.0
0.063,2.5332294837916463,-0.2899285283506148,3.0831817237098242,0.0,6.408716272726341,6.500946812060116,89.84044062004092,89.34220150487626,0.0
0.064,2.5632593663427095,-0.31069495607530584,1.7074271981950624,0.0,6.449216486544496,6.392082697231316,89.08630303534575,89.34220150487626,0.0
0.065,2.514292223371119,-0.291527750978986,2.0870549752379537,0.0,6.472464210660112,6.359358300549461,89.03034197564597,89.34220150487626,0.0
0.066,2.4683309794247847,-0.2961387533564408,2.118154100380148,0.0,6.490813605008467,6.336421807346946,91.63686402434404,89.34220150487626,0.0
0.067,2.437815232136737,-0.2981748607206842,0.7919464508364362,0.0,6.505212272388024,6.174317189960512,89.86184588310914,89.34220150487626,0.0
0.068,2.343779180295102,-0.2682472590182913,1.6742590776715551,0.0,6.49864821403008,6.150218174727678,90.54910343587333,89.34220150487626,0.0
0.069,2.2924088706082713,-0.2765254867225678,1.3185612819794872,0.0,6.4915405410491385,6.084633144934985,91.4862169290036,89.34220150487626,0.0
0.07,2.247667728098782,-0.26852736373087394,0.8285643811730792,0.0,6.477622556580893,5.978960992270862,90.25946596430583,89.34220150487626,0.0
0.07100000000000001,2.176098644665511,-0.264925987220202,1.4327672189276692,0.0,6.454212985106803,5.9612517253399595,92.19621232497401,89.34220150487626,0.0
0.07200000000000001,2.1463619320603637,-0.2753897981943687,0.435853930392601,0.0,6.432560477059296,5.829825285390568,90.3173007282542,89.34220150487626,0.0
0.073,2.0732683472240083,-0.2658042751209141,1.3655587365187303,0.0,6.398771530173782,5.829355827396537,91.8866831790411,89.34220150487626,0.0
0.074,2.0500887897855318,-0.2859556700553285,0.5554226943836298,0.0,6.370627040850934,5.728961223287107,90.55484665460548,89.34220150487626,0.0
0.075,1.9986685548432979,-0.2832457754898273,1.2092145051041456,0.0,6.33475793769788,5.721234520526202,91.70411675399843,89.34220150487626,0.0
0.076,1.978456024545347,-0.3065623587164411,0.6109603029164488,0.0,6.304294997684623,5.640056873361583,90.66235935898058,89.34220150487626,0.0
0.077,1.9383592141651111,-0.3084378038858757,1.118637421884332,0.0,6.2687337200926,5.629986245859289,91.832991624908,89.34220150487626,0.0
0.078,1.920519152595206,-0.332408390746307,0.5084133877203028,0.0,6.238339517612502,5.546726577069188,90.64374976253022,89.34220150487626,0.0
0.079,1.8793334677704059,-0.3341829158458195,1.0900188363326553,0.0,6.202614260393749,5.543184319314117,92.13536706701339,89.34220150487626,0.0
0.08,1.865173065451455,-0.35695547122535487,0.3162785284696985,0.0,6.172594538962115,5.446642060668464,90.55618851495808,89.34220150487626,0.0
0.081,1.8163834410231123,-0.3576376529721179,1.0937279343965356,0.0,6.13576987824743,5.4552341481387225,92.02728087968772,89.34220150487626,0.0
0.082,1.809239571760636,-0.375560222478002,0.3313309582835997,0.0,6.105451553179419,5.367944328733386,90.81775598180772,89.34220150487626,0.0
0.083,1.76213244881342,-0.38540343805147825,0.9213378624542858,0.0,6.070339606695699,5.363986732813253,91.1441199273294,89.34220150487626,0.0
0.084,1.7508828784459936,-0.3986336507040741,0.7401367054689156,0.0,6.039699986504386,5.331847887037611,91.58048920256634,89.34220150487626,0.0
0.085,1.729532495011862,-0.4193726793457673,0.499569190873544,0.0,6.011059434778701,5.277444595258844,90.83887822048032,89.34220150487626,0.0
0.08600000000000001,1.6993329913162711,-0.4249703499959726,0.8554079147605111,0.0,5.980250962532816,5.27027395383108,91.7057464170808,89.34220150487626,0.0
0.08700000000000001,1.688052136811144,-0.4395558575417646,0.39833836733822636,0.0,5.953354702492278,5.207842390824791,91.36615186922491,89.34220150487626,0.0
0.088,1.650564379970313,-0.4511978945293702,0.5478961376226876,0.0,5.924039681148341,5.17399725302803,90.88796186793245,89.34220150487626,0.0
0.089,1.6245265887546914,-0.4573970446708967,0.7715335346383563,0.0,5.894837134304816,5.16619894231074,91.55659661307315,89.34220150487626,0.0
0.09,1.6136863863848094,-0.4707548900213625,0.41507221098603364,0.0,5.869182382561049,5.1157451327574455,91.62423158010843,89.34220150487626,0.0
0.091,1.5817439407011717,-0.48347342881597244,0.3584344267160744,0.0,5.842313185850232,5.068510952953433,90.88840240287918,89.34220150487626,0.0
0.092,1.5496615467780837,-0.4862503113128501,0.7108870063506698,0.0,5.813585762516804,5.065859071935947,91.03245502379147,89.34220150487626,0.0
0.093,1.5385156045212862,-0.4989521108844489,0.6219581607053721,0.0,5.788835322542881,5.048198167578557,92.27836411022355,89.34220150487626,0.0
0.094,1.525452963923154,-0.5125022713094587,-0.03035800856414017,0.0,5.766157335781645,4.960288250539547,91.07326203134454,89.34220150487626,0.0
0.095,1.4748706617792662,-0.5109599747578366,0.5548824256106812,0.0,5.736651001767703,4.955234562810085,90.80019222078322,89.34220150487626,0.0
0.096,1.457765140003717,-0.5170466026024153,0.6768374237322736,0.0,5.710274884410628,4.956674040277673,91.33760979272029,89.34220150487626,0.0
0.097,1.453413270599608,-0.5300030591533151,0.3881745548852984,0.0,5.688044670478171,4.922667143125109,91.74019595257816,89.34220150487626,0.0
0.098,1.4313304016589286,-0.5424673895789593,0.16290153047934153,0.0,5.6658783000050175,4.870330107187802,90.87331712097745,89.34220150487626,0.0
0.099,1.3981218076927076,-0.541904364598017,0.5810297901186872,0.0,5.640508286933289,4.872689093248178,90.7468717654489,89.34220150487626,0.0
0.1,1.388395053652295,-0.5507342407667563,0.6302057652772335,0.0,5.61888809040314,4.8742411110711705,91.18206245433704,89.34220150487626,0.0
0.101,1.3855687505703047,-0.5624257407368695,0.3942118113385549,0.0,5.600782881543332,4.847238438572628,91.80090318916508,89.34220150487626,0.0
0.10200000000000001,1.3673107641906448,-0.5724403886726142,0.060204427081646195,0.0,5.582772622592881,4.788724755180025,90.88887989177137,89.34220150487626,0.0
0.10300000000000001,1.3312593986453392,-0.5676501487414574,0.5007492919095531,0.0,5.560084948326428,4.789844493551464,90.79322491332145,89.34220150487626,0.0
0.10400000000000001,1.3192814559281218,-0.5727198208884423,0.5340665470500585,0.0,5.540383581659245,4.78880000011973,91.01519094716161,89.34220150487626,0.0
0.105,1.3132141277157496,-0.5820103619988077,0.40635363570712446,0.0,5.52351916511628,4.772055853241514,91.08020424586897,89.34220150487626,0.0
0.106,1.301183450584932,-0.5876289937262262,0.3564669589435192,0.0,5.507191919618698,4.75235197526852,91.03470187232833,89.34220150487626,0.0
0.107,1.2856631270663754,-0.5903209089331591,0.36229314203931984,0.0,5.490766935229067,4.735712436266978,90.93424452446591,89.34220150487626,0.0
0.108,1.2702771646837625,-0.5927254035563223,0.3966013857746318,0.0,5.47455807063472,4.7243472503334525,90.82090942524997,89.34220150487626,0.0
0.109,1.2575931822485016,-0.5959199307304988,0.43848185617886726,0.0,5.459160926949385,4.718002844285009,90.6792441647192,89.34220150487626,0.0
0.11,1.2477761947703276,-0.6010167884533127,0.49594405984582357,0.0,5.445197766105507,4.717608230970448,90.47343548425451,89.34220150487626,0.0
0.111,1.2435737402854306,-0.6043463710541922,0.5875360602843835,0.0,5.43290674552343,4.725721361033085,90.28791175548899,89.34220150487626,0.0
0.112,1.2436253486337108,-0.6113707060598857,0.6708408221610149,0.0,5.42339552103044,4.739993978370132,90.72757216613492,89.34220150487626,0.0
0.113,1.2495470239672521,-0.6171243575900328,0.4371569102254642,0.0,5.416825339038715,4.724699065389293,91.45637278661192,89.34220150487626,0.0
0.114,1.2391529259853309,-0.620018689979701,0.05161488716960627,0.0,5.40964352399564,4.671406409621923,90.61772407622773,89.34220150487626,0.0
0.115,1.2058913832507256,-0.6098358366111232,0.4581840166481874,0.0,5.396701567685694,4.674857691121174,89.96595542603508,89.34220150487626,0.0
0.116,1.1955258179454582,-0.606469412820351,0.7778308025329244,0.0,5.385130457073369,4.708572700748272,90.07331673336625,89.34220150487626,0.0
0.117,1.2087011366624834,-0.6115983144150615,0.7168389965824371,0.0,5.378685801898312,4.726300591126102,91.02719342021993,89.34220150487626,0.0
0.11800000000000001,1.2191645029031728,-0.6186784937060283,0.2230507340021628,0.0,5.375385931984604,4.6868852190250125,90.79434470090948,89.34220150487626,0.0
0.11900000000000001,1.1981221547123098,-0.6148347103572636,0.3249536616970572,0.0,5.367980893890884,4.669647893778304,89.80592820047143,89.34220150487626,0.0
0.12,1.1814148893596432,-0.606464697070061,0.8145246449601302,0.0,5.358710363453761,4.707854951835769,89.46193606280859,89.34220150487626,0.0
0.121,1.1952058537149792,-0.6081773084785577,0.9853233682122255,0.0,5.354459679253903,4.753522322036259,90.52937668372374,89.34220150487626,0.0
0.122,1.2206201282602496,-0.6177359483745282,0.4397313059661758,0.0,5.35623512476855,4.7298171121607036,90.98136380844616,89.34220150487626,0.0
0.123,1.2118298413772164,-0.6172154333800343,0.19734612056926593,0.0,5.355309661695825,4.688674592355555,89.71584403138998,89.34220150487626,0.0
0.124,1.1867102354673407,-0.6025416270262653,0.8263695838322209,0.0,5.348753579400888,4.725845464817797,89.01794700433335,89.34220150487626,0.0
0.125,1.1971607227733383,-0.5998803658389875,1.1785606423659631,0.0,5.346424191914601,4.789693673947646,90.09504905745393,89.34220150487626,0.0
0.126,1.2311963355361684,-0.6097653231811069,0.6324811402798947,0.0,5.351826522009439,4.779694055070227,90.88024364326554,89.34220150487626,0.0
0.127,1.2326672158089524,-0.6102097602695139,0.22450342599019701,0.0,5.3556386957133535,4.7319964368366465,89.4911738105603,89.34220150487626,0.0
0.128,1.207150511118715,-0.593579265341827,0.9175486192859796,0.0,5.352466091410589,4.7725860925209025,88.58672249831923,89.34220150487626,0.0
0.129,1.2197376767679444,-0.588481965055064,1.3773290654720824,0.0,5.353275315024259,4.8508051640856555,89.89921662816975,89.34220150487626,0.0
0.13,1.2616125360622366,-0.5995001851592158,0.715511849313887,0.0,5.363088500647362,4.839405189750154,90.70611715617326,89.34220150487626,0.0
0.131,1.264943826736555,-0.5985351907011879,0.2984224287991619,0.0,5.370564038683178,4.790917173934246,89.03564654202715,89.34220150487626,0.0
0.132,1.2404350547806329,-0.5786125694807003,1.1367232855007088,0.0,5.370261382944151,4.84713877976772,88.21109234350985,89.34220150487626,0.0
0.133,1.2622510229121273,-0.5730751846394668,1.5603114763730255,0.0,5.375201267242041,4.933274807658862,89.94394428658642,89.34220150487626,0.0
0.134,1.3097558846287185,-0.5867631224906165,0.6878680770176397,0.0,5.389821812911296,4.906079190245352,90.20864666316795,89.34220150487626,0.0
0.135,1.3067961797713576,-0.5820461270877926,0.5468524371439534,0.0,5.3996049933994525,4.877078518899044,88.32936691550195,89.34220150487626,0.0
0.136,1.292105661865955,-0.5607853726897634,1.4966206568706983,0.0,5.4032182756744085,4.959427253225879,88.73724428979227,89.34220150487626,0.0
0.137,1.330509631838995,-0.5592234580033071,1.2987315418763772,0.0,5.414745900083022,4.998265615624798,90.44330171086031,89.34220150487626,0.0
0.138,1.3589060399617017,-0.5634528252408832,0.43469182928251726,0.0,5.429485447833662,4.938567861795535,88.60191960905131,89.34220150487626,0.0
