timestamp,iq,id,iq_ref,id_ref,vq,vd,omega,omega_ref,r
0.0,0.0,0.0,0.0,0.0,0.0,0.0,0.0,366.300972939999,0.0
0.001,0.0,0.0,10.0,0.0,0.0,1.0999999999999999,6.115472199294103,366.300972939999,0.0
0.002,0.5307369851907212,-0.2913212625381807,10.0,0.0,0.14204533887919985,1.9316189316290207,13.317801563642547,366.300972939999,0.0
0.003,1.0842913387634832,-0.6024330830807904,10.0,0.0,0.384357124667687,2.6386968949419622,20.697939467553027,366.300972939999,0.0
0.004,1.5590443546685477,-0.8700465084428163,10.0,0.0,0.6994718867930164,3.2526109522886295,28.232747544420146,366.300972939999,0.0
0.005,1.9399447555359186,-1.0838738622210777,10.0,0.0,1.065311453102468,3.7994935661768023,35.92944872443006,366.300972939999,0.0
0.006,2.239750732602683,-1.2510087368845633,10.0,0.0,1.4655018868449925,4.299102221838433,43.75633668444442,366.300972939999,0.0
0.007,2.4770151619816017,-1.382020589851471,10.0,0.0,1.8883740978591532,4.765668027847139,51.58766747378032,366.300972939999,0.0
0.008,2.6680767290418097,-1.4872241871505252,10.0,0.0,2.325877945545995,5.209220346273558,59.45942083902103,366.300972939999,0.0
0.009000000000000001,2.8266491704841292,-1.5730794701170803,10.0,0.0,2.772378685460125,5.636635464737965,67.35059094018146,366.300972939999,0.0
0.01,2.962077666392183,-1.645500646948331,10.0,0.0,3.224078639851053,6.052647735211881,75.20908322432116,366.300972939999,0.0
0.011,3.0811061533574158,-1.7084279320504514,10.0,0.0,3.678407615443203,6.460489925470405,83.0265951655913,366.300972939999,0.0
0.012,3.188848746459569,-1.7638278597420747,10.0,0.0,4.133552631697047,6.862319393890706,90.74118064793086,366.300972939999,0.0
0.013000000000000001,3.288205119878689,-1.8140726097274587,10.0,0.0,4.588339016389012,7.259628641949282,98.35820682563939,366.300972939999,0.0
0.014,3.3820602099432007,-1.8592355758795645,10.0,0.0,5.041843166194517,7.653355107498287,105.90865295623543,366.300972939999,0.0
0.015,3.4721069852858886,-1.899829032412081,10.0,0.0,5.493383198131427,8.044092747085895,113.37727610343421,366.300972939999,0.0
0.016,3.5596145800153947,-1.9360338400176071,10.0,0.0,5.94241958510469,8.43218525824161,120.68508583176356,366.300972939999,0.0
0.017,3.645144415105338,-1.9685384477868613,10.0,0.0,6.388575043274759,8.817838951066484,127.83962377537456,366.300972939999,0.0
0.018000000000000002,3.730251927866576,-1.9959253041084188,10.0,0.0,6.83136783302799,9.201036292373047,134.85405702603322,366.300972939999,0.0
0.019,3.81544967906247,-2.018253592643655,10.0,0.0,7.270383321112213,9.581672501020332,141.68976328564074,366.300972939999,0.0
0.02,3.9014648862453374,-2.0350875541282063,10.0,0.0,7.705189334130692,9.959536942333155,148.3432823300447,366.300972939999,0.0
0.021,3.9891051824829464,-2.0457889559126508,10.0,0.0,8.135310004560049,10.334315260302239,154.92060212100432,366.300972939999,0.0
0.022,4.079618141396171,-2.0489696811670974,10.0,0.0,8.560139305503519,10.705547790999272,161.01925282597162,366.300972939999,0.0
0.023,4.171109372430197,-2.048468292080302,10.0,0.0,8.979521969370257,11.072981092896333,166.534238406907,366.300972939999,0.0
0.024,4.266936196769627,-2.039517194249811,10.0,0.0,9.392730090169543,11.435983292623375,171.8647834235234,366.300972939999,0.0
0.025,4.367255527950721,-2.0225841458509217,10.0,0.0,9.79914449451603,11.793929226271104,177.02637022703064,366.300972939999,0.0
0.026000000000000002,4.4734353073349595,-1.9962166741499119,10.0,0.0,10.197980960389518,12.146045424568259,181.63161391243256,366.300972939999,0.0
0.027,4.582366840795821,-1.966358349113627,10.0,0.0,10.589124658468391,12.491912978736195,185.74793639675826,366.300972939999,0.0
0.028,4.700058850757774,-1.9240450691803936,10.0,0.0,10.971384864613876,12.830451341534015,189.43662766964098,366.300972939999,0.0
0.029,4.820934284790598,-1.879137197786803,10.0,0.0,11.344756153370636,13.161242511022618,192.73598774770625,366.300972939999,0.0
0.03,4.952016225740939,-1.821000614527957,10.0,0.0,11.707923484756042,13.483081433273819,195.59831968863915,366.300972939999,0.0
0.031,5.086039273572549,-1.7621311371320891,10.0,0.0,12.061063698547066,13.79562148058647,197.80891551030922,366.300972939999,0.0
0.032,5.230431844273564,-1.6911110488141978,10.0,0.0,12.40292038074925,14.097678592248165,200.4421589734679,366.300972939999,0.0
0.033,5.380124186618445,-1.6166151787533525,10.0,0.0,12.733312761073865,14.38869342901298,201.91742172589852,366.300972939999,0.0
0.034,5.537594793894332,-1.535029134414507,10.0,0.0,13.051537880865839,14.667821176756876,203.18880493813168,366.300972939999,0.0
0.035,5.698947813469154,-1.4530296333491768,10.0,0.0,13.357649178779205,14.934684535625108,203.60405746232266,366.300972939999,0.0
0.036000000000000004,5.870474243492053,-1.3603000477825025,10.0,0.0,13.65045542338638,15.188218311291084,204.28541056101804,366.300972939999,0.0
0.037,6.041188711220851,-1.275010780747051,10.0,0.0,13.930879897581198,15.42861600670124,205.2233356988433,366.300972939999,0.0
0.038,6.228175208801664,-1.168399557236846,10.0,0.0,14.196427351981786,15.654155009933262,200.35169734043586,366.300972939999,0.0
0.039,6.404895489618571,-1.0845312562500289,10.0,0.0,14.449814560392067,15.86612549236809,209.64773540576442,366.300972939999,0.0
0.04,6.534612624563911,-1.0851225869390002,10.0,0.0,14.699963825590459,16.069735965364643,218.170241886545,366.300972939999,0.0
0.041,6.621487035821765,-1.1484636683301073,10.0,0.0,14.952420817214799,16.26974130369247,220.68166573712315,366.300972939999,0.0
0.042,6.6704785161669795,-1.2647840534085386,10.0,0.0,15.211794475054209,16.47047148862455,233.10654395573727,366.300972939999,0.0
0.043000000000000003,6.709376245503157,-1.3867642159960276,10.0,0.0,15.477558399636717,16.673277185423842,235.10815372853793,366.300972939999,0.0
0.044,6.744196093263161,-1.5028656568708394,10.0,0.0,15.74857785831126,16.87893749904121,248.8181267625822,366.300972939999,0.0
0.045,6.750563942850831,-1.6564343609015326,10.0,0.0,16.02879294551472,17.090781462187255,251.61117095327992,366.300972939999,0.0
0.046,6.764566527560506,-1.7840489455190416,10.0,0.0,16.314672837580048,17.307985931916857,266.60539535969383,366.300972939999,0.0
0.047,6.752169677737121,-1.9446655565152717,10.0,0.0,16.610076868775216,17.533561623207692,270.0627790167984,366.300972939999,0.0
0.048,6.7291903821171735,-2.110358990489937,10.0,0.0,16.91511817760721,17.768523902508925,283.13731951482634,366.300972939999,0.0
0.049,6.714097190323873,-2.246352557911731,10.0,0.0,17.22645394156277,18.011924542904307,294.70561782835244,366.300972939999,0.0
0.05,6.666841209228205,-2.4219663531358275,10.0,0.0,17.548953774962747,18.267165921658286,300.1294548425776,366.300972939999,0.0
0.051000000000000004,6.612335516543512,-2.59336894353628,10.0,0.0,17.88182590988993,18.53465621226123,310.75154600411304,366.300972939999,0.0
0.052000000000000005,6.568447424188529,-2.726701034625408,10.0,0.0,18.22111236450049,18.81296732052879,322.35703405819294,366.300972939999,0.0
0.053,6.5036136539679195,-2.8764091099274185,10.0,0.0,18.569435851849082,19.104068797231378,330.9557012510771,366.300972939999,0.0
0.054,6.434362099984388,-3.0149932598739144,10.0,0.0,18.925784313874168,19.407861808234543,339.4707232587175,366.300972939999,0.0
0.055,6.370891759459199,-3.1253006473392393,10.0,0.0,19.28762520191878,19.723199586257838,348.00092263299223,366.300972939999,0.0
0.056,6.314459991163816,-3.2071523724558277,10.0,0.0,19.65271639484943,20.048760466390505,356.29964302226927,366.300972939999,0.0
0.057,6.266092078485367,-3.262894600420583,10.0,0.0,20.01916768432525,20.383030530514645,362.98468703488817,366.300972939999,0.0
0.058,6.234656406121481,-3.2830044001420036,7.429882900862072,0.0,20.384055506955608,20.440780081102023,366.53102441680295,366.300972939999,0.0
0.059000000000000004,6.088366665949191,-3.2010532716872575,5.6544136951366415,0.0,20.709013780254423,20.375420531950596,363.7260671910145,366.300972939999,0.0
0.06,5.876367863582313,-3.0240102023948268,7.0826413655207,0.0,20.976285044970606,20.545809471702327,358.981619109371,366.300972939999,0.0
0.061,5.807796039978274,-2.825644899658304,9.528058944648727,0.0,21.21381832458224,20.986023213523513,364.83383956043315,366.300972939999,0.0
0.062,5.935114996832812,-2.693476234188501,6.616620052913325,0.0,21.459064750240515,21.046565651751543,365.9001755183014,366.300972939999,0.0
0.063,5.9588656698183895,-2.5028588357909416,6.08746004819617,0.0,21.66619454998674,21.09514589266119,353.3760435397749,366.300972939999,0.0
0.064,5.9980440412155875,-2.2441873839369624,10.0,0.0,21.83092170812933,21.591179970076254,353.8849649409376,366.300972939999,0.0
0.065,6.295590693840061,-2.056684479820784,10.0,0.0,22.01074095326495,21.982619607971312,353.33314892429445,366.300972939999,0.0
0.066,6.613040159850852,-1.9313241621901716,10.0,0.0,22.1998076317783,22.320953231855484,340.69672532195875,366.300972939999,0.0
0.067,6.9825726596297315,-1.7304580689008384,10.0,0.0,22.382959337743202,22.606886080886998,342.03550337927044,366.300972939999,0.0
0.068,7.328561421208235,-1.5527096964007772,10.0,0.0,22.558845497972655,22.848177376836016,330.5682289694476,366.300972939999,0.0
0.069,7.694903359012261,-1.3288427396060516,10.0,0.0,22.71842429025165,23.04609043367041,326.93225922789514,366.300972939999,0.0
0.07,8.032054417720836,-1.144988205940591,10.0,0.0,22.863851179850936,23.20674686696937,321.8993131764072,366.300972939999,0.0
0.07100000000000001,8.404160381615018,-0.9009454260273764,10.0,0.0,22.98579486336638,23.328320200457075,321.46286111065905,366.300972939999,0.0
0.07200000000000001,8.670342740841352,-0.8319572207984401,10.0,0.0,23.102553237103006,23.424371569071614,332.8285519612557,366.300972939999,0.0
0.073,8.736644369185804,-1.0590302180785705,10.0,0.0,23.24290882208052,23.517862282672723,347.0938834541306,366.300972939999,0.0
0.074,8.764352940365768,-1.2981168010051247,10.0,0.0,23.40260671406952,23.61365455686512,353.65229014139175,366.300972939999,0.0
0.075,8.71475025557398,-1.6137769071764785,10.0,0.0,23.588245790128443,23.721570773876078,370.6103047636995,366.300972939999,0.0
0.076,8.654300414207015,-1.8950416642113814,4.517115224681325,0.0,23.793895102494695,23.24029540720924,375.1729998291035,366.300972939999,0.0
0.077,8.242794980123408,-2.080240877436962,2.1470474230882797,0.0,23.9484112128421,22.666494997359184,382.0768507180044,366.300972939999,0.0
0.078,7.688925897191276,-2.1513868709145285,-1.4626367991422118,0.0,24.03606973832004,21.84897219788113,387.8376643788907,366.300972939999,0.0
0.079,6.950524416525739,-2.1519987909306892,-4.558410543974279,0.0,24.032565982569377,20.893214733233357,388.6375720703461,366.300972939999,0.0
0.08,6.109547794742751,-2.0632557341309923,-5.181730381005458,0.0,23.924069000480877,20.08019860843966,388.85626331160654,366.300972939999,0.0
0.081,5.3288262485511115,-1.9645102641852545,-5.516628905351756,0.0,23.73514553299583,19.38449836247195,387.47362911801196,366.300972939999,0.0
0.082,4.6540122140146,-1.8718054775437116,-5.037038370334594,0.0,23.486334315831396,18.862002066784953,384.9347299374869,366.300972939999,0.0
0.083,4.129239889951009,-1.7969869419655211,-3.953926350046949,0.0,23.20285159976752,18.532197511133315,381.9748491404049,366.300972939999,0.0
0.084,3.7742161921433492,-1.749027025689981,-2.630724713510004,0.0,22.91020929431034,18.375551082774848,378.14172482453694,366.300972939999,0.0
0.085,3.577931057790935,-1.7310561262873057,-0.832570074421402,0.0,22.629669376791497,18.407911188441577,373.93735448321445,366.300972939999,0.0
0.08600000000000001,3.5438287563617377,-1.7398586878268922,1.1932512808076874,0.0,22.38156745235459,18.61562849628774,369.79517868796484,366.300972939999,0.0
0.08700000000000001,3.6592996887636726,-1.7743746588523857,3.229397120952836,0.0,22.1827561823434,18.96843888419078,365.2980211994857,366.300972939999,0.0
0.088,3.9060479126978027,-1.8185437061596863,5.488005382597549,0.0,22.043620513617178,19.468184961373122,364.1672337590804,366.300972939999,0.0
0.089,4.27893074653495,-1.86239927260582,6.074736494609385,0.0,21.97275544131782,19.907447574186715,366.6449107181627,366.300972939999,0.0
0.09,4.6537192822562865,-1.8898795209109083,4.8324586372865905,0.0,21.955487409178843,20.115681632472413,357.1041012997504,366.300972939999,0.0
0.091,4.923849563085206,-1.8373839462409673,9.694832062895209,0.0,21.9547202703856,20.82268289157185,352.6919853473933,366.300972939999,0.0
0.092,5.442684223593064,-1.8072925609718464,10.0,0.0,22.021944874748723,21.389481539859894,355.5754910706595,366.300972939999,0.0
0.093,5.946166961246341,-1.7979856115683082,10.0,0.0,22.138404032922633,21.853076349847605,345.0347837763804,366.300972939999,0.0
0.094,6.420992521255888,-1.7293332638491732,10.0,0.0,22.282118067522855,22.234761610429423,345.0219336361847,366.300972939999,0.0
0.095,6.875549573413671,-1.585073638968177,10.0,0.0,22.434447189461515,22.54739672827582,335.0569113037437,366.300972939999,0.0
0.096,7.274258305034973,-1.4475889628467753,10.0,0.0,22.589126192866416,22.80468885657468,334.0634986428826,366.300972939999,0.0
0.097,7.681113202379013,-1.2409680576688547,10.0,0.0,22.732713055952345,23.01095272099251,320.37755649382984,366.300972939999,0.0
0.098,8.052944312385419,-1.0547958812030873,10.0,0.0,22.864154888812017,23.17411601214989,319.1607398487001,366.300972939999,0.0
0.099,8.413445660218676,-0.8675311498305285,10.0,0.0,22.980031468815127,23.298170320315897,325.5260975458039,366.300972939999,0.0
0.1,8.65731437885547,-0.8590105698626611,10.0,0.0,23.097661205151788,23.398186310093905,333.30522091150897,366.300972939999,0.0
0.101,8.724774124224911,-1.0889709879942089,10.0,0.0,23.238910418626737,23.494981789723504,349.75657797544386,366.300972939999,0.0
0.10200000000000001,8.73511210217167,-1.3574029029770256,10.0,0.0,23.40294216518394,23.595760062617195,355.2575861793279,366.300972939999,0.0
0.10300000000000001,8.692432350188904,-1.6581457190524158,10.0,0.0,23.59104595499327,23.707661835374815,373.54491804254525,366.300972939999,0.0
0.10400000000000001,8.618788003796011,-1.9570530199083567,2.3989500087335536,0.0,23.801401918030805,22.99874239138167,374.9916397267965,366.300972939999,0.0
0.105,8.096575148629729,-2.0762638030053973,1.5886824987399493,0.0,23.92995445349741,22.425338532509333,382.005551000142,366.300972939999,0.0
0.106,7.503477405482442,-2.1309798895183585,-2.075318918534238,0.0,23.99313801121557,21.58721145546521,387.0570754221921,366.300972939999,0.0
0.107,6.748934139174667,-2.1158683860548733,-4.808642154381208,0.0,23.96398107921138,20.65225868198926,387.6878442508603,366.300972939999,0.0
0.108,5.918946302798327,-2.0256858561643245,-5.337895281823911,0.0,23.8344755998067,19.860754110338586,387.46481093972693,366.300972939999,0.0
0.109,5.159981689507894,-1.9283797592518517,-5.438017006254516,0.0,23.628968365815947,19.20491481859775,385.82099401932254,366.300972939999,0.0
0.11,4.519205020231353,-1.841989075668081,-4.811308756845556,0.0,23.369898011825104,18.72694364479874,383.23018484085077,366.300972939999,0.0
0.111,4.034162963079827,-1.7753513070131348,-3.685196286618188,0.0,23.08247132813723,18.43541470180536,380.1632281131227,366.300972939999,0.0
0.112,3.7151352561015387,-1.7365785851855877,-2.2903404744854052,0.0,22.791035796804323,18.31671162657096,376.3309720705067,366.300972939999,0.0
0.113,3.551924741315422,-1.7281275864420926,-0.474512444482456,0.0,22.516331628437765,18.381290710462398,372.07105238928057,366.300972939999,0.0
0.114,3.5477318707924743,-1.7417994077783199,1.5977466016377821,0.0,22.277144195631422,18.6205607945109,367.9660202578257,366.300972939999,0.0
0.115,3.6893900805511417,-1.7815754306003675,3.633612194186961,0.0,22.090041158807622,18.999583419814442,363.79535300744016,366.300972939999,0.0
0.116,3.9593444981922525,-1.8269341264794954,5.744002018705309,0.0,21.96414238451504,19.505499299833833,363.66546736514647,366.300972939999,0.0
0.117,4.341330295130001,-1.870842800920932,5.835299895600678,0.0,21.905801442883437,19.897853689148597,365.31027562076804,366.300972939999,0.0
0.11800000000000001,4.691696990751986,-1.8916184631120427,5.022802740982203,0.0,21.894376270443068,20.120130401042697,354.4985346372359,366.300972939999,0.0
0.11900000000000001,4.969668313299222,-1.8239578760681652,10.0,0.0,21.8986708652394,20.847580416017514,352.68034347508205,366.300972939999,0.0
0.12,5.499069915572392,-1.7968853993087752,10.0,0.0,21.972979635480495,21.397488453359735,354.7583494258262,366.300972939999,0.0
0.121,5.995390049415453,-1.7893322110477847,10.0,0.0,22.094288206490592,21.85053536529183,343.02291448837065,366.300972939999,0.0
0.122,6.471953220245195,-1.704899651132512,10.0,0.0,22.239558561884813,22.222949695678892,343.8023097723193,366.300972939999,0.0
0.123,6.914886379707448,-1.5682724226555824,10.0,0.0,22.393358645245005,22.528692612734112,332.69563947012165,366.300972939999,0.0
0.124,7.317480697492133,-1.4165908242960552,10.0,0.0,22.54703430843993,22.779385203058144,332.40125758184115,366.300972939999,0.0
0.125,7.711322928119915,-1.225559605108136,10.0,0.0,22.690915046220688,22.981079398478055,320.2399900765197,366.300972939999,0.0
0.126,8.0923301570248,-1.020666687118414,10.0,0.0,22.819949220978362,23.13901987526078,314.9065486751815,366.300972939999,0.0
0.127,8.443016568195747,-0.8464745824310702,10.0,0.0,22.93476182360284,23.259304288901262,326.67054071722083,366.300972939999,0.0
0.128,8.660782340653569,-0.8758623078822718,10.0,0.0,23.05509617817542,23.358594150581474,332.95514324772404,366.300972939999,0.0
0.129,8.712894607763335,-1.1235828668701968,10.0,0.0,23.20028146769293,23.456433769893444,350.1476058771022,366.300972939999,0.0
0.13,8.716659173761123,-1.3957114272410283,10.0,0.0,23.368189126240793,23.5591149766373,356.0818424371161,366.300972939999,0.0
0.131,8.672718617213754,-1.6913720405148878,10.0,0.0,23.559375521464666,23.67318993544174,374.35282596459984,366.300972939999,0.0
0.132,8.593810874988508,-1.9927340810445355,1.6226913430378183,0.0,23.77304399137212,22.881712531701602,375.0485109533273,366.300972939999,0.0
0.133,8.028675863381395,-2.0881112469761054,1.1873734685408035,0.0,23.893675741761996,22.288013609555694,381.7834926041356,366.300972939999,0.0
0.134,7.410707184537953,-2.1288249961476695,-2.3349425535046953,0.0,23.946399165647847,21.44497137554004,386.46105238181184,366.300972939999,0.0
0.135,6.647846859007961,-2.104830168653442,-4.8753232367609565,0.0,23.906499455227472,20.525021941396673,386.9984411255865,366.300972939999,0.0
0.136,5.825208941670175,-2.013342017394751,-5.350992290504167,0.0,23.768771024071285,19.74901925819826,386.59266415222214,366.300972939999,0.0
0.137,5.079569596488974,-1.9167797302684375,-5.351020715944214,0.0,23.557508197639557,19.115391512739656,384.84080908575004,366.300972939999,0.0
0.138,4.457284775772666,-1.8331418313921541,-4.660491544165673,0.0,23.29577433330002,18.66095368916076,382.21605966617784,366.300972939999,0.0
0.139,3.9925990091197856,-1.770171827585954,-3.5072677016413634,0.0,23.00867975160663,18.390628178590344,379.11611031625927,366.300972939999,0.0
0.14,3.692484733724511,-1.7352557016595076,-2.085444400444679,0.0,22.72005100321168,18.29185979824097,375.201590947897,366.300972939999,0.0
0.14100000000000001,3.5466777306523607,-1.7299957334838798,-0.21719089634251976,0.0,22.45017885638124,18.378432661110295,371.0955447560525,366.300972939999,0.0
0.14200000000000002,3.5594568389883836,-1.7476643859008048,1.7878864814191875,0.0,22.2179473619684,18.628373227574727,366.94179663086794,366.300972939999,0.0
0.14300000000000002,3.7123794703969564,-1.7881822384043158,3.8583523071027797,0.0,22.038213350894498,19.021103356627428,362.99242656155553,366.300972939999,0.0
0.14400000000000002,3.993691456585314,-1.8325915764439313,5.8661228055434185,0.0,21.920205602492583,19.527322076072473,363.4036018172215,366.300972939999,0.0
0.145,4.378544570188634,-1.8751726754772269,5.68950888893821,0.0,21.868860328388628,19.89209219028735,364.69803753160335,366.300972939999,0.0
0.146,4.714165866384373,-1.8909184792800597,5.058320385831243,0.0,21.860432820544535,20.114516358049144,353.06333552786253,366.300972939999,0.0
