timestamp,iq,id,iq_ref,id_ref,vq,vd,omega,omega_ref,r
0.0,0.0,0.0,0.0,0.0,0.0,0.0,0.0,448.881977401269,0.0
0.001,0.0,0.0,10.0,0.0,0.0,1.0999999999999999,6.115472199294103,448.881977401269,0.0
0.002,0.5307369851907212,-0.2913212625381807,10.0,0.0,0.14204533887919985,1.9316189316290207,13.317801563642547,448.881977401269,0.0
0.003,1.0842913387634832,-0.6024330830807904,10.0,0.0,0.384357124667687,2.6386968949419622,20.697939467553027,448.881977401269,0.0
0.004,1.5590443546685477,-0.8700465084428163,10.0,0.0,0.6994718867930164,3.2526109522886295,28.232747544420146,448.881977401269,0.0
0.005,1.9399447555359186,-1.0838738622210777,10.0,0.0,1.065311453102468,3.7994935661768023,35.92944872443006,448.881977401269,0.0
0.006,2.239750732602683,-1.2510087368845633,10.0,0.0,1.4655018868449925,4.299102221838433,43.75633668444442,448.881977401269,0.0
0.007,2.4770151619816017,-1.382020589851471,10.0,0.0,1.8883740978591532,4.765668027847139,51.58766747378032,448.881977401269,0.0
0.008,2.6680767290418097,-1.4872241871505252,10.0,0.0,2.325877945545995,5.209220346273558,59.45942083902103,448.881977401269,0.0
0.009000000000000001,2.8266491704841292,-1.5730794701170803,10.0,0.0,2.772378685460125,5.636635464737965,67.35059094018146,448.881977401269,0.0
0.01,2.962077666392183,-1.645500646948331,10.0,0.0,3.224078639851053,6.052647735211881,75.20908322432116,448.881977401269,0.0
0.011,3.0811061533574158,-1.7084279320504514,10.0,0.0,3.678407615443203,6.460489925470405,83.0265951655913,448.881977401269,0.0
0.012,3.188848746459569,-1.7638278597420747,10.0,0.0,4.133552631697047,6.862319393890706,90.74118064793086,448.881977401269,0.0
0.013000000000000001,3.288205119878689,-1.8140726097274587,10.0,0.0,4.588339016389012,7.259628641949282,98.35820682563939,448.881977401269,0.0
0.014,3.3820602099432007,-1.8592355758795645,10.0,0.0,5.041843166194517,7.653355107498287,105.90865295623543,448.881977401269,0.0
0.015,3.4721069852858886,-1.899829032412081,10.0,0.0,5.493383198131427,8.044092747085895,113.37727610343421,448.881977401269,0.0
0.016,3.5596145800153947,-1.9360338400176071,10.0,0.0,5.94241958510469,8.43218525824161,120.68508583176356,448.881977401269,0.0
0.017,3.645144415105338,-1.9685384477868613,10.0,0.0,6.388575043274759,8.817838951066484,127.83962377537456,448.881977401269,0.0
0.018000000000000002,3.730251927866576,-1.9959253041084188,10.0,0.0,6.83136783302799,9.201036292373047,134.85405702603322,448.881977401269,0.0
0.019,3.81544967906247,-2.018253592643655,10.0,0.0,7.270383321112213,9.581672501020332,141.68976328564074,448.881977401269,0.0
0.02,3.9014648862453374,-2.0350875541282063,10.0,0.0,7.705189334130692,9.959536942333155,148.3432823300447,448.881977401269,0.0
0.021,3.9891051824829464,-2.0457889559126508,10.0,0.0,8.135310004560049,10.334315260302239,154.92060212100432,448.881977401269,0.0
0.022,4.079618141396171,-2.0489696811670974,10.0,0.0,8.560139305503519,10.705547790999272,161.01925282597162,448.881977401269,0.0
0.023,4.171109372430197,-2.048468292080302,10.0,0.0,8.979521969370257,11.072981092896333,166.534238406907,448.881977401269,0.0
0.024,4.266936196769627,-2.039517194249811,10.0,0.0,9.392730090169543,11.435983292623375,171.8647834235234,448.881977401269,0.0
0.025,4.367255527950721,-2.0225841458509217,10.0,0.0,9.79914449451603,11.793929226271104,177.02637022703064,448.881977401269,0.0
0.026000000000000002,4.4734353073349595,-1.9962166741499119,10.0,0.0,10.197980960389518,12.146045424568259,181.63161391243256,448.881977401269,0.0
0.027,4.582366840795821,-1.966358349113627,10.0,0.0,10.589124658468391,12.491912978736195,185.74793639675826,448.881977401269,0.0
0.028,4.700058850757774,-1.9240450691803936,10.0,0.0,10.971384864613876,12.830451341534015,189.43662766964098,448.881977401269,0.0
0.029,4.820934284790598,-1.879137197786803,10.0,0.0,11.344756153370636,13.161242511022618,192.73598774770625,448.881977401269,0.0
0.03,4.952016225740939,-1.821000614527957,10.0,0.0,11.707923484756042,13.483081433273819,195.59831968863915,448.881977401269,0.0
0.031,5.086039273572549,-1.7621311371320891,10.0,0.0,12.061063698547066,13.79562148058647,197.80891551030922,448.881977401269,0.0
0.032,5.230431844273564,-1.6911110488141978,10.0,0.0,12.40292038074925,14.097678592248165,200.4421589734679,448.881977401269,0.0
0.033,5.380124186618445,-1.6166151787533525,10.0,0.0,12.733312761073865,14.38869342901298,201.91742172589852,448.881977401269,0.0
0.034,5.537594793894332,-1.535029134414507,10.0,0.0,13.051537880865839,14.667821176756876,203.18880493813168,448.881977401269,0.0
0.035,5.698947813469154,-1.4530296333491768,10.0,0.0,13.357649178779205,14.934684535625108,203.60405746232266,448.881977401269,0.0
0.036000000000000004,5.870474243492053,-1.3603000477825025,10.0,0.0,13.65045542338638,15.188218311291084,204.28541056101804,448.881977401269,0.0
0.037,6.041188711220851,-1.275010780747051,10.0,0.0,13.930879897581198,15.42861600670124,205.2233356988433,448.881977401269,0.0
0.038,6.228175208801664,-1.168399557236846,10.0,0.0,14.196427351981786,15.654155009933262,200.35169734043586,448.881977401269,0.0
0.039,6.404895489618571,-1.0845312562500289,10.0,0.0,14.449814560392067,15.86612549236809,209.64773540576442,448.881977401269,0.0
0.04,6.534612624563911,-1.0851225869390002,10.0,0.0,14.699963825590459,16.069735965364643,218.170241886545,448.881977401269,0.0
0.041,6.621487035821765,-1.1484636683301073,10.0,0.0,14.952420817214799,16.26974130369247,220.68166573712315,448.881977401269,0.0
0.042,6.6704785161669795,-1.2647840534085386,10.0,0.0,15.211794475054209,16.47047148862455,233.10654395573727,448.881977401269,0.0
0.043000000000000003,6.709376245503157,-1.3867642159960276,10.0,0.0,15.477558399636717,16.673277185423842,235.10815372853793,448.881977401269,0.0
0.044,6.744196093263161,-1.5028656568708394,10.0,0.0,15.74857785831126,16.87893749904121,248.8181267625822,448.881977401269,0.0
0.045,6.750563942850831,-1.6564343609015326,10.0,0.0,16.02879294551472,17.090781462187255,251.61117095327992,448.881977401269,0.0
0.046,6.764566527560506,-1.7840489455190416,10.0,0.0,16.314672837580048,17.307985931916857,266.60539535969383,448.881977401269,0.0
0.047,6.752169677737121,-1.9446655565152717,10.0,0.0,16.610076868775216,17.533561623207692,270.0627790167984,448.881977401269,0.0
0.048,6.7291903821171735,-2.110358990489937,10.0,0.0,16.91511817760721,17.768523902508925,283.13731951482634,448.881977401269,0.0
0.049,6.714097190323873,-2.246352557911731,10.0,0.0,17.22645394156277,18.011924542904307,294.70561782835244,448.881977401269,0.0
0.05,6.666841209228205,-2.4219663531358275,10.0,0.0,17.548953774962747,18.267165921658286,300.1294548425776,448.881977401269,0.0
0.051000000000000004,6.612335516543512,-2.59336894353628,10.0,0.0,17.88182590988993,18.53465621226123,310.75154600411304,448.881977401269,0.0
0.052000000000000005,6.568447424188529,-2.726701034625408,10.0,0.0,18.22111236450049,18.81296732052879,322.35703405819294,448.881977401269,0.0
0.053,6.5036136539679195,-2.8764091099274185,10.0,0.0,18.569435851849082,19.104068797231378,330.9557012510771,448.881977401269,0.0
0.054,6.434362099984388,-3.0149932598739144,10.0,0.0,18.925784313874168,19.407861808234543,339.4707232587175,448.881977401269,0.0
0.055,6.370891759459199,-3.1253006473392393,10.0,0.0,19.28762520191878,19.723199586257838,348.00092263299223,448.881977401269,0.0
0.056,6.314459991163816,-3.2071523724558277,10.0,0.0,19.65271639484943,20.048760466390505,356.29964302226927,448.881977401269,0.0
0.057,6.266092078485367,-3.262894600420583,10.0,0.0,20.01916768432525,20.383030530514645,362.98468703488817,448.881977401269,0.0
0.058,6.234656406121481,-3.2830044001420036,10.0,0.0,20.38405550695561,20.723492962007192,368.0316803659419,448.881977401269,0.0
0.059000000000000004,6.228510489334133,-3.2600491726267444,10.0,0.0,20.743774617448285,21.0667596267365,372.35801287012686,448.881977401269,0.0
0.06,6.247959954981508,-3.201438289803519,10.0,0.0,21.095630838529225,21.40947063565305,373.88739853789605,448.881977401269,0.0
0.061,6.298571070969623,-3.1064761741463998,10.0,0.0,21.436712814499675,21.747723437683817,371.47602194372377,448.881977401269,0.0
0.062,6.38094735961424,-2.982369480030801,10.0,0.0,21.76480975788002,22.077703876517536,366.2922057853833,448.881977401269,0.0
0.063,6.53566146196873,-2.7695519558602215,10.0,0.0,22.070926190088084,22.39130117743337,372.07145994459506,448.881977401269,0.0
0.064,6.708566607552835,-2.560747003310555,10.0,0.0,22.35695033962817,22.686677966487718,365.1882535794375,448.881977401269,0.0
0.065,6.897199383751794,-2.3667028673086685,10.0,0.0,22.62465294768497,22.962098937664592,356.7297130485294,448.881977401269,0.0
0.066,7.167218997264825,-2.0824440278168583,10.0,0.0,22.863799361069702,23.20893224280502,357.7888817172531,448.881977401269,0.0
0.067,7.423387055578651,-1.859201647307153,10.0,0.0,23.082000390168847,23.42951856849048,345.1266644280509,448.881977401269,0.0
0.068,7.736929428236853,-1.5824320316278497,10.0,0.0,23.27222771500701,23.617938384108047,342.9584987314189,448.881977401269,0.0
0.069,8.04132723792414,-1.3546495884062866,10.0,0.0,23.43998591632552,23.77619061530866,334.2677598047511,448.881977401269,0.0
0.07,8.395997401416553,-1.0747195592463576,10.0,0.0,23.578279041856877,23.89942370363377,322.7417355360636,448.881977401269,0.0
0.07100000000000001,8.726669482066718,-0.8579631993863083,10.0,0.0,23.694022264374595,23.99133556844291,337.9106389559309,448.881977401269,0.0
0.07200000000000001,8.91385728821635,-0.8925675486457335,10.0,0.0,23.81335639313859,24.06834663115294,344.8606079910171,448.881977401269,0.0
0.073,8.941721008651788,-1.1508071676799903,10.0,0.0,23.95651852989837,24.148396869281978,362.43451347602996,448.881977401269,0.0
0.074,8.927907180207171,-1.4305443375681337,10.0,0.0,24.121558169292424,24.236556455607346,368.59250641149885,448.881977401269,0.0
0.075,8.859340450140312,-1.7499202918046703,10.0,0.0,24.31124378664675,24.33980824926249,387.10067316750514,448.881977401269,0.0
0.076,8.767176841935807,-2.0562826706616475,10.0,0.0,24.52279212376306,24.461155754889383,396.7190369145668,448.881977401269,0.0
0.077,8.62162972262067,-2.4016532593838043,10.0,0.0,24.76024751870129,24.606611890707832,408.83095327273656,448.881977401269,0.0
0.078,8.47560200325128,-2.694417929744825,10.0,0.0,25.017253395580042,24.77587553037574,428.2762610097064,448.881977401269,0.0
0.079,8.289593068490031,-3.001970310780605,10.0,0.0,25.296388163948027,24.972914099394785,438.0404594767293,448.881977401269,0.0
0.08,8.078425759776728,-3.30171273584331,10.0,0.0,25.597209455327665,25.19953060295957,447.87571303424875,448.881977401269,0.0
0.081,7.882675762310951,-3.525181384717318,7.189901892695629,0.0,25.912194395051316,25.143877620136465,457.69221189398877,448.881977401269,0.0
0.082,7.539978840582112,-3.6283231182462576,2.19355011789842,0.0,26.19922644671975,24.639529876828895,460.986162067164,448.881977401269,0.0
0.083,6.953560988477305,-3.52618358336804,0.4255331846518535,0.0,26.394853752718685,24.130880762624013,458.3656565386716,448.881977401269,0.0
0.084,6.3378423757794575,-3.290830489789993,1.6409491575240285,0.0,26.49518597175245,23.905900085663646,453.77629522407915,448.881977401269,0.0
0.085,5.906315256918477,-3.0394371101271673,3.8866866365921533,0.0,26.537687160359646,23.98963845821918,447.8112073969654,448.881977401269,0.0
0.08600000000000001,5.740835679256444,-2.8226980093069742,6.8799382501920565,0.0,26.5629847000681,24.38994089743941,444.4164822126174,448.881977401269,0.0
0.08700000000000001,5.874482551617923,-2.6455795926601153,8.621955794252589,0.0,26.608467094904768,24.898076308682732,447.2494170300358,448.881977401269,0.0
0.088,6.183894271731766,-2.5048868320616062,7.221813989255726,0.0,26.686509771882754,25.155811823806236,435.07858837144784,448.881977401269,0.0
0.089,6.451923400387878,-2.3225245463879793,10.0,0.0,26.76386880885715,25.68879084739596,422.6216917674338,448.881977401269,0.0
0.09,6.930094705393703,-2.087912042101267,10.0,0.0,26.862806091878294,26.09850745995266,423.0430681279052,448.881977401269,0.0
0.091,7.406519437149852,-1.8748328803770353,10.0,0.0,26.9717287251062,26.429521132112683,405.70260872674424,448.881977401269,0.0
0.092,7.899060065894279,-1.6152472745372628,10.0,0.0,27.076436837202166,26.688910478535163,402.8848016288775,448.881977401269,0.0
0.093,8.392883345763288,-1.3306200660138798,10.0,0.0,27.16789993585162,26.883436547026832,384.51676058481644,448.881977401269,0.0
0.094,8.881860193139804,-1.0389218393996487,10.0,0.0,27.24042879864296,27.01880709812156,376.74181694615055,448.881977401269,0.0
0.095,9.348529041348659,-0.7781623852267936,10.0,0.0,27.29347527257178,27.101449675556754,389.04267696955736,448.881977401269,0.0
0.096,9.678933668158715,-0.7381793324318502,10.0,0.0,27.347690815585512,27.149454822174285,395.510032595034,448.881977401269,0.0
0.097,9.758392380792204,-1.0355987499055588,10.0,0.0,27.43440128540968,27.192644596309844,411.43734941810834,448.881977401269,0.0
0.098,9.72004361287338,-1.4433896776028563,10.0,0.0,27.558642493536954,27.245199391611678,424.87031306000404,448.881977401269,0.0
0.099,9.640069973239122,-1.8297773809345879,10.0,0.0,27.7141397984712,27.313336440876636,443.17733826844903,448.881977401269,0.0
0.1,9.473610761596317,-2.273981742832886,9.945885403411934,0.0,27.905899680614024,27.4017676869682,454.75948274666086,448.881977401269,0.0
0.101,9.2813544679309,-2.6694877914930966,4.096038110852099,0.0,28.126390320885356,26.877073340635967,468.2358165344489,448.881977401269,0.0
0.10200000000000001,8.726033846910193,-2.917216219173212,-2.835667174373703,0.0,28.29565752905453,25.782071089890465,471.77995752209165,448.881977401269,0.0
0.10300000000000001,7.786967249491376,-2.9066708662513348,-4.836717469403318,0.0,28.33486051823404,24.760441424941288,474.1392310368231,448.881977401269,0.0
0.10400000000000001,6.778339029769507,-2.7914662008651874,-6.268926763124587,0.0,28.25541318233742,23.80892094424116,472.8552938697675,448.881977401269,0.0
0.105,5.826550923972077,-2.6112362432386096,-5.866691344281758,0.0,28.070085283275386,23.097786176471804,468.99223381162085,448.881977401269,0.0
0.106,5.066201119871749,-2.4169771190943106,-4.1362638793119615,0.0,27.812610493263016,22.6996773599245,463.00765171145565,448.881977401269,0.0
0.107,4.568756996992813,-2.258780200043715,-1.2852295723312288,0.0,27.525613230743037,22.659056800624533,456.1053107431869,448.881977401269,0.0
0.108,4.3815179700980105,-2.1508301443494666,2.093707578383958,0.0,27.252961101609184,22.952593166241087,449.2007401525101,448.881977401269,0.0
0.109,4.49184309858841,-2.1054300422020664,5.54280524620996,0.0,27.0330133112711,23.521113899933404,442.40470288116336,448.881977401269,0.0
0.11,4.868536660489119,-2.094017224223558,9.005596627084383,0.0,26.8911109643799,24.31687081591643,442.7042181949076,448.881977401269,0.0
0.111,5.461327684425909,-2.112166780646969,8.917616562275885,0.0,26.845085123162487,24.913116007660317,440.22623923440824,448.881977401269,0.0
0.112,6.022952129379293,-2.0987294432207815,10.0,0.0,26.86162678256008,25.509225296200313,424.02828332180746,448.881977401269,0.0
0.113,6.6319290656978875,-1.9878920241967963,10.0,0.0,26.92406746215355,25.97518276890331,422.3449394591007,448.881977401269,0.0
0.114,7.218211509625035,-1.7966746186710942,10.0,0.0,27.00693428064038,26.34238726282656,408.3489036604034,448.881977401269,0.0
0.115,7.744984499769483,-1.6017331295691717,10.0,0.0,27.09870347692489,26.62907578472955,401.23164146262326,448.881977401269,0.0
0.116,8.290284712990823,-1.309479041457779,10.0,0.0,27.179766070970025,26.84155708051779,385.66694894844915,448.881977401269,0.0
0.117,8.781125667737012,-1.0621877622664329,10.0,0.0,27.24969103535953,26.992357003241843,381.88499804293053,448.881977401269,0.0
0.11800000000000001,9.283694031796214,-0.7736174151792516,10.0,0.0,27.298433670194818,27.084695319633404,384.22784369041057,448.881977401269,0.0
0.11900000000000001,9.656170101318013,-0.6846351816487912,10.0,0.0,27.344633530968245,27.136727383862528,393.65108056335635,448.881977401269,0.0
0.12,9.736089445761609,-1.0048873971257288,10.0,0.0,27.427534178125022,27.183109860552506,410.3890841005585,448.881977401269,0.0
0.121,9.73557089698943,-1.3672730449677033,10.0,0.0,27.54344290734296,27.23400038809853,423.2683374335767,448.881977401269,0.0
0.122,9.633084216631538,-1.8076848364753095,10.0,0.0,27.697671256981124,27.3026610851634,438.08379930044396,448.881977401269,0.0
0.123,9.503996604191652,-2.2013276431448183,10.0,0.0,27.882239432180526,27.3930533180504,458.9202559366456,448.881977401269,0.0
0.124,9.297814637619808,-2.637998762457001,1.5219664126637706,0.0,28.10148740820634,26.58166859076017,462.7158380849455,448.881977401269,0.0
0.125,8.619634105869928,-2.80597536208495,-0.5141632683229451,0.0,28.231782828666493,25.806691243593125,470.11741989586164,448.881977401269,0.0
0.126,7.800079103974552,-2.8577191525109673,-4.427308598726935,0.0,28.275563023314522,24.79552572854523,473.11844315206855,448.881977401269,0.0
0.127,6.8353008991049204,-2.779476401158907,-6.170184884338384,0.0,28.20472450643995,23.835199898870407,471.8954317055374,448.881977401269,0.0
0.128,5.892418493151374,-2.614950176283295,-5.788813704115501,0.0,28.02762180106258,23.117271675762435,468.48451679060804,448.881977401269,0.0
0.129,5.127726722295652,-2.429728650430379,-4.279381640544202,0.0,27.77770743831707,22.690337090352735,462.858413845532,448.881977401269,0.0
0.13,4.6102976890441845,-2.271868790893016,-1.606094532448826,0.0,27.49457868401457,22.609342064413344,456.1139898221419,448.881977401269,0.0
0.131,4.389882316723177,-2.1625121362830413,1.693797355037514,0.0,27.221212669136655,22.86346030280297,449.2508671877385,448.881977401269,0.0
0.132,4.466102489432277,-2.1113835017990112,5.121669774374518,0.0,26.996064496338334,23.398308790396836,442.1337952576262,448.881977401269,0.0
0.133,4.8092300202559715,-2.0987594779753396,8.747687560867083,0.0,26.846038633303483,24.184759017608783,441.6424157075699,448.881977401269,0.0
0.134,5.386394427109577,-2.1137119032320517,9.065772952832228,0.0,26.79143138630979,24.816234041601643,441.7233855780642,448.881977401269,0.0
0.135,5.958217834872261,-2.10829109610465,9.096873935817126,0.0,26.80468655337816,25.32221216191917,425.06756018429036,448.881977401269,0.0
0.136,6.5155155109878296,-1.9952871768953586,10.0,0.0,26.854837792729704,25.822366333846954,420.94767663953206,448.881977401269,0.0
0.137,7.104554967425213,-1.8037105047840243,10.0,0.0,26.93004593059872,26.209267588428332,410.49196836294146,448.881977401269,0.0
0.138,7.631276175367884,-1.6270173309522868,10.0,0.0,27.018902897738588,26.512950593029153,400.0011425661929,448.881977401269,0.0
0.139,8.18587612341817,-1.33756009880922,10.0,0.0,27.099169104827133,26.739412211677774,387.30720828690727,448.881977401269,0.0
0.14,8.676520953218796,-1.1037266950471443,10.0,0.0,27.1712277509793,26.90282935737283,382.54564223242465,448.881977401269,0.0
0.14100000000000001,9.192396231982416,-0.8018634244161955,10.0,0.0,27.22155562135396,27.0052708207476,375.510919281248,448.881977401269,0.0
0.14200000000000002,9.593604495143268,-0.6722551595306238,10.0,0.0,27.265856574597525,27.063526768662303,394.50686519380673,448.881977401269,0.0
0.14300000000000002,9.702092307805964,-0.9633425865775269,10.0,0.0,27.344868726932226,27.1124656403486,406.2541166603244,448.881977401269,0.0
0.14400000000000002,9.72346844154608,-1.3048597612247785,10.0,0.0,27.45552956614281,27.16314534351496,420.3988039677738,448.881977401269,0.0
0.145,9.63255427354896,-1.740808655276897,10.0,0.0,27.604731498348244,27.230037480102812,434.53176314704064,448.881977401269,0.0
0.146,9.51308529918943,-2.133210797715729,10.0,0.0,27.784507197719655,27.317393041752013,455.21092149788853,448.881977401269,0.0
0.147,9.316054418894396,-2.569245356074026,3.0961410719080025,0.0,27.999080663313872,26.675044842172163,460.0236709948255,448.881977401269,0.0
0.148,8.728641089601993,-2.7806780001430025,0.5783493875039429,0.0,28.146859207654696,25.973115470525407,468.53520106665195,448.881977401269,0.0
