timestamp,iq,id,iq_ref,id_ref,vq,vd,omega,omega_ref,r
0.0,0.0,0.0,0.0,0.0,0.0,0.0,0.0,424.32616954563565,0.0
0.001,0.0,0.0,10.0,0.0,0.0,1.0999999999999999,6.115472199294103,424.32616954563565,0.0
0.002,0.5307369851907212,-0.2913212625381807,10.0,0.0,0.14204533887919985,1.9316189316290207,13.317801563642547,424.32616954563565,0.0
0.003,1.0842913387634832,-0.6024330830807904,10.0,0.0,0.384357124667687,2.6386968949419622,20.697939467553027,424.32616954563565,0.0
0.004,1.5590443546685477,-0.8700465084428163,10.0,0.0,0.6994718867930164,3.2526109522886295,28.232747544420146,424.32616954563565,0.0
0.005,1.9399447555359186,-1.0838738622210777,10.0,0.0,1.065311453102468,3.7994935661768023,35.92944872443006,424.32616954563565,0.0
0.006,2.239750732602683,-1.2510087368845633,10.0,0.0,1.4655018868449925,4.299102221838433,43.75633668444442,424.32616954563565,0.0
0.007,2.4770151619816017,-1.382020589851471,10.0,0.0,1.8883740978591532,4.765668027847139,51.58766747378032,424.32616954563565,0.0
0.008,2.6680767290418097,-1.4872241871505252,10.0,0.0,2.325877945545995,5.209220346273558,59.45942083902103,424.32616954563565,0.0
0.009000000000000001,2.8266491704841292,-1.5730794701170803,10.0,0.0,2.772378685460125,5.636635464737965,67.35059094018146,424.32616954563565,0.0
0.01,2.962077666392183,-1.645500646948331,10.0,0.0,3.224078639851053,6.052647735211881,75.20908322432116,424.32616954563565,0.0
0.011,3.0811061533574158,-1.7084279320504514,10.0,0.0,3.678407615443203,6.460489925470405,83.0265951655913,424.32616954563565,0.0
0.012,3.188848746459569,-1.7638278597420747,10.0,0.0,4.133552631697047,6.862319393890706,90.74118064793086,424.32616954563565,0.0
0.013000000000000001,3.288205119878689,-1.8140726097274587,10.0,0.0,4.588339016389012,7.259628641949282,98.35820682563939,424.32616954563565,0.0
0.014,3.3820602099432007,-1.8592355758795645,10.0,0.0,5.041843166194517,7.653355107498287,105.90865295623543,424.32616954563565,0.0
0.015,3.4721069852858886,-1.899829032412081,10.0,0.0,5.493383198131427,8.044092747085895,113.37727610343421,424.32616954563565,0.0
0.016,3.5596145800153947,-1.9360338400176071,10.0,0.0,5.94241958510469,8.43218525824161,120.68508583176356,424.32616954563565,0.0
0.017,3.645144415105338,-1.9685384477868613,10.0,0.0,6.388575043274759,8.817838951066484,127.83962377537456,424.32616954563565,0.0
0.018000000000000002,3.730251927866576,-1.9959253041084188,10.0,0.0,6.83136783302799,9.201036292373047,134.85405702603322,424.32616954563565,0.0
0.019,3.81544967906247,-2.018253592643655,10.0,0.0,7.270383321112213,9.581672501020332,141.68976328564074,424.32616954563565,0.0
0.02,3.9014648862453374,-2.0350875541282063,10.0,0.0,7.705189334130692,9.959536942333155,148.3432823300447,424.32616954563565,0.0
0.021,3.9891051824829464,-2.0457889559126508,10.0,0.0,8.135310004560049,10.334315260302239,154.92060212100432,424.32616954563565,0.0
0.022,4.079618141396171,-2.0489696811670974,10.0,0.0,8.560139305503519,10.705547790999272,161.01925282597162,424.32616954563565,0.0
0.023,4.171109372430197,-2.048468292080302,10.0,0.0,8.979521969370257,11.072981092896333,166.534238406907,424.32616954563565,0.0
0.024,4.266936196769627,-2.039517194249811,10.0,0.0,9.392730090169543,11.435983292623375,171.8647834235234,424.32616954563565,0.0
0.025,4.367255527950721,-2.0225841458509217,10.0,0.0,9.79914449451603,11.793929226271104,177.02637022703064,424.32616954563565,0.0
0.026000000000000002,4.4734353073349595,-1.9962166741499119,10.0,0.0,10.197980960389518,12.146045424568259,181.63161391243256,424.32616954563565,0.0
0.027,4.582366840795821,-1.966358349113627,10.0,0.0,10.589124658468391,12.491912978736195,185.74793639675826,424.32616954563565,0.0
0.028,4.700058850757774,-1.9240450691803936,10.0,0.0,10.971384864613876,12.830451341534015,189.43662766964098,424.32616954563565,0.0
0.029,4.820934284790598,-1.879137197786803,10.0,0.0,11.344756153370636,13.161242511022618,192.73598774770625,424.32616954563565,0.0
0.03,4.952016225740939,-1.821000614527957,10.0,0.0,11.707923484756042,13.483081433273819,195.59831968863915,424.32616954563565,0.0
0.031,5.086039273572549,-1.7621311371320891,10.0,0.0,12.061063698547066,13.79562148058647,197.80891551030922,424.32616954563565,0.0
0.032,5.230431844273564,-1.6911110488141978,10.0,0.0,12.40292038074925,14.097678592248165,200.4421589734679,424.32616954563565,0.0
0.033,5.380124186618445,-1.6166151787533525,10.0,0.0,12.733312761073865,14.38869342901298,201.91742172589852,424.32616954563565,0.0
0.034,5.537594793894332,-1.535029134414507,10.0,0.0,13.051537880865839,14.667821176756876,203.18880493813168,424.32616954563565,0.0
0.035,5.698947813469154,-1.4530296333491768,10.0,0.0,13.357649178779205,14.934684535625108,203.60405746232266,424.32616954563565,0.0
0.036000000000000004,5.870474243492053,-1.3603000477825025,10.0,0.0,13.65045542338638,15.188218311291084,204.28541056101804,424.32616954563565,0.0
0.037,6.041188711220851,-1.275010780747051,10.0,0.0,13.930879897581198,15.42861600670124,205.2233356988433,424.32616954563565,0.0
0.038,6.228175208801664,-1.168399557236846,10.0,0.0,14.196427351981786,15.654155009933262,200.35169734043586,424.32616954563565,0.0
0.039,6.404895489618571,-1.0845312562500289,10.0,0.0,14.449814560392067,15.86612549236809,209.64773540576442,424.32616954563565,0.0
0.04,6.534612624563911,-1.0851225869390002,10.0,0.0,14.699963825590459,16.069735965364643,218.170241886545,424.32616954563565,0.0
0.041,6.621487035821765,-1.1484636683301073,10.0,0.0,14.952420817214799,16.26974130369247,220.68166573712315,424.32616954563565,0.0
0.042,6.6704785161669795,-1.2647840534085386,10.0,0.0,15.211794475054209,16.47047148862455,233.10654395573727,424.32616954563565,0.0
0.043000000000000003,6.709376245503157,-1.3867642159960276,10.0,0.0,15.477558399636717,16.673277185423842,235.10815372853793,424.32616954563565,0.0
0.044,6.744196093263161,-1.5028656568708394,10.0,0.0,15.74857785831126,16.87893749904121,248.8181267625822,424.32616954563565,0.0
0.045,6.750563942850831,-1.6564343609015326,10.0,0.0,16.02879294551472,17.090781462187255,251.61117095327992,424.32616954563565,0.0
0.046,6.764566527560506,-1.7840489455190416,10.0,0.0,16.314672837580048,17.307985931916857,266.60539535969383,424.32616954563565,0.0
0.047,6.752169677737121,-1.9446655565152717,10.0,0.0,16.610076868775216,17.533561623207692,270.0627790167984,424.32616954563565,0.0
0.048,6.7291903821171735,-2.110358990489937,10.0,0.0,16.91511817760721,17.768523902508925,283.13731951482634,424.32616954563565,0.0
0.049,6.714097190323873,-2.246352557911731,10.0,0.0,17.22645394156277,18.011924542904307,294.70561782835244,424.32616954563565,0.0
0.05,6.666841209228205,-2.4219663531358275,10.0,0.0,17.548953774962747,18.267165921658286,300.1294548425776,424.32616954563565,0.0
0.051000000000000004,6.612335516543512,-2.59336894353628,10.0,0.0,17.88182590988993,18.53465621226123,310.75154600411304,424.32616954563565,0.0
0.052000000000000005,6.568447424188529,-2.726701034625408,10.0,0.0,18.22111236450049,18.81296732052879,322.35703405819294,424.32616954563565,0.0
0.053,6.5036136539679195,-2.8764091099274185,10.0,0.0,18.569435851849082,19.104068797231378,330.9557012510771,424.32616954563565,0.0
0.054,6.434362099984388,-3.0149932598739144,10.0,0.0,18.925784313874168,19.407861808234543,339.4707232587175,424.32616954563565,0.0
0.055,6.370891759459199,-3.1253006473392393,10.0,0.0,19.28762520191878,19.723199586257838,348.00092263299223,424.32616954563565,0.0
0.056,6.314459991163816,-3.2071523724558277,10.0,0.0,19.65271639484943,20.048760466390505,356.29964302226927,424.32616954563565,0.0
0.057,6.266092078485367,-3.262894600420583,10.0,0.0,20.01916768432525,20.383030530514645,362.98468703488817,424.32616954563565,0.0
0.058,6.234656406121481,-3.2830044001420036,10.0,0.0,20.38405550695561,20.723492962007192,368.0316803659419,424.32616954563565,0.0
0.059000000000000004,6.228510489334133,-3.2600491726267444,10.0,0.0,20.743774617448285,21.0667596267365,372.35801287012686,424.32616954563565,0.0
0.06,6.247959954981508,-3.201438289803519,10.0,0.0,21.095630838529225,21.40947063565305,373.88739853789605,424.32616954563565,0.0
0.061,6.298571070969623,-3.1064761741463998,10.0,0.0,21.436712814499675,21.747723437683817,371.47602194372377,424.32616954563565,0.0
0.062,6.38094735961424,-2.982369480030801,10.0,0.0,21.76480975788002,22.077703876517536,366.2922057853833,424.32616954563565,0.0
0.063,6.53566146196873,-2.7695519558602215,10.0,0.0,22.070926190088084,22.39130117743337,372.07145994459506,424.32616954563565,0.0
0.064,6.708566607552835,-2.560747003310555,10.0,0.0,22.35695033962817,22.686677966487718,365.1882535794375,424.32616954563565,0.0
0.065,6.897199383751794,-2.3667028673086685,10.0,0.0,22.62465294768497,22.962098937664592,356.7297130485294,424.32616954563565,0.0
0.066,7.167218997264825,-2.0824440278168583,10.0,0.0,22.863799361069702,23.20893224280502,357.7888817172531,424.32616954563565,0.0
0.067,7.423387055578651,-1.859201647307153,10.0,0.0,23.082000390168847,23.42951856849048,345.1266644280509,424.32616954563565,0.0
0.068,7.736929428236853,-1.5824320316278497,10.0,0.0,23.27222771500701,23.617938384108047,342.9584987314189,424.32616954563565,0.0
0.069,8.04132723792414,-1.3546495884062866,10.0,0.0,23.43998591632552,23.77619061530866,334.2677598047511,424.32616954563565,0.0
0.07,8.395997401416553,-1.0747195592463576,10.0,0.0,23.578279041856877,23.89942370363377,322.7417355360636,424.32616954563565,0.0
0.07100000000000001,8.726669482066718,-0.8579631993863083,10.0,0.0,23.694022264374595,23.99133556844291,337.9106389559309,424.32616954563565,0.0
0.07200000000000001,8.91385728821635,-0.8925675486457335,10.0,0.0,23.81335639313859,24.06834663115294,344.8606079910171,424.32616954563565,0.0
0.073,8.941721008651788,-1.1508071676799903,10.0,0.0,23.95651852989837,24.148396869281978,362.43451347602996,424.32616954563565,0.0
0.074,8.927907180207171,-1.4305443375681337,10.0,0.0,24.121558169292424,24.236556455607346,368.59250641149885,424.32616954563565,0.0
0.075,8.859340450140312,-1.7499202918046703,10.0,0.0,24.31124378664675,24.33980824926249,387.10067316750514,424.32616954563565,0.0
0.076,8.767176841935807,-2.0562826706616475,10.0,0.0,24.52279212376306,24.461155754889383,396.7190369145668,424.32616954563565,0.0
0.077,8.62162972262067,-2.4016532593838043,10.0,0.0,24.76024751870129,24.606611890707832,408.83095327273656,424.32616954563565,0.0
0.078,8.47560200325128,-2.694417929744825,10.0,0.0,25.017253395580042,24.77587553037574,428.2762610097064,424.32616954563565,0.0
0.079,8.289593068490031,-3.001970310780605,4.7263615563902315,0.0,25.296388163948027,24.39281387059771,433.6283356107408,424.32616954563565,0.0
0.08,7.803867853459794,-3.1536355767801343,1.9573025952219716,0.0,25.522910944951008,23.87568143664758,438.00438069523835,424.32616954563565,0.0
0.081,7.176511311868469,-3.152169183466259,-0.36750205852282924,0.0,25.673390248534147,23.26902856931725,441.261280043164,424.32616954563565,0.0
0.082,6.479927983089389,-3.044551372440841,-2.165302837460932,0.0,25.736333039746288,22.633929480682326,440.3434101197544,424.32616954563565,0.0
0.083,5.783895603526498,-2.8602042452412757,-1.8665402814973362,0.0,25.710269637092026,22.189074197441602,436.4373521858325,424.32616954563565,0.0
0.084,5.230216903326074,-2.6573078022829506,-0.03462314093833285,0.0,25.621851908925688,22.038565695387796,431.58955096141096,424.32616954563565,0.0
0.085,4.914056996245252,-2.4865066944353655,2.316643657114672,0.0,25.510465945936957,22.163827249879862,425.730840274641,424.32616954563565,0.0
0.08600000000000001,4.85032752632511,-2.3638334273298125,5.231952293209588,0.0,25.41095868639318,22.566443977234172,420.56267201784675,424.32616954563565,0.0
0.08700000000000001,5.045749341149881,-2.279268779878052,7.853671396884614,0.0,25.353588446990567,23.155950626612057,421.6207509339056,424.32616954563565,0.0
0.088,5.440176328814809,-2.226577310302261,7.351686124972498,0.0,25.355955481287182,23.5579012656699,418.6726082131919,424.32616954563565,0.0
0.089,5.803194588894122,-2.162037242524046,8.882293098653781,0.0,25.39170838330007,24.057292425343615,403.81194676980516,424.32616954563565,0.0
0.09,6.266293352799381,-2.0306462616802423,10.0,0.0,25.460017503864012,24.570650767233726,403.9614201563878,424.32616954563565,0.0
0.091,6.79174425072854,-1.8676910493332533,10.0,0.0,25.556220383010842,24.975158506844608,393.43933888026015,424.32616954563565,0.0
0.092,7.276796044015618,-1.7150150877606012,10.0,0.0,25.668088944554555,25.300734572126807,385.3485831800483,424.32616954563565,0.0
0.093,7.7896733797733155,-1.45656972597902,10.0,0.0,25.774426026291863,25.553373898034664,374.78143351720973,424.32616954563565,0.0
0.094,8.239764746877766,-1.2516781804712038,10.0,0.0,25.87543971605819,25.74700172250157,369.948615060772,424.32616954563565,0.0
0.095,8.721671362346516,-0.9661390368358913,10.0,0.0,25.956354428949762,25.88285931946789,353.9704386127377,424.32616954563565,0.0
0.096,9.166961829628882,-0.7203543541728528,10.0,0.0,26.018582506592235,25.969059742780367,367.6262517644011,424.32616954563565,0.0
0.097,9.397406508915354,-0.8107632023994671,10.0,0.0,26.095610638933262,26.03196692147715,380.01228518494395,424.32616954563565,0.0
0.098,9.439499673733689,-1.135006873973483,10.0,0.0,26.205989391300733,26.093960394201208,395.34473501998093,424.32616954563565,0.0
0.099,9.427959328278245,-1.4666044144001527,10.0,0.0,26.34476290843506,26.16248276453789,407.4088427933599,424.32616954563565,0.0
0.1,9.323991445544086,-1.8736515644709548,10.0,0.0,26.517970521993156,26.249351313200542,421.32696588001704,424.32616954563565,0.0
0.101,9.20355715876883,-2.2303631744881818,8.292512031329341,0.0,26.71771203466289,26.169238184516892,438.91196012173396,424.32616954563565,0.0
0.10200000000000001,8.921304635972913,-2.5881607535763678,-0.6458429952900975,0.0,26.925258700796807,25.18080978136696,441.09357043909955,424.32616954563565,0.0
0.10300000000000001,8.1484524325879,-2.6574486155789274,-1.904322162907535,0.0,27.017251549031737,24.345120944118076,446.79741717814846,424.32616954563565,0.0
0.10400000000000001,7.290850406589828,-2.644480714333353,-4.980958008757121,0.0,27.014356880961255,23.362962824876234,448.6451090197117,424.32616954563565,0.0
0.105,6.355608363834874,-2.5424034101635105,-6.147993324279497,0.0,26.90243704332741,22.475424128945626,447.085093422674,424.32616954563565,0.0
0.106,5.483509742046637,-2.3892336858210346,-5.595574764531028,0.0,26.697127423227897,21.824462141541403,443.91498435819244,424.32616954563565,0.0
0.107,4.794329118225106,-2.2344008912021254,-4.206408380415821,0.0,26.43175265623328,21.432438389925323,438.9825046980691,424.32616954563565,0.0
0.108,4.331051910800254,-2.111191930824041,-1.8867319018784743,0.0,26.1417083330811,21.338420972147873,433.0928696549025,424.32616954563565,0.0
0.109,4.125301240334898,-2.0335445980124107,0.970418618612161,0.0,25.863957583460905,21.533890457978476,427.19119076484714,424.32616954563565,0.0
0.11,4.174917679240329,-2.0049577219386734,3.892607851447714,0.0,25.631160774345798,21.967391915686765,420.67719044933403,424.32616954563565,0.0
0.111,4.447974890953729,-2.0112612157617233,7.18609780016728,0.0,25.465973044994303,22.637785419844082,418.65319448049274,424.32616954563565,0.0
0.112,4.9355401029688615,-2.0328441657710385,8.254825535239355,0.0,25.386654528556463,23.25834435081672,421.01848918317177,424.32616954563565,0.0
0.113,5.463442360919166,-2.0460447383444986,7.105254987524481,0.0,25.378559990342684,23.618581903194578,407.53092290032913,424.32616954563565,0.0
0.114,5.894833250779004,-1.9680904513370943,10.0,0.0,25.398591683891503,24.229729928057637,400.2827981733367,424.32616954563565,0.0
0.115,6.475698273262398,-1.833215454337895,10.0,0.0,25.463678303771914,24.693237626089953,399.3394104487959,424.32616954563565,0.0
0.116,7.002380612403991,-1.719392869975163,10.0,0.0,25.557435297157607,25.064776809226338,383.88554688805897,424.32616954563565,0.0
0.117,7.5333230356746625,-1.512538213343284,10.0,0.0,25.657354723132492,25.355400930219297,381.35471803411036,424.32616954563565,0.0
0.11800000000000001,8.019755710270509,-1.3051393916892486,10.0,0.0,25.755599294793555,25.578756411737608,367.11690270231884,424.32616954563565,0.0
0.11900000000000001,8.50940263299443,-1.0428841290992192,10.0,0.0,25.839580866771986,25.740603967516527,356.69489989105614,424.32616954563565,0.0
0.12,8.953048907052843,-0.824276776803599,10.0,0.0,25.90992478100384,25.850760303996196,366.3758763192219,424.32616954563565,0.0
0.121,9.315242833980967,-0.7222574843562399,10.0,0.0,25.975213888814213,25.921530529029575,372.9501645613101,424.32616954563565,0.0
0.122,9.407236778139517,-0.9981977581577244,10.0,0.0,26.072424731389543,25.985255247752505,392.311979420082,424.32616954563565,0.0
0.123,9.403955486834295,-1.3520883040920957,10.0,0.0,26.202455518894396,26.053609460345832,399.14974782326465,424.32616954563565,0.0
0.124,9.348665862143289,-1.7093353584407693,10.0,0.0,26.362076919427096,26.13418037623326,420.2016626877019,424.32616954563565,0.0
0.125,9.224767682838582,-2.103339651365693,8.380758111678762,0.0,26.553561273173532,26.0576156363465,426.7134016732447,424.32616954563565,0.0
0.126,8.979621332891597,-2.438412775499479,5.10101629763129,0.0,26.75115871828211,25.68900374186216,438.50602318109003,424.32616954563565,0.0
0.127,8.52063190177633,-2.6729729203411643,-0.9370929926459306,0.0,26.914586114122653,24.793655551470312,445.51128279571105,424.32616954563565,0.0
0.128,7.727796488743707,-2.715175691520386,-4.651573932457198,0.0,26.974432654721237,23.738595110347664,447.82618756978405,424.32616954563565,0.0
0.129,6.763414287976011,-2.621118011574479,-6.044026499735181,0.0,26.91202012464188,22.777154082348805,447.2589514804624,424.32616954563565,0.0
0.13,5.826376144426021,-2.4644088757313227,-5.989736274422607,0.0,26.743407316627266,22.018942728381873,444.63949447898,424.32616954563565,0.0
0.131,5.043531542047638,-2.2971105230182913,-4.883141023014864,0.0,26.49899892657743,21.517616329238024,440.3938978792777,424.32616954563565,0.0
0.132,4.480740621227617,-2.154157120617845,-2.921020006500129,0.0,26.21484684488127,21.300827645572536,434.7039636853648,424.32616954563565,0.0
0.133,4.16729707997239,-2.056241392360855,-0.1798308509409683,0.0,25.928089906903914,21.388063099380222,428.7792093858288,424.32616954563565,0.0
0.134,4.119561319805501,-2.0066900293816228,2.7380159004251023,0.0,25.67426071545991,21.733567063309877,422.4511318622951,424.32616954563565,0.0
0.135,4.307806784051934,-2.0031778421062123,5.920805039025355,0.0,25.480474012582768,22.318881690765757,417.5426415484019,424.32616954563565,0.0
0.136,4.719649330363828,-2.0170646868249267,8.44288547594429,0.0,25.366160117530747,23.028466916411574,420.0113718608525,424.32616954563565,0.0
0.137,5.269337846249585,-2.0468603261800666,7.251668296566828,0.0,25.337374786430384,23.443060224602586,413.1897905642633,424.32616954563565,0.0
0.138,5.71329561058099,-2.0194664728849228,10.0,0.0,25.349616039003145,24.08420585911829,400.0822216891718,424.32616954563565,0.0
0.139,6.2983706751897826,-1.9222703769749574,10.0,0.0,25.41433009775306,24.575059058941704,402.2362715653603,424.32616954563565,0.0
0.14,6.848704163350081,-1.7957678940051982,10.0,0.0,25.508714758442743,24.968612411606223,387.9702971919461,424.32616954563565,0.0
0.14100000000000001,7.361187167091366,-1.6300843396488887,10.0,0.0,25.61605612218042,25.281379099543337,384.581455344138,424.32616954563565,0.0
0.14200000000000002,7.868339036093583,-1.393411123973409,10.0,0.0,25.719562800157295,25.52294137950766,368.815879011619,424.32616954563565,0.0
0.14300000000000002,8.334219806740114,-1.1688283003472142,10.0,0.0,25.81453765989079,25.704522733192146,366.73124016249125,424.32616954563565,0.0
0.14400000000000002,8.794365062394936,-0.9216692163916178,10.0,0.0,25.893231498020533,25.831486267065966,358.3126718938375,424.32616954563565,0.0
0.145,9.251033199463496,-0.6589821932125451,10.0,0.0,25.950328324014542,25.907990788844387,368.35702150386464,424.32616954563565,0.0
