timestamp,iq,id,iq_ref,id_ref,vq,vd,omega,omega_ref,r
0.0,0.0,0.0,0.0,0.0,0.0,0.0,0.0,329.93626002243974,0.0
0.001,0.0,0.0,10.0,0.0,0.0,1.0999999999999999,6.115472199294103,329.93626002243974,0.0
0.002,0.5307369851907212,-0.2913212625381807,10.0,0.0,0.14204533887919985,1.9316189316290207,13.317801563642547,329.93626002243974,0.0
0.003,1.0842913387634832,-0.6024330830807904,10.0,0.0,0.384357124667687,2.6386968949419622,20.697939467553027,329.93626002243974,0.0
0.004,1.5590443546685477,-0.8700465084428163,10.0,0.0,0.6994718867930164,3.2526109522886295,28.232747544420146,329.93626002243974,0.0
0.005,1.9399447555359186,-1.0838738622210777,10.0,0.0,1.065311453102468,3.7994935661768023,35.92944872443006,329.93626002243974,0.0
0.006,2.239750732602683,-1.2510087368845633,10.0,0.0,1.4655018868449925,4.299102221838433,43.75633668444442,329.93626002243974,0.0
0.007,2.4770151619816017,-1.382020589851471,10.0,0.0,1.8883740978591532,4.765668027847139,51.58766747378032,329.93626002243974,0.0
0.008,2.6680767290418097,-1.4872241871505252,10.0,0.0,2.325877945545995,5.209220346273558,59.45942083902103,329.93626002243974,0.0
0.009000000000000001,2.8266491704841292,-1.5730794701170803,10.0,0.0,2.772378685460125,5.636635464737965,67.35059094018146,329.93626002243974,0.0
0.01,2.962077666392183,-1.645500646948331,10.0,0.0,3.224078639851053,6.052647735211881,75.20908322432116,329.93626002243974,0.0
0.011,3.0811061533574158,-1.7084279320504514,10.0,0.0,3.678407615443203,6.460489925470405,83.0265951655913,329.93626002243974,0.0
0.012,3.188848746459569,-1.7638278597420747,10.0,0.0,4.133552631697047,6.862319393890706,90.74118064793086,329.93626002243974,0.0
0.013000000000000001,3.288205119878689,-1.8140726097274587,10.0,0.0,4.588339016389012,7.259628641949282,98.35820682563939,329.93626002243974,0.0
0.014,3.3820602099432007,-1.8592355758795645,10.0,0.0,5.041843166194517,7.653355107498287,105.90865295623543,329.93626002243974,0.0
0.015,3.4721069852858886,-1.899829032412081,10.0,0.0,5.493383198131427,8.044092747085895,113.37727610343421,329.93626002243974,0.0
0.016,3.5596145800153947,-1.9360338400176071,10.0,0.0,5.94241958510469,8.43218525824161,120.68508583176356,329.93626002243974,0.0
0.017,3.645144415105338,-1.9685384477868613,10.0,0.0,6.388575043274759,8.817838951066484,127.83962377537456,329.93626002243974,0.0
0.018000000000000002,3.730251927866576,-1.9959253041084188,10.0,0.0,6.83136783302799,9.201036292373047,134.85405702603322,329.93626002243974,0.0
0.019,3.81544967906247,-2.018253592643655,10.0,0.0,7.270383321112213,9.581672501020332,141.68976328564074,329.93626002243974,0.0
0.02,3.9014648862453374,-2.0350875541282063,10.0,0.0,7.705189334130692,9.959536942333155,148.3432823300447,329.93626002243974,0.0
0.021,3.9891051824829464,-2.0457889559126508,10.0,0.0,8.135310004560049,10.334315260302239,154.92060212100432,329.93626002243974,0.0
0.022,4.079618141396171,-2.0489696811670974,10.0,0.0,8.560139305503519,10.705547790999272,161.01925282597162,329.93626002243974,0.0
0.023,4.171109372430197,-2.048468292080302,10.0,0.0,8.979521969370257,11.072981092896333,166.534238406907,329.93626002243974,0.0
0.024,4.266936196769627,-2.039517194249811,10.0,0.0,9.392730090169543,11.435983292623375,171.8647834235234,329.93626002243974,0.0
0.025,4.367255527950721,-2.0225841458509217,10.0,0.0,9.79914449451603,11.793929226271104,177.02637022703064,329.93626002243974,0.0
0.026000000000000002,4.4734353073349595,-1.9962166741499119,10.0,0.0,10.197980960389518,12.146045424568259,181.63161391243256,329.93626002243974,0.0
0.027,4.582366840795821,-1.966358349113627,10.0,0.0,10.589124658468391,12.491912978736195,185.74793639675826,329.93626002243974,0.0
0.028,4.700058850757774,-1.9240450691803936,10.0,0.0,10.971384864613876,12.830451341534015,189.43662766964098,329.93626002243974,0.0
0.029,4.820934284790598,-1.879137197786803,10.0,0.0,11.344756153370636,13.161242511022618,192.73598774770625,329.93626002243974,0.0
0.03,4.952016225740939,-1.821000614527957,10.0,0.0,11.707923484756042,13.483081433273819,195.59831968863915,329.93626002243974,0.0
0.031,5.086039273572549,-1.7621311371320891,10.0,0.0,12.061063698547066,13.79562148058647,197.80891551030922,329.93626002243974,0.0
0.032,5.230431844273564,-1.6911110488141978,10.0,0.0,12.40292038074925,14.097678592248165,200.4421589734679,329.93626002243974,0.0
0.033,5.380124186618445,-1.6166151787533525,10.0,0.0,12.733312761073865,14.38869342901298,201.91742172589852,329.93626002243974,0.0
0.034,5.537594793894332,-1.535029134414507,10.0,0.0,13.051537880865839,14.667821176756876,203.18880493813168,329.93626002243974,0.0
0.035,5.698947813469154,-1.4530296333491768,10.0,0.0,13.357649178779205,14.934684535625108,203.60405746232266,329.93626002243974,0.0
0.036000000000000004,5.870474243492053,-1.3603000477825025,10.0,0.0,13.65045542338638,15.188218311291084,204.28541056101804,329.93626002243974,0.0
0.037,6.041188711220851,-1.275010780747051,10.0,0.0,13.930879897581198,15.42861600670124,205.2233356988433,329.93626002243974,0.0
0.038,6.228175208801664,-1.168399557236846,10.0,0.0,14.196427351981786,15.654155009933262,200.35169734043586,329.93626002243974,0.0
0.039,6.404895489618571,-1.0845312562500289,10.0,0.0,14.449814560392067,15.86612549236809,209.64773540576442,329.93626002243974,0.0
0.04,6.534612624563911,-1.0851225869390002,10.0,0.0,14.699963825590459,16.069735965364643,218.170241886545,329.93626002243974,0.0
0.041,6.621487035821765,-1.1484636683301073,10.0,0.0,14.952420817214799,16.26974130369247,220.68166573712315,329.93626002243974,0.0
0.042,6.6704785161669795,-1.2647840534085386,10.0,0.0,15.211794475054209,16.47047148862455,233.10654395573727,329.93626002243974,0.0
0.043000000000000003,6.709376245503157,-1.3867642159960276,10.0,0.0,15.477558399636717,16.673277185423842,235.10815372853793,329.93626002243974,0.0
0.044,6.744196093263161,-1.5028656568708394,10.0,0.0,15.74857785831126,16.87893749904121,248.8181267625822,329.93626002243974,0.0
0.045,6.750563942850831,-1.6564343609015326,10.0,0.0,16.02879294551472,17.090781462187255,251.61117095327992,329.93626002243974,0.0
0.046,6.764566527560506,-1.7840489455190416,10.0,0.0,16.314672837580048,17.307985931916857,266.60539535969383,329.93626002243974,0.0
0.047,6.752169677737121,-1.9446655565152717,10.0,0.0,16.610076868775216,17.533561623207692,270.0627790167984,329.93626002243974,0.0
0.048,6.7291903821171735,-2.110358990489937,10.0,0.0,16.91511817760721,17.768523902508925,283.13731951482634,329.93626002243974,0.0
0.049,6.714097190323873,-2.246352557911731,10.0,0.0,17.22645394156277,18.011924542904307,294.70561782835244,329.93626002243974,0.0
0.05,6.666841209228205,-2.4219663531358275,10.0,0.0,17.548953774962747,18.267165921658286,300.1294548425776,329.93626002243974,0.0
0.051000000000000004,6.612335516543512,-2.59336894353628,10.0,0.0,17.88182590988993,18.53465621226123,310.75154600411304,329.93626002243974,0.0
0.052000000000000005,6.568447424188529,-2.726701034625408,10.0,0.0,18.22111236450049,18.81296732052879,322.35703405819294,329.93626002243974,0.0
0.053,6.5036136539679195,-2.8764091099274185,9.415701819247321,0.0,18.56943585184908,19.039795997348577,330.6893618499519,329.93626002243974,0.0
0.054,6.403732320317892,-2.998551093212688,5.2420069050927065,0.0,18.917548395553155,18.835849305471065,336.42396560974817,329.93626002243974,0.0
0.055,6.085692272754707,-2.9825355775528037,2.3098279693215007,0.0,19.207471889143633,18.440291395253876,337.33313413341403,329.93626002243974,0.0
0.056,5.6224192468828695,-2.8476605608266343,1.781274966378822,0.0,19.414171145670057,18.132242216821744,337.19046538110115,329.93626002243974,0.0
0.057,5.182065048283113,-2.6794172809063546,1.7800672889486515,0.0,19.552237548076654,17.924626798984818,336.30918517298187,329.93626002243974,0.0
0.058,4.830028070013879,-2.5117883908118666,2.1569781415028704,0.0,19.63897902334772,17.827372359351134,334.96500573277586,329.93626002243974,0.0
0.059000000000000004,4.588733703449498,-2.3636066538925413,2.778780404502511,0.0,19.69269720496812,17.83616866215173,333.0450276420065,329.93626002243974,0.0
0.06,4.466668204599433,-2.228973770810958,3.707681773691517,0.0,19.728595398936758,17.95643254202297,332.2399555857692,329.93626002243974,0.0
0.061,4.462435216236644,-2.1122277897056883,4.087180846176869,0.0,19.761434432404894,18.099960711316857,334.20367580347516,329.93626002243974,0.0
0.062,4.5154230836905525,-2.017370703567904,3.0626465795135447,0.0,19.796075559791504,18.110055211666783,325.9749692420329,329.93626002243974,0.0
0.063,4.545139510849414,-1.8822201001721313,7.216612768038746,0.0,19.814344028962292,18.587047069811852,321.2104087601518,329.93626002243974,0.0
0.064,4.831577115352835,-1.8023291285209302,9.686151521602186,0.0,19.87104833618282,19.21706521784243,326.95139579031223,329.93626002243974,0.0
0.065,5.260586803018411,-1.8114904222251176,6.845506648843234,0.0,19.986890679508342,19.4082589686547,318.7875002324492,329.93626002243974,0.0
0.066,5.530921266815988,-1.7357104631260512,10.0,0.0,20.10184075514459,19.941871601932057,317.15508047824744,329.93626002243974,0.0
0.067,5.961499060682284,-1.64383017753878,10.0,0.0,20.249308054721336,20.357412833246425,316.823606113807,329.93626002243974,0.0
0.068,6.34923168437622,-1.5926245265296965,10.0,0.0,20.418868928716726,20.707801860719353,307.99277405954297,329.93626002243974,0.0
0.069,6.752959298188766,-1.4506093024129512,10.0,0.0,20.59140299991711,20.99957536156209,307.6620973887504,329.93626002243974,0.0
0.07,7.098606070036045,-1.3413839009956758,10.0,0.0,20.765266372167012,21.24544105067551,301.9964147222577,329.93626002243974,0.0
0.07100000000000001,7.464531722129292,-1.1538026498322957,10.0,0.0,20.926788292489455,21.447311154090805,293.483281339637,329.93626002243974,0.0
0.07200000000000001,7.781464409599286,-1.01534988212557,10.0,0.0,21.078991039185084,21.61394310009604,296.2402460769722,329.93626002243974,0.0
0.073,8.10957725295446,-0.8402192617421433,10.0,0.0,21.214756865246553,21.74620904027594,301.527775051075,329.93626002243974,0.0
0.074,8.246439885959125,-0.9578397210744394,10.0,0.0,21.364862259450256,21.86705120784704,313.56347525506067,329.93626002243974,0.0
0.075,8.285654630259097,-1.1917621427337728,10.0,0.0,21.536596592779905,21.98787470253845,324.0109323159361,329.93626002243974,0.0
0.076,8.308267541537,-1.4045674102926085,9.18348473256492,0.0,21.72430919746061,22.021877328878265,332.14156717706123,329.93626002243974,0.0
0.077,8.217046693440698,-1.6697607490859216,5.096114230456134,0.0,21.9236940188989,21.640065772897923,339.21906805011247,329.93626002243974,0.0
0.078,7.907699899930266,-1.7783760968269304,1.4645357136537882,0.0,22.0742549574589,20.99088986163745,346.1229298859555,329.93626002243974,0.0
0.079,7.350573410599944,-1.8339220114195687,-2.149261902902886,0.0,22.14986610816465,20.118676128597052,347.12881356564145,329.93626002243974,0.0
0.08,6.63065273544899,-1.7737050784304524,-2.824129278177878,0.0,22.12351544872104,19.376767458189878,350.34679402896865,329.93626002243974,0.0
0.081,5.924894734764911,-1.7218932117121926,-4.637224849906764,0.0,22.020511852171953,18.58415692306538,350.71461103389487,329.93626002243974,0.0
0.082,5.219924655754063,-1.6499861372119449,-5.028916862484427,0.0,21.841155902237492,17.906041044816526,350.0042971683258,329.93626002243974,0.0
0.083,4.593465463456259,-1.5862358753735282,-4.874440301158764,0.0,21.605630501414367,17.360571311633347,348.60148272084035,329.93626002243974,0.0
0.084,4.079636429050148,-1.5416126726767925,-4.359685304400036,0.0,21.334839617676977,16.951430897578085,346.4793180218216,329.93626002243974,0.0
0.085,3.6876506298855807,-1.5204244480167175,-3.4640335348844777,0.0,21.048329308222158,16.687479728797772,343.96227655333274,329.93626002243974,0.0
0.08600000000000001,3.4230620681539707,-1.5214627962292018,-2.3457729659489797,0.0,20.764401013384763,16.560509674636585,341.3624139172635,329.93626002243974,0.0
0.08700000000000001,3.2791579748552513,-1.5423753906869568,-1.1601031868625942,0.0,20.498458544523224,16.550268431063465,338.32094636829567,329.93626002243974,0.0
0.088,3.238536706890039,-1.5798241691262789,0.27678372416276176,0.0,20.261996437874267,16.66368722592662,335.264289318951,329.93626002243974,0.0
0.089,3.299677360099878,-1.627413292858856,1.7518319558699815,0.0,20.065382737202714,16.882872682483374,331.96091254055904,329.93626002243974,0.0
0.09,3.4491479445645314,-1.6816459329716262,3.3832738198847707,0.0,19.915838651429066,17.209355988282827,329.2034567131174,329.93626002243974,0.0
0.091,3.687364343324941,-1.7316733274523928,4.769329766698802,0.0,19.818857991804485,17.599679192415373,329.90603417275304,329.93626002243974,0.0
0.092,3.9870861804218007,-1.772880486238065,4.418343295377859,0.0,19.774640232077243,17.858215700765715,331.1397263022732,329.93626002243974,0.0
0.093,4.228683015205385,-1.7867645949655768,3.7894625678194567,0.0,19.76181307952993,17.997231333534856,321.59653092773476,329.93626002243974,0.0
0.094,4.415863121211954,-1.7192514885279144,8.644457546035714,0.0,19.756604922718832,18.643227099338837,320.7936218765107,329.93626002243974,0.0
0.095,4.850494420047909,-1.7127389192705003,9.137338453107027,0.0,19.81647590661531,19.1838317810651,324.1533009702072,329.93626002243974,0.0
0.096,5.289712128465263,-1.737577394926108,7.5153284967810965,0.0,19.927217618309456,19.449045553804268,314.29356724023256,329.93626002243974,0.0
0.097,5.6188693639648335,-1.6663171389062192,10.0,0.0,20.045319523189363,19.956530966535496,315.75438072688866,329.93626002243974,0.0
0.098,6.052274312915495,-1.5872591130562737,10.0,0.0,20.1943759985711,20.355848341419833,311.36381693304827,329.93626002243974,0.0
0.099,6.441294339681628,-1.5329509115611808,10.0,0.0,20.363275241997144,20.691681472899134,307.2170036427295,329.93626002243974,0.0
0.1,6.847299403179997,-1.3815707891430535,10.0,0.0,20.53275914277746,20.970050858855952,301.4760335769505,329.93626002243974,0.0
0.101,7.187171430586242,-1.2764438704048566,10.0,0.0,20.70308143223842,21.204205823915416,300.8707681277308,329.93626002243974,0.0
0.10200000000000001,7.547955432153744,-1.0938005199365963,10.0,0.0,20.860747489895093,21.39569000151667,289.00764103696827,329.93626002243974,0.0
0.10300000000000001,7.875414559759157,-0.9349344302135645,10.0,0.0,21.00614652318138,21.55137970310254,294.80970669159166,329.93626002243974,0.0
0.10400000000000001,8.130391887287553,-0.8802542134969324,10.0,0.0,21.148148460356033,21.681267423106387,308.17953583139376,329.93626002243974,0.0
0.105,8.23573365652457,-1.0344427506452094,10.0,0.0,21.306446517067066,21.803328743486517,312.25327708713337,329.93626002243974,0.0
0.106,8.270961262472213,-1.2569627568466886,10.0,0.0,21.484056215455695,21.926192118537884,327.5277929911045,329.93626002243974,0.0
0.107,8.256016152971833,-1.5180887309347861,6.7905807644136145,0.0,21.682689938598273,21.703490248112978,331.1563779332852,329.93626002243974,0.0
0.108,8.053478716627662,-1.6764360470528152,4.964087114214791,0.0,21.853997047416204,21.376231494781674,343.3808934930562,329.93626002243974,0.0
0.109,7.6991585456397305,-1.819886109472992,-1.282617000376856,0.0,21.98964360372425,20.46690665600743,342.265874922393,329.93626002243974,0.0
0.11,7.026687224228554,-1.7775694585364255,-0.8484038640447826,0.0,22.014703688296844,19.842738086529213,347.19512865559534,329.93626002243974,0.0
0.111,6.385748521333149,-1.762705539727059,-3.485619416977518,0.0,21.973629042904697,19.052835084374536,348.72502084731616,329.93626002243974,0.0
0.112,5.691008957096508,-1.707561595519715,-4.438453121086692,0.0,21.85175436716158,18.32938733101051,349.12737232055423,329.93626002243974,0.0
0.113,5.030138443755476,-1.6446282429703738,-4.8315399806868715,0.0,21.663351154318015,17.698134028718787,348.320528514428,329.93626002243974,0.0
0.114,4.445725092761635,-1.5897460369712606,-4.611960762543649,0.0,21.42525522339522,17.19692708143955,346.6229199365345,329.93626002243974,0.0
0.115,3.9706390565145253,-1.5528876803798433,-3.9300230727378453,0.0,21.157342593671736,16.84126391997041,344.4226944447102,329.93626002243974,0.0
0.116,3.6209227976693743,-1.5386461257562472,-2.9747746710483938,0.0,20.879456923330984,16.626351687074113,342.2087922326719,329.93626002243974,0.0
0.117,3.3971285675382967,-1.5437080707235769,-1.9905488871315624,0.0,20.60856782622733,16.52497466537329,339.5879481270801,329.93626002243974,0.0
0.11800000000000001,3.278826742958986,-1.5658668583907984,-0.7766437153820664,0.0,20.35701678385767,16.54110900558788,336.5132590993978,329.93626002243974,0.0
0.11900000000000001,3.260524001719968,-1.600775010182196,0.6949308076894871,0.0,20.135852588566827,16.681039236654915,333.4680027210689,329.93626002243974,0.0
0.12,3.3410541333682935,-1.6478083457735084,2.1822415698676605,0.0,19.9556224213089,16.92470712180134,329.8910658551801,329.93626002243974,0.0
0.121,3.5096808888302293,-1.6988050058877513,3.9711619444846553,0.0,19.822921358548065,17.290149693509086,328.0613496001588,329.93626002243974,0.0
0.122,3.7753867819219753,-1.745897320515775,4.904769176218119,0.0,19.744704847242026,17.663044112829013,330.2660249294121,329.93626002243974,0.0
0.123,4.071483328004375,-1.7820860276127761,3.7991338625217503,0.0,19.715109263632968,17.829957921124272,327.039848945908,329.93626002243974,0.0
0.124,4.265678509604884,-1.7715266138373815,5.441185965039121,0.0,19.703641196628084,18.15050237012773,317.61780781235217,329.93626002243974,0.0
0.125,4.533300451398533,-1.7245447397703217,10.0,0.0,19.72031196921441,18.89539812856959,322.5782437747013,329.93626002243974,0.0
0.126,5.0367488803945735,-1.7523737214140158,7.863245414142352,0.0,19.81333624710777,19.234137135860305,322.06159138319737,329.93626002243974,0.0
0.127,5.394191552108927,-1.7437192832088781,8.200318296286753,0.0,19.92970171992186,19.572466023507136,311.0499516498328,329.93626002243974,0.0
0.128,5.749412956905672,-1.6459658165111997,10.0,0.0,20.057597197264528,20.047692900447206,316.44746090427986,329.93626002243974,0.0
0.129,6.161886708660836,-1.5734260691500292,10.0,0.0,20.213223977024185,20.428369921745304,306.82428783847075,329.93626002243974,0.0
0.13,6.552929998369634,-1.489604026276813,10.0,0.0,20.38286075369525,20.747651894539135,308.19272000292096,329.93626002243974,0.0
0.131,6.934455160364079,-1.3575305503635557,10.0,0.0,20.55377218805686,21.013912012798396,298.17858734010014,329.93626002243974,0.0
0.132,7.288636173892474,-1.2149092031405133,10.0,0.0,20.719850877372835,21.23549260279971,298.02465520981855,329.93626002243974,0.0
0.133,7.620814719930449,-1.06971960074023,10.0,0.0,20.876935113965544,21.41852517280359,291.9552547511938,329.93626002243974,0.0
0.134,7.964498030753932,-0.8785503225493234,10.0,0.0,21.01703745932237,21.564479530736165,295.1920386587516,329.93626002243974,0.0
0.135,8.159896531062797,-0.9157395854450758,10.0,0.0,21.16372751763722,21.691791685485413,310.9589590075106,329.93626002243974,0.0
0.136,8.238621927163337,-1.1010216395143946,10.0,0.0,21.328488918914164,21.814335822023253,315.58306437319715,329.93626002243974,0.0
0.137,8.269113511731897,-1.3179247184661396,10.0,0.0,21.511035111861204,21.93853486469347,329.5365704640218,329.93626002243974,0.0
0.138,8.23902638032563,-1.59219372789036,5.470930885558607,0.0,21.715747150027713,21.573985520103193,333.0324346653882,329.93626002243974,0.0
0.139,7.961945327109308,-1.7107841931743923,3.692037038445907,0.0,21.87383531100554,21.14615272629034,343.04461567497634,329.93626002243974,0.0
0.14,7.52970811584632,-1.8192362576346062,-1.445137022873519,0.0,21.984075198942083,20.27438710238931,343.19078880249816,329.93626002243974,0.0
0.14100000000000001,6.85178097942012,-1.773566204394966,-1.6507688744350126,0.0,21.990006309193905,19.599823879507717,347.52348287876686,329.93626002243974,0.0
0.14200000000000002,6.187403693726225,-1.7449210892511324,-3.9929881411326313,0.0,21.925193723998962,18.804024519180416,348.4261068745027,329.93626002243974,0.0
0.14300000000000002,5.487510325454076,-1.6809953314090837,-4.62919860752118,0.0,21.780537079079597,18.105107375383582,348.4074050283175,329.93626002243974,0.0
