timestamp,iq,id,iq_ref,id_ref,vq,vd,omega,omega_ref,r
0.0,0.0,0.0,0.0,0.0,0.0,0.0,0.0,482.4950670143951,0.0
0.001,0.0,0.0,10.0,0.0,0.0,1.0999999999999999,6.115472199294103,482.4950670143951,0.0
0.002,0.5307369851907212,-0.2913212625381807,10.0,0.0,0.14204533887919985,1.9316189316290207,13.317801563642547,482.4950670143951,0.0
0.003,1.0842913387634832,-0.6024330830807904,10.0,0.0,0.384357124667687,2.6386968949419622,20.697939467553027,482.4950670143951,0.0
0.004,1.5590443546685477,-0.8700465084428163,10.0,0.0,0.6994718867930164,3.2526109522886295,28.232747544420146,482.4950670143951,0.0
0.005,1.9399447555359186,-1.0838738622210777,10.0,0.0,1.065311453102468,3.7994935661768023,35.92944872443006,482.4950670143951,0.0
0.006,2.239750732602683,-1.2510087368845633,10.0,0.0,1.4655018868449925,4.299102221838433,43.75633668444442,482.4950670143951,0.0
0.007,2.4770151619816017,-1.382020589851471,10.0,0.0,1.8883740978591532,4.765668027847139,51.58766747378032,482.4950670143951,0.0
0.008,2.6680767290418097,-1.4872241871505252,10.0,0.0,2.325877945545995,5.209220346273558,59.45942083902103,482.4950670143951,0.0
0.009000000000000001,2.8266491704841292,-1.5730794701170803,10.0,0.0,2.772378685460125,5.636635464737965,67.35059094018146,482.4950670143951,0.0
0.01,2.962077666392183,-1.645500646948331,10.0,0.0,3.224078639851053,6.052647735211881,75.20908322432116,482.4950670143951,0.0
0.011,3.0811061533574158,-1.7084279320504514,10.0,0.0,3.678407615443203,6.460489925470405,83.0265951655913,482.4950670143951,0.0
0.012,3.188848746459569,-1.7638278597420747,10.0,0.0,4.133552631697047,6.862319393890706,90.74118064793086,482.4950670143951,0.0
0.013000000000000001,3.288205119878689,-1.8140726097274587,10.0,0.0,4.588339016389012,7.259628641949282,98.35820682563939,482.4950670143951,0.0
0.014,3.3820602099432007,-1.8592355758795645,10.0,0.0,5.041843166194517,7.653355107498287,105.90865295623543,482.4950670143951,0.0
0.015,3.4721069852858886,-1.899829032412081,10.0,0.0,5.493383198131427,8.044092747085895,113.37727610343421,482.4950670143951,0.0
0.016,3.5596145800153947,-1.9360338400176071,10.0,0.0,5.94241958510469,8.43218525824161,120.68508583176356,482.4950670143951,0.0
0.017,3.645144415105338,-1.9685384477868613,10.0,0.0,6.388575043274759,8.817838951066484,127.83962377537456,482.4950670143951,0.0
0.018000000000000002,3.730251927866576,-1.9959253041084188,10.0,0.0,6.83136783302799,9.201036292373047,134.85405702603322,482.4950670143951,0.0
0.019,3.81544967906247,-2.018253592643655,10.0,0.0,7.270383321112213,9.581672501020332,141.68976328564074,482.4950670143951,0.0
0.02,3.9014648862453374,-2.0350875541282063,10.0,0.0,7.705189334130692,9.959536942333155,148.3432823300447,482.4950670143951,0.0
0.021,3.9891051824829464,-2.0457889559126508,10.0,0.0,8.135310004560049,10.334315260302239,154.92060212100432,482.4950670143951,0.0
0.022,4.079618141396171,-2.0489696811670974,10.0,0.0,8.560139305503519,10.705547790999272,161.01925282597162,482.4950670143951,0.0
0.023,4.171109372430197,-2.048468292080302,10.0,0.0,8.979521969370257,11.072981092896333,166.534238406907,482.4950670143951,0.0
0.024,4.266936196769627,-2.039517194249811,10.0,0.0,9.392730090169543,11.435983292623375,171.8647834235234,482.4950670143951,0.0
0.025,4.367255527950721,-2.0225841458509217,10.0,0.0,9.79914449451603,11.793929226271104,177.02637022703064,482.4950670143951,0.0
0.026000000000000002,4.4734353073349595,-1.9962166741499119,10.0,0.0,10.197980960389518,12.146045424568259,181.63161391243256,482.4950670143951,0.0
0.027,4.582366840795821,-1.966358349113627,10.0,0.0,10.589124658468391,12.491912978736195,185.74793639675826,482.4950670143951,0.0
0.028,4.700058850757774,-1.9240450691803936,10.0,0.0,10.971384864613876,12.830451341534015,189.43662766964098,482.4950670143951,0.0
0.029,4.820934284790598,-1.879137197786803,10.0,0.0,11.344756153370636,13.161242511022618,192.73598774770625,482.4950670143951,0.0
0.03,4.952016225740939,-1.821000614527957,10.0,0.0,11.707923484756042,13.483081433273819,195.59831968863915,482.4950670143951,0.0
0.031,5.086039273572549,-1.7621311371320891,10.0,0.0,12.061063698547066,13.79562148058647,197.80891551030922,482.4950670143951,0.0
0.032,5.230431844273564,-1.6911110488141978,10.0,0.0,12.40292038074925,14.097678592248165,200.4421589734679,482.4950670143951,0.0
0.033,5.380124186618445,-1.6166151787533525,10.0,0.0,12.733312761073865,14.38869342901298,201.91742172589852,482.4950670143951,0.0
0.034,5.537594793894332,-1.535029134414507,10.0,0.0,13.051537880865839,14.667821176756876,203.18880493813168,482.4950670143951,0.0
0.035,5.698947813469154,-1.4530296333491768,10.0,0.0,13.357649178779205,14.934684535625108,203.60405746232266,482.4950670143951,0.0
0.036000000000000004,5.870474243492053,-1.3603000477825025,10.0,0.0,13.65045542338638,15.188218311291084,204.28541056101804,482.4950670143951,0.0
0.037,6.041188711220851,-1.275010780747051,10.0,0.0,13.930879897581198,15.42861600670124,205.2233356988433,482.4950670143951,0.0
0.038,6.228175208801664,-1.168399557236846,10.0,0.0,14.196427351981786,15.654155009933262,200.35169734043586,482.4950670143951,0.0
0.039,6.404895489618571,-1.0845312562500289,10.0,0.0,14.449814560392067,15.86612549236809,209.64773540576442,482.4950670143951,0.0
0.04,6.534612624563911,-1.0851225869390002,10.0,0.0,14.699963825590459,16.069735965364643,218.170241886545,482.4950670143951,0.0
0.041,6.621487035821765,-1.1484636683301073,10.0,0.0,14.952420817214799,16.26974130369247,220.68166573712315,482.4950670143951,0.0
0.042,6.6704785161669795,-1.2647840534085386,10.0,0.0,15.211794475054209,16.47047148862455,233.10654395573727,482.4950670143951,0.0
0.043000000000000003,6.709376245503157,-1.3867642159960276,10.0,0.0,15.477558399636717,16.673277185423842,235.10815372853793,482.4950670143951,0.0
0.044,6.744196093263161,-1.5028656568708394,10.0,0.0,15.74857785831126,16.87893749904121,248.8181267625822,482.4950670143951,0.0
0.045,6.750563942850831,-1.6564343609015326,10.0,0.0,16.02879294551472,17.090781462187255,251.61117095327992,482.4950670143951,0.0
0.046,6.764566527560506,-1.7840489455190416,10.0,0.0,16.314672837580048,17.307985931916857,266.60539535969383,482.4950670143951,0.0
0.047,6.752169677737121,-1.9446655565152717,10.0,0.0,16.610076868775216,17.533561623207692,270.0627790167984,482.4950670143951,0.0
0.048,6.7291903821171735,-2.110358990489937,10.0,0.0,16.91511817760721,17.768523902508925,283.13731951482634,482.4950670143951,0.0
0.049,6.714097190323873,-2.246352557911731,10.0,0.0,17.22645394156277,18.011924542904307,294.70561782835244,482.4950670143951,0.0
0.05,6.666841209228205,-2.4219663531358275,10.0,0.0,17.548953774962747,18.267165921658286,300.1294548425776,482.4950670143951,0.0
0.051000000000000004,6.612335516543512,-2.59336894353628,10.0,0.0,17.88182590988993,18.53465621226123,310.75154600411304,482.4950670143951,0.0
0.052000000000000005,6.568447424188529,-2.726701034625408,10.0,0.0,18.22111236450049,18.81296732052879,322.35703405819294,482.4950670143951,0.0
0.053,6.5036136539679195,-2.8764091099274185,10.0,0.0,18.569435851849082,19.104068797231378,330.9557012510771,482.4950670143951,0.0
0.054,6.434362099984388,-3.0149932598739144,10.0,0.0,18.925784313874168,19.407861808234543,339.4707232587175,482.4950670143951,0.0
0.055,6.370891759459199,-3.1253006473392393,10.0,0.0,19.28762520191878,19.723199586257838,348.00092263299223,482.4950670143951,0.0
0.056,6.314459991163816,-3.2071523724558277,10.0,0.0,19.65271639484943,20.048760466390505,356.29964302226927,482.4950670143951,0.0
0.057,6.266092078485367,-3.262894600420583,10.0,0.0,20.01916768432525,20.383030530514645,362.98468703488817,482.4950670143951,0.0
0.058,6.234656406121481,-3.2830044001420036,10.0,0.0,20.38405550695561,20.723492962007192,368.0316803659419,482.4950670143951,0.0
0.059000000000000004,6.228510489334133,-3.2600491726267444,10.0,0.0,20.743774617448285,21.0667596267365,372.35801287012686,482.4950670143951,0.0
0.06,6.247959954981508,-3.201438289803519,10.0,0.0,21.095630838529225,21.40947063565305,373.88739853789605,482.4950670143951,0.0
0.061,6.298571070969623,-3.1064761741463998,10.0,0.0,21.436712814499675,21.747723437683817,371.47602194372377,482.4950670143951,0.0
0.062,6.38094735961424,-2.982369480030801,10.0,0.0,21.76480975788002,22.077703876517536,366.2922057853833,482.4950670143951,0.0
0.063,6.53566146196873,-2.7695519558602215,10.0,0.0,22.070926190088084,22.39130117743337,372.07145994459506,482.4950670143951,0.0
0.064,6.708566607552835,-2.560747003310555,10.0,0.0,22.35695033962817,22.686677966487718,365.1882535794375,482.4950670143951,0.0
0.065,6.897199383751794,-2.3667028673086685,10.0,0.0,22.62465294768497,22.962098937664592,356.7297130485294,482.4950670143951,0.0
0.066,7.167218997264825,-2.0824440278168583,10.0,0.0,22.863799361069702,23.20893224280502,357.7888817172531,482.4950670143951,0.0
0.067,7.423387055578651,-1.859201647307153,10.0,0.0,23.082000390168847,23.42951856849048,345.1266644280509,482.4950670143951,0.0
0.068,7.736929428236853,-1.5824320316278497,10.0,0.0,23.27222771500701,23.617938384108047,342.9584987314189,482.4950670143951,0.0
0.069,8.04132723792414,-1.3546495884062866,10.0,0.0,23.43998591632552,23.77619061530866,334.2677598047511,482.4950670143951,0.0
0.07,8.395997401416553,-1.0747195592463576,10.0,0.0,23.578279041856877,23.89942370363377,322.7417355360636,482.4950670143951,0.0
0.07100000000000001,8.726669482066718,-0.8579631993863083,10.0,0.0,23.694022264374595,23.99133556844291,337.9106389559309,482.4950670143951,0.0
0.07200000000000001,8.91385728821635,-0.8925675486457335,10.0,0.0,23.81335639313859,24.06834663115294,344.8606079910171,482.4950670143951,0.0
0.073,8.941721008651788,-1.1508071676799903,10.0,0.0,23.95651852989837,24.148396869281978,362.43451347602996,482.4950670143951,0.0
0.074,8.927907180207171,-1.4305443375681337,10.0,0.0,24.121558169292424,24.236556455607346,368.59250641149885,482.4950670143951,0.0
0.075,8.859340450140312,-1.7499202918046703,10.0,0.0,24.31124378664675,24.33980824926249,387.10067316750514,482.4950670143951,0.0
0.076,8.767176841935807,-2.0562826706616475,10.0,0.0,24.52279212376306,24.461155754889383,396.7190369145668,482.4950670143951,0.0
0.077,8.62162972262067,-2.4016532593838043,10.0,0.0,24.76024751870129,24.606611890707832,408.83095327273656,482.4950670143951,0.0
0.078,8.47560200325128,-2.694417929744825,10.0,0.0,25.017253395580042,24.77587553037574,428.2762610097064,482.4950670143951,0.0
0.079,8.289593068490031,-3.001970310780605,10.0,0.0,25.296388163948027,24.972914099394785,438.0404594767293,482.4950670143951,0.0
0.08,8.078425759776728,-3.30171273584331,10.0,0.0,25.597209455327665,25.19953060295957,447.87571303424875,482.4950670143951,0.0
0.081,7.882675762310951,-3.525181384717318,10.0,0.0,25.912194395051316,25.45298841193994,460.26934286159303,482.4950670143951,0.0
0.082,7.687097883672571,-3.703693402600396,10.0,0.0,26.238428257179056,25.732155000670204,470.03446400235384,482.4950670143951,0.0
0.083,7.512516260295773,-3.813976142857688,10.0,0.0,26.570301373216505,26.033276516525277,477.918982155292,482.4950670143951,0.0
0.084,7.3689562950047955,-3.855399170081403,8.938930083385591,0.0,26.902553034827765,26.234801281519243,477.4871620635006,482.4950670143951,0.0
0.085,7.221090967138814,-3.7874388222235464,9.204919178790234,0.0,27.213842138240686,26.504097822247942,471.90417167464705,482.4950670143951,0.0
0.08600000000000001,7.1714416274465975,-3.6077155090515727,10.0,0.0,27.501842024414845,26.86637539271157,472.67107646534566,482.4950670143951,0.0
0.08700000000000001,7.257372324196175,-3.35931977758763,10.0,0.0,27.771743381688648,27.203325516494793,474.36140104553687,482.4950670143951,0.0
0.088,7.4074917349586995,-3.09132794443649,10.0,0.0,28.02135447128141,27.517916935410685,458.44857072517675,482.4950670143951,0.0
0.089,7.635408014562046,-2.77714679826983,10.0,0.0,28.24558358605965,27.80244072474552,447.1802878292388,482.4950670143951,0.0
0.09,7.970582834086422,-2.368314614539898,10.0,0.0,28.434012439544926,28.046344979273044,444.63621562214905,482.4950670143951,0.0
0.091,8.312973067490042,-2.024853004680792,10.0,0.0,28.594296377887222,28.250390516217195,424.52732138835313,482.4950670143951,0.0
0.092,8.745760183300218,-1.6122893183815545,10.0,0.0,28.717009086695384,28.405877212896076,417.75941397556505,482.4950670143951,0.0
0.093,9.177656097519183,-1.2663310039719575,10.0,0.0,28.80906941656856,28.514905831381895,403.38669712385064,482.4950670143951,0.0
0.094,9.674262927419122,-0.8704660386699854,10.0,0.0,28.862741012263875,28.571929828859652,399.32872609126747,482.4950670143951,0.0
0.095,10.066727827079408,-0.6899070940368146,10.0,0.0,28.900845013880797,28.59041351549552,420.6406575050477,482.4950670143951,0.0
0.096,10.179713132347814,-0.9420234209673204,10.0,0.0,28.966525369408306,28.60235549904659,429.0835266856497,482.4950670143951,0.0
0.097,10.149570291881727,-1.3493516178865383,10.0,0.0,29.06911682612997,28.624116885299244,451.07627068689595,482.4950670143951,0.0
0.098,10.03249294553169,-1.811146746922876,10.0,0.0,29.21034945802956,28.666538358292648,461.1076392318265,482.4950670143951,0.0
0.099,9.865635425547408,-2.2594987437163496,10.0,0.0,29.386401742395435,28.736024500911437,483.6045321511107,482.4950670143951,0.0
0.1,9.64475741681614,-2.7011137831310155,6.843634011305243,0.0,29.595891546954284,28.491595004709115,495.87242321343575,482.4950670143951,0.0
0.101,9.191275793151478,-3.0772064759989863,0.5759149181522973,0.0,29.796943467258348,27.682346196738827,502.5044973090731,482.4950670143951,0.0
0.10200000000000001,8.398346827172446,-3.198484616492715,-2.94021643261315,0.0,29.90654498326061,26.732717573964372,506.9320038761761,482.4950670143951,0.0
0.10300000000000001,7.434041164924905,-3.1539998817744115,-5.398339084782473,0.0,29.904117383161235,25.75192412002403,506.5563185062301,482.4950670143951,0.0
0.10400000000000001,6.445321418443696,-2.9780959972872045,-5.451108914727831,0.0,29.784948617731366,24.986859912185956,502.2833660470616,482.4950670143951,0.0
0.105,5.613616996371937,-2.7499107041360222,-3.51251567547022,0.0,29.57784896465892,24.58175849216958,495.22476456982946,482.4950670143951,0.0
0.106,5.070271787869721,-2.54056516456004,-0.11051191240850589,0.0,29.33020297847023,24.60274265910633,487.3801118654792,482.4950670143951,0.0
0.107,4.889892596120961,-2.3857474175472495,3.762963991255787,0.0,29.09448351081843,25.003334381510328,478.56288245680963,482.4950670143951,0.0
0.108,5.057835391955851,-2.2993485821057598,8.210900541166422,0.0,28.914439467743776,25.770555746902954,473.4356622190959,482.4950670143951,0.0
0.109,5.570561623158199,-2.2523648808852634,10.0,0.0,28.824817746736016,26.540651688947527,475.5752246951873,482.4950670143951,0.0
0.11,6.206758913806285,-2.214330776727853,9.847219798963145,0.0,28.81745387758838,27.12522460832522,460.4026082209237,482.4950670143951,0.0
0.111,6.814576174702228,-2.1193271336051125,10.0,0.0,28.859213627591345,27.608439547182726,447.1841857583293,482.4950670143951,0.0
0.112,7.452694450515928,-1.8701664578567567,10.0,0.0,28.918661258578673,27.981866327413854,443.2306298724112,482.4950670143951,0.0
0.113,8.022768351263815,-1.635457307170494,10.0,0.0,28.986180404672385,28.26756824639648,423.9986448072051,482.4950670143951,0.0
0.114,8.613765970426648,-1.3080582913819878,10.0,0.0,29.04185102782511,28.47214288898978,414.4469756582085,482.4950670143951,0.0
0.115,9.157780651180774,-1.0217663487694577,10.0,0.0,29.084193929392395,28.607895490947687,402.84098803469885,482.4950670143951,0.0
0.116,9.730243779431913,-0.671776602364794,10.0,0.0,29.10024184832036,28.676776325566465,409.00743188867915,482.4950670143951,0.0
0.117,10.068456502500565,-0.6943285011600917,10.0,0.0,29.127553665148927,28.7088951003611,424.78317939107546,482.4950670143951,0.0
0.11800000000000001,10.163668075111623,-1.0217427183403478,10.0,0.0,29.191136222675986,28.733442033602607,437.50969764877095,482.4950670143951,0.0
0.11900000000000001,10.111443889887568,-1.4855525543029007,10.0,0.0,29.298560157558565,28.768589305373435,454.25451144878815,482.4950670143951,0.0
0.12,10.002733164363798,-1.9327820570439416,10.0,0.0,29.443313573071844,28.822400181410796,474.70907746747105,482.4950670143951,0.0
0.121,9.800048821671837,-2.430280661061777,10.0,0.0,29.629225286052105,28.906513481836644,487.5426344375574,482.4950670143951,0.0
0.122,9.565365978003658,-2.8766880327282944,4.439992243674204,0.0,29.849086982620044,28.412994039698653,501.50493904735475,482.4950670143951,0.0
0.123,8.98558061324229,-3.162409188441665,-2.7312587815540645,0.0,30.024575818729204,27.31900473790648,506.50817018332094,482.4950670143951,0.0
0.124,8.009826123103338,-3.1724796086110105,-5.473005381226417,0.0,30.07136737570973,26.22361877446045,507.93211260839746,482.4950670143951,0.0
0.125,6.934590237832847,-3.030040770944381,-6.4393470497047005,0.0,29.98817220430258,25.272088847999548,505.5072521854774,482.4950670143951,0.0
0.126,5.954948469423702,-2.8060813432962446,-5.457038689955492,0.0,29.79493240872542,24.622117968973516,499.5132042048535,482.4950670143951,0.0
0.127,5.214975740293827,-2.5764830316511764,-2.6301960715481165,0.0,29.533003284798887,24.390550385239877,491.67345674440656,482.4950670143951,0.0
0.128,4.820174425119885,-2.393513799359528,1.1978937613752256,0.0,29.25627968245603,24.58479652030229,483.62284342146984,482.4950670143951,0.0
0.129,4.799340355821512,-2.2796893715860076,5.211922658772842,0.0,29.015962059121513,25.13355169647976,474.98485151593485,482.4950670143951,0.0
0.13,5.116890311839412,-2.225173176820777,9.606020766524939,0.0,28.84969317859176,26.011471259729834,473.1524275943987,482.4950670143951,0.0
0.131,5.744583202372586,-2.2110632038716656,10.0,0.0,28.786836207363258,26.71849799480818,473.03539532813306,482.4950670143951,0.0
0.132,6.390681167589248,-2.177703285979668,10.0,0.0,28.797439115526778,27.27980271965259,453.7509423960055,482.4950670143951,0.0
0.133,7.0275859456725,-2.0324583728518504,10.0,0.0,28.847468864093273,27.722438716891936,447.30251876943464,482.4950670143951,0.0
0.134,7.656479791082649,-1.7739383882797106,10.0,0.0,28.909774488355392,28.063004814049695,433.4020222790094,482.4950670143951,0.0
0.135,8.219290524352344,-1.5321430023697777,10.0,0.0,28.975893867302695,28.32012462171235,422.65727320406955,482.4950670143951,0.0
0.136,8.813906625579525,-1.1870303713574346,10.0,0.0,29.025568853569276,28.49836472270115,405.7102834989589,482.4950670143951,0.0
0.137,9.355877379074647,-0.8963633238796421,10.0,0.0,29.059578102395648,28.61007769034555,399.96171080328827,482.4950670143951,0.0
0.138,9.910353685359883,-0.5720004531913344,10.0,0.0,29.0685844778029,28.658447599951725,412.90201239660973,482.4950670143951,0.0
0.139,10.117543180378748,-0.7836296263854297,10.0,0.0,29.10805004438826,28.68563507474877,427.55560858778864,482.4950670143951,0.0
0.14,10.139233275573368,-1.196536561223907,10.0,0.0,29.189591272895075,28.71373634320343,443.3870452824072,482.4950670143951,0.0
0.14100000000000001,10.080816477975906,-1.630814538042099,10.0,0.0,29.30943001349831,28.75382435635098,462.0228091811983,482.4950670143951,0.0
0.14200000000000002,9.920274074735682,-2.126568574731426,10.0,0.0,29.471483845623606,28.818962938624544,475.91714494643054,482.4950670143951,0.0
0.14300000000000002,9.723136390737157,-2.5765694381514725,10.0,0.0,29.668388707373055,28.91387276709073,498.2725871993651,482.4950670143951,0.0
0.14400000000000002,9.467672433436645,-3.0203535087784705,-1.33410985975405,0.0,29.89941030492893,27.79835967277536,502.8028581036769,482.4950670143951,0.0
0.145,8.56963635693375,-3.1440674998677,-3.8023232228027712,0.0,30.004949131611237,26.755567005151597,505.388571342021,482.4950670143951,0.0
0.146,7.532516611995177,-3.0814465901133765,-5.3241148852510864,0.0,29.987529368879066,25.78999534889784,505.9262757010697,482.4950670143951,0.0
0.147,6.5221976768357255,-2.9284849430325925,-5.827279151642177,0.0,29.859094844713397,24.979872614735854,502.6800051953396,482.4950670143951,0.0
