timestamp,iq,id,iq_ref,id_ref,vq,vd,omega,omega_ref,r
0.0,0.0,0.0,0.0,0.0,0.0,0.0,0.0,346.79801992042337,0.0
0.001,0.0,0.0,10.0,0.0,0.0,1.0999999999999999,6.115472199294103,346.79801992042337,0.0
0.002,0.5307369851907212,-0.2913212625381807,10.0,0.0,0.14204533887919985,1.9316189316290207,13.317801563642547,346.79801992042337,0.0
0.003,1.0842913387634832,-0.6024330830807904,10.0,0.0,0.384357124667687,2.6386968949419622,20.697939467553027,346.79801992042337,0.0
0.004,1.5590443546685477,-0.8700465084428163,10.0,0.0,0.6994718867930164,3.2526109522886295,28.232747544420146,346.79801992042337,0.0
0.005,1.9399447555359186,-1.0838738622210777,10.0,0.0,1.065311453102468,3.7994935661768023,35.92944872443006,346.79801992042337,0.0
0.006,2.239750732602683,-1.2510087368845633,10.0,0.0,1.4655018868449925,4.299102221838433,43.75633668444442,346.79801992042337,0.0
0.007,2.4770151619816017,-1.382020589851471,10.0,0.0,1.8883740978591532,4.765668027847139,51.58766747378032,346.79801992042337,0.0
0.008,2.6680767290418097,-1.4872241871505252,10.0,0.0,2.325877945545995,5.209220346273558,59.45942083902103,346.79801992042337,0.0
0.009000000000000001,2.8266491704841292,-1.5730794701170803,10.0,0.0,2.772378685460125,5.636635464737965,67.35059094018146,346.79801992042337,0.0
0.01,2.962077666392183,-1.645500646948331,10.0,0.0,3.224078639851053,6.052647735211881,75.20908322432116,346.79801992042337,0.0
0.011,3.0811061533574158,-1.7084279320504514,10.0,0.0,3.678407615443203,6.460489925470405,83.0265951655913,346.79801992042337,0.0
0.012,3.188848746459569,-1.7638278597420747,10.0,0.0,4.133552631697047,6.862319393890706,90.74118064793086,346.79801992042337,0.0
0.013000000000000001,3.288205119878689,-1.8140726097274587,10.0,0.0,4.588339016389012,7.259628641949282,98.35820682563939,346.79801992042337,0.0
0.014,3.3820602099432007,-1.8592355758795645,10.0,0.0,5.041843166194517,7.653355107498287,105.90865295623543,346.79801992042337,0.0
0.015,3.4721069852858886,-1.899829032412081,10.0,0.0,5.493383198131427,8.044092747085895,113.37727610343421,346.79801992042337,0.0
0.016,3.5596145800153947,-1.9360338400176071,10.0,0.0,5.94241958510469,8.43218525824161,120.68508583176356,346.79801992042337,0.0
0.017,3.645144415105338,-1.9685384477868613,10.0,0.0,6.388575043274759,8.817838951066484,127.83962377537456,346.79801992042337,0.0
0.018000000000000002,3.730251927866576,-1.9959253041084188,10.0,0.0,6.83136783302799,9.201036292373047,134.85405702603322,346.79801992042337,0.0
0.019,3.81544967906247,-2.018253592643655,10.0,0.0,7.270383321112213,9.581672501020332,141.68976328564074,346.79801992042337,0.0
0.02,3.9014648862453374,-2.0350875541282063,10.0,0.0,7.705189334130692,9.959536942333155,148.3432823300447,346.79801992042337,0.0
0.021,3.9891051824829464,-2.0457889559126508,10.0,0.0,8.135310004560049,10.334315260302239,154.92060212100432,346.79801992042337,0.0
0.022,4.079618141396171,-2.0489696811670974,10.0,0.0,8.560139305503519,10.705547790999272,161.01925282597162,346.79801992042337,0.0
0.023,4.171109372430197,-2.048468292080302,10.0,0.0,8.979521969370257,11.072981092896333,166.534238406907,346.79801992042337,0.0
0.024,4.266936196769627,-2.039517194249811,10.0,0.0,9.392730090169543,11.435983292623375,171.8647834235234,346.79801992042337,0.0
0.025,4.367255527950721,-2.0225841458509217,10.0,0.0,9.79914449451603,11.793929226271104,177.02637022703064,346.79801992042337,0.0
0.026000000000000002,4.4734353073349595,-1.9962166741499119,10.0,0.0,10.197980960389518,12.146045424568259,181.63161391243256,346.79801992042337,0.0
0.027,4.582366840795821,-1.966358349113627,10.0,0.0,10.589124658468391,12.491912978736195,185.74793639675826,346.79801992042337,0.0
0.028,4.700058850757774,-1.9240450691803936,10.0,0.0,10.971384864613876,12.830451341534015,189.43662766964098,346.79801992042337,0.0
0.029,4.820934284790598,-1.879137197786803,10.0,0.0,11.344756153370636,13.161242511022618,192.73598774770625,346.79801992042337,0.0
0.03,4.952016225740939,-1.821000614527957,10.0,0.0,11.707923484756042,13.483081433273819,195.59831968863915,346.79801992042337,0.0
0.031,5.086039273572549,-1.7621311371320891,10.0,0.0,12.061063698547066,13.79562148058647,197.80891551030922,346.79801992042337,0.0
0.032,5.230431844273564,-1.6911110488141978,10.0,0.0,12.40292038074925,14.097678592248165,200.4421589734679,346.79801992042337,0.0
0.033,5.380124186618445,-1.6166151787533525,10.0,0.0,12.733312761073865,14.38869342901298,201.91742172589852,346.79801992042337,0.0
0.034,5.537594793894332,-1.535029134414507,10.0,0.0,13.051537880865839,14.667821176756876,203.18880493813168,346.79801992042337,0.0
0.035,5.698947813469154,-1.4530296333491768,10.0,0.0,13.357649178779205,14.934684535625108,203.60405746232266,346.79801992042337,0.0
0.036000000000000004,5.870474243492053,-1.3603000477825025,10.0,0.0,13.65045542338638,15.188218311291084,204.28541056101804,346.79801992042337,0.0
0.037,6.041188711220851,-1.275010780747051,10.0,0.0,13.930879897581198,15.42861600670124,205.2233356988433,346.79801992042337,0.0
0.038,6.228175208801664,-1.168399557236846,10.0,0.0,14.196427351981786,15.654155009933262,200.35169734043586,346.79801992042337,0.0
0.039,6.404895489618571,-1.0845312562500289,10.0,0.0,14.449814560392067,15.86612549236809,209.64773540576442,346.79801992042337,0.0
0.04,6.534612624563911,-1.0851225869390002,10.0,0.0,14.699963825590459,16.069735965364643,218.170241886545,346.79801992042337,0.0
0.041,6.621487035821765,-1.1484636683301073,10.0,0.0,14.952420817214799,16.26974130369247,220.68166573712315,346.79801992042337,0.0
0.042,6.6704785161669795,-1.2647840534085386,10.0,0.0,15.211794475054209,16.47047148862455,233.10654395573727,346.79801992042337,0.0
0.043000000000000003,6.709376245503157,-1.3867642159960276,10.0,0.0,15.477558399636717,16.673277185423842,235.10815372853793,346.79801992042337,0.0
0.044,6.744196093263161,-1.5028656568708394,10.0,0.0,15.74857785831126,16.87893749904121,248.8181267625822,346.79801992042337,0.0
0.045,6.750563942850831,-1.6564343609015326,10.0,0.0,16.02879294551472,17.090781462187255,251.61117095327992,346.79801992042337,0.0
0.046,6.764566527560506,-1.7840489455190416,10.0,0.0,16.314672837580048,17.307985931916857,266.60539535969383,346.79801992042337,0.0
0.047,6.752169677737121,-1.9446655565152717,10.0,0.0,16.610076868775216,17.533561623207692,270.0627790167984,346.79801992042337,0.0
0.048,6.7291903821171735,-2.110358990489937,10.0,0.0,16.91511817760721,17.768523902508925,283.13731951482634,346.79801992042337,0.0
0.049,6.714097190323873,-2.246352557911731,10.0,0.0,17.22645394156277,18.011924542904307,294.70561782835244,346.79801992042337,0.0
0.05,6.666841209228205,-2.4219663531358275,10.0,0.0,17.548953774962747,18.267165921658286,300.1294548425776,346.79801992042337,0.0
0.051000000000000004,6.612335516543512,-2.59336894353628,10.0,0.0,17.88182590988993,18.53465621226123,310.75154600411304,346.79801992042337,0.0
0.052000000000000005,6.568447424188529,-2.726701034625408,10.0,0.0,18.22111236450049,18.81296732052879,322.35703405819294,346.79801992042337,0.0
0.053,6.5036136539679195,-2.8764091099274185,10.0,0.0,18.569435851849082,19.104068797231378,330.9557012510771,346.79801992042337,0.0
0.054,6.434362099984388,-3.0149932598739144,10.0,0.0,18.925784313874168,19.407861808234543,339.4707232587175,346.79801992042337,0.0
0.055,6.370891759459199,-3.1253006473392393,9.350165293023926,0.0,19.287625201918782,19.65171776849047,347.6107002829552,346.79801992042337,0.0
0.056,6.281086642443578,-3.1880643285869574,5.272049977279767,0.0,19.643468528247123,19.47452174332963,353.4407407934273,346.79801992042337,0.0
0.057,5.980518251358827,-3.119688487720824,2.2906025133136545,0.0,19.937858940118797,19.095616057288055,351.2700316759074,346.79801992042337,0.0
0.058,5.544755358284488,-2.9241695703731727,3.331236954518789,0.0,20.144096419699554,18.97325247853735,348.1055326385214,346.79801992042337,0.0
0.059000000000000004,5.228284221340758,-2.725934021313502,4.9004113460307845,0.0,20.297623072224088,19.07640604040713,347.6343025531175,346.79801992042337,0.0
0.06,5.10098357121977,-2.558015757829407,5.127663562405809,0.0,20.429623762190495,19.204741271372384,351.2236675775161,346.79801992042337,0.0
0.061,5.066142180291161,-2.4127416770331718,3.28872457363558,0.0,20.546956940004044,19.131446783810226,347.0722001120618,346.79801992042337,0.0
0.062,4.9768837599449816,-2.2402804075796663,5.361716504446341,0.0,20.627709352448093,19.33310357739132,337.07786953687383,346.79801992042337,0.0
0.063,5.055066737642926,-2.0751364991259824,10.0,0.0,20.704110985770473,20.002658486311255,341.4324284197412,346.79801992042337,0.0
0.064,5.438626274407399,-2.0113792061208557,8.323338103531444,0.0,20.83446608350659,20.340672704837246,342.17601628398114,346.79801992042337,0.0
0.065,5.7427401422800335,-1.947848231352829,7.997764207775898,0.0,20.97923625902726,20.60925757161749,330.27120573974406,346.79801992042337,0.0
0.066,6.037869786017231,-1.799724468524989,10.0,0.0,21.1207295995105,21.059539523241618,332.7673628754226,346.79801992042337,0.0
0.067,6.426253893559877,-1.6748751183473638,10.0,0.0,21.28084961021657,21.41914930043709,324.13465756830175,346.79801992042337,0.0
0.068,6.80164610508351,-1.5594561711612434,10.0,0.0,21.449471006882884,21.721400798791446,323.51736953450484,346.79801992042337,0.0
0.069,7.190763800770455,-1.3825137972109085,10.0,0.0,21.61314594205533,21.971240262566678,312.355980579972,346.79801992042337,0.0
0.07,7.541469080020395,-1.230339805242512,10.0,0.0,21.77046761471103,22.177776869721,313.8804824744979,346.79801992042337,0.0
0.07100000000000001,7.8965576984429875,-1.0449444711183826,10.0,0.0,21.91383903398263,22.343839288191482,303.1040402174084,346.79801992042337,0.0
0.07200000000000001,8.251134393876333,-0.8411288985167936,10.0,0.0,22.03891379352917,22.47218005642863,309.90371766469605,346.79801992042337,0.0
0.073,8.434679856137151,-0.9063493992684892,10.0,0.0,22.173527564753485,22.58354998990236,325.11838115927486,346.79801992042337,0.0
0.074,8.492421891185343,-1.1312961631186713,10.0,0.0,22.329908891218736,22.692728137918458,332.79845732081515,346.79801992042337,0.0
0.075,8.514521610784001,-1.3628172489023431,10.0,0.0,22.504787751636783,22.8047730549741,345.1247813680223,346.79801992042337,0.0
0.076,8.464386255237216,-1.6667427088632996,7.281260125878328,0.0,22.704499807456457,22.629775866518727,352.5312853478404,346.79801992042337,0.0
0.077,8.267975952848156,-1.8519588968059886,3.5206754816950943,0.0,22.88407546492271,22.126876470079257,361.71759687999406,346.79801992042337,0.0
0.078,7.809183799800725,-1.9820661172158571,-1.2216760539774318,0.0,23.00786324936404,21.256674790359533,363.27325478273707,346.79801992042337,0.0
0.079,7.106497443683631,-1.9550144428004974,-2.164257353972073,0.0,23.02797533099949,20.50231920705564,367.74572109870894,346.79801992042337,0.0
0.08,6.378970013151701,-1.918640641683781,-4.609967523740865,0.0,22.966910044762315,19.638809238368395,368.5572886088024,346.79801992042337,0.0
0.081,5.610874454229554,-1.8386053129957995,-5.233343965671397,0.0,22.817160142135624,18.888644668187613,368.114211514961,346.79801992042337,0.0
0.082,4.909563505947726,-1.755676346522629,-5.224967334696076,0.0,22.599046939728353,18.2751400073106,366.554712331537,346.79801992042337,0.0
0.083,4.321717379367789,-1.6888146161339272,-4.642784667095207,0.0,22.33486909079608,17.822780783847882,364.22191616498617,346.79801992042337,0.0
0.084,3.874699506987261,-1.6442874945423147,-3.6506255462654105,0.0,22.047643738339573,17.535848879149547,361.5992607550271,346.79801992042337,0.0
0.085,3.5750194970610334,-1.6250309417196276,-2.487310249631914,0.0,21.758774781064307,17.39542534346485,358.4317909294083,346.79801992042337,0.0
0.08600000000000001,3.4096784275185614,-1.6291755382791757,-1.0199130469123592,0.0,21.485398837097875,17.40512852250432,354.8528173235344,346.79801992042337,0.0
0.08700000000000001,3.373407347120183,-1.6539890939387645,0.6890257819934797,0.0,21.24301885058899,17.562169496544044,351.34337660945033,346.79801992042337,0.0
0.088,3.4598383290810695,-1.696606669777717,2.398292572145242,0.0,21.04502075792066,17.84032821433687,347.2792667237991,346.79801992042337,0.0
0.089,3.652543264284396,-1.7467561357318793,4.425535046937109,0.0,20.899728611795013,18.256442022356403,345.1465062689889,346.79801992042337,0.0
0.09,3.9584305557269213,-1.7939266117789898,5.508430410856545,0.0,20.815264318789517,18.683540747537993,347.6222996609927,346.79801992042337,0.0
0.091,4.301283024016615,-1.8315387540398305,4.26229091744894,0.0,20.78562195849096,18.876923974389406,342.8947714477247,346.79801992042337,0.0
0.092,4.532463962222323,-1.814311778007809,6.665087508809949,0.0,20.776011068121267,19.302772283989874,333.03854956512106,346.79801992042337,0.0
0.093,4.878888042458334,-1.766001688752487,10.0,0.0,20.804804257690822,19.992092242266718,338.54985607255963,346.79801992042337,0.0
0.094,5.389172434823479,-1.7700347098064402,9.023005675350836,0.0,20.90057685733959,20.421873980691725,335.71780095201933,346.79801992042337,0.0
0.095,5.8072983228687,-1.7587124759827506,10.0,0.0,21.028464594934842,20.894603120435683,326.6905295676921,346.79801992042337,0.0
0.096,6.273682288920224,-1.6582074153980995,10.0,0.0,21.179894138418888,21.275957199333057,328.9690849589302,346.79801992042337,0.0
0.097,6.679238221153325,-1.5699736534440052,10.0,0.0,21.345615472235167,21.594371511803978,318.3244535561487,346.79801992042337,0.0
0.098,7.079411428198893,-1.4149099119762072,10.0,0.0,21.51043142997499,21.857553032956744,318.04663264276536,346.79801992042337,0.0
0.099,7.438184219219503,-1.2709123334214092,10.0,0.0,21.670794847829768,22.075434722826422,310.28386788631184,346.79801992042337,0.0
0.1,7.8117451093466075,-1.0652061851064563,10.0,0.0,21.815722392356918,22.25006061549082,301.45036795004785,346.79801992042337,0.0
0.101,8.14123036892759,-0.9084014430359852,10.0,0.0,21.948428311553204,22.389208903688864,314.23551674912125,346.79801992042337,0.0
0.10200000000000001,8.387345601293392,-0.8777618306922625,10.0,0.0,22.079976157712558,22.503935132022303,318.7622070155108,346.79801992042337,0.0
0.10300000000000001,8.481486881288971,-1.051958557677564,10.0,0.0,22.22930987818114,22.61244913366247,329.4735378902751,346.79801992042337,0.0
0.10400000000000001,8.484355649248917,-1.328753962371524,10.0,0.0,22.403267154013363,22.725670955509845,342.0668420999446,346.79801992042337,0.0
0.105,8.478421880596862,-1.5687879490269445,8.195856482943245,0.0,22.594786668932265,22.64719193811079,349.9689357428331,346.79801992042337,0.0
0.106,8.307798434572026,-1.8291027210924453,4.213100503274912,0.0,22.78554061568002,22.194360292726792,356.8137768717254,346.79801992042337,0.0
0.107,7.919244247848275,-1.9367594441099691,0.690522369315735,0.0,22.921175095025866,21.499265897696503,363.97647162438477,346.79801992042337,0.0
0.108,7.3043638105257,-1.982926883773821,-3.062609524053567,0.0,22.977738538066955,20.573376969411047,365.0319555153842,346.79801992042337,0.0
0.109,6.5261156330853,-1.9160657879317777,-3.772690825502888,0.0,22.92824034903612,19.78461414917773,367.1492470751181,346.79801992042337,0.0
0.11,5.773386690409668,-1.8466241160850383,-5.034848876916799,0.0,22.797845723940316,19.013058921343546,367.29902699796895,346.79801992042337,0.0
0.111,5.060848025330815,-1.7675045802295832,-5.314748909117668,0.0,22.59532630634504,18.358304294487148,365.92285196454725,346.79801992042337,0.0
0.112,4.443738812535079,-1.696307342959174,-4.817909712848056,0.0,22.340542867082466,17.866981127225273,363.6836376288313,346.79801992042337,0.0
0.113,3.962206407744649,-1.6474522046657394,-3.867158722074171,0.0,22.05744336218039,17.54572362218476,361.10970239565455,346.79801992042337,0.0
0.114,3.6306239699422935,-1.6232693609796252,-2.7233079302380983,0.0,21.768356495841925,17.376256738462665,358.31202273349743,346.79801992042337,0.0
0.115,3.4376230283774225,-1.6238123455999045,-1.4396081272902777,0.0,21.4915331845102,17.342510606078946,354.8037758381223,346.79801992042337,0.0
0.116,3.366922940107066,-1.6454029480127659,0.2344577612202947,0.0,21.241387127492473,17.461614005801206,351.254375230525,346.79801992042337,0.0
0.117,3.4223052140227095,-1.6827295596620335,1.964594511917931,0.0,21.032056037406043,17.710567792527673,347.4733211870742,346.79801992042337,0.0
0.11800000000000001,3.5877656421664117,-1.7329696726500161,3.848368520976827,0.0,20.873706581313087,18.0859600407057,344.4971808762101,346.79801992042337,0.0
0.11900000000000001,3.8613346518096296,-1.7813441399592023,5.359447066851001,0.0,20.773550085921364,18.52692103163289,345.7412371176421,346.79801992042337,0.0
0.12,4.202773788996193,-1.823298659436843,4.7479867741628325,0.0,20.731636591630977,18.79657624127966,345.1987027290516,346.79801992042337,0.0
0.121,4.468319970983427,-1.8311799680484708,5.035247140371784,0.0,20.72132736648681,19.04699213509584,335.12806128793454,346.79801992042337,0.0
0.122,4.731267618295927,-1.7654729209995912,10.0,0.0,20.72978406497718,19.7883169485285,336.56143785264004,346.79801992042337,0.0
0.123,5.244155499478225,-1.76916070351147,9.569199636635183,0.0,20.812590301508575,20.30553119144359,338.3797534740143,346.79801992042337,0.0
0.124,5.705132144853698,-1.778763716028004,8.74422449041214,0.0,20.939856792230046,20.647286819089956,326.791335626817,346.79801992042337,0.0
0.125,6.101425687981564,-1.6853998383372313,10.0,0.0,21.07820613997285,21.074996067270405,328.6755922048398,346.79801992042337,0.0
0.126,6.524200130811212,-1.5778513431769083,10.0,0.0,21.234594782068694,21.41866931703123,319.35366007579535,346.79801992042337,0.0
0.127,6.915116395373136,-1.463314271741663,10.0,0.0,21.398188292024756,21.704841061352045,319.6771916806153,346.79801992042337,0.0
0.128,7.30396491513208,-1.2954011889720993,10.0,0.0,21.556714557027,21.939890807708515,307.7096417984931,346.79801992042337,0.0
0.129,7.664325897660819,-1.1299363027871219,10.0,0.0,21.706371163512017,22.131536983048996,306.9855437380721,346.79801992042337,0.0
0.13,8.006278461542902,-0.9665819154355271,10.0,0.0,21.84391239313575,22.284973029302186,309.04640493492747,346.79801992042337,0.0
0.131,8.32234949961684,-0.82846604680751,10.0,0.0,21.96948390274686,22.405471305343116,313.37893537915073,346.79801992042337,0.0
0.132,8.439531485589754,-0.9846291488114507,10.0,0.0,22.11310718890768,22.51674759666479,326.5549130707441,346.79801992042337,0.0
0.133,8.464298568255273,-1.2440166094040088,10.0,0.0,22.280466765229715,22.629706028236896,336.5194044479573,346.79801992042337,0.0
0.134,8.47238162908315,-1.477980914387838,10.0,0.0,22.46552842601905,22.747463108419577,347.85802611309356,346.79801992042337,0.0
0.135,8.40857158836004,-1.784820014555323,4.944219129349271,0.0,22.675272286716318,22.32291468597917,353.6806495935822,346.79801992042337,0.0
0.136,8.07484412614523,-1.9103968842182026,1.9640810923733678,0.0,22.832331983761048,21.72061003692809,361.8882458046249,346.79801992042337,0.0
0.137,7.522333507258157,-1.9868159143894082,-2.2906192719899963,0.0,22.920605570818402,20.813465056231813,363.1497479619314,346.79801992042337,0.0
0.138,6.771312857916298,-1.9335702320766184,-3.084887631058324,0.0,22.90271608574428,20.03812658169574,366.30442744877627,346.79801992042337,0.0
0.139,6.027161171943561,-1.8752613328673573,-4.857291449764295,0.0,22.803200179634064,19.225857748602472,366.74467501141794,346.79801992042337,0.0
0.14,5.288875634781735,-1.7947756103212384,-5.276881781995077,0.0,22.624138640337573,18.530203202077264,365.7348986081298,346.79801992042337,0.0
0.14100000000000001,4.635194153736746,-1.717752724403747,-4.9613623672280776,0.0,22.38575014009274,17.989633102764927,363.8222946166677,346.79801992042337,0.0
0.14200000000000002,4.109422934708273,-1.661764927849804,-4.1753031184594676,0.0,22.1117550511794,17.6138905058589,361.4157654587057,346.79801992042337,0.0
0.14300000000000002,3.7295646950068315,-1.6296042007564213,-3.1182159948613,0.0,21.824607409452057,17.39326834503714,358.7663165032397,346.79801992042337,0.0
