timestamp,iq,id,iq_ref,id_ref,vq,vd,omega,omega_ref,r
0.0,0.0,0.0,0.0,0.0,0.0,0.0,0.0,362.402385585969,0.0
0.001,0.0,0.0,10.0,0.0,0.0,1.0999999999999999,6.115472199294103,362.402385585969,0.0
0.002,0.5307369851907212,-0.2913212625381807,10.0,0.0,0.14204533887919985,1.9316189316290207,13.317801563642547,362.402385585969,0.0
0.003,1.0842913387634832,-0.6024330830807904,10.0,0.0,0.384357124667687,2.6386968949419622,20.697939467553027,362.402385585969,0.0
0.004,1.5590443546685477,-0.8700465084428163,10.0,0.0,0.6994718867930164,3.2526109522886295,28.232747544420146,362.402385585969,0.0
0.005,1.9399447555359186,-1.0838738622210777,10.0,0.0,1.065311453102468,3.7994935661768023,35.92944872443006,362.402385585969,0.0
0.006,2.239750732602683,-1.2510087368845633,10.0,0.0,1.4655018868449925,4.299102221838433,43.75633668444442,362.402385585969,0.0
0.007,2.4770151619816017,-1.382020589851471,10.0,0.0,1.8883740978591532,4.765668027847139,51.58766747378032,362.402385585969,0.0
0.008,2.6680767290418097,-1.4872241871505252,10.0,0.0,2.325877945545995,5.209220346273558,59.45942083902103,362.402385585969,0.0
0.009000000000000001,2.8266491704841292,-1.5730794701170803,10.0,0.0,2.772378685460125,5.636635464737965,67.35059094018146,362.402385585969,0.0
0.01,2.962077666392183,-1.645500646948331,10.0,0.0,3.224078639851053,6.052647735211881,75.20908322432116,362.402385585969,0.0
0.011,3.0811061533574158,-1.7084279320504514,10.0,0.0,3.678407615443203,6.460489925470405,83.0265951655913,362.402385585969,0.0
0.012,3.188848746459569,-1.7638278597420747,10.0,0.0,4.133552631697047,6.862319393890706,90.74118064793086,362.402385585969,0.0
0.013000000000000001,3.288205119878689,-1.8140726097274587,10.0,0.0,4.588339016389012,7.259628641949282,98.35820682563939,362.402385585969,0.0
0.014,3.3820602099432007,-1.8592355758795645,10.0,0.0,5.041843166194517,7.653355107498287,105.90865295623543,362.402385585969,0.0
0.015,3.4721069852858886,-1.899829032412081,10.0,0.0,5.493383198131427,8.044092747085895,113.37727610343421,362.402385585969,0.0
0.016,3.5596145800153947,-1.9360338400176071,10.0,0.0,5.94241958510469,8.43218525824161,120.68508583176356,362.402385585969,0.0
0.017,3.645144415105338,-1.9685384477868613,10.0,0.0,6.388575043274759,8.817838951066484,127.83962377537456,362.402385585969,0.0
0.018000000000000002,3.730251927866576,-1.9959253041084188,10.0,0.0,6.83136783302799,9.201036292373047,134.85405702603322,362.402385585969,0.0
0.019,3.81544967906247,-2.018253592643655,10.0,0.0,7.270383321112213,9.581672501020332,141.68976328564074,362.402385585969,0.0
0.02,3.9014648862453374,-2.0350875541282063,10.0,0.0,7.705189334130692,9.959536942333155,148.3432823300447,362.402385585969,0.0
0.021,3.9891051824829464,-2.0457889559126508,10.0,0.0,8.135310004560049,10.334315260302239,154.92060212100432,362.402385585969,0.0
0.022,4.079618141396171,-2.0489696811670974,10.0,0.0,8.560139305503519,10.705547790999272,161.01925282597162,362.402385585969,0.0
0.023,4.171109372430197,-2.048468292080302,10.0,0.0,8.979521969370257,11.072981092896333,166.534238406907,362.402385585969,0.0
0.024,4.266936196769627,-2.039517194249811,10.0,0.0,9.392730090169543,11.435983292623375,171.8647834235234,362.402385585969,0.0
0.025,4.367255527950721,-2.0225841458509217,10.0,0.0,9.79914449451603,11.793929226271104,177.02637022703064,362.402385585969,0.0
0.026000000000000002,4.4734353073349595,-1.9962166741499119,10.0,0.0,10.197980960389518,12.146045424568259,181.63161391243256,362.402385585969,0.0
0.027,4.582366840795821,-1.966358349113627,10.0,0.0,10.589124658468391,12.491912978736195,185.74793639675826,362.402385585969,0.0
0.028,4.700058850757774,-1.9240450691803936,10.0,0.0,10.971384864613876,12.830451341534015,189.43662766964098,362.402385585969,0.0
0.029,4.820934284790598,-1.879137197786803,10.0,0.0,11.344756153370636,13.161242511022618,192.73598774770625,362.402385585969,0.0
0.03,4.952016225740939,-1.821000614527957,10.0,0.0,11.707923484756042,13.483081433273819,195.59831968863915,362.402385585969,0.0
0.031,5.086039273572549,-1.7621311371320891,10.0,0.0,12.061063698547066,13.79562148058647,197.80891551030922,362.402385585969,0.0
0.032,5.230431844273564,-1.6911110488141978,10.0,0.0,12.40292038074925,14.097678592248165,200.4421589734679,362.402385585969,0.0
0.033,5.380124186618445,-1.6166151787533525,10.0,0.0,12.733312761073865,14.38869342901298,201.91742172589852,362.402385585969,0.0
0.034,5.537594793894332,-1.535029134414507,10.0,0.0,13.051537880865839,14.667821176756876,203.18880493813168,362.402385585969,0.0
0.035,5.698947813469154,-1.4530296333491768,10.0,0.0,13.357649178779205,14.934684535625108,203.60405746232266,362.402385585969,0.0
0.036000000000000004,5.870474243492053,-1.3603000477825025,10.0,0.0,13.65045542338638,15.188218311291084,204.28541056101804,362.402385585969,0.0
0.037,6.041188711220851,-1.275010780747051,10.0,0.0,13.930879897581198,15.42861600670124,205.2233356988433,362.402385585969,0.0
0.038,6.228175208801664,-1.168399557236846,10.0,0.0,14.196427351981786,15.654155009933262,200.35169734043586,362.402385585969,0.0
0.039,6.404895489618571,-1.0845312562500289,10.0,0.0,14.449814560392067,15.86612549236809,209.64773540576442,362.402385585969,0.0
0.04,6.534612624563911,-1.0851225869390002,10.0,0.0,14.699963825590459,16.069735965364643,218.170241886545,362.402385585969,0.0
0.041,6.621487035821765,-1.1484636683301073,10.0,0.0,14.952420817214799,16.26974130369247,220.68166573712315,362.402385585969,0.0
0.042,6.6704785161669795,-1.2647840534085386,10.0,0.0,15.211794475054209,16.47047148862455,233.10654395573727,362.402385585969,0.0
0.043000000000000003,6.709376245503157,-1.3867642159960276,10.0,0.0,15.477558399636717,16.673277185423842,235.10815372853793,362.402385585969,0.0
0.044,6.744196093263161,-1.5028656568708394,10.0,0.0,15.74857785831126,16.87893749904121,248.8181267625822,362.402385585969,0.0
0.045,6.750563942850831,-1.6564343609015326,10.0,0.0,16.02879294551472,17.090781462187255,251.61117095327992,362.402385585969,0.0
0.046,6.764566527560506,-1.7840489455190416,10.0,0.0,16.314672837580048,17.307985931916857,266.60539535969383,362.402385585969,0.0
0.047,6.752169677737121,-1.9446655565152717,10.0,0.0,16.610076868775216,17.533561623207692,270.0627790167984,362.402385585969,0.0
0.048,6.7291903821171735,-2.110358990489937,10.0,0.0,16.91511817760721,17.768523902508925,283.13731951482634,362.402385585969,0.0
0.049,6.714097190323873,-2.246352557911731,10.0,0.0,17.22645394156277,18.011924542904307,294.70561782835244,362.402385585969,0.0
0.05,6.666841209228205,-2.4219663531358275,10.0,0.0,17.548953774962747,18.267165921658286,300.1294548425776,362.402385585969,0.0
0.051000000000000004,6.612335516543512,-2.59336894353628,10.0,0.0,17.88182590988993,18.53465621226123,310.75154600411304,362.402385585969,0.0
0.052000000000000005,6.568447424188529,-2.726701034625408,10.0,0.0,18.22111236450049,18.81296732052879,322.35703405819294,362.402385585969,0.0
0.053,6.5036136539679195,-2.8764091099274185,10.0,0.0,18.569435851849082,19.104068797231378,330.9557012510771,362.402385585969,0.0
0.054,6.434362099984388,-3.0149932598739144,10.0,0.0,18.925784313874168,19.407861808234543,339.4707232587175,362.402385585969,0.0
0.055,6.370891759459199,-3.1253006473392393,10.0,0.0,19.28762520191878,19.723199586257838,348.00092263299223,362.402385585969,0.0
0.056,6.314459991163816,-3.2071523724558277,10.0,0.0,19.65271639484943,20.048760466390505,356.29964302226927,362.402385585969,0.0
0.057,6.266092078485367,-3.262894600420583,8.792458220147235,0.0,20.01916768432525,20.250200934730838,362.4346575653282,362.402385585969,0.0
0.058,6.170852680325022,-3.251417296924701,5.724628228824165,0.0,20.36729796602332,20.15274925860857,363.6292942811317,362.402385585969,0.0
0.059000000000000004,5.932233152050567,-3.124027458657715,5.115040783970796,0.0,20.656971942764947,20.088775213376273,359.0396242096751,362.402385585969,0.0
0.06,5.704415426735662,-2.9269270991377567,7.4435034334620465,0.0,20.890873976144654,20.345066490735846,358.4236469530499,362.402385585969,0.0
0.061,5.6828128108122264,-2.745563165263568,7.791279448103824,0.0,21.109035904791384,20.614187689311535,363.16485657564425,362.402385585969,0.0
0.062,5.745180985189638,-2.5940807274134263,5.413049926909901,0.0,21.317444331606243,20.606053428075832,358.474720386051,362.402385585969,0.0
0.063,5.720589920496757,-2.3929812113796802,7.797394673705711,0.0,21.483592367230827,20.90896235186466,347.5692595614586,362.402385585969,0.0
0.064,5.883117470077257,-2.1854475769236985,10.0,0.0,21.642598787042022,21.398514384160684,353.3771599475819,362.402385585969,0.0
0.065,6.207388816378441,-2.042571241318262,10.0,0.0,21.821018707529657,21.798941229347957,347.7688912515836,362.402385585969,0.0
0.066,6.540095111899529,-1.933571662784599,10.0,0.0,22.01107813020462,22.14381240302097,340.31317680641155,362.402385585969,0.0
0.067,6.92303372917848,-1.7291221100357008,10.0,0.0,22.19521927296233,22.434406216648696,339.22445704906863,362.402385585969,0.0
0.068,7.258431428387062,-1.5754842752344658,10.0,0.0,22.375150016506396,22.681290402449267,329.81958872646055,362.402385585969,0.0
0.069,7.632112874972875,-1.3416551562248793,10.0,0.0,22.53759127953308,22.88372826189184,323.4444259541206,362.402385585969,0.0
0.07,7.960910557566963,-1.1698046733337595,10.0,0.0,22.687466940273417,23.04973553107332,321.48547076083366,362.402385585969,0.0
0.07100000000000001,8.327241885752757,-0.9329317123449041,10.0,0.0,22.814618240978014,23.1771211701362,316.73244511688137,362.402385585969,0.0
0.07200000000000001,8.611753447182535,-0.8308161842428828,10.0,0.0,22.9329289970371,23.276850416887818,331.3603872803415,362.402385585969,0.0
0.073,8.693471497799896,-1.0348593931053989,10.0,0.0,23.072847510421333,23.372293944616594,341.98644160075133,362.402385585969,0.0
0.074,8.729932554069379,-1.2626706789073823,10.0,0.0,23.231337334589618,23.46899143522743,351.0942608288859,362.402385585969,0.0
0.075,8.682362281939705,-1.5798913539741872,10.0,0.0,23.416264086801487,23.57746549969098,365.5084676232814,362.402385585969,0.0
0.076,8.632489337162676,-1.8488146344816137,5.091165131521345,0.0,23.61995492434367,23.15862331860088,372.21880422430746,362.402385585969,0.0
0.077,8.254255959104334,-2.0512561812001335,1.6378326446249174,0.0,23.780971797356585,22.512363156638834,378.01472899754174,362.402385585969,0.0
0.078,7.681548195275025,-2.104965170280721,-1.416253176107948,0.0,23.865144540203694,21.704630103003275,383.6914188676508,362.402385585969,0.0
0.079,6.944773294433755,-2.1029169498550297,-4.4674884439792875,0.0,23.859364309264897,20.75631076921171,384.5705905216645,362.402385585969,0.0
0.08,6.111193778210691,-2.0170570729451542,-5.1287563203430935,0.0,23.749906063784998,19.94434422976024,384.9299414157952,362.402385585969,0.0
0.081,5.3355971695163245,-1.9231782484656086,-5.53370732570672,0.0,23.560728916984285,19.241676419673723,383.6767139449415,362.402385585969,0.0
0.082,4.66019838650828,-1.8351427809955152,-5.119836873869601,0.0,23.31145759067809,18.706470835715443,381.26104288995185,362.402385585969,0.0
0.083,4.129101361754266,-1.7646228057085138,-4.100587919414593,0.0,23.026715995999798,18.35950404288691,378.3850939491482,362.402385585969,0.0
0.084,3.762897734140816,-1.7205250879261285,-2.822440532644558,0.0,22.731606332303297,18.1841349216635,374.8081526870022,362.402385585969,0.0
0.085,3.5532634378261143,-1.7050488392540886,-1.1580275725818785,0.0,22.447209312678005,18.186493434250444,370.73592441972386,362.402385585969,0.0
0.08600000000000001,3.49795207512516,-1.71570385195052,0.7947511727197325,0.0,22.192814660157264,18.36232583293269,366.783185968693,362.402385585969,0.0
0.08700000000000001,3.5892049042695646,-1.750575202056506,2.7273123944079334,0.0,21.985172011141522,18.677598548594425,362.2994506434281,362.402385585969,0.0
0.088,3.8062087670551854,-1.7965214824345705,4.970209406465787,0.0,21.83452627593405,19.145014890282912,360.1531016918945,362.402385585969,0.0
0.089,4.151659985428291,-1.8413034816498042,6.065876721173323,0.0,21.75015330552607,19.61288986338588,362.95788902807834,362.402385585969,0.0
0.09,4.53300723794762,-1.8767231716797237,4.657928018660312,0.0,21.72445347538032,19.821215326120843,356.0694674864126,362.402385585969,0.0
0.091,4.793945761252421,-1.846354058588562,8.16546797048876,0.0,21.71846137518231,20.381157376255658,347.36089204688693,362.402385585969,0.0
0.092,5.2319795494109895,-1.799200853548262,10.0,0.0,21.76417952859408,21.005654803620757,352.13282257615526,362.402385585969,0.0
0.093,5.742983722896018,-1.7879999866914396,10.0,0.0,21.867015046097322,21.502098862093632,345.21035364822103,362.402385585969,0.0
0.094,6.21795676380605,-1.754837799251363,10.0,0.0,22.00567558574769,21.9120450737043,340.35059722925473,362.402385585969,0.0
0.095,6.691180478193582,-1.614761675744174,10.0,0.0,22.156387940882695,22.2475578399454,337.21047016134537,362.402385585969,0.0
0.096,7.086900102103735,-1.5067931740638563,10.0,0.0,22.315104563178544,22.525793643589655,329.81036947109,362.402385585969,0.0
0.097,7.503873482949334,-1.2992011876994005,10.0,0.0,22.46401767012595,22.750167653445153,321.8525337651401,362.402385585969,0.0
0.098,7.860975177069163,-1.145296440914266,10.0,0.0,22.60562326508144,22.93188412046512,321.08547272906156,362.402385585969,0.0
0.099,8.24196453096089,-0.9269504218387286,10.0,0.0,22.728760932612932,23.071251688291746,316.0598713700523,362.402385585969,0.0
0.1,8.549310545594462,-0.8151264974003429,10.0,0.0,22.843404418676464,23.178998098018088,330.16238213082073,362.402385585969,0.0
0.101,8.65045583961091,-1.0085728870221038,10.0,0.0,22.97975553920905,23.279381693182664,339.2336083749319,362.402385585969,0.0
0.10200000000000001,8.695513417187408,-1.2377742876964843,10.0,0.0,23.13578759738281,23.3794171602908,349.54428562441467,362.402385585969,0.0
0.10300000000000001,8.656384831613423,-1.5528128328637807,10.0,0.0,23.318582222411653,23.48980700669439,362.64106291619817,362.402385585969,0.0
0.10400000000000001,8.613038414398964,-1.8201411226777142,5.896077578738099,0.0,23.520392096005846,23.16038268465956,371.0542835063838,362.402385585969,0.0
0.105,8.283376765698694,-2.0422508407053845,1.6029483044411368,0.0,23.69083733612203,22.48870610341247,376.04571153564876,362.402385585969,0.0
0.106,7.7139990111562815,-2.0974682307180976,-1.029198969688144,0.0,23.78092320982301,21.713971733403117,381.99745168788706,362.402385585969,0.0
0.107,6.995462491860628,-2.101520647596253,-4.201019706826475,0.0,23.784420651109425,20.77648581899797,383.16725907572476,362.402385585969,0.0
0.108,6.171696243498305,-2.0212388036621136,-4.9935721356428795,0.0,23.684948229825153,19.961064602490445,383.7160180877253,362.402385585969,0.0
0.109,5.39560137505989,-1.9292419676534847,-5.481087966660701,0.0,23.504564095496946,19.248669821426073,382.61900820107985,362.402385585969,0.0
0.11,4.712836464093667,-1.8407416013217697,-5.134749249489098,0.0,23.26216382455871,18.699791713756255,380.2628023244896,362.402385585969,0.0
0.111,4.16925801767694,-1.7699689569369639,-4.135250478579178,0.0,22.982215782728314,18.341008847384163,377.4639497926499,362.402385585969,0.0
0.112,3.7914968528919264,-1.723717625216451,-2.88643985472613,0.0,22.690004338398342,18.153601588043152,374.12581937552034,362.402385585969,0.0
0.113,3.5696674457321285,-1.707415484790855,-1.3346089840568691,0.0,22.406942590437655,18.134550822878055,370.0462254819106,362.402385585969,0.0
0.114,3.4977129939608935,-1.7154978605010167,0.6287495637885847,0.0,22.1513340234889,18.295246786612957,366.15548379153176,362.402385585969,0.0
0.115,3.5747395127910253,-1.748061890877087,2.536589426922373,0.0,21.94085712919277,18.595348635156725,361.7616738901721,362.402385585969,0.0
0.116,3.7774463369370426,-1.7938845760011448,4.739901494560165,0.0,21.786152964240525,19.04615105275755,359.3130420825154,362.402385585969,0.0
0.117,4.1084209155197176,-1.8384189253004954,5.9951108334230705,0.0,21.69644000911527,19.518062583298985,361.84420627377926,362.402385585969,0.0
0.11800000000000001,4.487126082708183,-1.8753146349477698,4.735110530913026,0.0,21.66650268712489,19.74431171600412,356.3225300855952,362.402385585969,0.0
0.11900000000000001,4.752733298892814,-1.8547394358178784,7.556747180008801,0.0,21.659551781603305,20.242492495556906,346.3392627983062,362.402385585969,0.0
0.12,5.157615051665092,-1.8032630170360893,10.0,0.0,21.69765739051445,20.88882062966722,351.3999153639668,362.402385585969,0.0
0.121,5.672547208548792,-1.7881960091863476,10.0,0.0,21.795442645269866,21.397300263328226,346.5021743540195,362.402385585969,0.0
0.122,6.146280376589306,-1.7692142883237585,10.0,0.0,21.932360018699455,21.81774913218306,338.6462573728602,362.402385585969,0.0
0.123,6.623232918588372,-1.6353371246249726,10.0,0.0,22.08309387087332,22.162117403555868,338.36238115108233,362.402385585969,0.0
0.124,7.025736048220976,-1.5250945202796329,10.0,0.0,22.242403250126088,22.44761641416919,328.3476813013898,362.402385585969,0.0
0.125,7.4388829470586755,-1.329070396372368,10.0,0.0,22.393871364928557,22.67907533407064,324.032620995548,362.402385585969,0.0
0.126,7.797025070437144,-1.1766953907695235,10.0,0.0,22.53853755086369,22.867271008878927,320.29016893059315,362.402385585969,0.0
0.127,8.183487371305679,-0.9503031268853235,10.0,0.0,22.664177286714903,23.012184302938145,315.7877786669191,362.402385585969,0.0
0.128,8.517287096397391,-0.7936214161485045,10.0,0.0,22.77677331284471,23.12231689442517,323.84175136484737,362.402385585969,0.0
0.129,8.629639747869263,-0.9755711728090954,10.0,0.0,22.910704285850272,23.223675034965474,340.6010425705459,362.402385585969,0.0
0.13,8.677821711302109,-1.2080820773136476,10.0,0.0,23.0651346775382,23.32411396928942,344.9131247846759,362.402385585969,0.0
0.131,8.660621208104192,-1.4929829326118016,10.0,0.0,23.243179908527484,23.432325924335856,362.93247443353994,362.402385585969,0.0
0.132,8.604633927742759,-1.7898543961973528,5.366982353192126,0.0,23.444048664363912,23.043875861635488,365.7196049180162,362.402385585969,0.0
0.133,8.266600028761934,-1.9715662366728175,3.940244917633514,0.0,23.603005126163108,22.64037059542971,374.3609512721227,362.402385585969,0.0
0.134,7.816537981009812,-2.102595197355695,-0.5000139162812598,0.0,23.718311482432163,21.86507689091232,380.3276441589318,362.402385585969,0.0
0.135,7.143207664625869,-2.120803118561431,-3.6626129454154306,0.0,23.745250414348376,20.944925601932663,382.64322321791906,362.402385585969,0.0
0.136,6.335812759749513,-2.0545158443554308,-5.022810851228572,0.0,23.670006644800296,20.083567692067067,383.32425616240596,362.402385585969,0.0
0.137,5.536907261218977,-1.9567373508337806,-5.572546029236392,0.0,23.50605869967513,19.33375796150008,382.38302358850024,362.402385585969,0.0
0.138,4.822616114712007,-1.8588824191938706,-5.301736122308844,0.0,23.273738318460616,18.748403822149847,380.1489533781946,362.402385585969,0.0
0.139,4.245750135416623,-1.7792682784531637,-4.362166695078291,0.0,22.998335555267442,18.35530994279669,377.34711005877455,362.402385585969,0.0
0.14,3.8361203883728843,-1.725908473434801,-3.11069228009631,0.0,22.706090243313664,18.1415422788171,374.16261965035034,362.402385585969,0.0
0.14100000000000001,3.5891177557907716,-1.7031634174139876,-1.6360494165280182,0.0,22.419724338045203,18.092696812996387,370.20849916034854,362.402385585969,0.0
0.14200000000000002,3.4909440284308246,-1.7086631530800445,0.2629496927290855,0.0,22.157942898204986,18.22257186029726,366.2318060058973,362.402385585969,0.0
0.14300000000000002,3.543571347385163,-1.7365268099385074,2.21300206575543,0.0,21.93833711197665,18.50202628646578,361.9577897412577,362.402385585969,0.0
0.14400000000000002,3.7263379845675524,-1.782338984106759,4.354456156522321,0.0,21.773398049577914,18.928056060748183,358.8506181081006,362.402385585969,0.0
0.145,4.036766897088741,-1.8281477992594524,5.9435596478795665,0.0,21.67213671877242,19.41605628049861,360.5550043271518,362.402385585969,0.0
0.146,4.419603839339327,-1.86769423739102,5.109840350942152,0.0,21.63369356306545,19.698522413094388,358.3646494516359,362.402385585969,0.0
