timestamp,iq,id,iq_ref,id_ref,vq,vd,omega,omega_ref,r
0.0,0.0,0.0,0.0,0.0,0.0,0.0,0.0,272.9437798893131,0.0
0.001,0.0,0.0,10.0,0.0,0.0,1.0999999999999999,6.115472199294103,272.9437798893131,0.0
0.002,0.5307369851907212,-0.2913212625381807,10.0,0.0,0.14204533887919985,1.9316189316290207,13.317801563642547,272.9437798893131,0.0
0.003,1.0842913387634832,-0.6024330830807904,10.0,0.0,0.384357124667687,2.6386968949419622,20.697939467553027,272.9437798893131,0.0
0.004,1.5590443546685477,-0.8700465084428163,10.0,0.0,0.6994718867930164,3.2526109522886295,28.232747544420146,272.9437798893131,0.0
0.005,1.9399447555359186,-1.0838738622210777,10.0,0.0,1.065311453102468,3.7994935661768023,35.92944872443006,272.9437798893131,0.0
0.006,2.239750732602683,-1.2510087368845633,10.0,0.0,1.4655018868449925,4.299102221838433,43.75633668444442,272.9437798893131,0.0
0.007,2.4770151619816017,-1.382020589851471,10.0,0.0,1.8883740978591532,4.765668027847139,51.58766747378032,272.9437798893131,0.0
0.008,2.6680767290418097,-1.4872241871505252,10.0,0.0,2.325877945545995,5.209220346273558,59.45942083902103,272.9437798893131,0.0
0.009000000000000001,2.8266491704841292,-1.5730794701170803,10.0,0.0,2.772378685460125,5.636635464737965,67.35059094018146,272.9437798893131,0.0
0.01,2.962077666392183,-1.645500646948331,10.0,0.0,3.224078639851053,6.052647735211881,75.20908322432116,272.9437798893131,0.0
0.011,3.0811061533574158,-1.7084279320504514,10.0,0.0,3.678407615443203,6.460489925470405,83.0265951655913,272.9437798893131,0.0
0.012,3.188848746459569,-1.7638278597420747,10.0,0.0,4.133552631697047,6.862319393890706,90.74118064793086,272.9437798893131,0.0
0.013000000000000001,3.288205119878689,-1.8140726097274587,10.0,0.0,4.588339016389012,7.259628641949282,98.35820682563939,272.9437798893131,0.0
0.014,3.3820602099432007,-1.8592355758795645,10.0,0.0,5.041843166194517,7.653355107498287,105.90865295623543,272.9437798893131,0.0
0.015,3.4721069852858886,-1.899829032412081,10.0,0.0,5.493383198131427,8.044092747085895,113.37727610343421,272.9437798893131,0.0
0.016,3.5596145800153947,-1.9360338400176071,10.0,0.0,5.94241958510469,8.43218525824161,120.68508583176356,272.9437798893131,0.0
0.017,3.645144415105338,-1.9685384477868613,10.0,0.0,6.388575043274759,8.817838951066484,127.83962377537456,272.9437798893131,0.0
0.018000000000000002,3.730251927866576,-1.9959253041084188,10.0,0.0,6.83136783302799,9.201036292373047,134.85405702603322,272.9437798893131,0.0
0.019,3.81544967906247,-2.018253592643655,10.0,0.0,7.270383321112213,9.581672501020332,141.68976328564074,272.9437798893131,0.0
0.02,3.9014648862453374,-2.0350875541282063,10.0,0.0,7.705189334130692,9.959536942333155,148.3432823300447,272.9437798893131,0.0
0.021,3.9891051824829464,-2.0457889559126508,10.0,0.0,8.135310004560049,10.334315260302239,154.92060212100432,272.9437798893131,0.0
0.022,4.079618141396171,-2.0489696811670974,10.0,0.0,8.560139305503519,10.705547790999272,161.01925282597162,272.9437798893131,0.0
0.023,4.171109372430197,-2.048468292080302,10.0,0.0,8.979521969370257,11.072981092896333,166.534238406907,272.9437798893131,0.0
0.024,4.266936196769627,-2.039517194249811,10.0,0.0,9.392730090169543,11.435983292623375,171.8647834235234,272.9437798893131,0.0
0.025,4.367255527950721,-2.0225841458509217,10.0,0.0,9.79914449451603,11.793929226271104,177.02637022703064,272.9437798893131,0.0
0.026000000000000002,4.4734353073349595,-1.9962166741499119,10.0,0.0,10.197980960389518,12.146045424568259,181.63161391243256,272.9437798893131,0.0
0.027,4.582366840795821,-1.966358349113627,10.0,0.0,10.589124658468391,12.491912978736195,185.74793639675826,272.9437798893131,0.0
0.028,4.700058850757774,-1.9240450691803936,10.0,0.0,10.971384864613876,12.830451341534015,189.43662766964098,272.9437798893131,0.0
0.029,4.820934284790598,-1.879137197786803,10.0,0.0,11.344756153370636,13.161242511022618,192.73598774770625,272.9437798893131,0.0
0.03,4.952016225740939,-1.821000614527957,10.0,0.0,11.707923484756042,13.483081433273819,195.59831968863915,272.9437798893131,0.0
0.031,5.086039273572549,-1.7621311371320891,10.0,0.0,12.061063698547066,13.79562148058647,197.80891551030922,272.9437798893131,0.0
0.032,5.230431844273564,-1.6911110488141978,10.0,0.0,12.40292038074925,14.097678592248165,200.4421589734679,272.9437798893131,0.0
0.033,5.380124186618445,-1.6166151787533525,10.0,0.0,12.733312761073865,14.38869342901298,201.91742172589852,272.9437798893131,0.0
0.034,5.537594793894332,-1.535029134414507,10.0,0.0,13.051537880865839,14.667821176756876,203.18880493813168,272.9437798893131,0.0
0.035,5.698947813469154,-1.4530296333491768,10.0,0.0,13.357649178779205,14.934684535625108,203.60405746232266,272.9437798893131,0.0
0.036000000000000004,5.870474243492053,-1.3603000477825025,10.0,0.0,13.65045542338638,15.188218311291084,204.28541056101804,272.9437798893131,0.0
0.037,6.041188711220851,-1.275010780747051,10.0,0.0,13.930879897581198,15.42861600670124,205.2233356988433,272.9437798893131,0.0
0.038,6.228175208801664,-1.168399557236846,10.0,0.0,14.196427351981786,15.654155009933262,200.35169734043586,272.9437798893131,0.0
0.039,6.404895489618571,-1.0845312562500289,10.0,0.0,14.449814560392067,15.86612549236809,209.64773540576442,272.9437798893131,0.0
0.04,6.534612624563911,-1.0851225869390002,10.0,0.0,14.699963825590459,16.069735965364643,218.170241886545,272.9437798893131,0.0
0.041,6.621487035821765,-1.1484636683301073,10.0,0.0,14.952420817214799,16.26974130369247,220.68166573712315,272.9437798893131,0.0
0.042,6.6704785161669795,-1.2647840534085386,10.0,0.0,15.211794475054209,16.47047148862455,233.10654395573727,272.9437798893131,0.0
0.043000000000000003,6.709376245503157,-1.3867642159960276,10.0,0.0,15.477558399636717,16.673277185423842,235.10815372853793,272.9437798893131,0.0
0.044,6.744196093263161,-1.5028656568708394,10.0,0.0,15.74857785831126,16.87893749904121,248.8181267625822,272.9437798893131,0.0
0.045,6.750563942850831,-1.6564343609015326,10.0,0.0,16.02879294551472,17.090781462187255,251.61117095327992,272.9437798893131,0.0
0.046,6.764566527560506,-1.7840489455190416,10.0,0.0,16.314672837580048,17.307985931916857,266.60539535969383,272.9437798893131,0.0
0.047,6.752169677737121,-1.9446655565152717,8.608254091421887,0.0,16.610076868775224,17.3804695732641,269.5505540607007,272.9437798893131,0.0
0.048,6.656732079323002,-2.0688467915510365,7.169606999204587,0.0,16.895242630729562,17.341285699865335,279.7715823683882,272.9437798893131,0.0
0.049,6.483576795655888,-2.1317595792971993,1.9908148205700842,0.0,17.15365202345033,16.79734882649351,282.9451535209561,272.9437798893131,0.0
0.05,6.011032415345969,-2.0949427704897423,0.304015507969682,0.0,17.327147812715552,16.250134906128658,283.6396383754056,272.9437798893131,0.0
0.051000000000000004,5.471380793765734,-1.9847229904594288,-0.15018550411597165,0.0,17.4168166233025,15.796534073094122,285.92693018458857,272.9437798893131,0.0
0.052000000000000005,4.963440437191723,-1.8926252072236271,-1.4236629116602213,0.0,17.44312991117167,15.312196622720064,286.70090341849567,272.9437798893131,0.0
0.053,4.4734073642138705,-1.7923291136364754,-1.9482207639055966,0.0,17.40826653275428,14.882781890960604,286.64506380891976,272.9437798893131,0.0
0.054,4.035465804647711,-1.6997638875875567,-2.0573137983137073,0.0,17.324768805073173,14.529340880095402,285.8981478918575,272.9437798893131,0.0
0.055,3.67051969374951,-1.6231642803951452,-1.8133995198080175,0.0,17.20677644454299,14.266580355131472,284.87220622902703,272.9437798893131,0.0
0.056,3.3909205916702896,-1.5662527426417943,-1.4197129517899265,0.0,17.068812994488486,14.086269466427574,283.1862158783879,272.9437798893131,0.0
0.057,3.191163136930838,-1.5313541230874534,-0.6791421363611025,0.0,16.923345067795598,14.006896574606156,281.20718027724575,272.9437798893131,0.0
0.058,3.077701799004208,-1.5183446951028279,0.22774166033063548,0.0,16.783404593707086,14.023748861403924,279.3309803553256,272.9437798893131,0.0
0.059000000000000004,3.046401519328217,-1.5261326808864448,1.1019696166305835,0.0,16.66013016842325,14.114326526724236,277.1785898926074,272.9437798893131,0.0
0.06,3.083645382973548,-1.5450110771872192,2.135816747956734,0.0,16.56023969593508,14.284090060069262,275.4210675212913,272.9437798893131,0.0
0.061,3.1869369892660098,-1.5696939052986525,2.9898050572950012,0.0,16.48984095115948,14.499498797489203,275.3923758619749,272.9437798893131,0.0
0.062,3.336508328197054,-1.5918991225120758,2.9796649272265805,0.0,16.450218700215792,14.66125155806919,277.1094135841273,272.9437798893131,0.0
0.063,3.4691227317742537,-1.5991975511574952,2.079489729202246,0.0,16.43131472540334,14.690857076010634,272.31957734785004,272.9437798893131,0.0
0.064,3.5335861362961603,-1.5611108039113375,4.48064987275551,0.0,16.412999173382733,14.982976181986153,267.0013197635365,272.9437798893131,0.0
0.065,3.7244848403857995,-1.535480494863215,7.19920326617004,0.0,16.423288620638917,15.498726870597483,272.0687798302711,272.9437798893131,0.0
0.066,4.0579925213756525,-1.5754576889243532,4.674223233393154,0.0,16.488777986467827,15.624221239665708,271.3285854810201,272.9437798893131,0.0
0.067,4.235972710724703,-1.555084255512821,5.060472352101582,0.0,16.557627003004775,15.795209567777203,262.72180442826857,272.9437798893131,0.0
0.068,4.415919300484186,-1.4728496088725853,9.466082633087806,0.0,16.627847873902873,16.418724281472592,269.06283691166453,272.9437798893131,0.0
0.069,4.813162834447697,-1.4860152681678178,6.334375821166311,0.0,16.755668698069577,16.556468435928632,263.9174126928666,272.9437798893131,0.0
0.07,5.027499852946432,-1.4432069572390118,8.99735160252974,0.0,16.879641284470093,16.997860024729697,263.4328783957228,272.9437798893131,0.0
0.07100000000000001,5.375230482525022,-1.3795735219304195,9.33472776603754,0.0,17.028784176336014,17.381884334394286,263.56860029623937,272.9437798893131,0.0
0.07200000000000001,5.698760448848515,-1.3658525443557616,9.360618611709999,0.0,17.200542236801663,17.709783743668094,259.4103761961859,272.9437798893131,0.0
0.073,6.038541541387621,-1.2734941347894484,10.0,0.0,17.377892216871587,18.058001441800197,258.68478645967076,272.9437798893131,0.0
0.074,6.35324734191871,-1.2346939830094696,10.0,0.0,17.568984536147596,18.351518727110157,258.3658039289894,272.9437798893131,0.0
0.075,6.686245482341688,-1.1216666608787862,10.0,0.0,17.75827434811043,18.601310778375492,249.64521972644815,272.9437798893131,0.0
0.076,6.973988247624718,-1.0373324556671497,10.0,0.0,17.945467894651536,18.816730882933694,252.87370803252375,272.9437798893131,0.0
0.077,7.256322118120168,-0.9271109848766829,10.0,0.0,18.124203077259512,19.0011490335885,261.48967858787665,272.9437798893131,0.0
0.078,7.430043731476327,-0.9673950549565298,10.0,0.0,18.30904001908886,19.16871284867441,264.4506060182027,272.9437798893131,0.0
0.079,7.498858126949288,-1.1401124937335956,9.594140927138476,0.0,18.510745725808547,19.28752711105143,279.0077904238509,272.9437798893131,0.0
0.08,7.519293353117968,-1.3084343857372818,2.2549086189689813,0.0,18.720950521826598,18.609813823768864,276.73371753281225,272.9437798893131,0.0
0.081,7.1202724719123545,-1.2878771445346242,3.3540456880533176,0.0,18.838418994062263,18.259286394691628,285.5087606703373,272.9437798893131,0.0
0.082,6.727190741987393,-1.3214488841098477,-1.1591256885194614,0.0,18.91298633993193,17.487367115111525,283.69164278343226,272.9437798893131,0.0
0.083,6.156603335369889,-1.2391137155465048,-0.3580453740081202,0.0,18.89351243731891,16.992180843867057,287.5437624761614,272.9437798893131,0.0
0.084,5.655222244614852,-1.2256710939011877,-2.4301050462411844,0.0,18.825811961147394,16.358074488311857,287.75046470319234,272.9437798893131,0.0
0.085,5.130848758501702,-1.184115932025676,-2.6815230078954357,0.0,18.697034255447655,15.826340614200289,288.7306753722994,272.9437798893131,0.0
0.08600000000000001,4.655507155190246,-1.1666276313611652,-3.3294972972788317,0.0,18.526452771452384,15.3131832062174,288.52545374501744,272.9437798893131,0.0
0.08700000000000001,4.217807346922734,-1.1555692120732652,-3.3827032221948965,0.0,18.320572151943338,14.878304044662647,288.0074165160226,272.9437798893131,0.0
0.088,3.8418198435222015,-1.157680412048585,-3.2743209739645707,0.0,18.09213449441988,14.515760471158346,287.03625257697,272.9437798893131,0.0
0.089,3.5296564336284684,-1.1741579075907975,-2.9296637313148466,0.0,17.852077657808223,14.234034063515603,285.8023928016478,272.9437798893131,0.0
0.09,3.2854772415645908,-1.2035986143711426,-2.441319972777078,0.0,17.610927566883884,14.030483931016722,284.40540402964774,272.9437798893131,0.0
0.091,3.10692018604465,-1.2443439241398346,-1.857441828180403,0.0,17.377725048808838,13.899716445182092,282.9313368728409,272.9437798893131,0.0
0.092,2.9891285012809004,-1.2927486390743776,-1.220283819612269,0.0,17.159683099502942,13.834125570388768,281.7436633636396,272.9437798893131,0.0
0.093,2.9265501756329364,-1.3427245702889898,-0.714445899754875,0.0,16.961899562932572,13.808265878216456,280.2366013971163,272.9437798893131,0.0
0.094,2.8997225852227313,-1.3930118945428278,-0.03384313157126684,0.0,16.786340257157786,13.837346978594606,278.39042540539936,272.9437798893131,0.0
0.095,2.9137083833337964,-1.4390192889488733,0.834778409126351,0.0,16.635802932140415,13.932899666456048,276.59744683954443,272.9437798893131,0.0
0.096,2.972484816981959,-1.4872565357209793,1.6947310225514993,0.0,16.514720631611794,14.083426375379204,274.4599965386307,272.9437798893131,0.0
0.097,3.0751593610506367,-1.5303256995368717,2.74829400651518,0.0,16.425054467580384,14.303378149947868,273.6416897689508,272.9437798893131,0.0
0.098,3.2284993778845905,-1.5685787599549874,3.150468292558756,0.0,16.370127242416814,14.510231015870636,275.04133255913945,272.9437798893131,0.0
0.099,3.3904026084049446,-1.589553492169363,2.429671370766174,0.0,16.343302716301274,14.59132051323825,274.57628039204974,272.9437798893131,0.0
0.1,3.4800915158189083,-1.5868287656154114,2.645872449283662,0.0,16.326760125290974,14.684361948602062,268.3458575807686,272.9437798893131,0.0
0.101,3.573529761964974,-1.5395418685880051,5.807063078009671,0.0,16.316001625510605,15.102632621701218,267.90660652953557,272.9437798893131,0.0
0.10200000000000001,3.8368617692917626,-1.537213506433201,6.077060337223968,0.0,16.348362792151445,15.448056031394254,271.6687374872672,272.9437798893131,0.0
0.10300000000000001,4.103022448235199,-1.555009846722465,4.208745282378605,0.0,16.414011064150856,15.527314233546425,265.103042517918,272.9437798893131,0.0
0.10400000000000001,4.245586123593577,-1.5019131030558195,7.570000140767147,0.0,16.475001723959334,15.980612230154529,264.23580816736023,272.9437798893131,0.0
0.105,4.558452982214178,-1.466976928346013,8.090697033265572,0.0,16.57191110566636,16.385353884978926,267.25231292794814,272.9437798893131,0.0
0.106,4.873206954415927,-1.475821420160773,6.639359322585268,0.0,16.700925970531834,16.562963927035774,259.5165659180871,272.9437798893131,0.0
0.107,5.104247291596561,-1.400421580258258,10.0,0.0,16.826417925809032,17.097631405628075,264.4995525471505,272.9437798893131,0.0
0.108,5.484795053928931,-1.3795605407897307,8.221623826773428,0.0,16.991286717475223,17.322603695575026,257.05614487220663,272.9437798893131,0.0
0.109,5.757416687515942,-1.3170244841928083,10.0,0.0,17.155495503138518,17.728787874409843,261.25811312435616,272.9437798893131,0.0
0.11,6.105007198250833,-1.2529771397920229,10.0,0.0,17.337481980800845,18.057482012350285,253.6005649368049,272.9437798893131,0.0
0.111,6.435428781337301,-1.1849986655111908,10.0,0.0,17.5273020657641,18.338634915230745,255.83087303850257,272.9437798893131,0.0
0.112,6.74184499954475,-1.1067342971180292,10.0,0.0,17.718326136738636,18.580252968147523,252.3739672589367,272.9437798893131,0.0
0.113,7.051615405408883,-0.9770290423111572,10.0,0.0,17.900924671562567,18.7858010404071,251.27411149374592,272.9437798893131,0.0
0.114,7.295933273561323,-0.9228575876992275,10.0,0.0,18.08115635267083,18.965276897484998,264.09243403622474,272.9437798893131,0.0
0.115,7.423124589696319,-1.0288651650702194,9.178376444975761,0.0,18.27351499943297,19.042901879819926,266.6484846383329,272.9437798893131,0.0
0.116,7.453347294092675,-1.1583607960833229,7.963304096431492,0.0,18.46758472339014,19.004505921485716,275.7260441986098,272.9437798893131,0.0
0.117,7.359741921363021,-1.3129717494899238,3.396701673200056,0.0,18.65412012768276,18.509779806354842,278.7195443779993,272.9437798893131,0.0
0.11800000000000001,7.028065012305685,-1.3073922677817984,1.8421939386184647,0.0,18.77036952751107,17.99339842286367,282.3381240276826,272.9437798893131,0.0
0.11900000000000001,6.570342770829776,-1.3158657766244475,-0.061039327606900784,0.0,18.82434372979719,17.39350221323724,284.51253843306836,272.9437798893131,0.0
0.12,6.064793627380963,-1.265461872046522,-1.2639341157373192,0.0,18.807301726300068,16.796740134134584,287.0110681177446,272.9437798893131,0.0
0.121,5.534532594225035,-1.237599130949984,-2.6538718403597708,0.0,18.729726852767556,16.170359082977996,287.18452017915524,272.9437798893131,0.0
0.122,5.0050497805286005,-1.1909177579137824,-2.8830052739634997,0.0,18.592415037849612,15.640493848308669,287.88663648946664,272.9437798893131,0.0
0.123,4.53097648985187,-1.1689099602590112,-3.3834919951207336,0.0,18.413893836944876,15.143974984460694,287.52302768822017,272.9437798893131,0.0
0.124,4.103908548665552,-1.157631959231616,-3.3474800724865683,0.0,18.202552367609336,14.730458806232104,286.8898232234482,272.9437798893131,0.0
0.125,3.744207058263358,-1.1614236123625183,-3.1703382734419447,0.0,17.97152328923918,14.391582062093768,285.8664360262971,272.9437798893131,0.0
0.126,3.4509348124600736,-1.1806360395529363,-2.787871236236223,0.0,17.731784894751833,14.132452972768768,284.5862720099979,272.9437798893131,0.0
0.127,3.225470299794038,-1.2127281004511798,-2.2642141492934806,0.0,17.493445433207626,13.950908936054411,283.1071089733748,272.9437798893131,0.0
0.128,3.064435674172482,-1.2563761474466162,-1.6262659218225455,0.0,17.265265878706924,13.844082254701158,281.7309368659998,272.9437798893131,0.0
0.129,2.9654909590484158,-1.3058825690942315,-1.0260514379019137,0.0,17.054230837432247,13.794037969397145,280.5887115234483,272.9437798893131,0.0
0.13,2.916211403215974,-1.3567934222555613,-0.53138808296751,0.0,16.864400001385906,13.780736736689974,278.96269470554154,272.9437798893131,0.0
0.131,2.8995984648217767,-1.406424581390431,0.22143117782358512,0.0,16.697172444646696,13.828980656451602,277.1956908348956,272.9437798893131,0.0
0.132,2.9258355996659042,-1.45297932263361,1.0624140036907432,0.0,16.556116745502987,13.937605132583824,275.3204369698821,272.9437798893131,0.0
0.133,2.995127503100382,-1.4995126874205933,1.9762743653917836,0.0,16.444682186600993,14.106016664687548,273.4805659733515,272.9437798893131,0.0
0.134,3.1101631677262054,-1.541086917891854,2.890842002816717,0.0,16.365340068503553,14.325946420115933,272.9516007264573,272.9437798893131,0.0
0.135,3.266557675070804,-1.5757657144783195,3.155246417892369,0.0,16.319324063078483,14.519834758314163,274.9132334647417,272.9437798893131,0.0
0.136,3.4209924174029878,-1.5921005781018605,2.1547355129958645,0.0,16.298748539048468,14.561608541877595,272.33461287139886,272.9437798893131,0.0
0.137,3.4904856494608225,-1.573976115619909,3.450137479846437,0.0,16.28225090626855,14.743546811981169,265.91410233807795,272.9437798893131,0.0
0.138,3.6218308493540374,-1.5402488284226132,6.730689522019242,0.0,16.282068106810108,15.239795157099223,268.61218160485197,272.9437798893131,0.0
0.139,3.9348674017497185,-1.5594530887479428,5.424965871476846,0.0,16.333978163317063,15.476844697013643,271.53866974722496,272.9437798893131,0.0
0.14,4.159715078657389,-1.5614469663187647,3.975772901711232,0.0,16.404429452094305,15.527423419482636,263.0513018914323,272.9437798893131,0.0
0.14100000000000001,4.282443700134749,-1.4807688206862815,8.318381609586382,0.0,16.463998949445443,16.060916614552948,264.9328409430268,272.9437798893131,0.0
