timestamp,iq,id,iq_ref,id_ref,vq,vd,omega,omega_ref,r
0.0,0.0,0.0,0.0,0.0,0.0,0.0,0.0,446.55992036185995,0.0
0.001,0.0,0.0,10.0,0.0,0.0,1.0999999999999999,6.115472199294103,446.55992036185995,0.0
0.002,0.5307369851907212,-0.2913212625381807,10.0,0.0,0.14204533887919985,1.9316189316290207,13.317801563642547,446.55992036185995,0.0
0.003,1.0842913387634832,-0.6024330830807904,10.0,0.0,0.384357124667687,2.6386968949419622,20.697939467553027,446.55992036185995,0.0
0.004,1.5590443546685477,-0.8700465084428163,10.0,0.0,0.6994718867930164,3.2526109522886295,28.232747544420146,446.55992036185995,0.0
0.005,1.9399447555359186,-1.0838738622210777,10.0,0.0,1.065311453102468,3.7994935661768023,35.92944872443006,446.55992036185995,0.0
0.006,2.239750732602683,-1.2510087368845633,10.0,0.0,1.4655018868449925,4.299102221838433,43.75633668444442,446.55992036185995,0.0
0.007,2.4770151619816017,-1.382020589851471,10.0,0.0,1.8883740978591532,4.765668027847139,51.58766747378032,446.55992036185995,0.0
0.008,2.6680767290418097,-1.4872241871505252,10.0,0.0,2.325877945545995,5.209220346273558,59.45942083902103,446.55992036185995,0.0
0.009000000000000001,2.8266491704841292,-1.5730794701170803,10.0,0.0,2.772378685460125,5.636635464737965,67.35059094018146,446.55992036185995,0.0
0.01,2.962077666392183,-1.645500646948331,10.0,0.0,3.224078639851053,6.052647735211881,75.20908322432116,446.55992036185995,0.0
0.011,3.0811061533574158,-1.7084279320504514,10.0,0.0,3.678407615443203,6.460489925470405,83.0265951655913,446.55992036185995,0.0
0.012,3.188848746459569,-1.7638278597420747,10.0,0.0,4.133552631697047,6.862319393890706,90.74118064793086,446.55992036185995,0.0
0.013000000000000001,3.288205119878689,-1.8140726097274587,10.0,0.0,4.588339016389012,7.259628641949282,98.35820682563939,446.55992036185995,0.0
0.014,3.3820602099432007,-1.8592355758795645,10.0,0.0,5.041843166194517,7.653355107498287,105.90865295623543,446.55992036185995,0.0
0.015,3.4721069852858886,-1.899829032412081,10.0,0.0,5.493383198131427,8.044092747085895,113.37727610343421,446.55992036185995,0.0
0.016,3.5596145800153947,-1.9360338400176071,10.0,0.0,5.94241958510469,8.43218525824161,120.68508583176356,446.55992036185995,0.0
0.017,3.645144415105338,-1.9685384477868613,10.0,0.0,6.388575043274759,8.817838951066484,127.83962377537456,446.55992036185995,0.0
0.018000000000000002,3.730251927866576,-1.9959253041084188,10.0,0.0,6.83136783302799,9.201036292373047,134.85405702603322,446.55992036185995,0.0
0.019,3.81544967906247,-2.018253592643655,10.0,0.0,7.270383321112213,9.581672501020332,141.68976328564074,446.55992036185995,0.0
0.02,3.9014648862453374,-2.0350875541282063,10.0,0.0,7.705189334130692,9.959536942333155,148.3432823300447,446.55992036185995,0.0
0.021,3.9891051824829464,-2.0457889559126508,10.0,0.0,8.135310004560049,10.334315260302239,154.92060212100432,446.55992036185995,0.0
0.022,4.079618141396171,-2.0489696811670974,10.0,0.0,8.560139305503519,10.705547790999272,161.01925282597162,446.55992036185995,0.0
0.023,4.171109372430197,-2.048468292080302,10.0,0.0,8.979521969370257,11.072981092896333,166.534238406907,446.55992036185995,0.0
0.024,4.266936196769627,-2.039517194249811,10.0,0.0,9.392730090169543,11.435983292623375,171.8647834235234,446.55992036185995,0.0
0.025,4.367255527950721,-2.0225841458509217,10.0,0.0,9.79914449451603,11.793929226271104,177.02637022703064,446.55992036185995,0.0
0.026000000000000002,4.4734353073349595,-1.9962166741499119,10.0,0.0,10.197980960389518,12.146045424568259,181.63161391243256,446.55992036185995,0.0
0.027,4.582366840795821,-1.966358349113627,10.0,0.0,10.589124658468391,12.491912978736195,185.74793639675826,446.55992036185995,0.0
0.028,4.700058850757774,-1.9240450691803936,10.0,0.0,10.971384864613876,12.830451341534015,189.43662766964098,446.55992036185995,0.0
0.029,4.820934284790598,-1.879137197786803,10.0,0.0,11.344756153370636,13.161242511022618,192.73598774770625,446.55992036185995,0.0
0.03,4.952016225740939,-1.821000614527957,10.0,0.0,11.707923484756042,13.483081433273819,195.59831968863915,446.55992036185995,0.0
0.031,5.086039273572549,-1.7621311371320891,10.0,0.0,12.061063698547066,13.79562148058647,197.80891551030922,446.55992036185995,0.0
0.032,5.230431844273564,-1.6911110488141978,10.0,0.0,12.40292038074925,14.097678592248165,200.4421589734679,446.55992036185995,0.0
0.033,5.380124186618445,-1.6166151787533525,10.0,0.0,12.733312761073865,14.38869342901298,201.91742172589852,446.55992036185995,0.0
0.034,5.537594793894332,-1.535029134414507,10.0,0.0,13.051537880865839,14.667821176756876,203.18880493813168,446.55992036185995,0.0
0.035,5.698947813469154,-1.4530296333491768,10.0,0.0,13.357649178779205,14.934684535625108,203.60405746232266,446.55992036185995,0.0
0.036000000000000004,5.870474243492053,-1.3603000477825025,10.0,0.0,13.65045542338638,15.188218311291084,204.28541056101804,446.55992036185995,0.0
0.037,6.041188711220851,-1.275010780747051,10.0,0.0,13.930879897581198,15.42861600670124,205.2233356988433,446.55992036185995,0.0
0.038,6.228175208801664,-1.168399557236846,10.0,0.0,14.196427351981786,15.654155009933262,200.35169734043586,446.55992036185995,0.0
0.039,6.404895489618571,-1.0845312562500289,10.0,0.0,14.449814560392067,15.86612549236809,209.64773540576442,446.55992036185995,0.0
0.04,6.534612624563911,-1.0851225869390002,10.0,0.0,14.699963825590459,16.069735965364643,218.170241886545,446.55992036185995,0.0
0.041,6.621487035821765,-1.1484636683301073,10.0,0.0,14.952420817214799,16.26974130369247,220.68166573712315,446.55992036185995,0.0
0.042,6.6704785161669795,-1.2647840534085386,10.0,0.0,15.211794475054209,16.47047148862455,233.10654395573727,446.55992036185995,0.0
0.043000000000000003,6.709376245503157,-1.3867642159960276,10.0,0.0,15.477558399636717,16.673277185423842,235.10815372853793,446.55992036185995,0.0
0.044,6.744196093263161,-1.5028656568708394,10.0,0.0,15.74857785831126,16.87893749904121,248.8181267625822,446.55992036185995,0.0
0.045,6.750563942850831,-1.6564343609015326,10.0,0.0,16.02879294551472,17.090781462187255,251.61117095327992,446.55992036185995,0.0
0.046,6.764566527560506,-1.7840489455190416,10.0,0.0,16.314672837580048,17.307985931916857,266.60539535969383,446.55992036185995,0.0
0.047,6.752169677737121,-1.9446655565152717,10.0,0.0,16.610076868775216,17.533561623207692,270.0627790167984,446.55992036185995,0.0
0.048,6.7291903821171735,-2.110358990489937,10.0,0.0,16.91511817760721,17.768523902508925,283.13731951482634,446.55992036185995,0.0
0.049,6.714097190323873,-2.246352557911731,10.0,0.0,17.22645394156277,18.011924542904307,294.70561782835244,446.55992036185995,0.0
0.05,6.666841209228205,-2.4219663531358275,10.0,0.0,17.548953774962747,18.267165921658286,300.1294548425776,446.55992036185995,0.0
0.051000000000000004,6.612335516543512,-2.59336894353628,10.0,0.0,17.88182590988993,18.53465621226123,310.75154600411304,446.55992036185995,0.0
0.052000000000000005,6.568447424188529,-2.726701034625408,10.0,0.0,18.22111236450049,18.81296732052879,322.35703405819294,446.55992036185995,0.0
0.053,6.5036136539679195,-2.8764091099274185,10.0,0.0,18.569435851849082,19.104068797231378,330.9557012510771,446.55992036185995,0.0
0.054,6.434362099984388,-3.0149932598739144,10.0,0.0,18.925784313874168,19.407861808234543,339.4707232587175,446.55992036185995,0.0
0.055,6.370891759459199,-3.1253006473392393,10.0,0.0,19.28762520191878,19.723199586257838,348.00092263299223,446.55992036185995,0.0
0.056,6.314459991163816,-3.2071523724558277,10.0,0.0,19.65271639484943,20.048760466390505,356.29964302226927,446.55992036185995,0.0
0.057,6.266092078485367,-3.262894600420583,10.0,0.0,20.01916768432525,20.383030530514645,362.98468703488817,446.55992036185995,0.0
0.058,6.234656406121481,-3.2830044001420036,10.0,0.0,20.38405550695561,20.723492962007192,368.0316803659419,446.55992036185995,0.0
0.059000000000000004,6.228510489334133,-3.2600491726267444,10.0,0.0,20.743774617448285,21.0667596267365,372.35801287012686,446.55992036185995,0.0
0.06,6.247959954981508,-3.201438289803519,10.0,0.0,21.095630838529225,21.40947063565305,373.88739853789605,446.55992036185995,0.0
0.061,6.298571070969623,-3.1064761741463998,10.0,0.0,21.436712814499675,21.747723437683817,371.47602194372377,446.55992036185995,0.0
0.062,6.38094735961424,-2.982369480030801,10.0,0.0,21.76480975788002,22.077703876517536,366.2922057853833,446.55992036185995,0.0
0.063,6.53566146196873,-2.7695519558602215,10.0,0.0,22.070926190088084,22.39130117743337,372.07145994459506,446.55992036185995,0.0
0.064,6.708566607552835,-2.560747003310555,10.0,0.0,22.35695033962817,22.686677966487718,365.1882535794375,446.55992036185995,0.0
0.065,6.897199383751794,-2.3667028673086685,10.0,0.0,22.62465294768497,22.962098937664592,356.7297130485294,446.55992036185995,0.0
0.066,7.167218997264825,-2.0824440278168583,10.0,0.0,22.863799361069702,23.20893224280502,357.7888817172531,446.55992036185995,0.0
0.067,7.423387055578651,-1.859201647307153,10.0,0.0,23.082000390168847,23.42951856849048,345.1266644280509,446.55992036185995,0.0
0.068,7.736929428236853,-1.5824320316278497,10.0,0.0,23.27222771500701,23.617938384108047,342.9584987314189,446.55992036185995,0.0
0.069,8.04132723792414,-1.3546495884062866,10.0,0.0,23.43998591632552,23.77619061530866,334.2677598047511,446.55992036185995,0.0
0.07,8.395997401416553,-1.0747195592463576,10.0,0.0,23.578279041856877,23.89942370363377,322.7417355360636,446.55992036185995,0.0
0.07100000000000001,8.726669482066718,-0.8579631993863083,10.0,0.0,23.694022264374595,23.99133556844291,337.9106389559309,446.55992036185995,0.0
0.07200000000000001,8.91385728821635,-0.8925675486457335,10.0,0.0,23.81335639313859,24.06834663115294,344.8606079910171,446.55992036185995,0.0
0.073,8.941721008651788,-1.1508071676799903,10.0,0.0,23.95651852989837,24.148396869281978,362.43451347602996,446.55992036185995,0.0
0.074,8.927907180207171,-1.4305443375681337,10.0,0.0,24.121558169292424,24.236556455607346,368.59250641149885,446.55992036185995,0.0
0.075,8.859340450140312,-1.7499202918046703,10.0,0.0,24.31124378664675,24.33980824926249,387.10067316750514,446.55992036185995,0.0
0.076,8.767176841935807,-2.0562826706616475,10.0,0.0,24.52279212376306,24.461155754889383,396.7190369145668,446.55992036185995,0.0
0.077,8.62162972262067,-2.4016532593838043,10.0,0.0,24.76024751870129,24.606611890707832,408.83095327273656,446.55992036185995,0.0
0.078,8.47560200325128,-2.694417929744825,10.0,0.0,25.017253395580042,24.77587553037574,428.2762610097064,446.55992036185995,0.0
0.079,8.289593068490031,-3.001970310780605,10.0,0.0,25.296388163948027,24.972914099394785,438.0404594767293,446.55992036185995,0.0
0.08,8.078425759776728,-3.30171273584331,10.0,0.0,25.597209455327665,25.19953060295957,447.87571303424875,446.55992036185995,0.0
0.081,7.882675762310951,-3.525181384717318,6.024260633384063,0.0,25.912194395051323,25.01565708161219,457.8840528478114,446.55992036185995,0.0
0.082,7.477341963030046,-3.5998826897505287,0.9068494017432212,0.0,26.183275945732785,24.401140782503816,458.62571400670953,446.55992036185995,0.0
0.083,6.825525814333445,-3.455513681776174,0.41536088584566144,0.0,26.349170107507764,23.939941082305918,456.23124449137373,446.55992036185995,0.0
0.084,6.2178154359487845,-3.2219422651367693,1.5158824022184243,0.0,26.428105717334873,23.72775300040065,451.7629554031002,446.55992036185995,0.0
0.085,5.801351279624477,-2.9803061196708187,3.69799659594279,0.0,26.45368469615387,23.813438587226386,445.79152694095677,446.55992036185995,0.0
0.08600000000000001,5.646871705352387,-2.773092651178291,6.691394761223533,0.0,26.464897215694023,24.213394281101777,442.08321830641506,446.55992036185995,0.0
0.08700000000000001,5.787706818157417,-2.6046147356956677,8.590316099048836,0.0,26.498523616649543,24.736386364900344,445.0141006414012,446.55992036185995,0.0
0.088,6.109756312942432,-2.474223641701448,7.140333128760341,0.0,26.568428344704817,24.99793744700632,433.4532043086821,446.55992036185995,0.0
0.089,6.383385768127901,-2.302808353219111,10.0,0.0,26.639945937372072,25.54250833412393,420.78099498345495,446.55992036185995,0.0
0.09,6.867737685560101,-2.079741434782425,10.0,0.0,26.735945651341122,25.960634806718403,421.40756062167145,446.55992036185995,0.0
0.091,7.349916819460761,-1.87339444432383,10.0,0.0,26.843690541406648,26.298352417895607,404.37573007339967,446.55992036185995,0.0
0.092,7.842864333343726,-1.6233884074849128,10.0,0.0,26.948995509435647,26.5636703217735,401.40407485929705,446.55992036185995,0.0
0.093,8.338547083593541,-1.3414208304351685,10.0,0.0,27.04178539794246,26.763391304677867,383.2780882368553,446.55992036185995,0.0
0.094,8.82446141325099,-1.0569326937575476,10.0,0.0,27.116794376624977,26.903925429382653,376.5830266583954,446.55992036185995,0.0
0.095,9.29065441248274,-0.7970030938028256,10.0,0.0,27.172608495281477,26.991484952866287,386.25257453092627,446.55992036185995,0.0
0.096,9.6452369248964,-0.7166630142734158,10.0,0.0,27.225359041672,27.041527789494026,392.43921790797975,446.55992036185995,0.0
0.097,9.725363290230224,-1.0172849028024702,10.0,0.0,27.311710625619742,27.086573322035463,410.4485825824194,446.55992036185995,0.0
0.098,9.695457227976792,-1.416441961655651,10.0,0.0,27.434832662015417,27.139840390218748,421.2664288164617,446.55992036185995,0.0
0.099,9.62228322374646,-1.7969686998947705,10.0,0.0,27.58883557220763,27.20784303506608,441.0015777132513,446.55992036185995,0.0
0.1,9.46218219376106,-2.236760414361942,9.841758631090183,0.0,27.778810277074335,27.283918529123895,451.6099284505276,446.55992036185995,0.0
0.101,9.268366671495974,-2.6301085620364892,4.487083181565366,0.0,27.99626543995968,26.80367075565328,464.7267260634392,446.55992036185995,0.0
0.10200000000000001,8.740170518093311,-2.8846749523770296,-2.252983681906212,0.0,28.16801913067014,25.76149609698328,469.33632894067784,446.55992036185995,0.0
0.10300000000000001,7.836475997109508,-2.8934250606782657,-4.785549206313727,0.0,28.21679683445231,24.7236571699754,471.88994082622213,446.55992036185995,0.0
0.10400000000000001,6.830286463332771,-2.78534917598461,-6.315655353729491,0.0,28.14493702675614,23.75313778858048,470.71500663093946,446.55992036185995,0.0
0.105,5.868011262092537,-2.6068737089707326,-5.969739118778948,0.0,27.96465971916551,23.021624588672804,467.1308267082232,446.55992036185995,0.0
0.106,5.091622849555665,-2.412820351124371,-4.3833582208844515,0.0,27.70969770765021,22.592057687782386,461.3809289705735,446.55992036185995,0.0
0.107,4.571281516470014,-2.251162001202005,-1.656619438146743,0.0,27.421433322284404,22.513502395465718,454.59315385253007,446.55992036185995,0.0
0.108,4.353187050611488,-2.1420485696304543,1.6569357859682778,0.0,27.14375395224987,22.76998685858301,447.7376999919596,446.55992036185995,0.0
0.109,4.433037137633793,-2.0930786709183247,5.072884919952528,0.0,26.915195410987895,23.30470933665118,440.6431564076357,446.55992036185995,0.0
0.11,4.778374484652787,-2.0831684915325686,8.679324351656721,0.0,26.762364550913617,24.088463951632097,440.12805271705474,446.55992036185995,0.0
0.111,5.355602402473593,-2.100417640403169,9.001194873395237,0.0,26.705188746514487,24.71785968469159,440.2537552212229,446.55992036185995,0.0
0.112,5.926615775332248,-2.0972782307494544,9.001405272717534,0.0,26.716152269310605,25.21836351087705,423.67586237947444,446.55992036185995,0.0
0.113,6.480348299678591,-1.9863345243524875,10.0,0.0,26.76389740883853,25.724556178781903,419.6178294735221,446.55992036185995,0.0
0.114,7.0701888901095575,-1.7990504062607557,10.0,0.0,26.83799548527802,26.115573006872296,409.4010479785157,446.55992036185995,0.0
0.115,7.597547828545139,-1.6269338937111422,10.0,0.0,26.92672546168306,26.42278688247399,398.84284677039375,446.55992036185995,0.0
0.116,8.15211275077472,-1.341400175010012,10.0,0.0,27.007616284076146,26.652423816095144,386.4451333751917,446.55992036185995,0.0
0.117,8.64181092289485,-1.1110821952811443,10.0,0.0,27.08090207700888,26.818864988882556,381.57596020253294,446.55992036185995,0.0
0.11800000000000001,9.156949421724732,-0.8108243934945478,10.0,0.0,27.13277822952783,26.9242223705344,374.9933783006351,446.55992036185995,0.0
0.11900000000000001,9.561427796728323,-0.6753513078546698,10.0,0.0,27.178103043557552,26.984890393010886,394.56184949902234,446.55992036185995,0.0
0.12,9.683027292853202,-0.9463615523073017,10.0,0.0,27.256128036178144,27.034692933818988,403.3042817269121,446.55992036185995,0.0
0.121,9.70206729750469,-1.2938933997239257,10.0,0.0,27.36684918438879,27.08643931425792,419.652974928378,446.55992036185995,0.0
0.122,9.616047147557591,-1.7247535441055195,10.0,0.0,27.515592153230063,27.15373578801471,432.4468717880977,446.55992036185995,0.0
0.123,9.499109566606073,-2.116318611923901,10.0,0.0,27.694954028579104,27.241179843685146,453.664728178186,446.55992036185995,0.0
0.124,9.307986542676355,-2.5461600147560874,2.967536508975485,0.0,27.908491025593644,26.58409885413352,457.9311770666857,446.55992036185995,0.0
0.125,8.71577925267564,-2.7551162560599343,0.7205994976773944,0.0,28.053652996466663,25.900472798566724,466.3766973676539,446.55992036185995,0.0
0.126,7.97016727333954,-2.850083758746649,-3.7003284228646516,0.0,28.124293027578197,24.911988089324243,470.48551761195955,446.55992036185995,0.0
0.127,7.035754579828428,-2.8003616653399823,-5.993994517518479,0.0,28.082601479352732,23.91665113940352,469.92806457675505,446.55992036185995,0.0
0.128,6.075820309225269,-2.6474424821846876,-5.948949442065178,0.0,27.929221501744724,23.140818991729954,467.0119882899184,446.55992036185995,0.0
0.129,5.266050843130569,-2.462168749408539,-4.695431977927441,0.0,27.694745388356345,22.644143829927962,461.77657641335867,446.55992036185995,0.0
0.13,4.689092087828614,-2.296946187660622,-2.229892600162559,0.0,27.41772762566207,22.487730498302344,455.2565506554219,446.55992036185995,0.0
0.131,4.401681417096436,-2.1784782080666285,0.9431539758702039,0.0,27.14139105393683,22.66948203938335,448.65258908485936,446.55992036185995,0.0
0.132,4.412618526159464,-2.1166652188148642,4.224208073921483,0.0,26.90524854447045,23.130533065504782,441.3751154441905,446.55992036185995,0.0
0.133,4.6878346777708675,-2.099569016139263,7.914792943432607,0.0,26.737562936161048,23.86485412714652,439.1490425292782,446.55992036185995,0.0
0.134,5.214702422856076,-2.1059396424723587,9.101938179214585,0.0,26.660949725770166,24.547451358590788,441.2206381789499,446.55992036185995,0.0
0.135,5.79577219040606,-2.1074870470179907,8.119533176207819,0.0,26.660364067799474,24.975542546183334,425.8636245884938,446.55992036185995,0.0
0.136,6.295718122313087,-2.013249006417614,10.0,0.0,26.692264435873625,25.528258095032495,417.8794695695703,446.55992036185995,0.0
0.137,6.894044939327166,-1.8305188438961333,10.0,0.0,26.757088384553906,25.949270967013753,414.19146257604524,446.55992036185995,0.0
0.138,7.428921563241307,-1.6738850082967698,10.0,0.0,26.84212880527358,26.2818117862045,398.21995386716935,446.55992036185995,0.0
0.139,7.984064692185474,-1.410887273374537,10.0,0.0,26.924555853354896,26.53388558760341,392.0336541255589,446.55992036185995,0.0
0.14,8.48284834168204,-1.182430167251947,10.0,0.0,27.001447272443716,26.719679943515395,380.65451945410547,446.55992036185995,0.0
0.14100000000000001,9.00565037384247,-0.8793358952266412,10.0,0.0,27.058173186353297,26.84206361870237,368.3282242143789,446.55992036185995,0.0
0.14200000000000002,9.482244308791971,-0.6280897346214299,10.0,0.0,27.0968587414443,26.910684205238773,387.22788761198785,446.55992036185995,0.0
0.14300000000000002,9.641381351487514,-0.8638269095660543,10.0,0.0,27.16698135052979,26.96357215328362,400.4881494568024,446.55992036185995,0.0
0.14400000000000002,9.695325943674803,-1.1806111098166476,10.0,0.0,27.267869383789353,27.013841032718886,412.27863094136944,446.55992036185995,0.0
0.145,9.627985319885632,-1.606036123120154,10.0,0.0,27.407324411127355,27.07711874207526,428.56528140101665,446.55992036185995,0.0
0.146,9.53085423772121,-1.9894109315278738,10.0,0.0,27.577078685459,27.15802519602999,445.82657143927685,446.55992036185995,0.0
