timestamp,iq,id,iq_ref,id_ref,vq,vd,omega,omega_ref,r
0.0,0.0,0.0,0.0,0.0,0.0,0.0,0.0,143.5546474217928,0.0
0.001,0.0,0.0,10.0,0.0,0.0,1.0999999999999999,6.115472199294103,143.5546474217928,0.0
0.002,0.5307369851907212,-0.2913212625381807,10.0,0.0,0.14204533887919985,1.9316189316290207,13.317801563642547,143.5546474217928,0.0
0.003,1.0842913387634832,-0.6024330830807904,10.0,0.0,0.384357124667687,2.6386968949419622,20.697939467553027,143.5546474217928,0.0
0.004,1.5590443546685477,-0.8700465084428163,10.0,0.0,0.6994718867930164,3.2526109522886295,28.232747544420146,143.5546474217928,0.0
0.005,1.9399447555359186,-1.0838738622210777,10.0,0.0,1.065311453102468,3.7994935661768023,35.92944872443006,143.5546474217928,0.0
0.006,2.239750732602683,-1.2510087368845633,10.0,0.0,1.4655018868449925,4.299102221838433,43.75633668444442,143.5546474217928,0.0
0.007,2.4770151619816017,-1.382020589851471,10.0,0.0,1.8883740978591532,4.765668027847139,51.58766747378032,143.5546474217928,0.0
0.008,2.6680767290418097,-1.4872241871505252,10.0,0.0,2.325877945545995,5.209220346273558,59.45942083902103,143.5546474217928,0.0
0.009000000000000001,2.8266491704841292,-1.5730794701170803,10.0,0.0,2.772378685460125,5.636635464737965,67.35059094018146,143.5546474217928,0.0
0.01,2.962077666392183,-1.645500646948331,10.0,0.0,3.224078639851053,6.052647735211881,75.20908322432116,143.5546474217928,0.0
0.011,3.0811061533574158,-1.7084279320504514,10.0,0.0,3.678407615443203,6.460489925470405,83.0265951655913,143.5546474217928,0.0
0.012,3.188848746459569,-1.7638278597420747,10.0,0.0,4.133552631697047,6.862319393890706,90.74118064793086,143.5546474217928,0.0
0.013000000000000001,3.288205119878689,-1.8140726097274587,10.0,0.0,4.588339016389012,7.259628641949282,98.35820682563939,143.5546474217928,0.0
0.014,3.3820602099432007,-1.8592355758795645,10.0,0.0,5.041843166194517,7.653355107498287,105.90865295623543,143.5546474217928,0.0
0.015,3.4721069852858886,-1.899829032412081,10.0,0.0,5.493383198131427,8.044092747085895,113.37727610343421,143.5546474217928,0.0
0.016,3.5596145800153947,-1.9360338400176071,10.0,0.0,5.94241958510469,8.43218525824161,120.68508583176356,143.5546474217928,0.0
0.017,3.645144415105338,-1.9685384477868613,10.0,0.0,6.388575043274759,8.817838951066484,127.83962377537456,143.5546474217928,0.0
0.018000000000000002,3.730251927866576,-1.9959253041084188,10.0,0.0,6.83136783302799,9.201036292373047,134.85405702603322,143.5546474217928,0.0
0.019,3.81544967906247,-2.018253592643655,7.254318895343477,0.0,7.270383321112212,9.279647579508117,140.01866366925947,143.5546474217928,0.0
0.02,3.758874481681523,-1.955661458666622,4.7073754112556845,0.0,7.666249971478695,9.148667563758876,143.21822057752468,143.5546474217928,0.0
0.021,3.566351459696297,-1.8089210346094031,3.1109612255657617,0.0,7.993916429927083,8.940847869480756,145.0602761143371,143.5546474217928,0.0
0.022,3.305460558632356,-1.6259932832847837,2.174877170234099,0.0,8.249379624697681,8.726344455142884,143.14414053787885,143.5546474217928,0.0
0.023,3.0395619102028957,-1.437419625536854,3.1370500273023683,0.0,8.43893233371841,8.700677498863291,143.2176735218058,143.5546474217928,0.0
0.024,2.8930164376815246,-1.2870660219857595,3.103653274338762,0.0,8.592309916395962,8.696698153210102,146.3766932747695,143.5546474217928,0.0
0.025,2.796393032625932,-1.1880615830599754,1.4959229393271443,0.0,8.720564853994116,8.54110125089925,143.9322972865127,143.5546474217928,0.0
0.026000000000000002,2.655882287752583,-1.0715007382256667,2.7143444348083525,0.0,8.80860295905885,8.578483148317858,142.42281919224232,143.5546474217928,0.0
0.027,2.6192945506482554,-0.9788763656797262,3.480401764239047,0.0,8.882552370827266,8.695632301416389,145.70241184623066,143.5546474217928,0.0
0.028,2.6464523204030233,-0.9463725555441397,1.8191277930004954,0.0,8.958172581339237,8.614707538207286,142.66460997245136,143.5546474217928,0.0
0.029,2.6079256009985414,-0.8786937688996318,3.34692910438356,0.0,9.011018666049559,8.738617673166859,143.3037411405781,143.5546474217928,0.0
0.03,2.6629513006074483,-0.8333942731225946,3.029872583132338,0.0,9.06666499911578,8.798829078499017,144.44758285942666,143.5546474217928,0.0
0.031,2.7016874965659556,-0.8137461447239559,2.449022369331718,0.0,9.121059540242511,8.794150293739676,140.5185582303741,143.5546474217928,0.0
0.032,2.724183670161958,-0.7565929106419691,4.44389557577218,0.0,9.163456374315608,9.018536179279428,144.05787224357414,143.5546474217928,0.0
0.033,2.846523127451616,-0.758484087926678,2.6692063209543524,0.0,9.2248316753775,8.996326231012244,140.25830782842849,143.5546474217928,0.0
0.034,2.8814275269805423,-0.7209247586309506,4.601951924460822,0.0,9.273698013511112,9.210207627236572,143.32792105079776,143.5546474217928,0.0
0.035,3.0112878038833193,-0.7149255647560089,3.069412576986137,0.0,9.338781539420513,9.205745146930534,139.45301759499745,143.5546474217928,0.0
0.036000000000000004,3.057065307228884,-0.6816539190047467,5.047880603154244,0.0,9.393310575614478,9.437457221000294,142.8818246297806,143.5546474217928,0.0
0.037,3.2006419636930596,-0.6809933392281777,3.3402053136827923,0.0,9.46581796827811,9.428486372001327,138.56605126735136,143.5546474217928,0.0
0.038,3.2540951575290302,-0.6406490615260785,5.547977956441827,0.0,9.525746272026016,9.683151006009517,142.263410853703,143.5546474217928,0.0
0.039,3.4076554698644683,-0.6511164866955694,3.7122105289469056,0.0,9.60670306834562,9.67797276112111,138.7193122939913,143.5546474217928,0.0
0.04,3.4748357574235347,-0.6017218271794686,5.53261316008077,0.0,9.673508273745956,9.894155755545029,140.64214592873805,143.5546474217928,0.0
0.041,3.609403660709473,-0.6094039833799574,4.600321357637942,0.0,9.756590241825862,9.96051418000068,140.18286700034884,143.5546474217928,0.0
0.042,3.712813078000069,-0.565977866619416,4.863678626046987,0.0,9.83314616113768,10.056807819499076,137.26953435912512,143.5546474217928,0.0
0.043000000000000003,3.800845036796998,-0.5486426794507562,6.383196077285523,0.0,9.91020324304721,10.306991612636205,140.49227703186264,143.5546474217928,0.0
0.044,3.9737643961503233,-0.5549046979986001,4.802448444816061,0.0,10.005435169991447,10.332644510625649,139.1795407882122,143.5546474217928,0.0
0.045,4.069571381517479,-0.5041526606065883,5.502567632977092,0.0,10.088063849741605,10.449266323736133,139.0656074566125,143.5546474217928,0.0
0.046,4.141971916300222,-0.5320827986412753,5.604424698428743,0.0,10.177671678385533,10.55968591985622,145.25932861818916,143.5546474217928,0.0
0.047,4.197389245150566,-0.5911568546743129,2.4905173056764482,0.0,10.27557952856036,10.31910405454571,145.35514699765736,143.5546474217928,0.0
0.048,4.081941689019855,-0.5571228529478081,2.4246031201837033,0.0,10.335303926436413,10.14951307876994,145.08749642867875,143.5546474217928,0.0
0.049,3.9293797701187767,-0.5442364163390203,2.5430999146041486,0.0,10.371019618937577,10.032174765118338,149.23715846047395,143.5546474217928,0.0
0.05,3.806555813794832,-0.5345781794712885,0.41144378831973594,0.0,10.390496369134105,9.706459726253149,146.71649880746847,143.5546474217928,0.0
0.051000000000000004,3.590661189629921,-0.4857649731305953,1.6401551009657198,0.0,10.370181070095665,9.594258841042935,149.00550907964868,143.5546474217928,0.0
0.052000000000000005,3.4492873610103345,-0.4910049259742235,0.44114134829705787,0.0,10.341741739316252,9.360460063436392,148.06543237614886,143.5546474217928,0.0
0.053,3.288268227006076,-0.46631986883459686,0.8660718505034035,0.0,10.28999870804033,9.222228089736213,148.69164343175183,143.5546474217928,0.0
0.054,3.1590399202091666,-0.48007562926553904,0.5015963626023305,0.0,10.231366766740777,9.060908323994902,148.50936742584997,143.5546474217928,0.0
0.055,3.0412835902491198,-0.48427767381361697,0.5431871655126863,0.0,10.162790710293038,8.92973799712455,148.98006923604922,143.5546474217928,0.0
0.056,2.935689851744727,-0.5079990892432904,0.25358204227049974,0.0,10.090522562054815,8.782992373646596,148.6537608632952,143.5546474217928,0.0
0.057,2.834404313901927,-0.521330640637548,0.3657450942324898,0.0,10.01203592279169,8.669013956418526,148.9955396897112,143.5546474217928,0.0
0.058,2.7450796549577845,-0.5503182037458909,0.14044675834530373,0.0,9.933055422160043,8.541493126625163,148.707171634055,143.5546474217928,0.0
0.059000000000000004,2.659125731901303,-0.5693250928769544,0.23310554405078543,0.0,9.851021770785561,8.439833464481216,148.9242565965198,143.5546474217928,0.0
0.06,2.581840145498801,-0.5998193931462306,0.07086697107111029,0.0,9.770189822472444,8.329005447803112,148.65686467639406,143.5546474217928,0.0
0.061,2.5069817119126427,-0.6223431300818247,0.153540758587964,0.0,9.68853093538305,8.239355112148608,148.7301836576179,143.5546474217928,0.0
0.062,2.4396484651764387,-0.6520511901891872,0.06512590561778797,0.0,9.609115552679597,8.146609622453848,148.51915064338627,143.5546474217928,0.0
0.063,2.375398412932108,-0.6766676647688079,0.12099738051767606,0.0,9.530777890879701,8.06862132750642,148.510240683998,143.5546474217928,0.0
0.064,2.3169568814865933,-0.704817952781993,0.0758964275897549,0.0,9.4553255327007,7.990864344239238,148.32112037047656,143.5546474217928,0.0
0.065,2.261370543098095,-0.7293833480695088,0.12279185486363842,0.0,9.382063402614381,7.924477411918562,148.2558086701933,143.5546474217928,0.0
0.066,2.2107000287697627,-0.7552049587814914,0.10843609252127084,0.0,9.312083515530071,7.860372764883158,148.09332147887045,143.5546474217928,0.0
0.067,2.1628483281284203,-0.7783833642033579,0.14429294761191347,0.0,9.244982560939931,7.804525387453516,147.99650798591796,143.5546474217928,0.0
0.068,2.1189673092217745,-0.8011395187740735,0.1482810884469079,0.0,9.181278357014405,7.7519811743220846,147.86314302823567,143.5546474217928,0.0
0.069,2.0776692016123386,-0.8217657159545678,0.17187861122362413,0.0,9.120731472312436,7.704980789856309,147.7462032090728,143.5546474217928,0.0
0.07,2.0393654141766064,-0.8407864845518995,0.18843296293225675,0.0,9.063425260207987,7.66201119436893,147.6425580549202,143.5546474217928,0.0
0.07100000000000001,2.0037172850329488,-0.8576568117612702,0.1993764336772914,0.0,9.009218238072302,7.622184431816157,147.70524491836656,143.5546474217928,0.0
0.07200000000000001,1.9711135297342142,-0.8705029591959257,0.12652702698836693,0.0,8.957693614840627,7.576026705653285,147.65860828829688,143.5546474217928,0.0
0.073,1.9351615136162623,-0.8800538408920859,0.10880573335816868,0.0,8.907627816828061,7.531740125771088,147.33795486043206,143.5546474217928,0.0
0.074,1.8991535216906374,-0.8867544102587659,0.23129937290418168,0.0,8.85878149444191,7.5041284963128545,146.92315966165575,143.5546474217928,0.0
0.075,1.8714681111280216,-0.8948335900062158,0.405011849893711,0.0,8.812880345427097,7.4949621488778515,146.56254811902338,143.5546474217928,0.0
0.076,1.8552174093189253,-0.9067149433820012,0.5552386142375902,0.0,8.771878833644129,7.498420863686171,146.0001426685119,143.5546474217928,0.0
0.077,1.8496044605839497,-0.9190998996803142,0.8119863870261375,0.0,8.73656687617935,7.52462846054142,145.69463217566582,143.5546474217928,0.0
0.078,1.8592598061820493,-0.9328212181559254,0.9433417859104485,0.0,8.708792369615901,7.555447500610916,145.51476782818744,143.5546474217928,0.0
0.079,1.874352774413276,-0.947240438752469,1.0136727555856877,0.0,8.688326118796619,7.585266365643097,146.30734069292149,143.5546474217928,0.0
0.08,1.8915131118760193,-0.9558939578530832,0.5898593905073803,0.0,8.673696074457581,7.5609972317961756,147.08980593520297,143.5546474217928,0.0
0.081,1.8761521594826276,-0.9573872320523306,0.16327518423253373,0.0,8.658179846138665,7.4968671859984894,145.1482670959545,143.5546474217928,0.0
0.082,1.8360712011472982,-0.9362588635951395,1.1181084071151495,0.0,8.63546318279959,7.551151314421473,143.86930805466272,143.5546474217928,0.0
0.083,1.8491815131329266,-0.932881582067488,1.7544413214323427,0.0,8.62028638135325,7.656340708112543,144.8418837019409,143.5546474217928,0.0
0.084,1.9058021146736983,-0.9452222323305165,1.2552811349917734,0.0,8.618537443764863,7.682125369588607,146.39453557433157,143.5546474217928,0.0
0.085,1.9308174838787793,-0.9510191206444164,0.45055631727105117,0.0,8.620056117294817,7.619443058476202,144.43408205877842,143.5546474217928,0.0
0.08600000000000001,1.902792061473466,-0.9291735148501664,1.4219887286777726,0.0,8.61269370684003,7.681418609416614,142.33412597309655,143.5546474217928,0.0
0.08700000000000001,1.9258649911562,-0.917217999290574,2.484171986005669,0.0,8.611168441871147,7.840767921920355,144.14051054738812,143.5546474217928,0.0
0.088,2.0133362623866806,-0.9321149845241573,1.5751210676039302,0.0,8.62748885818082,7.864021232540834,145.75777230860723,143.5546474217928,0.0
0.089,2.0472376867234434,-0.9320374998913379,0.7444589381262301,0.0,8.644345070759627,7.801444484706971,142.87443418476747,143.5546474217928,0.0
0.09,2.0247467600280147,-0.898646280781811,2.192930132416365,0.0,8.649585728041444,7.917262501760923,141.17398536516006,143.5546474217928,0.0
0.091,2.080435948321141,-0.8841813750332161,3.0669611627863933,0.0,8.664626893859229,8.09733076425627,144.29344277071772,143.5546474217928,0.0
0.092,2.185755076288904,-0.9037870893187535,1.4998445065183172,0.0,8.698472046973668,8.068744962397151,143.87134506287418,143.5546474217928,0.0
0.093,2.198833248765998,-0.8906283454423477,1.7077263840292705,0.0,8.724430585621485,8.084555021431468,140.12493475792283,143.5546474217928,0.0
0.094,2.2166842874511996,-0.8546241901826966,3.6152286631436468,0.0,8.745545406668155,8.307293527824005,143.04312176697695,143.5546474217928,0.0
0.095,2.3372710357889996,-0.8630164368243012,2.1612504151647443,0.0,8.788105784932586,8.317771003682829,143.63578761547043,143.5546474217928,0.0
0.096,2.374454371923068,-0.8548229307176174,1.8641060889812269,0.0,8.826472664818304,8.310426376890444,139.763768364175,143.5546474217928,0.0
0.097,2.39136266585196,-0.8098476122647374,3.8380245052051185,0.0,8.855403044067462,8.526267290841494,142.49124289517252,143.5546474217928,0.0
0.098,2.508748059837261,-0.8126335301447128,2.4849212849725655,0.0,8.903780680938135,8.542093302535443,141.65366040062605,143.5546474217928,0.0
0.099,2.550486384075227,-0.8003095847563481,2.9227224024574663,0.0,8.947519662119616,8.619446270146407,139.28633082880052,143.5546474217928,0.0
0.1,2.6183988991851996,-0.7626427179480053,4.149070354300157,0.0,8.990599926049015,8.81690510922255,142.5864972578194,143.5546474217928,0.0
0.101,2.736180594890341,-0.7758929504780111,2.5086686414304546,0.0,9.050952241739465,8.793941561473462,138.89618126490885,143.5546474217928,0.0
0.10200000000000001,2.771060227892078,-0.7373291008932743,4.400411299454565,0.0,9.098598445306347,9.001146366906532,141.74711870580614,143.5546474217928,0.0
0.10300000000000001,2.894025367162087,-0.7334656555490002,2.9930178661657827,0.0,9.162161168567824,9.005487238921296,138.5207648084779,143.5546474217928,0.0
0.10400000000000001,2.9401653430156913,-0.7036180919019117,4.656533640963051,0.0,9.216557109156891,9.208965219670123,141.47816862452618,143.5546474217928,0.0
0.105,3.069545494586481,-0.6956405794619807,3.1985965209115816,0.0,9.285282203030011,9.206756338535087,137.46360781399818,143.5546474217928,0.0
0.106,3.116176697636571,-0.6617476294646376,5.266787322253526,0.0,9.343265450027006,9.449885583429193,141.11639635958974,143.5546474217928,0.0
0.107,3.2643437179298354,-0.6653795617339828,3.4647755600797754,0.0,9.420501738863319,9.439764966479295,136.91493048172148,143.5546474217928,0.0
0.108,3.320976621534843,-0.6216523164973776,5.631905668414618,0.0,9.484156020822288,9.690036520452972,140.33754030569824,143.5546474217928,0.0
0.109,3.470411270714384,-0.6345577345523603,3.9527718275871853,0.0,9.568328898421145,9.699398841277118,137.63002049947832,143.5546474217928,0.0
0.11,3.546232221697871,-0.5840475026343991,5.36577799992029,0.0,9.639335540651002,9.881618277027256,138.1844191280083,143.5546474217928,0.0
0.111,3.6650484881429146,-0.586261700773001,5.142280968593145,0.0,9.722212126347312,10.001690118456935,139.64034421712802,143.5546474217928,0.0
0.112,3.7875246463422654,-0.5578401251467999,4.453461456079934,0.0,9.805659722316692,10.032223043512614,135.57316604520398,143.5546474217928,0.0
0.113,3.858611370947811,-0.5136409171667671,6.566865355807843,0.0,9.879238154073157,10.300815281630243,137.70765000444072,143.5546474217928,0.0
0.114,4.025586967709297,-0.533051298765713,5.558093350362991,0.0,9.97489510052143,10.400150731117845,141.68555011249626,143.5546474217928,0.0
0.115,4.135842066168585,-0.5395041642543915,3.5878342694281873,0.0,10.071435608661398,10.282019246590224,140.72767383277395,143.5546474217928,0.0
0.116,4.09319999999524,-0.529949086992924,4.095042145179533,0.0,10.145393330380955,10.266643596735014,142.8355992537691,143.5546474217928,0.0
0.117,4.04029379919741,-0.5606496614135079,3.0482699163621976,0.0,10.213890328901918,10.145377521535895,146.62361522881537,143.5546474217928,0.0
0.11800000000000001,3.9520673499530354,-0.547243104644445,1.1235722507688326,0.0,10.26162929306207,9.851014580190586,144.1525339118804,143.5546474217928,0.0
0.11900000000000001,3.7535138667247,-0.5077489026190642,2.353134044335442,0.0,10.270947770016575,9.766319222006759,147.73752191771942,143.5546474217928,0.0
0.12,3.628475060381431,-0.513075494351756,0.518811296456664,0.0,10.271845730568096,9.48872286099991,145.95310308729205,143.5546474217928,0.0
0.121,3.4456070247835573,-0.47303012161002544,1.3870361550153567,0.0,10.24043600204486,9.371688989921472,147.16742771359458,143.5546474217928,0.0
0.122,3.3143791076775146,-0.4841072588253412,0.743746038946075,0.0,10.20208279808721,9.196379762271038,146.9585865425263,143.5546474217928,0.0
0.123,3.1871208568222786,-0.47748202039446563,0.8141272332728828,0.0,10.149194444160731,9.061627097949533,147.68604273525813,143.5546474217928,0.0
0.124,3.071911740106176,-0.49725476116353334,0.40908518377231173,0.0,10.090360913063655,8.901202847609422,147.2785691210656,143.5546474217928,0.0
0.125,2.9592107246092176,-0.5025813647495825,0.5755827738758463,0.0,10.021756509029053,8.784547845137512,147.91077645318543,143.5546474217928,0.0
0.126,2.862087347532365,-0.5290166321945483,0.21591781750200356,0.0,9.9512016585338,8.64102634273066,147.45655295122396,143.5546474217928,0.0
0.127,2.765119383063172,-0.54155358217013,0.40401051318843173,0.0,9.874464854670254,8.538783593925057,147.94516422098175,143.5546474217928,0.0
0.128,2.6820129024488124,-0.5720473792912038,0.11579971031764336,0.0,9.798406404496067,8.413679357563897,147.53198861752992,143.5546474217928,0.0
0.129,2.5988864249479633,-0.5895826491929324,0.2826141000861888,0.0,9.71906731742116,8.32302423844363,147.83135692170157,143.5546474217928,0.0
0.13,2.5269389968592026,-0.6207612116020322,0.09016285300127569,0.0,9.6418509163077,8.217745893765628,147.53006471316394,143.5546474217928,0.0
0.131,2.4560238485152714,-0.6422890202963714,0.2010547843563799,0.0,9.563884594170077,8.136477560400937,147.6557117826501,143.5546474217928,0.0
0.132,2.3930319870031127,-0.6720260128631048,0.0972206060047327,0.0,9.488643862005137,8.049228702509616,147.4251037757819,143.5546474217928,0.0
0.133,2.332220957593386,-0.695487601379694,0.17382004589893185,0.0,9.41448572207872,7.978704231982764,147.46207502692997,143.5546474217928,0.0
0.134,2.2775423749849706,-0.7232050761416419,0.11626014427353004,0.0,9.343505255430909,7.906125344731045,147.27404179431187,143.5546474217928,0.0
0.135,2.2249652634765793,-0.7465195576013384,0.17308281685738747,0.0,9.274652364935651,7.845769088980035,147.25040319414057,143.5546474217928,0.0
0.136,2.1773421327956286,-0.7713329431521595,0.14794455921955718,0.0,9.209145465510813,7.78594250794842,147.11099445270182,143.5546474217928,0.0
0.137,2.1317351235871955,-0.7931494458932169,0.18208545962984557,0.0,9.146358279371306,7.734095316405111,147.0348154775168,143.5546474217928,0.0
0.138,2.0898279370096047,-0.8142659744321707,0.18537326666512088,0.0,9.086769745803293,7.685328095603412,146.9308738139219,143.5546474217928,0.0
