timestamp,iq,id,iq_ref,id_ref,vq,vd,omega,omega_ref,r
0.0,0.0,0.0,0.0,0.0,0.0,0.0,0.0,70.75922266850992,0.0
0.001,0.0,0.0,10.0,0.0,0.0,1.0999999999999999,6.115472199294103,70.75922266850992,0.0
0.002,0.5307369851907212,-0.2913212625381807,10.0,0.0,0.14204533887919985,1.9316189316290207,13.317801563642547,70.75922266850992,0.0
0.003,1.0842913387634832,-0.6024330830807904,10.0,0.0,0.384357124667687,2.6386968949419622,20.697939467553027,70.75922266850992,0.0
0.004,1.5590443546685477,-0.8700465084428163,10.0,0.0,0.6994718867930164,3.2526109522886295,28.232747544420146,70.75922266850992,0.0
0.005,1.9399447555359186,-1.0838738622210777,10.0,0.0,1.065311453102468,3.7994935661768023,35.92944872443006,70.75922266850992,0.0
0.006,2.239750732602683,-1.2510087368845633,10.0,0.0,1.4655018868449925,4.299102221838433,43.75633668444442,70.75922266850992,0.0
0.007,2.4770151619816017,-1.382020589851471,10.0,0.0,1.8883740978591532,4.765668027847139,51.58766747378032,70.75922266850992,0.0
0.008,2.6680767290418097,-1.4872241871505252,10.0,0.0,2.325877945545995,5.209220346273558,59.45942083902103,70.75922266850992,0.0
0.009000000000000001,2.8266491704841292,-1.5730794701170803,7.18808871380696,0.0,2.772378685460124,5.3273252232567305,65.60682390253233,70.75922266850992,0.0
0.01,2.8140197327345153,-1.5637640247913782,4.165911169711087,0.0,3.184156587265666,5.176924232111265,69.4704157628327,70.75922266850992,0.0
0.011,2.6202954830747553,-1.451570439672951,2.247003308617672,0.0,3.5274684598663377,4.923066414066659,71.74377388511397,70.75922266850992,0.0
0.012,2.330970964092404,-1.2823386964955066,1.1004787353109986,0.0,3.793569807504146,4.651885395225244,73.30064267314361,70.75922266850992,0.0
0.013000000000000001,2.0203555918459815,-1.0989725424465304,0.2966301412498382,0.0,3.987464958980418,4.388748959175372,73.69903693767677,70.75922266850992,0.0
0.014,1.722178129642465,-0.9308798063593515,0.06803486629159372,0.0,4.1190004122749775,4.183902054693242,72.55941649371762,70.75922266850992,0.0
0.015,1.4780195557580873,-0.787248112717223,0.6198431500190895,0.0,4.202779070852105,4.099553918453636,72.19125136058516,70.75922266850992,0.0
0.016,1.3268501034021738,-0.6886993370824055,0.7896054296645694,0.0,4.260341001564151,4.059361283639735,73.48799572096159,70.75922266850992,0.0
0.017,1.2349442694776496,-0.6285465361735939,0.11394551895183436,0.0,4.3024961553799805,3.961521839611714,73.72025278720776,70.75922266850992,0.0
0.018000000000000002,1.1387253291881048,-0.5750605640627275,-0.031793315358225493,0.0,4.325369920488317,3.878072207793702,72.35978701754327,70.75922266850992,0.0
0.019,1.0573738436928257,-0.5242305576085354,0.6324339259836842,0.0,4.332554904915168,3.8877637745606206,71.77921610670664,70.75922266850992,0.0
0.02,1.0319694723421966,-0.49885218907475404,0.9125194470200304,0.0,4.33770722710185,3.923352783987729,72.88362500124505,70.75922266850992,0.0
0.021,1.037850983323907,-0.49381254169746314,0.3390709764234745,0.0,4.345602640486411,3.8891169277933137,73.14903808216407,70.75922266850992,0.0
0.022,1.0179295030673703,-0.48310285316459395,0.18246628182742408,0.0,4.348157257648233,3.849852344795234,71.7606123764148,70.75922266850992,0.0
0.023,0.9919809136309712,-0.46279374781454324,0.8666652376230106,0.0,4.344403050090886,3.894252743932058,71.44015511015992,70.75922266850992,0.0
0.024,1.0076362092846503,-0.4584075264513999,1.0200845463339494,0.0,4.3451849099065125,3.941890248383444,72.65325175626819,70.75922266850992,0.0
0.025,1.0350119708547174,-0.46649563820803686,0.3945959324022321,0.0,4.351585888692576,3.9116494669354833,72.43600908275344,70.75922266850992,0.0
0.026000000000000002,1.0259550469705812,-0.46148571320266196,0.4864494050171704,0.0,4.353690718587079,3.902701648880843,70.96635600086307,70.75922266850992,0.0
0.027,1.0197740316514936,-0.4499404460712118,1.2192046126388243,0.0,4.353470403552262,3.975132976179605,71.70580342126055,70.75922266850992,0.0
0.028,1.0563460962325775,-0.45391951860227325,0.8400150949125766,0.0,4.361068403400534,3.9871760029617986,72.98190910129443,70.75922266850992,0.0
0.029,1.0714561564892797,-0.45700311351703843,0.17973539056779209,0.0,4.369410310657513,3.9286392687675087,71.38788861449544,70.75922266850992,0.0
0.03,1.045766179685541,-0.43997981063367875,0.970458974507435,0.0,4.369160954503045,3.9733497880461313,70.58279765027547,70.75922266850992,0.0
0.031,1.0632178560242584,-0.4331998740505421,1.3747687067997651,0.0,4.372832025896578,4.0479545703289075,72.18035247851448,70.75922266850992,0.0
0.032,1.1043838182488115,-0.44615380996941845,0.5617799945802135,0.0,4.385089200695941,4.017640386774374,71.88238637039463,70.75922266850992,0.0
0.033,1.0997197431576944,-0.4414532540919618,0.6995314116212923,0.0,4.392442639154206,4.015790589934214,70.22322691969711,70.75922266850992,0.0
0.034,1.0996214490180833,-0.42797822669935925,1.534471094458178,0.0,4.397440506628218,4.105291139169988,71.88991070546828,70.75922266850992,0.0
0.035,1.1449952988627548,-0.4361059819720408,0.6898223212030095,0.0,4.411917445632325,4.080088551918837,72.13439453580197,70.75922266850992,0.0
0.036000000000000004,1.14272784685061,-0.4327093458828352,0.5538286873632428,0.0,4.4219715244883675,4.053044263523173,70.3905077572014,70.75922266850992,0.0
0.037,1.1312190047361692,-0.4125769912794648,1.4294592257766123,0.0,4.42613517397376,4.128632405529016,71.49110994811889,70.75922266850992,0.0
0.038,1.166611102160183,-0.4144030497144862,0.8718392575217802,0.0,4.437843462685084,4.12297537725286,71.9196640765404,70.75922266850992,0.0
0.039,1.1716012669550269,-0.41348740973356557,0.6459577792307205,0.0,4.447696238715409,4.0995891205927935,70.11681958709477,70.75922266850992,0.0
0.04,1.1652598141201196,-0.3947731649286977,1.5538040547676883,0.0,4.452175700947969,4.182396133753531,71.37971592744634,70.75922266850992,0.0
0.041,1.205833698394137,-0.3997007372533495,0.9161509520025373,0.0,4.465217093677107,4.173623545963421,71.2602996884322,70.75922266850992,0.0
0.042,1.2114039806208685,-0.39869822647757575,0.9708483013103859,0.0,4.475917536445738,4.179218603474554,69.77460870134408,70.75922266850992,0.0
0.043000000000000003,1.2211806974256638,-0.38412504181621404,1.7235399345261042,0.0,4.484514415483627,4.2665535696458265,71.68206641089846,70.75922266850992,0.0
0.044,1.2667501405896593,-0.39488227430405076,0.7605826423250295,0.0,4.502314130655131,4.227647637049493,70.34861030816137,70.75922266850992,0.0
0.045,1.2609293983087055,-0.3840848488229852,1.431416817297059,0.0,4.513147991922055,4.27892957748142,70.70935201026903,70.75922266850992,0.0
0.046,1.289423523913912,-0.3764301235841794,1.2515446728256379,0.0,4.527292615584022,4.296479871115891,71.34538220341683,70.75922266850992,0.0
0.047,1.3029858081799226,-0.37824688723632205,0.9276679809026671,0.0,4.542054197497364,4.278654973073091,69.6665402003351,70.75922266850992,0.0
0.048,1.3032844661984235,-0.3593949406524446,1.7780158071252783,0.0,4.55146524965434,4.360968521290242,71.2694576020598,70.75922266850992,0.0
0.049,1.3443749671522975,-0.3657425673090913,0.9714547569274317,0.0,4.569053309815407,4.3342496575926495,69.8515924399959,70.75922266850992,0.0
0.05,1.3445552357475394,-0.35484217536597973,1.689463640244524,0.0,4.580948158210297,4.399399149411841,70.8890443480132,70.75922266850992,0.0
0.051000000000000004,1.3808483267243905,-0.35303468034042984,1.1694394694408399,0.0,4.59807865041424,4.390849991945527,70.03165388320869,70.75922266850992,0.0
0.052000000000000005,1.3859195889146796,-0.3479400044385111,1.6054103896961072,0.0,4.612098838252198,4.437830934451189,70.45457856818886,70.75922266850992,0.0
0.053,1.417278958422617,-0.3396073389034959,1.3969944882092307,0.0,4.628549455107098,4.450831525100005,70.33698126127123,70.75922266850992,0.0
0.054,1.4301028898471426,-0.3398233960906043,1.4600155557404328,0.0,4.644762162287321,4.47209655605111,69.88720800011414,70.75922266850992,0.0
0.055,1.452268485292998,-0.3256151735005468,1.6936223330029363,0.0,4.659915036787853,4.5156129132638885,70.57476353944463,70.75922266850992,0.0
0.056,1.4775608865337648,-0.33081870976736133,1.3516891546283443,0.0,4.678618730774861,4.5137836966295914,69.39761077578827,70.75922266850992,0.0
0.057,1.4917235862307918,-0.3140557094599043,1.9538816553837441,0.0,4.69337316830325,4.582363304969998,70.65334580296837,70.75922266850992,0.0
0.058,1.528000418312854,-0.3224132936934781,1.3270729104491055,0.0,4.714597087181609,4.56674068474678,69.3025256950389,70.75922266850992,0.0
0.059000000000000004,1.537961491914026,-0.3049532277161837,2.0170499341485555,0.0,4.73013216904997,4.636235328714698,70.55849080392136,70.75922266850992,0.0
0.06,1.574261932067245,-0.31156754115200036,1.391074698353209,0.0,4.751965382266002,4.620683532617337,69.24403456675745,70.75922266850992,0.0
0.061,1.5844052874352257,-0.29343153048671644,2.0634546979526887,0.0,4.767998990243154,4.688339025076265,70.31602244950159,70.75922266850992,0.0
0.062,1.6196889384815845,-0.3000117162146986,1.5318927587707023,0.0,4.790099967205213,4.681856947719583,69.32653660932701,70.75922266850992,0.0
0.063,1.6351386201726184,-0.28238390656343826,2.040962539449822,0.0,4.807337777816481,4.738199842585744,69.91599368044103,70.75922266850992,0.0
0.064,1.6657010439863833,-0.28824693265473933,1.7546662937734978,0.0,4.829307307819795,4.75084157439263,69.83183931168891,70.75922266850992,0.0
0.065,1.6901960927175295,-0.2732682484291089,1.8060173117177698,0.0,4.848637772477733,4.770538829327501,68.93752115437204,70.75922266850992,0.0
0.066,1.7057041015929428,-0.2713758536888031,2.271393405517586,0.0,4.867946539584187,4.839416334884234,70.41059553140497,70.75922266850992,0.0
0.067,1.751183159328234,-0.27114924610658786,1.5383424883721706,0.0,4.8922061776490295,4.8131999885098145,68.68780380383913,70.75922266850992,0.0
0.068,1.7571011196114061,-0.252411236435783,2.4204525408017954,0.0,4.9093593022819775,4.896197670464241,69.7876562340297,70.75922266850992,0.0
0.069,1.7998523372957114,-0.2617413046509819,1.880241990051315,0.0,4.934310570247454,4.899723181237225,69.7568044847547,70.75922266850992,0.0
0.07,1.8243808247404318,-0.2454512492263906,1.905692046526368,0.0,4.955234055714824,4.911322258007146,68.35623704919718,70.75922266850992,0.0
0.07100000000000001,1.837636176759755,-0.23895356212867258,2.630005620498255,0.0,4.974673255285947,5.002060964371289,69.98324905422541,70.75922266850992,0.0
0.07200000000000001,1.8909356326520874,-0.24753385703747144,1.824259354126983,0.0,5.002251214847316,4.98406410838761,69.30463917064783,70.75922266850992,0.0
0.073,1.9071672527785242,-0.22773794263236902,2.1781101308943933,0.0,5.02300833932053,5.016353298411575,68.28313994866296,70.75922266850992,0.0
0.074,1.9280623524281362,-0.22526117398930634,2.713620569085297,0.0,5.044844184942134,5.1007207775536,69.82455000092398,70.75922266850992,0.0
0.075,1.9819823448480896,-0.23181486206564217,1.9522622696306493,0.0,5.073678867290609,5.084008327851962,69.65530816842183,70.75922266850992,0.0
0.076,1.9985193633926799,-0.21268686874562936,2.0479223308826064,0.0,5.0957892202881085,5.088706908971894,69.00812701372782,70.75922266850992,0.0
0.077,1.997469742522112,-0.21836334013522196,2.3890238647774327,0.0,5.116974087883904,5.1319920638767,70.97808385755948,70.75922266850992,0.0
0.078,2.012310187101055,-0.2373261185221638,1.401856830971103,0.0,5.142398125119269,5.059424855880573,71.15306575519551,70.75922266850992,0.0
0.079,1.9800710999222484,-0.22292695763387016,1.3104274512862322,0.0,5.156249502349905,5.000165915015781,70.29563287713636,70.75922266850992,0.0
0.08,1.9323060250361002,-0.2148158074642682,1.7437797882295463,0.0,5.162041612861222,5.001732824186831,71.87561762013708,70.75922266850992,0.0
0.081,1.9126553168547538,-0.22217846530817387,0.9426234672129139,0.0,5.168302207103039,4.9129454619617325,71.44856251521828,70.75922266850992,0.0
0.082,1.863469217162137,-0.2043862597735875,1.1492576212052268,0.0,5.163027236510922,4.869618179417022,70.97409909488493,70.75922266850992,0.0
0.083,1.820821173041752,-0.20420360394079895,1.3843405671081517,0.0,5.154104864637284,4.858088334433284,72.49541279604863,70.75922266850992,0.0
0.084,1.8024291774674812,-0.2095897461754178,0.6063218152509189,0.0,5.145516047656771,4.7604829836692,71.17249185677046,70.75922266850992,0.0
0.085,1.7495492616973478,-0.19691430368745844,1.2636495930073948,0.0,5.126577417201879,4.757498400134227,71.85888420310448,70.75922266850992,0.0
0.08600000000000001,1.729091823487622,-0.20990104271337495,0.9094568044944407,0.0,5.110789487156712,4.709105446438643,71.7742964033133,70.75922266850992,0.0
0.08700000000000001,1.7045787686004572,-0.2074681263420235,0.9415999670419968,0.0,5.091343566555394,4.673542532528951,71.40028002109807,70.75922266850992,0.0
0.088,1.6774363848316614,-0.21763000750209327,1.1221975846237306,0.0,5.07142808271456,4.661876155924307,72.36761931990095,70.75922266850992,0.0
0.089,1.6684000952814215,-0.2254524934876887,0.6224439687083785,0.0,5.053096364244157,4.593328562682376,71.27476765354973,70.75922266850992,0.0
0.09,1.6316705153752862,-0.22802662971499033,1.1637143520335917,0.0,5.029947988421751,4.5982897261366995,72.6741506225861,70.75922266850992,0.0
0.091,1.625961015115656,-0.240907231315173,0.4448735879746464,0.0,5.011001691340765,4.5162154970131105,71.20542321778217,70.75922266850992,0.0
0.092,1.585196741436727,-0.2391199538021127,1.1747752848838882,0.0,4.985417194513079,4.532358630496474,72.62745314858998,70.75922266850992,0.0
0.093,1.5827729547590839,-0.2553499135722641,0.44507801467918284,0.0,4.965808629066347,4.456622258054873,71.21054135317421,70.75922266850992,0.0
0.094,1.5470839273199468,-0.2547412151610726,1.1490207255404257,0.0,4.940358026497195,4.475130892361072,72.62809104451856,70.75922266850992,0.0
0.095,1.5473555869271611,-0.27182038422934696,0.4215571961081652,0.0,4.921188143197201,4.401796414802391,71.22156116959749,70.75922266850992,0.0
0.096,1.5130482304590407,-0.27254202638659264,1.1201987485578209,0.0,4.896510389417952,4.421780128540927,72.60414513967989,70.75922266850992,0.0
0.097,1.5152294032529188,-0.2881091702076689,0.4104575388049245,0.0,4.878003951789226,4.351656744358364,71.30165127028282,70.75922266850992,0.0
0.098,1.4813286512887356,-0.29132138137912134,1.0562801874857297,0.0,4.854533491295766,4.368583852727597,72.37720304761065,70.75922266850992,0.0
0.099,1.4831098009283914,-0.3039010293080444,0.5023244950308066,0.0,4.836454426849043,4.3135429175737094,71.54061521625192,70.75922266850992,0.0
0.1,1.454831233784546,-0.3118555390453688,0.9128044852327502,0.0,4.815428374923418,4.316018979219521,72.02575080697424,70.75922266850992,0.0
0.101,1.4515919408561992,-0.32028310146185013,0.657571408486946,0.0,4.797600021123378,4.2840379277148095,72.03309892716238,70.75922266850992,0.0
0.10200000000000001,1.432372211288041,-0.3325516962261892,0.6411585858063509,0.0,4.779621667352784,4.256300843576374,71.63914601019452,70.75922266850992,0.0
0.10300000000000001,1.4157467739480452,-0.335660369448628,0.8293358108734359,0.0,4.760886708652231,4.252039856270625,72.81931303970852,70.75922266850992,0.0
0.10400000000000001,1.4077780633151329,-0.34841519386470043,0.2186513924044522,0.0,4.7449710910447,4.177984717339356,71.4411955518962,70.75922266850992,0.0
0.105,1.3683717638094688,-0.3454254205277205,0.9008904074767483,0.0,4.722785097993568,4.195151672222397,72.21406944465726,70.75922266850992,0.0
0.106,1.3673431881394236,-0.3544219218513811,0.49990499333474747,0.0,4.705553912614827,4.157171626934328,72.09437730787718,70.75922266850992,0.0
0.107,1.3453904909078163,-0.36458954862744025,0.5463995153311121,0.0,4.68727631517728,4.132795230136987,71.60335722747946,70.75922266850992,0.0
0.108,1.3288368287095726,-0.36755289365227944,0.7834682099402752,0.0,4.668613129488729,4.136242700332161,72.59916285473685,70.75922266850992,0.0
0.109,1.3262039650538051,-0.3780086269866631,0.26716599444931477,0.0,4.653281506605081,4.078439252669015,71.88718491316446,70.75922266850992,0.0
0.11,1.2939607499030759,-0.38155660672829017,0.611875342788962,0.0,4.63398842168172,4.071484462986115,71.6231067270943,70.75922266850992,0.0
0.111,1.2826716390895974,-0.3854965955281587,0.7352755952382009,0.0,4.616327085252975,4.074342148103164,72.7409893391974,70.75922266850992,0.0
0.112,1.2803741206438302,-0.39709993110993214,0.15651662247977494,0.0,4.601954618004805,4.010390277458613,71.79830140133136,70.75922266850992,0.0
0.113,1.2455975310974616,-0.39748197931809365,0.6174698040845807,0.0,4.582550202364076,4.011691236523455,71.63309099174363,70.75922266850992,0.0
0.114,1.2372885676581962,-0.4019536654892223,0.6913363256461083,0.0,4.565704389190647,4.015003663756316,72.64985560250412,70.75922266850992,0.0
0.115,1.2358293426398972,-0.41348771375348126,0.16404769092592164,0.0,4.552098428505204,3.9576372770313317,71.86638860815268,70.75922266850992,0.0
0.116,1.204570913838249,-0.41439219759845075,0.5447095287052153,0.0,4.534100577956112,3.9552164563312258,71.5700628098793,70.75922266850992,0.0
0.117,1.1947990422935444,-0.41820297901754533,0.6847640264282076,0.0,4.518070571509569,3.963599630599857,72.32601916104396,70.75922266850992,0.0
0.11800000000000001,1.196128092610954,-0.42809726668653436,0.29111788592053944,0.0,4.505532146963941,3.924595952113536,72.19279481186588,70.75922266850992,0.0
0.11900000000000001,1.1738521474666754,-0.4336594783312645,0.343394339076019,0.0,4.490860097428475,3.9003893147425095,71.59088673918066,70.75922266850992,0.0
0.12,1.1549958665477682,-0.43393569241658964,0.6360317347119215,0.0,4.475209350542389,3.9106549165930677,71.73141315065386,70.75922266850992,0.0
0.121,1.1547167729300725,-0.440723175604672,0.5560466241538802,0.0,4.462894099539806,3.906446284940978,72.62267391842042,70.75922266850992,0.0
0.122,1.1502702586052103,-0.4508605949666701,0.09178172777149851,0.0,4.452436751770211,3.8516440294969145,71.88776537926597,70.75922266850992,0.0
0.123,1.1194991611451774,-0.4479613397007676,0.44795057024116125,0.0,4.437124620960299,3.848437842033139,71.59809985242931,70.75922266850992,0.0
0.124,1.1081029142810772,-0.4496603263437127,0.5843945618202959,0.0,4.423238965568382,3.8564140870642087,71.77617006107299,70.75922266850992,0.0
0.125,1.1082528163638967,-0.45668499786954275,0.48518998357282783,0.0,4.412295224220177,3.8497967468322165,72.41056369139757,70.75922266850992,0.0
0.126,1.1026936069032762,-0.46490503610973377,0.1514797581816607,0.0,4.402618080474756,3.8076436995395446,71.90303433852353,70.75922266850992,0.0
0.127,1.0781183597520374,-0.4627036883537339,0.3938063179185469,0.0,4.389368997739049,3.8013789515185987,71.65018482762252,70.75922266850992,0.0
0.128,1.0662563646037588,-0.46418137326706793,0.5113214517779213,0.0,4.3770029072928445,3.8059782361481362,71.78980843166036,70.75922266850992,0.0
0.129,1.0642452218762117,-0.46931911156288136,0.4312037921274985,0.0,4.36688372871762,3.7989954951185076,72.41544637851908,70.75922266850992,0.0
0.13,1.0584849385902657,-0.47430276948680694,0.10182258159804836,0.0,4.357575018885628,3.7568818735067615,71.83578747460271,70.75922266850992,0.0
0.131,1.0341417047088277,-0.46970284893350256,0.3808863854953043,0.0,4.344429990035559,3.7546597265010835,71.72130015931657,70.75922266850992,0.0
0.132,1.0244079962665418,-0.47068448289329123,0.4285092682303082,0.0,4.332531228311038,3.75462044596268,71.71610349889137,70.75922266850992,0.0
0.133,1.020179813254247,-0.4750226001773987,0.421538790139093,0.0,4.322285791266783,3.7525199989352105,71.69288561038753,70.75922266850992,0.0
0.134,1.01652732422031,-0.4797013808563291,0.42381110497223506,0.0,4.3133261379260475,3.750284204282232,71.59904980337045,70.75922266850992,0.0
0.135,1.0126900849626292,-0.48414087162079794,0.462330737132173,0.0,4.30548042663139,3.751976031577742,71.52495548847304,70.75922266850992,0.0
0.136,1.0114158067162862,-0.487434575290812,0.49172056638124595,0.0,4.298906381691807,3.7556635881245573,71.51804510698996,70.75922266850992,0.0
0.137,1.0112780564550965,-0.49127427557859604,0.48758753273798616,0.0,4.2937479268958185,3.7575788622757504,71.99409085898282,70.75922266850992,0.0
