timestamp,iq,id,iq_ref,id_ref,vq,vd,omega,omega_ref,r
0.0,0.0,0.0,0.0,0.0,0.0,0.0,0.0,413.98206608674315,0.0
0.001,0.0,0.0,10.0,0.0,0.0,1.0999999999999999,6.115472199294103,413.98206608674315,0.0
0.002,0.5307369851907212,-0.2913212625381807,10.0,0.0,0.14204533887919985,1.9316189316290207,13.317801563642547,413.98206608674315,0.0
0.003,1.0842913387634832,-0.6024330830807904,10.0,0.0,0.384357124667687,2.6386968949419622,20.697939467553027,413.98206608674315,0.0
0.004,1.5590443546685477,-0.8700465084428163,10.0,0.0,0.6994718867930164,3.2526109522886295,28.232747544420146,413.98206608674315,0.0
0.005,1.9399447555359186,-1.0838738622210777,10.0,0.0,1.065311453102468,3.7994935661768023,35.92944872443006,413.98206608674315,0.0
0.006,2.239750732602683,-1.2510087368845633,10.0,0.0,1.4655018868449925,4.299102221838433,43.75633668444442,413.98206608674315,0.0
0.007,2.4770151619816017,-1.382020589851471,10.0,0.0,1.8883740978591532,4.765668027847139,51.58766747378032,413.98206608674315,0.0
0.008,2.6680767290418097,-1.4872241871505252,10.0,0.0,2.325877945545995,5.209220346273558,59.45942083902103,413.98206608674315,0.0
0.009000000000000001,2.8266491704841292,-1.5730794701170803,10.0,0.0,2.772378685460125,5.636635464737965,67.35059094018146,413.98206608674315,0.0
0.01,2.962077666392183,-1.645500646948331,10.0,0.0,3.224078639851053,6.052647735211881,75.20908322432116,413.98206608674315,0.0
0.011,3.0811061533574158,-1.7084279320504514,10.0,0.0,3.678407615443203,6.460489925470405,83.0265951655913,413.98206608674315,0.0
0.012,3.188848746459569,-1.7638278597420747,10.0,0.0,4.133552631697047,6.862319393890706,90.74118064793086,413.98206608674315,0.0
0.013000000000000001,3.288205119878689,-1.8140726097274587,10.0,0.0,4.588339016389012,7.259628641949282,98.35820682563939,413.98206608674315,0.0
0.014,3.3820602099432007,-1.8592355758795645,10.0,0.0,5.041843166194517,7.653355107498287,105.90865295623543,413.98206608674315,0.0
0.015,3.4721069852858886,-1.899829032412081,10.0,0.0,5.493383198131427,8.044092747085895,113.37727610343421,413.98206608674315,0.0
0.016,3.5596145800153947,-1.9360338400176071,10.0,0.0,5.94241958510469,8.43218525824161,120.68508583176356,413.98206608674315,0.0
0.017,3.645144415105338,-1.9685384477868613,10.0,0.0,6.388575043274759,8.817838951066484,127.83962377537456,413.98206608674315,0.0
0.018000000000000002,3.730251927866576,-1.9959253041084188,10.0,0.0,6.83136783302799,9.201036292373047,134.85405702603322,413.98206608674315,0.0
0.019,3.81544967906247,-2.018253592643655,10.0,0.0,7.270383321112213,9.581672501020332,141.68976328564074,413.98206608674315,0.0
0.02,3.9014648862453374,-2.0350875541282063,10.0,0.0,7.705189334130692,9.959536942333155,148.3432823300447,413.98206608674315,0.0
0.021,3.9891051824829464,-2.0457889559126508,10.0,0.0,8.135310004560049,10.334315260302239,154.92060212100432,413.98206608674315,0.0
0.022,4.079618141396171,-2.0489696811670974,10.0,0.0,8.560139305503519,10.705547790999272,161.01925282597162,413.98206608674315,0.0
0.023,4.171109372430197,-2.048468292080302,10.0,0.0,8.979521969370257,11.072981092896333,166.534238406907,413.98206608674315,0.0
0.024,4.266936196769627,-2.039517194249811,10.0,0.0,9.392730090169543,11.435983292623375,171.8647834235234,413.98206608674315,0.0
0.025,4.367255527950721,-2.0225841458509217,10.0,0.0,9.79914449451603,11.793929226271104,177.02637022703064,413.98206608674315,0.0
0.026000000000000002,4.4734353073349595,-1.9962166741499119,10.0,0.0,10.197980960389518,12.146045424568259,181.63161391243256,413.98206608674315,0.0
0.027,4.582366840795821,-1.966358349113627,10.0,0.0,10.589124658468391,12.491912978736195,185.74793639675826,413.98206608674315,0.0
0.028,4.700058850757774,-1.9240450691803936,10.0,0.0,10.971384864613876,12.830451341534015,189.43662766964098,413.98206608674315,0.0
0.029,4.820934284790598,-1.879137197786803,10.0,0.0,11.344756153370636,13.161242511022618,192.73598774770625,413.98206608674315,0.0
0.03,4.952016225740939,-1.821000614527957,10.0,0.0,11.707923484756042,13.483081433273819,195.59831968863915,413.98206608674315,0.0
0.031,5.086039273572549,-1.7621311371320891,10.0,0.0,12.061063698547066,13.79562148058647,197.80891551030922,413.98206608674315,0.0
0.032,5.230431844273564,-1.6911110488141978,10.0,0.0,12.40292038074925,14.097678592248165,200.4421589734679,413.98206608674315,0.0
0.033,5.380124186618445,-1.6166151787533525,10.0,0.0,12.733312761073865,14.38869342901298,201.91742172589852,413.98206608674315,0.0
0.034,5.537594793894332,-1.535029134414507,10.0,0.0,13.051537880865839,14.667821176756876,203.18880493813168,413.98206608674315,0.0
0.035,5.698947813469154,-1.4530296333491768,10.0,0.0,13.357649178779205,14.934684535625108,203.60405746232266,413.98206608674315,0.0
0.036000000000000004,5.870474243492053,-1.3603000477825025,10.0,0.0,13.65045542338638,15.188218311291084,204.28541056101804,413.98206608674315,0.0
0.037,6.041188711220851,-1.275010780747051,10.0,0.0,13.930879897581198,15.42861600670124,205.2233356988433,413.98206608674315,0.0
0.038,6.228175208801664,-1.168399557236846,10.0,0.0,14.196427351981786,15.654155009933262,200.35169734043586,413.98206608674315,0.0
0.039,6.404895489618571,-1.0845312562500289,10.0,0.0,14.449814560392067,15.86612549236809,209.64773540576442,413.98206608674315,0.0
0.04,6.534612624563911,-1.0851225869390002,10.0,0.0,14.699963825590459,16.069735965364643,218.170241886545,413.98206608674315,0.0
0.041,6.621487035821765,-1.1484636683301073,10.0,0.0,14.952420817214799,16.26974130369247,220.68166573712315,413.98206608674315,0.0
0.042,6.6704785161669795,-1.2647840534085386,10.0,0.0,15.211794475054209,16.47047148862455,233.10654395573727,413.98206608674315,0.0
0.043000000000000003,6.709376245503157,-1.3867642159960276,10.0,0.0,15.477558399636717,16.673277185423842,235.10815372853793,413.98206608674315,0.0
0.044,6.744196093263161,-1.5028656568708394,10.0,0.0,15.74857785831126,16.87893749904121,248.8181267625822,413.98206608674315,0.0
0.045,6.750563942850831,-1.6564343609015326,10.0,0.0,16.02879294551472,17.090781462187255,251.61117095327992,413.98206608674315,0.0
0.046,6.764566527560506,-1.7840489455190416,10.0,0.0,16.314672837580048,17.307985931916857,266.60539535969383,413.98206608674315,0.0
0.047,6.752169677737121,-1.9446655565152717,10.0,0.0,16.610076868775216,17.533561623207692,270.0627790167984,413.98206608674315,0.0
0.048,6.7291903821171735,-2.110358990489937,10.0,0.0,16.91511817760721,17.768523902508925,283.13731951482634,413.98206608674315,0.0
0.049,6.714097190323873,-2.246352557911731,10.0,0.0,17.22645394156277,18.011924542904307,294.70561782835244,413.98206608674315,0.0
0.05,6.666841209228205,-2.4219663531358275,10.0,0.0,17.548953774962747,18.267165921658286,300.1294548425776,413.98206608674315,0.0
0.051000000000000004,6.612335516543512,-2.59336894353628,10.0,0.0,17.88182590988993,18.53465621226123,310.75154600411304,413.98206608674315,0.0
0.052000000000000005,6.568447424188529,-2.726701034625408,10.0,0.0,18.22111236450049,18.81296732052879,322.35703405819294,413.98206608674315,0.0
0.053,6.5036136539679195,-2.8764091099274185,10.0,0.0,18.569435851849082,19.104068797231378,330.9557012510771,413.98206608674315,0.0
0.054,6.434362099984388,-3.0149932598739144,10.0,0.0,18.925784313874168,19.407861808234543,339.4707232587175,413.98206608674315,0.0
0.055,6.370891759459199,-3.1253006473392393,10.0,0.0,19.28762520191878,19.723199586257838,348.00092263299223,413.98206608674315,0.0
0.056,6.314459991163816,-3.2071523724558277,10.0,0.0,19.65271639484943,20.048760466390505,356.29964302226927,413.98206608674315,0.0
0.057,6.266092078485367,-3.262894600420583,10.0,0.0,20.01916768432525,20.383030530514645,362.98468703488817,413.98206608674315,0.0
0.058,6.234656406121481,-3.2830044001420036,10.0,0.0,20.38405550695561,20.723492962007192,368.0316803659419,413.98206608674315,0.0
0.059000000000000004,6.228510489334133,-3.2600491726267444,10.0,0.0,20.743774617448285,21.0667596267365,372.35801287012686,413.98206608674315,0.0
0.06,6.247959954981508,-3.201438289803519,10.0,0.0,21.095630838529225,21.40947063565305,373.88739853789605,413.98206608674315,0.0
0.061,6.298571070969623,-3.1064761741463998,10.0,0.0,21.436712814499675,21.747723437683817,371.47602194372377,413.98206608674315,0.0
0.062,6.38094735961424,-2.982369480030801,10.0,0.0,21.76480975788002,22.077703876517536,366.2922057853833,413.98206608674315,0.0
0.063,6.53566146196873,-2.7695519558602215,10.0,0.0,22.070926190088084,22.39130117743337,372.07145994459506,413.98206608674315,0.0
0.064,6.708566607552835,-2.560747003310555,10.0,0.0,22.35695033962817,22.686677966487718,365.1882535794375,413.98206608674315,0.0
0.065,6.897199383751794,-2.3667028673086685,10.0,0.0,22.62465294768497,22.962098937664592,356.7297130485294,413.98206608674315,0.0
0.066,7.167218997264825,-2.0824440278168583,10.0,0.0,22.863799361069702,23.20893224280502,357.7888817172531,413.98206608674315,0.0
0.067,7.423387055578651,-1.859201647307153,10.0,0.0,23.082000390168847,23.42951856849048,345.1266644280509,413.98206608674315,0.0
0.068,7.736929428236853,-1.5824320316278497,10.0,0.0,23.27222771500701,23.617938384108047,342.9584987314189,413.98206608674315,0.0
0.069,8.04132723792414,-1.3546495884062866,10.0,0.0,23.43998591632552,23.77619061530866,334.2677598047511,413.98206608674315,0.0
0.07,8.395997401416553,-1.0747195592463576,10.0,0.0,23.578279041856877,23.89942370363377,322.7417355360636,413.98206608674315,0.0
0.07100000000000001,8.726669482066718,-0.8579631993863083,10.0,0.0,23.694022264374595,23.99133556844291,337.9106389559309,413.98206608674315,0.0
0.07200000000000001,8.91385728821635,-0.8925675486457335,10.0,0.0,23.81335639313859,24.06834663115294,344.8606079910171,413.98206608674315,0.0
0.073,8.941721008651788,-1.1508071676799903,10.0,0.0,23.95651852989837,24.148396869281978,362.43451347602996,413.98206608674315,0.0
0.074,8.927907180207171,-1.4305443375681337,10.0,0.0,24.121558169292424,24.236556455607346,368.59250641149885,413.98206608674315,0.0
0.075,8.859340450140312,-1.7499202918046703,10.0,0.0,24.31124378664675,24.33980824926249,387.10067316750514,413.98206608674315,0.0
0.076,8.767176841935807,-2.0562826706616475,10.0,0.0,24.52279212376306,24.461155754889383,396.7190369145668,413.98206608674315,0.0
0.077,8.62162972262067,-2.4016532593838043,10.0,0.0,24.76024751870129,24.606611890707832,408.83095327273656,413.98206608674315,0.0
0.078,8.47560200325128,-2.694417929744825,9.38623462434621,0.0,25.01725339558004,24.70836133905383,427.9377613020938,413.98206608674315,0.0
0.079,8.25643986016386,-2.986724827046742,-0.30672634248591546,0.0,25.287959741605114,23.788195936204026,429.07775564332456,413.98206608674315,0.0
0.08,7.505940217956923,-2.9988845144628087,-1.027680408667111,0.0,25.43799340938545,23.085105709841983,431.0476168963001,413.98206608674315,0.0
0.081,6.722476031063808,-2.903730739469455,-2.183266543250447,0.0,25.492126175628115,22.42609900288801,432.7454653910155,413.98206608674315,0.0
0.082,5.976292973865977,-2.763534546395628,-3.219824783650872,0.0,25.46047495106292,21.810186192578307,431.0590689440728,413.98206608674315,0.0
0.083,5.305247152363954,-2.585267138668172,-2.5473965887528207,0.0,25.352190115004,21.403385434479095,426.817613368706,413.98206608674315,0.0
0.084,4.804015342444723,-2.4149602253475333,-0.5550242738890567,0.0,25.197102600353062,21.287297982146036,421.7828815977442,413.98206608674315,0.0
0.085,4.544799718702979,-2.2816811366976544,1.8843334564818317,0.0,25.032957461315625,21.439217551285747,416.30361958786204,413.98206608674315,0.0
0.08600000000000001,4.527746694055543,-2.1996171269332776,4.600748926411732,0.0,24.89272454290832,21.833226450470125,410.9203424371928,413.98206608674315,0.0
0.08700000000000001,4.74132324203689,-2.151685439718869,7.323004738241857,0.0,24.801463960764238,22.42243120197293,411.1346906792075,413.98206608674315,0.0
0.088,5.14616650716963,-2.130959311617908,7.244304371309867,0.0,24.776449354765894,22.865312827945438,410.85256678529504,413.98206608674315,0.0
0.089,5.53758623738279,-2.095801683232883,7.416661311280576,0.0,24.79456429412328,23.242143360114834,396.45962141778335,413.98206608674315,0.0
0.09,5.940208397465365,-1.9727872145079959,10.0,0.0,24.835370777485988,23.82517177905552,394.56909062201964,413.98206608674315,0.0
0.091,6.476127709600406,-1.839092613405961,10.0,0.0,24.916923192972515,24.273219714817166,388.9062685568349,413.98206608674315,0.0
0.092,6.9697842604359295,-1.7292773274442852,10.0,0.0,25.024382425041793,24.635675071080755,376.84143188713404,413.98206608674315,0.0
0.093,7.4883565892221196,-1.505927071559638,10.0,0.0,25.13387089424281,24.920524424266787,372.1746179477586,413.98206608674315,0.0
0.094,7.942278191403331,-1.3221570901529072,10.0,0.0,25.24291425644643,25.143092036102242,362.1518428263728,413.98206608674315,0.0
0.095,8.421374264901477,-1.0536584338168518,10.0,0.0,25.335612891230333,25.30614587091153,349.3995467263933,413.98206608674315,0.0
0.096,8.850011133660114,-0.8379029345761624,10.0,0.0,25.414298927663662,25.41980509088981,358.3144715967345,413.98206608674315,0.0
0.097,9.197103723433889,-0.742029737527651,10.0,0.0,25.488093785768555,25.49607317632607,365.4862511033835,413.98206608674315,0.0
0.098,9.29497042999276,-0.9957790896910987,10.0,0.0,25.59100712731506,25.56479952720546,383.67087580673814,413.98206608674315,0.0
0.099,9.29294989553032,-1.3397949960317357,10.0,0.0,25.72580602597068,25.638145503008005,391.501083659835,413.98206608674315,0.0
0.1,9.24809144319685,-1.6764971349406983,10.0,0.0,25.88805670855756,25.722550995507923,410.7525114301695,413.98206608674315,0.0
0.101,9.12870041738991,-2.0648280452267853,8.249830847394655,0.0,26.081872250878142,25.634906828545375,417.86394076614994,413.98206608674315,0.0
0.10200000000000001,8.892955166366786,-2.374695696952021,4.655297432610356,0.0,26.277743954857318,25.2222497157654,430.51754744183404,413.98206608674315,0.0
0.10300000000000001,8.415771375860889,-2.597660019793307,-1.8368607187826047,0.0,26.43419017615587,24.242386186601372,434.2440439424567,413.98206608674315,0.0
0.10400000000000001,7.590784557599363,-2.602653784559527,-3.9027287476510697,0.0,26.475325093304036,23.299806442925707,437.7484502623877,413.98206608674315,0.0
0.105,6.67990841767711,-2.5259414232763,-5.892595749373005,0.0,26.409600246980997,22.349317982640528,437.58673143313996,413.98206608674315,0.0
0.106,5.770763326186619,-2.3867503810727433,-6.047782988213115,0.0,26.240855148232193,21.581031156161103,435.1041578176345,413.98206608674315,0.0
0.107,4.994925297992281,-2.2322095616487885,-5.0177170977692835,0.0,25.99654829699573,21.06380835497844,431.3074180747647,413.98206608674315,0.0
0.108,4.427814122311364,-2.098946120060469,-3.292600746214619,0.0,25.711836280384162,20.80796313759993,426.14694322872475,413.98206608674315,0.0
0.109,4.090977399877825,-2.008934226602315,-0.8340120946144545,0.0,25.421442269831385,20.83380575616946,420.4586668050289,413.98206608674315,0.0
0.11,4.002079716636441,-1.961149437170156,1.9453601100506228,0.0,25.158315714287887,21.115580145756137,414.792784606326,413.98206608674315,0.0
0.111,4.140146333980415,-1.9597794638943615,4.770194024206239,0.0,24.95000640409139,21.609726144600003,409.2318264187539,413.98206608674315,0.0
0.112,4.480237486389457,-1.9783921386211143,7.598175514672188,0.0,24.81400371875163,22.28042687675799,409.5945798795063,413.98206608674315,0.0
0.113,4.984875035950948,-2.0113702175136603,7.460673646368355,0.0,24.762112837092555,22.774943027820434,409.0628485264465,413.98206608674315,0.0
0.114,5.447341168452343,-2.014085187862731,7.775731498501221,0.0,24.764831524655115,23.205024958948854,394.90191024741813,413.98206608674315,0.0
0.115,5.9082097991783655,-1.9206523716168016,10.0,0.0,24.799981777083705,23.78781863430937,393.3375650578239,413.98206608674315,0.0
0.116,6.46772256170599,-1.801705660959164,10.0,0.0,24.87774656179561,24.236667564790928,386.79521373456146,413.98206608674315,0.0
0.117,6.974220623045604,-1.6977002375748227,10.0,0.0,24.982368631618776,24.598288421573436,375.7650761177591,413.98206608674315,0.0
0.11800000000000001,7.499862973045084,-1.4770398293600748,10.0,0.0,25.08945798946811,24.881453721773482,370.00123482404376,413.98206608674315,0.0
0.11900000000000001,7.955391560723353,-1.2986938218796573,10.0,0.0,25.1967434848118,25.102159706593817,361.3706756776415,413.98206608674315,0.0
0.12,8.436560629944351,-1.0315679025212212,10.0,0.0,25.287770638048542,25.263150330728966,347.87427675802365,413.98206608674315,0.0
0.121,8.866865452461408,-0.8155468680138864,10.0,0.0,25.364703083772895,25.374622767989607,361.0969420212733,413.98206608674315,0.0
0.122,9.186901719371123,-0.7651879443896141,10.0,0.0,25.441710257397283,25.451740264961725,366.6032797352926,413.98206608674315,0.0
0.123,9.287461275968791,-1.0095992860519156,10.0,0.0,25.546117300175553,25.520985541042435,380.40702898490605,413.98206608674315,0.0
0.124,9.274675461127622,-1.3663382007723173,10.0,0.0,25.683805333486667,25.596159028991387,393.24436696307794,413.98206608674315,0.0
0.125,9.231450987705534,-1.695473756090046,10.0,0.0,25.84787943419932,25.682210805404583,408.6976095885748,413.98206608674315,0.0
0.126,9.10522447641706,-2.0909650828384017,8.867441409925238,0.0,26.044363992871173,25.664936040847007,418.6882620548284,413.98206608674315,0.0
0.127,8.905538657262529,-2.4075976813330655,3.825053217117583,0.0,26.250347291787023,25.146403268298407,431.1151384361665,413.98206608674315,0.0
0.128,8.382370895269768,-2.6110457290945326,-2.5597156970457027,0.0,26.40309194282522,24.10397299989402,433.6718141348921,413.98206608674315,0.0
0.129,7.511575904471417,-2.591477125187172,-4.034951026889991,0.0,26.432132075011747,23.173187797660532,436.7027266271664,413.98206608674315,0.0
0.13,6.595061611733026,-2.505044913470397,-5.777613878431372,0.0,26.355877816506496,22.25355319079118,436.61570595700516,413.98206608674315,0.0
0.131,5.702663414127992,-2.368397624275172,-5.96043994205338,0.0,26.181118643470526,21.504571039084407,434.1104859711248,413.98206608674315,0.0
0.132,4.945064992637323,-2.2179018289821784,-4.909114147957003,0.0,25.9337491079772,21.004897127619454,430.2629125401961,413.98206608674315,0.0
0.133,4.395228182672269,-2.088709891565813,-3.148135897027201,0.0,25.64844297972384,20.76655406829423,425.06571029797726,413.98206608674315,0.0
0.134,4.074756512234011,-2.0025809030755344,-0.6603712180301171,0.0,25.359650889003536,20.809312549905126,419.4392679797019,413.98206608674315,0.0
0.135,4.000702824323241,-1.9589246427939682,2.0982779221779637,0.0,25.100072956770273,21.102430921881627,413.75068866396833,413.98206608674315,0.0
0.136,4.149985496237973,-1.9601189880737835,4.944881354272508,0.0,24.896332595541587,21.608657918775748,408.39755712367975,413.98206608674315,0.0
0.137,4.50073293250809,-1.9796776972952195,7.6772922140474344,0.0,24.76572848468674,22.278897948841312,409.13459503663256,413.98206608674315,0.0
0.138,5.007562540375567,-2.013376796332195,7.357247968072134,0.0,24.718720101725783,22.754280806657086,407.6033904488326,413.98206608674315,0.0
0.139,5.460332498477548,-2.012825851497194,8.186637018351213,0.0,24.723553247920286,23.22712137907309,393.6024911179486,413.98206608674315,0.0
0.14,5.9409664043106885,-1.9238134829379947,10.0,0.0,24.76540128564377,23.795995216284894,393.12593561429577,413.98206608674315,0.0
0.14100000000000001,6.497609821004991,-1.8060209515695553,10.0,0.0,24.847884848551143,24.237608406953342,385.1879696050943,413.98206608674315,0.0
0.14200000000000002,7.001002098938805,-1.6971128866555278,10.0,0.0,24.95547941240779,24.593501918439898,375.6904881763363,413.98206608674315,0.0
0.14300000000000002,7.522828130389862,-1.472668964531036,10.0,0.0,25.064304120242856,24.872198594483194,368.50007163912,413.98206608674315,0.0
0.14400000000000002,7.973484043167909,-1.2942202792924058,10.0,0.0,25.17273110874375,25.089554183614588,361.48660934363005,413.98206608674315,0.0
0.145,8.4518483789162,-1.0257678425039733,10.0,0.0,25.264305676113338,25.247903394878396,347.2277081947765,413.98206608674315,0.0
