timestamp,iq,id,iq_ref,id_ref,vq,vd,omega,omega_ref,r
0.0,0.0,0.0,0.0,0.0,0.0,0.0,0.0,44.22131824086129,0.0
0.001,0.0,0.0,10.0,0.0,0.0,1.0999999999999999,6.115472199294103,44.22131824086129,0.0
0.002,0.5307369851907212,-0.2913212625381807,10.0,0.0,0.14204533887919985,1.9316189316290207,13.317801563642547,44.22131824086129,0.0
0.003,1.0842913387634832,-0.6024330830807904,10.0,0.0,0.384357124667687,2.6386968949419622,20.697939467553027,44.22131824086129,0.0
0.004,1.5590443546685477,-0.8700465084428163,10.0,0.0,0.6994718867930164,3.2526109522886295,28.232747544420146,44.22131824086129,0.0
0.005,1.9399447555359186,-1.0838738622210777,8.90408416906237,0.0,1.0653114531024683,3.678942824773664,35.25533554530916,44.22131824086129,0.0
0.006,2.181814944332181,-1.2190809540320653,5.482449995573385,0.0,1.4499347565909046,3.711008149107811,40.15316508829949,44.22131824086129,0.0
0.007,2.1779447388843938,-1.216533641256922,3.074216755603839,0.0,1.7976699868405357,3.5504843811828475,43.16742501397488,44.22131824086129,0.0
0.008,2.002267007426464,-1.1159657901101627,1.5776257250350079,0.0,2.083542326774316,3.319529680518363,44.974882904707094,44.22131824086129,0.0
0.009000000000000001,1.7475945913446425,-0.9687892705896927,0.6663611330304415,0.0,2.3025482240124844,3.0812416775533107,46.093052610889174,44.22131824086129,0.0
0.01,1.479554133659369,-0.8120714190575318,0.08855893623912281,0.0,2.4600575327569993,2.861175195066143,46.42875315462348,44.22131824086129,0.0
0.011,1.2295462720066077,-0.6715713165699062,-0.10136568476565166,0.0,2.565921429620028,2.6885730655644826,45.95460920704726,44.22131824086129,0.0
0.012,1.025258993386971,-0.5547063246664131,0.11837337936059689,0.0,2.6324885757620797,2.5898596039948574,45.572609220787065,44.22131824086129,0.0
0.013000000000000001,0.8853836481341834,-0.4704350147381076,0.29586046269143773,0.0,2.674426466959885,2.538343806913142,46.09324073489066,44.22131824086129,0.0
0.014,0.7978916609329134,-0.41606688731027947,0.016825480699348305,0.0,2.7018812084119603,2.471930024946551,46.46731194392941,44.22131824086129,0.0
0.015,0.724117988544506,-0.3753878675410878,-0.19267006085070948,0.0,2.716018086621835,2.4018891196619547,45.66137402847719,44.22131824086129,0.0
0.016,0.6586902326761397,-0.3387990317114482,0.19589833899924103,0.0,2.718119204738696,2.391562788547435,45.132355686258464,44.22131824086129,0.0
0.017,0.6295437883112676,-0.31937799025006297,0.4512971356546327,0.0,2.717207151729963,2.4092392173111015,45.50052276322135,44.22131824086129,0.0
0.018000000000000002,0.6281823017225389,-0.31387191654391483,0.25442155194959015,0.0,2.7177424892054063,2.400704794804529,45.99588227661997,44.22131824086129,0.0
0.019,0.6216637324835297,-0.3104892957136305,-0.011003845107309451,0.0,2.7170538231283787,2.3665527382073535,45.39614347388206,44.22131824086129,0.0
0.02,0.60150110592694,-0.3010968820952069,0.27711730393143796,0.0,2.712019478709612,2.372247304255859,44.780024607491896,44.22131824086129,0.0
0.021,0.5987934193083623,-0.2970340138110292,0.5795896734602153,0.0,2.7077050339624984,2.407355947677893,45.22735285189259,44.22131824086129,0.0
0.022,0.6167487318871223,-0.3019456728876032,0.3458652051495553,0.0,2.7079138092135633,2.4077857058237018,45.792175149732216,44.22131824086129,0.0
0.023,0.6219587814953184,-0.3045129444629837,0.04774548714103288,0.0,2.70837796603663,2.377343889051094,45.22737742497519,44.22131824086129,0.0
0.024,0.6074970293122947,-0.2983442745879113,0.3200837576784079,0.0,2.705047299098117,2.384573969813462,44.60701450151107,44.22131824086129,0.0
0.025,0.6073346713839994,-0.2953840814074833,0.6264082568039706,0.0,2.702508772378595,2.4215935298544635,45.10196867307856,44.22131824086129,0.0
0.026000000000000002,0.6268278016136575,-0.3006827378763229,0.37012466669805166,0.0,2.7045385084785023,2.42125697341196,45.702838835770486,44.22131824086129,0.0
0.027,0.6317420018569035,-0.3029620181850494,0.054874379402996554,0.0,2.7065293495934406,2.3886967197978404,45.047943098414045,44.22131824086129,0.0
0.028,0.6159856233395701,-0.2955808746300642,0.37405599950568913,0.0,2.7042303626413373,2.3996364003802126,44.436109257104555,44.22131824086129,0.0
0.029,0.6172964063010394,-0.2923107368129645,0.6778250099980018,0.0,2.7029693387183507,2.439173239251329,45.08686741828531,44.22131824086129,0.0
0.03,0.638014884170464,-0.2983060057328657,0.34379043763338457,0.0,2.7064802820341343,2.4325828740419837,45.65662076789628,44.22131824086129,0.0
0.031,0.6397504019982445,-0.29944717209871385,0.044560737557549635,0.0,2.7090466701084477,2.3974439962180933,44.803417134709804,44.22131824086129,0.0
0.032,0.6221611228593392,-0.2897989591694451,0.46534156521230174,0.0,2.706769816507065,2.4173060089103613,44.24663387806274,44.22131824086129,0.0
0.033,0.6276417196039763,-0.28716970660895663,0.74348003716382,0.0,2.7065141138826854,2.460562800178085,45.149435248175195,44.22131824086129,0.0
0.034,0.6506845011540141,-0.29548957514537805,0.2827981820344527,0.0,2.7115511387121267,2.4435320532697946,45.49508860379705,44.22131824086129,0.0
0.035,0.6476421324397246,-0.29499862710380037,0.0972338005941672,0.0,2.7142441833978586,2.4134679085022115,44.545382056679834,44.22131824086129,0.0
0.036000000000000004,0.6320082325558131,-0.2840054210737991,0.5688464359945898,0.0,2.7124571659553736,2.4421018216884978,44.39271647754566,44.22131824086129,0.0
0.037,0.6426435455761798,-0.2825802189683767,0.6434652431948324,0.0,2.7136654014044685,2.4698593608188486,45.21616960888138,44.22131824086129,0.0
0.038,0.6587893147491686,-0.2887987315137536,0.22179016384677241,0.0,2.718226855622736,2.4461618413019606,44.983216480026734,44.22131824086129,0.0
0.039,0.6503798118284743,-0.28566934777667724,0.33064774588244106,0.0,2.7195559951309556,2.4425678069889982,44.04463823318243,44.22131824086129,0.0
0.04,0.6466552386452781,-0.2795888024479997,0.8017036693813802,0.0,2.7197552511082734,2.4905192738436255,44.80252083490629,44.22131824086129,0.0
0.041,0.6704977371597757,-0.2845445477800786,0.41695034257900176,0.0,2.7253356656131364,2.484002173858844,45.4749826415107,44.22131824086129,0.0
0.042,0.6726712515033749,-0.28562880219994763,0.06818279527030258,0.0,2.7297760392019015,2.444177266794443,44.40218843253463,44.22131824086129,0.0
0.043000000000000003,0.6532286518745732,-0.2736544880306568,0.6027711978416043,0.0,2.728461867622528,2.4732317086538926,44.13673547675091,44.22131824086129,0.0
0.044,0.6634229465556494,-0.27069017856411876,0.7363435033745692,0.0,2.729978226487411,2.5072805603411665,45.06073795297059,44.22131824086129,0.0
0.045,0.6823083199470623,-0.2782008441641003,0.26594806814363414,0.0,2.7356036509451966,2.483021493689225,44.7079843719474,44.22131824086129,0.0
0.046,0.6748063262016137,-0.2747504655337921,0.43745819734436997,0.0,2.7377859779866753,2.4863350177585595,43.82328201850586,44.22131824086129,0.0
0.047,0.6755203146462978,-0.2687742853578078,0.8837897362886942,0.0,2.7394585486978844,2.5367632314506072,44.93033154992493,44.22131824086129,0.0
0.048,0.7008553953442455,-0.2759350850788226,0.3231748374885217,0.0,2.746854133478249,2.5134052075947815,45.03310495728034,44.22131824086129,0.0
0.049,0.6947568565609245,-0.2739075988283918,0.2636702666466276,0.0,2.750879725910238,2.4931073808711126,43.995067803624295,44.22131824086129,0.0
0.05,0.6840475028808847,-0.262406945266062,0.7849513478470185,0.0,2.751228179397308,2.5342949042204435,44.62052115405602,44.22131824086129,0.0
0.051000000000000004,0.7020362771459002,-0.2640119821006496,0.4682326434992079,0.0,2.755952100458032,2.529260793587332,45.12458254858593,44.22131824086129,0.0
0.052000000000000005,0.7030674803940783,-0.26474356471126814,0.20716930315700866,0.0,2.759764642068195,2.49971916111479,43.94518273461131,44.22131824086129,0.0
0.053,0.6900310596997734,-0.25305106047347004,0.7996305652068181,0.0,2.7589482749778234,2.5427386365882776,44.399831935797025,44.22131824086129,0.0
0.054,0.7088953248924078,-0.2545379445945386,0.5705208276646023,0.0,2.762795974439533,2.5480424106771022,45.02927234602586,44.22131824086129,0.0
0.055,0.7155731645094549,-0.25797097248776185,0.24772108149853755,0.0,2.767152045590998,2.5194377828944226,43.826206525481226,44.22131824086129,0.0
0.056,0.7047213695127116,-0.2478992356612852,0.8532051089246567,0.0,2.7670698255192043,2.5652209413295024,44.34003561516331,44.22131824086129,0.0
0.057,0.7258052066783928,-0.2502244308218643,0.5951033903405948,0.0,2.771930632134027,2.5695437925571953,44.873595971221185,44.22131824086129,0.0
0.058,0.7323948168006164,-0.2539421996352307,0.32180043500805766,0.0,2.777123345828001,2.545924112681076,43.736296390689354,44.22131824086129,0.0
0.059000000000000004,0.7243693841963205,-0.24410662067299835,0.8953004437756926,0.0,2.778315728790986,2.5919523963674247,44.410398910211654,44.22131824086129,0.0
0.06,0.7457070292810544,-0.2474152286339985,0.5563583773210389,0.0,2.7844540044916393,2.5880510672983856,44.58974092934239,44.22131824086129,0.0
0.061,0.7481883597717969,-0.24917352807543608,0.4630031408708597,0.0,2.7897486465742722,2.578214473458208,43.549414446861796,44.22131824086129,0.0
0.062,0.7464150175163023,-0.24032898677375863,0.9898854200511519,0.0,2.792539682527025,2.629001487237657,44.604596187754495,44.22131824086129,0.0
0.063,0.7709716721690799,-0.24660385126156267,0.4584617701358702,0.0,2.800908996769122,2.608544513517592,44.137151688771894,44.22131824086129,0.0
0.064,0.7666905069321256,-0.24399539049184774,0.693025685148065,0.0,2.806046002885457,2.6228029304668303,43.79844728799662,44.22131824086129,0.0
0.065,0.7754149737189217,-0.2375879932436013,0.8666065950643469,0.0,2.8114164209954717,2.6518949642745304,44.71159286389854,44.22131824086129,0.0
0.066,0.790253442956282,-0.24299801965216092,0.4051310608830171,0.0,2.819818177552679,2.6245717317051103,43.782887552749365,44.22131824086129,0.0
0.067,0.7816665108093812,-0.2342588588606841,0.8738680233387228,0.0,2.823632027246076,2.6580897664888288,44.34775557681143,44.22131824086129,0.0
0.068,0.7970167345870242,-0.23321194296164766,0.5901696379481888,0.0,2.8303885263075257,2.650968796808987,44.25965759910504,44.22131824086129,0.0
0.069,0.7958196290548407,-0.23250591700603188,0.6338352332189463,0.0,2.8356900847987188,2.6531609571832813,43.584487451011476,44.22131824086129,0.0
0.07,0.7999322012516532,-0.2238604836951519,0.9777886151642262,0.0,2.839736766073581,2.6925979194335667,44.60384752710802,44.22131824086129,0.0
0.07100000000000001,0.8191330863341199,-0.23042716142827888,0.46428328425348553,0.0,2.848131264329739,2.6664997617295723,43.65798355144693,44.22131824086129,0.0
0.07200000000000001,0.8128382468239308,-0.22257326248685957,0.9428486189781744,0.0,2.852146901328994,2.702512550947361,44.35105946742354,44.22131824086129,0.0
0.073,0.8300751750967876,-0.2229308377747584,0.5950132487242484,0.0,2.859480125821185,2.6903190703630036,43.86312673595547,44.22131824086129,0.0
0.074,0.827790055655455,-0.22032628616888755,0.842561529507342,0.0,2.8645706033761975,2.7112106572962538,43.97762611639294,44.22131824086129,0.0
0.075,0.8408245163139673,-0.21561145991059386,0.7877487605332893,0.0,2.87074860649668,2.7205606040298558,44.30744015974007,44.22131824086129,0.0
0.076,0.8467772955947735,-0.21840327303660947,0.6219805196709378,0.0,2.8775980516849184,2.7113825164827228,43.452318327361944,44.22131824086129,0.0
0.077,0.8474045523552762,-0.20869900888882842,1.0572314349949932,0.0,2.8817493564121044,2.753332994852549,44.48123535155822,44.22131824086129,0.0
0.078,0.8672918141734522,-0.21466901807006755,0.5401737517898864,0.0,2.890434322154967,2.728093375319916,43.43456358742728,44.22131824086129,0.0
0.079,0.8622088397068477,-0.2061696506880466,1.0713771803896974,0.0,2.894732198866447,2.7706071681023703,44.37705043727495,44.22131824086129,0.0
0.08,0.8824236475972587,-0.20921715442906824,0.5985764335017228,0.0,2.903271886270356,2.7497047942214405,43.452484933225996,44.22131824086129,0.0
0.081,0.8784489549241108,-0.20277503034240285,1.068547518602554,0.0,2.9081282588588384,2.7888108175719157,44.31331088162845,44.22131824086129,0.0
0.082,0.8980398488397294,-0.20450375274117583,0.6372146179936539,0.0,2.9166641772282516,2.7701508006707556,43.421164693811946,44.22131824086129,0.0
0.083,0.8947060130984898,-0.19862536198566627,1.091289247372401,0.0,2.9218165918635135,2.809034546405095,44.30428053901428,44.22131824086129,0.0
0.084,0.9145194044439747,-0.2003096905764657,0.6489017017897045,0.0,2.9305861996612252,2.7891289713162286,43.34048400039057,44.22131824086129,0.0
0.085,0.9108365884170686,-0.1938083806822496,1.1396083135062673,0.0,2.935756301796009,2.831095760937083,44.353667601637305,44.22131824086129,0.0
0.08600000000000001,0.9318135179814007,-0.19650255104376413,0.6316930192751384,0.0,2.9449674445181078,2.806260842914395,43.184864896701654,44.22131824086129,0.0
0.08700000000000001,0.9265568107367378,-0.18836568308428625,1.2264589051845602,0.0,2.9498519839865702,2.8561219384510887,44.37905988326151,44.22131824086129,0.0
0.088,0.9503863006567939,-0.19341020883631954,0.6277839954806292,0.0,2.959870445574174,2.8270096684907817,43.124158348963256,44.22131824086129,0.0
0.089,0.9447182510576447,-0.18368329930935406,1.2662063615487373,0.0,2.964855428701501,2.878885461404902,44.33931314881976,44.22131824086129,0.0
0.09,0.9686446431035092,-0.189951888188579,0.6574490125408994,0.0,2.975316306679491,2.850036057667764,43.142318736437545,44.22131824086129,0.0
0.091,0.9639633359011119,-0.17922705246601212,1.2667362137762455,0.0,2.980603738667693,2.898981055440827,44.25518275955553,44.22131824086129,0.0
0.092,0.9860288749417071,-0.18571137526204612,0.70996555703031,0.0,2.991077451099172,2.873748630014509,43.210940779583424,44.22131824086129,0.0
0.093,0.9833193403713388,-0.17459166057927467,1.242190321629142,0.0,2.9966925379018052,2.9167179532404464,44.100412446040586,44.22131824086129,0.0
0.094,1.0024535744924217,-0.18067230191457734,0.7986635463487679,0.0,3.0068231160404806,2.8997097987982037,43.32948784658848,44.22131824086129,0.0
0.095,1.0036177763752132,-0.17020121838426167,1.1930441500175502,0.0,3.013027195319376,2.933295931904525,43.882614120298065,44.22131824086129,0.0
0.096,1.0188139173591215,-0.17533925221615643,0.9198680543683887,0.0,3.022639374537825,2.928490749580605,43.52545829138425,44.22131824086129,0.0
0.097,1.025467765261834,-0.16633092514787762,1.1054045683200684,0.0,3.029767521286208,2.947688119042641,43.54927733306624,44.22131824086129,0.0
0.098,1.0346665332022738,-0.1697411035782167,1.1002154565570206,0.0,3.038567793203976,2.9623070728054364,43.962307157958094,44.22131824086129,0.0
0.099,1.0492009653703116,-0.1645066607277953,0.8962906549401272,0.0,3.047340042808398,2.952457521464423,42.966711004995084,44.22131824086129,0.0
0.1,1.0481062558083285,-0.15964414847030678,1.4066348037802943,0.0,3.053767580398456,3.0029130169800387,44.11405722453721,44.22131824086129,0.0
0.101,1.0739759061332672,-0.16582243983431572,0.8340343041724706,0.0,3.065326150953686,2.9780196116264737,43.216817243623495,44.22131824086129,0.0
0.10200000000000001,1.0729830944185073,-0.1543428494779565,1.2926993046017072,0.0,3.071914986065197,3.013318464698955,43.643342111056214,44.22131824086129,0.0
0.10300000000000001,1.0885090687275536,-0.15944857303944027,1.085216632183399,0.0,3.0820512484681313,3.016618786713888,43.79876628167926,44.22131824086129,0.0
0.10400000000000001,1.0994803187755748,-0.15219703280080155,1.0117300664636977,0.0,3.0906551901704002,3.0135424295004483,42.913081178579205,44.22131824086129,0.0
0.105,1.100471337847476,-0.14862824860344753,1.4676549886365444,0.0,3.0977710511217773,3.06252140967736,43.98628843378678,44.22131824086129,0.0
0.106,1.126425892878784,-0.1548920601836219,0.9334016591035006,0.0,3.1097979311114994,3.0411418715986303,43.33869052066633,44.22131824086129,0.0
0.107,1.1276985179673416,-0.14349067513976782,1.266026892865675,0.0,3.1171673788237504,3.0651538411264867,43.250608061771295,44.22131824086129,0.0
0.108,1.1382197637731055,-0.14637622437259984,1.3197752241040936,0.0,3.126632502983613,3.088943011783638,43.98402298011705,44.22131824086129,0.0
0.109,1.1569596084225289,-0.14488066835718688,0.9554407175386606,0.0,3.1373366651391796,3.0687293283030987,43.04277111941881,44.22131824086129,0.0
0.11,1.1549970879198392,-0.13391147161237765,1.437852119102204,0.0,3.143757386649361,3.1087193043256067,43.368710960783424,44.22131824086129,0.0
0.111,1.1732189978205065,-0.13998095637004282,1.2834082712206751,0.0,3.1543123689015666,3.121515382320176,43.942724338074584,44.22131824086129,0.0
0.112,1.189313759374529,-0.1366709217313048,0.9991875216029625,0.0,3.16466666207017,3.1027793020894414,42.94305226941862,44.22131824086129,0.0
0.113,1.1869860013231452,-0.1260441894327829,1.5118062156453698,0.0,3.1709760776923908,3.1465995240406746,43.268786010155715,44.22131824086129,0.0
0.114,1.2072839048666006,-0.13300082488850312,1.3584646675838792,0.0,3.1819080711706267,3.1624188611615254,43.91202174001901,44.22131824086129,0.0
0.115,1.2253261798909247,-0.131292500427238,1.0399397676606559,0.0,3.1930713169678273,3.142463469189932,43.06851588175114,44.22131824086129,0.0
0.116,1.2237282180577727,-0.11962031839036685,1.4732207203856915,0.0,3.199855842208706,3.176822293346095,43.282364838960405,44.22131824086129,0.0
0.117,1.2376322691017525,-0.12734785013483263,1.3756857758000676,0.0,3.2103645476533726,3.1918166089458917,44.329974337514685,44.22131824086129,0.0
0.11800000000000001,1.2487181946614159,-0.13337488970048406,0.8507944655563936,0.0,3.221907513148329,3.1485192575481036,43.78763418742969,44.22131824086129,0.0
0.11900000000000001,1.2301261080283257,-0.12365400114587866,1.1263013811332077,0.0,3.226836878817349,3.148416600440715,43.61976056682861,44.22131824086129,0.0
0.12,1.2194360505042798,-0.12713691338575672,1.2162537681740737,0.0,3.231743371440661,3.1569468244910066,44.72052084776369,44.22131824086129,0.0
0.121,1.219426155215098,-0.13150172782911052,0.660881601637511,0.0,3.2374575376730395,3.1030184011157393,44.12158081194937,44.22131824086129,0.0
0.122,1.1930641444772614,-0.11937208247518083,0.9613489938337879,0.0,3.235829535811287,3.096559093736463,43.919710088246745,44.22131824086129,0.0
0.123,1.1779291452455933,-0.1217382478073255,1.0653004372112465,0.0,3.234099978037859,3.100414131566601,44.92662465079056,44.22131824086129,0.0
0.124,1.1756834677598798,-0.12560746652791716,0.5547900918400475,0.0,3.23333083223073,3.0466107319428883,44.13244815795874,44.22131824086129,0.0
0.125,1.1494670017201867,-0.1155953341205318,0.9527670390849812,0.0,3.226118234289926,3.049854679840999,44.19518110709221,44.22131824086129,0.0
0.126,1.140458322259953,-0.12223749261032413,0.9216619358559374,0.0,3.220782049690963,3.0453804324078018,44.947922279905434,44.22131824086129,0.0
0.127,1.1384254673592533,-0.12405703115561922,0.538025309058884,0.0,3.215665786463662,2.999064540587117,44.0128253507352,44.22131824086129,0.0
0.128,1.1150675909030487,-0.11920014050666,1.0076587025452628,0.0,3.205877107020184,3.014913689038419,44.64930828817257,44.22131824086129,0.0
0.129,1.1149081975441804,-0.12951015421383477,0.6851373333534643,0.0,3.199834880780462,2.9878093246591932,44.479138633910985,44.22131824086129,0.0
0.13,1.1052915579416336,-0.1266648229445383,0.7676439565537598,0.0,3.1912703541500957,2.9761683527605625,44.139239106782775,44.22131824086129,0.0
0.131,1.095213856957494,-0.13242306591368552,0.9384145114586501,0.0,3.183060043032204,2.9838071009085216,45.02630692040838,44.22131824086129,0.0
0.132,1.0983178670696576,-0.13908220078961986,0.4868307178503761,0.0,3.1771095602475565,2.9380368021617573,44.10354494772696,44.22131824086129,0.0
0.133,1.0779195359270302,-0.13477220867743295,0.94938943712243,0.0,3.166636405385598,2.953920638594024,44.80150581862721,44.22131824086129,0.0
0.134,1.0787858491433553,-0.1454681552067043,0.5946071258946439,0.0,3.1600186036924036,2.9232178567038685,44.3764482080508,44.22131824086129,0.0
0.135,1.0674733485901948,-0.1422568879338283,0.8055846315109536,0.0,3.150532105114204,2.922931959756493,44.472450253362105,44.22131824086129,0.0
