timestamp,iq,id,iq_ref,id_ref,vq,vd,omega,omega_ref,r
0.0,0.0,0.0,0.0,0.0,0.0,0.0,0.0,213.48986960916494,0.0
0.001,0.0,0.0,10.0,0.0,0.0,1.0999999999999999,6.115472199294103,213.48986960916494,0.0
0.002,0.5307369851907212,-0.2913212625381807,10.0,0.0,0.14204533887919985,1.9316189316290207,13.317801563642547,213.48986960916494,0.0
0.003,1.0842913387634832,-0.6024330830807904,10.0,0.0,0.384357124667687,2.6386968949419622,20.697939467553027,213.48986960916494,0.0
0.004,1.5590443546685477,-0.8700465084428163,10.0,0.0,0.6994718867930164,3.2526109522886295,28.232747544420146,213.48986960916494,0.0
0.005,1.9399447555359186,-1.0838738622210777,10.0,0.0,1.065311453102468,3.7994935661768023,35.92944872443006,213.48986960916494,0.0
0.006,2.239750732602683,-1.2510087368845633,10.0,0.0,1.4655018868449925,4.299102221838433,43.75633668444442,213.48986960916494,0.0
0.007,2.4770151619816017,-1.382020589851471,10.0,0.0,1.8883740978591532,4.765668027847139,51.58766747378032,213.48986960916494,0.0
0.008,2.6680767290418097,-1.4872241871505252,10.0,0.0,2.325877945545995,5.209220346273558,59.45942083902103,213.48986960916494,0.0
0.009000000000000001,2.8266491704841292,-1.5730794701170803,10.0,0.0,2.772378685460125,5.636635464737965,67.35059094018146,213.48986960916494,0.0
0.01,2.962077666392183,-1.645500646948331,10.0,0.0,3.224078639851053,6.052647735211881,75.20908322432116,213.48986960916494,0.0
0.011,3.0811061533574158,-1.7084279320504514,10.0,0.0,3.678407615443203,6.460489925470405,83.0265951655913,213.48986960916494,0.0
0.012,3.188848746459569,-1.7638278597420747,10.0,0.0,4.133552631697047,6.862319393890706,90.74118064793086,213.48986960916494,0.0
0.013000000000000001,3.288205119878689,-1.8140726097274587,10.0,0.0,4.588339016389012,7.259628641949282,98.35820682563939,213.48986960916494,0.0
0.014,3.3820602099432007,-1.8592355758795645,10.0,0.0,5.041843166194517,7.653355107498287,105.90865295623543,213.48986960916494,0.0
0.015,3.4721069852858886,-1.899829032412081,10.0,0.0,5.493383198131427,8.044092747085895,113.37727610343421,213.48986960916494,0.0
0.016,3.5596145800153947,-1.9360338400176071,10.0,0.0,5.94241958510469,8.43218525824161,120.68508583176356,213.48986960916494,0.0
0.017,3.645144415105338,-1.9685384477868613,10.0,0.0,6.388575043274759,8.817838951066484,127.83962377537456,213.48986960916494,0.0
0.018000000000000002,3.730251927866576,-1.9959253041084188,10.0,0.0,6.83136783302799,9.201036292373047,134.85405702603322,213.48986960916494,0.0
0.019,3.81544967906247,-2.018253592643655,10.0,0.0,7.270383321112213,9.581672501020332,141.68976328564074,213.48986960916494,0.0
0.02,3.9014648862453374,-2.0350875541282063,10.0,0.0,7.705189334130692,9.959536942333155,148.3432823300447,213.48986960916494,0.0
0.021,3.9891051824829464,-2.0457889559126508,10.0,0.0,8.135310004560049,10.334315260302239,154.92060212100432,213.48986960916494,0.0
0.022,4.079618141396171,-2.0489696811670974,10.0,0.0,8.560139305503519,10.705547790999272,161.01925282597162,213.48986960916494,0.0
0.023,4.171109372430197,-2.048468292080302,10.0,0.0,8.979521969370257,11.072981092896333,166.534238406907,213.48986960916494,0.0
0.024,4.266936196769627,-2.039517194249811,10.0,0.0,9.392730090169543,11.435983292623375,171.8647834235234,213.48986960916494,0.0
0.025,4.367255527950721,-2.0225841458509217,10.0,0.0,9.79914449451603,11.793929226271104,177.02637022703064,213.48986960916494,0.0
0.026000000000000002,4.4734353073349595,-1.9962166741499119,10.0,0.0,10.197980960389518,12.146045424568259,181.63161391243256,213.48986960916494,0.0
0.027,4.582366840795821,-1.966358349113627,10.0,0.0,10.589124658468391,12.491912978736195,185.74793639675826,213.48986960916494,0.0
0.028,4.700058850757774,-1.9240450691803936,10.0,0.0,10.971384864613876,12.830451341534015,189.43662766964098,213.48986960916494,0.0
0.029,4.820934284790598,-1.879137197786803,10.0,0.0,11.344756153370636,13.161242511022618,192.73598774770625,213.48986960916494,0.0
0.03,4.952016225740939,-1.821000614527957,10.0,0.0,11.707923484756042,13.483081433273819,195.59831968863915,213.48986960916494,0.0
0.031,5.086039273572549,-1.7621311371320891,10.0,0.0,12.061063698547066,13.79562148058647,197.80891551030922,213.48986960916494,0.0
0.032,5.230431844273564,-1.6911110488141978,10.0,0.0,12.40292038074925,14.097678592248165,200.4421589734679,213.48986960916494,0.0
0.033,5.380124186618445,-1.6166151787533525,10.0,0.0,12.733312761073865,14.38869342901298,201.91742172589852,213.48986960916494,0.0
0.034,5.537594793894332,-1.535029134414507,10.0,0.0,13.051537880865839,14.667821176756876,203.18880493813168,213.48986960916494,0.0
0.035,5.698947813469154,-1.4530296333491768,9.799451097289003,0.0,13.357649178779209,14.912624156326899,203.43839258887056,213.48986960916494,0.0
0.036000000000000004,5.8603196138459674,-1.3541486133391287,9.77517204212251,0.0,13.647572727667788,15.14675539284435,204.14693567031412,213.48986960916494,0.0
0.037,6.016967833162345,-1.2653398252800092,9.514329840789236,0.0,13.92313688883285,15.342398422882882,204.51016654680666,213.48986960916494,0.0
0.038,6.182427496047078,-1.140710314825537,9.422511433166552,0.0,14.177887778615867,15.521907882484756,198.51473349588466,213.48986960916494,0.0
0.039,6.325788183904743,-1.050920264040478,10.0,0.0,14.41648391489895,15.759268332497154,208.6997689117617,213.48986960916494,0.0
0.04,6.462788279824933,-1.052502020602562,7.473963032400654,0.0,14.656028376284647,15.699476995359705,214.99605632195298,213.48986960916494,0.0
0.041,6.428563997805043,-1.051007370326292,4.310757460177139,0.0,14.865459028722016,15.35206166678737,214.06557523331628,213.48986960916494,0.0
0.042,6.173683851512536,-1.0245367614407894,4.770240948253974,0.0,15.016308262583781,15.170200748998674,222.06103693148088,213.48986960916494,0.0
0.043000000000000003,5.940735495414492,-1.0237760864810563,0.6867984259485125,0.0,15.134067513123778,14.590912851748515,219.90581920129225,213.48986960916494,0.0
0.044,5.532001163730829,-0.9315982657394053,1.7002477951215589,0.0,15.171990095352772,14.27627481803368,223.85352812360762,213.48986960916494,0.0
0.045,5.188261770772014,-0.9133170187753881,-0.3772432511805537,0.0,15.17356745702876,13.791958327036898,223.29289934109002,213.48986960916494,0.0
0.046,4.810485677058878,-0.8517883529353201,-0.19495915724100588,0.0,15.119970092664708,13.435175358482626,224.98231393045646,213.48986960916494,0.0
0.047,4.476879003991392,-0.8419901866698694,-1.1545908951371393,0.0,15.035591656250835,13.0342475913397,224.7037415671341,213.48986960916494,0.0
0.048,4.154363800850221,-0.8225959581672546,-1.127443433055653,0.0,14.917522903291419,12.709697901092445,225.2564528064367,213.48986960916494,0.0
0.049,3.874114266108558,-0.8298113034989587,-1.521464884679669,0.0,14.779793686874736,12.3897847670647,225.16485142003387,213.48986960916494,0.0
0.05,3.6177261324632264,-0.8416284097020508,-1.5924140095869435,0.0,14.625073806925961,12.109626034928061,224.9439008635742,213.48986960916494,0.0
0.051000000000000004,3.39206090657928,-0.8635298296704979,-1.5964790439012084,0.0,14.46010102689291,11.864532818995503,224.5152041513333,213.48986960916494,0.0
0.052000000000000005,3.197123415714277,-0.8930554361676217,-1.4923840332024385,0.0,14.290145005784904,11.658129219909208,224.00770227828644,213.48986960916494,0.0
0.053,3.03350748899878,-0.9294890013108744,-1.343811423370222,0.0,14.120256662979854,11.486720792625356,223.43819931979812,213.48986960916494,0.0
0.054,2.8985909133430505,-0.9708695474967629,-1.15854324123239,0.0,13.954403836155938,11.347562811781193,222.81832435585363,213.48986960916494,0.0
0.055,2.7893736688345623,-1.0151222269065574,-0.9418903067270357,0.0,13.795674483203216,11.238379218452648,222.17952997898968,213.48986960916494,0.0
0.056,2.7031941522262084,-1.060370077120837,-0.7093897219933045,0.0,13.646434442942386,11.156037158519176,221.60652462976054,213.48986960916494,0.0
0.057,2.6374516495416316,-1.1044295405432198,-0.5040535975846936,0.0,13.50827826318861,11.093637148519795,221.0787656301613,213.48986960916494,0.0
0.058,2.587676876629907,-1.1446779002217167,-0.31606305799504275,0.0,13.381684425340685,11.047104919649195,220.6220291278035,213.48986960916494,0.0
0.059000000000000004,2.5505107826703224,-1.179047417998528,-0.15901640200252176,0.0,13.266474911749155,11.01155227925058,219.77531288698606,213.48986960916494,0.0
0.06,2.5204571532324462,-1.209687962734212,0.201487285627989,0.0,13.16225785022008,11.009053128910674,218.7879376074285,213.48986960916494,0.0
0.061,2.509998052337159,-1.237216043160115,0.6421942454241378,0.0,13.070934263209407,11.042104880957229,217.7953303898163,213.48986960916494,0.0
0.062,2.522053548062551,-1.2666456326259816,1.0954432464237116,0.0,12.995010184141444,11.106738724071302,216.5898983358496,213.48986960916494,0.0
0.063,2.558451171477157,-1.2931251796503034,1.6671589861402238,0.0,12.935760351569709,11.211789832707641,216.13910472695923,213.48986960916494,0.0
0.064,2.622860171994094,-1.318753132598387,1.8660634394074633,0.0,12.895494892472822,11.309852165862688,216.74805978786995,213.48986960916494,0.0
0.065,2.6931098715918895,-1.3327600042567649,1.5290040071650552,0.0,12.870346688954063,11.347932760762616,218.36269175707184,213.48986960916494,0.0
0.066,2.725647912534082,-1.3382512405613538,0.6729598010850388,0.0,12.851985332554099,11.286019519966635,214.31819544785478,213.48986960916494,0.0
0.067,2.7058652262153555,-1.2985887372681866,2.686924697306673,0.0,12.82485099998924,11.46105952415992,211.4713414777446,213.48986960916494,0.0
0.068,2.793495377348496,-1.287881734238127,4.130536963675964,0.0,12.81715295579982,11.744702651527955,214.3444127741293,213.48986960916494,0.0
0.069,2.966447243087435,-1.3149790202378848,2.6854558838339733,0.0,12.841676800256423,11.807668216573992,215.81833414449585,213.48986960916494,0.0
0.07,3.049854006371357,-1.309736673709298,1.9252105532973873,0.0,12.869197185793823,11.790168208696631,210.20357698500766,213.48986960916494,0.0
0.07100000000000001,3.076936429292109,-1.2511027967639923,4.7654520592830565,0.0,12.885818228991049,12.095054260236093,210.19178605252105,213.48986960916494,0.0
0.07200000000000001,3.253276915231839,-1.237576314595579,4.804328361092798,0.0,12.930364198753427,12.327861159856385,213.5911164617677,213.48986960916494,0.0
0.073,3.426171361234986,-1.2485205846256893,3.103650687943441,0.0,12.995075396026593,12.33712367522541,208.0714854344804,213.48986960916494,0.0
0.074,3.496289205824037,-1.1981670202921502,5.917650043333945,0.0,13.048593390332357,12.672493746164537,209.04598740902057,213.48986960916494,0.0
0.075,3.709290276463897,-1.177470729662621,5.474837878065301,0.0,13.128523535975543,12.880100338382373,210.87375150057377,213.48986960916494,0.0
0.076,3.88198201317802,-1.1768223622967002,4.58711701337461,0.0,13.221356968772238,12.964852032147299,204.71381833428302,213.48986960916494,0.0
0.077,4.007002306849632,-1.110180307160629,7.754844109268808,0.0,13.30605808527444,13.395713774073934,209.90513953444847,213.48986960916494,0.0
0.078,4.278081632514764,-1.1183499362078329,5.1950308099332485,0.0,13.426940344065645,13.450134196685827,203.79251413774742,213.48986960916494,0.0
0.079,4.411845859207018,-1.0636989225688072,8.348317062997948,0.0,13.535083111448154,13.871657152066629,208.52540447342932,213.48986960916494,0.0
0.08,4.691936864884335,-1.0569328774549596,6.031516546514354,0.0,13.67436614280436,13.945988800946175,202.18932067814998,213.48986960916494,0.0
0.081,4.8453504730968,-0.9930897780455976,9.31256393346417,0.0,13.80019895542901,14.396824218956104,207.11214757056538,213.48986960916494,0.0
0.082,5.144816309574878,-0.9974589919552627,6.914927707642466,0.0,13.959651073116344,14.487201811787157,201.98093456352302,213.48986960916494,0.0
0.083,5.329772402221695,-0.9165387549236962,9.595623561620066,0.0,14.103250820105472,14.88598925147322,203.6660621023883,213.48986960916494,0.0
0.084,5.60896879702851,-0.9182740808949288,8.85129786725519,0.0,14.27336942459146,15.121713094467403,204.92617352732182,213.48986960916494,0.0
0.085,5.869510834948951,-0.8600283654326404,8.306879115606865,0.0,14.44362417096769,15.272565947649905,203.16721318426784,213.48986960916494,0.0
0.08600000000000001,6.056974071971939,-0.8091473087546726,9.289585851382828,0.0,14.606924268944598,15.520885382910299,209.8942899744991,213.48986960916494,0.0
0.08700000000000001,6.190083373769336,-0.9177477250812073,5.96200325261386,0.0,14.79118115701256,15.37207434039252,215.48611907103663,213.48986960916494,0.0
0.088,6.1299794853597325,-0.9365198758661437,3.1461262097263747,0.0,14.943110184445015,14.988041962946411,214.70338469282444,213.48986960916494,0.0
0.089,5.859541728900892,-0.9226233847016814,3.5253582479958707,0.0,15.039726735853677,14.75662713495305,222.1669732740505,213.48986960916494,0.0
0.09,5.6135051046858875,-0.9165227548331758,-0.29320707926600864,0.0,15.10300804494825,14.158540589617457,218.7483855683287,213.48986960916494,0.0
0.091,5.195233790846773,-0.8406875448657848,1.363501614003249,0.0,15.091871701802077,13.890563917537264,222.71115500257102,213.48986960916494,0.0
0.092,4.886843016394074,-0.8391876507489081,-0.7100959570519709,0.0,15.055644689509311,13.433348730653115,221.76862197789572,213.48986960916494,0.0
0.093,4.542537121625156,-0.7973540314884384,-0.3216169684016288,0.0,14.972732160579936,13.116490766370248,223.18029545835137,213.48986960916494,0.0
0.094,4.2489134960582575,-0.8046678532892716,-1.124357967121317,0.0,14.867647944705897,12.759696585741732,223.04490802220303,213.48986960916494,0.0
0.095,3.966599460359361,-0.8045308959149494,-1.1522146331775303,0.0,14.737304528827234,12.461154885980886,223.42256827769924,213.48986960916494,0.0
0.096,3.7174380299342675,-0.8228422300492229,-1.4403717476109779,0.0,14.592156900888869,12.172598915670914,223.2717789375626,213.48986960916494,0.0
0.097,3.489373244729891,-0.844878268675963,-1.4627961708266346,0.0,14.434909289620933,11.92139417625694,223.01377551107296,213.48986960916494,0.0
0.098,3.2892729297277006,-0.8743527133746208,-1.4290335166008967,0.0,14.271287794068986,11.703253672652762,222.61616374114797,213.48986960916494,0.0
0.099,3.1168497135793087,-0.9097469764512432,-1.3214905729582305,0.0,14.10581302220325,11.519022717738538,222.1383063152344,213.48986960916494,0.0
0.1,2.971590279850247,-0.9498568616718789,-1.1690462270621333,0.0,13.942520776776174,11.366615135290028,221.60250807943845,213.48986960916494,0.0
0.101,2.8515072478859214,-0.9931246022385821,-0.9822734938668995,0.0,13.784675350257087,11.243896182914956,221.02163305991724,213.48986960916494,0.0
0.10200000000000001,2.754293740218559,-1.0379201665493907,-0.7671536186138148,0.0,13.634837405820916,11.148952697595135,220.49584946810518,213.48986960916494,0.0
0.10300000000000001,2.6780860066974217,-1.082287880381795,-0.5743216212971882,0.0,13.494921400174844,11.074990802926628,219.96778620686868,213.48986960916494,0.0
0.10400000000000001,2.618412588426681,-1.1240560193553844,-0.3750691566559774,0.0,13.365751623775296,11.020224946972306,219.52668108686007,213.48986960916494,0.0
0.105,2.573463619066582,-1.1608723172480966,-0.21488471142862142,0.0,13.247654350798735,10.97799411574896,218.97184214976897,213.48986960916494,0.0
0.106,2.5382467459594547,-1.1925752147056032,0.007715031710884279,0.0,13.14026287773889,10.954485133991543,218.09629145077773,213.48986960916494,0.0
0.107,2.514443647984979,-1.2206912577199311,0.3994261627903799,0.0,13.044035389566291,10.96571630213736,217.20956098592802,213.48986960916494,0.0
0.108,2.5109852297930746,-1.249080154994569,0.8055944814476019,0.0,12.9613953852956,11.007105403414197,216.0721855500335,213.48986960916494,0.0
0.109,2.529707091927854,-1.2755978975522528,1.3484590399861722,0.0,12.893791354288261,11.089651023372204,215.23309467154536,213.48986960916494,0.0
0.11,2.576514692464932,-1.3017641085581024,1.7505722286064436,0.0,12.843815394162526,11.191023865958798,214.86072257616792,213.48986960916494,0.0
0.111,2.640711119292483,-1.3249673672265077,1.9230497466251357,0.0,12.811265010651487,11.285619692424344,215.79485570639423,213.48986960916494,0.0
0.112,2.7087066285970662,-1.3340899089540015,1.4329333205396857,0.0,12.79220069514145,11.305025774087422,216.711874039864,213.48986960916494,0.0
0.113,2.7298482186843223,-1.3331273251217208,0.9422041094978102,0.0,12.776786309709891,11.26986014726288,212.6734775577334,213.48986960916494,0.0
0.114,2.7211971106627555,-1.2930756720193146,2.969566271077422,0.0,12.755000744136101,11.465749812245061,210.25729084374106,213.48986960916494,0.0
0.115,2.8234729363632276,-1.2842929075377207,4.209985415727834,0.0,12.754417114055954,11.744707586560127,213.54555376983092,213.48986960916494,0.0
0.116,2.996356547769785,-1.313078580082817,2.565297111076246,0.0,12.785041876040102,11.784396876479773,213.9445538880612,213.48986960916494,0.0
0.117,3.067470482383912,-1.3023648385977007,2.361250209172145,0.0,12.815106722528988,11.811087740749446,208.55363367070166,213.48986960916494,0.0
0.11800000000000001,3.114626470238618,-1.2469900185397216,5.106072677236545,0.0,12.838850078004427,12.137610924429291,210.00654016623238,213.48986960916494,0.0
0.11900000000000001,3.306016030854509,-1.2412951401844388,4.414452723900508,0.0,12.892798727881805,12.309748413951885,212.7452801983192,213.48986960916494,0.0
0.12,3.4524062280595844,-1.240925007357469,3.052528601965561,0.0,12.958582495896291,12.312982539544075,206.25324994379906,213.48986960916494,0.0
0.121,3.5153168156073233,-1.1772878042731556,6.370909925879285,0.0,13.011114908657541,12.695656553570153,208.71855186837828,213.48986960916494,0.0
0.122,3.746476883150634,-1.1685916479240939,5.18597214099754,0.0,13.096341276377723,12.856990936339333,209.01358471225444,213.48986960916494,0.0
0.123,3.9024004154567518,-1.161732102820226,5.083218568028567,0.0,13.188510857204866,12.9964210145476,203.33787943352772,213.48986960916494,0.0
0.124,4.054983482930616,-1.0960181147398593,8.022591109148301,0.0,13.278246544532323,13.440258656171556,209.25577675124717,213.48986960916494,0.0
0.125,4.33362160551533,-1.1205176973535542,5.105983378867753,0.0,13.406744521257732,13.469341163814219,202.5734087469894,213.48986960916494,0.0
0.126,4.464297210301137,-1.0525006795907816,8.556331989618393,0.0,13.517574083294836,13.905481707549946,207.70702561010728,213.48986960916494,0.0
0.127,4.744537482146802,-1.0537924754434111,6.047351998050029,0.0,13.661757011223214,13.969080194080613,201.38127283640557,213.48986960916494,0.0
0.128,4.898020354225082,-0.9805364857088565,9.331314352628478,0.0,13.78981041818249,14.412982070460219,205.9442064401116,213.48986960916494,0.0
0.129,5.189668824540884,-0.9875695366444377,7.125304182465997,0.0,13.950954867584066,14.519251854620176,201.65951745016125,213.48986960916494,0.0
0.13,5.384602597163282,-0.9036007989303119,9.38595219903121,0.0,14.097304958803567,14.883214258542786,201.86960454440887,213.48986960916494,0.0
0.131,5.647749831652411,-0.900559374623181,9.397111302554958,0.0,14.265921411996736,15.177039594349466,204.16761139039704,213.48986960916494,0.0
0.132,5.9290356450236805,-0.860042530281087,8.341330461748552,0.0,14.442632314816692,15.313786591244899,204.27169473546653,213.48986960916494,0.0
0.133,6.1054767448242515,-0.8296197995154146,8.381470537950795,0.0,14.612405495103399,15.452907532678747,209.12036185338184,213.48986960916494,0.0
0.134,6.170269858132073,-0.9319421952403157,6.00083205655097,0.0,14.790673142342218,15.327459232816032,217.45553873413795,213.48986960916494,0.0
0.135,6.096754434853623,-0.9562454416284065,1.7935869249231855,0.0,14.940219328016322,14.80212657569211,214.45313371265743,213.48986960916494,0.0
0.136,5.757951889796004,-0.9000793259023634,3.285156794628517,0.0,15.015856324216877,14.586960065555413,221.44226769949603,213.48986960916494,0.0
0.137,5.488548204763243,-0.9045279667752055,-0.28893417969409185,0.0,15.063463981436982,14.019054580082926,218.7162805188745,213.48986960916494,0.0
0.138,5.091299375794103,-0.821926852411899,1.0217953015195778,0.0,15.04038971539913,13.733624895892707,221.7297780133865,213.48986960916494,0.0
