timestamp,iq,id,iq_ref,id_ref,vq,vd,omega,omega_ref,r
0.0,0.0,0.0,0.0,0.0,0.0,0.0,0.0,498.2659603716304,0.0
0.001,0.0,0.0,10.0,0.0,0.0,1.0999999999999999,6.115472199294103,498.2659603716304,0.0
0.002,0.5307369851907212,-0.2913212625381807,10.0,0.0,0.14204533887919985,1.9316189316290207,13.317801563642547,498.2659603716304,0.0
0.003,1.0842913387634832,-0.6024330830807904,10.0,0.0,0.384357124667687,2.6386968949419622,20.697939467553027,498.2659603716304,0.0
0.004,1.5590443546685477,-0.8700465084428163,10.0,0.0,0.6994718867930164,3.2526109522886295,28.232747544420146,498.2659603716304,0.0
0.005,1.9399447555359186,-1.0838738622210777,10.0,0.0,1.065311453102468,3.7994935661768023,35.92944872443006,498.2659603716304,0.0
0.006,2.239750732602683,-1.2510087368845633,10.0,0.0,1.4655018868449925,4.299102221838433,43.75633668444442,498.2659603716304,0.0
0.007,2.4770151619816017,-1.382020589851471,10.0,0.0,1.8883740978591532,4.765668027847139,51.58766747378032,498.2659603716304,0.0
0.008,2.6680767290418097,-1.4872241871505252,10.0,0.0,2.325877945545995,5.209220346273558,59.45942083902103,498.2659603716304,0.0
0.009000000000000001,2.8266491704841292,-1.5730794701170803,10.0,0.0,2.772378685460125,5.636635464737965,67.35059094018146,498.2659603716304,0.0
0.01,2.962077666392183,-1.645500646948331,10.0,0.0,3.224078639851053,6.052647735211881,75.20908322432116,498.2659603716304,0.0
0.011,3.0811061533574158,-1.7084279320504514,10.0,0.0,3.678407615443203,6.460489925470405,83.0265951655913,498.2659603716304,0.0
0.012,3.188848746459569,-1.7638278597420747,10.0,0.0,4.133552631697047,6.862319393890706,90.74118064793086,498.2659603716304,0.0
0.013000000000000001,3.288205119878689,-1.8140726097274587,10.0,0.0,4.588339016389012,7.259628641949282,98.35820682563939,498.2659603716304,0.0
0.014,3.3820602099432007,-1.8592355758795645,10.0,0.0,5.041843166194517,7.653355107498287,105.90865295623543,498.2659603716304,0.0
0.015,3.4721069852858886,-1.899829032412081,10.0,0.0,5.493383198131427,8.044092747085895,113.37727610343421,498.2659603716304,0.0
0.016,3.5596145800153947,-1.9360338400176071,10.0,0.0,5.94241958510469,8.43218525824161,120.68508583176356,498.2659603716304,0.0
0.017,3.645144415105338,-1.9685384477868613,10.0,0.0,6.388575043274759,8.817838951066484,127.83962377537456,498.2659603716304,0.0
0.018000000000000002,3.730251927866576,-1.9959253041084188,10.0,0.0,6.83136783302799,9.201036292373047,134.85405702603322,498.2659603716304,0.0
0.019,3.81544967906247,-2.018253592643655,10.0,0.0,7.270383321112213,9.581672501020332,141.68976328564074,498.2659603716304,0.0
0.02,3.9014648862453374,-2.0350875541282063,10.0,0.0,7.705189334130692,9.959536942333155,148.3432823300447,498.2659603716304,0.0
0.021,3.9891051824829464,-2.0457889559126508,10.0,0.0,8.135310004560049,10.334315260302239,154.92060212100432,498.2659603716304,0.0
0.022,4.079618141396171,-2.0489696811670974,10.0,0.0,8.560139305503519,10.705547790999272,161.01925282597162,498.2659603716304,0.0
0.023,4.171109372430197,-2.048468292080302,10.0,0.0,8.979521969370257,11.072981092896333,166.534238406907,498.2659603716304,0.0
0.024,4.266936196769627,-2.039517194249811,10.0,0.0,9.392730090169543,11.435983292623375,171.8647834235234,498.2659603716304,0.0
0.025,4.367255527950721,-2.0225841458509217,10.0,0.0,9.79914449451603,11.793929226271104,177.02637022703064,498.2659603716304,0.0
0.026000000000000002,4.4734353073349595,-1.9962166741499119,10.0,0.0,10.197980960389518,12.146045424568259,181.63161391243256,498.2659603716304,0.0
0.027,4.582366840795821,-1.966358349113627,10.0,0.0,10.589124658468391,12.491912978736195,185.74793639675826,498.2659603716304,0.0
0.028,4.700058850757774,-1.9240450691803936,10.0,0.0,10.971384864613876,12.830451341534015,189.43662766964098,498.2659603716304,0.0
0.029,4.820934284790598,-1.879137197786803,10.0,0.0,11.344756153370636,13.161242511022618,192.73598774770625,498.2659603716304,0.0
0.03,4.952016225740939,-1.821000614527957,10.0,0.0,11.707923484756042,13.483081433273819,195.59831968863915,498.2659603716304,0.0
0.031,5.086039273572549,-1.7621311371320891,10.0,0.0,12.061063698547066,13.79562148058647,197.80891551030922,498.2659603716304,0.0
0.032,5.230431844273564,-1.6911110488141978,10.0,0.0,12.40292038074925,14.097678592248165,200.4421589734679,498.2659603716304,0.0
0.033,5.380124186618445,-1.6166151787533525,10.0,0.0,12.733312761073865,14.38869342901298,201.91742172589852,498.2659603716304,0.0
0.034,5.537594793894332,-1.535029134414507,10.0,0.0,13.051537880865839,14.667821176756876,203.18880493813168,498.2659603716304,0.0
0.035,5.698947813469154,-1.4530296333491768,10.0,0.0,13.357649178779205,14.934684535625108,203.60405746232266,498.2659603716304,0.0
0.036000000000000004,5.870474243492053,-1.3603000477825025,10.0,0.0,13.65045542338638,15.188218311291084,204.28541056101804,498.2659603716304,0.0
0.037,6.041188711220851,-1.275010780747051,10.0,0.0,13.930879897581198,15.42861600670124,205.2233356988433,498.2659603716304,0.0
0.038,6.228175208801664,-1.168399557236846,10.0,0.0,14.196427351981786,15.654155009933262,200.35169734043586,498.2659603716304,0.0
0.039,6.404895489618571,-1.0845312562500289,10.0,0.0,14.449814560392067,15.86612549236809,209.64773540576442,498.2659603716304,0.0
0.04,6.534612624563911,-1.0851225869390002,10.0,0.0,14.699963825590459,16.069735965364643,218.170241886545,498.2659603716304,0.0
0.041,6.621487035821765,-1.1484636683301073,10.0,0.0,14.952420817214799,16.26974130369247,220.68166573712315,498.2659603716304,0.0
0.042,6.6704785161669795,-1.2647840534085386,10.0,0.0,15.211794475054209,16.47047148862455,233.10654395573727,498.2659603716304,0.0
0.043000000000000003,6.709376245503157,-1.3867642159960276,10.0,0.0,15.477558399636717,16.673277185423842,235.10815372853793,498.2659603716304,0.0
0.044,6.744196093263161,-1.5028656568708394,10.0,0.0,15.74857785831126,16.87893749904121,248.8181267625822,498.2659603716304,0.0
0.045,6.750563942850831,-1.6564343609015326,10.0,0.0,16.02879294551472,17.090781462187255,251.61117095327992,498.2659603716304,0.0
0.046,6.764566527560506,-1.7840489455190416,10.0,0.0,16.314672837580048,17.307985931916857,266.60539535969383,498.2659603716304,0.0
0.047,6.752169677737121,-1.9446655565152717,10.0,0.0,16.610076868775216,17.533561623207692,270.0627790167984,498.2659603716304,0.0
0.048,6.7291903821171735,-2.110358990489937,10.0,0.0,16.91511817760721,17.768523902508925,283.13731951482634,498.2659603716304,0.0
0.049,6.714097190323873,-2.246352557911731,10.0,0.0,17.22645394156277,18.011924542904307,294.70561782835244,498.2659603716304,0.0
0.05,6.666841209228205,-2.4219663531358275,10.0,0.0,17.548953774962747,18.267165921658286,300.1294548425776,498.2659603716304,0.0
0.051000000000000004,6.612335516543512,-2.59336894353628,10.0,0.0,17.88182590988993,18.53465621226123,310.75154600411304,498.2659603716304,0.0
0.052000000000000005,6.568447424188529,-2.726701034625408,10.0,0.0,18.22111236450049,18.81296732052879,322.35703405819294,498.2659603716304,0.0
0.053,6.5036136539679195,-2.8764091099274185,10.0,0.0,18.569435851849082,19.104068797231378,330.9557012510771,498.2659603716304,0.0
0.054,6.434362099984388,-3.0149932598739144,10.0,0.0,18.925784313874168,19.407861808234543,339.4707232587175,498.2659603716304,0.0
0.055,6.370891759459199,-3.1253006473392393,10.0,0.0,19.28762520191878,19.723199586257838,348.00092263299223,498.2659603716304,0.0
0.056,6.314459991163816,-3.2071523724558277,10.0,0.0,19.65271639484943,20.048760466390505,356.29964302226927,498.2659603716304,0.0
0.057,6.266092078485367,-3.262894600420583,10.0,0.0,20.01916768432525,20.383030530514645,362.98468703488817,498.2659603716304,0.0
0.058,6.234656406121481,-3.2830044001420036,10.0,0.0,20.38405550695561,20.723492962007192,368.0316803659419,498.2659603716304,0.0
0.059000000000000004,6.228510489334133,-3.2600491726267444,10.0,0.0,20.743774617448285,21.0667596267365,372.35801287012686,498.2659603716304,0.0
0.06,6.247959954981508,-3.201438289803519,10.0,0.0,21.095630838529225,21.40947063565305,373.88739853789605,498.2659603716304,0.0
0.061,6.298571070969623,-3.1064761741463998,10.0,0.0,21.436712814499675,21.747723437683817,371.47602194372377,498.2659603716304,0.0
0.062,6.38094735961424,-2.982369480030801,10.0,0.0,21.76480975788002,22.077703876517536,366.2922057853833,498.2659603716304,0.0
0.063,6.53566146196873,-2.7695519558602215,10.0,0.0,22.070926190088084,22.39130117743337,372.07145994459506,498.2659603716304,0.0
0.064,6.708566607552835,-2.560747003310555,10.0,0.0,22.35695033962817,22.686677966487718,365.1882535794375,498.2659603716304,0.0
0.065,6.897199383751794,-2.3667028673086685,10.0,0.0,22.62465294768497,22.962098937664592,356.7297130485294,498.2659603716304,0.0
0.066,7.167218997264825,-2.0824440278168583,10.0,0.0,22.863799361069702,23.20893224280502,357.7888817172531,498.2659603716304,0.0
0.067,7.423387055578651,-1.859201647307153,10.0,0.0,23.082000390168847,23.42951856849048,345.1266644280509,498.2659603716304,0.0
0.068,7.736929428236853,-1.5824320316278497,10.0,0.0,23.27222771500701,23.617938384108047,342.9584987314189,498.2659603716304,0.0
0.069,8.04132723792414,-1.3546495884062866,10.0,0.0,23.43998591632552,23.77619061530866,334.2677598047511,498.2659603716304,0.0
0.07,8.395997401416553,-1.0747195592463576,10.0,0.0,23.578279041856877,23.89942370363377,322.7417355360636,498.2659603716304,0.0
0.07100000000000001,8.726669482066718,-0.8579631993863083,10.0,0.0,23.694022264374595,23.99133556844291,337.9106389559309,498.2659603716304,0.0
0.07200000000000001,8.91385728821635,-0.8925675486457335,10.0,0.0,23.81335639313859,24.06834663115294,344.8606079910171,498.2659603716304,0.0
0.073,8.941721008651788,-1.1508071676799903,10.0,0.0,23.95651852989837,24.148396869281978,362.43451347602996,498.2659603716304,0.0
0.074,8.927907180207171,-1.4305443375681337,10.0,0.0,24.121558169292424,24.236556455607346,368.59250641149885,498.2659603716304,0.0
0.075,8.859340450140312,-1.7499202918046703,10.0,0.0,24.31124378664675,24.33980824926249,387.10067316750514,498.2659603716304,0.0
0.076,8.767176841935807,-2.0562826706616475,10.0,0.0,24.52279212376306,24.461155754889383,396.7190369145668,498.2659603716304,0.0
0.077,8.62162972262067,-2.4016532593838043,10.0,0.0,24.76024751870129,24.606611890707832,408.83095327273656,498.2659603716304,0.0
0.078,8.47560200325128,-2.694417929744825,10.0,0.0,25.017253395580042,24.77587553037574,428.2762610097064,498.2659603716304,0.0
0.079,8.289593068490031,-3.001970310780605,10.0,0.0,25.296388163948027,24.972914099394785,438.0404594767293,498.2659603716304,0.0
0.08,8.078425759776728,-3.30171273584331,10.0,0.0,25.597209455327665,25.19953060295957,447.87571303424875,498.2659603716304,0.0
0.081,7.882675762310951,-3.525181384717318,10.0,0.0,25.912194395051316,25.45298841193994,460.26934286159303,498.2659603716304,0.0
0.082,7.687097883672571,-3.703693402600396,10.0,0.0,26.238428257179056,25.732155000670204,470.03446400235384,498.2659603716304,0.0
0.083,7.512516260295773,-3.813976142857688,10.0,0.0,26.570301373216505,26.033276516525277,477.918982155292,498.2659603716304,0.0
0.084,7.3689562950047955,-3.855399170081403,10.0,0.0,26.902553034827754,26.351518972346824,478.5439455783908,498.2659603716304,0.0
0.085,7.275652065733423,-3.8162994175680955,10.0,0.0,27.228688572811343,26.679990214314294,473.55535348460853,498.2659603716304,0.0
0.08600000000000001,7.267766248696914,-3.6603820503219797,10.0,0.0,27.538297768321378,27.00816228346467,474.1807480051759,498.2659603716304,0.0
0.08700000000000001,7.3464323522243,-3.4076290670194203,10.0,0.0,27.823519596704617,27.32574593569263,475.7079540819185,498.2659603716304,0.0
0.088,7.480709249017063,-3.1292177565686656,10.0,0.0,28.08387989315578,27.6261096079242,459.5304728259807,498.2659603716304,0.0
0.089,7.695613562209921,-2.801501191801076,10.0,0.0,28.314975818165053,27.900176237094435,448.5636800468391,498.2659603716304,0.0
0.09,8.020201174839713,-2.3826535389658305,10.0,0.0,28.50757273742622,28.13639020159123,445.48610120291113,498.2659603716304,0.0
0.091,8.354868291359303,-2.0325776833111755,10.0,0.0,28.670211493617295,28.3346749548736,425.5547717088185,498.2659603716304,0.0
0.092,8.785028497986112,-1.6118087441171771,10.0,0.0,28.79363102476271,28.4854241568831,418.1571209188704,498.2659603716304,0.0
0.093,9.213939198463112,-1.2630473015486263,10.0,0.0,28.885627453703925,28.59056181681997,404.39055654859436,498.2659603716304,0.0
0.094,9.710582044615853,-0.8630683077983461,10.0,0.0,28.938427930857845,28.644043747585243,399.8028636561218,498.2659603716304,0.0
0.095,10.09778552966185,-0.6891582118156743,10.0,0.0,28.976166232752334,28.65983157809586,422.487643054602,498.2659603716304,0.0
0.096,10.19655033502452,-0.9613560624343314,10.0,0.0,29.04339035203631,28.67082236200544,431.03532474074945,498.2659603716304,0.0
0.097,10.169180884367012,-1.3604820806818894,10.0,0.0,29.146173021283875,28.69143476707839,450.5677013529273,498.2659603716304,0.0
0.098,10.043142481850674,-1.8334632082393423,10.0,0.0,29.288775327962842,28.733854728339033,463.78246626216827,498.2659603716304,0.0
0.099,9.878032929363341,-2.2746707669262736,10.0,0.0,29.465162420279952,28.80319459088995,486.89045707977465,498.2659603716304,0.0
0.1,9.638548632068545,-2.744249331321392,10.0,0.0,29.678086356117042,28.907931353595053,498.1870236304396,498.2659603716304,0.0
0.101,9.362300066926588,-3.180663592451265,7.3957513228848875,0.0,29.92350135772126,28.765011978323354,511.45808441946764,498.2659603716304,0.0
0.10200000000000001,8.92491635443934,-3.4956771607789845,0.6282996878925093,0.0,30.160370271542657,27.98789857038341,520.1005461836381,498.2659603716304,0.0
0.10300000000000001,8.121969566024339,-3.5543686344709573,-3.9112770523128138,0.0,30.299146879610735,26.96445477914771,520.9240393987899,498.2659603716304,0.0
0.10400000000000001,7.124201915105527,-3.377457032664959,-4.549604450160286,0.0,30.301654256812878,26.13413775519815,516.8361388099128,498.2659603716304,0.0
0.105,6.2154872216156125,-3.1071750603332333,-2.6913559401045504,0.0,30.192917292961404,25.68787472122306,509.59498914633195,498.2659603716304,0.0
0.106,5.596928908800317,-2.837484341505018,0.8159286039388416,0.0,30.023464562749798,25.701537376479333,501.4773224548175,498.2659603716304,0.0
0.107,5.366445650925507,-2.625976690561001,4.842648328864192,0.0,29.8517544366694,26.12392239272825,492.13175921083064,498.2659603716304,0.0
0.108,5.519258974750995,-2.4855455518425327,9.576771962465628,0.0,29.726121476072358,26.94826999899159,488.83662201711434,498.2659603716304,0.0
0.109,6.050573474170539,-2.3995150839434745,10.0,0.0,29.687427532079642,27.619916934663763,489.4592718319333,498.2659603716304,0.0
0.11,6.642972815023354,-2.304458969698815,10.0,0.0,29.710171808165484,28.156446719494483,469.07170831070545,498.2659603716304,0.0
0.111,7.245163077580758,-2.1210316881344315,10.0,0.0,29.765068195296188,28.581281017977933,459.9699391440397,498.2659603716304,0.0
0.112,7.870233708729495,-1.8136744863190417,10.0,0.0,29.824983354178105,28.906385658525323,447.42358406594957,498.2659603716304,0.0
0.113,8.434698659455078,-1.5417043435097968,10.0,0.0,29.884574317535716,29.149130912637844,433.7722213794897,498.2659603716304,0.0
0.114,9.045705259358606,-1.163227472259666,10.0,0.0,29.92356795555939,29.311994661192728,416.76219925897163,498.2659603716304,0.0
0.115,9.60581782771465,-0.8502682163520308,10.0,0.0,29.944307855198847,29.406969082174363,419.0152726189344,498.2659603716304,0.0
0.116,10.172601303498933,-0.5233006483758746,10.0,0.0,29.939634367054225,29.437774994369075,425.6418401962938,498.2659603716304,0.0
0.117,10.331059645227562,-0.821426378831541,10.0,0.0,29.974572324973423,29.453270383697554,446.4364443163901,498.2659603716304,0.0
0.11800000000000001,10.331918442918122,-1.2706924530230923,10.0,0.0,30.05400403689006,29.472200145556414,459.07861024444,498.2659603716304,0.0
0.11900000000000001,10.254364691873175,-1.728716081666315,10.0,0.0,30.173275492209765,29.50571960301292,479.8176166958315,498.2659603716304,0.0
0.12,10.06752905316301,-2.2515601046510465,10.0,0.0,30.336904353985023,29.5675906430034,493.79514362335215,498.2659603716304,0.0
0.121,9.840114612808865,-2.7271178299509495,9.442259320466144,0.0,30.537440343134953,29.601433222475485,515.9836480142048,498.2659603716304,0.0
0.122,9.51892970345571,-3.1844572551058836,-1.8291697513859493,0.0,30.766858750831133,28.45072154743227,519.7164520609682,498.2659603716304,0.0
0.123,8.57931510874953,-3.2798700438476205,-3.9100766916610086,0.0,30.86418616276344,27.421983164275424,522.8254794374626,498.2659603716304,0.0
0.124,7.522613593010801,-3.2047987469280583,-5.710185570566528,0.0,30.83969502463824,26.43548947413482,522.3119641603208,498.2659603716304,0.0
0.125,6.495978372174668,-3.018094191136366,-5.693887969882543,0.0,30.69921684314362,25.66735272319464,517.3376356010247,498.2659603716304,0.0
0.126,5.650618651187893,-2.78111753832935,-3.397440442528401,0.0,30.471772418453593,25.297151298301323,509.51540112959566,498.2659603716304,0.0
0.127,5.12616245799777,-2.5645594449776636,0.4011823856064449,0.0,30.208600670002614,25.38534619329067,501.00697425282794,498.2659603716304,0.0
0.128,4.993977283689813,-2.4074449582168747,4.627985685178327,0.0,29.96544857328549,25.87466236584951,491.50302192211336,498.2659603716304,0.0
0.129,5.234234713972161,-2.3196513199680338,9.447591235030789,0.0,29.787457148156207,26.750870119894678,487.81278310354537,498.2659603716304,0.0
0.13,5.837167934105124,-2.2767712024218674,10.0,0.0,29.711046764396784,27.470306784758677,488.7409095579697,498.2659603716304,0.0
0.131,6.489453334763588,-2.216530997396061,10.0,0.0,29.708023464122313,28.038912595239548,468.5380892741067,498.2659603716304,0.0
0.132,7.132488507205983,-2.0643862865630096,10.0,0.0,29.74602955878202,28.486144479682796,459.02591864461664,498.2659603716304,0.0
0.133,7.787920394432411,-1.776806209174728,10.0,0.0,29.794845871015674,28.826786629277212,447.16901259406023,498.2659603716304,0.0
0.134,8.372468897171956,-1.519394138893468,10.0,0.0,29.847405240028362,29.080500178706476,433.00120983856084,498.2659603716304,0.0
0.135,8.996290245196771,-1.1516283149315467,10.0,0.0,29.882199907149722,29.25132344683874,416.443156236367,498.2659603716304,0.0
0.136,9.564270603545946,-0.8466182199770681,10.0,0.0,29.900723982166785,29.35230422893175,416.4829642607677,498.2659603716304,0.0
0.137,10.141635193735286,-0.5153934944959808,10.0,0.0,29.894109109038062,29.387209038979833,424.67748599714923,498.2659603716304,0.0
0.138,10.307841751578216,-0.8115239785508357,10.0,0.0,29.92753280472787,29.405452805249404,446.3703365428787,498.2659603716304,0.0
0.139,10.315809823466465,-1.2569609402676925,10.0,0.0,30.005475268423957,29.426000142131716,457.7183686519243,498.2659603716304,0.0
0.14,10.241673166071012,-1.7156183264746496,10.0,0.0,30.123676162304267,29.460521704727793,478.88752214039755,498.2659603716304,0.0
0.14100000000000001,10.05912178248437,-2.2367260404302325,10.0,0.0,30.2862443977292,29.522750486072862,492.5470901914033,498.2659603716304,0.0
0.14200000000000002,9.834905105839756,-2.7117815568042465,9.728822524070857,0.0,30.485823717407726,29.58802201106877,515.1474950768495,498.2659603716304,0.0
0.14300000000000002,9.531884954040445,-3.1761896068980446,-1.740195265704438,0.0,30.718306587964577,28.438934183348415,518.7837496645266,498.2659603716304,0.0
0.14400000000000002,8.598933766243581,-3.276274309688414,-3.763500452471929,0.0,30.818997625499698,27.41972446194878,522.0163197023215,498.2659603716304,0.0
0.145,7.548649083487007,-3.206258358898334,-5.617289064676326,0.0,30.79899598552655,26.435022924193053,521.6964550286144,498.2659603716304,0.0
0.146,6.523240276446837,-3.023971371389817,-5.691661674392608,0.0,30.663172946657095,25.659440397215697,516.9498653307438,498.2659603716304,0.0
0.147,5.671697989136526,-2.79008526491714,-3.505205875048441,0.0,30.43946935713993,25.272503246607876,509.0567658264009,498.2659603716304,0.0
0.148,5.135877658827872,-2.570557909970017,0.3334358225753036,0.0,30.17763326353426,25.35270029431516,500.70108116525483,498.2659603716304,0.0
