timestamp,iq,id,iq_ref,id_ref,vq,vd,omega,omega_ref,r
0.0,0.0,0.0,0.0,0.0,0.0,0.0,0.0,482.0972362663388,0.0
0.001,0.0,0.0,10.0,0.0,0.0,1.0999999999999999,6.115472199294103,482.0972362663388,0.0
0.002,0.5307369851907212,-0.2913212625381807,10.0,0.0,0.14204533887919985,1.9316189316290207,13.317801563642547,482.0972362663388,0.0
0.003,1.0842913387634832,-0.6024330830807904,10.0,0.0,0.384357124667687,2.6386968949419622,20.697939467553027,482.0972362663388,0.0
0.004,1.5590443546685477,-0.8700465084428163,10.0,0.0,0.6994718867930164,3.2526109522886295,28.232747544420146,482.0972362663388,0.0
0.005,1.9399447555359186,-1.0838738622210777,10.0,0.0,1.065311453102468,3.7994935661768023,35.92944872443006,482.0972362663388,0.0
0.006,2.239750732602683,-1.2510087368845633,10.0,0.0,1.4655018868449925,4.299102221838433,43.75633668444442,482.0972362663388,0.0
0.007,2.4770151619816017,-1.382020589851471,10.0,0.0,1.8883740978591532,4.765668027847139,51.58766747378032,482.0972362663388,0.0
0.008,2.6680767290418097,-1.4872241871505252,10.0,0.0,2.325877945545995,5.209220346273558,59.45942083902103,482.0972362663388,0.0
0.009000000000000001,2.8266491704841292,-1.5730794701170803,10.0,0.0,2.772378685460125,5.636635464737965,67.35059094018146,482.0972362663388,0.0
0.01,2.962077666392183,-1.645500646948331,10.0,0.0,3.224078639851053,6.052647735211881,75.20908322432116,482.0972362663388,0.0
0.011,3.0811061533574158,-1.7084279320504514,10.0,0.0,3.678407615443203,6.460489925470405,83.0265951655913,482.0972362663388,0.0
0.012,3.188848746459569,-1.7638278597420747,10.0,0.0,4.133552631697047,6.862319393890706,90.74118064793086,482.0972362663388,0.0
0.013000000000000001,3.288205119878689,-1.8140726097274587,10.0,0.0,4.588339016389012,7.259628641949282,98.35820682563939,482.0972362663388,0.0
0.014,3.3820602099432007,-1.8592355758795645,10.0,0.0,5.041843166194517,7.653355107498287,105.90865295623543,482.0972362663388,0.0
0.015,3.4721069852858886,-1.899829032412081,10.0,0.0,5.493383198131427,8.044092747085895,113.37727610343421,482.0972362663388,0.0
0.016,3.5596145800153947,-1.9360338400176071,10.0,0.0,5.94241958510469,8.43218525824161,120.68508583176356,482.0972362663388,0.0
0.017,3.645144415105338,-1.9685384477868613,10.0,0.0,6.388575043274759,8.817838951066484,127.83962377537456,482.0972362663388,0.0
0.018000000000000002,3.730251927866576,-1.9959253041084188,10.0,0.0,6.83136783302799,9.201036292373047,134.85405702603322,482.0972362663388,0.0
0.019,3.81544967906247,-2.018253592643655,10.0,0.0,7.270383321112213,9.581672501020332,141.68976328564074,482.0972362663388,0.0
0.02,3.9014648862453374,-2.0350875541282063,10.0,0.0,7.705189334130692,9.959536942333155,148.3432823300447,482.0972362663388,0.0
0.021,3.9891051824829464,-2.0457889559126508,10.0,0.0,8.135310004560049,10.334315260302239,154.92060212100432,482.0972362663388,0.0
0.022,4.079618141396171,-2.0489696811670974,10.0,0.0,8.560139305503519,10.705547790999272,161.01925282597162,482.0972362663388,0.0
0.023,4.171109372430197,-2.048468292080302,10.0,0.0,8.979521969370257,11.072981092896333,166.534238406907,482.0972362663388,0.0
0.024,4.266936196769627,-2.039517194249811,10.0,0.0,9.392730090169543,11.435983292623375,171.8647834235234,482.0972362663388,0.0
0.025,4.367255527950721,-2.0225841458509217,10.0,0.0,9.79914449451603,11.793929226271104,177.02637022703064,482.0972362663388,0.0
0.026000000000000002,4.4734353073349595,-1.9962166741499119,10.0,0.0,10.197980960389518,12.146045424568259,181.63161391243256,482.0972362663388,0.0
0.027,4.582366840795821,-1.966358349113627,10.0,0.0,10.589124658468391,12.491912978736195,185.74793639675826,482.0972362663388,0.0
0.028,4.700058850757774,-1.9240450691803936,10.0,0.0,10.971384864613876,12.830451341534015,189.43662766964098,482.0972362663388,0.0
0.029,4.820934284790598,-1.879137197786803,10.0,0.0,11.344756153370636,13.161242511022618,192.73598774770625,482.0972362663388,0.0
0.03,4.952016225740939,-1.821000614527957,10.0,0.0,11.707923484756042,13.483081433273819,195.59831968863915,482.0972362663388,0.0
0.031,5.086039273572549,-1.7621311371320891,10.0,0.0,12.061063698547066,13.79562148058647,197.80891551030922,482.0972362663388,0.0
0.032,5.230431844273564,-1.6911110488141978,10.0,0.0,12.40292038074925,14.097678592248165,200.4421589734679,482.0972362663388,0.0
0.033,5.380124186618445,-1.6166151787533525,10.0,0.0,12.733312761073865,14.38869342901298,201.91742172589852,482.0972362663388,0.0
0.034,5.537594793894332,-1.535029134414507,10.0,0.0,13.051537880865839,14.667821176756876,203.18880493813168,482.0972362663388,0.0
0.035,5.698947813469154,-1.4530296333491768,10.0,0.0,13.357649178779205,14.934684535625108,203.60405746232266,482.0972362663388,0.0
0.036000000000000004,5.870474243492053,-1.3603000477825025,10.0,0.0,13.65045542338638,15.188218311291084,204.28541056101804,482.0972362663388,0.0
0.037,6.041188711220851,-1.275010780747051,10.0,0.0,13.930879897581198,15.42861600670124,205.2233356988433,482.0972362663388,0.0
0.038,6.228175208801664,-1.168399557236846,10.0,0.0,14.196427351981786,15.654155009933262,200.35169734043586,482.0972362663388,0.0
0.039,6.404895489618571,-1.0845312562500289,10.0,0.0,14.449814560392067,15.86612549236809,209.64773540576442,482.0972362663388,0.0
0.04,6.534612624563911,-1.0851225869390002,10.0,0.0,14.699963825590459,16.069735965364643,218.170241886545,482.0972362663388,0.0
0.041,6.621487035821765,-1.1484636683301073,10.0,0.0,14.952420817214799,16.26974130369247,220.68166573712315,482.0972362663388,0.0
0.042,6.6704785161669795,-1.2647840534085386,10.0,0.0,15.211794475054209,16.47047148862455,233.10654395573727,482.0972362663388,0.0
0.043000000000000003,6.709376245503157,-1.3867642159960276,10.0,0.0,15.477558399636717,16.673277185423842,235.10815372853793,482.0972362663388,0.0
0.044,6.744196093263161,-1.5028656568708394,10.0,0.0,15.74857785831126,16.87893749904121,248.8181267625822,482.0972362663388,0.0
0.045,6.750563942850831,-1.6564343609015326,10.0,0.0,16.02879294551472,17.090781462187255,251.61117095327992,482.0972362663388,0.0
0.046,6.764566527560506,-1.7840489455190416,10.0,0.0,16.314672837580048,17.307985931916857,266.60539535969383,482.0972362663388,0.0
0.047,6.752169677737121,-1.9446655565152717,10.0,0.0,16.610076868775216,17.533561623207692,270.0627790167984,482.0972362663388,0.0
0.048,6.7291903821171735,-2.110358990489937,10.0,0.0,16.91511817760721,17.768523902508925,283.13731951482634,482.0972362663388,0.0
0.049,6.714097190323873,-2.246352557911731,10.0,0.0,17.22645394156277,18.011924542904307,294.70561782835244,482.0972362663388,0.0
0.05,6.666841209228205,-2.4219663531358275,10.0,0.0,17.548953774962747,18.267165921658286,300.1294548425776,482.0972362663388,0.0
0.051000000000000004,6.612335516543512,-2.59336894353628,10.0,0.0,17.88182590988993,18.53465621226123,310.75154600411304,482.0972362663388,0.0
0.052000000000000005,6.568447424188529,-2.726701034625408,10.0,0.0,18.22111236450049,18.81296732052879,322.35703405819294,482.0972362663388,0.0
0.053,6.5036136539679195,-2.8764091099274185,10.0,0.0,18.569435851849082,19.104068797231378,330.9557012510771,482.0972362663388,0.0
0.054,6.434362099984388,-3.0149932598739144,10.0,0.0,18.925784313874168,19.407861808234543,339.4707232587175,482.0972362663388,0.0
0.055,6.370891759459199,-3.1253006473392393,10.0,0.0,19.28762520191878,19.723199586257838,348.00092263299223,482.0972362663388,0.0
0.056,6.314459991163816,-3.2071523724558277,10.0,0.0,19.65271639484943,20.048760466390505,356.29964302226927,482.0972362663388,0.0
0.057,6.266092078485367,-3.262894600420583,10.0,0.0,20.01916768432525,20.383030530514645,362.98468703488817,482.0972362663388,0.0
0.058,6.234656406121481,-3.2830044001420036,10.0,0.0,20.38405550695561,20.723492962007192,368.0316803659419,482.0972362663388,0.0
0.059000000000000004,6.228510489334133,-3.2600491726267444,10.0,0.0,20.743774617448285,21.0667596267365,372.35801287012686,482.0972362663388,0.0
0.06,6.247959954981508,-3.201438289803519,10.0,0.0,21.095630838529225,21.40947063565305,373.88739853789605,482.0972362663388,0.0
0.061,6.298571070969623,-3.1064761741463998,10.0,0.0,21.436712814499675,21.747723437683817,371.47602194372377,482.0972362663388,0.0
0.062,6.38094735961424,-2.982369480030801,10.0,0.0,21.76480975788002,22.077703876517536,366.2922057853833,482.0972362663388,0.0
0.063,6.53566146196873,-2.7695519558602215,10.0,0.0,22.070926190088084,22.39130117743337,372.07145994459506,482.0972362663388,0.0
0.064,6.708566607552835,-2.560747003310555,10.0,0.0,22.35695033962817,22.686677966487718,365.1882535794375,482.0972362663388,0.0
0.065,6.897199383751794,-2.3667028673086685,10.0,0.0,22.62465294768497,22.962098937664592,356.7297130485294,482.0972362663388,0.0
0.066,7.167218997264825,-2.0824440278168583,10.0,0.0,22.863799361069702,23.20893224280502,357.7888817172531,482.0972362663388,0.0
0.067,7.423387055578651,-1.859201647307153,10.0,0.0,23.082000390168847,23.42951856849048,345.1266644280509,482.0972362663388,0.0
0.068,7.736929428236853,-1.5824320316278497,10.0,0.0,23.27222771500701,23.617938384108047,342.9584987314189,482.0972362663388,0.0
0.069,8.04132723792414,-1.3546495884062866,10.0,0.0,23.43998591632552,23.77619061530866,334.2677598047511,482.0972362663388,0.0
0.07,8.395997401416553,-1.0747195592463576,10.0,0.0,23.578279041856877,23.89942370363377,322.7417355360636,482.0972362663388,0.0
0.07100000000000001,8.726669482066718,-0.8579631993863083,10.0,0.0,23.694022264374595,23.99133556844291,337.9106389559309,482.0972362663388,0.0
0.07200000000000001,8.91385728821635,-0.8925675486457335,10.0,0.0,23.81335639313859,24.06834663115294,344.8606079910171,482.0972362663388,0.0
0.073,8.941721008651788,-1.1508071676799903,10.0,0.0,23.95651852989837,24.148396869281978,362.43451347602996,482.0972362663388,0.0
0.074,8.927907180207171,-1.4305443375681337,10.0,0.0,24.121558169292424,24.236556455607346,368.59250641149885,482.0972362663388,0.0
0.075,8.859340450140312,-1.7499202918046703,10.0,0.0,24.31124378664675,24.33980824926249,387.10067316750514,482.0972362663388,0.0
0.076,8.767176841935807,-2.0562826706616475,10.0,0.0,24.52279212376306,24.461155754889383,396.7190369145668,482.0972362663388,0.0
0.077,8.62162972262067,-2.4016532593838043,10.0,0.0,24.76024751870129,24.606611890707832,408.83095327273656,482.0972362663388,0.0
0.078,8.47560200325128,-2.694417929744825,10.0,0.0,25.017253395580042,24.77587553037574,428.2762610097064,482.0972362663388,0.0
0.079,8.289593068490031,-3.001970310780605,10.0,0.0,25.296388163948027,24.972914099394785,438.0404594767293,482.0972362663388,0.0
0.08,8.078425759776728,-3.30171273584331,10.0,0.0,25.597209455327665,25.19953060295957,447.87571303424875,482.0972362663388,0.0
0.081,7.882675762310951,-3.525181384717318,10.0,0.0,25.912194395051316,25.45298841193994,460.26934286159303,482.0972362663388,0.0
0.082,7.687097883672571,-3.703693402600396,10.0,0.0,26.238428257179056,25.732155000670204,470.03446400235384,482.0972362663388,0.0
0.083,7.512516260295773,-3.813976142857688,10.0,0.0,26.570301373216505,26.033276516525277,477.918982155292,482.0972362663388,0.0
0.084,7.3689562950047955,-3.855399170081403,8.739270898302392,0.0,26.90255303482776,26.212838771160087,477.33774412126587,482.0972362663388,0.0
0.085,7.210658375464474,-3.7822881043619994,9.077484836766178,0.0,27.21107930824,26.473457962237063,471.55495532025856,482.0972362663388,0.0
0.08600000000000001,7.154359081905615,-3.598579305563253,10.0,0.0,27.495338016208052,26.84157233321474,472.3983946550678,482.0972362663388,0.0
0.08700000000000001,7.241805304474342,-3.350835375364391,10.0,0.0,27.762567546143167,27.18189390884094,474.16441631139776,482.0972362663388,0.0
0.088,7.394830236034753,-3.0845163192614273,10.0,0.0,28.01028862377806,27.49894799965208,458.27102492500904,482.0972362663388,0.0
0.089,7.624818979674743,-2.7730328192077778,10.0,0.0,28.233343008285704,27.78530027666081,446.8894847656954,482.0972362663388,0.0
0.09,7.961913075808413,-2.3658428888595653,10.0,0.0,28.421051124705684,28.03054230128112,444.4925473181897,482.0972362663388,0.0
0.091,8.305750197669475,-2.023359452010636,10.0,0.0,28.58091135319581,28.235579792638013,424.3325525912963,482.0972362663388,0.0
0.092,8.73882140145531,-1.612489802442227,10.0,0.0,28.703518480888565,28.391900096510405,417.71942699787036,482.0972362663388,0.0
0.093,9.171364832032996,-1.2668116224858572,10.0,0.0,28.795581022899768,28.50160001743914,403.18523139089103,482.0972362663388,0.0
0.094,9.667879203626406,-0.8717878641262771,10.0,0.0,28.849411471182744,28.55924505390663,399.36746661410547,482.0972362663388,0.0
0.095,10.061399529147007,-0.689825391298803,10.0,0.0,28.88755774385673,28.57818653946433,420.22827739644373,482.0972362663388,0.0
0.096,10.17687599976395,-0.9384008632743654,10.0,0.0,28.952946464464684,28.59028129522101,428.7885606591372,482.0972362663388,0.0
0.097,10.145910330830928,-1.3477467860168622,10.0,0.0,29.055548085369427,28.612266435751607,450.7336870770262,482.0972362663388,0.0
0.098,10.030187304688557,-1.8080011374184901,10.0,0.0,29.196622577663504,28.65473310050596,460.82309970918,482.0972362663388,0.0
0.099,9.863958616259984,-2.255978557898633,10.0,0.0,29.372511259942424,28.724188473479998,483.3012683000458,482.0972362663388,0.0
0.1,9.643670259998757,-2.697382938646415,6.7933937547241925,0.0,29.581831318968295,28.47412992270865,495.4774592704507,482.0972362663388,0.0
0.101,9.188110232652113,-3.0720559234368716,0.5714960394806292,0.0,29.78201350153392,27.665575266138482,502.1219752822676,482.0972362663388,0.0
0.10200000000000001,8.395382344241163,-3.1931581610076893,-2.951009356587111,0.0,29.890896516470853,26.715282144518643,506.56186224229333,482.0972362663388,0.0
0.10300000000000001,7.431168990756943,-3.1490485251244094,-5.415599096359515,0.0,29.88779883542924,25.733163009139336,506.18600037507554,482.0972362663388,0.0
0.10400000000000001,6.442044909882779,-2.9737315572954204,-5.468555803837986,0.0,29.767955238851513,24.96692819413021,501.93700315334286,482.0972362663388,0.0
0.105,5.609766893599423,-2.746239156434974,-3.542454861841687,0.0,29.56020152601427,24.55939251264102,494.9045315636177,482.0972362663388,0.0
0.106,5.064992362117077,-2.5374631499964204,-0.15429201995189423,0.0,29.311779179612202,24.576874349505164,487.07830497196704,482.0972362663388,0.0
0.107,4.8822443185669995,-2.383011747088414,3.70901058881715,0.0,29.075045357281258,24.973501966064074,478.3085335222925,482.0972362663388,0.0
0.108,5.0472187243166635,-2.2968152209835875,8.131783341094874,0.0,28.893710574996845,25.734690750328895,473.01665133231234,482.0972362663388,0.0
0.109,5.5555901576942865,-2.2497639115014985,10.0,0.0,28.802314470585387,26.50863216928153,475.10154232531846,482.0972362663388,0.0
0.11,6.192091476542702,-2.213137554533939,9.878671122623867,0.0,28.79389373233872,27.09908006205779,460.32146491485446,482.0972362663388,0.0
0.111,6.801870370093875,-2.1213536343234844,10.0,0.0,28.83562988954087,27.583489891914745,446.8847930294532,482.0972362663388,0.0
0.112,7.439987342974917,-1.874687398082909,10.0,0.0,28.89541796722414,27.95832398765105,443.21818688538514,482.0972362663388,0.0
0.113,8.010575208566317,-1.6400347342120334,10.0,0.0,28.963365516049333,28.245269986095813,423.8099049943372,482.0972362663388,0.0
0.114,8.60015175122148,-1.3148576187421188,10.0,0.0,29.01978995377349,28.45116859854246,414.70157049681535,482.0972362663388,0.0
0.115,9.143965298189542,-1.0284229579975452,10.0,0.0,29.0629057674427,28.588196068776938,402.6221315909809,482.0972362663388,0.0
0.116,9.715886540697891,-0.6785489665609141,10.0,0.0,29.07979095431784,28.658359172148625,410.43950403824624,482.0972362663388,0.0
0.117,10.061001579921445,-0.6896251386633185,10.0,0.0,29.10672105168827,28.690951041981176,423.3613578449089,482.0972362663388,0.0
0.11800000000000001,10.158924449878409,-1.0139195839544026,10.0,0.0,29.16977895356591,28.71565636926447,437.164902922644,482.0972362663388,0.0
0.11900000000000001,10.107541485389781,-1.478288280470336,10.0,0.0,29.276839210147955,28.750828308800525,453.86015077785,482.0972362663388,0.0
0.12,10.002091388637858,-1.9220240192437856,10.0,0.0,29.420877879325335,28.804274761039004,473.7211715820277,482.0972362663388,0.0
0.121,9.800557334659267,-2.419652325302422,10.0,0.0,29.60615908308752,28.887894679941493,486.81662114743693,482.0972362663388,0.0
0.122,9.567820463876707,-2.8650650763937637,4.602536670888856,0.0,29.82529327792321,28.411545476374023,501.07053942032474,482.0972362663388,0.0
0.123,8.997005989219469,-3.156827603898314,-2.7141554970949047,0.0,30.002518883433158,27.314345330964237,505.95514570049824,482.0972362663388,0.0
0.124,8.023244010299289,-3.168548749742172,-5.395037731523249,0.0,30.050673614618933,26.2242633094738,507.51155784343354,482.0972362663388,0.0
0.125,6.950700667535136,-3.0295462115531553,-6.427387018761846,0.0,29.969597179877837,25.269497511913865,505.1931261466461,482.0972362663388,0.0
0.126,5.969283258253175,-2.807803517665982,-5.499130069171191,0.0,29.77815013790916,24.611762889556555,499.26253379608346,482.0972362663388,0.0
0.127,5.2236533160313146,-2.5787898015840742,-2.705486869187327,0.0,29.517100256071508,24.370880327292014,491.46073271600255,482.0972362663388,0.0
0.128,4.821147351353914,-2.3953898838178453,1.1017787063564892,0.0,29.24018325239767,24.555663171072425,483.45108093814474,482.0972362663388,0.0
0.129,4.792079963704898,-2.2805118799783015,5.0930661485673365,0.0,28.99863365222458,25.094417345989797,474.82597133571625,482.0972362663388,0.0
0.13,5.1005986317761165,-2.2254567487302666,9.47833359908781,0.0,28.830207145161637,25.963379961168933,472.6458514658077,482.0972362663388,0.0
0.131,5.720662245079936,-2.209529534553787,10.0,0.0,28.764318108075976,26.67701248293629,473.05535107624456,482.0972362663388,0.0
0.132,6.367280372477312,-2.177117361791263,10.0,0.0,28.772975160013512,27.24254882692856,453.8726593533898,482.0972362663388,0.0
0.133,7.0024299971458355,-2.038863613505025,10.0,0.0,28.82243635057265,27.68899696427578,446.87374541361766,482.0972362663388,0.0
0.134,7.633462354167753,-1.7805530508406824,10.0,0.0,28.88456461140039,28.032684343918476,434.01361131173644,482.0972362663388,0.0
0.135,8.195027985286508,-1.542916806002325,10.0,0.0,28.95129190280405,28.292753915826832,422.37970566916766,482.0972362663388,0.0
0.136,8.790397880781883,-1.19765993493686,10.0,0.0,29.00175152888936,28.473614227491414,405.9866358875195,482.0972362663388,0.0
0.137,9.33086008027569,-0.9096823623583808,10.0,0.0,29.037026259259616,28.587937327608703,399.842094174825,482.0972362663388,0.0
0.138,9.886509045122077,-0.5831990846133173,10.0,0.0,29.047172441778407,28.63863882661312,414.66924114564097,482.0972362663388,0.0
0.139,10.112341466696316,-0.7668031896053727,10.0,0.0,29.084835440272336,28.665999717244272,425.8615413448444,482.0972362663388,0.0
0.14,10.138108934412733,-1.175456419712171,10.0,0.0,29.16458404224181,28.693814721428645,442.124106918914,482.0972362663388,0.0
0.14100000000000001,10.06954522696134,-1.6316680854105032,10.0,0.0,29.285236035358526,28.734622767888347,457.6809375590489,482.0972362663388,0.0
0.14200000000000002,9.934553773963659,-2.087450960932772,10.0,0.0,29.443477633460013,28.79757863176898,482.09987200365237,482.0972362663388,0.0
0.14300000000000002,9.723041791089557,-2.5654115219370124,6.638588476659985,0.0,29.640208491094647,28.522224205090463,489.6469255172761,482.0972362663388,0.0
0.14400000000000002,9.287170767925005,-2.9311609146570046,2.7895648273387508,0.0,29.82518364788713,27.950130513370688,500.50138034235704,482.0972362663388,0.0
0.145,8.617759551597615,-3.1330904582801993,-2.821704025961906,0.0,29.953006675699744,26.944270892696643,506.4618893573551,482.0972362663388,0.0
0.146,7.66161036728594,-3.129156851245029,-6.0456050643711094,0.0,29.965009446453582,25.851745409290285,506.18320436537147,482.0972362663388,0.0
0.147,6.611235338516151,-2.9651197485203538,-6.147122249369609,0.0,29.848554646562036,24.996724632655745,502.60836022783656,482.0972362663388,0.0
