timestamp,iq,id,iq_ref,id_ref,vq,vd,omega,omega_ref,r
0.0,0.0,0.0,0.0,0.0,0.0,0.0,0.0,493.23079059321634,0.0
0.001,0.0,0.0,10.0,0.0,0.0,1.0999999999999999,6.115472199294103,493.23079059321634,0.0
0.002,0.5307369851907212,-0.2913212625381807,10.0,0.0,0.14204533887919985,1.9316189316290207,13.317801563642547,493.23079059321634,0.0
0.003,1.0842913387634832,-0.6024330830807904,10.0,0.0,0.384357124667687,2.6386968949419622,20.697939467553027,493.23079059321634,0.0
0.004,1.5590443546685477,-0.8700465084428163,10.0,0.0,0.6994718867930164,3.2526109522886295,28.232747544420146,493.23079059321634,0.0
0.005,1.9399447555359186,-1.0838738622210777,10.0,0.0,1.065311453102468,3.7994935661768023,35.92944872443006,493.23079059321634,0.0
0.006,2.239750732602683,-1.2510087368845633,10.0,0.0,1.4655018868449925,4.299102221838433,43.75633668444442,493.23079059321634,0.0
0.007,2.4770151619816017,-1.382020589851471,10.0,0.0,1.8883740978591532,4.765668027847139,51.58766747378032,493.23079059321634,0.0
0.008,2.6680767290418097,-1.4872241871505252,10.0,0.0,2.325877945545995,5.209220346273558,59.45942083902103,493.23079059321634,0.0
0.009000000000000001,2.8266491704841292,-1.5730794701170803,10.0,0.0,2.772378685460125,5.636635464737965,67.35059094018146,493.23079059321634,0.0
0.01,2.962077666392183,-1.645500646948331,10.0,0.0,3.224078639851053,6.052647735211881,75.20908322432116,493.23079059321634,0.0
0.011,3.0811061533574158,-1.7084279320504514,10.0,0.0,3.678407615443203,6.460489925470405,83.0265951655913,493.23079059321634,0.0
0.012,3.188848746459569,-1.7638278597420747,10.0,0.0,4.133552631697047,6.862319393890706,90.74118064793086,493.23079059321634,0.0
0.013000000000000001,3.288205119878689,-1.8140726097274587,10.0,0.0,4.588339016389012,7.259628641949282,98.35820682563939,493.23079059321634,0.0
0.014,3.3820602099432007,-1.8592355758795645,10.0,0.0,5.041843166194517,7.653355107498287,105.90865295623543,493.23079059321634,0.0
0.015,3.4721069852858886,-1.899829032412081,10.0,0.0,5.493383198131427,8.044092747085895,113.37727610343421,493.23079059321634,0.0
0.016,3.5596145800153947,-1.9360338400176071,10.0,0.0,5.94241958510469,8.43218525824161,120.68508583176356,493.23079059321634,0.0
0.017,3.645144415105338,-1.9685384477868613,10.0,0.0,6.388575043274759,8.817838951066484,127.83962377537456,493.23079059321634,0.0
0.018000000000000002,3.730251927866576,-1.9959253041084188,10.0,0.0,6.83136783302799,9.201036292373047,134.85405702603322,493.23079059321634,0.0
0.019,3.81544967906247,-2.018253592643655,10.0,0.0,7.270383321112213,9.581672501020332,141.68976328564074,493.23079059321634,0.0
0.02,3.9014648862453374,-2.0350875541282063,10.0,0.0,7.705189334130692,9.959536942333155,148.3432823300447,493.23079059321634,0.0
0.021,3.9891051824829464,-2.0457889559126508,10.0,0.0,8.135310004560049,10.334315260302239,154.92060212100432,493.23079059321634,0.0
0.022,4.079618141396171,-2.0489696811670974,10.0,0.0,8.560139305503519,10.705547790999272,161.01925282597162,493.23079059321634,0.0
0.023,4.171109372430197,-2.048468292080302,10.0,0.0,8.979521969370257,11.072981092896333,166.534238406907,493.23079059321634,0.0
0.024,4.266936196769627,-2.039517194249811,10.0,0.0,9.392730090169543,11.435983292623375,171.8647834235234,493.23079059321634,0.0
0.025,4.367255527950721,-2.0225841458509217,10.0,0.0,9.79914449451603,11.793929226271104,177.02637022703064,493.23079059321634,0.0
0.026000000000000002,4.4734353073349595,-1.9962166741499119,10.0,0.0,10.197980960389518,12.146045424568259,181.63161391243256,493.23079059321634,0.0
0.027,4.582366840795821,-1.966358349113627,10.0,0.0,10.589124658468391,12.491912978736195,185.74793639675826,493.23079059321634,0.0
0.028,4.700058850757774,-1.9240450691803936,10.0,0.0,10.971384864613876,12.830451341534015,189.43662766964098,493.23079059321634,0.0
0.029,4.820934284790598,-1.879137197786803,10.0,0.0,11.344756153370636,13.161242511022618,192.73598774770625,493.23079059321634,0.0
0.03,4.952016225740939,-1.821000614527957,10.0,0.0,11.707923484756042,13.483081433273819,195.59831968863915,493.23079059321634,0.0
0.031,5.086039273572549,-1.7621311371320891,10.0,0.0,12.061063698547066,13.79562148058647,197.80891551030922,493.23079059321634,0.0
0.032,5.230431844273564,-1.6911110488141978,10.0,0.0,12.40292038074925,14.097678592248165,200.4421589734679,493.23079059321634,0.0
0.033,5.380124186618445,-1.6166151787533525,10.0,0.0,12.733312761073865,14.38869342901298,201.91742172589852,493.23079059321634,0.0
0.034,5.537594793894332,-1.535029134414507,10.0,0.0,13.051537880865839,14.667821176756876,203.18880493813168,493.23079059321634,0.0
0.035,5.698947813469154,-1.4530296333491768,10.0,0.0,13.357649178779205,14.934684535625108,203.60405746232266,493.23079059321634,0.0
0.036000000000000004,5.870474243492053,-1.3603000477825025,10.0,0.0,13.65045542338638,15.188218311291084,204.28541056101804,493.23079059321634,0.0
0.037,6.041188711220851,-1.275010780747051,10.0,0.0,13.930879897581198,15.42861600670124,205.2233356988433,493.23079059321634,0.0
0.038,6.228175208801664,-1.168399557236846,10.0,0.0,14.196427351981786,15.654155009933262,200.35169734043586,493.23079059321634,0.0
0.039,6.404895489618571,-1.0845312562500289,10.0,0.0,14.449814560392067,15.86612549236809,209.64773540576442,493.23079059321634,0.0
0.04,6.534612624563911,-1.0851225869390002,10.0,0.0,14.699963825590459,16.069735965364643,218.170241886545,493.23079059321634,0.0
0.041,6.621487035821765,-1.1484636683301073,10.0,0.0,14.952420817214799,16.26974130369247,220.68166573712315,493.23079059321634,0.0
0.042,6.6704785161669795,-1.2647840534085386,10.0,0.0,15.211794475054209,16.47047148862455,233.10654395573727,493.23079059321634,0.0
0.043000000000000003,6.709376245503157,-1.3867642159960276,10.0,0.0,15.477558399636717,16.673277185423842,235.10815372853793,493.23079059321634,0.0
0.044,6.744196093263161,-1.5028656568708394,10.0,0.0,15.74857785831126,16.87893749904121,248.8181267625822,493.23079059321634,0.0
0.045,6.750563942850831,-1.6564343609015326,10.0,0.0,16.02879294551472,17.090781462187255,251.61117095327992,493.23079059321634,0.0
0.046,6.764566527560506,-1.7840489455190416,10.0,0.0,16.314672837580048,17.307985931916857,266.60539535969383,493.23079059321634,0.0
0.047,6.752169677737121,-1.9446655565152717,10.0,0.0,16.610076868775216,17.533561623207692,270.0627790167984,493.23079059321634,0.0
0.048,6.7291903821171735,-2.110358990489937,10.0,0.0,16.91511817760721,17.768523902508925,283.13731951482634,493.23079059321634,0.0
0.049,6.714097190323873,-2.246352557911731,10.0,0.0,17.22645394156277,18.011924542904307,294.70561782835244,493.23079059321634,0.0
0.05,6.666841209228205,-2.4219663531358275,10.0,0.0,17.548953774962747,18.267165921658286,300.1294548425776,493.23079059321634,0.0
0.051000000000000004,6.612335516543512,-2.59336894353628,10.0,0.0,17.88182590988993,18.53465621226123,310.75154600411304,493.23079059321634,0.0
0.052000000000000005,6.568447424188529,-2.726701034625408,10.0,0.0,18.22111236450049,18.81296732052879,322.35703405819294,493.23079059321634,0.0
0.053,6.5036136539679195,-2.8764091099274185,10.0,0.0,18.569435851849082,19.104068797231378,330.9557012510771,493.23079059321634,0.0
0.054,6.434362099984388,-3.0149932598739144,10.0,0.0,18.925784313874168,19.407861808234543,339.4707232587175,493.23079059321634,0.0
0.055,6.370891759459199,-3.1253006473392393,10.0,0.0,19.28762520191878,19.723199586257838,348.00092263299223,493.23079059321634,0.0
0.056,6.314459991163816,-3.2071523724558277,10.0,0.0,19.65271639484943,20.048760466390505,356.29964302226927,493.23079059321634,0.0
0.057,6.266092078485367,-3.262894600420583,10.0,0.0,20.01916768432525,20.383030530514645,362.98468703488817,493.23079059321634,0.0
0.058,6.234656406121481,-3.2830044001420036,10.0,0.0,20.38405550695561,20.723492962007192,368.0316803659419,493.23079059321634,0.0
0.059000000000000004,6.228510489334133,-3.2600491726267444,10.0,0.0,20.743774617448285,21.0667596267365,372.35801287012686,493.23079059321634,0.0
0.06,6.247959954981508,-3.201438289803519,10.0,0.0,21.095630838529225,21.40947063565305,373.88739853789605,493.23079059321634,0.0
0.061,6.298571070969623,-3.1064761741463998,10.0,0.0,21.436712814499675,21.747723437683817,371.47602194372377,493.23079059321634,0.0
0.062,6.38094735961424,-2.982369480030801,10.0,0.0,21.76480975788002,22.077703876517536,366.2922057853833,493.23079059321634,0.0
0.063,6.53566146196873,-2.7695519558602215,10.0,0.0,22.070926190088084,22.39130117743337,372.07145994459506,493.23079059321634,0.0
0.064,6.708566607552835,-2.560747003310555,10.0,0.0,22.35695033962817,22.686677966487718,365.1882535794375,493.23079059321634,0.0
0.065,6.897199383751794,-2.3667028673086685,10.0,0.0,22.62465294768497,22.962098937664592,356.7297130485294,493.23079059321634,0.0
0.066,7.167218997264825,-2.0824440278168583,10.0,0.0,22.863799361069702,23.20893224280502,357.7888817172531,493.23079059321634,0.0
0.067,7.423387055578651,-1.859201647307153,10.0,0.0,23.082000390168847,23.42951856849048,345.1266644280509,493.23079059321634,0.0
0.068,7.736929428236853,-1.5824320316278497,10.0,0.0,23.27222771500701,23.617938384108047,342.9584987314189,493.23079059321634,0.0
0.069,8.04132723792414,-1.3546495884062866,10.0,0.0,23.43998591632552,23.77619061530866,334.2677598047511,493.23079059321634,0.0
0.07,8.395997401416553,-1.0747195592463576,10.0,0.0,23.578279041856877,23.89942370363377,322.7417355360636,493.23079059321634,0.0
0.07100000000000001,8.726669482066718,-0.8579631993863083,10.0,0.0,23.694022264374595,23.99133556844291,337.9106389559309,493.23079059321634,0.0
0.07200000000000001,8.91385728821635,-0.8925675486457335,10.0,0.0,23.81335639313859,24.06834663115294,344.8606079910171,493.23079059321634,0.0
0.073,8.941721008651788,-1.1508071676799903,10.0,0.0,23.95651852989837,24.148396869281978,362.43451347602996,493.23079059321634,0.0
0.074,8.927907180207171,-1.4305443375681337,10.0,0.0,24.121558169292424,24.236556455607346,368.59250641149885,493.23079059321634,0.0
0.075,8.859340450140312,-1.7499202918046703,10.0,0.0,24.31124378664675,24.33980824926249,387.10067316750514,493.23079059321634,0.0
0.076,8.767176841935807,-2.0562826706616475,10.0,0.0,24.52279212376306,24.461155754889383,396.7190369145668,493.23079059321634,0.0
0.077,8.62162972262067,-2.4016532593838043,10.0,0.0,24.76024751870129,24.606611890707832,408.83095327273656,493.23079059321634,0.0
0.078,8.47560200325128,-2.694417929744825,10.0,0.0,25.017253395580042,24.77587553037574,428.2762610097064,493.23079059321634,0.0
0.079,8.289593068490031,-3.001970310780605,10.0,0.0,25.296388163948027,24.972914099394785,438.0404594767293,493.23079059321634,0.0
0.08,8.078425759776728,-3.30171273584331,10.0,0.0,25.597209455327665,25.19953060295957,447.87571303424875,493.23079059321634,0.0
0.081,7.882675762310951,-3.525181384717318,10.0,0.0,25.912194395051316,25.45298841193994,460.26934286159303,493.23079059321634,0.0
0.082,7.687097883672571,-3.703693402600396,10.0,0.0,26.238428257179056,25.732155000670204,470.03446400235384,493.23079059321634,0.0
0.083,7.512516260295773,-3.813976142857688,10.0,0.0,26.570301373216505,26.033276516525277,477.918982155292,493.23079059321634,0.0
0.084,7.3689562950047955,-3.855399170081403,10.0,0.0,26.902553034827754,26.351518972346824,478.5439455783908,493.23079059321634,0.0
0.085,7.275652065733423,-3.8162994175680955,10.0,0.0,27.228688572811343,26.679990214314294,473.55535348460853,493.23079059321634,0.0
0.08600000000000001,7.267766248696914,-3.6603820503219797,10.0,0.0,27.538297768321378,27.00816228346467,474.1807480051759,493.23079059321634,0.0
0.08700000000000001,7.3464323522243,-3.4076290670194203,10.0,0.0,27.823519596704617,27.32574593569263,475.7079540819185,493.23079059321634,0.0
0.088,7.480709249017063,-3.1292177565686656,10.0,0.0,28.08387989315578,27.6261096079242,459.5304728259807,493.23079059321634,0.0
0.089,7.695613562209921,-2.801501191801076,10.0,0.0,28.314975818165053,27.900176237094435,448.5636800468391,493.23079059321634,0.0
0.09,8.020201174839713,-2.3826535389658305,10.0,0.0,28.50757273742622,28.13639020159123,445.48610120291113,493.23079059321634,0.0
0.091,8.354868291359303,-2.0325776833111755,10.0,0.0,28.670211493617295,28.3346749548736,425.5547717088185,493.23079059321634,0.0
0.092,8.785028497986112,-1.6118087441171771,10.0,0.0,28.79363102476271,28.4854241568831,418.1571209188704,493.23079059321634,0.0
0.093,9.213939198463112,-1.2630473015486263,10.0,0.0,28.885627453703925,28.59056181681997,404.39055654859436,493.23079059321634,0.0
0.094,9.710582044615853,-0.8630683077983461,10.0,0.0,28.938427930857845,28.644043747585243,399.8028636561218,493.23079059321634,0.0
0.095,10.09778552966185,-0.6891582118156743,10.0,0.0,28.976166232752334,28.65983157809586,422.487643054602,493.23079059321634,0.0
0.096,10.19655033502452,-0.9613560624343314,10.0,0.0,29.04339035203631,28.67082236200544,431.03532474074945,493.23079059321634,0.0
0.097,10.169180884367012,-1.3604820806818894,10.0,0.0,29.146173021283875,28.69143476707839,450.5677013529273,493.23079059321634,0.0
0.098,10.043142481850674,-1.8334632082393423,10.0,0.0,29.288775327962842,28.733854728339033,463.78246626216827,493.23079059321634,0.0
0.099,9.878032929363341,-2.2746707669262736,10.0,0.0,29.465162420279952,28.80319459088995,486.89045707977465,493.23079059321634,0.0
0.1,9.638548632068545,-2.744249331321392,10.0,0.0,29.678086356117042,28.907931353595053,498.1870236304396,493.23079059321634,0.0
0.101,9.362300066926588,-3.180663592451265,4.871488813879177,0.0,29.923501357721268,28.48734310233272,510.0443915054659,493.23079059321634,0.0
0.10200000000000001,8.791973291938756,-3.429365111117213,-1.2253311327564607,0.0,30.12530905848079,27.573963553685573,516.4125592253972,493.23079059321634,0.0
0.10300000000000001,7.892552433402287,-3.427158785558956,-4.641232679043924,0.0,30.212868323301585,26.550554786042962,516.7073515648,493.23079059321634,0.0
0.10400000000000001,6.876351060323737,-3.2373369107228833,-5.023394458461141,0.0,30.16847244189966,25.733151983826946,512.2487489648669,493.23079059321634,0.0
0.105,5.983426955357338,-2.974047506113938,-2.984272742211096,0.0,30.01971225265769,25.309234518089543,504.9114616067584,493.23079059321634,0.0
0.106,5.3936369038522,-2.7232861165028535,0.5675642267077246,0.0,29.818485476955047,25.339091294036148,496.86355379738654,493.23079059321634,0.0
0.107,5.190531678755888,-2.5328744230747002,4.555190499351948,0.0,29.62192938403635,25.765403909365048,487.7198402128647,493.23079059321634,0.0
0.108,5.35960554014574,-2.413429039997005,9.182156795416383,0.0,29.476425286738138,26.57789050670599,484.0365141314185,493.23079059321634,0.0
0.109,5.89362467977218,-2.3428786209084334,10.0,0.0,29.420154166634877,27.281219757381557,485.2066180732657,493.23079059321634,0.0
0.11,6.504878765281064,-2.2663992417541126,10.0,0.0,29.432135856093417,27.83851278092369,466.09068450660095,493.23079059321634,0.0
0.111,7.113512596347817,-2.1139633062109873,10.0,0.0,29.48264551984211,28.280437490495206,455.56662072884006,493.23079059321634,0.0
0.112,7.746132062778089,-1.8232705941294545,10.0,0.0,29.541844849199546,28.619718892487775,446.0422181307993,493.23079059321634,0.0
0.113,8.3113223838132,-1.5664924251313708,10.0,0.0,29.603713714351528,28.875147346567296,430.3502559937768,493.23079059321634,0.0
0.114,8.918321028189794,-1.2014909619245846,10.0,0.0,29.64735615913349,29.05010189408297,415.15467062891395,493.23079059321634,0.0
0.115,9.472268342256058,-0.8993354379748579,10.0,0.0,29.674542721186434,29.157061013221764,407.922510171182,493.23079059321634,0.0
0.116,10.050404458701005,-0.5494995826840707,10.0,0.0,29.674246150105468,29.19798737698367,421.1019113938068,493.23079059321634,0.0
0.117,10.258567556762166,-0.7746085120735593,10.0,0.0,29.706332213294537,29.21767486763902,437.1335389291351,493.23079059321634,0.0
0.11800000000000001,10.2789536454026,-1.2009085206451067,10.0,0.0,29.781820330879206,29.23844137677791,453.17193956340816,493.23079059321634,0.0
0.11900000000000001,10.212641352041029,-1.6539372445036378,10.0,0.0,29.89740644715802,29.27217825991755,472.04654912369665,493.23079059321634,0.0
0.12,10.041248023812754,-2.1672551796527255,10.0,0.0,30.056742325750736,29.332290209542606,486.6848681298337,493.23079059321634,0.0
0.121,9.829492916466023,-2.634916214465122,10.0,0.0,30.252465345924556,29.423903680590275,510.3231818761128,493.23079059321634,0.0
0.122,9.558697635469706,-3.0912388279500784,-1.563748241740143,0.0,30.48329628832099,28.281585729795275,514.2763240390593,493.23079059321634,0.0
0.123,8.632065442985823,-3.2191922362995866,-3.7507746576718253,0.0,30.586323990181878,27.25086883334761,516.7117661343932,493.23079059321634,0.0
0.124,7.584975613873062,-3.1580138507612294,-5.203305460750536,0.0,30.56796807571919,26.301531831829017,517.053577739944,493.23079059321634,0.0
0.125,6.575256364619451,-3.0012817152125804,-5.612439134993207,0.0,30.43988530149594,25.515411762006877,513.2943160452947,493.23079059321634,0.0
0.126,5.720383282700187,-2.783458977765494,-3.933443542189371,0.0,30.223605617949108,25.067815120214057,506.18309410883603,493.23079059321634,0.0
0.127,5.14310156568811,-2.5732976360148823,-0.5073556091162086,0.0,29.963254718359583,25.058382149007976,497.8846986089828,493.23079059321634,0.0
0.128,4.935360456091845,-2.410100737536832,3.5953030606527543,0.0,29.71214556619332,25.45796766419288,488.84035039707294,493.23079059321634,0.0
0.129,5.095205166043799,-2.317028087111344,8.161381568569105,0.0,29.517499858200164,26.23406543262511,482.41157075377345,493.23079059321634,0.0
0.13,5.613149602341835,-2.2649224137940163,10.0,0.0,29.41512760028888,27.01430065489976,484.0407452900121,493.23079059321634,0.0
0.131,6.26486896341679,-2.216526401256324,10.0,0.0,29.396213585750225,27.621379259486243,469.1880563508999,493.23079059321634,0.0
0.132,6.896639358460857,-2.116855021121615,10.0,0.0,29.42941894143464,28.102881052316114,454.7071003393844,493.23079059321634,0.0
0.133,7.553380069919198,-1.8569732132097116,10.0,0.0,29.47986365576464,28.473629427121462,450.48726561957596,493.23079059321634,0.0
0.134,8.14323532968642,-1.6074164429301978,10.0,0.0,29.53748630949054,28.75403076441947,430.4674785227667,493.23079059321634,0.0
0.135,8.75227119817733,-1.268477239333642,10.0,0.0,29.582599086880833,28.95105884042393,419.9828421758311,493.23079059321634,0.0
0.136,9.314968375906085,-0.9708369462335307,10.0,0.0,29.613552353927503,29.077089055701727,408.3396049111137,493.23079059321634,0.0
0.137,9.90480654318826,-0.612361640176191,10.0,0.0,29.61755743506197,29.134356349532656,415.2014195802623,493.23079059321634,0.0
0.138,10.211112606617787,-0.7003571323422595,10.0,0.0,29.64015299466492,29.158502136789505,435.3172665268168,493.23079059321634,0.0
0.139,10.26228261895147,-1.1029474953531444,10.0,0.0,29.706308562042803,29.179927260558568,448.3441405636252,493.23079059321634,0.0
0.14,10.22287530084109,-1.5391812637774551,10.0,0.0,29.811950895956368,29.210671933803983,467.2600378295691,493.23079059321634,0.0
0.14100000000000001,10.068496634927945,-2.05174030319676,10.0,0.0,29.962122620455,29.265493953185562,481.7701728831385,493.23079059321634,0.0
0.14200000000000002,9.872385337515222,-2.52043868985084,10.0,0.0,30.149190606579683,29.349879399135105,505.80356553046704,493.23079059321634,0.0
0.14300000000000002,9.610208103216483,-2.9893410410664805,0.3844555938491636,0.0,30.372882613454024,28.413701597224325,510.39121903766795,493.23079059321634,0.0
0.14400000000000002,8.796950279053988,-3.1753565079967436,-2.0809754441958095,0.0,30.496360317300038,27.505305394383488,515.0677774936917,493.23079059321634,0.0
0.145,7.840383720137637,-3.182936608168378,-4.637624541212419,0.0,30.515624286826935,26.54060923515913,516.8661003721089,493.23079059321634,0.0
0.146,6.839090814868285,-3.063487461339407,-5.7731390782099705,0.0,30.423277036325793,25.675545534700802,514.0416578536373,493.23079059321634,0.0
0.147,5.931876856080555,-2.852668059112144,-4.569026491578359,0.0,30.231662498052238,25.1213416155516,507.47847318114475,493.23079059321634,0.0
