timestamp,iq,id,iq_ref,id_ref,vq,vd,omega,omega_ref,r
0.0,0.0,0.0,0.0,0.0,0.0,0.0,0.0,371.9752596584642,0.0
0.001,0.0,0.0,10.0,0.0,0.0,1.0999999999999999,6.115472199294103,371.9752596584642,0.0
0.002,0.5307369851907212,-0.2913212625381807,10.0,0.0,0.14204533887919985,1.9316189316290207,13.317801563642547,371.9752596584642,0.0
0.003,1.0842913387634832,-0.6024330830807904,10.0,0.0,0.384357124667687,2.6386968949419622,20.697939467553027,371.9752596584642,0.0
0.004,1.5590443546685477,-0.8700465084428163,10.0,0.0,0.6994718867930164,3.2526109522886295,28.232747544420146,371.9752596584642,0.0
0.005,1.9399447555359186,-1.0838738622210777,10.0,0.0,1.065311453102468,3.7994935661768023,35.92944872443006,371.9752596584642,0.0
0.006,2.239750732602683,-1.2510087368845633,10.0,0.0,1.4655018868449925,4.299102221838433,43.75633668444442,371.9752596584642,0.0
0.007,2.4770151619816017,-1.382020589851471,10.0,0.0,1.8883740978591532,4.765668027847139,51.58766747378032,371.9752596584642,0.0
0.008,2.6680767290418097,-1.4872241871505252,10.0,0.0,2.325877945545995,5.209220346273558,59.45942083902103,371.9752596584642,0.0
0.009000000000000001,2.8266491704841292,-1.5730794701170803,10.0,0.0,2.772378685460125,5.636635464737965,67.35059094018146,371.9752596584642,0.0
0.01,2.962077666392183,-1.645500646948331,10.0,0.0,3.224078639851053,6.052647735211881,75.20908322432116,371.9752596584642,0.0
0.011,3.0811061533574158,-1.7084279320504514,10.0,0.0,3.678407615443203,6.460489925470405,83.0265951655913,371.9752596584642,0.0
0.012,3.188848746459569,-1.7638278597420747,10.0,0.0,4.133552631697047,6.862319393890706,90.74118064793086,371.9752596584642,0.0
0.013000000000000001,3.288205119878689,-1.8140726097274587,10.0,0.0,4.588339016389012,7.259628641949282,98.35820682563939,371.9752596584642,0.0
0.014,3.3820602099432007,-1.8592355758795645,10.0,0.0,5.041843166194517,7.653355107498287,105.90865295623543,371.9752596584642,0.0
0.015,3.4721069852858886,-1.899829032412081,10.0,0.0,5.493383198131427,8.044092747085895,113.37727610343421,371.9752596584642,0.0
0.016,3.5596145800153947,-1.9360338400176071,10.0,0.0,5.94241958510469,8.43218525824161,120.68508583176356,371.9752596584642,0.0
0.017,3.645144415105338,-1.9685384477868613,10.0,0.0,6.388575043274759,8.817838951066484,127.83962377537456,371.9752596584642,0.0
0.018000000000000002,3.730251927866576,-1.9959253041084188,10.0,0.0,6.83136783302799,9.201036292373047,134.85405702603322,371.9752596584642,0.0
0.019,3.81544967906247,-2.018253592643655,10.0,0.0,7.270383321112213,9.581672501020332,141.68976328564074,371.9752596584642,0.0
0.02,3.9014648862453374,-2.0350875541282063,10.0,0.0,7.705189334130692,9.959536942333155,148.3432823300447,371.9752596584642,0.0
0.021,3.9891051824829464,-2.0457889559126508,10.0,0.0,8.135310004560049,10.334315260302239,154.92060212100432,371.9752596584642,0.0
0.022,4.079618141396171,-2.0489696811670974,10.0,0.0,8.560139305503519,10.705547790999272,161.01925282597162,371.9752596584642,0.0
0.023,4.171109372430197,-2.048468292080302,10.0,0.0,8.979521969370257,11.072981092896333,166.534238406907,371.9752596584642,0.0
0.024,4.266936196769627,-2.039517194249811,10.0,0.0,9.392730090169543,11.435983292623375,171.8647834235234,371.9752596584642,0.0
0.025,4.367255527950721,-2.0225841458509217,10.0,0.0,9.79914449451603,11.793929226271104,177.02637022703064,371.9752596584642,0.0
0.026000000000000002,4.4734353073349595,-1.9962166741499119,10.0,0.0,10.197980960389518,12.146045424568259,181.63161391243256,371.9752596584642,0.0
0.027,4.582366840795821,-1.966358349113627,10.0,0.0,10.589124658468391,12.491912978736195,185.74793639675826,371.9752596584642,0.0
0.028,4.700058850757774,-1.9240450691803936,10.0,0.0,10.971384864613876,12.830451341534015,189.43662766964098,371.9752596584642,0.0
0.029,4.820934284790598,-1.879137197786803,10.0,0.0,11.344756153370636,13.161242511022618,192.73598774770625,371.9752596584642,0.0
0.03,4.952016225740939,-1.821000614527957,10.0,0.0,11.707923484756042,13.483081433273819,195.59831968863915,371.9752596584642,0.0
0.031,5.086039273572549,-1.7621311371320891,10.0,0.0,12.061063698547066,13.79562148058647,197.80891551030922,371.9752596584642,0.0
0.032,5.230431844273564,-1.6911110488141978,10.0,0.0,12.40292038074925,14.097678592248165,200.4421589734679,371.9752596584642,0.0
0.033,5.380124186618445,-1.6166151787533525,10.0,0.0,12.733312761073865,14.38869342901298,201.91742172589852,371.9752596584642,0.0
0.034,5.537594793894332,-1.535029134414507,10.0,0.0,13.051537880865839,14.667821176756876,203.18880493813168,371.9752596584642,0.0
0.035,5.698947813469154,-1.4530296333491768,10.0,0.0,13.357649178779205,14.934684535625108,203.60405746232266,371.9752596584642,0.0
0.036000000000000004,5.870474243492053,-1.3603000477825025,10.0,0.0,13.65045542338638,15.188218311291084,204.28541056101804,371.9752596584642,0.0
0.037,6.041188711220851,-1.275010780747051,10.0,0.0,13.930879897581198,15.42861600670124,205.2233356988433,371.9752596584642,0.0
0.038,6.228175208801664,-1.168399557236846,10.0,0.0,14.196427351981786,15.654155009933262,200.35169734043586,371.9752596584642,0.0
0.039,6.404895489618571,-1.0845312562500289,10.0,0.0,14.449814560392067,15.86612549236809,209.64773540576442,371.9752596584642,0.0
0.04,6.534612624563911,-1.0851225869390002,10.0,0.0,14.699963825590459,16.069735965364643,218.170241886545,371.9752596584642,0.0
0.041,6.621487035821765,-1.1484636683301073,10.0,0.0,14.952420817214799,16.26974130369247,220.68166573712315,371.9752596584642,0.0
0.042,6.6704785161669795,-1.2647840534085386,10.0,0.0,15.211794475054209,16.47047148862455,233.10654395573727,371.9752596584642,0.0
0.043000000000000003,6.709376245503157,-1.3867642159960276,10.0,0.0,15.477558399636717,16.673277185423842,235.10815372853793,371.9752596584642,0.0
0.044,6.744196093263161,-1.5028656568708394,10.0,0.0,15.74857785831126,16.87893749904121,248.8181267625822,371.9752596584642,0.0
0.045,6.750563942850831,-1.6564343609015326,10.0,0.0,16.02879294551472,17.090781462187255,251.61117095327992,371.9752596584642,0.0
0.046,6.764566527560506,-1.7840489455190416,10.0,0.0,16.314672837580048,17.307985931916857,266.60539535969383,371.9752596584642,0.0
0.047,6.752169677737121,-1.9446655565152717,10.0,0.0,16.610076868775216,17.533561623207692,270.0627790167984,371.9752596584642,0.0
0.048,6.7291903821171735,-2.110358990489937,10.0,0.0,16.91511817760721,17.768523902508925,283.13731951482634,371.9752596584642,0.0
0.049,6.714097190323873,-2.246352557911731,10.0,0.0,17.22645394156277,18.011924542904307,294.70561782835244,371.9752596584642,0.0
0.05,6.666841209228205,-2.4219663531358275,10.0,0.0,17.548953774962747,18.267165921658286,300.1294548425776,371.9752596584642,0.0
0.051000000000000004,6.612335516543512,-2.59336894353628,10.0,0.0,17.88182590988993,18.53465621226123,310.75154600411304,371.9752596584642,0.0
0.052000000000000005,6.568447424188529,-2.726701034625408,10.0,0.0,18.22111236450049,18.81296732052879,322.35703405819294,371.9752596584642,0.0
0.053,6.5036136539679195,-2.8764091099274185,10.0,0.0,18.569435851849082,19.104068797231378,330.9557012510771,371.9752596584642,0.0
0.054,6.434362099984388,-3.0149932598739144,10.0,0.0,18.925784313874168,19.407861808234543,339.4707232587175,371.9752596584642,0.0
0.055,6.370891759459199,-3.1253006473392393,10.0,0.0,19.28762520191878,19.723199586257838,348.00092263299223,371.9752596584642,0.0
0.056,6.314459991163816,-3.2071523724558277,10.0,0.0,19.65271639484943,20.048760466390505,356.29964302226927,371.9752596584642,0.0
0.057,6.266092078485367,-3.262894600420583,10.0,0.0,20.01916768432525,20.383030530514645,362.98468703488817,371.9752596584642,0.0
0.058,6.234656406121481,-3.2830044001420036,10.0,0.0,20.38405550695561,20.723492962007192,368.0316803659419,371.9752596584642,0.0
0.059000000000000004,6.228510489334133,-3.2600491726267444,7.7952050564354165,0.0,20.74377461744828,20.824232182944392,370.65783830369674,371.9752596584642,0.0
0.06,6.1285450656042,-3.1500049383482347,6.4953003011056705,0.0,21.06572042548993,20.84086255662893,365.87952834150104,371.9752596584642,0.0
0.061,5.994290470243524,-2.9569263229647516,8.94541259537315,0.0,21.336996484746482,21.184304224924276,362.80884545167754,371.9752596584642,0.0
0.062,6.06303160394416,-2.7617487471495332,10.0,0.0,21.595950357721062,21.60312875322134,368.73245560648365,371.9752596584642,0.0
0.063,6.24123796395006,-2.6126245051851495,7.631592781822459,0.0,21.856439405369954,21.71598025967672,364.12108657655386,371.9752596584642,0.0
0.064,6.324364112975198,-2.417758828435942,10.0,0.0,22.082220716876733,22.120442573640048,353.7988337293067,371.9752596584642,0.0
0.065,6.593946327214837,-2.1944496605149975,10.0,0.0,22.30325477692535,22.45452993309983,358.89437373675156,371.9752596584642,0.0
0.066,6.883995062331661,-2.0002843919235196,10.0,0.0,22.516469079049234,22.74810242389805,346.3440442988891,371.9752596584642,0.0
0.067,7.191929330875328,-1.7997274262654614,10.0,0.0,22.717599586504075,23.002666813640193,346.00738517999974,371.9752596584642,0.0
0.068,7.529195266251173,-1.5626691662318122,10.0,0.0,22.900002643240537,23.21786790494771,333.77486314461527,371.9752596584642,0.0
0.069,7.861849249064295,-1.3420011344873553,10.0,0.0,23.063782602542545,23.396569914042434,332.7587384804354,371.9752596584642,0.0
0.07,8.203422040293589,-1.1182047492700264,10.0,0.0,23.206643844767363,23.539533250950786,322.38067607625163,371.9752596584642,0.0
0.07100000000000001,8.56453325912282,-0.8717578099252201,10.0,0.0,23.32464409698478,23.646179872231876,328.9793321166698,371.9752596584642,0.0
0.07200000000000001,8.772644754852697,-0.8876093265019364,10.0,0.0,23.44571712232544,23.734680704264587,343.31017007327824,371.9752596584642,0.0
0.073,8.849634988599297,-1.0802356818087517,10.0,0.0,23.5845633122533,23.820050944873287,348.6158014602051,371.9752596584642,0.0
0.074,8.836281080674883,-1.373707861502148,10.0,0.0,23.74841758346246,23.913007612623048,366.91136968524245,371.9752596584642,0.0
0.075,8.791996865462938,-1.667046103420008,9.33020253313906,0.0,23.934514579139687,23.944114043958105,373.0988538518565,371.9752596584642,0.0
0.076,8.664128630782198,-1.9711902229363225,6.225224507898103,0.0,24.135634989110333,23.669492587282257,382.7272033325064,371.9752596584642,0.0
0.077,8.347032348157622,-2.178267195041653,1.3035303308327375,0.0,24.308918238152735,22.965710646788168,391.41724158754477,371.9752596584642,0.0
0.078,7.732438375853879,-2.2602194416543857,-3.235908615977248,0.0,24.40143894564785,21.96394825699645,393.6134477614855,371.9752596584642,0.0
0.079,6.888251816644078,-2.1973797110776143,-4.550393583977816,0.0,24.376799450584702,21.059129801711492,395.6211260989525,371.9752596584642,0.0
0.08,6.032605808868082,-2.1012083986207095,-5.79069141711622,0.0,24.25419161243488,20.204720525746758,395.2886900365901,371.9752596584642,0.0
0.081,5.227306129320937,-1.9869054906163066,-5.857607689716261,0.0,24.046792023747656,19.508560086581326,393.20750801093646,371.9752596584642,0.0
0.082,4.548565413348679,-1.881689456786661,-5.029339160414175,0.0,23.780085615371387,19.019662915374415,390.2731758095878,371.9752596584642,0.0
0.083,4.0455155453807725,-1.8018355633687737,-3.745152221251092,0.0,23.483428362774404,18.734510776782237,386.84553205014464,371.9752596584642,0.0
0.084,3.7247606731137597,-1.7565949712547402,-2.1800330654463043,0.0,23.18374369537952,18.637781901806168,382.6039264718224,371.9752596584642,0.0
0.085,3.5752887650228455,-1.7447787948731857,-0.1655169444187532,0.0,22.903507233745685,18.739937390510523,378.2721403992578,371.9752596584642,0.0
0.08600000000000001,3.5972527963269485,-1.7605213939800932,1.9374072844555954,0.0,22.663359814811244,19.01111942562261,373.7907434937167,371.9752596584642,0.0
0.08700000000000001,3.7675995655106753,-1.800224883811065,4.159950898873614,0.0,22.47855529917179,19.436100566330097,369.74414126347773,371.9752596584642,0.0
0.088,4.075857108532505,-1.8442054574955702,6.205563197942974,0.0,22.359170177374025,19.9706901961158,370.55457720022014,371.9752596584642,0.0
0.089,4.487501340419479,-1.8876580695831826,5.814552054154211,0.0,22.309522512327398,20.334216711858335,370.4884981545639,371.9752596584642,0.0
0.09,4.834799152161354,-1.899489914959514,5.862459192021332,0.0,22.30205924223021,20.631519389152494,358.73279651856603,371.9752596584642,0.0
0.091,5.163920691103723,-1.822733781124695,10.0,0.0,22.316511073696557,21.320265498040254,358.7484148432136,371.9752596584642,0.0
0.092,5.695158718450475,-1.7813285444028177,10.0,0.0,22.394605318203986,21.845061803487372,358.3343064950551,371.9752596584642,0.0
0.093,6.187739897797449,-1.7582462713703726,10.0,0.0,22.515244771139045,22.276316353385816,345.7559583196922,371.9752596584642,0.0
0.094,6.675186280399716,-1.639057242002746,10.0,0.0,22.654065763270317,22.627816103295146,347.2269660333221,371.9752596584642,0.0
0.095,7.1124052770981905,-1.5020102411068028,10.0,0.0,22.800271351374523,22.914828351615856,335.01699701466424,371.9752596584642,0.0
0.096,7.532548170631882,-1.3196169477505988,10.0,0.0,22.941864813240144,23.145916405593198,332.97920950016396,371.9752596584642,0.0
0.097,7.918433864133902,-1.1444155248650536,10.0,0.0,23.074959510733102,23.32980900300948,324.5738557637788,371.9752596584642,0.0
0.098,8.318234485683098,-0.915302065375835,10.0,0.0,23.189683531903437,23.46850259899804,322.8674013453138,371.9752596584642,0.0
0.099,8.635241518836105,-0.8059042275857036,10.0,0.0,23.29706188299357,23.573926470073445,338.0249630726922,371.9752596584642,0.0
0.1,8.766957151707766,-0.9654603571167395,10.0,0.0,23.422889938708543,23.66822713986596,342.4124760339831,371.9752596584642,0.0
0.101,8.795346489832939,-1.2356264368956404,10.0,0.0,23.57368796331163,23.76387487738567,359.8408030363168,371.9752596584642,0.0
0.10200000000000001,8.767279176238285,-1.5410519928760638,10.0,0.0,23.749866109566444,23.868408941490387,366.62700894530695,371.9752596584642,0.0
0.10300000000000001,8.70835970392002,-1.8397122594354542,8.835823696988356,0.0,23.948678221367985,23.858248489297893,385.48657916954255,371.9752596584642,0.0
0.10400000000000001,8.545066396662117,-2.1239571560410764,-0.7290746102402244,0.0,24.154873412731135,22.845861311814954,383.77110070064725,371.9752596584642,0.0
0.105,7.834950947486968,-2.159103207479569,0.010706213785594443,0.0,24.24023398390186,22.208837011268447,389.6562129544793,371.9752596584642,0.0
0.106,7.145007145702144,-2.1672422544183734,-3.108659446090588,0.0,24.253899902549747,21.362315830771607,393.46487414032526,371.9752596584642,0.0
0.107,6.359528555966786,-2.126955525664804,-5.227886183832172,0.0,24.177034180650875,20.47939528248946,393.50489539868954,371.9752596584642,0.0
0.108,5.5536879562584485,-2.0316795217587718,-5.463193170416565,0.0,24.00948548297154,19.75317639576934,392.34827091304226,371.9752596584642,0.0
0.109,4.846405246565022,-1.9346147303853742,-5.088611040138703,0.0,23.77634539937613,19.196124324218903,390.0286032258387,371.9752596584642,0.0
0.11,4.283875629393223,-1.8545897038795167,-4.109310632210674,0.0,23.502982011983296,18.830246105825225,387.14698874996026,371.9752596584642,0.0
0.111,3.8919928345070476,-1.7968784585154847,-2.820220685186409,0.0,23.214819154765397,18.643108071890794,383.4090702137466,371.9752596584642,0.0
0.112,3.663295037049963,-1.7689902747491975,-1.0655995226323975,0.0,22.93426819211519,18.647222913810126,379.16386019354405,371.9752596584642,0.0
0.113,3.600453463499881,-1.7690905934366028,0.9851194821180709,0.0,22.68247372681523,18.835529649285466,374.9219110752769,371.9752596584642,0.0
0.114,3.695049593941116,-1.7958586842066608,3.0766275270835157,0.0,22.477632868390614,19.17835096949792,370.1980912808148,371.9752596584642,0.0
0.115,3.9287307008258643,-1.8357844928963987,5.4563091080910535,0.0,22.33168238587788,19.682497004854937,368.54465381252123,371.9752596584642,0.0
0.116,4.3004689653611665,-1.8772710270679345,6.317333900697278,0.0,22.254905815824095,20.153994901771554,371.29290990130045,371.9752596584642,0.0
0.117,4.693643702262856,-1.9063420861743572,4.950029353879308,0.0,22.235739643627337,20.372119765501253,362.47307103335356,371.9752596584642,0.0
0.11800000000000001,4.971756999041025,-1.8609763835176425,9.454970674103857,0.0,22.235021637139923,21.049071401054604,356.1158340819467,371.9752596584642,0.0
0.11900000000000001,5.4817403743061694,-1.8207646576768082,10.0,0.0,22.298100962040664,21.619842846738827,359.39140926055114,371.9752596584642,0.0
0.12,5.990114368673059,-1.8005635837853846,10.0,0.0,22.410129498150106,22.08357348145804,349.3461132580996,371.9752596584642,0.0
0.121,6.466074916165565,-1.7323924233016892,10.0,0.0,22.55003142720624,22.464861986035764,348.1726679492907,371.9752596584642,0.0
0.122,6.9317078694504355,-1.574835081757517,10.0,0.0,22.697422417849495,22.77555181367492,339.10171739532143,371.9752596584642,0.0
0.123,7.33096276512653,-1.4419506216584344,10.0,0.0,22.84810157499689,23.03065004862296,336.82515852923234,371.9752596584642,0.0
0.124,7.74991267719217,-1.221885909789286,10.0,0.0,22.986344366219733,23.233214434420482,323.50134170219474,371.9752596584642,0.0
0.125,8.123076505801777,-1.0398472180911345,10.0,0.0,23.113195707931943,23.392488138734137,322.5655939724855,371.9752596584642,0.0
0.126,8.49301698279464,-0.8437165279037817,10.0,0.0,23.223535296900664,23.51155779260452,327.6897763715081,371.9752596584642,0.0
0.127,8.725340437844507,-0.8585478269457734,10.0,0.0,23.33834064215604,23.60789826469918,338.21229657158534,371.9752596584642,0.0
0.128,8.776062230041857,-1.1180297469915832,10.0,0.0,23.47969419830998,23.702829061518713,353.13736911602956,371.9752596584642,0.0
0.129,8.79348989323831,-1.3733579105401539,10.0,0.0,23.64189675732035,23.80099230924204,360.27787242563704,371.9752596584642,0.0
0.13,8.733882557505574,-1.7002190222429547,10.0,0.0,23.831096825853834,23.912290571656644,376.64285535448676,371.9752596584642,0.0
0.131,8.664766990166523,-1.9869092288588894,3.400483338125678,0.0,24.040774025386163,23.312438820926932,381.6219190075143,371.9752596584642,0.0
0.132,8.182195528603103,-2.1505254558658464,0.8144849181214084,0.0,24.184629212796896,22.627467010740265,387.2839291965028,371.9752596584642,0.0
0.133,7.545921562539415,-2.186583282771274,-2.1696068717532366,0.0,24.247931899137416,21.788152209278557,392.3262679091508,371.9752596584642,0.0
0.134,6.77099656780019,-2.1654094243472244,-4.894286310584082,0.0,24.218283134002018,20.8481043459851,392.9584979150835,371.9752596584642,0.0
0.135,5.928030616966332,-2.0711253222479384,-5.420233696116646,0.0,24.087434946404134,20.05346597913151,392.5784066010054,371.9752596584642,0.0
0.136,5.161122374165314,-1.9688387957631586,-5.436219508502993,0.0,23.879899063988336,19.40463791189608,390.7781539419922,371.9752596584642,0.0
0.137,4.52031399118524,-1.8781631219554153,-4.724122121831667,0.0,23.619282504236562,18.94124947350013,388.04087831498686,371.9752596584642,0.0
0.138,4.042673195483838,-1.8079733408672882,-3.516140494894234,0.0,23.33157463743877,18.670027631762352,384.7329092105354,371.9752596584642,0.0
0.139,3.736397061373628,-1.7674848267721348,-1.9897324381892245,0.0,23.04176353440739,18.581896224281863,380.62661481280935,371.9752596584642,0.0
0.14,3.594258337572511,-1.7578066658200964,-0.02309879086964539,0.0,22.771460688367327,18.687234966161405,376.4160600357912,371.9752596584642,0.0
0.14100000000000001,3.6181008226810905,-1.7737911489951794,2.037770593866165,0.0,22.540577075878005,18.95799478449678,371.9805118732969,371.9752596584642,0.0
0.14200000000000002,3.786873686047265,-1.8120766978122547,4.2554921529649805,0.0,22.363909372009278,19.383604347284,368.18107038982237,371.9752596584642,0.0
0.14300000000000002,4.0932886929941805,-1.8540169390282764,6.193154787388668,0.0,22.251699965851735,19.907933935470744,369.27076432579133,371.9752596584642,0.0
0.14400000000000002,4.497080105928802,-1.8942112739974168,5.675352772730913,0.0,22.20714643356307,20.250921870913135,368.58967084455014,371.9752596584642,0.0
