timestamp,iq,id,iq_ref,id_ref,vq,vd,omega,omega_ref,r
0.0,0.0,0.0,0.0,0.0,0.0,0.0,0.0,435.8101904756307,0.0
0.001,0.0,0.0,10.0,0.0,0.0,1.0999999999999999,6.115472199294103,435.8101904756307,0.0
0.002,0.5307369851907212,-0.2913212625381807,10.0,0.0,0.14204533887919985,1.9316189316290207,13.317801563642547,435.8101904756307,0.0
0.003,1.0842913387634832,-0.6024330830807904,10.0,0.0,0.384357124667687,2.6386968949419622,20.697939467553027,435.8101904756307,0.0
0.004,1.5590443546685477,-0.8700465084428163,10.0,0.0,0.6994718867930164,3.2526109522886295,28.232747544420146,435.8101904756307,0.0
0.005,1.9399447555359186,-1.0838738622210777,10.0,0.0,1.065311453102468,3.7994935661768023,35.92944872443006,435.8101904756307,0.0
0.006,2.239750732602683,-1.2510087368845633,10.0,0.0,1.4655018868449925,4.299102221838433,43.75633668444442,435.8101904756307,0.0
0.007,2.4770151619816017,-1.382020589851471,10.0,0.0,1.8883740978591532,4.765668027847139,51.58766747378032,435.8101904756307,0.0
0.008,2.6680767290418097,-1.4872241871505252,10.0,0.0,2.325877945545995,5.209220346273558,59.45942083902103,435.8101904756307,0.0
0.009000000000000001,2.8266491704841292,-1.5730794701170803,10.0,0.0,2.772378685460125,5.636635464737965,67.35059094018146,435.8101904756307,0.0
0.01,2.962077666392183,-1.645500646948331,10.0,0.0,3.224078639851053,6.052647735211881,75.20908322432116,435.8101904756307,0.0
0.011,3.0811061533574158,-1.7084279320504514,10.0,0.0,3.678407615443203,6.460489925470405,83.0265951655913,435.8101904756307,0.0
0.012,3.188848746459569,-1.7638278597420747,10.0,0.0,4.133552631697047,6.862319393890706,90.74118064793086,435.8101904756307,0.0
0.013000000000000001,3.288205119878689,-1.8140726097274587,10.0,0.0,4.588339016389012,7.259628641949282,98.35820682563939,435.8101904756307,0.0
0.014,3.3820602099432007,-1.8592355758795645,10.0,0.0,5.041843166194517,7.653355107498287,105.90865295623543,435.8101904756307,0.0
0.015,3.4721069852858886,-1.899829032412081,10.0,0.0,5.493383198131427,8.044092747085895,113.37727610343421,435.8101904756307,0.0
0.016,3.5596145800153947,-1.9360338400176071,10.0,0.0,5.94241958510469,8.43218525824161,120.68508583176356,435.8101904756307,0.0
0.017,3.645144415105338,-1.9685384477868613,10.0,0.0,6.388575043274759,8.817838951066484,127.83962377537456,435.8101904756307,0.0
0.018000000000000002,3.730251927866576,-1.9959253041084188,10.0,0.0,6.83136783302799,9.201036292373047,134.85405702603322,435.8101904756307,0.0
0.019,3.81544967906247,-2.018253592643655,10.0,0.0,7.270383321112213,9.581672501020332,141.68976328564074,435.8101904756307,0.0
0.02,3.9014648862453374,-2.0350875541282063,10.0,0.0,7.705189334130692,9.959536942333155,148.3432823300447,435.8101904756307,0.0
0.021,3.9891051824829464,-2.0457889559126508,10.0,0.0,8.135310004560049,10.334315260302239,154.92060212100432,435.8101904756307,0.0
0.022,4.079618141396171,-2.0489696811670974,10.0,0.0,8.560139305503519,10.705547790999272,161.01925282597162,435.8101904756307,0.0
0.023,4.171109372430197,-2.048468292080302,10.0,0.0,8.979521969370257,11.072981092896333,166.534238406907,435.8101904756307,0.0
0.024,4.266936196769627,-2.039517194249811,10.0,0.0,9.392730090169543,11.435983292623375,171.8647834235234,435.8101904756307,0.0
0.025,4.367255527950721,-2.0225841458509217,10.0,0.0,9.79914449451603,11.793929226271104,177.02637022703064,435.8101904756307,0.0
0.026000000000000002,4.4734353073349595,-1.9962166741499119,10.0,0.0,10.197980960389518,12.146045424568259,181.63161391243256,435.8101904756307,0.0
0.027,4.582366840795821,-1.966358349113627,10.0,0.0,10.589124658468391,12.491912978736195,185.74793639675826,435.8101904756307,0.0
0.028,4.700058850757774,-1.9240450691803936,10.0,0.0,10.971384864613876,12.830451341534015,189.43662766964098,435.8101904756307,0.0
0.029,4.820934284790598,-1.879137197786803,10.0,0.0,11.344756153370636,13.161242511022618,192.73598774770625,435.8101904756307,0.0
0.03,4.952016225740939,-1.821000614527957,10.0,0.0,11.707923484756042,13.483081433273819,195.59831968863915,435.8101904756307,0.0
0.031,5.086039273572549,-1.7621311371320891,10.0,0.0,12.061063698547066,13.79562148058647,197.80891551030922,435.8101904756307,0.0
0.032,5.230431844273564,-1.6911110488141978,10.0,0.0,12.40292038074925,14.097678592248165,200.4421589734679,435.8101904756307,0.0
0.033,5.380124186618445,-1.6166151787533525,10.0,0.0,12.733312761073865,14.38869342901298,201.91742172589852,435.8101904756307,0.0
0.034,5.537594793894332,-1.535029134414507,10.0,0.0,13.051537880865839,14.667821176756876,203.18880493813168,435.8101904756307,0.0
0.035,5.698947813469154,-1.4530296333491768,10.0,0.0,13.357649178779205,14.934684535625108,203.60405746232266,435.8101904756307,0.0
0.036000000000000004,5.870474243492053,-1.3603000477825025,10.0,0.0,13.65045542338638,15.188218311291084,204.28541056101804,435.8101904756307,0.0
0.037,6.041188711220851,-1.275010780747051,10.0,0.0,13.930879897581198,15.42861600670124,205.2233356988433,435.8101904756307,0.0
0.038,6.228175208801664,-1.168399557236846,10.0,0.0,14.196427351981786,15.654155009933262,200.35169734043586,435.8101904756307,0.0
0.039,6.404895489618571,-1.0845312562500289,10.0,0.0,14.449814560392067,15.86612549236809,209.64773540576442,435.8101904756307,0.0
0.04,6.534612624563911,-1.0851225869390002,10.0,0.0,14.699963825590459,16.069735965364643,218.170241886545,435.8101904756307,0.0
0.041,6.621487035821765,-1.1484636683301073,10.0,0.0,14.952420817214799,16.26974130369247,220.68166573712315,435.8101904756307,0.0
0.042,6.6704785161669795,-1.2647840534085386,10.0,0.0,15.211794475054209,16.47047148862455,233.10654395573727,435.8101904756307,0.0
0.043000000000000003,6.709376245503157,-1.3867642159960276,10.0,0.0,15.477558399636717,16.673277185423842,235.10815372853793,435.8101904756307,0.0
0.044,6.744196093263161,-1.5028656568708394,10.0,0.0,15.74857785831126,16.87893749904121,248.8181267625822,435.8101904756307,0.0
0.045,6.750563942850831,-1.6564343609015326,10.0,0.0,16.02879294551472,17.090781462187255,251.61117095327992,435.8101904756307,0.0
0.046,6.764566527560506,-1.7840489455190416,10.0,0.0,16.314672837580048,17.307985931916857,266.60539535969383,435.8101904756307,0.0
0.047,6.752169677737121,-1.9446655565152717,10.0,0.0,16.610076868775216,17.533561623207692,270.0627790167984,435.8101904756307,0.0
0.048,6.7291903821171735,-2.110358990489937,10.0,0.0,16.91511817760721,17.768523902508925,283.13731951482634,435.8101904756307,0.0
0.049,6.714097190323873,-2.246352557911731,10.0,0.0,17.22645394156277,18.011924542904307,294.70561782835244,435.8101904756307,0.0
0.05,6.666841209228205,-2.4219663531358275,10.0,0.0,17.548953774962747,18.267165921658286,300.1294548425776,435.8101904756307,0.0
0.051000000000000004,6.612335516543512,-2.59336894353628,10.0,0.0,17.88182590988993,18.53465621226123,310.75154600411304,435.8101904756307,0.0
0.052000000000000005,6.568447424188529,-2.726701034625408,10.0,0.0,18.22111236450049,18.81296732052879,322.35703405819294,435.8101904756307,0.0
0.053,6.5036136539679195,-2.8764091099274185,10.0,0.0,18.569435851849082,19.104068797231378,330.9557012510771,435.8101904756307,0.0
0.054,6.434362099984388,-3.0149932598739144,10.0,0.0,18.925784313874168,19.407861808234543,339.4707232587175,435.8101904756307,0.0
0.055,6.370891759459199,-3.1253006473392393,10.0,0.0,19.28762520191878,19.723199586257838,348.00092263299223,435.8101904756307,0.0
0.056,6.314459991163816,-3.2071523724558277,10.0,0.0,19.65271639484943,20.048760466390505,356.29964302226927,435.8101904756307,0.0
0.057,6.266092078485367,-3.262894600420583,10.0,0.0,20.01916768432525,20.383030530514645,362.98468703488817,435.8101904756307,0.0
0.058,6.234656406121481,-3.2830044001420036,10.0,0.0,20.38405550695561,20.723492962007192,368.0316803659419,435.8101904756307,0.0
0.059000000000000004,6.228510489334133,-3.2600491726267444,10.0,0.0,20.743774617448285,21.0667596267365,372.35801287012686,435.8101904756307,0.0
0.06,6.247959954981508,-3.201438289803519,10.0,0.0,21.095630838529225,21.40947063565305,373.88739853789605,435.8101904756307,0.0
0.061,6.298571070969623,-3.1064761741463998,10.0,0.0,21.436712814499675,21.747723437683817,371.47602194372377,435.8101904756307,0.0
0.062,6.38094735961424,-2.982369480030801,10.0,0.0,21.76480975788002,22.077703876517536,366.2922057853833,435.8101904756307,0.0
0.063,6.53566146196873,-2.7695519558602215,10.0,0.0,22.070926190088084,22.39130117743337,372.07145994459506,435.8101904756307,0.0
0.064,6.708566607552835,-2.560747003310555,10.0,0.0,22.35695033962817,22.686677966487718,365.1882535794375,435.8101904756307,0.0
0.065,6.897199383751794,-2.3667028673086685,10.0,0.0,22.62465294768497,22.962098937664592,356.7297130485294,435.8101904756307,0.0
0.066,7.167218997264825,-2.0824440278168583,10.0,0.0,22.863799361069702,23.20893224280502,357.7888817172531,435.8101904756307,0.0
0.067,7.423387055578651,-1.859201647307153,10.0,0.0,23.082000390168847,23.42951856849048,345.1266644280509,435.8101904756307,0.0
0.068,7.736929428236853,-1.5824320316278497,10.0,0.0,23.27222771500701,23.617938384108047,342.9584987314189,435.8101904756307,0.0
0.069,8.04132723792414,-1.3546495884062866,10.0,0.0,23.43998591632552,23.77619061530866,334.2677598047511,435.8101904756307,0.0
0.07,8.395997401416553,-1.0747195592463576,10.0,0.0,23.578279041856877,23.89942370363377,322.7417355360636,435.8101904756307,0.0
0.07100000000000001,8.726669482066718,-0.8579631993863083,10.0,0.0,23.694022264374595,23.99133556844291,337.9106389559309,435.8101904756307,0.0
0.07200000000000001,8.91385728821635,-0.8925675486457335,10.0,0.0,23.81335639313859,24.06834663115294,344.8606079910171,435.8101904756307,0.0
0.073,8.941721008651788,-1.1508071676799903,10.0,0.0,23.95651852989837,24.148396869281978,362.43451347602996,435.8101904756307,0.0
0.074,8.927907180207171,-1.4305443375681337,10.0,0.0,24.121558169292424,24.236556455607346,368.59250641149885,435.8101904756307,0.0
0.075,8.859340450140312,-1.7499202918046703,10.0,0.0,24.31124378664675,24.33980824926249,387.10067316750514,435.8101904756307,0.0
0.076,8.767176841935807,-2.0562826706616475,10.0,0.0,24.52279212376306,24.461155754889383,396.7190369145668,435.8101904756307,0.0
0.077,8.62162972262067,-2.4016532593838043,10.0,0.0,24.76024751870129,24.606611890707832,408.83095327273656,435.8101904756307,0.0
0.078,8.47560200325128,-2.694417929744825,10.0,0.0,25.017253395580042,24.77587553037574,428.2762610097064,435.8101904756307,0.0
0.079,8.289593068490031,-3.001970310780605,10.0,0.0,25.296388163948027,24.972914099394785,438.0404594767293,435.8101904756307,0.0
0.08,8.078425759776728,-3.30171273584331,5.577881101846333,0.0,25.597209455327658,24.713097524162663,444.520172030737,435.8101904756307,0.0
0.081,7.648602137327547,-3.409377324895391,2.250925009291432,0.0,25.85081264059122,24.232769679774492,450.4804796276869,435.8101904756307,0.0
0.082,7.047626897363976,-3.3602386861327527,-0.8759316807040891,0.0,26.024540826735198,23.576959303549042,450.63571029987025,435.8101904756307,0.0
0.083,6.33605554792372,-3.178251892698176,-1.101802215038152,0.0,26.09578799575205,23.08278868772253,447.15413979940814,435.8101904756307,0.0
0.084,5.723555071903931,-2.9392946015257664,0.5255435419551286,0.0,26.086027952189948,22.88668592786073,442.37977010296606,435.8101904756307,0.0
0.085,5.340090320764713,-2.722246836060631,2.8470325939028145,0.0,26.03614795570844,22.98436389563834,436.0749063277863,435.8101904756307,0.0
0.08600000000000001,5.222728854134802,-2.553223003771234,5.996817322971129,0.0,25.984601611755657,23.39962261048596,431.0630953979657,435.8101904756307,0.0
0.08700000000000001,5.399029705220924,-2.4260731192916536,8.550193738658091,0.0,25.967439524713065,23.997007669602656,433.81943147334914,435.8101904756307,0.0
0.088,5.778911579980279,-2.3489953748372017,7.191933290989185,0.0,26.004525099241192,24.31797160299031,426.2853638326546,435.8101904756307,0.0
0.089,6.100979194879366,-2.231944484920681,10.0,0.0,26.057893689209013,24.901389024068575,412.2950731083606,435.8101904756307,0.0
0.09,6.608995233323183,-2.0637284248652192,10.0,0.0,26.146933904580944,25.35105980686587,414.2154770423139,435.8101904756307,0.0
0.091,7.113069146390801,-1.8820564099126886,10.0,0.0,26.253735415651175,25.714299562867616,398.82541459395304,435.8101904756307,0.0
0.092,7.60134674079805,-1.6731293234777227,10.0,0.0,26.36501549185624,26.003225698122097,394.8500581100069,435.8101904756307,0.0
0.093,8.099993895969735,-1.4017243749406987,10.0,0.0,26.466294900491526,26.224418816346823,378.0774382655531,435.8101904756307,0.0
0.094,8.567903104978448,-1.1489414799878221,10.0,0.0,26.554473611126305,26.387137022173363,375.1855688665192,435.8101904756307,0.0
0.095,9.034734266250707,-0.8823612696034058,10.0,0.0,26.623310277087512,26.495728942830866,373.63118752037616,435.8101904756307,0.0
0.096,9.45446610282583,-0.6854516819302856,10.0,0.0,26.677128215978144,26.558843147608187,381.19426477418745,435.8101904756307,0.0
0.097,9.587315774858078,-0.9155851477189398,10.0,0.0,26.759159558570925,26.61061158023906,395.8834519570049,435.8101904756307,0.0
0.098,9.587009818871191,-1.2856552289194627,10.0,0.0,26.876570984441685,26.666768455744997,409.5145344164302,435.8101904756307,0.0
0.099,9.54093526212159,-1.6452480848861282,10.0,0.0,27.0237114686203,26.734115927970006,425.40590526094246,435.8101904756307,0.0
0.1,9.404952840158844,-2.0725866997300377,10.0,0.0,27.206283970676715,26.823940022238773,437.5139493617213,435.8101904756307,0.0
0.101,9.249613392226832,-2.4509881267615676,6.066237839485735,0.0,27.416932402779395,26.506052634682632,453.91307160965914,435.8101904756307,0.0
0.10200000000000001,8.823641641040393,-2.7518484671305394,-2.3143520958234687,0.0,27.604037876086455,25.4037950559647,456.03222226980847,435.8101904756307,0.0
0.10300000000000001,7.935527374755717,-2.7682347716162274,-3.576147743839912,0.0,27.661000934280768,24.468915012299995,459.8523468513136,435.8101904756307,0.0
0.10400000000000001,6.989462881560947,-2.7008060846417665,-5.726631598349304,0.0,27.611198663677122,23.504469962893904,460.25371909509414,435.8101904756307,0.0
0.105,6.043452011901072,-2.5625971032872306,-6.171753006434209,0.0,27.455403414113967,22.69863122575444,457.5992996851836,435.8101904756307,0.0
0.106,5.22437372847221,-2.3903716290105743,-5.062434393574473,0.0,27.217041103436316,22.164911601348614,453.06939757553357,435.8101904756307,0.0
0.107,4.626527921528585,-2.234072355590543,-2.9700754097484827,0.0,26.93367239605241,21.937366266337367,446.98645258880225,435.8101904756307,0.0
0.108,4.292638236074973,-2.1218996212602486,-0.040365537514539085,0.0,26.645110017863622,22.036332497526793,440.64604411951996,435.8101904756307,0.0
0.109,4.243779906201845,-2.0605169766598728,3.0814801606877165,0.0,26.389670137049922,22.41268731528982,433.73997185598927,435.8101904756307,0.0
0.11,4.449569468366405,-2.0484110649444984,6.555218478649475,0.0,26.196691902251207,23.05362998605211,429.0539629496978,435.8101904756307,0.0
0.111,4.901286315141373,-2.055830561823722,8.965785207054541,0.0,26.08804296178246,23.793974565679633,431.5823382718627,435.8101904756307,0.0
0.112,5.481771352202434,-2.0834142701988294,7.743876068009776,0.0,26.067253386275812,24.23156793510959,422.0365544103478,435.8101904756307,0.0
0.113,5.961677628317724,-2.0373716077993302,10.0,0.0,26.08696157531513,24.836730893953188,410.05060766288113,435.8101904756307,0.0
0.114,6.558673999316477,-1.9029318282221361,10.0,0.0,26.15088729220538,25.299916598447755,410.7451197659499,435.8101904756307,0.0
0.115,7.107392852209381,-1.7585520309179459,10.0,0.0,26.240201627948363,25.668787194073637,394.79208309134555,435.8101904756307,0.0
0.116,7.637938635701686,-1.5528151972428565,10.0,0.0,26.336284335948424,25.95682931605602,392.2704928877742,435.8101904756307,0.0
0.117,8.14975868163862,-1.3076920887447807,10.0,0.0,26.426656811748682,26.17468074942203,374.9495903184327,435.8101904756307,0.0
0.11800000000000001,8.641625504738352,-1.0486553324129573,10.0,0.0,26.503734371193993,26.33079713694986,368.6404044877597,435.8101904756307,0.0
0.11900000000000001,9.10450775934818,-0.8104550581493273,10.0,0.0,26.56510415084188,26.43301126189336,375.4302114462508,435.8101904756307,0.0
0.12,9.478181026218406,-0.7031854965772677,10.0,0.0,26.621140715989036,26.494665715497675,382.59811592643547,435.8101904756307,0.0
0.121,9.563455335536407,-1.0008077877876635,10.0,0.0,26.71155021763077,26.550114938899988,402.611455350882,435.8101904756307,0.0
0.122,9.559918877958427,-1.3611346483251365,10.0,0.0,26.835123423195572,26.610301943553004,409.49490655165675,435.8101904756307,0.0
0.123,9.485320809721166,-1.7524076959416206,10.0,0.0,26.99179477530165,26.68499799122751,431.3624361702625,435.8101904756307,0.0
0.124,9.36262594887155,-2.1396616804457143,8.68672139384853,0.0,27.17895380478385,26.636181376679612,439.9658955956168,435.8101904756307,0.0
0.125,9.103185379461348,-2.5255403098652276,4.343434629971524,0.0,27.38108937925414,26.173645082596384,450.0069451898128,435.8101904756307,0.0
0.126,8.596993910080775,-2.7397960486147226,-0.8190577142683022,0.0,27.536467111837336,25.306221341078654,458.1381251330859,435.8101904756307,0.0
0.127,7.78743488501822,-2.7971500788991257,-5.107927032479395,0.0,27.593731082954225,24.204916623473277,459.60868774195444,435.8101904756307,0.0
0.128,6.7906581185591754,-2.693176161572773,-6.0811933095769,0.0,27.523127513990136,23.25684803150138,458.7304419075455,435.8101904756307,0.0
0.129,5.846632950436181,-2.5301591673071804,-5.8712729066915905,0.0,27.34788531252932,22.523224849747564,455.89128386917656,435.8101904756307,0.0
0.13,5.073768474948383,-2.356122315646282,-4.652504821442567,0.0,27.099291129299168,22.05297989199401,450.94861640507054,435.8101904756307,0.0
0.131,4.53068446976498,-2.207294715332034,-2.332555348683954,0.0,26.813901201098716,21.89991736865905,444.69469510133445,435.8101904756307,0.0
0.132,4.260148586942627,-2.105565059369826,0.7055602569270549,0.0,26.532042027232112,22.068943433785797,438.41727955278435,435.8101904756307,0.0
0.133,4.272053626973979,-2.0569027282802463,3.8181971404305655,0.0,26.29093581740461,22.50087496291081,431.6023661905597,435.8101904756307,0.0
0.134,4.530998873925518,-2.0510677208201202,7.267732064393613,0.0,26.11697815396263,23.18546026417711,428.94019923038564,435.8101904756307,0.0
0.135,5.023602189665627,-2.0641614786367772,8.66751545693308,0.0,26.030373450425916,23.852075180650395,431.44822867257716,435.8101904756307,0.0
0.136,5.58133915015201,-2.074832836430343,7.457120353867857,0.0,26.020133620669338,24.239801807364017,417.6796805045815,435.8101904756307,0.0
0.137,6.039983830430395,-1.996747500600041,10.0,0.0,26.04099433604052,24.834678955310046,409.06443642662583,435.8101904756307,0.0
0.138,6.632666071720039,-1.8439840700381978,10.0,0.0,26.10323357066566,25.2861170637982,407.91754049711363,435.8101904756307,0.0
0.139,7.169345373751396,-1.7095961078952353,10.0,0.0,26.191137651147013,25.645527384089494,391.5622875205862,435.8101904756307,0.0
0.14,7.71109310697132,-1.484249294699151,10.0,0.0,26.282748085779218,25.923561622765913,388.39469756786514,435.8101904756307,0.0
0.14100000000000001,8.20921470602896,-1.2623800384293653,10.0,0.0,26.370848750758125,26.133577582473773,373.8915466644612,435.8101904756307,0.0
0.14200000000000002,8.714423998369911,-0.9840955756807528,10.0,0.0,26.442748346870278,26.280810206541805,362.02706266392505,435.8101904756307,0.0
0.14300000000000002,9.17451123437177,-0.7511840454712448,10.0,0.0,26.49934382208245,26.374952024777468,375.1657702313048,435.8101904756307,0.0
0.14400000000000002,9.462797407173444,-0.7832173006513257,10.0,0.0,26.565546704968888,26.438228602062605,387.5373712829083,435.8101904756307,0.0
0.145,9.557879782146589,-1.0494366648295015,10.0,0.0,26.66042075480299,26.494221610388827,397.61027028634084,435.8101904756307,0.0
0.146,9.524821343062642,-1.4422715495361218,10.0,0.0,26.791956344162248,26.558689974914827,414.9609759366478,435.8101904756307,0.0
0.147,9.45582182405389,-1.8083936123036999,10.0,0.0,26.953130289095558,26.63712442462427,428.8756798332744,435.8101904756307,0.0
