timestamp,iq,id,iq_ref,id_ref,vq,vd,omega,omega_ref,r
0.0,0.0,0.0,0.0,0.0,0.0,0.0,0.0,355.95620597424744,0.0
0.001,0.0,0.0,10.0,0.0,0.0,1.0999999999999999,6.115472199294103,355.95620597424744,0.0
0.002,0.5307369851907212,-0.2913212625381807,10.0,0.0,0.14204533887919985,1.9316189316290207,13.317801563642547,355.95620597424744,0.0
0.003,1.0842913387634832,-0.6024330830807904,10.0,0.0,0.384357124667687,2.6386968949419622,20.697939467553027,355.95620597424744,0.0
0.004,1.5590443546685477,-0.8700465084428163,10.0,0.0,0.6994718867930164,3.2526109522886295,28.232747544420146,355.95620597424744,0.0
0.005,1.9399447555359186,-1.0838738622210777,10.0,0.0,1.065311453102468,3.7994935661768023,35.92944872443006,355.95620597424744,0.0
0.006,2.239750732602683,-1.2510087368845633,10.0,0.0,1.4655018868449925,4.299102221838433,43.75633668444442,355.95620597424744,0.0
0.007,2.4770151619816017,-1.382020589851471,10.0,0.0,1.8883740978591532,4.765668027847139,51.58766747378032,355.95620597424744,0.0
0.008,2.6680767290418097,-1.4872241871505252,10.0,0.0,2.325877945545995,5.209220346273558,59.45942083902103,355.95620597424744,0.0
0.009000000000000001,2.8266491704841292,-1.5730794701170803,10.0,0.0,2.772378685460125,5.636635464737965,67.35059094018146,355.95620597424744,0.0
0.01,2.962077666392183,-1.645500646948331,10.0,0.0,3.224078639851053,6.052647735211881,75.20908322432116,355.95620597424744,0.0
0.011,3.0811061533574158,-1.7084279320504514,10.0,0.0,3.678407615443203,6.460489925470405,83.0265951655913,355.95620597424744,0.0
0.012,3.188848746459569,-1.7638278597420747,10.0,0.0,4.133552631697047,6.862319393890706,90.74118064793086,355.95620597424744,0.0
0.013000000000000001,3.288205119878689,-1.8140726097274587,10.0,0.0,4.588339016389012,7.259628641949282,98.35820682563939,355.95620597424744,0.0
0.014,3.3820602099432007,-1.8592355758795645,10.0,0.0,5.041843166194517,7.653355107498287,105.90865295623543,355.95620597424744,0.0
0.015,3.4721069852858886,-1.899829032412081,10.0,0.0,5.493383198131427,8.044092747085895,113.37727610343421,355.95620597424744,0.0
0.016,3.5596145800153947,-1.9360338400176071,10.0,0.0,5.94241958510469,8.43218525824161,120.68508583176356,355.95620597424744,0.0
0.017,3.645144415105338,-1.9685384477868613,10.0,0.0,6.388575043274759,8.817838951066484,127.83962377537456,355.95620597424744,0.0
0.018000000000000002,3.730251927866576,-1.9959253041084188,10.0,0.0,6.83136783302799,9.201036292373047,134.85405702603322,355.95620597424744,0.0
0.019,3.81544967906247,-2.018253592643655,10.0,0.0,7.270383321112213,9.581672501020332,141.68976328564074,355.95620597424744,0.0
0.02,3.9014648862453374,-2.0350875541282063,10.0,0.0,7.705189334130692,9.959536942333155,148.3432823300447,355.95620597424744,0.0
0.021,3.9891051824829464,-2.0457889559126508,10.0,0.0,8.135310004560049,10.334315260302239,154.92060212100432,355.95620597424744,0.0
0.022,4.079618141396171,-2.0489696811670974,10.0,0.0,8.560139305503519,10.705547790999272,161.01925282597162,355.95620597424744,0.0
0.023,4.171109372430197,-2.048468292080302,10.0,0.0,8.979521969370257,11.072981092896333,166.534238406907,355.95620597424744,0.0
0.024,4.266936196769627,-2.039517194249811,10.0,0.0,9.392730090169543,11.435983292623375,171.8647834235234,355.95620597424744,0.0
0.025,4.367255527950721,-2.0225841458509217,10.0,0.0,9.79914449451603,11.793929226271104,177.02637022703064,355.95620597424744,0.0
0.026000000000000002,4.4734353073349595,-1.9962166741499119,10.0,0.0,10.197980960389518,12.146045424568259,181.63161391243256,355.95620597424744,0.0
0.027,4.582366840795821,-1.966358349113627,10.0,0.0,10.589124658468391,12.491912978736195,185.74793639675826,355.95620597424744,0.0
0.028,4.700058850757774,-1.9240450691803936,10.0,0.0,10.971384864613876,12.830451341534015,189.43662766964098,355.95620597424744,0.0
0.029,4.820934284790598,-1.879137197786803,10.0,0.0,11.344756153370636,13.161242511022618,192.73598774770625,355.95620597424744,0.0
0.03,4.952016225740939,-1.821000614527957,10.0,0.0,11.707923484756042,13.483081433273819,195.59831968863915,355.95620597424744,0.0
0.031,5.086039273572549,-1.7621311371320891,10.0,0.0,12.061063698547066,13.79562148058647,197.80891551030922,355.95620597424744,0.0
0.032,5.230431844273564,-1.6911110488141978,10.0,0.0,12.40292038074925,14.097678592248165,200.4421589734679,355.95620597424744,0.0
0.033,5.380124186618445,-1.6166151787533525,10.0,0.0,12.733312761073865,14.38869342901298,201.91742172589852,355.95620597424744,0.0
0.034,5.537594793894332,-1.535029134414507,10.0,0.0,13.051537880865839,14.667821176756876,203.18880493813168,355.95620597424744,0.0
0.035,5.698947813469154,-1.4530296333491768,10.0,0.0,13.357649178779205,14.934684535625108,203.60405746232266,355.95620597424744,0.0
0.036000000000000004,5.870474243492053,-1.3603000477825025,10.0,0.0,13.65045542338638,15.188218311291084,204.28541056101804,355.95620597424744,0.0
0.037,6.041188711220851,-1.275010780747051,10.0,0.0,13.930879897581198,15.42861600670124,205.2233356988433,355.95620597424744,0.0
0.038,6.228175208801664,-1.168399557236846,10.0,0.0,14.196427351981786,15.654155009933262,200.35169734043586,355.95620597424744,0.0
0.039,6.404895489618571,-1.0845312562500289,10.0,0.0,14.449814560392067,15.86612549236809,209.64773540576442,355.95620597424744,0.0
0.04,6.534612624563911,-1.0851225869390002,10.0,0.0,14.699963825590459,16.069735965364643,218.170241886545,355.95620597424744,0.0
0.041,6.621487035821765,-1.1484636683301073,10.0,0.0,14.952420817214799,16.26974130369247,220.68166573712315,355.95620597424744,0.0
0.042,6.6704785161669795,-1.2647840534085386,10.0,0.0,15.211794475054209,16.47047148862455,233.10654395573727,355.95620597424744,0.0
0.043000000000000003,6.709376245503157,-1.3867642159960276,10.0,0.0,15.477558399636717,16.673277185423842,235.10815372853793,355.95620597424744,0.0
0.044,6.744196093263161,-1.5028656568708394,10.0,0.0,15.74857785831126,16.87893749904121,248.8181267625822,355.95620597424744,0.0
0.045,6.750563942850831,-1.6564343609015326,10.0,0.0,16.02879294551472,17.090781462187255,251.61117095327992,355.95620597424744,0.0
0.046,6.764566527560506,-1.7840489455190416,10.0,0.0,16.314672837580048,17.307985931916857,266.60539535969383,355.95620597424744,0.0
0.047,6.752169677737121,-1.9446655565152717,10.0,0.0,16.610076868775216,17.533561623207692,270.0627790167984,355.95620597424744,0.0
0.048,6.7291903821171735,-2.110358990489937,10.0,0.0,16.91511817760721,17.768523902508925,283.13731951482634,355.95620597424744,0.0
0.049,6.714097190323873,-2.246352557911731,10.0,0.0,17.22645394156277,18.011924542904307,294.70561782835244,355.95620597424744,0.0
0.05,6.666841209228205,-2.4219663531358275,10.0,0.0,17.548953774962747,18.267165921658286,300.1294548425776,355.95620597424744,0.0
0.051000000000000004,6.612335516543512,-2.59336894353628,10.0,0.0,17.88182590988993,18.53465621226123,310.75154600411304,355.95620597424744,0.0
0.052000000000000005,6.568447424188529,-2.726701034625408,10.0,0.0,18.22111236450049,18.81296732052879,322.35703405819294,355.95620597424744,0.0
0.053,6.5036136539679195,-2.8764091099274185,10.0,0.0,18.569435851849082,19.104068797231378,330.9557012510771,355.95620597424744,0.0
0.054,6.434362099984388,-3.0149932598739144,10.0,0.0,18.925784313874168,19.407861808234543,339.4707232587175,355.95620597424744,0.0
0.055,6.370891759459199,-3.1253006473392393,10.0,0.0,19.28762520191878,19.723199586257838,348.00092263299223,355.95620597424744,0.0
0.056,6.314459991163816,-3.2071523724558277,9.695273266795837,0.0,19.65271639484944,20.01524052573804,356.1800146725978,355.95620597424744,0.0
0.057,6.250354842713706,-3.2541996566742983,5.60348916000955,0.0,20.01485924644791,19.874024754795407,360.1828615309985,355.95620597424744,0.0
0.058,5.983465092979242,-3.1633346277242618,3.5597991752416966,0.0,20.31620060976559,19.62797360983657,356.86765280752735,355.95620597424744,0.0
0.059000000000000004,5.637227544655626,-2.9605499180335912,5.208289068644462,0.0,20.54140505447913,19.67384973664562,353.7050014460807,355.95620597424744,0.0
0.06,5.448417485009914,-2.7640691634990597,6.812126794649454,0.0,20.729091631500346,19.91490267724943,356.7009840355078,355.95620597424744,0.0
0.061,5.435374543516496,-2.6098224248898454,5.306687719323293,0.0,20.90711251117815,19.96852892891687,358.2613871512279,355.95620597424744,0.0
0.062,5.402890491119593,-2.4392400143832265,4.50343434969345,0.0,21.055472330285276,19.964733979828054,348.3908406642676,355.95620597424744,0.0
0.063,5.379383794388589,-2.2191785411252902,9.514361246273388,0.0,21.166115734619503,20.537649895995372,346.5736393108649,355.95620597424744,0.0
0.064,5.681640667659271,-2.0870216469410745,10.0,0.0,21.31064974650936,21.03416623189642,350.2361155147064,355.95620597424744,0.0
0.065,6.038429616480515,-2.0172136544413215,8.732414640491061,0.0,21.4840246805672,21.314969342675465,339.0003069611134,355.95620597424744,0.0
0.066,6.345717359495335,-1.8763054710163942,10.0,0.0,21.65334061204541,21.706906116680038,339.34778109555265,355.95620597424744,0.0
0.067,6.723417350447304,-1.7090933125949417,10.0,0.0,21.827934372184156,22.025430831262334,331.4469962560501,355.95620597424744,0.0
0.068,7.072642168148605,-1.572342701442686,10.0,0.0,22.003550782124716,22.29492472036264,328.90969236923695,355.95620597424744,0.0
0.069,7.455616755386198,-1.3557953658372164,10.0,0.0,22.166102239176173,22.516395905127855,317.5759560816799,355.95620597424744,0.0
0.07,7.793912633827712,-1.1903137597363855,10.0,0.0,22.31850816568398,22.69859231636549,318.8796075406436,355.95620597424744,0.0
0.07100000000000001,8.150592365280557,-0.9828340259074926,10.0,0.0,22.45272518600459,22.841957867454756,314.76423946324053,355.95620597424744,0.0
0.07200000000000001,8.487554799752829,-0.7995177897430631,10.0,0.0,22.569767070762268,22.95090949498973,320.8868635765161,355.95620597424744,0.0
0.073,8.593889408250899,-0.9756098117343343,10.0,0.0,22.70720321457836,23.05234296565692,336.86269087595514,355.95620597424744,0.0
0.074,8.631152691031167,-1.2168955897988418,10.0,0.0,22.865819606446742,23.154341088618136,342.46391690043873,355.95620597424744,0.0
0.075,8.621988563582867,-1.4821109999240436,10.0,0.0,23.04553500875754,23.2633817253172,359.61795337329266,355.95620597424744,0.0
0.076,8.5597177149407,-1.786566952361553,4.710524544116846,0.0,23.249020935174034,22.804405690506435,361.6814974739197,355.95620597424744,0.0
0.077,8.196121362741872,-1.93373043656996,3.6214995788066027,0.0,23.39940408920635,22.38415075044855,372.9853865362968,355.95620597424744,0.0
0.078,7.726329288771586,-2.058441477807991,-2.2007367580024386,0.0,23.50497001352376,21.439445037018547,374.14838878133395,355.95620597424744,0.0
0.079,6.972853326098969,-2.025983484469702,-2.964159708591877,0.0,23.50069128438682,20.65219676132081,377.47128457792246,355.95620597424744,0.0
0.08,6.213780482491551,-1.9738412076098795,-4.840758392922884,0.0,23.412704530072606,19.820417067678733,378.27163253178526,355.95620597424744,0.0
0.081,5.450858665909128,-1.8939349385401199,-5.464086635429661,0.0,23.242070214996538,19.089547219524995,377.23291588706445,355.95620597424744,0.0
0.082,4.763527872973286,-1.8083344010230387,-5.157495412197427,0.0,23.00679535017651,18.522636410716764,375.14779626105326,355.95620597424744,0.0
0.083,4.207832010977775,-1.7402832297430229,-4.30685150205989,0.0,22.731727267492033,18.1336473510803,372.50459798440244,355.95620597424744,0.0
0.084,3.808372901422538,-1.6958105126247034,-3.1507362838360287,0.0,22.441055599942153,17.91310016747341,369.4625294695036,355.95620597424744,0.0
0.085,3.561315819721268,-1.678755152245188,-1.7647652613391616,0.0,22.155965018316,17.849617883656222,365.71964533767766,355.95620597424744,0.0
0.08600000000000001,3.455413871951473,-1.6866689174673473,0.009042410939494872,0.0,21.894076334248982,17.954412547221484,361.9152480427174,355.95620597424744,0.0
0.08700000000000001,3.491666407311127,-1.7147221254857583,1.851650637734929,0.0,21.67186270017499,18.20244090588097,357.90755218796124,355.95620597424744,0.0
0.088,3.6516067431569703,-1.7595614675847104,3.835985102975866,0.0,21.50132506092505,18.586064862586216,354.357932315861,355.95620597424744,0.0
0.089,3.9297546432502894,-1.805403573723854,5.626777775609863,0.0,21.39079781952494,19.06241964338146,355.1109550013891,355.95620597424744,0.0
0.09,4.295793764780764,-1.8468798895058103,5.2587189425744,0.0,21.343062754018987,19.384208999229514,355.6776100400757,355.95620597424744,0.0
0.091,4.599815906536074,-1.8599908311587272,4.978177382572801,0.0,21.333307571072446,19.61208488529456,344.7401023241669,355.95620597424744,0.0
0.092,4.868346454402857,-1.7858534575601905,10.0,0.0,21.339029274514694,20.344905429127675,344.86916583614646,355.95620597424744,0.0
0.093,5.388385163466565,-1.7724174814854792,10.0,0.0,21.41672427836379,20.900278910229076,346.6598517241103,355.95620597424744,0.0
0.094,5.878321192847849,-1.7781984697514863,9.779984693860557,0.0,21.542957398408124,21.334990283788617,335.02210052837563,355.95620597424744,0.0
0.095,6.33829205791447,-1.6978058357942643,10.0,0.0,21.691137344186032,21.719558233869847,336.4770147190739,355.95620597424744,0.0
0.096,6.77069949943891,-1.575638660495057,10.0,0.0,21.850321627450924,22.035322120542325,325.89950091344343,355.95620597424744,0.0
0.097,7.165440050571107,-1.4358440699421244,10.0,0.0,22.01100813784875,22.296330660664758,326.1257734066028,355.95620597424744,0.0
0.098,7.550266659332573,-1.2565246923690268,10.0,0.0,22.163399665591516,22.508923476362284,314.36963453697996,355.95620597424744,0.0
0.099,7.921091866248869,-1.0627225853049955,10.0,0.0,22.302286284128456,22.678553656591152,310.19539184050575,355.95620597424744,0.0
0.1,8.262554253792405,-0.8958163141415851,10.0,0.0,22.42782559007724,22.811256870090205,321.99056679893084,355.95620597424744,0.0
0.101,8.512159451239102,-0.8681036295172744,10.0,0.0,22.55270195418403,22.91920174499053,325.2185354869031,355.95620597424744,0.0
0.10200000000000001,8.598170946456166,-1.0609715524700896,10.0,0.0,22.697377767741216,23.021874556312103,337.9775900942225,355.95620597424744,0.0
0.10300000000000001,8.596279592427045,-1.348515535053998,10.0,0.0,22.86755443992955,23.1298158317526,348.7964084600896,355.95620597424744,0.0
0.10400000000000001,8.583536916602863,-1.5997715360995,9.542560152673431,0.0,23.05627029273225,23.195045044462322,360.78587836113,355.95620597424744,0.0
0.105,8.475099893122826,-1.9093252472315485,3.499528478284393,0.0,23.264175829739735,22.624264481296386,365.22549727176084,355.95620597424744,0.0
0.106,8.041599362373967,-2.0115713221330234,1.1870261099938464,0.0,23.402364287857715,21.984008272527287,373.5497984501269,355.95620597424744,0.0
0.107,7.43173073781362,-2.0720096846360576,-3.1510604039479766,0.0,23.46833403841331,21.030282580990363,374.7932508522017,355.95620597424744,0.0
0.108,6.632852038131275,-2.006821396094491,-3.961157053764923,0.0,23.424559149395048,20.21457463804169,376.9355229360224,355.95620597424744,0.0
0.109,5.852447524313797,-1.9320935356923226,-5.242086265293008,0.0,23.296022773224927,19.421114463239242,376.97274366681097,355.95620597424744,0.0
0.11,5.11407687344739,-1.844353572053358,-5.470862007612938,0.0,23.092089899795297,18.755207355217237,375.3916843727546,355.95620597424744,0.0
0.111,4.479193989664147,-1.7637633721723027,-4.8746871445698154,0.0,22.833972080555917,18.265818073719913,372.96899103979564,355.95620597424744,0.0
0.112,3.991836461077077,-1.7050562397873468,-3.833468328745826,0.0,22.5470752325272,17.955388758865332,370.22796632829323,355.95620597424744,0.0
0.113,3.6632018382270624,-1.673703688783135,-2.6056735765350822,0.0,22.25496342852929,17.803234158505916,366.8273986983935,355.95620597424744,0.0
0.114,3.4803635282594825,-1.6687996680349042,-1.0141016888266723,0.0,21.976621428122957,17.816704665776392,363.0207062736061,355.95620597424744,0.0
0.115,3.4401408781093705,-1.687619635305918,0.8185995205734411,0.0,21.729579915091602,17.98927144485296,359.2844772299134,355.95620597424744,0.0
0.116,3.5339204876865535,-1.7274265214019244,2.6534313298631185,0.0,21.528689789068892,18.292663898091604,355.02042508045764,355.95620597424744,0.0
0.117,3.7440437249498335,-1.7758847625219831,4.7948152135289055,0.0,21.38316025863456,18.74065624251126,353.05227956825064,355.95620597424744,0.0
0.11800000000000001,4.07448817692061,-1.8223539017861663,5.807927233692375,0.0,21.301609938593487,19.1850772254827,355.7678386246323,355.95620597424744,0.0
0.11900000000000001,4.436101899121587,-1.8581012893822275,4.4520313789976935,0.0,21.27612427009659,19.381148349012438,349.47137066445856,355.95620597424744,0.0
0.12,4.680307916460777,-1.8310714762453162,7.665113712182454,0.0,21.269463527481346,19.89881528385147,340.56322170193255,355.95620597424744,0.0
0.121,5.08544017317937,-1.7850386164649472,10.0,0.0,21.31044223616704,20.546633631207506,345.8428649624425,355.95620597424744,0.0
0.122,5.593265849398762,-1.7834182660197992,9.688967455308315,0.0,21.412386998768625,21.02439607008531,340.2220331913345,355.95620597424744,0.0
0.123,6.047780672242695,-1.7614305585559416,10.0,0.0,21.549511084681246,21.456982272947847,334.13468958393673,355.95620597424744,0.0
0.124,6.517268678435958,-1.6361170601648671,10.0,0.0,21.70261677454048,21.809813406215653,333.40475632394293,355.95620597424744,0.0
0.125,6.91275881384209,-1.5385476733960814,10.0,0.0,21.866215511179917,22.10386296030987,324.1495823549243,355.95620597424744,0.0
0.126,7.322230797927703,-1.3490689660758384,10.0,0.0,22.022992365627292,22.343780415763245,319.93085334812235,355.95620597424744,0.0
0.127,7.6736878789275735,-1.2058135668675916,10.0,0.0,22.17421997333556,22.540818252046897,316.59968362191387,355.95620597424744,0.0
0.128,8.053623911375663,-0.9863286166701175,10.0,0.0,22.307317813371732,22.694996672713714,304.4612796829652,355.95620597424744,0.0
0.129,8.400419400810888,-0.801689620001552,10.0,0.0,22.4244082713394,22.81271889180407,321.3215865335818,355.95620597424744,0.0
0.13,8.533088129829213,-0.9519267192056686,10.0,0.0,22.559934376298475,22.919252329484497,331.36796567412676,355.95620597424744,0.0
0.131,8.601319350428486,-1.1541010771156057,10.0,0.0,22.713298022907733,23.022506286917054,338.89873804171503,355.95620597424744,0.0
0.132,8.580106687538423,-1.4522547304788542,10.0,0.0,22.89242585889019,23.13378691839118,354.70662587861517,355.95620597424744,0.0
0.133,8.550008402313448,-1.7126258299427977,6.19724458504545,0.0,23.0904282588292,22.83664785941698,359.6332220339111,355.95620597424744,0.0
0.134,8.255019722666484,-1.9279072449957622,3.697176346800836,0.0,23.25999375753809,22.384190766185665,367.2463181053572,355.95620597424744,0.0
0.135,7.81453263266071,-2.029178259533216,-0.22227281023330114,0.0,23.376343994501546,21.633300900361224,374.30756016668386,355.95620597424744,0.0
0.136,7.149693982862642,-2.061679618263307,-3.936407382820991,0.0,23.40853266050114,20.66850211397899,374.8825324586226,355.95620597424744,0.0
0.137,6.332699116847333,-1.9807982097421752,-4.4131567936341245,0.0,23.331800612737933,19.871322032135094,376.2106720227333,355.95620597424744,0.0
0.138,5.564879776645174,-1.8979585474428562,-5.279771236174334,0.0,23.174720212798942,19.13191683789004,375.74606707843265,355.95620597424744,0.0
0.139,4.866709912970366,-1.8139846606935683,-5.2453673750658485,0.0,22.950998602509912,18.532315183825144,373.8290708099777,355.95620597424744,0.0
0.14,4.287094208673634,-1.7426412742948072,-4.465597889195669,0.0,22.68268095420693,18.112508167808354,371.2949238119316,355.95620597424744,0.0
0.14100000000000001,3.8607057337784183,-1.6942192383407018,-3.3519115685494683,0.0,22.394601379041593,17.863664464170835,368.44861050394394,355.95620597424744,0.0
0.14200000000000002,3.588075654052735,-1.6731526905865348,-2.053678959852605,0.0,22.10861229113563,17.768291321151608,364.92719859098827,355.95620597424744,0.0
0.14300000000000002,3.4552892282800314,-1.677560479242214,-0.3826829295421783,0.0,21.842380319948003,17.836564026928613,361.09040775382704,355.95620597424744,0.0
