timestamp,iq,id,iq_ref,id_ref,vq,vd,omega,omega_ref,r
0.0,0.0,0.0,0.0,0.0,0.0,0.0,0.0,472.34937604554256,0.0
0.001,0.0,0.0,10.0,0.0,0.0,1.0999999999999999,6.115472199294103,472.34937604554256,0.0
0.002,0.5307369851907212,-0.2913212625381807,10.0,0.0,0.14204533887919985,1.9316189316290207,13.317801563642547,472.34937604554256,0.0
0.003,1.0842913387634832,-0.6024330830807904,10.0,0.0,0.384357124667687,2.6386968949419622,20.697939467553027,472.34937604554256,0.0
0.004,1.5590443546685477,-0.8700465084428163,10.0,0.0,0.6994718867930164,3.2526109522886295,28.232747544420146,472.34937604554256,0.0
0.005,1.9399447555359186,-1.0838738622210777,10.0,0.0,1.065311453102468,3.7994935661768023,35.92944872443006,472.34937604554256,0.0
0.006,2.239750732602683,-1.2510087368845633,10.0,0.0,1.4655018868449925,4.299102221838433,43.75633668444442,472.34937604554256,0.0
0.007,2.4770151619816017,-1.382020589851471,10.0,0.0,1.8883740978591532,4.765668027847139,51.58766747378032,472.34937604554256,0.0
0.008,2.6680767290418097,-1.4872241871505252,10.0,0.0,2.325877945545995,5.209220346273558,59.45942083902103,472.34937604554256,0.0
0.009000000000000001,2.8266491704841292,-1.5730794701170803,10.0,0.0,2.772378685460125,5.636635464737965,67.35059094018146,472.34937604554256,0.0
0.01,2.962077666392183,-1.645500646948331,10.0,0.0,3.224078639851053,6.052647735211881,75.20908322432116,472.34937604554256,0.0
0.011,3.0811061533574158,-1.7084279320504514,10.0,0.0,3.678407615443203,6.460489925470405,83.0265951655913,472.34937604554256,0.0
0.012,3.188848746459569,-1.7638278597420747,10.0,0.0,4.133552631697047,6.862319393890706,90.74118064793086,472.34937604554256,0.0
0.013000000000000001,3.288205119878689,-1.8140726097274587,10.0,0.0,4.588339016389012,7.259628641949282,98.35820682563939,472.34937604554256,0.0
0.014,3.3820602099432007,-1.8592355758795645,10.0,0.0,5.041843166194517,7.653355107498287,105.90865295623543,472.34937604554256,0.0
0.015,3.4721069852858886,-1.899829032412081,10.0,0.0,5.493383198131427,8.044092747085895,113.37727610343421,472.34937604554256,0.0
0.016,3.5596145800153947,-1.9360338400176071,10.0,0.0,5.94241958510469,8.43218525824161,120.68508583176356,472.34937604554256,0.0
0.017,3.645144415105338,-1.9685384477868613,10.0,0.0,6.388575043274759,8.817838951066484,127.83962377537456,472.34937604554256,0.0
0.018000000000000002,3.730251927866576,-1.9959253041084188,10.0,0.0,6.83136783302799,9.201036292373047,134.85405702603322,472.34937604554256,0.0
0.019,3.81544967906247,-2.018253592643655,10.0,0.0,7.270383321112213,9.581672501020332,141.68976328564074,472.34937604554256,0.0
0.02,3.9014648862453374,-2.0350875541282063,10.0,0.0,7.705189334130692,9.959536942333155,148.3432823300447,472.34937604554256,0.0
0.021,3.9891051824829464,-2.0457889559126508,10.0,0.0,8.135310004560049,10.334315260302239,154.92060212100432,472.34937604554256,0.0
0.022,4.079618141396171,-2.0489696811670974,10.0,0.0,8.560139305503519,10.705547790999272,161.01925282597162,472.34937604554256,0.0
0.023,4.171109372430197,-2.048468292080302,10.0,0.0,8.979521969370257,11.072981092896333,166.534238406907,472.34937604554256,0.0
0.024,4.266936196769627,-2.039517194249811,10.0,0.0,9.392730090169543,11.435983292623375,171.8647834235234,472.34937604554256,0.0
0.025,4.367255527950721,-2.0225841458509217,10.0,0.0,9.79914449451603,11.793929226271104,177.02637022703064,472.34937604554256,0.0
0.026000000000000002,4.4734353073349595,-1.9962166741499119,10.0,0.0,10.197980960389518,12.146045424568259,181.63161391243256,472.34937604554256,0.0
0.027,4.582366840795821,-1.966358349113627,10.0,0.0,10.589124658468391,12.491912978736195,185.74793639675826,472.34937604554256,0.0
0.028,4.700058850757774,-1.9240450691803936,10.0,0.0,10.971384864613876,12.830451341534015,189.43662766964098,472.34937604554256,0.0
0.029,4.820934284790598,-1.879137197786803,10.0,0.0,11.344756153370636,13.161242511022618,192.73598774770625,472.34937604554256,0.0
0.03,4.952016225740939,-1.821000614527957,10.0,0.0,11.707923484756042,13.483081433273819,195.59831968863915,472.34937604554256,0.0
0.031,5.086039273572549,-1.7621311371320891,10.0,0.0,12.061063698547066,13.79562148058647,197.80891551030922,472.34937604554256,0.0
0.032,5.230431844273564,-1.6911110488141978,10.0,0.0,12.40292038074925,14.097678592248165,200.4421589734679,472.34937604554256,0.0
0.033,5.380124186618445,-1.6166151787533525,10.0,0.0,12.733312761073865,14.38869342901298,201.91742172589852,472.34937604554256,0.0
0.034,5.537594793894332,-1.535029134414507,10.0,0.0,13.051537880865839,14.667821176756876,203.18880493813168,472.34937604554256,0.0
0.035,5.698947813469154,-1.4530296333491768,10.0,0.0,13.357649178779205,14.934684535625108,203.60405746232266,472.34937604554256,0.0
0.036000000000000004,5.870474243492053,-1.3603000477825025,10.0,0.0,13.65045542338638,15.188218311291084,204.28541056101804,472.34937604554256,0.0
0.037,6.041188711220851,-1.275010780747051,10.0,0.0,13.930879897581198,15.42861600670124,205.2233356988433,472.34937604554256,0.0
0.038,6.228175208801664,-1.168399557236846,10.0,0.0,14.196427351981786,15.654155009933262,200.35169734043586,472.34937604554256,0.0
0.039,6.404895489618571,-1.0845312562500289,10.0,0.0,14.449814560392067,15.86612549236809,209.64773540576442,472.34937604554256,0.0
0.04,6.534612624563911,-1.0851225869390002,10.0,0.0,14.699963825590459,16.069735965364643,218.170241886545,472.34937604554256,0.0
0.041,6.621487035821765,-1.1484636683301073,10.0,0.0,14.952420817214799,16.26974130369247,220.68166573712315,472.34937604554256,0.0
0.042,6.6704785161669795,-1.2647840534085386,10.0,0.0,15.211794475054209,16.47047148862455,233.10654395573727,472.34937604554256,0.0
0.043000000000000003,6.709376245503157,-1.3867642159960276,10.0,0.0,15.477558399636717,16.673277185423842,235.10815372853793,472.34937604554256,0.0
0.044,6.744196093263161,-1.5028656568708394,10.0,0.0,15.74857785831126,16.87893749904121,248.8181267625822,472.34937604554256,0.0
0.045,6.750563942850831,-1.6564343609015326,10.0,0.0,16.02879294551472,17.090781462187255,251.61117095327992,472.34937604554256,0.0
0.046,6.764566527560506,-1.7840489455190416,10.0,0.0,16.314672837580048,17.307985931916857,266.60539535969383,472.34937604554256,0.0
0.047,6.752169677737121,-1.9446655565152717,10.0,0.0,16.610076868775216,17.533561623207692,270.0627790167984,472.34937604554256,0.0
0.048,6.7291903821171735,-2.110358990489937,10.0,0.0,16.91511817760721,17.768523902508925,283.13731951482634,472.34937604554256,0.0
0.049,6.714097190323873,-2.246352557911731,10.0,0.0,17.22645394156277,18.011924542904307,294.70561782835244,472.34937604554256,0.0
0.05,6.666841209228205,-2.4219663531358275,10.0,0.0,17.548953774962747,18.267165921658286,300.1294548425776,472.34937604554256,0.0
0.051000000000000004,6.612335516543512,-2.59336894353628,10.0,0.0,17.88182590988993,18.53465621226123,310.75154600411304,472.34937604554256,0.0
0.052000000000000005,6.568447424188529,-2.726701034625408,10.0,0.0,18.22111236450049,18.81296732052879,322.35703405819294,472.34937604554256,0.0
0.053,6.5036136539679195,-2.8764091099274185,10.0,0.0,18.569435851849082,19.104068797231378,330.9557012510771,472.34937604554256,0.0
0.054,6.434362099984388,-3.0149932598739144,10.0,0.0,18.925784313874168,19.407861808234543,339.4707232587175,472.34937604554256,0.0
0.055,6.370891759459199,-3.1253006473392393,10.0,0.0,19.28762520191878,19.723199586257838,348.00092263299223,472.34937604554256,0.0
0.056,6.314459991163816,-3.2071523724558277,10.0,0.0,19.65271639484943,20.048760466390505,356.29964302226927,472.34937604554256,0.0
0.057,6.266092078485367,-3.262894600420583,10.0,0.0,20.01916768432525,20.383030530514645,362.98468703488817,472.34937604554256,0.0
0.058,6.234656406121481,-3.2830044001420036,10.0,0.0,20.38405550695561,20.723492962007192,368.0316803659419,472.34937604554256,0.0
0.059000000000000004,6.228510489334133,-3.2600491726267444,10.0,0.0,20.743774617448285,21.0667596267365,372.35801287012686,472.34937604554256,0.0
0.06,6.247959954981508,-3.201438289803519,10.0,0.0,21.095630838529225,21.40947063565305,373.88739853789605,472.34937604554256,0.0
0.061,6.298571070969623,-3.1064761741463998,10.0,0.0,21.436712814499675,21.747723437683817,371.47602194372377,472.34937604554256,0.0
0.062,6.38094735961424,-2.982369480030801,10.0,0.0,21.76480975788002,22.077703876517536,366.2922057853833,472.34937604554256,0.0
0.063,6.53566146196873,-2.7695519558602215,10.0,0.0,22.070926190088084,22.39130117743337,372.07145994459506,472.34937604554256,0.0
0.064,6.708566607552835,-2.560747003310555,10.0,0.0,22.35695033962817,22.686677966487718,365.1882535794375,472.34937604554256,0.0
0.065,6.897199383751794,-2.3667028673086685,10.0,0.0,22.62465294768497,22.962098937664592,356.7297130485294,472.34937604554256,0.0
0.066,7.167218997264825,-2.0824440278168583,10.0,0.0,22.863799361069702,23.20893224280502,357.7888817172531,472.34937604554256,0.0
0.067,7.423387055578651,-1.859201647307153,10.0,0.0,23.082000390168847,23.42951856849048,345.1266644280509,472.34937604554256,0.0
0.068,7.736929428236853,-1.5824320316278497,10.0,0.0,23.27222771500701,23.617938384108047,342.9584987314189,472.34937604554256,0.0
0.069,8.04132723792414,-1.3546495884062866,10.0,0.0,23.43998591632552,23.77619061530866,334.2677598047511,472.34937604554256,0.0
0.07,8.395997401416553,-1.0747195592463576,10.0,0.0,23.578279041856877,23.89942370363377,322.7417355360636,472.34937604554256,0.0
0.07100000000000001,8.726669482066718,-0.8579631993863083,10.0,0.0,23.694022264374595,23.99133556844291,337.9106389559309,472.34937604554256,0.0
0.07200000000000001,8.91385728821635,-0.8925675486457335,10.0,0.0,23.81335639313859,24.06834663115294,344.8606079910171,472.34937604554256,0.0
0.073,8.941721008651788,-1.1508071676799903,10.0,0.0,23.95651852989837,24.148396869281978,362.43451347602996,472.34937604554256,0.0
0.074,8.927907180207171,-1.4305443375681337,10.0,0.0,24.121558169292424,24.236556455607346,368.59250641149885,472.34937604554256,0.0
0.075,8.859340450140312,-1.7499202918046703,10.0,0.0,24.31124378664675,24.33980824926249,387.10067316750514,472.34937604554256,0.0
0.076,8.767176841935807,-2.0562826706616475,10.0,0.0,24.52279212376306,24.461155754889383,396.7190369145668,472.34937604554256,0.0
0.077,8.62162972262067,-2.4016532593838043,10.0,0.0,24.76024751870129,24.606611890707832,408.83095327273656,472.34937604554256,0.0
0.078,8.47560200325128,-2.694417929744825,10.0,0.0,25.017253395580042,24.77587553037574,428.2762610097064,472.34937604554256,0.0
0.079,8.289593068490031,-3.001970310780605,10.0,0.0,25.296388163948027,24.972914099394785,438.0404594767293,472.34937604554256,0.0
0.08,8.078425759776728,-3.30171273584331,10.0,0.0,25.597209455327665,25.19953060295957,447.87571303424875,472.34937604554256,0.0
0.081,7.882675762310951,-3.525181384717318,10.0,0.0,25.912194395051316,25.45298841193994,460.26934286159303,472.34937604554256,0.0
0.082,7.687097883672571,-3.703693402600396,10.0,0.0,26.238428257179056,25.732155000670204,470.03446400235384,472.34937604554256,0.0
0.083,7.512516260295773,-3.813976142857688,7.801092522516523,0.0,26.57030137321651,25.791396694002096,475.4936036813677,472.34937604554256,0.0
0.084,7.251388302297884,-3.8024677317084703,5.04008040665135,0.0,26.872542594354428,25.623157530780208,471.3449473024141,472.34937604554256,0.0
0.085,6.909170093654521,-3.6099064873425983,7.124452883559435,0.0,27.106669124287606,25.79389022298364,465.7515719125185,472.34937604554256,0.0
0.08600000000000001,6.76537815833778,-3.3783022825480558,9.987118619837467,0.0,27.31090542036407,26.277406735979948,466.7602311686749,472.34937604554256,0.0
0.08700000000000001,6.89551355692983,-3.1654443519762534,9.538680440527934,0.0,27.521971407817563,26.639287556999165,468.1948943934331,472.34937604554256,0.0
0.088,7.086216839567606,-2.938046455659477,8.862893644669931,0.0,27.725233689338506,26.89655872180628,451.88972460953244,472.34937604554256,0.0
0.089,7.312522153798991,-2.639373482247602,10.0,0.0,27.90331681107593,27.257282013590586,442.07435400219714,472.34937604554256,0.0
0.09,7.687182029215079,-2.275119089218407,10.0,0.0,28.06258269631893,27.54942069166345,439.0316350733111,472.34937604554256,0.0
0.091,8.06538441453586,-1.974871068976363,10.0,0.0,28.205751122548605,27.7904164268222,419.8853561254811,472.34937604554256,0.0
0.092,8.524162895588901,-1.59661581959949,10.0,0.0,28.320096682442152,27.974945822025422,413.63917203070247,472.34937604554256,0.0
0.093,8.971516370822853,-1.2768597560169805,10.0,0.0,28.41007001136635,28.107835736232467,399.3115885077447,472.34937604554256,0.0
0.094,9.474440687900984,-0.9019942717271241,10.0,0.0,28.466297356182764,28.18558585178497,394.9678635038532,472.34937604554256,0.0
0.095,9.92482541977974,-0.6407735020389826,10.0,0.0,28.499691348250003,28.216670612928,406.24257041233324,472.34937604554256,0.0
0.096,10.053078285371237,-0.8914819807894032,10.0,0.0,28.56304455758424,28.238382329267154,425.15314070267357,472.34937604554256,0.0
0.097,10.045537223759373,-1.2852060456305852,10.0,0.0,28.663036179963996,28.266370240339043,436.34872656770875,472.34937604554256,0.0
0.098,9.969010961061436,-1.6992558918135097,10.0,0.0,28.797435673644685,28.30990100082238,456.9899776742629,472.34937604554256,0.0
0.099,9.800859913811365,-2.172618948615243,10.0,0.0,28.97067773179201,28.380249987195977,468.91498137849663,472.34937604554256,0.0
0.1,9.600478779802756,-2.6053406705767603,9.085024976817778,0.0,29.176496241609698,28.38060144246535,489.72900433798304,472.34937604554256,0.0
0.101,9.296290529016462,-3.0138004978337873,-1.4957827858498316,0.0,29.402371409751204,27.278217395774334,493.4601131990594,472.34937604554256,0.0
0.10200000000000001,8.403172144611649,-3.1014543462717037,-3.572444587923168,0.0,29.500977981465066,26.281235689741855,496.6268024322633,472.34937604554256,0.0
0.10300000000000001,7.394570737845101,-3.0346908270272435,-5.398563468392323,0.0,29.481805199803027,25.315721323553397,496.9752422123655,472.34937604554256,0.0
0.10400000000000001,6.401043249581551,-2.8759305810620015,-5.819042020111673,0.0,29.35120226782462,24.516051673574488,493.6419811208632,472.34937604554256,0.0
0.105,5.552413762905462,-2.665288993826387,-4.365337525113717,0.0,29.132109691909882,24.03081494401432,487.3079405660467,472.34937604554256,0.0
0.106,4.959907272157199,-2.4689730895585753,-1.3479028929105032,0.0,28.8669143670335,23.946262813526612,479.6615130784911,472.34937604554256,0.0
0.107,4.70663553377011,-2.3181994631371805,2.402189480537796,0.0,28.60516142173232,24.247917004672427,471.8710968271748,472.34937604554256,0.0
0.108,4.794874153900316,-2.2364384340144303,6.302180398379617,0.0,28.39226321313654,24.87248959380346,464.416232275058,472.34937604554256,0.0
0.109,5.196577988147874,-2.196347165742711,10.0,0.0,28.259519655094792,25.737770314595707,464.89264017960903,472.34937604554256,0.0
0.11,5.839769107046675,-2.1943675461693877,9.943128636283838,0.0,28.22676167946609,26.393280576743187,459.9346482315749,472.34937604554256,0.0
0.111,6.460929636789056,-2.1607404244105846,10.0,0.0,28.259151340417272,26.924892831676306,442.10539098674815,472.34937604554256,0.0
0.112,7.090286649227918,-1.9834462909376,10.0,0.0,28.322297177302207,27.342996447503218,440.0131697961659,472.34937604554256,0.0
0.113,7.683445796398002,-1.7433365580166895,10.0,0.0,28.396299662794767,27.666650349371615,421.81100755138,472.34937604554256,0.0
0.114,8.238549068607668,-1.483040022894234,10.0,0.0,28.469035768390647,27.910209341131047,416.3910821044876,472.34937604554256,0.0
0.115,8.799110372737825,-1.1665216123176347,10.0,0.0,28.526640102790694,28.08057533354194,397.4110477221585,472.34937604554256,0.0
0.116,9.33499393536649,-0.8629702906071404,10.0,0.0,28.56529514170942,28.186323581303878,394.41220483821934,472.34937604554256,0.0
0.117,9.841341721497052,-0.5967063594269346,10.0,0.0,28.584405982299756,28.235023087333424,406.8171415377382,472.34937604554256,0.0
0.11800000000000001,10.013555061786606,-0.8382276797325394,10.0,0.0,28.635705673979423,28.266883737248488,422.6707567906241,472.34937604554256,0.0
0.11900000000000001,10.024762217099871,-1.2454824585066016,10.0,0.0,28.727444273944737,28.30117763765846,438.0708466552868,472.34937604554256,0.0
0.12,9.96731476535218,-1.6595664871491183,10.0,0.0,28.85491509931744,28.347647299269347,455.0759898391573,472.34937604554256,0.0
0.121,9.807247218182457,-2.141948268345771,10.0,0.0,29.023206963959183,28.419250032927614,469.01015302139956,472.34937604554256,0.0
0.122,9.615505241513702,-2.576498084270329,8.580804947205737,0.0,29.224806577442287,28.363901165838705,491.1384642457847,472.34937604554256,0.0
0.123,9.286187090023951,-2.9810437436307873,-2.6712415469892496,0.0,29.440865867238617,27.145021559870692,492.3821012444725,472.34937604554256,0.0
0.124,8.333161399506222,-3.0404345630483793,-3.4933872983224514,0.0,29.51591880100084,26.193259920216462,495.5659032346192,472.34937604554256,0.0
0.125,7.332804743240419,-2.9787127724880555,-5.317453565286578,0.0,29.480906972265604,25.252262881335216,496.17158807663293,472.34937604554256,0.0
0.126,6.357474051670779,-2.835137569074332,-5.85851810660434,0.0,29.340120568045865,24.457870736103263,492.9736918227007,472.34937604554256,0.0
0.127,5.520089783498937,-2.6367086516322202,-4.4658131374098,0.0,29.113582160840405,23.969806319580307,486.8102509050511,472.34937604554256,0.0
0.128,4.9315964555939376,-2.4482343200944237,-1.5287014271800805,0.0,28.842143265408453,23.87341016581027,479.19716927842455,472.34937604554256,0.0
0.129,4.673435520749126,-2.3031732947563475,2.2093614538043616,0.0,28.574136674670882,24.163838307233902,471.47569246729967,472.34937604554256,0.0
0.13,4.754466847684125,-2.224680028438242,6.078836695149235,0.0,28.35478990810782,24.775189567868203,463.8477204083059,472.34937604554256,0.0
0.131,5.145434801587749,-2.188660203048426,9.977839281018476,0.0,28.215335696134815,25.6514703961549,464.0343070802714,472.34937604554256,0.0
0.132,5.790315601929234,-2.1923999487843657,9.96769663468845,0.0,28.178226558472616,26.319044794962096,460.4812222495863,472.34937604554256,0.0
0.133,6.416945080956439,-2.1647075382727703,10.0,0.0,28.208502211843722,26.857325202080354,442.55437324759583,472.34937604554256,0.0
0.134,7.044813565684609,-1.9993549909970814,10.0,0.0,28.27166648449434,27.281682861640938,439.69286104483655,472.34937604554256,0.0
0.135,7.643039185272384,-1.7566815186498836,10.0,0.0,28.34590953935052,27.610395049203166,422.3376990776294,472.34937604554256,0.0
0.136,8.191889054679692,-1.5087103897296203,10.0,0.0,28.42074941801954,27.859269094055854,415.9863839734096,472.34937604554256,0.0
0.137,8.757425664626197,-1.1846570173662638,10.0,0.0,28.479826553636165,28.034019193890142,397.47172880611504,472.34937604554256,0.0
0.138,9.286609220554961,-0.8911152566839443,10.0,0.0,28.521421925723132,28.14464717224996,392.160763195315,472.34937604554256,0.0
0.139,9.803451559349085,-0.6061907041863599,10.0,0.0,28.541514275269474,28.196811068274425,409.21579669722456,472.34937604554256,0.0
0.14,10.005169539700598,-0.8039024769638999,10.0,0.0,28.589411319994138,28.228747255200354,419.1116193387264,472.34937604554256,0.0
0.14100000000000001,10.024869079457071,-1.2017789867015387,10.0,0.0,28.67750157728229,28.262129758336453,440.18374741733703,472.34937604554256,0.0
0.14200000000000002,9.961097361014128,-1.634199936076205,10.0,0.0,28.803708598489067,28.308194921314062,450.24399195716785,472.34937604554256,0.0
0.14300000000000002,9.816183057427622,-2.0984499671389054,10.0,0.0,28.968644727796082,28.37757712632466,467.5748269925456,472.34937604554256,0.0
0.14400000000000002,9.629665060267802,-2.5309622004825405,8.987787156375685,0.0,29.16695931003064,28.36423914761795,488.5317852346753,472.34937604554256,0.0
0.145,9.317602023307376,-2.961613149257967,-1.6525160565804944,0.0,29.38715511820292,27.24421695411048,491.0909404763867,472.34937604554256,0.0
0.146,8.425174654936455,-3.0461074674839868,-3.119509321744655,0.0,29.478316991724334,26.29829671388368,495.1825218921336,472.34937604554256,0.0
