timestamp,iq,id,iq_ref,id_ref,vq,vd,omega,omega_ref,r
0.0,0.0,0.0,0.0,0.0,0.0,0.0,0.0,229.99811257112057,0.0
0.001,0.0,0.0,10.0,0.0,0.0,1.0999999999999999,6.115472199294103,229.99811257112057,0.0
0.002,0.5307369851907212,-0.2913212625381807,10.0,0.0,0.14204533887919985,1.9316189316290207,13.317801563642547,229.99811257112057,0.0
0.003,1.0842913387634832,-0.6024330830807904,10.0,0.0,0.384357124667687,2.6386968949419622,20.697939467553027,229.99811257112057,0.0
0.004,1.5590443546685477,-0.8700465084428163,10.0,0.0,0.6994718867930164,3.2526109522886295,28.232747544420146,229.99811257112057,0.0
0.005,1.9399447555359186,-1.0838738622210777,10.0,0.0,1.065311453102468,3.7994935661768023,35.92944872443006,229.99811257112057,0.0
0.006,2.239750732602683,-1.2510087368845633,10.0,0.0,1.4655018868449925,4.299102221838433,43.75633668444442,229.99811257112057,0.0
0.007,2.4770151619816017,-1.382020589851471,10.0,0.0,1.8883740978591532,4.765668027847139,51.58766747378032,229.99811257112057,0.0
0.008,2.6680767290418097,-1.4872241871505252,10.0,0.0,2.325877945545995,5.209220346273558,59.45942083902103,229.99811257112057,0.0
0.009000000000000001,2.8266491704841292,-1.5730794701170803,10.0,0.0,2.772378685460125,5.636635464737965,67.35059094018146,229.99811257112057,0.0
0.01,2.962077666392183,-1.645500646948331,10.0,0.0,3.224078639851053,6.052647735211881,75.20908322432116,229.99811257112057,0.0
0.011,3.0811061533574158,-1.7084279320504514,10.0,0.0,3.678407615443203,6.460489925470405,83.0265951655913,229.99811257112057,0.0
0.012,3.188848746459569,-1.7638278597420747,10.0,0.0,4.133552631697047,6.862319393890706,90.74118064793086,229.99811257112057,0.0
0.013000000000000001,3.288205119878689,-1.8140726097274587,10.0,0.0,4.588339016389012,7.259628641949282,98.35820682563939,229.99811257112057,0.0
0.014,3.3820602099432007,-1.8592355758795645,10.0,0.0,5.041843166194517,7.653355107498287,105.90865295623543,229.99811257112057,0.0
0.015,3.4721069852858886,-1.899829032412081,10.0,0.0,5.493383198131427,8.044092747085895,113.37727610343421,229.99811257112057,0.0
0.016,3.5596145800153947,-1.9360338400176071,10.0,0.0,5.94241958510469,8.43218525824161,120.68508583176356,229.99811257112057,0.0
0.017,3.645144415105338,-1.9685384477868613,10.0,0.0,6.388575043274759,8.817838951066484,127.83962377537456,229.99811257112057,0.0
0.018000000000000002,3.730251927866576,-1.9959253041084188,10.0,0.0,6.83136783302799,9.201036292373047,134.85405702603322,229.99811257112057,0.0
0.019,3.81544967906247,-2.018253592643655,10.0,0.0,7.270383321112213,9.581672501020332,141.68976328564074,229.99811257112057,0.0
0.02,3.9014648862453374,-2.0350875541282063,10.0,0.0,7.705189334130692,9.959536942333155,148.3432823300447,229.99811257112057,0.0
0.021,3.9891051824829464,-2.0457889559126508,10.0,0.0,8.135310004560049,10.334315260302239,154.92060212100432,229.99811257112057,0.0
0.022,4.079618141396171,-2.0489696811670974,10.0,0.0,8.560139305503519,10.705547790999272,161.01925282597162,229.99811257112057,0.0
0.023,4.171109372430197,-2.048468292080302,10.0,0.0,8.979521969370257,11.072981092896333,166.534238406907,229.99811257112057,0.0
0.024,4.266936196769627,-2.039517194249811,10.0,0.0,9.392730090169543,11.435983292623375,171.8647834235234,229.99811257112057,0.0
0.025,4.367255527950721,-2.0225841458509217,10.0,0.0,9.79914449451603,11.793929226271104,177.02637022703064,229.99811257112057,0.0
0.026000000000000002,4.4734353073349595,-1.9962166741499119,10.0,0.0,10.197980960389518,12.146045424568259,181.63161391243256,229.99811257112057,0.0
0.027,4.582366840795821,-1.966358349113627,10.0,0.0,10.589124658468391,12.491912978736195,185.74793639675826,229.99811257112057,0.0
0.028,4.700058850757774,-1.9240450691803936,10.0,0.0,10.971384864613876,12.830451341534015,189.43662766964098,229.99811257112057,0.0
0.029,4.820934284790598,-1.879137197786803,10.0,0.0,11.344756153370636,13.161242511022618,192.73598774770625,229.99811257112057,0.0
0.03,4.952016225740939,-1.821000614527957,10.0,0.0,11.707923484756042,13.483081433273819,195.59831968863915,229.99811257112057,0.0
0.031,5.086039273572549,-1.7621311371320891,10.0,0.0,12.061063698547066,13.79562148058647,197.80891551030922,229.99811257112057,0.0
0.032,5.230431844273564,-1.6911110488141978,10.0,0.0,12.40292038074925,14.097678592248165,200.4421589734679,229.99811257112057,0.0
0.033,5.380124186618445,-1.6166151787533525,10.0,0.0,12.733312761073865,14.38869342901298,201.91742172589852,229.99811257112057,0.0
0.034,5.537594793894332,-1.535029134414507,10.0,0.0,13.051537880865839,14.667821176756876,203.18880493813168,229.99811257112057,0.0
0.035,5.698947813469154,-1.4530296333491768,10.0,0.0,13.357649178779205,14.934684535625108,203.60405746232266,229.99811257112057,0.0
0.036000000000000004,5.870474243492053,-1.3603000477825025,10.0,0.0,13.65045542338638,15.188218311291084,204.28541056101804,229.99811257112057,0.0
0.037,6.041188711220851,-1.275010780747051,10.0,0.0,13.930879897581198,15.42861600670124,205.2233356988433,229.99811257112057,0.0
0.038,6.228175208801664,-1.168399557236846,10.0,0.0,14.196427351981786,15.654155009933262,200.35169734043586,229.99811257112057,0.0
0.039,6.404895489618571,-1.0845312562500289,10.0,0.0,14.449814560392067,15.86612549236809,209.64773540576442,229.99811257112057,0.0
0.04,6.534612624563911,-1.0851225869390002,10.0,0.0,14.699963825590459,16.069735965364643,218.170241886545,229.99811257112057,0.0
0.041,6.621487035821765,-1.1484636683301073,10.0,0.0,14.952420817214799,16.26974130369247,220.68166573712315,229.99811257112057,0.0
0.042,6.6704785161669795,-1.2647840534085386,9.91436794393098,0.0,15.211794475054207,16.461051962456956,233.05953884158285,229.99811257112057,0.0
0.043000000000000003,6.704784052942916,-1.3844680433577308,3.694817128996509,0.0,15.476363868029747,15.972590957804943,231.09934551075892,229.99811257112057,0.0
0.044,6.3972318637829275,-1.337835609701341,4.6639014650120885,0.0,15.659303813640832,15.762401574202093,240.32928343048508,229.99811257112057,0.0
0.045,6.101981356225423,-1.3391858564821062,-0.05437920344463354,0.0,15.80354567781298,15.09222544056997,237.29560470390334,229.99811257112057,0.0
0.046,5.6061795403066075,-1.2272889837206686,1.389485238518409,0.0,15.854023583733127,14.761084696694267,243.9471044392315,229.99811257112057,0.0
0.047,5.211862974323299,-1.190596200874785,-2.0757545478267865,0.0,15.863422387288265,14.110907600979527,240.44648981823445,229.99811257112057,0.0
0.048,4.71227479914052,-1.0961518367392342,-0.4299310097993976,0.0,15.796841648689956,13.793392615848505,242.1117586333853,229.99811257112057,0.0
0.049,4.3538005468435355,-1.0708515368403022,-1.3837018779974715,0.0,15.703328896090854,13.41403431048955,242.75543094706188,229.99811257112057,0.0
0.05,4.019396634156764,-1.058925763652972,-1.833111218595172,0.0,15.580172756164147,13.056562929495374,242.59990765795362,229.99811257112057,0.0
0.051000000000000004,3.7131614243720916,-1.0520259287243072,-1.8813675249093729,0.0,15.432945368020414,12.75205080626881,242.33392971960598,229.99811257112057,0.0
0.052000000000000005,3.4486985338046905,-1.057190971470254,-1.8717367272204042,0.0,15.270626659419737,12.490837673224023,241.79537672498273,229.99811257112057,0.0
0.053,3.2248196838304235,-1.0722908526181023,-1.7204328714474029,0.0,15.100027844873459,12.278043143373287,241.07739595582615,229.99811257112057,0.0
0.054,3.0424797210856798,-1.0962479450513887,-1.4722353207161678,0.0,14.927693740152911,12.113075484477879,240.2725962030425,229.99811257112057,0.0
0.055,2.90034930481637,-1.1276258457501682,-1.1725802806435608,0.0,14.759308278167408,11.991662206062804,239.4487809551387,229.99811257112057,0.0
0.056,2.7948335725752296,-1.1638486963972259,-0.8551793405318371,0.0,14.599290769103145,11.907654688686087,238.71642383570224,229.99811257112057,0.0
0.057,2.721147710219845,-1.2012857208067684,-0.5761838934594321,0.0,14.450630103386207,11.85061194945414,238.06014907252967,229.99811257112057,0.0
0.058,2.671755166818528,-1.2361988134235495,-0.32866687688723495,0.0,14.314597300261527,11.81354065607651,236.98408600526983,229.99811257112057,0.0
0.059000000000000004,2.6382584046699193,-1.2694974007980653,0.1395049224011915,0.0,14.19177436179658,11.81878765788251,235.76930916412135,229.99811257112057,0.0
0.06,2.6323583645770974,-1.3006987837807078,0.689181377045422,0.0,14.084857583613067,11.867324394468119,234.56295958331467,229.99811257112057,0.0
0.061,2.6554608350521627,-1.3345036392399396,1.246707697326825,0.0,13.996892677177158,11.953546638108145,233.14235935591424,229.99811257112057,0.0
0.062,2.708211734171994,-1.3651045713022052,1.9255653431791018,0.0,13.929374539721097,12.08587767038308,232.56991900227825,229.99811257112057,0.0
0.063,2.79376675696372,-1.3939323747667431,2.1860674556855164,0.0,13.884706368298612,12.211206898086207,233.32901107661468,229.99811257112057,0.0
0.064,2.8866990780395074,-1.409317260609895,1.7732124334623642,0.0,13.858441996196797,12.262150307216745,234.64397583698795,229.99811257112057,0.0
0.065,2.9339283562581304,-1.4136019091062209,1.0692714206170546,0.0,13.840215864694374,12.227802079640004,229.940206250898,229.99811257112057,0.0
0.066,2.9366933895784877,-1.3698610630752135,3.421735276864254,0.0,13.815523184036149,12.461044635103287,226.91991763994355,229.99811257112057,0.0
0.067,3.0653068245876396,-1.3592787359179201,4.96266153165325,0.0,13.815897379463085,12.800351088900932,230.7206969017414,229.99811257112057,0.0
0.068,3.2792994150913684,-1.393794761938018,3.0550460574481137,0.0,13.854067386860871,12.858264301545736,230.783345580199,229.99811257112057,0.0
0.069,3.375690702736677,-1.3806323937500773,3.015869388128526,0.0,13.892418694022487,12.920506799046784,224.53908776123234,229.99811257112057,0.0
0.07,3.454348032396829,-1.3191777849808497,6.192588545710745,0.0,13.926530736935304,13.322502658154963,227.18835437132114,229.99811257112057,0.0
0.07100000000000001,3.697131847250688,-1.3178581605977921,4.896052822664339,0.0,13.99790054887322,13.487404368195364,228.7839072841114,229.99811257112057,0.0
0.07200000000000001,3.8588661551573464,-1.309242229030393,4.110418419139304,0.0,14.077688994392798,13.554135525547029,221.6984779566663,229.99811257112057,0.0
0.073,3.9706805476332137,-1.2332346518037531,7.736129429006396,0.0,14.14789703691633,14.018174726742835,225.99873137646185,229.99811257112057,0.0
0.074,4.258159081554215,-1.2356653425770154,5.625996531055206,0.0,14.258515647064414,14.143954588391562,222.01188746872563,229.99811257112057,0.0
0.075,4.425462841092209,-1.20434818868106,7.699280735947264,0.0,14.36718118852627,14.501852288197892,223.220803877547,229.99811257112057,0.0
0.076,4.699104790084589,-1.1628210288542786,7.1625956184723085,0.0,14.496515129780594,14.72663099040483,221.44306269353189,229.99811257112057,0.0
0.077,4.908951209546003,-1.144067056979806,8.137016709255759,0.0,14.633745881822254,15.034071701026603,221.5392531995592,229.99811257112057,0.0
0.078,5.181095572643421,-1.0830726548225882,8.173510049957716,0.0,14.78147578520338,15.290924056613639,218.45709093422886,229.99811257112057,0.0
0.079,5.41287808097709,-1.0602726884859695,9.830001398991804,0.0,14.938219881529635,15.695938649681088,221.39530671092825,229.99811257112057,0.0
0.08,5.741939462259856,-1.0249915125682851,8.44692156924403,0.0,15.116138097842432,15.873543571454052,215.45268029562413,229.99811257112057,0.0
0.081,5.978007051925042,-0.9571037791857536,10.0,0.0,15.286910145788344,16.2131724273113,217.7239095645848,229.99811257112057,0.0
0.082,6.262094122599047,-0.92556478001488,10.0,0.0,15.471777461950415,16.491495916192353,222.17309005225223,229.99811257112057,0.0
0.083,6.531101313389649,-0.8995607148218272,8.362811840333162,0.0,15.663445338204864,16.55363316995794,224.85263186551822,229.99811257112057,0.0
0.084,6.605798784810877,-0.959102077716332,7.074495740756193,0.0,15.848969742780747,16.49785394666718,229.53225463667337,229.99811257112057,0.0
0.085,6.536519007432895,-1.047054150574429,4.739342934523089,0.0,16.019443098955417,16.230589188699003,236.56835808818155,229.99811257112057,0.0
0.08600000000000001,6.343877002152255,-1.0415649704333108,1.155588753598387,0.0,16.144659313171697,15.656734633112823,234.82405048268984,229.99811257112057,0.0
0.08700000000000001,5.9287599079340785,-0.9948071781748099,1.979483177228551,0.0,16.1948799850607,15.32298954322664,237.7108475088946,229.99811257112057,0.0
0.088,5.580674362297239,-0.9761377771403731,0.4589573147484307,0.0,16.20511802458099,14.88628247948673,239.89882080456243,229.99811257112057,0.0
0.089,5.211079046505631,-0.9502244128188205,-0.7340364154199035,0.0,16.167997777710234,14.415420503659835,241.09689010354032,229.99811257112057,0.0
0.09,4.821233073758261,-0.9253921177044683,-1.4440588402330432,0.0,16.085030939124493,13.960947275145083,241.45223147657572,229.99811257112057,0.0
0.091,4.443819882935405,-0.9029194362471405,-1.7362707158052952,0.0,15.962689789536695,13.55619859482146,241.89311865180446,229.99811257112057,0.0
0.092,4.101610692518344,-0.897099621733719,-2.075664364226503,0.0,15.811692434093407,13.179148364038456,241.7745344778092,229.99811257112057,0.0
0.093,3.7921166779798297,-0.9015884408433931,-2.13413649629576,0.0,15.638641759363347,12.85228767244109,241.37030138616998,229.99811257112057,0.0
0.094,3.523668808459854,-0.9190567562587202,-2.0457418386266477,0.0,15.452086709451148,12.577550441696555,240.9203802667086,229.99811257112057,0.0
0.095,3.2995745376520222,-0.9474334133365303,-1.9300039558518378,0.0,15.25966019058012,12.345444540657452,240.28829010416212,229.99811257112057,0.0
0.096,3.113345777189025,-0.9849349327912432,-1.7168606499090089,0.0,15.067107134061523,12.157839183603976,239.436310288213,229.99811257112057,0.0
0.097,2.9632054722816092,-1.0291200722952047,-1.3852527191053792,0.0,14.879534197640329,12.018737641868142,238.6349143957,229.99811257112057,0.0
0.098,2.8502246474720687,-1.0780057969844346,-1.0709227910946737,0.0,14.701743979008443,11.91697566111689,237.8874640221466,229.99811257112057,0.0
0.099,2.7674113236594757,-1.129232353372824,-0.7760911188282242,0.0,14.536702648120457,11.844878698618064,237.19742558773083,229.99811257112057,0.0
0.1,2.708903513012839,-1.1782161683371348,-0.5030650317864493,0.0,14.385831708153571,11.796179578065257,236.67281845628713,229.99811257112057,0.0
0.101,2.6696175919298626,-1.221445993748171,-0.3075085249162641,0.0,14.249443392773669,11.759780603669004,235.78913604054733,229.99811257112057,0.0
0.10200000000000001,2.640310193808787,-1.2590722912371017,0.07642244825936739,0.0,14.1267606059618,11.7564904917375,234.67363290878677,229.99811257112057,0.0
0.10300000000000001,2.6306432533998017,-1.29258198010892,0.5874188107629861,0.0,14.019326889438982,11.794401691925373,233.53820588538085,229.99811257112057,0.0
0.10400000000000001,2.6465125871786404,-1.326891565319686,1.1197313893233458,0.0,13.929866622071698,11.869380524339022,232.12215156921556,229.99811257112057,0.0
0.105,2.6903992099565563,-1.3577137022008114,1.8065181574250393,0.0,13.859897603887323,11.993470030312377,231.37785463016706,229.99811257112057,0.0
0.106,2.768063960031184,-1.387582319014705,2.164869206358822,0.0,13.812311764599436,12.12260017529122,231.51964421150197,229.99811257112057,0.0
0.107,2.8593931606355625,-1.4070850208963832,2.0787590992875558,0.0,13.78424413477707,12.21173353501049,233.64358322648505,229.99811257112057,0.0
0.108,2.927202457046362,-1.4182329704481238,0.9803348852423714,0.0,13.768927851340743,12.162635502702189,229.82519527954602,229.99811257112057,0.0
0.109,2.9233053488424714,-1.3824452557368327,2.89125803162763,0.0,13.746185264903454,12.339208208390449,226.14271304246654,229.99811257112057,0.0
0.11,3.018804645509813,-1.364656520737753,4.771053145453912,0.0,13.741775323975943,12.672973722207754,229.11260776760136,229.99811257112057,0.0
0.111,3.222617267123524,-1.3895837549591705,3.294960830921694,0.0,13.774102811637253,12.770289189402927,231.02815865753217,229.99811257112057,0.0
0.112,3.334878003526486,-1.3833710288590313,2.326884925092171,0.0,13.811996425038721,12.759067877360605,224.5303773982103,229.99811257112057,0.0
0.113,3.377180529316489,-1.3165604804954736,5.630452906482208,0.0,13.837691512836825,13.122300624400989,224.86727680783676,229.99811257112057,0.0
0.114,3.5922288199533927,-1.3008452120933676,5.513311559301819,0.0,13.896079792518558,13.382626090801246,228.15332294026095,229.99811257112057,0.0
0.115,3.7931801065290203,-1.3100747499281615,3.8887363893983204,0.0,13.97583419271799,13.42527182469511,221.58468184234243,229.99811257112057,0.0
0.116,3.897140934489199,-1.2497068648356024,7.25719124564536,0.0,14.045144963548335,13.848978032895886,224.28736792788717,229.99811257112057,0.0
0.117,4.167391556286047,-1.2381237633576838,5.962955649305323,0.0,14.149224815804079,14.032506273081689,223.54718185602476,229.99811257112057,0.0
0.11800000000000001,4.351118350911692,-1.2246842932084476,6.397557992387487,0.0,14.259886996151192,14.251330846986072,219.34526666815768,229.99811257112057,0.0
0.11900000000000001,4.562440702681382,-1.1544660494474015,8.60504404535066,0.0,14.373775803741811,14.676408433181445,223.15744085340148,229.99811257112057,0.0
0.12,4.851346047968697,-1.1702873203478241,6.767363669905947,0.0,14.521226011429565,14.816481075223887,216.94007951437578,229.99811257112057,0.0
0.121,5.057266909719129,-1.0956552475042696,10.0,0.0,14.659570721830983,15.31149603255598,222.1729156612628,229.99811257112057,0.0
0.122,5.388215157235438,-1.112954856598804,7.468326072241586,0.0,14.836231734654309,15.425688371231345,216.90983258422935,229.99811257112057,0.0
0.123,5.6047544382215575,-1.0196411846571711,10.0,0.0,14.99620838005831,15.829418610219207,218.07706533525936,229.99811257112057,0.0
0.124,5.8969476920104436,-1.0120578495600157,9.761729499258287,0.0,15.18065935467943,16.1272711303826,219.7403931366136,229.99811257112057,0.0
0.125,6.197805830285138,-0.9524005412997392,9.032642792926243,0.0,15.36996401329712,16.305794200630324,213.22485969206235,229.99811257112057,0.0
0.126,6.432931318282561,-0.8693984243631578,10.0,0.0,15.549656853297387,16.57624036725951,223.95720140301023,229.99811257112057,0.0
0.127,6.59914955102957,-0.9647006485160263,7.10321745931976,0.0,15.749738291786732,16.49335879895804,229.72394134917656,229.99811257112057,0.0
0.128,6.580267236678058,-0.9998609864529016,4.2225891984560375,0.0,15.924438044528522,16.154611484953588,229.7052978001764,229.99811257112057,0.0
0.129,6.338819110080723,-1.0124985376153544,4.234839120665559,0.0,16.048831617844186,15.92373312245763,238.36580474108885,229.99811257112057,0.0
0.13,6.095968120529326,-1.020731065816746,-0.17909127149035164,0.0,16.138477200169216,15.267026238768274,234.95710820679818,229.99811257112057,0.0
0.131,5.639951295237359,-0.9446315316896989,1.4756670392982074,0.0,16.14503426185683,14.958850660675257,239.6288695536796,229.99811257112057,0.0
0.132,5.289669865906003,-0.9422907106038032,-0.9565212039680957,0.0,16.120621564588195,14.432030845666656,238.67377863782949,229.99811257112057,0.0
0.133,4.889107762406295,-0.8916299751849202,-0.5657324067101239,0.0,16.040418882860337,14.06331940965474,240.43675278010153,229.99811257112057,0.0
0.134,4.543470034872702,-0.8937993259880077,-1.5516058799359547,0.0,15.93211056164661,13.645119408037512,240.36046853414044,229.99811257112057,0.0
0.135,4.207407824650686,-0.8871395819478953,-1.6170873165856081,0.0,15.792058807040096,13.294074817010522,240.7686077619635,229.99811257112057,0.0
0.136,3.9099322712091893,-0.899875979702411,-1.9288618824055659,0.0,15.63237536998492,12.959850810528216,240.54865745041835,229.99811257112057,0.0
0.137,3.6396995081367316,-0.9184103802229909,-1.9243921754259699,0.0,15.45714929606676,12.67344112281814,240.16538513561215,229.99811257112057,0.0
0.138,3.4059629527479443,-0.946419368086215,-1.8344287436677895,0.0,15.273700505429149,12.4310097703729,239.6388177164183,229.99811257112057,0.0
0.139,3.2093100341466827,-0.9820314856841994,-1.667552085523833,0.0,15.087990701667922,12.231227927678923,239.03566164891333,229.99811257112057,0.0
