timestamp,iq,id,vq,vd,omega,r
0.0,0.0,0.0,0.0,0.0,0.0,2192.7194107759624
0.01,0.0,0.0,-229.7882243572642,0.0,42.29888255495376,2192.7194107759624
0.02,-23.084378296155833,-0.7089935806141581,-225.46181787026597,0.07160835164202997,95.07705828271389,2192.7194107759624
0.03,-23.229788190236814,0.4169772628119559,-222.32842351882056,-0.04140570996339339,174.44140003872545,2192.7194107759624
0.04,-25.360540249188087,6.929502937753287,-216.25632407268637,-0.6995877803952798,260.4183463010897,2192.7194107759624
0.05,-26.611003722524305,1.7220894259324844,-209.52369897080703,-0.18056851863913204,343.628842339336,2192.7194107759624
0.06,-25.826725132351612,-6.64013403848662,-203.18870216065207,0.6622939618412651,423.9475420377321,2192.7194107759624
0.07,-21.169447475004752,-16.216214253460194,-197.4544608381774,1.6361181975920827,501.47454600238603,2192.7194107759624
0.08,-26.002326079083307,-2.0396185107113274,-190.96795296581035,0.2204982418279073,557.8718823758255,2192.7194107759624
0.09,-20.769444979631682,-16.38361986694129,-187.54978331878272,1.6712819973178452,622.9590242883714,2192.7194107759624
0.1,-24.074952220604136,-6.4741102428837385,-182.34035224511047,0.6868051451549736,692.8965729203528,2192.7194107759624
0.11,-13.747269528702603,-20.012336601102298,-177.94953468752172,2.060640117577932,748.7101269124964,2192.7194107759624
0.12,-20.677593091721295,-16.016777685062145,-173.1825307174084,1.6771010036589789,798.2613387403644,2192.7194107759624
0.13,-18.153603918447118,-12.600143772175388,-169.94012940806627,1.3480377561424783,860.5040026788981,2192.7194107759624
0.14,-4.856040530916783,-22.221660067160308,-166.4569462880223,2.3324110457081306,863.9163129228979,2192.7194107759624
0.15,-8.852562702812415,-23.803068871248662,-167.11999102479396,2.514354994988215,917.6964060898116,2192.7194107759624
0.16,-9.63352326471027,-20.038208915576828,-163.0132115466821,2.157907208336608,942.9629892084323,2192.7194107759624
0.17,-12.541698118114354,-21.890588135076893,-161.51687411725797,2.3650357184216917,993.8787355475422,2192.7194107759624
0.18,-10.755180745731595,-18.688835471247472,-157.87592143205725,2.0635492875099968,1021.0956049784108,2192.7194107759624
0.19,-12.50250371976329,-21.718322011022945,-156.222492710003,2.388216263498567,1069.1733798503176,2192.7194107759624
0.2,-8.807586660923072,-18.96663886620719,-152.98277774700446,2.132014587883199,1083.5081005316795,2192.7194107759624
0.21,-8.921303215159288,-23.20892967527279,-152.7220531619096,2.579452598465031,1129.2689924903825,2192.7194107759624
0.22,-4.321659221422678,-19.939220032998367,-149.74885112952518,2.2724208542705875,1123.8345832952095,2192.7194107759624
0.23,-2.5254945876376627,-24.620537102124658,-151.6220779736196,2.7651730982853415,1168.103728341908,2192.7194107759624
0.24,1.905047380874569,-19.987147186371516,-148.74851450093323,2.321821253896399,1151.032159151435,2192.7194107759624
0.25,5.509588022680034,-24.065559599335554,-151.9471259175673,2.7537280547921386,1176.619359242334,2192.7194107759624
0.26,-8.149080591850058,-21.67864362555556,-149.11427818552562,2.536715101039694,1216.9972781640622,2192.7194107759624
0.27,-7.3731202861317735,-18.24106599348723,-146.2061888831122,2.2111984038263484,1222.0950440209851,2192.7194107759624
0.28,-4.512535130631175,-24.123621995617917,-147.03234479993395,2.823577626035035,1262.7785192087817,2192.7194107759624
0.29,2.444418421215344,-19.14889836583594,-144.67580871760072,2.345254161422673,1241.9500251014035,2192.7194107759624
0.3,8.173874376298713,-23.08361623622684,-148.37430809135907,2.76180956469799,1259.6045029027857,2192.7194107759624
0.31,-10.650612817643882,-22.148362322343694,-145.73262867101477,2.690432535632019,1299.0132362317242,2192.7194107759624
0.32,-1.5046987016960354,-18.955729887484047,-143.68227053801925,2.3901250220335384,1276.7203498774045,2192.7194107759624
0.33,4.181475553372633,-24.05133922116072,-147.48411090074802,2.9237372946223665,1289.1257139202592,2192.7194107759624
0.34,1.8907367832657362,-24.240462951771455,-147.00373544900177,2.9668901306352113,1322.9077388920668,2192.7194107759624
0.35000000000000003,-3.4530427954176686,-18.506772630091792,-144.0412389350438,2.412027871097337,1311.0997489328306,2192.7194107759624
0.36,2.370670238386058,-24.22845771488835,-146.77214550261857,3.0084248372918814,1325.4607578142954,2192.7194107759624
0.37,6.253977213556208,-25.922941193534164,-146.68162818993122,3.203796126349997,1356.3341320771558,2192.7194107759624
0.38,-3.34228669434966,-18.26236527515473,-143.55142510310446,2.456000899787208,1343.425880129375,2192.7194107759624
0.39,3.1317991488305594,-24.076633378960015,-146.42582335142868,3.0615043435466966,1350.9186236321275,2192.7194107759624
0.4,7.692410985493828,-25.533075105465947,-147.0658434476461,3.232681591302756,1380.9073067882587,2192.7194107759624
0.41000000000000003,-1.6190658526016777,-18.305368590837002,-144.02973868049347,2.5282163084306983,1358.5205672141997,2192.7194107759624
0.42,5.64912606819608,-23.58035685048787,-147.91882872247203,3.079295491246273,1361.551713683906,2192.7194107759624
0.43,1.4843310777466812,-23.420730561166618,-148.11564080801972,3.0867535928753145,1393.8035748942218,2192.7194107759624
0.44,0.8498753561261179,-18.25928680891305,-145.71050476675453,2.588868504458871,1361.655006505554,2192.7194107759624
0.45,8.795728344924603,-22.588175105657825,-150.6435774370195,3.044345509239006,1368.734198610081,2192.7194107759624
0.46,-6.992517035922342,-23.260120229948917,-149.2575979441751,3.134800141898064,1404.0969248443373,2192.7194107759624
0.47000000000000003,3.6165179084572436,-17.838797405077433,-147.65821190308918,2.610506656815993,1380.154798951619,2192.7194107759624
0.48,12.320877786326928,-20.83857759992088,-151.83152212159234,2.9313232539002594,1376.621496061613,2192.7194107759624
0.49,-2.6846197438134762,-24.08291409582209,-151.5815037986651,3.2798398175862022,1405.2911860331224,2192.7194107759624
0.5,4.4203944971704665,-25.044586005107256,-150.30065189556058,3.401051594519826,1419.0852362990456,2192.7194107759624
0.51,1.3096461592455517,-17.667868706398483,-149.4688768488114,2.681047733355347,1404.8444212069696,2192.7194107759624
0.52,3.158097206424862,-23.95474670150994,-151.95261966207678,3.3336902795680023,1409.4792741556907,2192.7194107759624
0.53,8.946828109352634,-25.121014666864248,-152.94398073233992,3.4754380907702975,1437.432906846365,2192.7194107759624
0.54,0.8437704816442575,-17.930758969782968,-150.17820788425814,2.7743432800319527,1405.27338853032,2192.7194107759624
0.55,9.613470884251871,-22.161608278522674,-155.15199519257703,3.2195898191844456,1406.9624288398836,2192.7194107759624
0.56,-5.02018612396612,-23.665605725897176,-154.38427436846428,3.3936551696477935,1438.9272805491107,2192.7194107759624
0.5700000000000001,4.525221424909889,-20.648795702445028,-152.98443498900377,3.1126229630050233,1433.1073633259348,2192.7194107759624
0.58,8.052239576550578,-18.061941431665506,-154.77059391447256,2.8719994773587367,1418.1938593642783,2192.7194107759624
0.59,2.462748144853113,-24.01235755892853,-156.56380722674504,3.491053447643968,1420.7232345730797,2192.7194107759624
0.6,8.481059411202587,-25.282063649448453,-157.77700701842053,3.6433061203454082,1448.2861269393056,2192.7194107759624
0.61,0.80634726375472,-17.85192048707805,-155.0822950299006,2.9181437245954465,1415.768442980447,2192.7194107759624
0.62,9.759537338158411,-22.07619555052385,-160.09994205730118,3.3626474264905504,1416.2806429507389,2192.7194107759624
0.63,-4.600909275295191,-23.72983925151146,-159.46837162860498,3.5517416358408225,1445.5542275853272,2192.7194107759624
0.64,4.011551298394933,-23.89900626327816,-158.23727052619978,3.592557343280771,1446.464766523591,2192.7194107759624
0.65,5.845214770057803,-17.638508431516698,-159.1655239597652,2.984146068536141,1430.0689192598372,2192.7194107759624
0.66,3.675086973530073,-23.833517897070873,-161.43828662853275,3.62748053298863,1429.9967651249422,2192.7194107759624
0.67,9.958147879110777,-24.73755044317995,-162.93036176904633,3.7426213380427176,1457.2373919213935,2192.7194107759624
0.68,2.094303493336895,-17.680480786982244,-160.24134393030099,3.054594853209929,1419.5628186586287,2192.7194107759624
0.6900000000000001,11.380141654523182,-21.277677221973125,-165.80582016973642,3.4355921739309903,1415.5534561314857,2192.7194107759624
0.7000000000000001,-2.7465996985893497,-24.003438806105088,-165.65241178637586,3.7321717711502918,1439.3346621432017,2192.7194107759624
0.71,4.257987056246479,-25.537217915832976,-164.81628649330884,3.9110869000389137,1462.8747479295562,2192.7194107759624
0.72,-1.2540574742270385,-17.5073857158048,-162.7235417222911,3.125611065751901,1442.2669062093169,2192.7194107759624
0.73,5.986801647898019,-23.334557764400962,-166.34875688040165,3.731662828375918,1440.9079823451432,2192.7194107759624
0.74,3.7716181049124913,-23.239132321566213,-167.10262860375394,3.7453594164140096,1470.2855604477045,2192.7194107759624
0.75,4.275017795738938,-17.185109105098377,-165.0258121221626,3.157142203872324,1444.305872966822,2192.7194107759624
0.76,14.214963370333749,-19.447327487125392,-169.4643298841708,3.402811369562151,1430.9422939678984,2192.7194107759624
0.77,1.1506676697868956,-24.090362657198032,-170.3411329351175,3.891205249226613,1429.6540004375029,2192.7194107759624
0.78,7.346784330799431,-25.63466151732515,-171.9439420045064,4.07126979675665,1456.9065386890943,2192.7194107759624
0.79,0.2458246297489528,-17.804825160381224,-169.32858686712814,3.306090986222639,1426.4579207897514,2192.7194107759624
0.8,9.265298309195279,-22.266993878736976,-174.1348968857045,3.7745748519369506,1426.595606849476,2192.7194107759624
0.81,-4.8580824488708725,-23.6587730457572,-173.55403752135712,3.93741154168473,1455.435957125386,2192.7194107759624
0.8200000000000001,3.947192850147164,-23.95689414833028,-172.37572079860698,3.9911805460903684,1456.6671351212362,2192.7194107759624
0.8300000000000001,5.817334735612277,-17.535318521206673,-173.2654530557419,3.3665583018992145,1439.7565728120164,2192.7194107759624
0.84,4.157505918893869,-23.735917202669516,-175.63163744684863,4.010354087248168,1438.1591095078518,2192.7194107759624
0.85,10.369385047241048,-24.42429421969916,-177.26150121745525,4.103616083170832,1465.1927216409183,2192.7194107759624
0.86,2.7852929382553024,-17.52572607038908,-174.6140228580182,3.4312849943102126,1424.4309212266428,2192.7194107759624
0.87,12.279663878610727,-20.76088206944399,-180.50423667428936,3.775561476285148,1417.6826574545537,2192.7194107759624
0.88,-1.6170303811522428,-24.096355856063063,-180.64685637447369,4.133205210803117,1435.8756120892508,2192.7194107759624
0.89,4.4574907517458495,-26.122202439028236,-180.28034671522704,4.361912071538663,1462.911942377383,2192.7194107759624
0.9,-1.739456786806997,-17.677008578482933,-177.76909960740954,3.535069694062616,1439.9198646007378,2192.7194107759624
0.91,6.996370730442183,-23.0557792984847,-181.7857292370171,4.096002545361277,1441.1988136635073,2192.7194107759624
0.92,-0.9477318658030782,-23.10109382144174,-181.69804635593164,4.123635091478423,1472.1997111123203,2192.7194107759624
0.93,5.030390372294601,-16.964956282082287,-180.00534454876492,3.52698629382456,1453.9669934820943,2192.7194107759624
0.9400000000000001,13.768604141949774,-18.60111614663893,-183.53900995429962,3.7092033964268634,1436.9800029481812,2192.7194107759624
0.9500000000000001,2.5294207104129374,-23.970716365156896,-184.95613528157077,4.270134134643817,1437.4204647541574,2192.7194107759624
0.96,8.918181894677883,-25.13119859466616,-186.39926524833908,4.411313556189409,1464.403109739063,2192.7194107759624
0.97,1.5461196886829107,-17.683987719773953,-183.77772015151558,3.6842764564199624,1426.4927215002044,2192.7194107759624
0.98,10.84112502828185,-21.542926896479294,-189.35943609786148,4.091713300986976,1426.6285069304854,2192.7194107759624
0.99,-3.1468693861389347,-23.946455992320075,-188.79411844717038,4.356012666563374,1451.8045070226126,2192.7194107759624
1.0,4.572507036946517,-25.21890744455883,-187.8780420235252,4.508476719231808,1478.2872905093564,2192.7194107759624
1.01,-2.253636784752869,-17.50556191128346,-185.34340697016913,3.754647727815555,1457.7860852371778,2192.7194107759624
1.02,6.642801034060597,-23.127200798163685,-189.1088544503861,4.339938817301741,1457.779661032848,2192.7194107759624
1.03,1.0945081960180563,-23.087917358830573,-189.3748162453206,4.359098390727261,1487.611177098048,2192.7194107759624
1.04,5.383172352463273,-16.73851392029073,-187.61511408040838,3.7408965607935665,1473.4827314540246,2192.7194107759624
1.05,12.683557967546035,-17.944178949842634,-190.57403038435382,3.8794072426986004,1454.1461031852627,2192.7194107759624
1.06,3.895289117519871,-23.753962115649713,-192.4554745860423,4.484139521394958,1449.8560478769805,2192.7194107759624
1.07,10.633113678025163,-24.4550200290514,-194.39591043129366,4.578700332764178,1476.4065426609545,2192.7194107759624
1.08,3.0725140302650473,-17.394446916840568,-191.78831836469504,3.8900374684599353,1434.0639303890205,2192.7194107759624
1.09,12.783152923422763,-20.43367295292017,-197.8492640381112,4.214393745020816,1425.6315586653825,2192.7194107759624
1.1,-0.7953868580802697,-24.120437373518744,-198.185137724424,4.607190624454192,1440.8619192899794,2192.7194107759624
1.11,5.235729802985102,-26.147624070673125,-198.10649686442096,4.836056918240303,1467.7249699250804,2192.7194107759624
1.12,-0.9047586684425823,-17.704010419477008,-195.61440333790546,4.009399563540168,1439.8799906642662,2192.7194107759624
1.1300000000000001,8.060389202358138,-22.705078483702252,-200.14052193570933,4.532211448446395,1444.429266866463,2192.7194107759624
1.1400000000000001,-5.8010348163274355,-23.437927583297558,-199.1261500316679,4.628934285989223,1476.0103327504437,2192.7194107759624
1.1500000000000001,5.226412696728547,-18.7200872140915,-197.87690828027615,4.175870336282709,1471.6383584573261,2192.7194107759624
1.16,8.234214390861805,-17.516733944272907,-199.42839732347403,4.073051743245123,1452.4867785281235,2192.7194107759624
1.17,4.491005140924289,-23.650937951559037,-201.79818076045888,4.710123081925294,1447.402935870922,2192.7194107759624
1.18,10.251725564070306,-24.115643831727443,-203.72244053763973,4.780709313773862,1474.311872666967,2192.7194107759624
1.19,3.42243268525338,-17.34460701667563,-201.15466308476334,4.120950239285357,1431.8729827898997,2192.7194107759624
1.2,13.140598409403566,-20.210732918215193,-207.22862126245025,4.427773562357528,1421.8760758473522,2192.7194107759624
1.21,-0.4479133024821209,-24.13402109115584,-207.72413950365257,4.84423640074275,1434.0717202007663,2192.7194107759624
1.22,5.517455156432924,-26.08963011826466,-207.94955574727683,5.065886933571896,1461.170737773072,2192.7194107759624
1.23,-0.8946244637145586,-17.752640485427886,-205.4133589803824,4.249940610773646,1433.5414461444545,2192.7194107759624
1.24,7.960074751822368,-22.752745994534962,-209.91319022906418,4.772703907678888,1439.0180424403554,2192.7194107759624
1.25,-6.068326031895369,-23.385379119565616,-208.79461974870642,4.85935259930152,1471.8158938952183,2192.7194107759624
1.26,5.648406382464261,-16.772788931933512,-207.49733036440338,4.2148663694702435,1463.445222099332,2192.7194107759624
1.27,9.767077397738051,-17.802755232896324,-209.56959217149154,4.335665754799421,1445.1639082986835,2192.7194107759624
1.28,3.7613161163855295,-23.791975854678512,-211.6327762587814,4.958379792832318,1439.9319094284308,241.60063165308915
1.29,10.316305681204962,-24.59034258002619,-16.593936364580713,5.062806807947112,1431.9096932752238,241.60063165308915
1.3,4.196297860454932,-4.387870766550381,-15.68039469986384,3.046947497366081,1411.8090778467595,241.60063165308915
1.31,10.866483985853947,-11.646397172632327,-17.280491557372443,3.784446535146908,1389.8606104819803,241.60063165308915
1.32,7.487111339587271,-20.841887946057653,-18.078997291932026,4.724837500435498,1392.6196490536593,241.60063165308915
1.33,0.6141357292478484,-9.444702417920393,-16.047745853027777,3.5945636500396922,1376.6493949742899,241.60063165308915
1.34,8.280090299316635,-9.16167367649201,-17.366957525685066,3.575422449573346,1354.6710570582213,241.60063165308915
1.35,8.649697042198898,-20.097455253589928,-18.57970159158623,4.689098062536727,1356.410653392442,241.60063165308915
1.36,0.5047872376615845,-20.337462371852062,-16.55930318388117,4.733436236734794,1346.6490858121424,241.60063165308915
1.37,5.6610504867719165,-8.37938365647296,-17.034055014905405,3.5460077488533566,1326.171470840366,241.60063165308915
1.3800000000000001,8.083934027363625,-18.860362610413066,-18.32998374464438,4.61296600685778,1328.0411393255436,241.60063165308915
1.3900000000000001,0.126987404625023,-20.514210610073405,-16.343361763173448,4.7988650174338865,1319.6684090123563,241.60063165308915
1.4000000000000001,4.99803528435996,-8.216539309094237,-16.677020482031836,3.5773144266450645,1300.3081950401229,241.60063165308915
1.41,7.277080969826121,-18.801743033778752,-17.87187538016397,4.654636542147295,1304.715520646098,241.60063165308915
1.42,-1.0338165125548153,-16.54036335395932,-15.618248742127719,4.445038937519311,1294.016700016398,241.60063165308915
1.43,5.446159077901215,-8.672242767932245,-16.37150300582276,3.6668991216845357,1275.7142795594277,241.60063165308915
1.44,6.106265628858065,-19.77690285017532,-17.3221008365868,4.797142032759019,1282.097549295887,241.60063165308915
1.45,-1.1425375171652516,-3.8656540678013434,-14.999589817188507,3.209882808589422,1268.8943528559903,241.60063165308915
1.46,6.985424710968977,-10.477017040907429,-16.194736041768792,3.8814961229409377,1254.3886809555502,241.60063165308915
1.47,3.925788023168284,-21.06832873518072,-16.412820333813997,4.961695621103448,1257.1899376227177,241.60063165308915
1.48,0.7217986001747496,-4.796011251645698,-14.879758292339261,3.3392598840015912,1242.2142950388413,241.60063165308915
1.49,6.676405083435096,-13.47744637431177,-16.061180985167383,4.22088084264251,1237.8345601731362,241.60063165308915
1.5,0.4119031962108286,-20.769926454782812,-14.959211719503983,4.970898777144397,1232.8934582066843,241.60063165308915
1.51,2.968306249151498,-6.464479001115363,-14.802962191124848,3.5468185107787673,1215.4820548124799,241.60063165308915
1.52,5.217684647972378,-17.243595113109397,-15.882708794491165,4.641973717091281,1220.3943411848281,241.60063165308915
1.53,-1.5378864406299124,-2.7670083864373773,-13.817908914775472,3.197082052810516,1208.0038799863835,241.60063165308915
1.54,6.079770003140959,-10.337760374559947,-14.940717389447343,3.964495011997333,1198.4446910659672,241.60063165308915
1.55,1.5268393870449017,-20.289925294889656,-14.568346179382317,4.980001429325194,1196.2973986936554,241.60063165308915
1.56,1.7781049096225907,-5.1918543832883595,-13.9375960865938,3.4753861925483522,1179.6861630875162,241.60063165308915
1.57,4.784990174316377,-15.714581539032345,-15.048427642650765,4.543373489661783,1183.7204947531957,241.60063165308915
1.58,-1.7847633015341562,-2.0756257848166486,-13.1264210567996,3.1815535400250297,1171.6378052381913,241.60063165308915
1.59,5.541820974206683,-10.11076906492479,-14.225162420284505,3.9951786371007687,1164.904360068716,241.60063165308915
1.6,0.030015185245368947,-18.860249485526058,-13.506359482534663,4.888986928646421,1160.0845657256257,241.60063165308915
1.61,2.2354315480809244,-5.478997677045079,-13.374934522986948,3.5563407454753686,1144.6507209614626,241.60063165308915
1.62,3.32699940857505,-16.586622705957723,-14.210061571280889,4.68368987107259,1146.8935120503263,241.60063165308915
1.6300000000000001,-0.408226628014573,-2.854499414996549,-12.788856331718435,3.3133320413914698,1132.7897695040003,241.60063165308915
1.6400000000000001,4.618626483855934,-12.468420904952868,-13.897648158030321,4.287192611292054,1135.1527704251812,241.60063165308915
1.6500000000000001,-2.98032387163391,-0.7784437741742599,-12.087212041056517,3.1189733419883683,1122.7126332525525,241.60063165308915
