timestamp,iq,id,iq_ref,id_ref,vq,vd,omega,omega_ref,r
0.0,0.0,0.0,0.0,0.0,0.0,0.0,0.0,327.3226123403939,0.0
0.001,0.0,0.0,10.0,0.0,0.0,1.0999999999999999,6.115472199294103,327.3226123403939,0.0
0.002,0.5307369851907212,-0.2913212625381807,10.0,0.0,0.14204533887919985,1.9316189316290207,13.317801563642547,327.3226123403939,0.0
0.003,1.0842913387634832,-0.6024330830807904,10.0,0.0,0.384357124667687,2.6386968949419622,20.697939467553027,327.3226123403939,0.0
0.004,1.5590443546685477,-0.8700465084428163,10.0,0.0,0.6994718867930164,3.2526109522886295,28.232747544420146,327.3226123403939,0.0
0.005,1.9399447555359186,-1.0838738622210777,10.0,0.0,1.065311453102468,3.7994935661768023,35.92944872443006,327.3226123403939,0.0
0.006,2.239750732602683,-1.2510087368845633,10.0,0.0,1.4655018868449925,4.299102221838433,43.75633668444442,327.3226123403939,0.0
0.007,2.4770151619816017,-1.382020589851471,10.0,0.0,1.8883740978591532,4.765668027847139,51.58766747378032,327.3226123403939,0.0
0.008,2.6680767290418097,-1.4872241871505252,10.0,0.0,2.325877945545995,5.209220346273558,59.45942083902103,327.3226123403939,0.0
0.009000000000000001,2.8266491704841292,-1.5730794701170803,10.0,0.0,2.772378685460125,5.636635464737965,67.35059094018146,327.3226123403939,0.0
0.01,2.962077666392183,-1.645500646948331,10.0,0.0,3.224078639851053,6.052647735211881,75.20908322432116,327.3226123403939,0.0
0.011,3.0811061533574158,-1.7084279320504514,10.0,0.0,3.678407615443203,6.460489925470405,83.0265951655913,327.3226123403939,0.0
0.012,3.188848746459569,-1.7638278597420747,10.0,0.0,4.133552631697047,6.862319393890706,90.74118064793086,327.3226123403939,0.0
0.013000000000000001,3.288205119878689,-1.8140726097274587,10.0,0.0,4.588339016389012,7.259628641949282,98.35820682563939,327.3226123403939,0.0
0.014,3.3820602099432007,-1.8592355758795645,10.0,0.0,5.041843166194517,7.653355107498287,105.90865295623543,327.3226123403939,0.0
0.015,3.4721069852858886,-1.899829032412081,10.0,0.0,5.493383198131427,8.044092747085895,113.37727610343421,327.3226123403939,0.0
0.016,3.5596145800153947,-1.9360338400176071,10.0,0.0,5.94241958510469,8.43218525824161,120.68508583176356,327.3226123403939,0.0
0.017,3.645144415105338,-1.9685384477868613,10.0,0.0,6.388575043274759,8.817838951066484,127.83962377537456,327.3226123403939,0.0
0.018000000000000002,3.730251927866576,-1.9959253041084188,10.0,0.0,6.83136783302799,9.201036292373047,134.85405702603322,327.3226123403939,0.0
0.019,3.81544967906247,-2.018253592643655,10.0,0.0,7.270383321112213,9.581672501020332,141.68976328564074,327.3226123403939,0.0
0.02,3.9014648862453374,-2.0350875541282063,10.0,0.0,7.705189334130692,9.959536942333155,148.3432823300447,327.3226123403939,0.0
0.021,3.9891051824829464,-2.0457889559126508,10.0,0.0,8.135310004560049,10.334315260302239,154.92060212100432,327.3226123403939,0.0
0.022,4.079618141396171,-2.0489696811670974,10.0,0.0,8.560139305503519,10.705547790999272,161.01925282597162,327.3226123403939,0.0
0.023,4.171109372430197,-2.048468292080302,10.0,0.0,8.979521969370257,11.072981092896333,166.534238406907,327.3226123403939,0.0
0.024,4.266936196769627,-2.039517194249811,10.0,0.0,9.392730090169543,11.435983292623375,171.8647834235234,327.3226123403939,0.0
0.025,4.367255527950721,-2.0225841458509217,10.0,0.0,9.79914449451603,11.793929226271104,177.02637022703064,327.3226123403939,0.0
0.026000000000000002,4.4734353073349595,-1.9962166741499119,10.0,0.0,10.197980960389518,12.146045424568259,181.63161391243256,327.3226123403939,0.0
0.027,4.582366840795821,-1.966358349113627,10.0,0.0,10.589124658468391,12.491912978736195,185.74793639675826,327.3226123403939,0.0
0.028,4.700058850757774,-1.9240450691803936,10.0,0.0,10.971384864613876,12.830451341534015,189.43662766964098,327.3226123403939,0.0
0.029,4.820934284790598,-1.879137197786803,10.0,0.0,11.344756153370636,13.161242511022618,192.73598774770625,327.3226123403939,0.0
0.03,4.952016225740939,-1.821000614527957,10.0,0.0,11.707923484756042,13.483081433273819,195.59831968863915,327.3226123403939,0.0
0.031,5.086039273572549,-1.7621311371320891,10.0,0.0,12.061063698547066,13.79562148058647,197.80891551030922,327.3226123403939,0.0
0.032,5.230431844273564,-1.6911110488141978,10.0,0.0,12.40292038074925,14.097678592248165,200.4421589734679,327.3226123403939,0.0
0.033,5.380124186618445,-1.6166151787533525,10.0,0.0,12.733312761073865,14.38869342901298,201.91742172589852,327.3226123403939,0.0
0.034,5.537594793894332,-1.535029134414507,10.0,0.0,13.051537880865839,14.667821176756876,203.18880493813168,327.3226123403939,0.0
0.035,5.698947813469154,-1.4530296333491768,10.0,0.0,13.357649178779205,14.934684535625108,203.60405746232266,327.3226123403939,0.0
0.036000000000000004,5.870474243492053,-1.3603000477825025,10.0,0.0,13.65045542338638,15.188218311291084,204.28541056101804,327.3226123403939,0.0
0.037,6.041188711220851,-1.275010780747051,10.0,0.0,13.930879897581198,15.42861600670124,205.2233356988433,327.3226123403939,0.0
0.038,6.228175208801664,-1.168399557236846,10.0,0.0,14.196427351981786,15.654155009933262,200.35169734043586,327.3226123403939,0.0
0.039,6.404895489618571,-1.0845312562500289,10.0,0.0,14.449814560392067,15.86612549236809,209.64773540576442,327.3226123403939,0.0
0.04,6.534612624563911,-1.0851225869390002,10.0,0.0,14.699963825590459,16.069735965364643,218.170241886545,327.3226123403939,0.0
0.041,6.621487035821765,-1.1484636683301073,10.0,0.0,14.952420817214799,16.26974130369247,220.68166573712315,327.3226123403939,0.0
0.042,6.6704785161669795,-1.2647840534085386,10.0,0.0,15.211794475054209,16.47047148862455,233.10654395573727,327.3226123403939,0.0
0.043000000000000003,6.709376245503157,-1.3867642159960276,10.0,0.0,15.477558399636717,16.673277185423842,235.10815372853793,327.3226123403939,0.0
0.044,6.744196093263161,-1.5028656568708394,10.0,0.0,15.74857785831126,16.87893749904121,248.8181267625822,327.3226123403939,0.0
0.045,6.750563942850831,-1.6564343609015326,10.0,0.0,16.02879294551472,17.090781462187255,251.61117095327992,327.3226123403939,0.0
0.046,6.764566527560506,-1.7840489455190416,10.0,0.0,16.314672837580048,17.307985931916857,266.60539535969383,327.3226123403939,0.0
0.047,6.752169677737121,-1.9446655565152717,10.0,0.0,16.610076868775216,17.533561623207692,270.0627790167984,327.3226123403939,0.0
0.048,6.7291903821171735,-2.110358990489937,10.0,0.0,16.91511817760721,17.768523902508925,283.13731951482634,327.3226123403939,0.0
0.049,6.714097190323873,-2.246352557911731,10.0,0.0,17.22645394156277,18.011924542904307,294.70561782835244,327.3226123403939,0.0
0.05,6.666841209228205,-2.4219663531358275,10.0,0.0,17.548953774962747,18.267165921658286,300.1294548425776,327.3226123403939,0.0
0.051000000000000004,6.612335516543512,-2.59336894353628,10.0,0.0,17.88182590988993,18.53465621226123,310.75154600411304,327.3226123403939,0.0
0.052000000000000005,6.568447424188529,-2.726701034625408,10.0,0.0,18.22111236450049,18.81296732052879,322.35703405819294,327.3226123403939,0.0
0.053,6.5036136539679195,-2.8764091099274185,8.099736783073219,0.0,18.569435851849082,18.89503984336943,329.75304049614937,327.3226123403939,0.0
0.054,6.33403676991205,-2.9627732825191684,4.377429282537451,0.0,18.899137220978954,18.63129138931513,333.89045238074505,327.3226123403939,0.0
0.055,5.970438106901888,-2.9166366564639423,2.2430449398361,0.0,19.163554937198406,18.26762879897803,335.64947736570895,327.3226123403939,0.0
0.056,5.511814650931956,-2.7862610438929423,1.2802637971009991,0.0,19.35128467163996,17.92902475054932,335.1548294298069,327.3226123403939,0.0
0.057,5.065980471981658,-2.6134806496393366,1.4492655941578878,0.0,19.468678940552287,17.71572761463608,333.9769296374212,327.3226123403939,0.0
0.058,4.714896136650331,-2.4485490204286364,1.9716723173804587,0.0,19.53658939371143,17.625435275886254,332.4893140255185,327.3226123403939,0.0
0.059000000000000004,4.485095573778303,-2.3041012591078016,2.6638131064805606,0.0,19.57443963022648,17.64364185445871,330.4352254205068,327.3226123403939,0.0
0.06,4.3734085783609125,-2.1823353835188968,3.659731278185288,0.0,19.5983757322457,17.776429953689146,329.8679369675979,327.3226123403939,0.0
0.061,4.382119218216666,-2.077382899345767,3.91792225836769,0.0,19.622869919482902,17.914699638963178,331.17785810430746,327.3226123403939,0.0
0.062,4.440485069503465,-1.9867426290439663,3.2244092323737865,0.0,19.6498207516323,17.95639029452937,323.7366000314284,327.3226123403939,0.0
0.063,4.487716467617898,-1.865121835425372,6.980898391902975,0.0,19.665773681528357,18.41214411028232,318.8233850924638,327.3226123403939,0.0
0.064,4.768721919297125,-1.7891843648161772,9.522498133864568,0.0,19.71856978617928,19.035490631766486,324.5683926946674,327.3226123403939,0.0
0.065,5.192623316863889,-1.7999488895372386,6.677536529220033,0.0,19.830364404938933,19.219601238421276,316.776711145545,327.3226123403939,0.0
0.066,5.455800086248044,-1.7273144350138234,10.0,0.0,19.941293187243314,19.76569041346219,314.9602174392558,327.3226123403939,0.0
0.067,5.888266036037405,-1.6424726399462928,10.0,0.0,20.08713175590916,20.19009942773867,315.21117675109264,327.3226123403939,0.0
0.068,6.279109962493919,-1.5972488791335948,10.0,0.0,20.256701173397342,20.54798322504176,305.9096267429203,327.3226123403939,0.0
0.069,6.682599927814155,-1.4639920819048853,10.0,0.0,20.430896018779983,20.846560127442697,306.5159162757507,327.3226123403939,0.0
0.07,7.030012686321453,-1.357106106852679,10.0,0.0,20.607104180581,21.098518320359215,299.9535835333632,327.3226123403939,0.0
0.07100000000000001,7.393891937631894,-1.1753184071997775,10.0,0.0,20.771959558282266,21.306348920105098,292.861861306912,327.3226123403939,0.0
0.07200000000000001,7.7074698965518085,-1.043026594436713,10.0,0.0,20.928378235780595,21.47902721467843,293.7940666095432,327.3226123403939,0.0
0.073,8.038189309686713,-0.8626817630962687,10.0,0.0,21.067907861666594,21.61683619168862,301.248629254071,327.3226123403939,0.0
0.074,8.20594566506029,-0.9321272350008363,10.0,0.0,21.216707872887934,21.739671228626666,307.02586693399417,327.3226123403939,0.0
0.075,8.253625036043337,-1.1552386333315743,10.0,0.0,21.386759185778274,21.861535595738623,323.4174815154555,327.3226123403939,0.0
0.076,8.271906381382486,-1.3810726217393825,8.111057370515653,0.0,21.574602428832314,21.77890081390767,325.9058837955472,327.3226123403939,0.0
0.077,8.144660279360208,-1.5867319549734855,6.881023515918275,0.0,21.75576205616954,21.621079421530194,341.38615858109335,327.3226123403939,0.0
0.078,7.9217272255416455,-1.7581266477006683,-0.9997493392617987,0.0,21.91982040440294,20.66582163050017,339.11607285299345,327.3226123403939,0.0
0.079,7.256034068703327,-1.7436134971876693,0.01735891966215597,0.0,21.968636745226306,20.08418200714395,344.08552249112256,327.3226123403939,0.0
0.08,6.647133110512077,-1.7333485078206412,-2.634995000909683,0.0,21.95342347230647,19.3239801401862,347.0246571012479,327.3226123403939,0.0
0.081,5.969217059577598,-1.7003184226147934,-4.301582753580892,0.0,21.860180680503863,18.549957775065014,347.3948732640351,327.3226123403939,0.0
0.082,5.2847105076338545,-1.6367503246587118,-4.687413444210898,0.0,21.692197741446286,17.88675442903756,347.1469643226048,327.3226123403939,0.0
0.083,4.67049267730251,-1.581661416604,-4.761702493317858,0.0,21.469268662785268,17.32947853102864,345.9853791591072,327.3226123403939,0.0
0.084,4.151966692597309,-1.5398632228191993,-4.3675375797561955,0.0,21.20885798995367,16.900634025951618,344.02773878391434,327.3226123403939,0.0
0.085,3.745713258063266,-1.5175472189235568,-3.5557686565949744,0.0,20.929567155406872,16.61348845446296,341.6505075777489,327.3226123403939,0.0
0.08600000000000001,3.4618101307833893,-1.5163024917561412,-2.5104320058858,0.0,20.64957708721642,16.461164508670315,339.23146873566463,327.3226123403939,0.0
0.08700000000000001,3.296653487227859,-1.5337628872391391,-1.420001148796377,0.0,20.38428672204055,16.42089617792896,336.4041177453713,327.3226123403939,0.0
0.088,3.23124849396591,-1.568562902963145,-0.0971407076994879,0.0,20.14515195808294,16.49827896651716,333.23437192893766,327.3226123403939,0.0
0.089,3.2654422355936763,-1.6103657897365617,1.428614604631897,0.0,19.941919266767755,16.6941991182846,330.18668322553503,327.3226123403939,0.0
0.09,3.392209433475567,-1.6643587831208795,2.9238182474818,0.0,19.78412306016537,16.98581637898322,327.09651530195157,327.3226123403939,0.0
0.091,3.6026798928780766,-1.71544450222814,4.471163179657956,0.0,19.676347699461044,17.36586412050716,326.89376903673076,327.3226123403939,0.0
0.092,3.8880207647251086,-1.7591245932123385,4.576824745304992,0.0,19.62164860179673,17.663996083398537,328.7998867315111,327.3226123403939,0.0
0.093,4.147268618069625,-1.7808122553541965,3.6089931540036533,0.0,19.604181452113753,17.793662994385297,321.1334270309908,327.3226123403939,0.0
0.094,4.323896279677591,-1.7333347102782746,7.504114857357838,0.0,19.595988301917973,18.32992163834363,316.9068103154649,327.3226123403939,0.0
0.095,4.700721427184167,-1.7082960331317596,9.721581235370074,0.0,19.639960852102252,18.97702069782471,321.89759639819204,327.3226123403939,0.0
0.096,5.1724269393211975,-1.751618016521326,7.280438353428522,0.0,19.749261858160526,19.224987370722417,314.480207037853,327.3226123403939,0.0
0.097,5.491347128287093,-1.6995885552207075,10.0,0.0,19.86627297032578,19.752286521213573,313.56319192355824,327.3226123403939,0.0
0.098,5.932466195581099,-1.6223652970167124,10.0,0.0,20.016338622534196,20.16602735589374,312.65785782424416,327.3226123403939,0.0
0.099,6.321561435189812,-1.5785122960816227,10.0,0.0,20.188720195468953,20.515011386642716,304.8473825497637,327.3226123403939,0.0
0.1,6.724261707661109,-1.4388222728107793,10.0,0.0,20.3638346416347,20.805929094034514,303.7993895880976,327.3226123403939,0.0
0.101,7.064246224430368,-1.33610117632551,10.0,0.0,20.540626993542375,21.051895181183802,299.33567233400197,327.3226123403939,0.0
0.10200000000000001,7.426416221560441,-1.1507313500957568,10.0,0.0,20.7049732490538,21.25450504029232,290.0112800201457,327.3226123403939,0.0
0.10300000000000001,7.739994102159361,-1.0132105675703609,10.0,0.0,20.859872277109435,21.422416672146543,293.5736399433461,327.3226123403939,0.0
0.10400000000000001,8.058516869631443,-0.8493974017541359,10.0,0.0,20.9994283251304,21.557125318004967,299.09492310419034,327.3226123403939,0.0
0.105,8.194612016403497,-0.9633595469704055,10.0,0.0,21.152673600567056,21.680533465609443,309.95733492694745,327.3226123403939,0.0
0.106,8.232322217465354,-1.1959482975136155,10.0,0.0,21.32738030432809,21.804138155348046,321.5804870200212,327.3226123403939,0.0
0.107,8.256085914004416,-1.404377078791994,8.447149716121483,0.0,21.517578085122068,21.759802610653587,327.4548838544452,327.3226123403939,0.0
0.108,8.128619273645473,-1.6435242624460122,5.5086285837689815,0.0,21.708544435756366,21.44547054419285,336.43336308591154,327.3226123403939,0.0
0.109,7.8438256288738195,-1.7545427872517154,0.9282814605806369,0.0,21.858801510573233,20.737267981735716,341.583218623148,327.3226123403939,0.0
0.11,7.264654109390333,-1.8010377995424067,-1.7892523708651424,0.0,21.927216887766633,19.922647063474294,343.0136146273966,327.3226123403939,0.0
0.111,6.572873833663682,-1.742645596043512,-2.661360395859452,0.0,21.900440542906757,19.19787734545854,346.61152915678264,327.3226123403939,0.0
0.112,5.885302506220053,-1.698161977317247,-4.653206828716369,0.0,21.799555584706404,18.40123998065559,346.6459502554649,327.3226123403939,0.0
0.113,5.187328313901563,-1.6248505294525213,-4.863650757208223,0.0,21.62147596276792,17.74084893658796,346.0517281122847,327.3226123403939,0.0
0.114,4.573529068993959,-1.5641171640048763,-4.753830843337022,0.0,21.38921764289594,17.203411839560644,344.7649506445101,327.3226123403939,0.0
0.115,4.0685053539219656,-1.5229374721656912,-4.284865492490892,0.0,21.12251901286059,16.79639522591207,342.73870328247415,327.3226123403939,0.0
0.116,3.6806448363522386,-1.5042148305464984,-3.425902720893707,0.0,20.840140890804193,16.530821081773993,340.3326600566426,327.3226123403939,0.0
0.117,3.416160805682246,-1.5072119424273591,-2.352981585140432,0.0,20.559960075262715,16.398212875258974,337.8883028908059,327.3226123403939,0.0
0.11800000000000001,3.2689021605151054,-1.5290295980147703,-1.236459907726192,0.0,20.296906491619698,16.376489191661037,334.9833995636813,327.3226123403939,0.0
0.11900000000000001,3.2201208917397866,-1.5670193309890623,0.13938388360323462,0.0,20.06194659205247,16.474703471444293,332.0047084685395,327.3226123403939,0.0
0.12,3.269951249671399,-1.6139092280587168,1.5819084698926846,0.0,19.865082101768223,16.678550447810814,328.88940280548155,327.3226123403939,0.0
0.121,3.406349973846265,-1.668460338843319,3.1238933967707774,0.0,19.71382048136466,16.98301381752604,326.0053580772249,327.3226123403939,0.0
0.122,3.626834440491902,-1.719289966011824,4.579088303530787,0.0,19.613177107853662,17.363666974614937,326.3144139940111,327.3226123403939,0.0
0.123,3.9146858297298235,-1.7622228498184382,4.434642328601527,0.0,19.564877708349705,17.636290664184312,327.7306635579897,327.3226123403939,0.0
0.124,4.159389937105345,-1.780572100150985,3.722437034436256,0.0,19.550259706451588,17.77588498431853,319.4293917967219,327.3226123403939,0.0
0.125,4.340889670768369,-1.7254339510404375,7.952005120506875,0.0,19.54481424785122,18.35491468502976,317.1348667689964,327.3226123403939,0.0
0.126,4.73886737842852,-1.709327536274289,9.201145090083607,0.0,19.59659598104884,18.92864403509658,320.85690403827573,327.3226123403939,0.0
0.127,5.179850150398014,-1.741037240497166,7.404783538465125,0.0,19.704221607545556,19.195559125262637,312.65967899673376,327.3226123403939,0.0
0.128,5.501587265354239,-1.6842705120243953,10.0,0.0,19.82121474323498,19.719001440421287,313.0096504247541,327.3226123403939,0.0
0.129,5.940409903651728,-1.6085894558140768,10.0,0.0,19.971095547972915,20.13079355395451,311.0038820946633,327.3226123403939,0.0
0.13,6.3285436238580735,-1.5655018324706036,10.0,0.0,20.143184655584705,20.478088053768474,304.4112948380359,327.3226123403939,0.0
0.131,6.732332374759007,-1.4237939743798482,10.0,0.0,20.317637314260153,20.76732658896519,302.06316497602916,327.3226123403939,0.0
0.132,7.070315640488053,-1.3242659045155483,10.0,0.0,20.494037551483565,21.011946264788584,298.8282209585616,327.3226123403939,0.0
0.133,7.431930793118635,-1.139860191268677,10.0,0.0,20.657970384808472,21.21334616261992,288.50550223715686,327.3226123403939,0.0
0.134,7.747440398952077,-0.9988931029936166,10.0,0.0,20.81198760200623,21.37990944888523,295.01858624903434,327.3226123403939,0.0
0.135,8.051917219477133,-0.8585072467300976,10.0,0.0,20.953226652804503,21.514880774044364,299.8330167483833,327.3226123403939,0.0
0.136,8.186220772415826,-0.9725513879436161,10.0,0.0,21.107787645134984,21.638750249149417,308.4131271565637,327.3226123403939,0.0
0.137,8.219771568005921,-1.2089698214342257,10.0,0.0,21.284145072014756,21.763341323991483,322.53251589254995,327.3226123403939,0.0
0.138,8.239355940194827,-1.421915988890468,7.636713586790158,0.0,21.476385757776036,21.631328755599355,325.9859905672129,327.3226123403939,0.0
0.139,8.071988228615428,-1.6311520923639748,5.923342467190483,0.0,21.6570876278295,21.38550984559432,337.46565065935766,327.3226123403939,0.0
0.14,7.803848296301542,-1.7559419623570336,0.08208203792847435,0.0,21.806771944541616,20.584759793011045,340.0193271731755,327.3226123403939,0.0
0.14100000000000001,7.187504377456953,-1.780953829919543,-1.321723367308259,0.0,21.862916231056143,19.848163618823666,342.5497582638918,327.3226123403939,0.0
0.14200000000000002,6.522849170168425,-1.735210812664763,-2.7392103719013976,0.0,21.834504620926815,19.11590460786688,345.67933256225064,327.3226123403939,0.0
0.14300000000000002,5.841814273673762,-1.6930681742580855,-4.487564723299375,0.0,21.731530010662564,18.34415351492653,345.77134445383814,327.3226123403939,0.0
0.14400000000000002,5.159719172793141,-1.6247114926861885,-4.718057990227568,0.0,21.55457994354186,17.699629466537584,345.25790302628957,327.3226123403939,0.0
