timestamp,iq,id,iq_ref,id_ref,vq,vd,omega,omega_ref,r
0.0,0.0,0.0,0.0,0.0,0.0,0.0,0.0,99.7634640569005,0.0
0.001,0.0,0.0,10.0,0.0,0.0,1.0999999999999999,6.115472199294103,99.7634640569005,0.0
0.002,0.5307369851907212,-0.2913212625381807,10.0,0.0,0.14204533887919985,1.9316189316290207,13.317801563642547,99.7634640569005,0.0
0.003,1.0842913387634832,-0.6024330830807904,10.0,0.0,0.384357124667687,2.6386968949419622,20.697939467553027,99.7634640569005,0.0
0.004,1.5590443546685477,-0.8700465084428163,10.0,0.0,0.6994718867930164,3.2526109522886295,28.232747544420146,99.7634640569005,0.0
0.005,1.9399447555359186,-1.0838738622210777,10.0,0.0,1.065311453102468,3.7994935661768023,35.92944872443006,99.7634640569005,0.0
0.006,2.239750732602683,-1.2510087368845633,10.0,0.0,1.4655018868449925,4.299102221838433,43.75633668444442,99.7634640569005,0.0
0.007,2.4770151619816017,-1.382020589851471,10.0,0.0,1.8883740978591532,4.765668027847139,51.58766747378032,99.7634640569005,0.0
0.008,2.6680767290418097,-1.4872241871505252,10.0,0.0,2.325877945545995,5.209220346273558,59.45942083902103,99.7634640569005,0.0
0.009000000000000001,2.8266491704841292,-1.5730794701170803,10.0,0.0,2.772378685460125,5.636635464737965,67.35059094018146,99.7634640569005,0.0
0.01,2.962077666392183,-1.645500646948331,10.0,0.0,3.224078639851053,6.052647735211881,75.20908322432116,99.7634640569005,0.0
0.011,3.0811061533574158,-1.7084279320504514,10.0,0.0,3.678407615443203,6.460489925470405,83.0265951655913,99.7634640569005,0.0
0.012,3.188848746459569,-1.7638278597420747,10.0,0.0,4.133552631697047,6.862319393890706,90.74118064793086,99.7634640569005,0.0
0.013000000000000001,3.288205119878689,-1.8140726097274587,6.630335193764439,0.0,4.588339016389011,6.888965513263371,96.20722836734977,99.7634640569005,0.0
0.014,3.2055442096634814,-1.7614666987254113,3.9328736909504913,0.0,4.994022276838967,6.705487805778646,99.60811770539024,99.7634640569005,0.0
0.015,2.9718111098841486,-1.6188341019355894,2.2339824854453583,0.0,5.325625913958597,6.445906809383541,102.00114433585097,99.7634640569005,0.0
0.016,2.669025406520542,-1.431686298340456,1.015092367425491,0.0,5.578951155299185,6.15932437178498,102.85098481426317,99.7634640569005,0.0
0.017,2.344536819837045,-1.2435311822366617,0.5592969206457625,0.0,5.759460044010394,5.92144999161631,101.28637905583884,99.7634640569005,0.0
0.018000000000000002,2.0617383801183626,-1.0704520416094963,1.3263706498685468,0.0,5.880973451525664,5.842212945520152,100.94868119005672,99.7634640569005,0.0
0.019,1.890888085253379,-0.9472412230003362,1.4833674114280435,0.0,5.970589415039054,5.808615399302414,102.93889983629902,99.7634640569005,0.0
0.02,1.7854905781802164,-0.8708188281846152,0.4565037305129098,0.0,6.040709672335696,5.682699454370928,102.96464983234425,99.7634640569005,0.0
0.021,1.6631294891168644,-0.7957934378381009,0.4116168747358544,0.0,6.083737740419563,5.594123957062165,100.8377862032992,99.7634640569005,0.0
0.022,1.5670588521447044,-0.7244125773425317,1.4643054677943912,0.0,6.106503811213122,5.64429758926318,101.0372172064058,99.7634640569005,0.0
0.023,1.5553914302598417,-0.6893266120497169,1.3518524347460403,0.0,6.12886499057017,5.669156455795163,102.95245997249211,99.7634640569005,0.0
0.024,1.555806782131477,-0.6731971413463261,0.3623410925469701,0.0,6.150052556520269,5.585881473373504,101.15176590934666,99.7634640569005,0.0
0.025,1.5078044003756264,-0.6398119804873603,1.2488051055952298,0.0,6.157282794645736,5.6257433161581805,99.33770975467009,99.7634640569005,0.0
0.026000000000000002,1.515408122667602,-0.6169183718147799,2.160090725955823,0.0,6.165591747891734,5.752402343316445,101.673354828363,99.7634640569005,0.0
0.027,1.5796329274634895,-0.6284275695811303,0.9731692813947399,0.0,6.187230656369982,5.7205634566735295,101.68612324371388,99.7634640569005,0.0
0.028,1.579540197230094,-0.6198244430740868,0.947558481851168,0.0,6.202460349442675,5.703776824412178,99.1310333714622,99.7634640569005,0.0
0.029,1.57526471249475,-0.5921861595782958,2.231427724831393,0.0,6.211534230062495,5.832142925426049,100.94719777368728,99.7634640569005,0.0
0.03,1.6402263987471364,-0.596449736852871,1.3115081865509834,0.0,6.233282709056885,5.82736142242475,101.46491126489614,99.7634640569005,0.0
0.031,1.6538678983096606,-0.5928101473142224,1.035636968866594,0.0,6.251935199229705,5.803235330971186,98.83842415193743,99.7634640569005,0.0
0.032,1.6518454152832163,-0.5636115793044945,2.3581309243955815,0.0,6.263134384654207,5.93197903309383,100.60325907277563,99.7634640569005,0.0
0.033,1.7178478118350264,-0.5678061641050491,1.4673155138177314,0.0,6.2868414117566775,5.930473160376841,100.38310790212246,99.7634640569005,0.0
0.034,1.7345682984596977,-0.563782535631753,1.5711946606920957,0.0,6.30754260389714,5.950644208340562,98.2483464819327,99.7634640569005,0.0
0.035,1.7586601464475513,-0.5400274008981989,2.6537265465366544,0.0,6.325617953083965,6.086425088283699,100.94499620046504,99.7634640569005,0.0
0.036000000000000004,1.8329126643648748,-0.5533018674242864,1.293586365834838,0.0,6.357161598011628,6.04206781792453,98.72519990882782,99.7634640569005,0.0
0.037,1.8353298267013312,-0.5336740555691444,2.4138671531341767,0.0,6.378823347441282,6.142609564826151,99.82968247256566,99.7634640569005,0.0
0.038,1.8932072276417378,-0.5249117387527542,1.8609636871086015,0.0,6.407605519886879,6.156898780364691,99.54950252831323,99.7634640569005,0.0
0.039,1.9145255499047138,-0.52028630107978,2.0031932745206937,0.0,6.434517221665908,6.192045339429999,98.26602910015322,99.7634640569005,0.0
0.04,1.950078913050325,-0.495379954728262,2.65990433816817,0.0,6.459558965451629,6.293486647170392,100.02836721217125,99.7634640569005,0.0
0.041,2.0086894339834886,-0.5044630180115048,1.7760862506064485,0.0,6.49348886605749,6.277409274575864,97.76380166302448,99.7634640569005,0.0
0.042,2.0273070720144153,-0.47878665496466577,2.928365649118592,0.0,6.519502808775325,6.400459709039255,100.00257918104668,99.7634640569005,0.0
0.043000000000000003,2.096233383539996,-0.4838792146644676,1.8065857388660285,0.0,6.55603734586516,6.371492192327683,97.35093722507501,99.7634640569005,0.0
0.044,2.109683042585181,-0.4579139350275383,3.156531985170118,0.0,6.583114571217798,6.507996567812513,99.84430770781422,99.7634640569005,0.0
0.045,2.185123570768437,-0.4640902572529204,1.9090383072913766,0.0,6.622073559824817,6.474670499744718,96.89477424818584,99.7634640569005,0.0
0.046,2.1997294560781335,-0.43605183759925736,3.412491935192715,0.0,6.650658053380196,6.625575531090101,99.56630759879236,99.7634640569005,0.0
0.047,2.281680083180999,-0.4472752076778257,2.0786968244705344,0.0,6.692989555619755,6.593628000069814,96.98983600983323,99.7634640569005,0.0
0.048,2.302099935572882,-0.4163513242310094,3.394668899420776,0.0,6.724379293653394,6.72577657423518,98.91565670570745,99.7634640569005,0.0
0.049,2.3746481253949314,-0.42602518962569735,2.4402366249955953,0.0,6.767218279328088,6.721925891494597,97.37630796290523,99.7634640569005,0.0
0.05,2.4094308747117363,-0.39579849149533197,3.2337825573366574,0.0,6.801966622712969,6.816477930370679,97.76581239348832,99.7634640569005,0.0
0.051000000000000004,2.4662590588431734,-0.40084334113227493,3.0590068586792354,0.0,6.843552536088336,6.871985540760627,98.63074626923039,99.7634640569005,0.0
0.052000000000000005,2.526213163950438,-0.3825165667956698,2.6378670986849024,0.0,6.884464225491769,6.875496695115827,95.8826490171611,99.7634640569005,0.0
0.053,2.5515500811873313,-0.3615996886056524,4.050723875116939,0.0,6.919518272532841,7.040186026138336,98.28820817284459,99.7634640569005,0.0
0.054,2.646881275404361,-0.376989978887446,2.862696856115753,0.0,6.969437948684952,7.036867226716744,97.66198379259492,99.7634640569005,0.0
0.055,2.6912171018585522,-0.3472331742363892,3.1968238488836422,0.0,7.0106066258652575,7.083582885279209,95.76906141445835,99.7634640569005,0.0
0.056,2.7308730650967075,-0.33710841777330103,4.183229064376352,0.0,7.051513846019354,7.230988351788326,97.92571198968908,99.7634640569005,0.0
0.057,2.8259558746443583,-0.3467492229062754,3.1232812974331017,0.0,7.104232626938206,7.231223137725393,99.18454488497042,99.7634640569005,0.0
0.058,2.8614573836387813,-0.3345655401765979,2.4996540415117305,0.0,7.1502663952072885,7.175752464784811,97.97327728187462,99.7634640569005,0.0
0.059000000000000004,2.8318619915522714,-0.33168408292876994,3.1231897108098923,0.0,7.185954595885439,7.208867940366668,100.3227194001071,99.7634640569005,0.0
0.06,2.8244311406668228,-0.35579074683324796,1.942876098261582,0.0,7.2240660716559315,7.106692274061392,101.31573297824826,99.7634640569005,0.0
0.061,2.7683386455791466,-0.33799026462084614,1.4308466199775247,0.0,7.2459497135364375,6.9801210814287185,100.11032669300921,99.7634640569005,0.0
0.062,2.673766381633609,-0.3232019621787119,2.0300811362359625,0.0,7.251539163519116,6.949273487901766,102.42341912204327,99.7634640569005,0.0
0.063,2.620174377816996,-0.3287683714729235,0.8469353710675063,0.0,7.254245097197614,6.790880617175031,101.26262863890236,99.7634640569005,0.0
0.064,2.5240280624798226,-0.30243262867807874,1.412338966817945,0.0,7.237888554635215,6.732663654721982,101.51927828740892,99.7634640569005,0.0
0.065,2.456079578353975,-0.3097460763277968,1.266456000259577,0.0,7.218413806753167,6.6634444420795385,102.47022253174764,99.7634640569005,0.0
0.066,2.4047222634815686,-0.30740007499315514,0.7639162933417487,0.0,7.193633417771775,6.550348957612465,101.46683962237083,99.7634640569005,0.0
0.067,2.328485249120211,-0.30949692774459325,1.2485739923754506,0.0,7.160275633057816,6.51229522508787,102.54509420375037,99.7634640569005,0.0
0.068,2.290410506023136,-0.31804701624881526,0.6816304002171822,0.0,7.127367794770745,6.410926566813657,101.74422735222169,99.7634640569005,0.0
0.069,2.2262514880952304,-0.3277831079042801,1.0622561930283112,0.0,7.088599343682018,6.370619008210065,102.25314569039756,99.7634640569005,0.0
0.07,2.1922526096326385,-0.3387290261592828,0.7829002076054037,0.0,7.050783671933305,6.299028230484937,102.18373498846523,99.7634640569005,0.0
0.07100000000000001,2.144993072072853,-0.35659682145582017,0.7934028492559198,0.0,7.011446487887012,6.239622374140179,102.11840092510693,99.7634640569005,0.0
0.07200000000000001,2.106884831574881,-0.3657942364303287,0.802520512253009,0.0,6.970935474305106,6.186840612617627,102.49326634133092,99.7634640569005,0.0
0.073,2.068029783146125,-0.3863405288760279,0.5877897812967061,0.0,6.931365503948418,6.115467341776158,101.99173270018446,99.7634640569005,0.0
0.074,2.02632190610767,-0.39315510661920294,0.8162739154370995,0.0,6.889159344170544,6.078754279038114,102.87131087976977,99.7634640569005,0.0
0.075,1.994073630297775,-0.41604215892446916,0.34540635741575243,0.0,6.8499519240728,5.99054186544104,101.76474958695859,99.7634640569005,0.0
0.076,1.9457119470961106,-0.4188193765450009,0.8786741485207612,0.0,6.8059206280403295,5.97559538618975,103.21908133981891,99.7634640569005,0.0
0.077,1.9241488772266337,-0.4407141258714894,0.1169520992614137,0.0,6.767178463935685,5.870506642784386,101.70829873198201,99.7634640569005,0.0
0.078,1.8667887078428202,-0.4451036658836526,0.8528950564290496,0.0,6.722065543809043,5.866717491023653,102.03101315226843,99.7634640569005,0.0
0.079,1.8512000601178418,-0.4626375062735244,0.668862355332162,0.0,6.682969827561753,5.832334085289904,102.82137344107494,99.7634640569005,0.0
0.08,1.8277696435701605,-0.4872597097475646,0.24310311708716226,0.0,6.646878446344066,5.7549077186518165,101.70663208806361,99.7634640569005,0.0
0.081,1.7851855418660567,-0.492179438818765,0.7810421132811936,0.0,6.606948514747431,5.749495679541537,101.97366164383759,99.7634640569005,0.0
0.082,1.77030130826187,-0.5108456242790606,0.625425359524836,0.0,6.572474455509349,5.7193460429869,103.15671338682436,99.7634640569005,0.0
0.083,1.7495806707401333,-0.5310457845069346,-3.3005267790819914e-05,0.0,6.540468194310075,5.623650139365644,101.71226310613409,99.7634640569005,0.0
0.084,1.6956534879235559,-0.530924615826607,0.7027041445850113,0.0,6.50187763871149,5.6236036538529275,101.8585688370342,99.7634640569005,0.0
0.085,1.6803814490540359,-0.5440798491008056,0.6086002313336194,0.0,6.468589777468458,5.603464611822924,103.13121589469824,99.7634640569005,0.0
0.08600000000000001,1.663487681673222,-0.5636600549978685,-0.0614008158763808,0.0,6.4386390684626615,5.510957205834224,101.74959295090754,99.7634640569005,0.0
0.08700000000000001,1.611260442094613,-0.5631876633589259,0.6095493670789001,0.0,6.402184924619322,5.510786058820837,101.62978022200764,99.7634640569005,0.0
0.088,1.5957882370474712,-0.5743552022413274,0.6507925698777797,0.0,6.370592233652428,5.505993532762173,102.4135359441428,99.7634640569005,0.0
0.089,1.5889676093673877,-0.5895217886585071,0.23241398993777973,0.0,6.343236208293426,5.452682461385638,102.42805079296643,99.7634640569005,0.0
0.09,1.5557290283584106,-0.6010413009509394,0.19851069816530176,0.0,6.314400158820665,5.406009355949473,101.63512893171058,99.7634640569005,0.0
0.091,1.5218387157427418,-0.6030766412715705,0.5762549800451253,0.0,6.283889096063909,5.406406408611785,101.58839215121455,99.7634640569005,0.0
0.092,1.5106815409513894,-0.6142394665540685,0.5813740893500012,0.0,6.257676402226929,5.40138669503782,102.0602657274748,99.7634640569005,0.0
0.093,1.5021606863037367,-0.6296248419479017,0.32246928451413304,0.0,6.235163769456745,5.3665426860758885,101.82312607686002,99.7634640569005,0.0
0.094,1.4797787697668052,-0.6366571010863886,0.4204424896219272,0.0,6.212037693818685,5.348674717615934,101.73323832209441,99.7634640569005,0.0
0.095,1.4625228360239084,-0.6415213102499916,0.44568862435279444,0.0,6.189902169315044,5.333752614753834,101.88283327255,99.7634640569005,0.0
0.096,1.4463769167112188,-0.6492451418413921,0.3496974569685025,0.0,6.169288966358978,5.308901171754969,101.84874415623173,99.7634640569005,0.0
0.097,1.4272339971875363,-0.6516813827224475,0.3458892141343255,0.0,6.148442687579631,5.286958819676943,101.7812878792695,99.7634640569005,0.0
0.098,1.40750736182999,-0.6543641150722606,0.3594391143917517,0.0,6.127757539620085,5.2686331470795364,101.62406433167514,99.7634640569005,0.0
0.099,1.389693518299563,-0.6570928983879162,0.4194448854411832,0.0,6.10758167803798,5.258298919193553,101.46711387539531,99.7634640569005,0.0
0.1,1.3764534451956199,-0.6613755733911695,0.4808836153961502,0.0,6.088833786242688,5.254417000128638,101.23404484482329,99.7634640569005,0.0
0.101,1.3676690420392497,-0.6674094061168228,0.582712322802935,0.0,6.072193386570222,5.260469137922042,101.05601860946771,99.7634640569005,0.0
0.10200000000000001,1.3666112002846222,-0.6728828604378586,0.65879989495505,0.0,6.0583639822924,5.271631886392971,101.12954411428575,99.7634640569005,0.0
0.10300000000000001,1.3696424669694747,-0.6796103461988052,0.6083763419721793,0.0,6.047719082179945,5.273643935286506,101.94236707332752,99.7634640569005,0.0
0.10400000000000001,1.3687395328467171,-0.6840228677107564,0.18017583228702527,0.0,6.038757979476799,5.227922104164255,101.63860663496848,99.7634640569005,0.0
0.105,1.3400584544438898,-0.6798325387726193,0.31330462568586315,0.0,6.025615742533424,5.2079484075377245,100.68722812811332,99.7634640569005,0.0
0.106,1.3190849488282972,-0.6723761177906707,0.7797562384013168,0.0,6.011012056603102,5.240656521177908,100.3290421255345,99.7634640569005,0.0
0.107,1.3280352891647713,-0.6752969015217273,0.9531934590043862,0.0,6.001535401050066,5.2818527605070535,101.19891172367579,99.7634640569005,0.0
0.108,1.349981501669438,-0.684477071654451,0.5039041832659872,0.0,5.998106645862537,5.26450093783858,101.87508468158863,99.7634640569005,0.0
0.109,1.3427071288294112,-0.6869652400409653,0.14470149806268595,0.0,5.993467480748101,5.21454166244067,100.59326144609055,99.7634640569005,0.0
0.11,1.3128774967281793,-0.6729172901517168,0.7773151419198259,0.0,5.982726148433637,5.245502441550161,99.73280544750848,99.7634640569005,0.0
0.111,1.318014168653454,-0.6702738075132306,1.2078497273047804,0.0,5.976004723670229,5.312462347238239,100.55980101217514,99.7634640569005,0.0
0.112,1.3526143942923388,-0.679733600939625,0.7863885754187037,0.0,5.977718444055256,5.317633389218825,101.66978085837475,99.7634640569005,0.0
0.113,1.3616672037392592,-0.6837966407734012,0.2123354843041576,0.0,5.980130233047291,5.262877663753342,100.47300365835055,99.7634640569005,0.0
0.114,1.3331629649203818,-0.6692850614935804,0.8036286883017574,0.0,5.975188366474455,5.287847467449039,99.15478441839782,99.7634640569005,0.0
0.115,1.3361435949682239,-0.6615367084276165,1.4688251046631469,0.0,5.972530463884016,5.376471866184209,100.16415132629098,99.7634640569005,0.0
0.116,1.3815074160749448,-0.6708117514517935,0.9601347780226657,0.0,5.980098529689457,5.388399920671489,101.45863831046769,99.7634640569005,0.0
0.117,1.39774512952951,-0.6736375573666336,0.2959395433986367,0.0,5.9883206825834705,5.330584893479413,100.06564331168998,99.7634640569005,0.0
0.11800000000000001,1.3699978148215823,-0.6559645722453827,0.9894152502395965,0.0,5.987966831046391,5.365512446147109,98.61058324001965,99.7634640569005,0.0
0.11900000000000001,1.3791202138806327,-0.6459607487474087,1.7284740942435708,0.0,5.990217429196224,5.46999263712278,100.08959916477025,99.7634640569005,0.0
0.12,1.434005289737452,-0.6569496953939731,0.985704780789574,0.0,6.003999808994743,5.46920852154223,101.26031565741047,99.7634640569005,0.0
0.121,1.4465403571978086,-0.6563085855495547,0.38537801846436226,0.0,6.016145127706002,5.410442798116279,99.21722646788312,99.7634640569005,0.0
0.122,1.4194412350120693,-0.6320186073239242,1.4123849891182112,0.0,6.018533855697164,5.48084846741426,98.23157863141354,99.7634640569005,0.0
0.123,1.4487257026044824,-0.6234457956565019,1.9205277616078718,0.0,6.027024168317852,5.586585795191864,100.32037370030424,99.7634640569005,0.0
0.124,1.5077842906037484,-0.6390934997743427,0.8705611307284824,0.0,6.047046158023866,5.55581706432815,100.17509469811438,99.7634640569005,0.0
0.125,1.5067018608068565,-0.631609724363224,0.9390843254112768,0.0,6.061009383336503,5.548874276402961,97.79165853520362,99.7634640569005,0.0
0.126,1.5046822811639284,-0.6099353271935286,2.150520462083623,0.0,6.0705726613908055,5.6768061623514345,99.53552001774058,99.7634640569005,0.0
0.127,1.56986936567363,-0.6154472494350745,1.2808691612067438,0.0,6.092795855652792,5.677934407954819,100.65899898978323,99.7634640569005,0.0
0.128,1.5855304085566544,-0.613581418431786,0.7101743258565927,0.0,6.11264919441614,5.626021385672278,98.0157795063791,99.7634640569005,0.0
0.129,1.566709292278748,-0.5827817485672944,2.049260913063869,0.0,6.121956591699837,5.7365184056600285,98.84073442697277,99.7634640569005,0.0
0.13,1.6194731857264981,-0.5788425456321402,1.6460107490663116,0.0,6.141257635629721,5.773155840023538,100.21960004737704,99.7634640569005,0.0
0.131,1.6500684551802238,-0.5818968615159736,0.9520165789594115,0.0,6.1626676853795335,5.732914937566468,97.4840399833308,99.7634640569005,0.0
0.132,1.6431464801019808,-0.5552889911189262,2.3425908517182283,0.0,6.174955231006152,5.859809611987769,98.84562860115308,99.7634640569005,0.0
0.133,1.7081530958609232,-0.5568576363088467,1.6709748973645635,0.0,6.199142119187099,5.880240128338847,99.36683570284308,99.7634640569005,0.0
0.134,1.7345051848821789,-0.5581907059308385,1.4143376300601402,0.0,6.2230843213915765,5.87728367837821,96.82678264584746,99.7634640569005,0.0
0.135,1.7484441414230005,-0.5330999718407351,2.713730972668479,0.0,6.241563346933413,6.02124696966477,99.33106542159994,99.7634640569005,0.0
0.136,1.8251037258761407,-0.5443150480164921,1.4659135711452418,0.0,6.2740753647699545,5.994114822058782,97.55115842844486,99.7634640569005,0.0
0.137,1.8347256067404754,-0.5310127118807918,2.3779901240073387,0.0,6.299047558325562,6.085461874776564,98.30414878316654,99.7634640569005,0.0
0.138,1.890969205269435,-0.5201658532648492,2.0160880993838406,0.0,6.329597106710985,6.115150876311378,98.56496399424516,99.7634640569005,0.0
