timestamp,iq,id,iq_ref,id_ref,vq,vd,omega,omega_ref,r
0.0,0.0,0.0,0.0,0.0,0.0,0.0,0.0,309.97278696914543,0.0
0.001,0.0,0.0,10.0,0.0,0.0,1.0999999999999999,6.115472199294103,309.97278696914543,0.0
0.002,0.5307369851907212,-0.2913212625381807,10.0,0.0,0.14204533887919985,1.9316189316290207,13.317801563642547,309.97278696914543,0.0
0.003,1.0842913387634832,-0.6024330830807904,10.0,0.0,0.384357124667687,2.6386968949419622,20.697939467553027,309.97278696914543,0.0
0.004,1.5590443546685477,-0.8700465084428163,10.0,0.0,0.6994718867930164,3.2526109522886295,28.232747544420146,309.97278696914543,0.0
0.005,1.9399447555359186,-1.0838738622210777,10.0,0.0,1.065311453102468,3.7994935661768023,35.92944872443006,309.97278696914543,0.0
0.006,2.239750732602683,-1.2510087368845633,10.0,0.0,1.4655018868449925,4.299102221838433,43.75633668444442,309.97278696914543,0.0
0.007,2.4770151619816017,-1.382020589851471,10.0,0.0,1.8883740978591532,4.765668027847139,51.58766747378032,309.97278696914543,0.0
0.008,2.6680767290418097,-1.4872241871505252,10.0,0.0,2.325877945545995,5.209220346273558,59.45942083902103,309.97278696914543,0.0
0.009000000000000001,2.8266491704841292,-1.5730794701170803,10.0,0.0,2.772378685460125,5.636635464737965,67.35059094018146,309.97278696914543,0.0
0.01,2.962077666392183,-1.645500646948331,10.0,0.0,3.224078639851053,6.052647735211881,75.20908322432116,309.97278696914543,0.0
0.011,3.0811061533574158,-1.7084279320504514,10.0,0.0,3.678407615443203,6.460489925470405,83.0265951655913,309.97278696914543,0.0
0.012,3.188848746459569,-1.7638278597420747,10.0,0.0,4.133552631697047,6.862319393890706,90.74118064793086,309.97278696914543,0.0
0.013000000000000001,3.288205119878689,-1.8140726097274587,10.0,0.0,4.588339016389012,7.259628641949282,98.35820682563939,309.97278696914543,0.0
0.014,3.3820602099432007,-1.8592355758795645,10.0,0.0,5.041843166194517,7.653355107498287,105.90865295623543,309.97278696914543,0.0
0.015,3.4721069852858886,-1.899829032412081,10.0,0.0,5.493383198131427,8.044092747085895,113.37727610343421,309.97278696914543,0.0
0.016,3.5596145800153947,-1.9360338400176071,10.0,0.0,5.94241958510469,8.43218525824161,120.68508583176356,309.97278696914543,0.0
0.017,3.645144415105338,-1.9685384477868613,10.0,0.0,6.388575043274759,8.817838951066484,127.83962377537456,309.97278696914543,0.0
0.018000000000000002,3.730251927866576,-1.9959253041084188,10.0,0.0,6.83136783302799,9.201036292373047,134.85405702603322,309.97278696914543,0.0
0.019,3.81544967906247,-2.018253592643655,10.0,0.0,7.270383321112213,9.581672501020332,141.68976328564074,309.97278696914543,0.0
0.02,3.9014648862453374,-2.0350875541282063,10.0,0.0,7.705189334130692,9.959536942333155,148.3432823300447,309.97278696914543,0.0
0.021,3.9891051824829464,-2.0457889559126508,10.0,0.0,8.135310004560049,10.334315260302239,154.92060212100432,309.97278696914543,0.0
0.022,4.079618141396171,-2.0489696811670974,10.0,0.0,8.560139305503519,10.705547790999272,161.01925282597162,309.97278696914543,0.0
0.023,4.171109372430197,-2.048468292080302,10.0,0.0,8.979521969370257,11.072981092896333,166.534238406907,309.97278696914543,0.0
0.024,4.266936196769627,-2.039517194249811,10.0,0.0,9.392730090169543,11.435983292623375,171.8647834235234,309.97278696914543,0.0
0.025,4.367255527950721,-2.0225841458509217,10.0,0.0,9.79914449451603,11.793929226271104,177.02637022703064,309.97278696914543,0.0
0.026000000000000002,4.4734353073349595,-1.9962166741499119,10.0,0.0,10.197980960389518,12.146045424568259,181.63161391243256,309.97278696914543,0.0
0.027,4.582366840795821,-1.966358349113627,10.0,0.0,10.589124658468391,12.491912978736195,185.74793639675826,309.97278696914543,0.0
0.028,4.700058850757774,-1.9240450691803936,10.0,0.0,10.971384864613876,12.830451341534015,189.43662766964098,309.97278696914543,0.0
0.029,4.820934284790598,-1.879137197786803,10.0,0.0,11.344756153370636,13.161242511022618,192.73598774770625,309.97278696914543,0.0
0.03,4.952016225740939,-1.821000614527957,10.0,0.0,11.707923484756042,13.483081433273819,195.59831968863915,309.97278696914543,0.0
0.031,5.086039273572549,-1.7621311371320891,10.0,0.0,12.061063698547066,13.79562148058647,197.80891551030922,309.97278696914543,0.0
0.032,5.230431844273564,-1.6911110488141978,10.0,0.0,12.40292038074925,14.097678592248165,200.4421589734679,309.97278696914543,0.0
0.033,5.380124186618445,-1.6166151787533525,10.0,0.0,12.733312761073865,14.38869342901298,201.91742172589852,309.97278696914543,0.0
0.034,5.537594793894332,-1.535029134414507,10.0,0.0,13.051537880865839,14.667821176756876,203.18880493813168,309.97278696914543,0.0
0.035,5.698947813469154,-1.4530296333491768,10.0,0.0,13.357649178779205,14.934684535625108,203.60405746232266,309.97278696914543,0.0
0.036000000000000004,5.870474243492053,-1.3603000477825025,10.0,0.0,13.65045542338638,15.188218311291084,204.28541056101804,309.97278696914543,0.0
0.037,6.041188711220851,-1.275010780747051,10.0,0.0,13.930879897581198,15.42861600670124,205.2233356988433,309.97278696914543,0.0
0.038,6.228175208801664,-1.168399557236846,10.0,0.0,14.196427351981786,15.654155009933262,200.35169734043586,309.97278696914543,0.0
0.039,6.404895489618571,-1.0845312562500289,10.0,0.0,14.449814560392067,15.86612549236809,209.64773540576442,309.97278696914543,0.0
0.04,6.534612624563911,-1.0851225869390002,10.0,0.0,14.699963825590459,16.069735965364643,218.170241886545,309.97278696914543,0.0
0.041,6.621487035821765,-1.1484636683301073,10.0,0.0,14.952420817214799,16.26974130369247,220.68166573712315,309.97278696914543,0.0
0.042,6.6704785161669795,-1.2647840534085386,10.0,0.0,15.211794475054209,16.47047148862455,233.10654395573727,309.97278696914543,0.0
0.043000000000000003,6.709376245503157,-1.3867642159960276,10.0,0.0,15.477558399636717,16.673277185423842,235.10815372853793,309.97278696914543,0.0
0.044,6.744196093263161,-1.5028656568708394,10.0,0.0,15.74857785831126,16.87893749904121,248.8181267625822,309.97278696914543,0.0
0.045,6.750563942850831,-1.6564343609015326,10.0,0.0,16.02879294551472,17.090781462187255,251.61117095327992,309.97278696914543,0.0
0.046,6.764566527560506,-1.7840489455190416,10.0,0.0,16.314672837580048,17.307985931916857,266.60539535969383,309.97278696914543,0.0
0.047,6.752169677737121,-1.9446655565152717,10.0,0.0,16.610076868775216,17.533561623207692,270.0627790167984,309.97278696914543,0.0
0.048,6.7291903821171735,-2.110358990489937,10.0,0.0,16.91511817760721,17.768523902508925,283.13731951482634,309.97278696914543,0.0
0.049,6.714097190323873,-2.246352557911731,10.0,0.0,17.22645394156277,18.011924542904307,294.70561782835244,309.97278696914543,0.0
0.05,6.666841209228205,-2.4219663531358275,10.0,0.0,17.548953774962747,18.267165921658286,300.1294548425776,309.97278696914543,0.0
0.051000000000000004,6.612335516543512,-2.59336894353628,10.0,0.0,17.88182590988993,18.53465621226123,310.75154600411304,309.97278696914543,0.0
0.052000000000000005,6.568447424188529,-2.726701034625408,5.194622276377396,0.0,18.22111236450049,18.284375770930307,319.0515684482955,309.97278696914543,0.0
0.053,6.246603296259214,-2.7489392529084746,0.9538232394946728,0.0,18.50255501261715,17.709581875521337,320.2004444793096,309.97278696914543,0.0
0.054,5.695564748811843,-2.6218039983091357,0.2771086488859602,0.0,18.6841667461925,17.24577681880672,321.3137995401921,309.97278696914543,0.0
0.055,5.149052638576644,-2.459849598813933,-0.39297900726575463,0.0,18.784693169340365,16.834176891501894,321.1039762768126,309.97278696914543,0.0
0.056,4.654906982406412,-2.2986439469686886,-0.3993792686526678,0.0,18.81789387973493,16.528677348127662,319.87601991617765,309.97278696914543,0.0
0.057,4.259974776560865,-2.1538250406764443,0.11556658219448401,0.0,18.802906541578917,16.35225696241868,317.9470638212891,309.97278696914543,0.0
0.058,3.986211181625462,-2.0381947440631465,1.000301861117336,0.0,18.76050475510307,16.310315977022466,315.45841437355034,309.97278696914543,0.0
0.059000000000000004,3.840022069418001,-1.9542949782051442,2.189770310942656,0.0,18.710076377456947,16.403666254603323,313.093563447428,309.97278696914543,0.0
0.06,3.8207388230779205,-1.898659627538777,3.340988009221009,0.0,18.6687449744188,16.59803719494918,311.8521404274185,309.97278696914543,0.0
0.061,3.9070070514971986,-1.8605774306884786,3.9429059846430317,0.0,18.647351117572185,16.813854363680758,314.0502214622512,309.97278696914543,0.0
0.062,4.044997116611722,-1.8252434431772209,2.803091122295604,0.0,18.646172446625645,16.860235390363663,309.96407932638283,309.97278696914543,0.0
0.063,4.112722828956596,-1.76287275294492,4.8462492666574235,0.0,18.64324230939162,17.131936064080115,301.5072598435798,309.97278696914543,0.0
0.064,4.301569895116146,-1.6958294586706608,9.1593142793146,0.0,18.661024197784787,17.810083306496093,306.60105300150815,309.97278696914543,0.0
0.065,4.73325866343561,-1.716718882240086,6.646135040026794,0.0,18.747810891115623,18.057016353208006,306.30135642524056,309.97278696914543,0.0
0.066,5.012647561074516,-1.6959903962669791,6.832697633599639,0.0,18.848123192091826,18.30717255121062,296.0334322276283,309.97278696914543,0.0
0.067,5.284738921817131,-1.5949748724036665,10.0,0.0,18.952515460005436,18.8617458331736,301.5600444561557,309.97278696914543,0.0
0.068,5.699013460125972,-1.5524900752203785,9.384753525090712,0.0,19.098262656872464,19.229101592221078,294.17590248186644,309.97278696914543,0.0
0.069,6.060411837695496,-1.5057861109058794,10.0,0.0,19.261458121854773,19.612514995890066,295.1380300096744,309.97278696914543,0.0
0.07,6.455795640898595,-1.3969480467213158,10.0,0.0,19.43517023328859,19.927875906364644,287.65759725631,309.97278696914543,0.0
0.07100000000000001,6.797693103821899,-1.3166714107641324,10.0,0.0,19.615305175313036,20.19541705404562,289.28119194994963,309.97278696914543,0.0
0.07200000000000001,7.149558107941184,-1.1675617286500828,10.0,0.0,19.788581439230157,20.418931405337048,278.12736027705614,309.97278696914543,0.0
0.073,7.470322711155071,-1.0280638599816048,10.0,0.0,19.953027843152327,20.605656491578717,277.80084968716534,309.97278696914543,0.0
0.074,7.7701522039769335,-0.8967417646815816,10.0,0.0,20.106651663510117,20.76038011141016,289.4223765878524,309.97278696914543,0.0
0.075,7.950438143345418,-0.9408722837733702,10.0,0.0,20.266553041868377,20.89816059289193,292.46295532118364,309.97278696914543,0.0
0.076,8.012195881477636,-1.1361295885592857,10.0,0.0,20.44527932887452,21.033162672260495,308.08048499910274,309.97278696914543,0.0
0.077,8.03159721201917,-1.3594628954620136,6.830093691636173,0.0,20.642247285828343,20.822330909494532,310.5290788487859,309.97278696914543,0.0
0.078,7.859179466177747,-1.4939669451904782,5.600233847998187,0.0,20.8109973832113,20.567853564332005,322.44384296668807,309.97278696914543,0.0
0.079,7.566604042656086,-1.632888161284436,-0.48185877092832285,0.0,20.951361029612748,19.729426492907436,320.9699636746817,309.97278696914543,0.0
0.08,6.966881296600121,-1.5914463085400226,0.1451091080194944,0.0,20.98789778826878,19.181709633969945,326.476807897091,309.97278696914543,0.0
0.081,6.397651885649646,-1.5940982893232192,-2.7733532124646185,0.0,20.96671532157904,18.421735610493066,327.56415655766943,309.97278696914543,0.0
0.082,5.754696672878448,-1.5431831091886663,-3.492941238639065,0.0,20.866026509587975,17.750703462315883,328.894442345201,309.97278696914543,0.0
0.083,5.141885701523536,-1.4987072331628088,-4.347300686165411,0.0,20.703920169416783,17.110901643512477,328.6895039474276,309.97278696914543,0.0
0.084,4.57185213790449,-1.4547921902601666,-4.431998657061539,0.0,20.489658385423333,16.574671772533534,327.751277220195,309.97278696914543,0.0
0.085,4.084511207795282,-1.4233594583447766,-4.1406701959557175,0.0,20.240181342649688,16.151438987359573,326.1704260728019,309.97278696914543,0.0
0.08600000000000001,3.694498999461744,-1.41114714121802,-3.51222101329573,0.0,19.97229969807121,15.849825835522772,324.17591882320454,309.97278696914543,0.0
0.08700000000000001,3.4092776393627826,-1.4186594615853994,-2.656998707037647,0.0,19.701993381178575,15.666850023801139,322.0700950693872,309.97278696914543,0.0
0.088,3.2271571460218937,-1.4431227918357412,-1.7250599111313987,0.0,19.44303595792691,15.586283246716023,319.95442988617145,309.97278696914543,0.0
0.089,3.135881525352681,-1.4800098504308006,-0.7670437486937818,0.0,19.205730542434857,15.59215890826354,317.3829980977104,309.97278696914543,0.0
0.09,3.119847180743963,-1.525706052781699,0.44457003425108876,0.0,18.997400946319395,15.698264838306914,314.8257828268081,309.97278696914543,0.0
0.091,3.1818008111835194,-1.5768532961416257,1.6746477111256137,0.0,18.825684137565908,15.88914437956672,311.96829249140154,309.97278696914543,0.0
0.092,3.3128895254067707,-1.629691069334823,3.083437823606336,0.0,18.695527646431405,16.172630199169173,309.8071373677806,309.97278696914543,0.0
0.093,3.5172609527997025,-1.6773196069739535,4.165671881430441,0.0,18.61144614777897,16.498539663062783,310.14665554603806,309.97278696914543,0.0
0.094,3.7672785338073074,-1.7126309400990425,3.994174106532798,0.0,18.571771706648512,16.728304715247905,312.35241780687073,309.97278696914543,0.0
0.095,3.9715363393276504,-1.728404587842631,2.867496667739209,0.0,18.560423202770146,16.788938094785973,303.8089844254894,309.97278696914543,0.0
0.096,4.094577444811733,-1.6644005144678076,7.200851383866421,0.0,18.549074702684756,17.318817135596284,301.1983036315194,309.97278696914543,0.0
0.097,4.441954500616854,-1.6477967244099707,8.593936614227683,0.0,18.590662580516334,17.86749818541178,305.32704719471025,309.97278696914543,0.0
0.098,4.847905844311834,-1.685729503963219,6.576022230376624,0.0,18.687298419197734,18.088387606253256,298.6332902444563,309.97278696914543,0.0
0.099,5.124233289138622,-1.6390742893981027,10.0,0.0,18.790848214697448,18.667331861881806,298.81117220830066,309.97278696914543,0.0
0.1,5.562534509510983,-1.5971874575540526,10.0,0.0,18.937796456852844,19.119047034008542,299.44269212205495,309.97278696914543,0.0
0.101,5.957013253756183,-1.5858323955562175,9.846621018075872,0.0,19.114391203504056,19.484404175463254,290.7886060043896,309.97278696914543,0.0
0.10200000000000001,6.347601770694628,-1.480574870919467,10.0,0.0,19.29839741254556,19.810270605847727,293.0095795779123,309.97278696914543,0.0
0.10300000000000001,6.685817548620433,-1.3985778347004758,10.0,0.0,19.488622544983635,20.087119373876206,286.1592631478964,309.97278696914543,0.0
0.10400000000000001,7.035337088554117,-1.2429469440808467,10.0,0.0,19.671210613374775,20.320240786732203,282.4758100158725,309.97278696914543,0.0
0.105,7.332340137994668,-1.1334906456138123,10.0,0.0,19.848368132287227,20.519133725102584,282.615005208101,309.97278696914543,0.0
0.106,7.651909057053371,-0.9611887500412739,10.0,0.0,20.009840547617166,20.68367057092513,278.8798594629164,309.97278696914543,0.0
0.107,7.902896843518217,-0.8859015628280162,10.0,0.0,20.165060834358634,20.823488006377865,290.9795374194947,309.97278696914543,0.0
0.108,7.983861997511858,-1.061545146359094,10.0,0.0,20.338814502031774,20.958449437884816,302.68770045292564,309.97278696914543,0.0
0.109,8.0385477328756,-1.2386298547398296,8.980337598771108,0.0,20.526411828174865,20.979921449523136,306.43865282927663,309.97278696914543,0.0
0.11,7.973667511736149,-1.4577359446648221,7.140202751994299,0.0,20.719727445675435,20.833471465157753,319.75291822111654,309.97278696914543,0.0
0.111,7.801325240120987,-1.5992124010527649,0.3852687435546329,0.0,20.892437852292822,20.014665496184637,319.13172525565,309.97278696914543,0.0
0.112,7.227242377017214,-1.6015790512657242,0.6042758434228617,0.0,20.964842188310705,19.448076978065746,323.9264979151787,309.97278696914543,0.0
0.113,6.667998045546896,-1.5874017828980804,-1.932647595801816,0.0,20.971764072892334,18.71991214387782,327.02634061847715,309.97278696914543,0.0
0.114,6.030271169876196,-1.5550642246445596,-3.6531044839443645,0.0,20.90176192687281,17.965932471272495,327.5658571473909,309.97278696914543,0.0
0.115,5.375799565819719,-1.493921032503365,-4.098793450183687,0.0,20.756959652641694,17.31414394161036,327.9561120588999,309.97278696914543,0.0
0.116,4.780642298604599,-1.4464298868443954,-4.473754156835748,0.0,20.556846158766408,16.735187832775093,327.35187252246124,309.97278696914543,0.0
0.117,4.2584779093791125,-1.4110512873766448,-4.345425244149565,0.0,20.31543166891027,16.263468283040474,325.94474521965446,309.97278696914543,0.0
0.11800000000000001,3.828783161167668,-1.3933857665788887,-3.80158117525127,0.0,20.049397251773204,15.915363576156654,324.1104372329089,309.97278696914543,0.0
0.11900000000000001,3.503912915213774,-1.3965153984239786,-3.0258036845161254,0.0,19.775676720372395,15.686801761112209,322.06222667577885,309.97278696914543,0.0
0.12,3.283021313918872,-1.4184983318955755,-2.1225928030174286,0.0,19.508858886970653,15.566368870172532,320.0886986953015,309.97278696914543,0.0
0.121,3.1578295540142585,-1.453464757474931,-1.2369879300403177,0.0,19.260306025294128,15.5312440897757,317.7635311112159,309.97278696914543,0.0
0.122,3.10869269529185,-1.4987330803056267,-0.15231157941822726,0.0,19.03772582300115,15.589387987949985,315.1408920700689,309.97278696914543,0.0
0.123,3.1356662275507374,-1.547073745339349,1.1073268901460436,0.0,18.84808282068031,15.743714487087683,312.59540941251356,309.97278696914543,0.0
0.124,3.235280457437991,-1.6024601933342932,2.353841994490032,0.0,18.698445871134428,15.977476482896716,309.7774871965182,309.97278696914543,0.0
0.125,3.4018624379566065,-1.6536279028517789,3.7647561002139733,0.0,18.592223399691015,16.29830610919828,309.0039352195557,309.97278696914543,0.0
0.126,3.6369428435965054,-1.69794824952035,4.161220606191147,0.0,18.53306969906046,16.58173945551039,311.1722837697913,309.97278696914543,0.0
0.127,3.8707990483892556,-1.7220416951371438,3.0650513630668708,0.0,18.51038177867533,16.68299745685399,306.7097519236382,309.97278696914543,0.0
0.128,4.007750531110526,-1.6983058680708334,5.328947636598507,0.0,18.497236575029618,17.01912504749302,298.87300650468063,309.97278696914543,0.0
0.129,4.256705695207739,-1.662800712482205,9.358318150721928,0.0,18.515350441968287,17.71490159929836,304.8020095757855,309.97278696914543,0.0
0.13,4.714986194135805,-1.7069051372871917,6.445524389103085,0.0,18.60643711567807,17.934289560456612,303.38430649553044,309.97278696914543,0.0
0.131,4.989606987272031,-1.688674873094141,7.220260733966774,0.0,18.707907544823403,18.22957084616551,293.51966128879155,309.97278696914543,0.0
0.132,5.28429630931771,-1.594456077801483,10.0,0.0,18.818577294784838,18.773825384539407,300.1593526089787,309.97278696914543,0.0
0.133,5.694317609996454,-1.56029802646299,9.049060985765065,0.0,18.96979032589321,19.100165309991667,291.6225778988392,309.97278696914543,0.0
0.134,6.036988735038694,-1.499279051466654,10.0,0.0,19.132145539699756,19.48951161696988,293.75351478927604,309.97278696914543,0.0
0.135,6.421349561575074,-1.397810832426802,10.0,0.0,19.306648548479053,19.80779644482,285.3829638176585,309.97278696914543,0.0
0.136,6.7662758958972296,-1.3102295257425318,10.0,0.0,19.486910477620555,20.077604802252957,288.1542277601866,309.97278696914543,0.0
0.137,7.110174291960163,-1.1740317799026756,10.0,0.0,19.66202111061567,20.30407895663307,277.63291377005993,309.97278696914543,0.0
0.138,7.435159854068242,-1.0278166144357903,10.0,0.0,19.827546405006313,20.493107331003426,275.37534304579384,309.97278696914543,0.0
0.139,7.730980267408526,-0.9026184137142446,10.0,0.0,19.983112356970235,20.65049500752946,287.2621958442565,309.97278696914543,0.0
0.14,7.916025934272787,-0.9389765976143569,10.0,0.0,20.144111863626595,20.79030369237761,290.37042720975177,309.97278696914543,0.0
0.14100000000000001,7.980208677668353,-1.1306239095365322,10.0,0.0,20.32370991057457,20.927021814301717,306.1001668154026,309.97278696914543,0.0
0.14200000000000002,8.002313689734626,-1.3501620903006928,6.955924158344186,0.0,20.521252691784994,20.731389862252737,308.50121278680155,309.97278696914543,0.0
