timestamp,iq,id,iq_ref,id_ref,vq,vd,omega,omega_ref,r
0.0,0.0,0.0,0.0,0.0,0.0,0.0,0.0,433.80583498643773,0.0
0.001,0.0,0.0,10.0,0.0,0.0,1.0999999999999999,6.115472199294103,433.80583498643773,0.0
0.002,0.5307369851907212,-0.2913212625381807,10.0,0.0,0.14204533887919985,1.9316189316290207,13.317801563642547,433.80583498643773,0.0
0.003,1.0842913387634832,-0.6024330830807904,10.0,0.0,0.384357124667687,2.6386968949419622,20.697939467553027,433.80583498643773,0.0
0.004,1.5590443546685477,-0.8700465084428163,10.0,0.0,0.6994718867930164,3.2526109522886295,28.232747544420146,433.80583498643773,0.0
0.005,1.9399447555359186,-1.0838738622210777,10.0,0.0,1.065311453102468,3.7994935661768023,35.92944872443006,433.80583498643773,0.0
0.006,2.239750732602683,-1.2510087368845633,10.0,0.0,1.4655018868449925,4.299102221838433,43.75633668444442,433.80583498643773,0.0
0.007,2.4770151619816017,-1.382020589851471,10.0,0.0,1.8883740978591532,4.765668027847139,51.58766747378032,433.80583498643773,0.0
0.008,2.6680767290418097,-1.4872241871505252,10.0,0.0,2.325877945545995,5.209220346273558,59.45942083902103,433.80583498643773,0.0
0.009000000000000001,2.8266491704841292,-1.5730794701170803,10.0,0.0,2.772378685460125,5.636635464737965,67.35059094018146,433.80583498643773,0.0
0.01,2.962077666392183,-1.645500646948331,10.0,0.0,3.224078639851053,6.052647735211881,75.20908322432116,433.80583498643773,0.0
0.011,3.0811061533574158,-1.7084279320504514,10.0,0.0,3.678407615443203,6.460489925470405,83.0265951655913,433.80583498643773,0.0
0.012,3.188848746459569,-1.7638278597420747,10.0,0.0,4.133552631697047,6.862319393890706,90.74118064793086,433.80583498643773,0.0
0.013000000000000001,3.288205119878689,-1.8140726097274587,10.0,0.0,4.588339016389012,7.259628641949282,98.35820682563939,433.80583498643773,0.0
0.014,3.3820602099432007,-1.8592355758795645,10.0,0.0,5.041843166194517,7.653355107498287,105.90865295623543,433.80583498643773,0.0
0.015,3.4721069852858886,-1.899829032412081,10.0,0.0,5.493383198131427,8.044092747085895,113.37727610343421,433.80583498643773,0.0
0.016,3.5596145800153947,-1.9360338400176071,10.0,0.0,5.94241958510469,8.43218525824161,120.68508583176356,433.80583498643773,0.0
0.017,3.645144415105338,-1.9685384477868613,10.0,0.0,6.388575043274759,8.817838951066484,127.83962377537456,433.80583498643773,0.0
0.018000000000000002,3.730251927866576,-1.9959253041084188,10.0,0.0,6.83136783302799,9.201036292373047,134.85405702603322,433.80583498643773,0.0
0.019,3.81544967906247,-2.018253592643655,10.0,0.0,7.270383321112213,9.581672501020332,141.68976328564074,433.80583498643773,0.0
0.02,3.9014648862453374,-2.0350875541282063,10.0,0.0,7.705189334130692,9.959536942333155,148.3432823300447,433.80583498643773,0.0
0.021,3.9891051824829464,-2.0457889559126508,10.0,0.0,8.135310004560049,10.334315260302239,154.92060212100432,433.80583498643773,0.0
0.022,4.079618141396171,-2.0489696811670974,10.0,0.0,8.560139305503519,10.705547790999272,161.01925282597162,433.80583498643773,0.0
0.023,4.171109372430197,-2.048468292080302,10.0,0.0,8.979521969370257,11.072981092896333,166.534238406907,433.80583498643773,0.0
0.024,4.266936196769627,-2.039517194249811,10.0,0.0,9.392730090169543,11.435983292623375,171.8647834235234,433.80583498643773,0.0
0.025,4.367255527950721,-2.0225841458509217,10.0,0.0,9.79914449451603,11.793929226271104,177.02637022703064,433.80583498643773,0.0
0.026000000000000002,4.4734353073349595,-1.9962166741499119,10.0,0.0,10.197980960389518,12.146045424568259,181.63161391243256,433.80583498643773,0.0
0.027,4.582366840795821,-1.966358349113627,10.0,0.0,10.589124658468391,12.491912978736195,185.74793639675826,433.80583498643773,0.0
0.028,4.700058850757774,-1.9240450691803936,10.0,0.0,10.971384864613876,12.830451341534015,189.43662766964098,433.80583498643773,0.0
0.029,4.820934284790598,-1.879137197786803,10.0,0.0,11.344756153370636,13.161242511022618,192.73598774770625,433.80583498643773,0.0
0.03,4.952016225740939,-1.821000614527957,10.0,0.0,11.707923484756042,13.483081433273819,195.59831968863915,433.80583498643773,0.0
0.031,5.086039273572549,-1.7621311371320891,10.0,0.0,12.061063698547066,13.79562148058647,197.80891551030922,433.80583498643773,0.0
0.032,5.230431844273564,-1.6911110488141978,10.0,0.0,12.40292038074925,14.097678592248165,200.4421589734679,433.80583498643773,0.0
0.033,5.380124186618445,-1.6166151787533525,10.0,0.0,12.733312761073865,14.38869342901298,201.91742172589852,433.80583498643773,0.0
0.034,5.537594793894332,-1.535029134414507,10.0,0.0,13.051537880865839,14.667821176756876,203.18880493813168,433.80583498643773,0.0
0.035,5.698947813469154,-1.4530296333491768,10.0,0.0,13.357649178779205,14.934684535625108,203.60405746232266,433.80583498643773,0.0
0.036000000000000004,5.870474243492053,-1.3603000477825025,10.0,0.0,13.65045542338638,15.188218311291084,204.28541056101804,433.80583498643773,0.0
0.037,6.041188711220851,-1.275010780747051,10.0,0.0,13.930879897581198,15.42861600670124,205.2233356988433,433.80583498643773,0.0
0.038,6.228175208801664,-1.168399557236846,10.0,0.0,14.196427351981786,15.654155009933262,200.35169734043586,433.80583498643773,0.0
0.039,6.404895489618571,-1.0845312562500289,10.0,0.0,14.449814560392067,15.86612549236809,209.64773540576442,433.80583498643773,0.0
0.04,6.534612624563911,-1.0851225869390002,10.0,0.0,14.699963825590459,16.069735965364643,218.170241886545,433.80583498643773,0.0
0.041,6.621487035821765,-1.1484636683301073,10.0,0.0,14.952420817214799,16.26974130369247,220.68166573712315,433.80583498643773,0.0
0.042,6.6704785161669795,-1.2647840534085386,10.0,0.0,15.211794475054209,16.47047148862455,233.10654395573727,433.80583498643773,0.0
0.043000000000000003,6.709376245503157,-1.3867642159960276,10.0,0.0,15.477558399636717,16.673277185423842,235.10815372853793,433.80583498643773,0.0
0.044,6.744196093263161,-1.5028656568708394,10.0,0.0,15.74857785831126,16.87893749904121,248.8181267625822,433.80583498643773,0.0
0.045,6.750563942850831,-1.6564343609015326,10.0,0.0,16.02879294551472,17.090781462187255,251.61117095327992,433.80583498643773,0.0
0.046,6.764566527560506,-1.7840489455190416,10.0,0.0,16.314672837580048,17.307985931916857,266.60539535969383,433.80583498643773,0.0
0.047,6.752169677737121,-1.9446655565152717,10.0,0.0,16.610076868775216,17.533561623207692,270.0627790167984,433.80583498643773,0.0
0.048,6.7291903821171735,-2.110358990489937,10.0,0.0,16.91511817760721,17.768523902508925,283.13731951482634,433.80583498643773,0.0
0.049,6.714097190323873,-2.246352557911731,10.0,0.0,17.22645394156277,18.011924542904307,294.70561782835244,433.80583498643773,0.0
0.05,6.666841209228205,-2.4219663531358275,10.0,0.0,17.548953774962747,18.267165921658286,300.1294548425776,433.80583498643773,0.0
0.051000000000000004,6.612335516543512,-2.59336894353628,10.0,0.0,17.88182590988993,18.53465621226123,310.75154600411304,433.80583498643773,0.0
0.052000000000000005,6.568447424188529,-2.726701034625408,10.0,0.0,18.22111236450049,18.81296732052879,322.35703405819294,433.80583498643773,0.0
0.053,6.5036136539679195,-2.8764091099274185,10.0,0.0,18.569435851849082,19.104068797231378,330.9557012510771,433.80583498643773,0.0
0.054,6.434362099984388,-3.0149932598739144,10.0,0.0,18.925784313874168,19.407861808234543,339.4707232587175,433.80583498643773,0.0
0.055,6.370891759459199,-3.1253006473392393,10.0,0.0,19.28762520191878,19.723199586257838,348.00092263299223,433.80583498643773,0.0
0.056,6.314459991163816,-3.2071523724558277,10.0,0.0,19.65271639484943,20.048760466390505,356.29964302226927,433.80583498643773,0.0
0.057,6.266092078485367,-3.262894600420583,10.0,0.0,20.01916768432525,20.383030530514645,362.98468703488817,433.80583498643773,0.0
0.058,6.234656406121481,-3.2830044001420036,10.0,0.0,20.38405550695561,20.723492962007192,368.0316803659419,433.80583498643773,0.0
0.059000000000000004,6.228510489334133,-3.2600491726267444,10.0,0.0,20.743774617448285,21.0667596267365,372.35801287012686,433.80583498643773,0.0
0.06,6.247959954981508,-3.201438289803519,10.0,0.0,21.095630838529225,21.40947063565305,373.88739853789605,433.80583498643773,0.0
0.061,6.298571070969623,-3.1064761741463998,10.0,0.0,21.436712814499675,21.747723437683817,371.47602194372377,433.80583498643773,0.0
0.062,6.38094735961424,-2.982369480030801,10.0,0.0,21.76480975788002,22.077703876517536,366.2922057853833,433.80583498643773,0.0
0.063,6.53566146196873,-2.7695519558602215,10.0,0.0,22.070926190088084,22.39130117743337,372.07145994459506,433.80583498643773,0.0
0.064,6.708566607552835,-2.560747003310555,10.0,0.0,22.35695033962817,22.686677966487718,365.1882535794375,433.80583498643773,0.0
0.065,6.897199383751794,-2.3667028673086685,10.0,0.0,22.62465294768497,22.962098937664592,356.7297130485294,433.80583498643773,0.0
0.066,7.167218997264825,-2.0824440278168583,10.0,0.0,22.863799361069702,23.20893224280502,357.7888817172531,433.80583498643773,0.0
0.067,7.423387055578651,-1.859201647307153,10.0,0.0,23.082000390168847,23.42951856849048,345.1266644280509,433.80583498643773,0.0
0.068,7.736929428236853,-1.5824320316278497,10.0,0.0,23.27222771500701,23.617938384108047,342.9584987314189,433.80583498643773,0.0
0.069,8.04132723792414,-1.3546495884062866,10.0,0.0,23.43998591632552,23.77619061530866,334.2677598047511,433.80583498643773,0.0
0.07,8.395997401416553,-1.0747195592463576,10.0,0.0,23.578279041856877,23.89942370363377,322.7417355360636,433.80583498643773,0.0
0.07100000000000001,8.726669482066718,-0.8579631993863083,10.0,0.0,23.694022264374595,23.99133556844291,337.9106389559309,433.80583498643773,0.0
0.07200000000000001,8.91385728821635,-0.8925675486457335,10.0,0.0,23.81335639313859,24.06834663115294,344.8606079910171,433.80583498643773,0.0
0.073,8.941721008651788,-1.1508071676799903,10.0,0.0,23.95651852989837,24.148396869281978,362.43451347602996,433.80583498643773,0.0
0.074,8.927907180207171,-1.4305443375681337,10.0,0.0,24.121558169292424,24.236556455607346,368.59250641149885,433.80583498643773,0.0
0.075,8.859340450140312,-1.7499202918046703,10.0,0.0,24.31124378664675,24.33980824926249,387.10067316750514,433.80583498643773,0.0
0.076,8.767176841935807,-2.0562826706616475,10.0,0.0,24.52279212376306,24.461155754889383,396.7190369145668,433.80583498643773,0.0
0.077,8.62162972262067,-2.4016532593838043,10.0,0.0,24.76024751870129,24.606611890707832,408.83095327273656,433.80583498643773,0.0
0.078,8.47560200325128,-2.694417929744825,10.0,0.0,25.017253395580042,24.77587553037574,428.2762610097064,433.80583498643773,0.0
0.079,8.289593068490031,-3.001970310780605,9.485801988567378,0.0,25.296388163948023,24.916352318137196,437.5962089949736,433.80583498643773,0.0
0.08,8.051610105581162,-3.287364899325915,4.78792425584841,0.0,25.58997501518499,24.5833883700469,443.62028561520793,433.80583498643773,0.0
0.081,7.579763726799916,-3.3723122284238354,1.6777414394435457,0.0,25.827397046804542,24.06746144144883,448.9925703312536,433.80583498643773,0.0
0.082,6.952492499960822,-3.3076008451618715,-1.160268272027448,0.0,25.98151645695254,23.410071539939256,449.0490282328148,433.80583498643773,0.0
0.083,6.237289225367684,-3.122677620814939,-1.3409291552718203,0.0,26.03479049508923,22.91473961749012,445.2130659719754,433.80583498643773,0.0
0.084,5.629163267542064,-2.885572561938737,0.4629796652924938,0.0,26.00897161293443,22.734246692808973,440.46456188224687,433.80583498643773,0.0
0.085,5.2595108979337475,-2.677392342610532,2.77064444119868,0.0,25.94715655298966,22.83960571060316,434.25930718851356,433.80583498643773,0.0
0.08600000000000001,5.153901053820565,-2.5178076858596516,5.868737066044576,0.0,25.886586390769466,23.253881420753796,429.2816891363414,433.80583498643773,0.0
0.08700000000000001,5.335305947417982,-2.3988243262907196,8.402787550631613,0.0,25.862008492801273,23.84742653398662,431.78934377931785,433.80583498643773,0.0
0.088,5.716789806610379,-2.326660419159049,7.169125141214595,0.0,25.892494699764406,24.177966800642427,424.73571964460973,433.80583498643773,0.0
0.089,6.043921870021842,-2.2176614604383857,10.0,0.0,25.94171806630884,24.770064831506176,410.724191543676,433.80583498643773,0.0
0.09,6.555649770345841,-2.05958092949389,10.0,0.0,26.028930030468516,25.226547898948617,412.5822203405609,433.80583498643773,0.0
0.091,7.063358187633395,-1.8839277350984993,10.0,0.0,26.135328058882422,25.59537320916439,397.75065007965225,433.80583498643773,0.0
0.092,7.551724499801551,-1.6822120606957642,10.0,0.0,26.247536623236158,25.88931258103435,393.573672020608,433.80583498643773,0.0
0.093,8.051085310823247,-1.4133718736568248,10.0,0.0,26.35036300451128,26.115032846061993,377.1541881511801,433.80583498643773,0.0
0.094,8.515231142019717,-1.1677854239689327,10.0,0.0,26.441152666566364,26.282401289392983,374.6840316013326,433.80583498643773,0.0
0.095,8.983006695934122,-0.8989704203384297,10.0,0.0,26.512486420846567,26.39529800197776,371.2630296740475,433.80583498643773,0.0
0.096,9.423107199762828,-0.6654464859998939,10.0,0.0,26.564976988216294,26.460305118850076,378.16529391846575,433.80583498643773,0.0
0.097,9.552951228601625,-0.9040118703691382,10.0,0.0,26.647296642160274,26.514178742638148,397.1076969848074,433.80583498643773,0.0
0.098,9.564636832903032,-1.2588078204629314,10.0,0.0,26.763413593755292,26.570909993257043,405.3521782301515,433.80583498643773,0.0
0.099,9.521345612485856,-1.6185509246809748,10.0,0.0,26.909615757215747,26.638458704262455,424.7195134756783,433.80583498643773,0.0
0.1,9.393368919687536,-2.0379598287762075,10.0,0.0,27.09049012383899,26.72751728451701,434.6328379848082,433.80583498643773,0.0
0.101,9.240045083991099,-2.4193077892752157,6.486543276650094,0.0,27.29993709843929,26.454863058838566,451.0273815355081,433.80583498643773,0.0
0.10200000000000001,8.843626506253731,-2.726050410798515,-1.8829439641905559,0.0,27.49110216177431,25.38698272912319,453.64736503656115,433.80583498643773,0.0
0.10300000000000001,7.982900249881697,-2.755211054979866,-3.3913510152183264,0.0,27.556502930448993,24.453492737931732,457.84453043573035,433.80583498643773,0.0
0.10400000000000001,7.045863251005718,-2.695318347643266,-5.730320669295849,0.0,27.515134818888235,23.472156038601288,458.3666183507072,433.80583498643773,0.0
0.105,6.092520533562583,-2.5592841875891628,-6.236972460426969,0.0,27.365405018017913,22.64797152649415,455.8560055455909,433.80583498643773,0.0
0.106,5.259443036413807,-2.3875863034146985,-5.202167763460353,0.0,27.13070332036526,22.09223261760026,451.50157907337797,433.80583498643773,0.0
0.107,4.643298411903451,-2.230994925047807,-3.2019119682232873,0.0,26.848389828809882,21.837722654061565,445.5895951747454,433.80583498643773,0.0
0.108,4.287404580132889,-2.117189954360071,-0.3637576207900777,0.0,26.557904057064174,21.905613633236133,439.349494377063,433.80583498643773,0.0
0.109,4.213323836481524,-2.0533315045629816,2.7008561841448557,0.0,26.297369580639696,22.250982855871136,432.7151705776558,433.80583498643773,0.0
0.11,4.392987033889996,-2.039033701617895,6.028924727936296,0.0,26.096491300295177,22.85069935121645,427.29513258896594,433.80583498643773,0.0
0.111,4.811654689923391,-2.0455371678706955,8.804050746255934,0.0,25.976530856836906,23.598082735380437,429.32662488486625,433.80583498643773,0.0
0.112,5.3863563725335695,-2.073759665953531,7.833096699321495,0.0,25.946344236267443,24.065145022909434,422.67585345768265,433.80583498643773,0.0
0.113,5.87156324485202,-2.046446850238291,10.0,0.0,25.962595871798317,24.68292558404363,408.6965631616608,433.80583498643773,0.0
0.114,6.46774952878273,-1.9321783253245763,10.0,0.0,26.026703990306174,25.15815579710152,410.26785337349463,433.80583498643773,0.0
0.115,7.02600167089316,-1.784101339251378,10.0,0.0,26.11677853505011,25.53682792791156,394.98798672414716,433.80583498643773,0.0
0.116,7.5480155994271225,-1.5972830145453676,10.0,0.0,26.216643592543736,25.834801289397365,391.33768265955763,433.80583498643773,0.0
0.117,8.064687255099996,-1.3457774870554209,10.0,0.0,26.31052205565973,26.061350077645272,374.67583105496783,433.80583498643773,0.0
0.11800000000000001,8.546488857402084,-1.1017027466632139,10.0,0.0,26.393334385120696,26.226800373683492,371.31760607783156,433.80583498643773,0.0
0.11900000000000001,9.015069473921265,-0.8515912332606899,10.0,0.0,26.459338992169016,26.337261021269892,368.45789907370903,433.80583498643773,0.0
0.12,9.417005067334534,-0.6957116875973859,10.0,0.0,26.515143568382207,26.403748955692212,379.81631668933153,433.80583498643773,0.0
0.121,9.532677610609122,-0.954346434866495,10.0,0.0,26.602025098072534,26.460463930467547,394.74193559492056,433.80583498643773,0.0
0.122,9.553906643569537,-1.2838488904682617,10.0,0.0,26.719548894914894,26.51901709254149,407.5999159991429,433.80583498643773,0.0
0.123,9.473780878844725,-1.6975523106298316,10.0,0.0,26.87338797994214,26.59249344254161,421.90029904415707,433.80583498643773,0.0
0.124,9.370294049612237,-2.065848654422586,10.0,0.0,27.055566355082288,26.684588359612768,440.9195125996233,433.80583498643773,0.0
0.125,9.18857527969545,-2.486214989966597,2.8313629442209978,0.0,27.271293717887428,26.016095742753645,445.4197610806311,433.80583498643773,0.0
0.126,8.607801642819044,-2.671613876656023,0.4650994427751849,0.0,27.414789296906548,25.309490421616943,453.83478616419075,433.80583498643773,0.0
0.127,7.862203078091283,-2.752392762850337,-3.94270261078218,0.0,27.480306474524557,24.302907705370263,457.46556694057244,433.80583498643773,0.0
0.128,6.929238301323287,-2.692701368603432,-5.994690318514376,0.0,27.431239820527008,23.317064490992284,457.10235849801205,433.80583498643773,0.0
0.129,5.982008885725786,-2.5450330195635757,-6.046051332349924,0.0,27.272848906039496,22.534634686155812,454.450371313168,433.80583498643773,0.0
0.13,5.176828234798475,-2.372728932609012,-4.926503103195189,0.0,27.034577336442485,22.01737026314563,449.98844339187417,433.80583498643773,0.0
0.131,4.593396609524072,-2.219892995579046,-2.8573652266026492,0.0,26.7533175693004,21.800540481881306,443.9900268437715,433.80583498643773,0.0
0.132,4.270589504245746,-2.1114462939126772,0.04000112887535412,0.0,26.468100022933086,21.904961087693735,437.75787373572,433.80583498643773,0.0
0.133,4.22816833257792,-2.0533466818477457,3.1165572954082696,0.0,26.21653980147328,22.28130365088272,430.93114388203026,433.80583498643773,0.0
0.134,4.43545610576346,-2.0435010776224916,6.558669133297223,0.0,26.027267838134232,22.919496809342185,426.5446333410882,433.80583498643773,0.0
0.135,4.885114189913874,-2.0525365626679526,8.824536420221762,0.0,25.921834746372262,23.64237822727992,429.10693789477517,433.80583498643773,0.0
0.136,5.454435785206088,-2.0790618629191457,7.590373114294887,0.0,25.902060533757464,24.065882763085845,419.3753123231248,433.80583498643773,0.0
0.137,5.922147057097587,-2.0312545280277554,10.0,0.0,25.921090136144166,24.676704990581378,407.8223143815039,433.80583498643773,0.0
0.138,6.5153424471247865,-1.900503051522478,10.0,0.0,25.98539441197508,25.143677306524904,408.58274539865823,433.80583498643773,0.0
0.139,7.060943870736192,-1.7621339040636146,10.0,0.0,26.07605240036184,25.51629861576019,392.86308545888625,433.80583498643773,0.0
0.14,7.588853305609659,-1.5613253538248766,10.0,0.0,26.174201471781767,25.808109569310655,390.4527913103603,433.80583498643773,0.0
0.14100000000000001,8.09757605223249,-1.3204701297459733,10.0,0.0,26.26723074226846,26.02987392686829,373.29624519165185,433.80583498643773,0.0
0.14200000000000002,8.585479405854205,-1.0657702912900158,10.0,0.0,26.347525091472882,26.19018263428667,367.4894235625849,433.80583498643773,0.0
0.14300000000000002,9.04514481828535,-0.8296635190894218,10.0,0.0,26.4123961299412,26.29680574405245,370.1511930615818,433.80583498643773,0.0
0.14400000000000002,9.432861828181956,-0.6959179889960815,10.0,0.0,26.469091434951004,26.36120142972416,379.9424901609803,433.80583498643773,0.0
0.145,9.522992460570086,-0.9876261432324841,10.0,0.0,26.559982130293935,26.418789877865954,397.04806649670206,433.80583498643773,0.0
0.146,9.536992091245766,-1.3209141751793525,10.0,0.0,26.681287202888537,26.47906989767742,407.06744711442326,433.80583498643773,0.0
