timestamp,iq,id,iq_ref,id_ref,vq,vd,omega,omega_ref,r
0.0,0.0,0.0,0.0,0.0,0.0,0.0,0.0,223.3148651737664,0.0
0.001,0.0,0.0,10.0,0.0,0.0,1.0999999999999999,6.115472199294103,223.3148651737664,0.0
0.002,0.5307369851907212,-0.2913212625381807,10.0,0.0,0.14204533887919985,1.9316189316290207,13.317801563642547,223.3148651737664,0.0
0.003,1.0842913387634832,-0.6024330830807904,10.0,0.0,0.384357124667687,2.6386968949419622,20.697939467553027,223.3148651737664,0.0
0.004,1.5590443546685477,-0.8700465084428163,10.0,0.0,0.6994718867930164,3.2526109522886295,28.232747544420146,223.3148651737664,0.0
0.005,1.9399447555359186,-1.0838738622210777,10.0,0.0,1.065311453102468,3.7994935661768023,35.92944872443006,223.3148651737664,0.0
0.006,2.239750732602683,-1.2510087368845633,10.0,0.0,1.4655018868449925,4.299102221838433,43.75633668444442,223.3148651737664,0.0
0.007,2.4770151619816017,-1.382020589851471,10.0,0.0,1.8883740978591532,4.765668027847139,51.58766747378032,223.3148651737664,0.0
0.008,2.6680767290418097,-1.4872241871505252,10.0,0.0,2.325877945545995,5.209220346273558,59.45942083902103,223.3148651737664,0.0
0.009000000000000001,2.8266491704841292,-1.5730794701170803,10.0,0.0,2.772378685460125,5.636635464737965,67.35059094018146,223.3148651737664,0.0
0.01,2.962077666392183,-1.645500646948331,10.0,0.0,3.224078639851053,6.052647735211881,75.20908322432116,223.3148651737664,0.0
0.011,3.0811061533574158,-1.7084279320504514,10.0,0.0,3.678407615443203,6.460489925470405,83.0265951655913,223.3148651737664,0.0
0.012,3.188848746459569,-1.7638278597420747,10.0,0.0,4.133552631697047,6.862319393890706,90.74118064793086,223.3148651737664,0.0
0.013000000000000001,3.288205119878689,-1.8140726097274587,10.0,0.0,4.588339016389012,7.259628641949282,98.35820682563939,223.3148651737664,0.0
0.014,3.3820602099432007,-1.8592355758795645,10.0,0.0,5.041843166194517,7.653355107498287,105.90865295623543,223.3148651737664,0.0
0.015,3.4721069852858886,-1.899829032412081,10.0,0.0,5.493383198131427,8.044092747085895,113.37727610343421,223.3148651737664,0.0
0.016,3.5596145800153947,-1.9360338400176071,10.0,0.0,5.94241958510469,8.43218525824161,120.68508583176356,223.3148651737664,0.0
0.017,3.645144415105338,-1.9685384477868613,10.0,0.0,6.388575043274759,8.817838951066484,127.83962377537456,223.3148651737664,0.0
0.018000000000000002,3.730251927866576,-1.9959253041084188,10.0,0.0,6.83136783302799,9.201036292373047,134.85405702603322,223.3148651737664,0.0
0.019,3.81544967906247,-2.018253592643655,10.0,0.0,7.270383321112213,9.581672501020332,141.68976328564074,223.3148651737664,0.0
0.02,3.9014648862453374,-2.0350875541282063,10.0,0.0,7.705189334130692,9.959536942333155,148.3432823300447,223.3148651737664,0.0
0.021,3.9891051824829464,-2.0457889559126508,10.0,0.0,8.135310004560049,10.334315260302239,154.92060212100432,223.3148651737664,0.0
0.022,4.079618141396171,-2.0489696811670974,10.0,0.0,8.560139305503519,10.705547790999272,161.01925282597162,223.3148651737664,0.0
0.023,4.171109372430197,-2.048468292080302,10.0,0.0,8.979521969370257,11.072981092896333,166.534238406907,223.3148651737664,0.0
0.024,4.266936196769627,-2.039517194249811,10.0,0.0,9.392730090169543,11.435983292623375,171.8647834235234,223.3148651737664,0.0
0.025,4.367255527950721,-2.0225841458509217,10.0,0.0,9.79914449451603,11.793929226271104,177.02637022703064,223.3148651737664,0.0
0.026000000000000002,4.4734353073349595,-1.9962166741499119,10.0,0.0,10.197980960389518,12.146045424568259,181.63161391243256,223.3148651737664,0.0
0.027,4.582366840795821,-1.966358349113627,10.0,0.0,10.589124658468391,12.491912978736195,185.74793639675826,223.3148651737664,0.0
0.028,4.700058850757774,-1.9240450691803936,10.0,0.0,10.971384864613876,12.830451341534015,189.43662766964098,223.3148651737664,0.0
0.029,4.820934284790598,-1.879137197786803,10.0,0.0,11.344756153370636,13.161242511022618,192.73598774770625,223.3148651737664,0.0
0.03,4.952016225740939,-1.821000614527957,10.0,0.0,11.707923484756042,13.483081433273819,195.59831968863915,223.3148651737664,0.0
0.031,5.086039273572549,-1.7621311371320891,10.0,0.0,12.061063698547066,13.79562148058647,197.80891551030922,223.3148651737664,0.0
0.032,5.230431844273564,-1.6911110488141978,10.0,0.0,12.40292038074925,14.097678592248165,200.4421589734679,223.3148651737664,0.0
0.033,5.380124186618445,-1.6166151787533525,10.0,0.0,12.733312761073865,14.38869342901298,201.91742172589852,223.3148651737664,0.0
0.034,5.537594793894332,-1.535029134414507,10.0,0.0,13.051537880865839,14.667821176756876,203.18880493813168,223.3148651737664,0.0
0.035,5.698947813469154,-1.4530296333491768,10.0,0.0,13.357649178779205,14.934684535625108,203.60405746232266,223.3148651737664,0.0
0.036000000000000004,5.870474243492053,-1.3603000477825025,10.0,0.0,13.65045542338638,15.188218311291084,204.28541056101804,223.3148651737664,0.0
0.037,6.041188711220851,-1.275010780747051,10.0,0.0,13.930879897581198,15.42861600670124,205.2233356988433,223.3148651737664,0.0
0.038,6.228175208801664,-1.168399557236846,10.0,0.0,14.196427351981786,15.654155009933262,200.35169734043586,223.3148651737664,0.0
0.039,6.404895489618571,-1.0845312562500289,10.0,0.0,14.449814560392067,15.86612549236809,209.64773540576442,223.3148651737664,0.0
0.04,6.534612624563911,-1.0851225869390002,10.0,0.0,14.699963825590459,16.069735965364643,218.170241886545,223.3148651737664,0.0
0.041,6.621487035821765,-1.1484636683301073,7.727482306880033,0.0,14.952420817214799,16.019764357449276,217.9928039536505,223.3148651737664,0.0
0.042,6.550698069513423,-1.2004550823876174,7.869421885528438,0.0,15.17972059361758,16.047029670476892,229.65154821193707,223.3148651737664,0.0
0.043000000000000003,6.463466090032435,-1.27268358579445,1.9766829260034502,0.0,15.394442144917022,15.453565376587619,227.52012570973858,223.3148651737664,0.0
0.044,6.078110616172069,-1.1832844316960287,3.0003415717429736,0.0,15.517788919712702,15.153966290173651,234.28987581065402,223.3148651737664,0.0
0.045,5.722611020647324,-1.1640399963313133,-0.49428358508362447,0.0,15.59761821203828,14.537267836941439,231.97053133341385,223.3148651737664,0.0
0.046,5.25471865843484,-1.0570033007001602,0.5788319919399907,0.0,15.596213137642298,14.191124287193997,235.69302774167286,223.3148651737664,0.0
0.047,4.87436292575406,-1.0324989298930685,-1.406197837868583,0.0,15.55870910187871,13.687530354905292,234.51248890291362,223.3148651737664,0.0
0.048,4.470818382577313,-0.9754611894844925,-0.9279046557804325,0.0,15.468566968725725,13.343594303019499,235.8180689474627,223.3148651737664,0.0
0.049,4.1391349402346265,-0.9657971231678135,-1.7057267157919398,0.0,15.352552773808723,12.967144017810783,235.63710937738767,223.3148651737664,0.0
0.05,3.8270862297779247,-0.9570254847149762,-1.738469372790636,0.0,15.20962673029589,12.651922393688295,235.59193983695965,223.3148651737664,0.0
0.051000000000000004,3.556957894774516,-0.9638535946554208,-1.8386553492085582,0.0,15.050309937200081,12.369830926536606,235.18488607129723,223.3148651737664,0.0
0.052000000000000005,3.3223767933324164,-0.9801746008826813,-1.7538286753526533,0.0,14.880442706284272,12.133452358487423,234.60284414962302,223.3148651737664,0.0
0.053,3.1261425275829375,-1.0055914441566611,-1.5756875042741179,0.0,14.706556984352995,11.941712144449683,233.9300378386488,223.3148651737664,0.0
0.054,2.967293266601204,-1.0388318936257535,-1.3454360754358223,0.0,14.534288094219926,11.790814701134511,233.19338049091255,223.3148651737664,0.0
0.055,2.8425226728254422,-1.077580231541298,-1.0758925547391631,0.0,14.368086261444672,11.677263658831317,232.43495984171162,223.3148651737664,0.0
0.056,2.7481662565833846,-1.1193378699758139,-0.7878831768181511,0.0,14.211355364565263,11.596564633694129,231.74807824427657,223.3148651737664,0.0
0.057,2.6804289435717155,-1.1610982370225655,-0.5287745088057294,0.0,14.066403718850873,11.540391821353742,231.22325262046465,223.3148651737664,0.0
0.058,2.63376110704532,-1.1991597496523425,-0.345445571366751,0.0,13.93409911919269,11.4973723110019,230.3909877586901,223.3148651737664,0.0
0.059000000000000004,2.598729844082764,-1.2328838992224815,-7.436632871460347e-05,0.0,13.814052069791565,11.484968595459838,229.3210864855951,223.3148651737664,0.0
0.06,2.582529217103172,-1.2636600374291416,0.47481405710050506,0.0,13.707817487483371,11.512016317396832,228.2469983542001,223.3148651737664,0.0
0.061,2.590982050234321,-1.2956941971848457,0.9625367909936688,0.0,13.61812713179076,11.573544607489042,226.89642184715586,223.3148651737664,0.0
0.062,2.6256916700282,-1.3249229822078772,1.6020094777818863,0.0,13.546453465431604,11.681682271364522,226.04617886757768,223.3148651737664,0.0
0.063,2.6922329397648808,-1.3538190964868573,1.9998178306328653,0.0,13.495647216816373,11.802230550689174,225.93391201360663,223.3148651737664,0.0
0.064,2.7747660274783055,-1.3760002585064874,2.0297607892199885,0.0,13.464127387674493,11.896545792184794,227.79595088703624,223.3148651737664,0.0
0.065,2.8468247659131323,-1.3848858126024548,1.0539304953724842,0.0,13.445946664926733,11.863535634356879,225.514866232293,223.3148651737664,0.0
0.066,2.847554416942021,-1.3627052919916598,2.172472812158838,0.0,13.423754285862806,11.96544670359312,221.29376896303748,223.3148651737664,0.0
0.067,2.9043871406813557,-1.3396230801965394,4.303232408893889,0.0,13.411655013537542,12.2719012573713,222.61069877632184,223.3148651737664,0.0
0.068,3.0867930420896217,-1.3516552270040907,3.6518091662261543,0.0,13.432965482089397,12.434039953960816,225.95795106815595,223.3148651737664,0.0
0.069,3.225609625187703,-1.3575381415104597,1.9517521613652038,0.0,13.468885572572653,12.388158024511835,220.69557222353782,223.3148651737664,0.0
0.07,3.2497212477924693,-1.3053494904365293,4.609134513176553,0.0,13.490825880299486,12.65850481314839,217.8561068130635,223.3148651737664,0.0
0.07100000000000001,3.4142460047451992,-1.2725961037061189,6.083454802020748,0.0,13.534525850087684,13.021755754909972,222.36414909693724,223.3148651737664,0.0
0.07200000000000001,3.6509519880840817,-1.2995689687746754,3.8389408208521654,0.0,13.61347546609807,13.067019448059476,218.4321301618823,223.3148651737664,0.0
0.073,3.7577875272092833,-1.2623425079326094,5.853777638498477,0.0,13.684691850479048,13.350344073777464,217.43923110135972,223.3148651737664,0.0
0.074,3.962871186765435,-1.2189149131375252,6.408983509483832,0.0,13.772714288174694,13.631891305833758,220.16500152231507,223.3148651737664,0.0
0.075,4.171533026616181,-1.2201104860603222,5.077596935520674,0.0,13.880654994275854,13.72117951082016,214.05080916000864,223.3148651737664,0.0
0.076,4.31170319382962,-1.1503640919920513,8.227333676811465,0.0,13.979046391188803,14.158785773204686,219.07207967551633,223.3148651737664,0.0
0.077,4.596373063578448,-1.14789112858299,5.759126274040119,0.0,14.111784712614606,14.229558383324061,212.39377400438323,223.3148651737664,0.0
0.078,4.748351647034857,-1.0835848886663466,9.2074900213005,0.0,14.231277506153019,14.69665870531772,217.50247180129273,223.3148651737664,0.0
0.079,5.059657442186733,-1.080547791060574,6.7112650565704906,0.0,14.38584003419949,14.78720603924081,210.82396653514357,223.3148651737664,0.0
0.08,5.242143856496102,-1.0051606770331494,10.0,0.0,14.525738831266658,15.253917538378268,215.22134036794964,223.3148651737664,0.0
0.081,5.55994767532034,-1.0103992343610178,8.054166474165807,0.0,14.699649010987203,15.407885174105068,211.80136637323318,223.3148651737664,0.0
0.082,5.796556063572311,-0.9238085688568739,9.879288459529366,0.0,14.861987577529632,15.761219933360106,209.89205973118354,223.3148651737664,0.0
0.083,6.073156557000245,-0.9125671286735901,10.0,0.0,15.043055111578202,16.06242215254746,215.96256326164024,223.3148651737664,0.0
0.084,6.361479841044725,-0.8780752729884449,7.987077692173327,0.0,15.232454424417126,16.100032777644678,217.8336964091557,223.3148651737664,0.0
0.085,6.434843505423318,-0.9211880145746774,7.106322806061708,0.0,15.411762188613205,16.07088168688087,222.34461826646353,223.3148651737664,0.0
0.08600000000000001,6.380858355247161,-1.0057367798968095,4.860564346480819,0.0,15.57909330408288,15.831022603083417,229.64204636172732,223.3148651737664,0.0
0.08700000000000001,6.20955855733546,-1.0014856699157964,1.1485784869693108,0.0,15.7043922898747,15.26432480553075,227.3318432423115,223.3148651737664,0.0
0.088,5.8094258524874665,-0.9491495352025392,2.2635102659917763,0.0,15.754777133613427,14.968890640154276,233.4804073655584,223.3148651737664,0.0
0.089,5.491967170277769,-0.9258101832040808,-0.9124272175495935,0.0,15.768536109067934,14.378455062704141,231.04310107394053,223.3148651737664,0.0
0.09,5.05167319483019,-0.8707024425709031,0.22894356925759407,0.0,15.716047171282312,14.051006852405813,232.95571940054862,223.3148651737664,0.0
0.091,4.719441673128749,-0.8581592081428291,-0.8237741363142694,0.0,15.635233627864665,13.655984441510451,233.7638591087584,223.3148651737664,0.0
0.092,4.391600742160098,-0.8566557340006379,-1.3323339297690788,0.0,15.522959247887888,13.279708704328094,234.06897592048577,223.3148651737664,0.0
0.093,4.083593571299765,-0.8584126218596956,-1.5924334430999592,0.0,15.384493024596468,12.936910133819397,234.27414215771228,223.3148651737664,0.0
0.094,3.8025477109567256,-0.8711129642857648,-1.8046093315526717,0.0,15.2269730353716,12.62164141836507,234.03979826475592,223.3148651737664,0.0
0.095,3.5490630627683153,-0.8905812679436133,-1.794686715984386,0.0,15.055692683501888,12.350433674828018,233.64634837247928,223.3148651737664,0.0
0.096,3.3300875837257,-0.9189524016627522,-1.701276601833197,0.0,14.877345734137965,12.120947013071454,233.13567450742042,223.3148651737664,0.0
0.097,3.14574915396421,-0.9550972802334214,-1.5441477626403062,0.0,14.697577038840361,11.931011866207195,232.5420386252015,223.3148651737664,0.0
0.098,2.9940146485784167,-0.9969736903406184,-1.3396015560452046,0.0,14.52103665471218,11.777869570127962,231.88688290128712,223.3148651737664,0.0
0.099,2.8719065600333127,-1.042469935574673,-1.0977438713632166,0.0,14.351421902263564,11.658860893178998,231.19192720940944,223.3148651737664,0.0
0.1,2.7764444606354286,-1.0895690765245658,-0.8290366457808065,0.0,14.191593700417066,11.57121057669564,230.52857179804036,223.3148651737664,0.0
0.101,2.7050175399226526,-1.136036317820094,-0.5694960063390049,0.0,14.043623692239883,11.509107210043158,229.97666620003818,223.3148651737664,0.0
0.10200000000000001,2.653819956720167,-1.1790536477537823,-0.36016121760063324,0.0,13.908507582094927,11.46376606455016,229.43922228842177,223.3148651737664,0.0
0.10300000000000001,2.616766617416971,-1.2162797215304546,-0.15268283293898355,0.0,13.786033663231262,11.433740588508691,228.53237386108947,223.3148651737664,0.0
0.10400000000000001,2.5896634063062534,-1.2496627112128693,0.24856629385393925,0.0,13.67610445677711,11.439143708114752,227.4246872865725,223.3148651737664,0.0
0.105,2.584359545375847,-1.2794184115782827,0.7613113599843659,0.0,13.580647780072358,11.485715453712453,226.31744521205275,223.3148651737664,0.0
0.106,2.6052290875071322,-1.311067991810338,1.2849065968613758,0.0,13.502577842419722,11.568203694231318,225.1623345708091,223.3148651737664,0.0
0.107,2.653850877423964,-1.3397130484388864,1.8439872235127752,0.0,13.443398183011055,11.68575933202639,224.64555642007295,223.3148651737664,0.0
0.108,2.728448406409221,-1.3661698177347184,2.089069386417782,0.0,13.404515847379022,11.799290161464906,225.59987167642475,223.3148651737664,0.0
0.109,2.8099868854568286,-1.3800745651746444,1.589061693215296,0.0,13.382139782779472,11.831904749109668,226.66777095480137,223.3148651737664,0.0
0.11,2.8430259487796445,-1.3815402505545413,1.021582996216639,0.0,13.365284961321743,11.798778779617129,222.3177599614328,223.3148651737664,0.0
0.111,2.840271353802749,-1.339740792372356,3.206559545024253,0.0,13.342190427806697,12.013935528347586,219.6426484864578,223.3148651737664,0.0
0.112,2.955703077385376,-1.3301917928601226,4.580837449384845,0.0,13.342288627151675,12.321862917301226,223.17579214972545,223.3148651737664,0.0
0.113,3.1482007843756903,-1.361510780450677,2.815656347991429,0.0,13.376710324087606,12.371074256564007,223.40646009860015,223.3148651737664,0.0
0.114,3.2315780835118573,-1.3493656050031928,2.699406424305743,0.0,13.410961826081088,12.416424425167534,217.58820637016123,223.3148651737664,0.0
0.115,3.2945349158834034,-1.2909293833683606,5.6657998765612545,0.0,13.44001666211022,12.782039027525517,219.60524669695275,223.3148651737664,0.0
0.116,3.5122913541317873,-1.287155215957168,4.694375897933633,0.0,13.502896678573357,12.954153441195412,221.81571128688947,223.3148651737664,0.0
0.117,3.6680133207392984,-1.2832866057171453,3.6041351418340426,0.0,13.576312329304876,12.99018031981561,215.04351174716075,223.3148651737664,0.0
0.11800000000000001,3.756253171901957,-1.213496469618438,7.072948445964458,0.0,13.638350873956801,13.414268782700463,218.40562966019044,223.3148651737664,0.0
0.11900000000000001,4.015941701226834,-1.2102217244697961,5.440981844585371,0.0,13.736932089826661,13.560264454854913,216.78353724339715,223.3148651737664,0.0
0.12,4.17773211156723,-1.1927341196392878,6.317341332285711,0.0,13.838363862245115,13.799037831197534,214.0090815757784,223.3148651737664,0.0
0.121,4.388929791742223,-1.1318928586943269,7.797627002074967,0.0,13.947012132400339,14.156531035231712,216.6844108047516,223.3148651737664,0.0
0.122,4.641958694788096,-1.1405552263292527,6.526266931278517,0.0,14.082106168992754,14.308766078859193,210.6996858521303,223.3148651737664,0.0
0.123,4.840825920718207,-1.0695777868459306,9.644781200805523,0.0,14.211020164269154,14.79569208631725,216.3428148230076,223.3148651737664,0.0
0.124,5.160126039975154,-1.0959133360868851,6.892937218874469,0.0,14.379342045575065,14.879794570990493,210.99410802735844,223.3148651737664,0.0
0.125,5.354520691283733,-1.0039358866662287,9.690498188163124,0.0,14.528861112289016,15.289378731316685,212.84277652829607,223.3148651737664,0.0
0.126,5.638589655932336,-1.0030035022234327,8.870884824149009,0.0,14.705203900569703,15.525519662948962,213.66593858199315,223.3148651737664,0.0
0.127,5.903902102563363,-0.9331015071356121,8.555793063218205,0.0,14.879846607570313,15.7028731407009,206.14159184180315,223.3148651737664,0.0
0.128,6.114322604860528,-0.8658348846976183,10.0,0.0,15.04806008312875,16.021476091246633,214.9465666199109,223.3148651737664,0.0
0.129,6.3519307706948345,-0.8842060180145883,8.121100779784861,0.0,15.23400599707517,16.07988641748336,220.69120251874483,223.3148651737664,0.0
0.13,6.423456601811901,-0.9400194879409951,5.275019456918109,0.0,15.413154122609349,15.851278589413319,221.2750047218777,223.3148651737664,0.0
0.131,6.271698958544135,-0.9784824605167666,5.003516959870558,0.0,15.555199445067183,15.67945049432777,229.79266882020053,223.3148651737664,0.0
0.132,6.088213611916398,-1.0039026257816808,0.679906874244804,0.0,15.668269014224055,15.084793468244568,227.2970081168634,223.3148651737664,0.0
0.133,5.686786143683777,-0.9316141517093466,1.8879157964824023,0.0,15.70235999005632,14.779348352027084,231.82872001531825,223.3148651737664,0.0
0.134,5.351892672164799,-0.9267580740081869,-0.4630787011605455,0.0,15.702686072877198,14.26999136823623,231.14139430045535,223.3148651737664,0.0
0.135,4.963898061228978,-0.870378123287607,-0.19768113499598128,0.0,15.64589061523466,13.903636840848835,233.02721399192194,223.3148651737664,0.0
0.136,4.6208025656137,-0.8664140685425885,-1.2377144689108333,0.0,15.558267004102886,13.485041136451969,232.8734501639851,223.3148651737664,0.0
0.137,4.2847797809186545,-0.850845137638667,-1.2564184048445988,0.0,15.435873241792622,13.14141709312835,233.5051593589537,223.3148651737664,0.0
0.138,3.989075435471434,-0.8601397819146148,-1.6741759441807753,0.0,15.292534551560415,12.803317038090666,233.44547460355068,223.3148651737664,0.0
0.139,3.7169079269908196,-0.8736538668755283,-1.7456396607771052,0.0,15.131113327750604,12.507991068579692,233.2308580511174,223.3148651737664,0.0
