timestamp,iq,id,iq_ref,id_ref,vq,vd,omega,omega_ref,r
0.0,0.0,0.0,0.0,0.0,0.0,0.0,0.0,455.0347891334766,0.0
0.001,0.0,0.0,10.0,0.0,0.0,1.0999999999999999,6.115472199294103,455.0347891334766,0.0
0.002,0.5307369851907212,-0.2913212625381807,10.0,0.0,0.14204533887919985,1.9316189316290207,13.317801563642547,455.0347891334766,0.0
0.003,1.0842913387634832,-0.6024330830807904,10.0,0.0,0.384357124667687,2.6386968949419622,20.697939467553027,455.0347891334766,0.0
0.004,1.5590443546685477,-0.8700465084428163,10.0,0.0,0.6994718867930164,3.2526109522886295,28.232747544420146,455.0347891334766,0.0
0.005,1.9399447555359186,-1.0838738622210777,10.0,0.0,1.065311453102468,3.7994935661768023,35.92944872443006,455.0347891334766,0.0
0.006,2.239750732602683,-1.2510087368845633,10.0,0.0,1.4655018868449925,4.299102221838433,43.75633668444442,455.0347891334766,0.0
0.007,2.4770151619816017,-1.382020589851471,10.0,0.0,1.8883740978591532,4.765668027847139,51.58766747378032,455.0347891334766,0.0
0.008,2.6680767290418097,-1.4872241871505252,10.0,0.0,2.325877945545995,5.209220346273558,59.45942083902103,455.0347891334766,0.0
0.009000000000000001,2.8266491704841292,-1.5730794701170803,10.0,0.0,2.772378685460125,5.636635464737965,67.35059094018146,455.0347891334766,0.0
0.01,2.962077666392183,-1.645500646948331,10.0,0.0,3.224078639851053,6.052647735211881,75.20908322432116,455.0347891334766,0.0
0.011,3.0811061533574158,-1.7084279320504514,10.0,0.0,3.678407615443203,6.460489925470405,83.0265951655913,455.0347891334766,0.0
0.012,3.188848746459569,-1.7638278597420747,10.0,0.0,4.133552631697047,6.862319393890706,90.74118064793086,455.0347891334766,0.0
0.013000000000000001,3.288205119878689,-1.8140726097274587,10.0,0.0,4.588339016389012,7.259628641949282,98.35820682563939,455.0347891334766,0.0
0.014,3.3820602099432007,-1.8592355758795645,10.0,0.0,5.041843166194517,7.653355107498287,105.90865295623543,455.0347891334766,0.0
0.015,3.4721069852858886,-1.899829032412081,10.0,0.0,5.493383198131427,8.044092747085895,113.37727610343421,455.0347891334766,0.0
0.016,3.5596145800153947,-1.9360338400176071,10.0,0.0,5.94241958510469,8.43218525824161,120.68508583176356,455.0347891334766,0.0
0.017,3.645144415105338,-1.9685384477868613,10.0,0.0,6.388575043274759,8.817838951066484,127.83962377537456,455.0347891334766,0.0
0.018000000000000002,3.730251927866576,-1.9959253041084188,10.0,0.0,6.83136783302799,9.201036292373047,134.85405702603322,455.0347891334766,0.0
0.019,3.81544967906247,-2.018253592643655,10.0,0.0,7.270383321112213,9.581672501020332,141.68976328564074,455.0347891334766,0.0
0.02,3.9014648862453374,-2.0350875541282063,10.0,0.0,7.705189334130692,9.959536942333155,148.3432823300447,455.0347891334766,0.0
0.021,3.9891051824829464,-2.0457889559126508,10.0,0.0,8.135310004560049,10.334315260302239,154.92060212100432,455.0347891334766,0.0
0.022,4.079618141396171,-2.0489696811670974,10.0,0.0,8.560139305503519,10.705547790999272,161.01925282597162,455.0347891334766,0.0
0.023,4.171109372430197,-2.048468292080302,10.0,0.0,8.979521969370257,11.072981092896333,166.534238406907,455.0347891334766,0.0
0.024,4.266936196769627,-2.039517194249811,10.0,0.0,9.392730090169543,11.435983292623375,171.8647834235234,455.0347891334766,0.0
0.025,4.367255527950721,-2.0225841458509217,10.0,0.0,9.79914449451603,11.793929226271104,177.02637022703064,455.0347891334766,0.0
0.026000000000000002,4.4734353073349595,-1.9962166741499119,10.0,0.0,10.197980960389518,12.146045424568259,181.63161391243256,455.0347891334766,0.0
0.027,4.582366840795821,-1.966358349113627,10.0,0.0,10.589124658468391,12.491912978736195,185.74793639675826,455.0347891334766,0.0
0.028,4.700058850757774,-1.9240450691803936,10.0,0.0,10.971384864613876,12.830451341534015,189.43662766964098,455.0347891334766,0.0
0.029,4.820934284790598,-1.879137197786803,10.0,0.0,11.344756153370636,13.161242511022618,192.73598774770625,455.0347891334766,0.0
0.03,4.952016225740939,-1.821000614527957,10.0,0.0,11.707923484756042,13.483081433273819,195.59831968863915,455.0347891334766,0.0
0.031,5.086039273572549,-1.7621311371320891,10.0,0.0,12.061063698547066,13.79562148058647,197.80891551030922,455.0347891334766,0.0
0.032,5.230431844273564,-1.6911110488141978,10.0,0.0,12.40292038074925,14.097678592248165,200.4421589734679,455.0347891334766,0.0
0.033,5.380124186618445,-1.6166151787533525,10.0,0.0,12.733312761073865,14.38869342901298,201.91742172589852,455.0347891334766,0.0
0.034,5.537594793894332,-1.535029134414507,10.0,0.0,13.051537880865839,14.667821176756876,203.18880493813168,455.0347891334766,0.0
0.035,5.698947813469154,-1.4530296333491768,10.0,0.0,13.357649178779205,14.934684535625108,203.60405746232266,455.0347891334766,0.0
0.036000000000000004,5.870474243492053,-1.3603000477825025,10.0,0.0,13.65045542338638,15.188218311291084,204.28541056101804,455.0347891334766,0.0
0.037,6.041188711220851,-1.275010780747051,10.0,0.0,13.930879897581198,15.42861600670124,205.2233356988433,455.0347891334766,0.0
0.038,6.228175208801664,-1.168399557236846,10.0,0.0,14.196427351981786,15.654155009933262,200.35169734043586,455.0347891334766,0.0
0.039,6.404895489618571,-1.0845312562500289,10.0,0.0,14.449814560392067,15.86612549236809,209.64773540576442,455.0347891334766,0.0
0.04,6.534612624563911,-1.0851225869390002,10.0,0.0,14.699963825590459,16.069735965364643,218.170241886545,455.0347891334766,0.0
0.041,6.621487035821765,-1.1484636683301073,10.0,0.0,14.952420817214799,16.26974130369247,220.68166573712315,455.0347891334766,0.0
0.042,6.6704785161669795,-1.2647840534085386,10.0,0.0,15.211794475054209,16.47047148862455,233.10654395573727,455.0347891334766,0.0
0.043000000000000003,6.709376245503157,-1.3867642159960276,10.0,0.0,15.477558399636717,16.673277185423842,235.10815372853793,455.0347891334766,0.0
0.044,6.744196093263161,-1.5028656568708394,10.0,0.0,15.74857785831126,16.87893749904121,248.8181267625822,455.0347891334766,0.0
0.045,6.750563942850831,-1.6564343609015326,10.0,0.0,16.02879294551472,17.090781462187255,251.61117095327992,455.0347891334766,0.0
0.046,6.764566527560506,-1.7840489455190416,10.0,0.0,16.314672837580048,17.307985931916857,266.60539535969383,455.0347891334766,0.0
0.047,6.752169677737121,-1.9446655565152717,10.0,0.0,16.610076868775216,17.533561623207692,270.0627790167984,455.0347891334766,0.0
0.048,6.7291903821171735,-2.110358990489937,10.0,0.0,16.91511817760721,17.768523902508925,283.13731951482634,455.0347891334766,0.0
0.049,6.714097190323873,-2.246352557911731,10.0,0.0,17.22645394156277,18.011924542904307,294.70561782835244,455.0347891334766,0.0
0.05,6.666841209228205,-2.4219663531358275,10.0,0.0,17.548953774962747,18.267165921658286,300.1294548425776,455.0347891334766,0.0
0.051000000000000004,6.612335516543512,-2.59336894353628,10.0,0.0,17.88182590988993,18.53465621226123,310.75154600411304,455.0347891334766,0.0
0.052000000000000005,6.568447424188529,-2.726701034625408,10.0,0.0,18.22111236450049,18.81296732052879,322.35703405819294,455.0347891334766,0.0
0.053,6.5036136539679195,-2.8764091099274185,10.0,0.0,18.569435851849082,19.104068797231378,330.9557012510771,455.0347891334766,0.0
0.054,6.434362099984388,-3.0149932598739144,10.0,0.0,18.925784313874168,19.407861808234543,339.4707232587175,455.0347891334766,0.0
0.055,6.370891759459199,-3.1253006473392393,10.0,0.0,19.28762520191878,19.723199586257838,348.00092263299223,455.0347891334766,0.0
0.056,6.314459991163816,-3.2071523724558277,10.0,0.0,19.65271639484943,20.048760466390505,356.29964302226927,455.0347891334766,0.0
0.057,6.266092078485367,-3.262894600420583,10.0,0.0,20.01916768432525,20.383030530514645,362.98468703488817,455.0347891334766,0.0
0.058,6.234656406121481,-3.2830044001420036,10.0,0.0,20.38405550695561,20.723492962007192,368.0316803659419,455.0347891334766,0.0
0.059000000000000004,6.228510489334133,-3.2600491726267444,10.0,0.0,20.743774617448285,21.0667596267365,372.35801287012686,455.0347891334766,0.0
0.06,6.247959954981508,-3.201438289803519,10.0,0.0,21.095630838529225,21.40947063565305,373.88739853789605,455.0347891334766,0.0
0.061,6.298571070969623,-3.1064761741463998,10.0,0.0,21.436712814499675,21.747723437683817,371.47602194372377,455.0347891334766,0.0
0.062,6.38094735961424,-2.982369480030801,10.0,0.0,21.76480975788002,22.077703876517536,366.2922057853833,455.0347891334766,0.0
0.063,6.53566146196873,-2.7695519558602215,10.0,0.0,22.070926190088084,22.39130117743337,372.07145994459506,455.0347891334766,0.0
0.064,6.708566607552835,-2.560747003310555,10.0,0.0,22.35695033962817,22.686677966487718,365.1882535794375,455.0347891334766,0.0
0.065,6.897199383751794,-2.3667028673086685,10.0,0.0,22.62465294768497,22.962098937664592,356.7297130485294,455.0347891334766,0.0
0.066,7.167218997264825,-2.0824440278168583,10.0,0.0,22.863799361069702,23.20893224280502,357.7888817172531,455.0347891334766,0.0
0.067,7.423387055578651,-1.859201647307153,10.0,0.0,23.082000390168847,23.42951856849048,345.1266644280509,455.0347891334766,0.0
0.068,7.736929428236853,-1.5824320316278497,10.0,0.0,23.27222771500701,23.617938384108047,342.9584987314189,455.0347891334766,0.0
0.069,8.04132723792414,-1.3546495884062866,10.0,0.0,23.43998591632552,23.77619061530866,334.2677598047511,455.0347891334766,0.0
0.07,8.395997401416553,-1.0747195592463576,10.0,0.0,23.578279041856877,23.89942370363377,322.7417355360636,455.0347891334766,0.0
0.07100000000000001,8.726669482066718,-0.8579631993863083,10.0,0.0,23.694022264374595,23.99133556844291,337.9106389559309,455.0347891334766,0.0
0.07200000000000001,8.91385728821635,-0.8925675486457335,10.0,0.0,23.81335639313859,24.06834663115294,344.8606079910171,455.0347891334766,0.0
0.073,8.941721008651788,-1.1508071676799903,10.0,0.0,23.95651852989837,24.148396869281978,362.43451347602996,455.0347891334766,0.0
0.074,8.927907180207171,-1.4305443375681337,10.0,0.0,24.121558169292424,24.236556455607346,368.59250641149885,455.0347891334766,0.0
0.075,8.859340450140312,-1.7499202918046703,10.0,0.0,24.31124378664675,24.33980824926249,387.10067316750514,455.0347891334766,0.0
0.076,8.767176841935807,-2.0562826706616475,10.0,0.0,24.52279212376306,24.461155754889383,396.7190369145668,455.0347891334766,0.0
0.077,8.62162972262067,-2.4016532593838043,10.0,0.0,24.76024751870129,24.606611890707832,408.83095327273656,455.0347891334766,0.0
0.078,8.47560200325128,-2.694417929744825,10.0,0.0,25.017253395580042,24.77587553037574,428.2762610097064,455.0347891334766,0.0
0.079,8.289593068490031,-3.001970310780605,10.0,0.0,25.296388163948027,24.972914099394785,438.0404594767293,455.0347891334766,0.0
0.08,8.078425759776728,-3.30171273584331,10.0,0.0,25.597209455327665,25.19953060295957,447.87571303424875,455.0347891334766,0.0
0.081,7.882675762310951,-3.525181384717318,10.0,0.0,25.912194395051316,25.45298841193994,460.26934286159303,455.0347891334766,0.0
0.082,7.687097883672571,-3.703693402600396,4.023799192628786,0.0,26.23842825717906,25.074772911859373,465.3544588888859,455.0347891334766,0.0
0.083,7.195108018475393,-3.6639963737228176,1.378044481428251,0.0,26.488065389730597,24.587894444226592,462.73442175252956,455.0347891334766,0.0
0.084,6.607539489156814,-3.4451768054218226,2.6110667234159006,0.0,26.64037778003937,24.396470169915965,458.5172516232179,455.0347891334766,0.0
0.085,6.185379359417883,-3.1966800534159434,4.6848271631743295,0.0,26.733170056848568,24.495764916998922,453.122276729192,455.0347891334766,0.0
0.08600000000000001,6.0180845384165025,-2.9673318815655616,7.401439734230122,0.0,26.80386924930165,24.886680024485816,451.27421062386736,455.0347891334766,0.0
0.08700000000000001,6.133240408954909,-2.7713108094008985,8.363078571988524,0.0,26.887321197038514,25.309847592942962,453.0554911304565,455.0347891334766,0.0
0.088,6.381563852657548,-2.5999398939462512,7.492231298724147,0.0,26.98785411686903,25.567469990789505,438.26268184799375,455.0347891334766,0.0
0.089,6.638559917043129,-2.374275459324387,10.0,0.0,27.080986605847304,26.068160138062048,428.1705895702898,455.0347891334766,0.0
0.09,7.097586470958924,-2.1079122660559606,10.0,0.0,27.187831553741688,26.45509387220552,427.46388813225514,455.0347891334766,0.0
0.091,7.551496629293272,-1.8860862938837424,10.0,0.0,27.300948155254723,26.768678875846465,408.6528845446432,455.0347891334766,0.0
0.092,8.047315143418839,-1.5928991718639698,10.0,0.0,27.404079273280093,27.01221610430415,405.3542482575635,455.0347891334766,0.0
0.093,8.529031453094039,-1.3118189258702468,10.0,0.0,27.493264046509584,27.193682112795592,388.8447993044479,455.0347891334766,0.0
0.094,9.032033995495901,-0.990932285657717,10.0,0.0,27.559190215301832,27.31540688119338,376.2132604661547,455.0347891334766,0.0
0.095,9.502562891209372,-0.7224259511006346,10.0,0.0,27.604369413655483,27.384823636526164,388.9330112411984,455.0347891334766,0.0
0.096,9.778870950602409,-0.7688048474795379,10.0,0.0,27.659759109654296,27.426128038584924,403.11956565029783,455.0347891334766,0.0
0.097,9.823454348826072,-1.1147335811688155,10.0,0.0,27.75132864800112,27.46669987682701,418.07487705655114,455.0347891334766,0.0
0.098,9.796632412740175,-1.4889266428662866,10.0,0.0,27.87550036578733,27.515767732031275,433.3147857760293,455.0347891334766,0.0
0.099,9.670267759702792,-1.9389007331434325,10.0,0.0,28.037916916628824,27.58597786596696,447.01308517448547,455.0347891334766,0.0
0.1,9.516836344099513,-2.3438620281172096,10.0,0.0,28.23115882732411,27.68102245077923,469.81835076111406,455.0347891334766,0.0
0.101,9.297499043127027,-2.77184744342786,-0.3731934680988278,0.0,28.457609788165513,26.66742827563987,471.8627614409987,455.0347891334766,0.0
0.10200000000000001,8.497026823788953,-2.896577248822798,-1.5636785311163814,0.0,28.569496659849175,25.8364757629651,477.24721726152814,455.0347891334766,0.0
0.10300000000000001,7.610663342548842,-2.9019759094053033,-4.478030722661602,0.0,28.58644614770712,24.880628559029418,479.76822723186706,455.0347891334766,0.0
0.10400000000000001,6.654407109944159,-2.8071560685745447,-5.985870088814969,0.0,28.495631797288503,23.981666766685784,478.0607431675163,455.0347891334766,0.0
0.105,5.753496394865376,-2.632234115278302,-5.362387596979991,0.0,28.3057094862231,23.336718802630653,473.6923092184039,455.0347891334766,0.0
0.106,5.0463720296357835,-2.4452382477478665,-3.364745823273071,0.0,28.051464283963337,23.019553747088374,467.2691546947654,455.0347891334766,0.0
0.107,4.612584095195476,-2.292318133811544,-0.2755122170667015,0.0,27.775975842517628,23.069165384956126,460.3408251484587,455.0347891334766,0.0
0.108,4.495403347767148,-2.1917863174295062,3.135592195936834,0.0,27.523468110340612,23.439148167133567,452.8173428503571,455.0347891334766,0.0
0.109,4.671610310126128,-2.148894035632075,6.919507807818834,0.0,27.32949659676514,24.10844699771877,447.18692118021585,455.0347891334766,0.0
0.11,5.1302464956051255,-2.133441251069359,9.813197322422058,0.0,27.220581234121816,24.92319757359634,449.6415205381035,455.0347891334766,0.0
0.111,5.756966879913584,-2.1496620692740183,8.639830329431952,0.0,27.205971283178716,25.423221410827743,439.6357302107912,455.0347891334766,0.0
0.112,6.292756229772216,-2.0948147299063384,10.0,0.0,27.236629295540574,25.980464578292704,425.826503088825,455.0347891334766,0.0
0.113,6.904179081696462,-1.9192508874547745,10.0,0.0,27.301182274136746,26.409548913328607,425.4371742090658,455.0347891334766,0.0
0.114,7.463691814207285,-1.731002276739551,10.0,0.0,27.383236679622733,26.74674794066358,407.5968435471718,455.0347891334766,0.0
0.115,8.01169342064026,-1.4817652418692622,10.0,0.0,27.465271959565044,27.003747456431142,404.35017710734786,455.0347891334766,0.0
0.116,8.538055430803464,-1.2126214672671187,10.0,0.0,27.53769021823235,27.190830743562557,386.5438902218843,455.0347891334766,0.0
0.117,9.061203731926984,-0.9146937187212347,10.0,0.0,27.591494365152016,27.314164834825604,374.63681954998845,455.0347891334766,0.0
0.11800000000000001,9.548221638593004,-0.6571780982637243,10.0,0.0,27.626904065741172,27.382205444932282,397.3506082594034,455.0347891334766,0.0
0.11900000000000001,9.77386752558297,-0.8023503117160793,10.0,0.0,27.684120956966428,27.42703209558499,404.21648372882004,455.0347891334766,0.0
0.12,9.818588412689067,-1.1503384731004633,10.0,0.0,27.776925799752163,27.47043493158315,422.08984781739474,455.0347891334766,0.0
0.121,9.756867227711965,-1.5808579618411374,10.0,0.0,27.90866770400679,27.526014507478628,434.3661429633808,455.0347891334766,0.0
0.122,9.65446767914974,-1.9825837956449148,10.0,0.0,28.0726780222565,27.599857054702092,454.87870709307276,455.0347891334766,0.0
0.123,9.469455956642038,-2.4314152861621854,6.7431287044020065,0.0,28.27302576902245,27.34378783050262,463.00979039164395,455.0347891334766,0.0
0.124,9.084026351772598,-2.752384857537476,2.5978370425347403,0.0,28.458550156637962,26.750494072860842,473.98901653887077,455.0347891334766,0.0
0.125,8.435424295781154,-2.937065270503191,-3.081318305132614,0.0,28.58329787944023,25.71931988823041,478.7674165218186,455.0347891334766,0.0
0.126,7.49672152917912,-2.917871395967912,-5.707844570489936,0.0,28.58849528117069,24.66838284239694,479.4184079727995,455.0347891334766,0.0
0.127,6.485111295245098,-2.7760149623149175,-6.277176484373635,0.0,28.472666969188275,23.788588091512942,477.0031324229779,455.0347891334766,0.0
0.128,5.585023737389212,-2.580432377853718,-5.289222142357842,0.0,28.260346493361503,23.18845181030449,472.049228772089,455.0347891334766,0.0
0.129,4.910285547545768,-2.392033095211263,-2.9824147132995202,0.0,27.990476341750494,22.936186708714676,465.41689693008806,455.0347891334766,0.0
0.13,4.529840702889535,-2.2479707565979665,0.22993012973484017,0.0,27.708403830720577,23.047552511579696,458.4876536878363,455.0347891334766,0.0
0.131,4.468677169225141,-2.1610211549958596,3.660023105317114,0.0,27.45755131829006,23.46768480219545,450.76368849826343,455.0347891334766,0.0
0.132,4.694919428894011,-2.129119914136728,7.564716706455686,0.0,27.27115764568567,24.190435694975776,446.91308727813947,455.0347891334766,0.0
0.133,5.201594001501547,-2.123965209305013,9.57123433507104,0.0,27.17543042449688,24.950470353963794,449.5207745597672,455.0347891334766,0.0
0.134,5.818859000187018,-2.131248193689889,8.322530839994279,0.0,27.16613206665639,25.404673860060207,435.9101374050762,455.0347891334766,0.0
0.135,6.337703351396393,-2.054056511887819,10.0,0.0,27.194619980367534,25.958635593668152,424.7061316831091,455.0347891334766,0.0
0.136,6.9497822395945645,-1.8657312255918201,10.0,0.0,27.25571141139382,26.381135019496647,423.0387307645573,455.0347891334766,0.0
0.137,7.502012446780862,-1.6889449589018704,10.0,0.0,27.33538040542739,26.71286911193642,404.94958350032937,455.0347891334766,0.0
0.138,8.060859949361236,-1.4264018884912795,10.0,0.0,27.41314403422331,26.96344577132358,400.4511198056225,455.0347891334766,0.0
0.139,8.578232553757026,-1.1762663380759708,10.0,0.0,27.483299486236785,27.145418616193897,385.7774479432633,455.0347891334766,0.0
0.14,9.110277184153812,-0.8680656972843221,10.0,0.0,27.533235962553007,27.262858538478834,375.76580949100344,455.0347891334766,0.0
0.14100000000000001,9.597948859516928,-0.6111552015373962,10.0,0.0,27.564744635341864,27.32522467818093,393.58455790473715,455.0347891334766,0.0
0.14200000000000002,9.75439824019974,-0.8613205017106951,10.0,0.0,27.629426342798578,27.372172356070227,408.02824214111826,455.0347891334766,0.0
0.14300000000000002,9.804054691980234,-1.1917384193656728,10.0,0.0,27.72617896523885,27.41699572102723,420.0262971766752,455.0347891334766,0.0
0.14400000000000002,9.729389361319507,-1.6316896260282445,10.0,0.0,27.862829115487145,27.475721762623042,436.40112695393367,455.0347891334766,0.0
0.145,9.6224245237698,-2.0296531548306107,10.0,0.0,28.031063330971822,27.55325969390798,454.6184996756554,455.0347891334766,0.0
0.146,9.428361906742023,-2.483232351895464,6.571161629944768,0.0,28.23614199442563,27.282972272404358,463.90671250550486,455.0347891334766,0.0
0.147,9.03202097629887,-2.792942986172965,1.8383359812997657,0.0,28.42321642718357,26.615555897924565,474.403434533914,455.0347891334766,0.0
