timestamp,iq,id,iq_ref,id_ref,vq,vd,omega,omega_ref,r
0.0,0.0,0.0,0.0,0.0,0.0,0.0,0.0,210.0427915365775,0.0
0.001,0.0,0.0,10.0,0.0,0.0,1.0999999999999999,6.115472199294103,210.0427915365775,0.0
0.002,0.5307369851907212,-0.2913212625381807,10.0,0.0,0.14204533887919985,1.9316189316290207,13.317801563642547,210.0427915365775,0.0
0.003,1.0842913387634832,-0.6024330830807904,10.0,0.0,0.384357124667687,2.6386968949419622,20.697939467553027,210.0427915365775,0.0
0.004,1.5590443546685477,-0.8700465084428163,10.0,0.0,0.6994718867930164,3.2526109522886295,28.232747544420146,210.0427915365775,0.0
0.005,1.9399447555359186,-1.0838738622210777,10.0,0.0,1.065311453102468,3.7994935661768023,35.92944872443006,210.0427915365775,0.0
0.006,2.239750732602683,-1.2510087368845633,10.0,0.0,1.4655018868449925,4.299102221838433,43.75633668444442,210.0427915365775,0.0
0.007,2.4770151619816017,-1.382020589851471,10.0,0.0,1.8883740978591532,4.765668027847139,51.58766747378032,210.0427915365775,0.0
0.008,2.6680767290418097,-1.4872241871505252,10.0,0.0,2.325877945545995,5.209220346273558,59.45942083902103,210.0427915365775,0.0
0.009000000000000001,2.8266491704841292,-1.5730794701170803,10.0,0.0,2.772378685460125,5.636635464737965,67.35059094018146,210.0427915365775,0.0
0.01,2.962077666392183,-1.645500646948331,10.0,0.0,3.224078639851053,6.052647735211881,75.20908322432116,210.0427915365775,0.0
0.011,3.0811061533574158,-1.7084279320504514,10.0,0.0,3.678407615443203,6.460489925470405,83.0265951655913,210.0427915365775,0.0
0.012,3.188848746459569,-1.7638278597420747,10.0,0.0,4.133552631697047,6.862319393890706,90.74118064793086,210.0427915365775,0.0
0.013000000000000001,3.288205119878689,-1.8140726097274587,10.0,0.0,4.588339016389012,7.259628641949282,98.35820682563939,210.0427915365775,0.0
0.014,3.3820602099432007,-1.8592355758795645,10.0,0.0,5.041843166194517,7.653355107498287,105.90865295623543,210.0427915365775,0.0
0.015,3.4721069852858886,-1.899829032412081,10.0,0.0,5.493383198131427,8.044092747085895,113.37727610343421,210.0427915365775,0.0
0.016,3.5596145800153947,-1.9360338400176071,10.0,0.0,5.94241958510469,8.43218525824161,120.68508583176356,210.0427915365775,0.0
0.017,3.645144415105338,-1.9685384477868613,10.0,0.0,6.388575043274759,8.817838951066484,127.83962377537456,210.0427915365775,0.0
0.018000000000000002,3.730251927866576,-1.9959253041084188,10.0,0.0,6.83136783302799,9.201036292373047,134.85405702603322,210.0427915365775,0.0
0.019,3.81544967906247,-2.018253592643655,10.0,0.0,7.270383321112213,9.581672501020332,141.68976328564074,210.0427915365775,0.0
0.02,3.9014648862453374,-2.0350875541282063,10.0,0.0,7.705189334130692,9.959536942333155,148.3432823300447,210.0427915365775,0.0
0.021,3.9891051824829464,-2.0457889559126508,10.0,0.0,8.135310004560049,10.334315260302239,154.92060212100432,210.0427915365775,0.0
0.022,4.079618141396171,-2.0489696811670974,10.0,0.0,8.560139305503519,10.705547790999272,161.01925282597162,210.0427915365775,0.0
0.023,4.171109372430197,-2.048468292080302,10.0,0.0,8.979521969370257,11.072981092896333,166.534238406907,210.0427915365775,0.0
0.024,4.266936196769627,-2.039517194249811,10.0,0.0,9.392730090169543,11.435983292623375,171.8647834235234,210.0427915365775,0.0
0.025,4.367255527950721,-2.0225841458509217,10.0,0.0,9.79914449451603,11.793929226271104,177.02637022703064,210.0427915365775,0.0
0.026000000000000002,4.4734353073349595,-1.9962166741499119,10.0,0.0,10.197980960389518,12.146045424568259,181.63161391243256,210.0427915365775,0.0
0.027,4.582366840795821,-1.966358349113627,10.0,0.0,10.589124658468391,12.491912978736195,185.74793639675826,210.0427915365775,0.0
0.028,4.700058850757774,-1.9240450691803936,10.0,0.0,10.971384864613876,12.830451341534015,189.43662766964098,210.0427915365775,0.0
0.029,4.820934284790598,-1.879137197786803,10.0,0.0,11.344756153370636,13.161242511022618,192.73598774770625,210.0427915365775,0.0
0.03,4.952016225740939,-1.821000614527957,10.0,0.0,11.707923484756042,13.483081433273819,195.59831968863915,210.0427915365775,0.0
0.031,5.086039273572549,-1.7621311371320891,10.0,0.0,12.061063698547066,13.79562148058647,197.80891551030922,210.0427915365775,0.0
0.032,5.230431844273564,-1.6911110488141978,10.0,0.0,12.40292038074925,14.097678592248165,200.4421589734679,210.0427915365775,0.0
0.033,5.380124186618445,-1.6166151787533525,9.238827975621827,0.0,12.733312761073865,14.304964506331379,201.52718556833284,210.0427915365775,0.0
0.034,5.499102486466188,-1.5118066329607536,8.78147073787181,0.0,13.040610513437768,14.470272801570218,203.4141451655295,210.0427915365775,0.0
0.035,5.587125546353281,-1.4079735339078385,7.904277402983958,0.0,13.323335764651265,14.549369594472285,198.83722110024894,210.0427915365775,0.0
0.036000000000000004,5.661808219947362,-1.2423330930274323,10.0,0.0,13.56851605252731,14.88079578872967,200.55004796186233,210.0427915365775,0.0
0.037,5.828743722950341,-1.1882598913413758,9.537213242128232,0.0,13.81802928326482,15.114117544418477,202.46631081896314,210.0427915365775,0.0
0.038,6.021856527666603,-1.092406422779503,8.654846620753972,0.0,14.055920216972517,15.23705293335094,197.88971327995887,210.0427915365775,0.0
0.039,6.165134711827163,-0.9796720015158753,10.0,0.0,14.270873344549312,15.51444494248124,205.25168290985022,210.0427915365775,0.0
0.04,6.318089885510277,-1.0014917209268055,7.410308920687446,0.0,14.495597873629293,15.471883223675807,212.29887368069492,210.0427915365775,0.0
0.041,6.303921277029234,-1.0106807733960035,3.864152713823918,0.0,14.694386376498233,15.094957956366795,210.8266251463592,210.0427915365775,0.0
0.042,6.050171545790501,-0.9726476762536791,4.592438644893968,0.0,14.831327971139036,14.918947864913376,218.15449322537046,210.0427915365775,0.0
0.043000000000000003,5.819217592000468,-0.9792387155324436,0.8473875885004043,0.0,14.938079742462499,14.377861904159893,216.80241073983058,210.0427915365775,0.0
0.044,5.438490174548063,-0.8906543996228078,1.4558326392378147,0.0,14.970237555435423,14.045509659141029,219.5594927721137,210.0427915365775,0.0
0.045,5.097063893758517,-0.8714355486738019,-0.017875389259115693,0.0,14.964716132163874,13.615165702991632,219.8135790460193,210.0427915365775,0.0
0.046,4.749637628973032,-0.8219985679434558,-0.2426264013063264,0.0,14.911466576233694,13.252121095408304,221.20713833465123,210.0427915365775,0.0
0.047,4.425113706304319,-0.8135514348319124,-1.0510495136030302,0.0,14.826802700303235,12.865600329603833,221.00201027274915,210.0427915365775,0.0
0.048,4.114652226973396,-0.7961864420207447,-1.0580776700137031,0.0,14.710127457507252,12.547481910204262,221.53449393274664,210.0427915365775,0.0
0.049,3.8427698861863204,-0.8045044323785593,-1.4392365239741425,0.0,14.574396525918386,12.234453058786778,221.43187077843143,210.0427915365775,0.0
0.05,3.593800340228965,-0.8167793902429745,-1.5018157392350755,0.0,14.422202867808169,11.960749700860497,221.237439178324,210.0427915365775,0.0
0.051000000000000004,3.3746123038248172,-0.8393907774384599,-1.5165464155988229,0.0,14.260222742729201,11.719823719213306,220.83065348918717,210.0427915365775,0.0
0.052000000000000005,3.184559731612719,-0.8693029715461813,-1.4210321905565073,0.0,14.093412259473304,11.516160097320519,220.35500600578806,210.0427915365775,0.0
0.053,3.0244056540212783,-0.905979548471836,-1.2863305935490552,0.0,13.92665176387447,11.34576024552475,219.82144564190142,210.0427915365775,0.0
0.054,2.8914757706866343,-0.9474560971142734,-1.1173369526589765,0.0,13.763722987237351,11.205987360267407,219.23978660738985,210.0427915365775,0.0
0.055,2.782841887340499,-0.9916921376663097,-0.9184773861113129,0.0,13.607560998712504,11.09470393011816,218.6361978233296,210.0427915365775,0.0
0.056,2.6959397070717896,-1.0369083586054546,-0.702617056948716,0.0,13.460418289923005,11.00916158566986,218.10175120362678,210.0427915365775,0.0
0.057,2.628405998156932,-1.0810582555678083,-0.5159833437677914,0.0,13.323839944024096,10.942389996123653,217.55434207129233,210.0427915365775,0.0
0.058,2.5756603362806976,-1.121829226393763,-0.3173942829477143,0.0,13.198285581581686,10.893742876217823,217.1722322663753,210.0427915365775,0.0
0.059000000000000004,2.53660528589697,-1.1569636195599056,-0.1976337877871739,0.0,13.083879016932954,10.852361394841239,216.4919313619904,210.0427915365775,0.0
0.06,2.5035398944474205,-1.1870364789401644,0.07802526615114358,0.0,12.979731631211605,10.836048938674661,215.58953505306957,210.0427915365775,0.0
0.061,2.4845902419608965,-1.2139190900698722,0.47375598544663733,0.0,12.887024097076187,10.853480585994745,214.66899916442642,210.0427915365775,0.0
0.062,2.4859317378528525,-1.2419197717483972,0.88776185348972,0.0,12.80814172995967,10.90114459238809,213.49342682884998,210.0427915365775,0.0
0.063,2.510041120293157,-1.2673858021765396,1.441041668355219,0.0,12.744435256724445,10.990236065275704,212.80562039627608,210.0427915365775,0.0
0.064,2.5620329771758525,-1.2932596437148196,1.7573165960451798,0.0,12.698600040366435,11.087827177015583,212.58716452104233,210.0427915365775,0.0
0.065,2.626711087380279,-1.3132415159397044,1.8411008038174108,0.0,12.669046724347565,11.17053449597006,214.3251268303363,210.0427915365775,0.0
0.066,2.686863545034626,-1.3214905582535061,0.9292962962328346,0.0,12.651427047758308,11.134909424275246,212.96023233536835,210.0427915365775,0.0
0.067,2.6796737189855704,-1.3055711450568244,1.582569135728904,0.0,12.630173205783715,11.183455354953335,209.30909015165741,210.0427915365775,0.0
0.068,2.705206708264905,-1.2785708766309491,3.4154772414335706,0.0,12.613088505679517,11.417227944517492,209.12239663160554,210.0427915365775,0.0
0.069,2.838818981866247,-1.2809780675577287,3.518027950509228,0.0,12.62162432822835,11.604424281852735,212.18084494612813,210.0427915365775,0.0
0.07,2.973929027591125,-1.2953935565472707,1.967423259152425,0.0,12.649587834135417,11.588636562275612,209.46835601143584,210.0427915365775,0.0
0.07100000000000001,3.006330775168449,-1.2661568121328999,3.329412081749986,0.0,12.66981602071858,11.740335690869948,204.68684447057032,210.0427915365775,0.0
0.07200000000000001,3.1067677697078944,-1.229565214526197,5.773727322842819,0.0,12.699458593210268,12.123418461633836,209.49217407920557,210.0427915365775,0.0
0.073,3.336646340808769,-1.2549780624324651,3.376568693098915,0.0,12.767606514774931,12.158744338012045,208.89564528270705,210.0427915365775,0.0
0.074,3.425212412160785,-1.2351576593416915,3.686304553886879,0.0,12.830037859001907,12.247951467755303,202.70532910969604,210.0427915365775,0.0
0.075,3.5195404212435077,-1.1694763493979001,6.8548372646611995,0.0,12.888120041717599,12.670431838238645,208.4528464479087,210.0427915365775,0.0
0.076,3.7712612043838942,-1.1827578556894125,3.9969780464415505,0.0,12.98475982200156,12.68367654277871,204.29758172325828,210.0427915365775,0.0
0.077,3.8629289812297802,-1.1426755374111284,6.1320625068999615,0.0,13.068518224637609,12.961132390104137,204.46844208778663,210.0427915365775,0.0
0.078,4.06313276059935,-1.095631048469718,6.102375819123694,0.0,13.166872301141815,13.173496374738457,205.28677115914272,210.0427915365775,0.0
0.079,4.23612274575432,-1.085311193533532,5.740771487219997,0.0,13.27596262930547,13.317952898354772,200.68539189992478,210.0427915365775,0.0
0.08,4.403206308089677,-1.012559592100198,8.135035113195492,0.0,13.380690099406088,13.709208552596827,204.54144209604885,210.0427915365775,0.0
0.081,4.660506701790049,-1.0287779822149714,6.262023509538742,0.0,13.516581926847804,13.815205268079053,199.5796471091943,210.0427915365775,0.0
0.082,4.839080343256206,-0.9547603825042729,8.847552447239853,0.0,13.641180123224252,14.21025969731664,202.63243087433307,210.0427915365775,0.0
0.083,5.107043057398833,-0.9663594960667556,7.3952641712929115,0.0,13.794840021375792,14.364971341395915,200.9636630540139,210.0427915365775,0.0
0.084,5.32152689606135,-0.8916336054841391,8.320439366278135,0.0,13.940269255020395,14.614956369978806,197.5918116216224,210.0427915365775,0.0
0.085,5.533411585897577,-0.8690867660902422,10.0,0.0,14.094421174731318,15.008823259332061,201.46240844749005,210.0427915365775,0.0
0.08600000000000001,5.844566703172381,-0.8528879378753835,8.278762801948014,0.0,14.270988188696785,15.140478737596284,202.1194752059938,210.0427915365775,0.0
0.08700000000000001,6.036714543782291,-0.816165022330735,8.029462586001971,0.0,14.43918651666436,15.248390006362742,205.75746594389926,210.0427915365775,0.0
0.088,6.0908124642020045,-0.9102560917737758,6.253320472976027,0.0,14.61207338550601,15.165418057935849,215.09682646074162,210.0427915365775,0.0
0.089,6.032087398726733,-0.9475903615051542,1.5330998653132042,0.0,14.76254023159682,14.613569881929632,211.62645280035443,210.0427915365775,0.0
0.09,5.691710894887838,-0.8779717124808133,3.252450082869033,0.0,14.834744181387942,14.405138102908424,217.3225486671461,210.0427915365775,0.0
0.091,5.4228656792691625,-0.8841626434399918,0.3316045781675143,0.0,14.880261747193575,13.91245259775538,216.38126318588613,210.0427915365775,0.0
0.092,5.066440833375095,-0.8148161199389824,0.7388626023044118,0.0,14.864268979008642,13.58411251829244,218.32116356031125,210.0427915365775,0.0
0.093,4.747401757675075,-0.8078991813453978,-0.313871305145486,0.0,14.816974081685633,13.198663909764504,218.4452799534453,210.0427915365775,0.0
0.094,4.4364013779235965,-0.7831296803929427,-0.45995438588118676,0.0,14.733208337523283,12.872508523566298,219.60698647972643,210.0427915365775,0.0
0.095,4.152285030988841,-0.7901248995899554,-1.1364495984532441,0.0,14.626220798278549,12.525781253361414,219.46564442075905,210.0427915365775,0.0
0.096,3.879313991543563,-0.790588756939095,-1.1600070978113686,0.0,14.495240358054232,12.234387234318506,219.74656572443152,210.0427915365775,0.0
0.097,3.638309745579085,-0.8082074953579294,-1.3975054915261444,0.0,14.350151982600647,11.956926081504053,219.55529149199486,210.0427915365775,0.0
0.098,3.419618827655576,-0.8304859831516418,-1.3969933748619905,0.0,14.194100775684088,11.716779481707832,219.27264845281158,210.0427915365775,0.0
0.099,3.2291528055268404,-0.8604941507338988,-1.347970424432689,0.0,14.032718143035673,11.509194177835086,218.87242399923784,210.0427915365775,0.0
0.1,3.0659544386086424,-0.8965447718191725,-1.2361545222724217,0.0,13.870380729908387,11.334085820957823,218.40353407029855,210.0427915365775,0.0
0.101,2.9288257159937476,-0.9371696580190961,-1.085316983139987,0.0,13.710874453677235,11.189180704556978,217.88513227207446,210.0427915365775,0.0
0.10200000000000001,2.8154801973961394,-0.9807092487727678,-0.904539491382911,0.0,13.557211399550027,11.072289340694647,217.33545542599708,210.0427915365775,0.0
0.10300000000000001,2.7235464237237563,-1.025474103702686,-0.702627707238419,0.0,13.411714252584057,10.981102589062132,216.8520882133059,210.0427915365775,0.0
0.10400000000000001,2.650930638739739,-1.0695229316371901,-0.5290370676601146,0.0,13.276045867674927,10.908629049019966,216.35234547786126,210.0427915365775,0.0
0.105,2.593075120886002,-1.110596771860397,-0.342261239350631,0.0,13.150774601397707,10.854283408323429,215.92683128558016,210.0427915365775,0.0
0.106,2.548746611148883,-1.1466910875071705,-0.18834454070010764,0.0,13.036155533997462,10.812205864529833,215.43150812656648,210.0427915365775,0.0
0.107,2.513749196015334,-1.177629521410255,0.00542987290684227,0.0,12.931832903530758,10.786056617453154,214.5983183205031,210.0427915365775,0.0
0.108,2.4883380539062623,-1.2051167688559978,0.37646950809928015,0.0,12.838041824283053,10.793411899253229,213.7411184230186,210.0427915365775,0.0
0.109,2.4823599752189827,-1.2324089803566514,0.768086187977115,0.0,12.757092651930744,10.83042346061768,212.6708191677096,210.0427915365775,0.0
0.11,2.497665266339028,-1.258516056017089,1.2769555393202991,0.0,12.69053840915775,10.905955047649345,211.81189315495521,210.0427915365775,0.0
0.111,2.5395167046626934,-1.284119861716825,1.688727529513713,0.0,12.640748097235589,11.00303367180398,211.33600862927685,210.0427915365775,0.0
0.112,2.6000741211072778,-1.3068543138585036,1.913737621425903,0.0,12.607889430599695,11.09981599113368,212.5796410320349,210.0427915365775,0.0
0.113,2.666744109713478,-1.31946357056516,1.2665529250922956,0.0,12.589154536276677,11.103465669768767,213.1549425840092,210.0427915365775,0.0
0.114,2.679667304348795,-1.3168834111124617,0.947780638630833,0.0,12.57224818914261,11.075528935036797,209.35847642906907,210.0427915365775,0.0
0.115,2.6716450359599517,-1.2793017986537003,2.8528568671759844,0.0,12.550130627472809,11.262453028538323,207.21103142316917,210.0427915365775,0.0
0.116,2.7687294373107214,-1.2717101885241016,3.954896971260016,0.0,12.548457970330475,11.519887098854031,210.3520477130555,210.0427915365775,0.0
0.117,2.928611176488096,-1.2978830155406123,2.3812962645520748,0.0,12.575650913007054,11.550677870349217,210.6287076753814,210.0427915365775,0.0
0.11800000000000001,2.9902998083207035,-1.2867546601068267,2.237107122001082,0.0,12.601717791197618,11.575797128239207,205.44593107394752,210.0427915365775,0.0
0.11900000000000001,3.0326125971454188,-1.2339562423599812,4.874464027344325,0.0,12.621993364960307,11.88852477872012,206.73734432836113,210.0427915365775,0.0
0.12,3.2147883732655105,-1.22872343837835,4.261811872219683,0.0,12.671466522134306,12.05862570792711,209.6304710265371,210.0427915365775,0.0
0.121,3.356793447814446,-1.2298462620497401,2.819371728232106,0.0,12.733178295155277,12.05032316520423,203.39304039234332,210.0427915365775,0.0
0.122,3.409950333704037,-1.169276757862923,6.0045845567713325,0.0,12.781214762904595,12.40939265993256,205.26181047558202,210.0427915365775,0.0
0.123,3.6261725070716735,-1.1571692415966142,5.118009325761937,0.0,12.85962840160439,12.584730578055023,206.4664763486885,210.0427915365775,0.0
0.124,3.7831530023092976,-1.1548157808122677,4.551439541087589,0.0,12.947596662722834,12.681813511488667,200.36414537423587,210.0427915365775,0.0
0.125,3.909720963393653,-1.090516722722718,7.6993914899373195,0.0,13.029427029290796,13.117572719144103,205.95705154978396,210.0427915365775,0.0
0.126,4.180134920568941,-1.1072065360051637,4.9437958020312145,0.0,13.149129150009468,13.154864141854185,199.91380162518783,210.0427915365775,0.0
0.127,4.304655385936432,-1.0519072729741878,8.066710663443175,0.0,13.254340383861047,13.56048011438083,204.60947473932782,210.0427915365775,0.0
0.128,4.571225068570482,-1.0449082136684449,5.773207274345674,0.0,13.389375187686817,13.624463631189057,198.3996623114994,210.0427915365775,0.0
0.129,4.71275580271747,-0.9818366824117655,8.99454478051066,0.0,13.510436984965647,14.059931752338336,203.30787365558734,210.0427915365775,0.0
0.13,4.999133559712738,-0.9850087364988849,6.6077882872765965,0.0,13.663919055893674,14.139116405855155,198.05592668493162,210.0427915365775,0.0
0.131,5.170717842940634,-0.9065221191727613,9.353630421120918,0.0,13.801306136633837,14.535630507183201,200.28754201805205,210.0427915365775,0.0
0.132,5.4427873206546975,-0.9104782203148927,8.335375249745956,0.0,13.965825956731686,14.7385536165465,200.92459465672852,210.0427915365775,0.0
0.133,5.683355899692041,-0.8466216052293858,8.108030899206215,0.0,14.127122317085252,14.89906922122067,194.00149917225556,210.0427915365775,0.0
0.134,5.875433320249422,-0.7842073458931547,10.0,0.0,14.282113599494746,15.25133011558455,205.8674569890194,210.0427915365775,0.0
0.135,6.077799686832439,-0.8892608997031994,5.804166170877861,0.0,14.469011876612146,15.083063110423058,209.13837276214065,210.0427915365775,0.0
0.136,6.0322150952139415,-0.9012062499598181,4.1777524720615995,0.0,14.620657078491789,14.820403433654754,209.45802766452195,210.0427915365775,0.0
0.137,5.828425439319423,-0.9102610003054081,4.023772659591504,0.0,14.73174836154208,14.620461618599906,217.12885210351652,210.0427915365775,0.0
0.138,5.621597561509268,-0.9122488017758059,0.11749983442482836,0.0,14.811864445440143,14.044186070712115,214.0232975688803,210.0427915365775,0.0
0.139,5.226491151298858,-0.8380322233559436,1.6304720414199063,0.0,14.818157664518733,13.780432783369077,218.29829389143896,210.0427915365775,0.0
