timestamp,iq,id,iq_ref,id_ref,vq,vd,omega,omega_ref,r
0.0,0.0,0.0,0.0,0.0,0.0,0.0,0.0,453.95468224627473,0.0
0.001,0.0,0.0,10.0,0.0,0.0,1.0999999999999999,6.115472199294103,453.95468224627473,0.0
0.002,0.5307369851907212,-0.2913212625381807,10.0,0.0,0.14204533887919985,1.9316189316290207,13.317801563642547,453.95468224627473,0.0
0.003,1.0842913387634832,-0.6024330830807904,10.0,0.0,0.384357124667687,2.6386968949419622,20.697939467553027,453.95468224627473,0.0
0.004,1.5590443546685477,-0.8700465084428163,10.0,0.0,0.6994718867930164,3.2526109522886295,28.232747544420146,453.95468224627473,0.0
0.005,1.9399447555359186,-1.0838738622210777,10.0,0.0,1.065311453102468,3.7994935661768023,35.92944872443006,453.95468224627473,0.0
0.006,2.239750732602683,-1.2510087368845633,10.0,0.0,1.4655018868449925,4.299102221838433,43.75633668444442,453.95468224627473,0.0
0.007,2.4770151619816017,-1.382020589851471,10.0,0.0,1.8883740978591532,4.765668027847139,51.58766747378032,453.95468224627473,0.0
0.008,2.6680767290418097,-1.4872241871505252,10.0,0.0,2.325877945545995,5.209220346273558,59.45942083902103,453.95468224627473,0.0
0.009000000000000001,2.8266491704841292,-1.5730794701170803,10.0,0.0,2.772378685460125,5.636635464737965,67.35059094018146,453.95468224627473,0.0
0.01,2.962077666392183,-1.645500646948331,10.0,0.0,3.224078639851053,6.052647735211881,75.20908322432116,453.95468224627473,0.0
0.011,3.0811061533574158,-1.7084279320504514,10.0,0.0,3.678407615443203,6.460489925470405,83.0265951655913,453.95468224627473,0.0
0.012,3.188848746459569,-1.7638278597420747,10.0,0.0,4.133552631697047,6.862319393890706,90.74118064793086,453.95468224627473,0.0
0.013000000000000001,3.288205119878689,-1.8140726097274587,10.0,0.0,4.588339016389012,7.259628641949282,98.35820682563939,453.95468224627473,0.0
0.014,3.3820602099432007,-1.8592355758795645,10.0,0.0,5.041843166194517,7.653355107498287,105.90865295623543,453.95468224627473,0.0
0.015,3.4721069852858886,-1.899829032412081,10.0,0.0,5.493383198131427,8.044092747085895,113.37727610343421,453.95468224627473,0.0
0.016,3.5596145800153947,-1.9360338400176071,10.0,0.0,5.94241958510469,8.43218525824161,120.68508583176356,453.95468224627473,0.0
0.017,3.645144415105338,-1.9685384477868613,10.0,0.0,6.388575043274759,8.817838951066484,127.83962377537456,453.95468224627473,0.0
0.018000000000000002,3.730251927866576,-1.9959253041084188,10.0,0.0,6.83136783302799,9.201036292373047,134.85405702603322,453.95468224627473,0.0
0.019,3.81544967906247,-2.018253592643655,10.0,0.0,7.270383321112213,9.581672501020332,141.68976328564074,453.95468224627473,0.0
0.02,3.9014648862453374,-2.0350875541282063,10.0,0.0,7.705189334130692,9.959536942333155,148.3432823300447,453.95468224627473,0.0
0.021,3.9891051824829464,-2.0457889559126508,10.0,0.0,8.135310004560049,10.334315260302239,154.92060212100432,453.95468224627473,0.0
0.022,4.079618141396171,-2.0489696811670974,10.0,0.0,8.560139305503519,10.705547790999272,161.01925282597162,453.95468224627473,0.0
0.023,4.171109372430197,-2.048468292080302,10.0,0.0,8.979521969370257,11.072981092896333,166.534238406907,453.95468224627473,0.0
0.024,4.266936196769627,-2.039517194249811,10.0,0.0,9.392730090169543,11.435983292623375,171.8647834235234,453.95468224627473,0.0
0.025,4.367255527950721,-2.0225841458509217,10.0,0.0,9.79914449451603,11.793929226271104,177.02637022703064,453.95468224627473,0.0
0.026000000000000002,4.4734353073349595,-1.9962166741499119,10.0,0.0,10.197980960389518,12.146045424568259,181.63161391243256,453.95468224627473,0.0
0.027,4.582366840795821,-1.966358349113627,10.0,0.0,10.589124658468391,12.491912978736195,185.74793639675826,453.95468224627473,0.0
0.028,4.700058850757774,-1.9240450691803936,10.0,0.0,10.971384864613876,12.830451341534015,189.43662766964098,453.95468224627473,0.0
0.029,4.820934284790598,-1.879137197786803,10.0,0.0,11.344756153370636,13.161242511022618,192.73598774770625,453.95468224627473,0.0
0.03,4.952016225740939,-1.821000614527957,10.0,0.0,11.707923484756042,13.483081433273819,195.59831968863915,453.95468224627473,0.0
0.031,5.086039273572549,-1.7621311371320891,10.0,0.0,12.061063698547066,13.79562148058647,197.80891551030922,453.95468224627473,0.0
0.032,5.230431844273564,-1.6911110488141978,10.0,0.0,12.40292038074925,14.097678592248165,200.4421589734679,453.95468224627473,0.0
0.033,5.380124186618445,-1.6166151787533525,10.0,0.0,12.733312761073865,14.38869342901298,201.91742172589852,453.95468224627473,0.0
0.034,5.537594793894332,-1.535029134414507,10.0,0.0,13.051537880865839,14.667821176756876,203.18880493813168,453.95468224627473,0.0
0.035,5.698947813469154,-1.4530296333491768,10.0,0.0,13.357649178779205,14.934684535625108,203.60405746232266,453.95468224627473,0.0
0.036000000000000004,5.870474243492053,-1.3603000477825025,10.0,0.0,13.65045542338638,15.188218311291084,204.28541056101804,453.95468224627473,0.0
0.037,6.041188711220851,-1.275010780747051,10.0,0.0,13.930879897581198,15.42861600670124,205.2233356988433,453.95468224627473,0.0
0.038,6.228175208801664,-1.168399557236846,10.0,0.0,14.196427351981786,15.654155009933262,200.35169734043586,453.95468224627473,0.0
0.039,6.404895489618571,-1.0845312562500289,10.0,0.0,14.449814560392067,15.86612549236809,209.64773540576442,453.95468224627473,0.0
0.04,6.534612624563911,-1.0851225869390002,10.0,0.0,14.699963825590459,16.069735965364643,218.170241886545,453.95468224627473,0.0
0.041,6.621487035821765,-1.1484636683301073,10.0,0.0,14.952420817214799,16.26974130369247,220.68166573712315,453.95468224627473,0.0
0.042,6.6704785161669795,-1.2647840534085386,10.0,0.0,15.211794475054209,16.47047148862455,233.10654395573727,453.95468224627473,0.0
0.043000000000000003,6.709376245503157,-1.3867642159960276,10.0,0.0,15.477558399636717,16.673277185423842,235.10815372853793,453.95468224627473,0.0
0.044,6.744196093263161,-1.5028656568708394,10.0,0.0,15.74857785831126,16.87893749904121,248.8181267625822,453.95468224627473,0.0
0.045,6.750563942850831,-1.6564343609015326,10.0,0.0,16.02879294551472,17.090781462187255,251.61117095327992,453.95468224627473,0.0
0.046,6.764566527560506,-1.7840489455190416,10.0,0.0,16.314672837580048,17.307985931916857,266.60539535969383,453.95468224627473,0.0
0.047,6.752169677737121,-1.9446655565152717,10.0,0.0,16.610076868775216,17.533561623207692,270.0627790167984,453.95468224627473,0.0
0.048,6.7291903821171735,-2.110358990489937,10.0,0.0,16.91511817760721,17.768523902508925,283.13731951482634,453.95468224627473,0.0
0.049,6.714097190323873,-2.246352557911731,10.0,0.0,17.22645394156277,18.011924542904307,294.70561782835244,453.95468224627473,0.0
0.05,6.666841209228205,-2.4219663531358275,10.0,0.0,17.548953774962747,18.267165921658286,300.1294548425776,453.95468224627473,0.0
0.051000000000000004,6.612335516543512,-2.59336894353628,10.0,0.0,17.88182590988993,18.53465621226123,310.75154600411304,453.95468224627473,0.0
0.052000000000000005,6.568447424188529,-2.726701034625408,10.0,0.0,18.22111236450049,18.81296732052879,322.35703405819294,453.95468224627473,0.0
0.053,6.5036136539679195,-2.8764091099274185,10.0,0.0,18.569435851849082,19.104068797231378,330.9557012510771,453.95468224627473,0.0
0.054,6.434362099984388,-3.0149932598739144,10.0,0.0,18.925784313874168,19.407861808234543,339.4707232587175,453.95468224627473,0.0
0.055,6.370891759459199,-3.1253006473392393,10.0,0.0,19.28762520191878,19.723199586257838,348.00092263299223,453.95468224627473,0.0
0.056,6.314459991163816,-3.2071523724558277,10.0,0.0,19.65271639484943,20.048760466390505,356.29964302226927,453.95468224627473,0.0
0.057,6.266092078485367,-3.262894600420583,10.0,0.0,20.01916768432525,20.383030530514645,362.98468703488817,453.95468224627473,0.0
0.058,6.234656406121481,-3.2830044001420036,10.0,0.0,20.38405550695561,20.723492962007192,368.0316803659419,453.95468224627473,0.0
0.059000000000000004,6.228510489334133,-3.2600491726267444,10.0,0.0,20.743774617448285,21.0667596267365,372.35801287012686,453.95468224627473,0.0
0.06,6.247959954981508,-3.201438289803519,10.0,0.0,21.095630838529225,21.40947063565305,373.88739853789605,453.95468224627473,0.0
0.061,6.298571070969623,-3.1064761741463998,10.0,0.0,21.436712814499675,21.747723437683817,371.47602194372377,453.95468224627473,0.0
0.062,6.38094735961424,-2.982369480030801,10.0,0.0,21.76480975788002,22.077703876517536,366.2922057853833,453.95468224627473,0.0
0.063,6.53566146196873,-2.7695519558602215,10.0,0.0,22.070926190088084,22.39130117743337,372.07145994459506,453.95468224627473,0.0
0.064,6.708566607552835,-2.560747003310555,10.0,0.0,22.35695033962817,22.686677966487718,365.1882535794375,453.95468224627473,0.0
0.065,6.897199383751794,-2.3667028673086685,10.0,0.0,22.62465294768497,22.962098937664592,356.7297130485294,453.95468224627473,0.0
0.066,7.167218997264825,-2.0824440278168583,10.0,0.0,22.863799361069702,23.20893224280502,357.7888817172531,453.95468224627473,0.0
0.067,7.423387055578651,-1.859201647307153,10.0,0.0,23.082000390168847,23.42951856849048,345.1266644280509,453.95468224627473,0.0
0.068,7.736929428236853,-1.5824320316278497,10.0,0.0,23.27222771500701,23.617938384108047,342.9584987314189,453.95468224627473,0.0
0.069,8.04132723792414,-1.3546495884062866,10.0,0.0,23.43998591632552,23.77619061530866,334.2677598047511,453.95468224627473,0.0
0.07,8.395997401416553,-1.0747195592463576,10.0,0.0,23.578279041856877,23.89942370363377,322.7417355360636,453.95468224627473,0.0
0.07100000000000001,8.726669482066718,-0.8579631993863083,10.0,0.0,23.694022264374595,23.99133556844291,337.9106389559309,453.95468224627473,0.0
0.07200000000000001,8.91385728821635,-0.8925675486457335,10.0,0.0,23.81335639313859,24.06834663115294,344.8606079910171,453.95468224627473,0.0
0.073,8.941721008651788,-1.1508071676799903,10.0,0.0,23.95651852989837,24.148396869281978,362.43451347602996,453.95468224627473,0.0
0.074,8.927907180207171,-1.4305443375681337,10.0,0.0,24.121558169292424,24.236556455607346,368.59250641149885,453.95468224627473,0.0
0.075,8.859340450140312,-1.7499202918046703,10.0,0.0,24.31124378664675,24.33980824926249,387.10067316750514,453.95468224627473,0.0
0.076,8.767176841935807,-2.0562826706616475,10.0,0.0,24.52279212376306,24.461155754889383,396.7190369145668,453.95468224627473,0.0
0.077,8.62162972262067,-2.4016532593838043,10.0,0.0,24.76024751870129,24.606611890707832,408.83095327273656,453.95468224627473,0.0
0.078,8.47560200325128,-2.694417929744825,10.0,0.0,25.017253395580042,24.77587553037574,428.2762610097064,453.95468224627473,0.0
0.079,8.289593068490031,-3.001970310780605,10.0,0.0,25.296388163948027,24.972914099394785,438.0404594767293,453.95468224627473,0.0
0.08,8.078425759776728,-3.30171273584331,10.0,0.0,25.597209455327665,25.19953060295957,447.87571303424875,453.95468224627473,0.0
0.081,7.882675762310951,-3.525181384717318,9.736331185041148,0.0,25.912194395051312,25.423984842294455,460.0018553327215,453.95468224627473,0.0
0.082,7.674160683067067,-3.6950956431734343,3.6127883049403016,0.0,26.234582146677546,25.007518281748908,464.8221132802429,453.95468224627473,0.0
0.083,7.160857167417598,-3.6430134633903686,1.0939850208399289,0.0,26.475656284725886,24.503482455899494,462.11155306924985,453.95468224627473,0.0
0.084,6.559702585000897,-3.4178971758506114,2.3676964181066964,0.0,26.61797745655291,24.30024788188955,457.7213367690713,453.95468224627473,0.0
0.085,6.130605473137278,-3.165739871735351,4.525138022968013,0.0,26.70025691321895,24.397339481506208,452.156474450741,453.95468224627473,0.0
0.08600000000000001,5.962166436480413,-2.9384202817899334,7.325551260088507,0.0,26.761534002327217,24.793658229776064,449.94089999263633,453.95468224627473,0.0
0.08700000000000001,6.082496329203574,-2.7464594832883478,8.47347631167721,0.0,26.837472765415924,25.239819756867195,452.04018444904403,453.95468224627473,0.0
0.088,6.347197650175083,-2.5813519812817045,7.4429790614456675,0.0,26.934191587669154,25.4962112131371,437.8276591516644,453.95468224627473,0.0
0.089,6.605924804189856,-2.365919653063311,10.0,0.0,27.024831192240093,26.002399708016714,426.91472920983915,453.95468224627473,0.0
0.09,7.068610999682583,-2.1052569386617157,10.0,0.0,27.13050711053991,26.39315489451586,426.7300920519683,453.95468224627473,0.0
0.091,7.527448623555776,-1.8832595275860067,10.0,0.0,27.242877867585342,26.70955687752396,408.1590434773358,453.95468224627473,0.0
0.092,8.02128017888342,-1.5978978654591542,10.0,0.0,27.34648193850385,26.955822643088478,405.11348477521005,453.95468224627473,0.0
0.093,8.505788459822506,-1.3148848181137938,10.0,0.0,27.436074360300243,27.139464643838377,387.9643117803297,453.95468224627473,0.0
0.094,9.006149891007253,-0.9991316308874665,10.0,0.0,27.50316901987054,27.26350701207199,376.0385589393571,453.95468224627473,0.0
0.095,9.475023889853208,-0.7334610463128519,10.0,0.0,27.54989221787622,27.335282083878063,388.79642319290167,453.95468224627473,0.0
0.096,9.75511324907111,-0.774787198933863,10.0,0.0,27.606323185896013,27.378430878778587,402.14178783017957,453.95468224627473,0.0
0.097,9.823601149228763,-1.0817047951502294,10.0,0.0,27.694773610661443,27.41817511556587,416.12001977277583,453.95468224627473,0.0
0.098,9.771406506640744,-1.5012926983724224,10.0,0.0,27.821438910021357,27.469216260837243,430.83989473311266,453.95468224627473,0.0
0.099,9.677967175653794,-1.8978819159704896,10.0,0.0,27.979970728875976,27.537576201500144,449.90860214101434,453.95468224627473,0.0
0.1,9.498895119110978,-2.349536794591976,9.16057425902449,0.0,28.1752015043838,27.541380031384744,460.8447973296959,453.95468224627473,0.0
0.101,9.251730136442397,-2.7313455144772947,3.6235755138495005,0.0,28.38877199573049,26.989048378800298,473.29386934974605,453.95468224627473,0.0
0.10200000000000001,8.662752485955188,-2.9604490121993363,-2.794352367210289,0.0,28.54713557023462,25.925020752871042,477.65029495142994,453.95468224627473,0.0
0.10300000000000001,7.723019109263799,-2.950840287919738,-5.209521295103788,0.0,28.57991203004744,24.879223838658618,479.32774366937304,453.95468224627473,0.0
0.10400000000000001,6.7032770513610185,-2.8214789570627383,-6.301976268306317,0.0,28.490697493306257,23.948040196677773,477.54889427465184,453.95468224627473,0.0
0.105,5.762362228681668,-2.6285168013065907,-5.6484936912294925,0.0,28.297353822216504,23.277164308347068,473.1126911709532,453.95468224627473,0.0
0.106,5.0294759536914775,-2.429840391590347,-3.6219722286269613,0.0,28.03633214589144,22.941632518878098,466.6673826910098,453.95468224627473,0.0
0.107,4.578411559983717,-2.271912807388309,-0.5264449931025945,0.0,27.752474188086914,22.97608274256311,459.654450840637,453.95468224627473,0.0
0.108,4.449266826875878,-2.1692464308589505,2.9230232461401586,0.0,27.490733022855125,23.336883658765426,452.2197599777912,453.95468224627473,0.0
0.109,4.618006722131342,-2.12732303230683,6.657717900247893,0.0,27.287661155691325,23.991899260574577,446.15321511865045,453.95468224627473,0.0
0.11,5.066967366321812,-2.1145738203735167,9.769005001094524,0.0,27.169414856097667,24.81830247813008,448.4737569287833,453.95468224627473,0.0
0.111,5.698707220509214,-2.13452136443113,8.663543349203014,0.0,27.1479552301846,25.33252531373543,439.84142468211985,453.95468224627473,0.0
0.112,6.240094500103593,-2.091469979296532,10.0,0.0,27.17512872261799,25.89800954908202,425.0826725219204,453.95468224627473,0.0
0.113,6.854489745046149,-1.926706041110708,10.0,0.0,27.238439769993605,26.334128539481565,425.21265967641824,453.95468224627473,0.0
0.114,7.420747141498903,-1.7379057468305055,10.0,0.0,27.31991121868265,26.676822374418357,407.35210848840285,453.95468224627473,0.0
0.115,7.9660538453932235,-1.498847132478355,10.0,0.0,27.40309646136054,26.939072807266527,404.1619900501352,453.95468224627473,0.0
0.116,8.497583084718109,-1.2243342272535527,10.0,0.0,27.47638238962425,27.130401571810864,385.86139446064857,453.95468224627473,0.0
0.117,9.0149665584186,-0.9366371623249963,10.0,0.0,27.532571053426114,27.25832916301333,375.928377143813,453.95468224627473,0.0
0.11800000000000001,9.501248130980375,-0.6805655210092905,10.0,0.0,27.570642700072604,27.33076572323095,394.01426239161947,453.95468224627473,0.0
0.11900000000000001,9.760670594393819,-0.773227539639441,10.0,0.0,27.62490437653869,27.376092136841606,402.22451394756956,453.95468224627473,0.0
0.12,9.80172040567582,-1.1321328386782517,10.0,0.0,27.71682548942719,27.420390822130905,423.41960332658135,453.95468224627473,0.0
0.121,9.761354689922449,-1.5318726688574058,10.0,0.0,27.8443666878851,27.474302477025837,431.2599457342365,453.95468224627473,0.0
0.122,9.644132178777557,-1.9650956822842467,10.0,0.0,28.008202065161864,27.54806790534545,450.42608289588424,453.95468224627473,0.0
0.123,9.489656755287502,-2.367792802880298,8.447697028427939,0.0,28.20299490067421,27.47590707316031,465.96955028326664,453.95468224627473,0.0
0.124,9.175259715147332,-2.7731123829523057,0.5558146543668157,0.0,28.411650552018774,26.610896496494437,471.05128015597205,453.95468224627473,0.0
0.125,8.429882944241447,-2.900759005657696,-2.156016261082862,0.0,28.52292751325916,25.712717440069003,477.15261996341445,453.95468224627473,0.0
0.126,7.525042539487245,-2.897082241304307,-5.4386655419754595,0.0,28.531577962427043,24.673589550480358,478.35312843968586,453.95468224627473,0.0
0.127,6.528140078900774,-2.77129367053777,-6.282904242045276,0.0,28.421650602578485,23.779810597185595,476.03023219921647,453.95468224627473,0.0
0.128,5.6239288292031935,-2.5824036998087885,-5.342211621339997,0.0,28.213818072312794,23.165829591374592,471.4220791835802,453.95468224627473,0.0
0.129,4.938650230510488,-2.396217820195353,-3.212809082894914,0.0,27.946779147442363,22.88362931949925,464.90663239716,453.95468224627473,0.0
0.13,4.536213886236662,-2.251120962173274,-0.06460519119368247,0.0,27.664125292285146,22.965368796910273,457.9904473271663,453.95468224627473,0.0
0.131,4.450487152523281,-2.1608119204104317,3.3531296929942673,0.0,27.409427744371083,23.360543316673873,450.38438185627376,453.95468224627473,0.0
0.132,4.653219427956666,-2.1273019910836206,7.191865432340543,0.0,27.21693440141645,24.055656394521108,445.62759366401923,453.95468224627473,0.0
0.133,5.136201874708543,-2.119882881500713,9.653530414290364,0.0,27.112720697781157,24.8433038745208,448.0029152047396,453.95468224627473,0.0
0.134,5.757240632036329,-2.135877087272949,8.525387314345519,0.0,27.09952666624014,25.32956840650504,436.5916611427232,453.95468224627473,0.0
0.135,6.288189021868598,-2.0741899468038927,10.0,0.0,27.12933296354232,25.88718197324991,424.09060781984806,453.95468224627473,0.0
0.136,6.899575148441885,-1.8969669292239755,10.0,0.0,27.19304232725968,26.315325696169232,423.38788477169345,453.95468224627473,0.0
0.137,7.4543706917674655,-1.717562384987071,10.0,0.0,27.27523285720698,26.652112334668267,405.4428480704016,453.95468224627473,0.0
0.138,8.005114878368852,-1.465568698770869,10.0,0.0,27.356957737968024,26.908405457219253,401.8403400323002,453.95468224627473,0.0
0.139,8.52536630966671,-1.2070122430940713,10.0,0.0,27.43021816964579,27.095521540014467,385.4398344826072,453.95468224627473,0.0
0.14,9.050873662516587,-0.9050901296987005,10.0,0.0,27.48423829851858,27.218648763197443,372.6067059227353,453.95468224627473,0.0
0.14100000000000001,9.536257935564896,-0.6485489220621661,10.0,0.0,27.519968825116322,27.286728080442582,396.15739448584304,453.95468224627473,0.0
0.14200000000000002,9.746270987190313,-0.8160974419260723,10.0,0.0,27.579929980040188,27.333324925674674,403.253392102462,453.95468224627473,0.0
0.14300000000000002,9.793573448612467,-1.1567985646204018,10.0,0.0,27.674356342292626,27.37815506163576,420.0519777665058,453.95468224627473,0.0
0.14400000000000002,9.730692494415722,-1.5863259324793877,10.0,0.0,27.807664081153465,27.435334749801836,433.0902321639132,453.95468224627473,0.0
0.145,9.628739537530983,-1.9854077107752932,10.0,0.0,27.97296273687879,27.510713258752755,453.1518349187466,453.95468224627473,0.0
0.146,9.444469304031227,-2.43208882224424,6.756297046778195,0.0,28.174413482405303,27.257526653642838,461.4709418661009,453.95468224627473,0.0
