t,iq,id,vq,vd,omega,r
0.0,0.0,0.0,0.0,0.0,0.0,2478.8582909430756
0.01,0.0,0.0,644.5031556451996,0.0,19.28817531186251,2478.8582909430756
0.02,11.5476080087278,-0.005948596174174606,1102.0028390365906,0.0015466350052853975,30.774035252746614,2478.8582909430756
0.03,11.701836188211656,-4.100917146488774,1442.426538299545,-0.6491625052796931,32.1135002567676,2478.8582909430756
0.04,11.978218117633338,-5.85662603417515,1697.5627793181654,-2.7537560959754805,34.502539603122266,2478.8582909430756
0.05,12.174570784154097,-5.436690537394896,1888.3784565780252,-4.224319413105779,38.18076379321631,2478.8582909430756
0.06,12.371992628030256,-4.971073947321919,2030.6262120741292,-5.1921415613365225,43.24886343842014,2478.8582909430756
0.07,12.572005155457136,-4.440998102784651,2136.0995290979886,-5.771801772144753,49.851889803293254,2478.8582909430756
0.08,12.772848588598713,-3.8251949898677777,2213.6081993565813,-6.043309474441579,58.177827194621166,2478.8582909430756
0.09,12.96809091749112,-3.099418612169393,2269.7127400811337,-6.060002210486487,68.45366494381399,2478.8582909430756
0.1,13.144465105159469,-2.2362501821179963,2309.275927715502,-5.8542219639375155,80.93599917886387,2478.8582909430756
0.11,13.27871852422697,-1.2055754361006201,2335.878352283177,-5.441329470658955,95.89148567150066,2478.8582909430756
0.12,13.333312461848237,0.023591788830946925,2352.134267725048,-4.82253198411164,114.12804894124841,2478.8582909430756
0.13,13.25078871997255,1.481342660030406,2359.78901119608,-3.9876570885047578,136.75749590012651,2478.8582909430756
0.14,12.944179989819663,3.1978089637953566,2359.8581570100387,-2.9185541243468123,164.606199766863,2478.8582909430756
0.15,12.283981006068217,5.1847457430748705,2352.880268245127,-1.5862860185444079,198.50291778703684,2478.8582909430756
0.16,11.08800328461696,7.404995674414753,2339.020424852354,0.04768151401953026,200.51615844251114,2478.8582909430756
0.17,12.920601232019541,-3.2917839511293656,2327.7563926771327,-2.5743218911572954,208.19644922464894,2478.8582909430756
0.18,13.32470995878321,-0.47946041763768066,2317.8230941918832,-3.8140699199710877,223.34860258409387,2478.8582909430756
0.19,13.09547560483783,2.5072487832034214,2306.8164706176635,-3.8049079783701907,248.3820014763376,2478.8582909430756
0.2,12.090104158819784,5.622024475815302,2292.3259043786675,-2.785985589735535,283.0188483551833,2478.8582909430756
0.21,10.088993475508534,8.71722366518859,2272.609745695433,-0.9265324150033492,287.8636614680494,2478.8582909430756
0.22,13.324792821713555,-0.4771520053281044,2256.3502626396794,-3.1108952427022496,302.18962211715444,2478.8582909430756
0.23,12.843183044217888,3.5819585523135045,2241.0755006094973,-3.5555433788783426,330.1541632574115,2478.8582909430756
0.24,10.98984218739014,7.54991036198693,2222.679994655388,-2.444639511364121,330.9922963952859,2478.8582909430756
0.25,13.26764175936874,-1.321915247976401,2207.84842601963,-4.859798967550362,342.07801676742065,2478.8582909430756
0.26,12.912654996866522,3.322817886926064,2194.7065020289447,-5.315150177529153,368.9549561480393,2478.8582909430756
0.27,10.829291989819135,7.778445395901217,2178.2980444573973,-3.9818395250562806,369.7797250038128,2478.8582909430756
0.28,13.323835659517432,-0.5031710404519124,2164.9196091735557,-6.071302281454958,383.3174386910965,2478.8582909430756
0.29,12.5017981361775,4.634956433457228,2152.316615043188,-6.065499718465765,413.85986656589847,2478.8582909430756
0.3,9.561482286687639,9.29278398861914,2135.321754566467,-4.137925201481391,418.33345287257106,2478.8582909430756
0.31,13.164700515724448,2.113868044382656,2120.9476991578094,-5.740578491042453,440.7981784389885,2478.8582909430756
0.32,10.948001292885984,7.6104563246065995,2105.185142217156,-4.994693005606135,439.8886495600922,2478.8582909430756
0.33,13.330361941938058,0.2814751760052099,2092.5228577001935,-7.148710183520396,455.83046498277037,2478.8582909430756
0.34,11.775156332768784,6.254875787466357,2080.059661749057,-6.816100485018371,489.83757091670685,2478.8582909430756
0.35000000000000003,7.391955765054008,10.93598918888312,2062.2207921231206,-4.13995832251891,502.3462963833943,2478.8582909430756
0.36,11.820184170436859,5.586873998756514,2045.6523131791535,-4.967367694150634,534.5707989165941,2478.8582909430756
0.37,7.229461287730698,10.531331603203707,2025.4204037838188,-2.9062656960598625,547.3409476832044,2478.8582909430756
0.38,11.21520571060806,5.847645821692947,2006.962248397072,-4.014722296014255,576.0092026152277,2478.8582909430756
0.39,6.509347786260308,9.169974430655873,1986.030543192147,-2.2742040633661986,593.2425936980147,2478.8582909430756
0.4,10.023254547109834,6.990474352247965,1966.202664798659,-3.014383979266754,591.7202643106418,2478.8582909430756
0.41000000000000003,12.026760588634833,2.209344930522276,1950.840114284879,-5.768000007057644,615.6175200402478,2478.8582909430756
0.42,8.367418136579342,8.622285106279854,1934.4266156626254,-4.6848630703673875,621.8230253092722,2478.8582909430756
0.43,11.03166348554417,4.608496888664645,1920.0997521924346,-6.075139860044688,651.7147338036216,2478.8582909430756
0.44,4.492659628809127,10.384881954039814,1902.6589445501925,-3.631661727315967,669.6968450024297,2478.8582909430756
0.45,8.968162213033485,7.230070951787109,1884.7909074814108,-3.8424487527396716,671.5865954950433,2478.8582909430756
0.46,10.879635505204808,3.731404979695605,1870.3523041122746,-5.953071717613708,699.4380382075337,2478.8582909430756
0.47000000000000003,4.038298486793415,9.981309523743041,1853.6869924855873,-3.7220033084250828,717.3977673009366,2478.8582909430756
0.48,8.388654363884676,7.258001292005538,1836.274249475198,-3.822135262996676,721.5275986453128,2478.8582909430756
0.49,10.119780819687696,4.451307232713367,1821.769372425222,-5.640849848521316,714.2527872257926,2478.8582909430756
0.5,11.029742867394797,1.3506201574173191,1811.7706102102543,-8.43547913523665,736.5571665107225,2478.8582909430756
0.51,6.112010922088647,8.371444844488256,1800.4688293697998,-6.574850323093254,747.8865865261384,2478.8582909430756
0.52,9.013137671843976,5.9923125384875755,1788.6897977112685,-6.7881576721892944,747.3391419299068,2478.8582909430756
0.53,10.274637242797114,3.40952075068437,1779.4140626832364,-8.437689690151425,773.5696032490671,2478.8582909430756
0.54,1.842435052666822,10.281400359443484,1767.411461105557,-5.413559267694167,794.3689104385305,2478.8582909430756
0.55,5.298403221984167,7.910937809097663,1752.9403732818162,-4.357529915420224,806.3776640763313,2478.8582909430756
0.56,8.295197305556476,6.1401675182316975,1738.6000632272046,-4.941353514336581,809.0499577161232,2478.8582909430756
0.5700000000000001,9.355338062060754,4.302271547321223,1726.8129205549237,-6.597169750113048,803.5688311344768,2478.8582909430756
0.58,10.06835963432287,2.3554856594076012,1718.7160274969249,-8.891960743215982,827.3835367138861,2478.8582909430756
0.59,1.4992745268562222,9.73179969198605,1708.7250563964676,-6.009116960817088,847.1796422390375,2478.8582909430756
0.6,4.015224650866356,7.738499330701116,1696.0561996853012,-4.732526622147811,860.9958230059684,2478.8582909430756
0.61,6.590056768433629,6.5606765547148225,1682.689769597181,-4.853560524113513,868.1290532642001,2478.8582909430756
0.62,8.29153240669819,5.238427501553143,1670.4856621884956,-5.85368417865641,869.1361293849704,2478.8582909430756
0.63,8.938950581663205,4.013149326571394,1660.7748564450017,-7.437069123951474,864.5228122362009,2478.8582909430756
0.64,9.44197375888699,2.750199728475689,1654.212624107609,-9.371579879835373,885.7827977175269,2478.8582909430756
0.65,-0.8464550757606348,9.626746764690685,1646.02527119029,-6.01447998884412,906.9076269391026,2478.8582909430756
0.66,0.23468856725145004,9.307948387354362,1634.6738349610123,-3.9143716249531653,925.8217958280793,2478.8582909430756
0.67,1.5987138970521597,8.290724951983368,1621.3843172812458,-2.9086879635363467,942.3510560421431,2478.8582909430756
0.68,2.573445614942983,7.3430900534034045,1607.2239959959563,-2.6123383797476496,956.6029501155573,2478.8582909430756
0.6900000000000001,3.2951889628343634,6.60113560604476,1592.9646751704981,-2.7678090311482224,968.8253426457172,2478.8582909430756
0.7000000000000001,3.876463565029551,6.129905180932804,1579.124866942336,-3.209300334245606,979.3618262546208,2478.8582909430756
0.71,4.342563951919296,5.86371214702114,1566.0218654617804,-3.80904191622458,988.6059973900739,2478.8582909430756
0.72,4.645737729550096,5.665870089179186,1553.8205656227938,-4.450099195584117,996.9470879660294,2478.8582909430756
0.73,4.791362232515777,5.518484323744694,1542.5534001962706,-5.053097146947738,1004.7454429124798,2478.8582909430756
0.74,4.791502503031969,5.421286227521077,1532.1562025757414,-5.567325601417624,1012.3220852547128,2478.8582909430756
0.75,4.65064933450721,5.369739534927005,1522.5019712873902,-5.959273696647991,1019.97440008061,2478.8582909430756
0.76,4.366879885264787,5.355449058532698,1513.422220355004,-6.204545517579764,1027.9811865289419,2478.8582909430756
0.77,3.9319509306311082,5.365564624185139,1504.7220890454291,-6.281798272307539,1036.5979842548868,2478.8582909430756
0.78,3.349542272954688,5.411793467780087,1496.1881418688092,-6.175905470790491,1046.0419134390715,2478.8582909430756
0.79,2.692956331286614,5.659769238674842,1487.5829413562499,-5.913892016536281,1056.5010089327498,2478.8582909430756
0.8,1.913645645227313,6.099011748499368,1478.6881184740548,-5.505210074181339,1068.0899944028588,2478.8582909430756
0.81,0.9300669039477598,6.666000600686556,1469.3223630394814,-4.933070721045914,1080.8168352184498,2478.8582909430756
0.8200000000000001,-0.34067351910080923,7.282051558477055,1459.3547995116683,-4.157829518978877,1094.5036357864376,2478.8582909430756
0.8300000000000001,-1.9728631887398764,7.851828841058348,1448.7320279939538,-3.120746826180469,1108.7277317329429,2478.8582909430756
0.84,-2.9318140702750135,7.502995582726014,1437.2264849597204,-1.5519587244516782,1122.7406004282725,2478.8582909430756
0.85,-3.8907616734137296,6.953847711403951,1425.0124602895423,0.5464354044156763,1112.8901701097348,2478.8582909430756
0.86,7.818881794961287,1.8314254703462463,1415.3703787821628,-3.6980289911011255,1107.7673560497194,2478.8582909430756
0.87,7.549692810180533,2.7567547359127325,1409.9508438349237,-6.299029433598965,1106.7377636583717,2478.8582909430756
0.88,5.760539386100192,3.7739477581041436,1406.8337315313897,-7.652791376588006,1109.4726137391417,2478.8582909430756
0.89,3.817794230445998,4.3978061691061985,1404.4299782642083,-7.969392926612294,1115.728685972848,2478.8582909430756
0.9,1.9613116439149825,5.14880565188983,1401.566614104402,-7.523026639700015,1125.152263545435,2478.8582909430756
0.91,0.10080019945274765,6.39994053260486,1397.4727650266905,-6.58755569523819,1136.9112560013334,2478.8582909430756
0.92,-2.248423273342068,7.4300693563900015,1391.8876950000802,-5.160192973732539,1149.7465456461953,2478.8582909430756
0.93,-3.530250967729755,6.965195731115994,1384.4933285060956,-2.9123477538494735,1162.004441896661,2478.8582909430756
0.9400000000000001,-4.670862544978838,6.168509627034511,1375.6864667976454,0.06936504156744322,1154.895500308759,2478.8582909430756
0.9500000000000001,6.985268756199881,2.494002804522262,1368.3621192254477,-3.5784567244679644,1153.8940493543887,2478.8582909430756
0.96,4.290731342886984,3.7292162317468223,1364.2690630149389,-5.440297347035626,1157.9143968386704,2478.8582909430756
0.97,1.660259487850749,4.732921873724908,1360.9888378580097,-5.838388794700604,1166.3773180692228,2478.8582909430756
0.98,-0.8941256426025381,6.424884612928908,1356.9943832482275,-5.2878379798605355,1177.5591098151065,2478.8582909430756
0.99,-3.3060932142475723,6.901941215857938,1351.5462564625554,-3.66114726329206,1189.0241081228942,2478.8582909430756
1.0,-4.616459107126975,6.024582694700689,1344.4208023849503,-0.8612863898763761,1180.6995794670524,2478.8582909430756
1.01,6.8683894792863835,2.225116060764821,1338.4159947565722,-4.415778411106681,1179.2485891230076,2478.8582909430756
1.02,3.6904532520979507,3.581797269922859,1335.629146177509,-6.0373190725758095,1183.4654165396123,2478.8582909430756
1.03,0.7854234197982968,5.039812560979939,1333.352685020095,-6.158398156079262,1192.3796797308203,2478.8582909430756
1.04,-2.397052185084799,6.797201204883042,1330.0950990799583,-5.20004985386782,1203.3017843322507,2478.8582909430756
1.05,-4.169653942670702,6.253467913816621,1324.9595559024792,-2.8075178618849477,1191.9910251673557,2478.8582909430756
1.06,7.431754392636076,1.4717626382679,1320.5862977313118,-6.2794166414511965,1188.0411626088048,2478.8582909430756
1.07,4.7175285822077235,3.1690694877484047,1319.675199670721,-7.87894048092653,1190.2589007689799,2478.8582909430756
1.08,1.482143307966729,4.3712180907281395,1319.502234544002,-7.848626318076997,1197.8688595888727,2478.8582909430756
1.09,-1.6159207521912489,6.381470144761107,1318.2003808602926,-6.781406063307785,1208.3478080652978,2478.8582909430756
1.1,-3.9392626525518573,6.371277810850355,1314.8436815806765,-4.379673472146615,1217.1540325117014,2478.8582909430756
1.11,-5.284222388010658,5.244315997105343,1309.8046151000633,-1.0851437144120526,1211.6103569437648,2478.8582909430756
1.12,4.5193124676271985,2.946420899012273,1305.5863227680236,-4.045762131548958,1213.4159137330416,2478.8582909430756
1.1300000000000001,0.9615092595574901,4.430621836646898,1303.287466173313,-4.955971395351128,1221.0140428527575,2478.8582909430756
1.1400000000000001,-2.6575218345931226,6.541620802262642,1300.4945076442675,-4.4223491821338,1230.9540983551478,2478.8582909430756
1.1500000000000001,-4.535961069279587,5.820523224451746,1295.9289293119748,-2.059171482958056,1220.6046684841547,2478.8582909430756
1.16,6.749139856764389,1.7690693274288556,1291.961522335786,-5.538514743907477,1218.3034290042356,2478.8582909430756
1.17,2.8237490508307665,3.2867355176141153,1291.2493658206934,-6.8406428628060345,1222.636999033927,2478.8582909430756
1.18,-0.5758428698758764,5.45011612855685,1290.6267457654212,-6.574312151618102,1231.6291985085331,2478.8582909430756
1.19,-3.7857760260074063,6.331202643526737,1288.471767256193,-4.770410734353952,1240.8692849874121,2478.8582909430756
1.2,-5.259219722345301,5.108097497175988,1284.2647166390223,-1.3073743014334112,1234.3016091025524,2478.8582909430756
1.21,4.355566542349221,2.720913410715112,1280.7562796630564,-4.316354354844626,1235.664401778271,2478.8582909430756
1.22,0.4781626375207506,4.483533239719063,1279.2336095476396,-5.151292825921584,1243.1286744841616,2478.8582909430756
1.23,-3.4583260327019323,6.455148512979033,1277.1021182473266,-4.335268697292369,1252.2405256950244,2478.8582909430756
1.24,-5.039820734966341,5.254204232397894,1273.0496085339676,-1.474418261387873,1243.9645696702505,2478.8582909430756
1.25,5.011291792715288,2.36021990573606,1269.6314449902975,-4.727559569466646,1243.9614967380155,2478.8582909430756
1.26,0.869235034185289,4.039173996356333,1268.696866257061,-5.665552042483858,1250.6077346980358,2478.8582909430756
1.27,-3.2844980105680137,6.405823118235623,1267.3287290180865,-4.957027615428833,1259.4875992109285,2478.8582909430756
1.28,-4.991395837997575,5.256471541758991,1263.967452093689,-2.110754162062002,1250.6475328570025,2478.8582909430756
1.29,5.113774992608501,2.2341820645574284,1261.0812871921646,-5.283791960686802,1250.262531676645,2478.8582909430756
1.3,0.8533646116266163,3.9560058886654264,1260.709113960856,-6.12467065754496,1256.70601746187,2478.8582909430756
1.31,-3.410744757336347,6.374251409255385,1259.8490446646063,-5.30276197943765,1265.351371640546,2478.8582909430756
1.32,-5.077775969530931,5.13743950817807,1256.8994883251103,-2.2992784116150804,1256.7892640314974,2478.8582909430756
1.33,4.7719915426299035,2.2946868533192046,1254.3667445904691,-5.355895950687369,1256.779915357097,2478.8582909430756
1.34,0.4765426907806327,4.163510399574994,1254.1541429094923,-6.089699305975001,1263.4951859909165,2478.8582909430756
1.35,-3.686224228100378,6.2226449538513595,1253.275794721111,-5.038970626970009,1271.7676139461007,2478.8582909430756
1.36,-5.299344188533897,4.868052848857662,1250.3262904163416,-1.7974251393821783,1264.2841916314674,2478.8582909430756
1.37,3.915040365477921,2.489915369655674,1247.8876480775746,-4.7428085711330725,1265.4046025790149,2478.8582909430756
1.3800000000000001,-0.3622221408458013,4.684556485504136,1247.3752153219693,-5.395475283373975,1272.7142105348844,2478.8582909430756
1.3900000000000001,-4.137094897117839,5.884566943891825,1245.917064253997,-3.991434038513352,1280.127378079516,2478.8582909430756
1.4000000000000001,-5.67227738837237,4.370079815998273,1242.5968965771035,-0.41757372473106447,1274.6026353048553,2478.8582909430756
1.41,2.34088547214194,2.6943615575732798,1240.0840080379962,-3.2013303380339497,1277.7778748936962,2478.8582909430756
1.42,-1.9613592976782894,5.49883749664743,1238.8346721233945,-3.776098740026215,1285.538704754048,2478.8582909430756
1.43,-4.825709167865966,5.263111902254574,1236.2787895453882,-1.8561197728308692,1274.6587912989098,2478.8582909430756
1.44,5.486827876529094,1.7625925875097104,1234.0530589274922,-5.366010952203756,1272.9345376231852,2478.8582909430756
1.45,0.7907768954254066,3.6443365131405443,1234.7674503353978,-6.333650993273734,1278.6450147810406,2478.8582909430756
1.46,-3.709865463086472,6.134462979186477,1234.99607062239,-5.4318611014873355,1286.3862285855382,2478.8582909430756
1.47,-5.370483394415497,4.699473101422965,1233.0245824418282,-2.140944059362275,1278.7510134226636,2478.8582909430756
1.48,3.5143847138093096,2.4223137470275775,1231.408251531152,-4.961358712091604,1280.0268465059132,2478.8582909430756
1.49,-0.9471588040657362,4.8765284246908935,1231.5171058012493,-5.463901776967769,1287.258199361412,2478.8582909430756
1.5,-4.502685467707047,5.533585031583199,1230.421209229569,-3.686048371625155,1282.6147226073294,2478.8582909430756
1.51,-1.7073653572236953,3.053400622434498,1229.250254134084,-4.09358233703939,1278.7543620860447,2478.8582909430756
1.52,1.405308979011902,3.061284347073783,1229.4142297974633,-5.637589401524889,1283.2948606187758,2478.8582909430756
1.53,-3.116258107219656,5.943588153192824,1229.7147043753766,-5.24194731424884,1290.9743190137474,2478.8582909430756
1.54,-5.210015135104344,4.850979703180089,1228.0048954689405,-2.3527061902269093,1282.1751254648862,2478.8582909430756
1.55,4.09371716855936,2.217841936568446,1226.5409626353592,-5.344601483639345,1282.4423302043606,2478.8582909430756
1.56,-0.49302021797489304,4.528028471198078,1227.1395600463147,-5.927955406472222,1289.2547766796158,2478.8582909430756
1.57,-4.355521633019524,5.640333922196579,1226.6605598850424,-4.3031766783518215,1295.7142907277223,2478.8582909430756
1.58,-5.876729329357058,3.98275860125778,1224.2403258805762,-0.40505225232666026,1290.8821571515264,2478.8582909430756
1.59,1.4117951824184591,2.8914196846995806,1222.5584190087584,-2.9539591466378905,1294.9847940380723,2478.8582909430756
1.6,-3.3127521353870604,5.872608268933533,1221.7080498114494,-3.2480845583361786,1302.2143895536683,2478.8582909430756
1.61,-5.351872990780742,4.628674441191661,1219.2068252959477,-0.7403152546632501,1293.827866485009,2478.8582909430756
1.62,3.461699324495531,2.253769110126678,1217.247840891054,-3.9976509820797013,1294.696938794124,2478.8582909430756
1.6300000000000001,-1.2425218934381472,4.85871260885688,1217.3090094686236,-4.7476868029877215,1301.5651465229541,2478.8582909430756
1.6400000000000001,-4.740644675849879,5.257209828170398,1216.2241934899423,-2.9651579095045455,1289.5143858632164,2478.8582909430756
1.6500000000000001,5.678108830238874,1.4784788139865852,1215.1444352305305,-6.3489596113462445,1287.0316329774462,2478.8582909430756
1.6600000000000001,0.7279650085345203,3.4852825813649346,1217.0652572984716,-7.154093744339748,1292.3263414211547,2478.8582909430756
1.67,-3.8867892983414483,5.958965558905992,1218.3489451256542,-6.006071750304785,1299.4539955122536,2478.8582909430756
