t,iq,id,vq,vd,omega,r
0.0,0.0,0.0,0.0,0.0,0.0,1804.0153863388116
0.01,0.0,0.0,469.044000448091,0.0,44.21268843645584,1804.0153863388116
0.02,11.550992265620355,-0.09848112885336385,795.2164931685068,0.025605093501874603,66.50270726051531,1804.0153863388116
0.03,12.020727505217451,-5.768872335481721,1034.5329491705854,-0.8757617911366998,74.37834641326594,1804.0153863388116
0.04,12.408760001544128,-4.878570795003011,1212.3365816455794,-2.9074050612955924,88.9164472454649,1804.0153863388116
0.05,12.774845474038795,-3.818520772787314,1342.129673776891,-4.163666579998829,111.05588075616946,1804.0153863388116
0.06,13.099255346909775,-2.4874258047695426,1434.0025867421891,-4.805316897159302,142.16573361890326,1804.0153863388116
0.07,13.31120997673614,-0.7677673690760614,1495.1828858756548,-4.921697897819122,184.54446683102086,1804.0153863388116
0.08,13.252812879160608,1.4631228819659912,1530.505213688795,-4.540023467811896,243.9987454722663,1804.0153863388116
0.09,12.616509466380975,4.31294176432942,1542.0924510918492,-3.633877501585316,325.6099743853915,1804.0153863388116
0.1,10.844299649690715,7.757508806665678,1530.2311318836835,-2.1114659396811164,345.04580838899534,1804.0153863388116
0.11,13.295364376994126,-1.0055167133038247,1516.157243031559,-4.552200768965191,387.1987920947223,1804.0153863388116
0.12,12.726510905366895,3.9766440566582313,1495.701830432205,-5.061443226570367,468.29229505010863,1804.0153863388116
0.13,9.817049101044883,9.022379105615746,1460.1069495027778,-3.7161481128263474,497.5255260022977,1804.0153863388116
0.14,13.067776490887656,2.6478284238185874,1425.7441739402052,-5.7796972990941455,570.4259526739751,1804.0153863388116
0.15,9.744651591362844,9.10052433328582,1382.4142188503336,-5.085733962445584,601.2631458478238,1804.0153863388116
0.16,12.678598851145551,4.126852184111813,1341.6435297770136,-7.129588993873864,685.2985445175675,1804.0153863388116
0.17,7.430999490084468,11.070592773476138,1290.8733892331506,-5.708166034200987,739.6420452329552,1804.0153863388116
0.18,10.431050580290584,8.304875770846737,1239.0489276312935,-6.869769066646705,765.4503575477252,1804.0153863388116
0.19,12.230546244144163,5.30956837677309,1193.038893490203,-9.378435963398779,852.3666709116222,1804.0153863388116
0.2,4.21354495218127,12.65005204391371,1138.1872973621714,-7.084003794135063,928.8992185801361,1804.0153863388116
0.21,5.728076728119531,12.04022071120597,1078.0442483280121,-6.711366278047598,997.547836564738,1804.0153863388116
0.22,6.283573405063654,11.759867475484343,1015.8618444119276,-7.335017808514554,1062.7860774787496,1804.0153863388116
0.23,6.007706254739845,11.903161064798606,953.0478386315032,-8.215566833031051,1128.067938418248,1804.0153863388116
0.24,4.886631397473087,12.40558790880174,889.8968510404717,-8.818843792021799,1194.5088615721195,1804.0153863388116
0.25,2.8126599988141816,13.033292811444404,826.3645569407549,-8.69622488074876,1258.5185356473494,1804.0153863388116
0.26,-0.28599832564492367,13.330265666351366,763.2261154037827,-7.409217968973996,1277.5087144679721,1804.0153863388116
0.27,9.120249895468922,9.72619245244391,708.4938450603521,-11.766002894934942,1322.9156724222373,1804.0153863388116
0.28,5.77296751525732,12.018761327423114,657.5714264560412,-13.67328131507668,1380.183174850336,1804.0153863388116
0.29,1.1286430371563405,13.285478639193103,606.3052520088802,-12.983091335057653,1428.087597613623,1804.0153863388116
0.3,-4.441640119676139,12.57177834775419,556.6398849347447,-9.473942618748556,1466.4066470858925,1804.0153863388116
0.31,3.2841541746260505,12.9225426729829,508.4655912208102,-11.80318987302107,1514.4562043026826,1804.0153863388116
0.32,-3.4856586045997124,12.869652748615938,461.89760252557704,-9.899010457883774,1547.9879958232425,1804.0153863388116
0.33,3.1174294188046527,12.963773046322162,416.98230868522563,-12.715836792253311,1590.0796985334641,1804.0153863388116
0.34,-4.710555167052976,12.473509842699778,374.72705797362363,-10.381084351645928,1624.3788203342442,1804.0153863388116
0.35000000000000003,0.7757772903975537,13.310745560391467,333.25722850517377,-12.416248699461606,1647.7832462662398,1804.0153863388116
0.36,-7.615840732414853,10.9442563802329,297.7390847675714,-11.263868110540102,1681.4347592385998,1804.0153863388116
0.37,-3.3436544876735406,12.907275175064578,262.37770163069035,-11.02032005142088,1710.2637557190808,1804.0153863388116
0.38,0.9777010609427208,13.297438791481959,227.35516835587117,-13.728270088437815,1728.9042802791553,1804.0153863388116
0.39,-8.379440693600186,10.371246378339247,198.24215149351076,-12.872435747100333,1755.9420304584235,1804.0153863388116
0.4,-5.304312685194366,12.232826521923045,169.62779188726148,-11.488438049645907,1784.3702413546982,1804.0153863388116
0.41000000000000003,-2.1431648359683364,13.03329853435892,140.29968470541385,-12.796304126528812,1807.5731744897619,1804.0153863388116
0.42,0.7738621301951927,13.0729400541533,111.36607817955752,-15.688692373013234,1821.899479514981,1804.0153863388116
0.43,-4.466757428652906,10.58110187555271,86.90603393850888,-16.307035285530084,1833.989867716646,1804.0153863388116
0.44,-7.368976569909005,10.584117307653035,66.40531693287461,-15.617126779557198,1848.802397781601,1804.0153863388116
0.45,-5.316415782763119,11.310652968599811,47.036965655375575,-15.36708205507404,1862.1701777104481,1804.0153863388116
0.46,-3.4576033014362295,11.893309351477493,28.494490717868423,-16.51178599506656,1863.2062079201844,1804.0153863388116
0.47000000000000003,4.3790425538928375,9.821752645163272,11.281691149163741,-18.644227540475203,1831.8139208259415,1804.0153863388116
0.48,11.49813787309008,-0.8198776151918299,1.7002549768591952,-18.33284183407369,1772.294981578802,1804.0153863388116
0.49,9.735388058106134,-8.784451334380625,7.8093260429563,-16.057083263286646,1728.9436249853607,1804.0153863388116
0.5,10.342452219877638,-5.158429439117267,24.419096250666325,-14.803736122459961,1734.6748306529569,1804.0153863388116
0.51,7.621017626102627,9.875016198999413,39.685108389886736,-17.240823949449805,1755.4945375873565,1804.0153863388116
0.52,0.9000715803959052,12.940479109718126,48.310366842390756,-19.240569454969908,1773.1497868851761,1804.0153863388116
0.53,3.599118182750926,12.838384870550087,49.71500680280348,-20.823373954494162,1786.125623141811,1804.0153863388116
0.54,1.8712321287908766,11.576389508046383,47.55112389282605,-21.433245651027548,1798.6112884951813,1804.0153863388116
0.55,-0.029822657235278882,11.668069555027987,43.32717592203417,-21.72101043737523,1811.2635771825735,1804.0153863388116
0.56,0.16535515707428727,12.255836849472798,37.08920837712936,-22.402774566681067,1821.4511661719557,1804.0153863388116
0.5700000000000001,3.199724741162601,11.547633974358813,28.866062873331767,-23.633393889760878,1822.6603255942593,1804.0153863388116
0.58,8.151080131173053,8.086403066342422,20.309281451641993,-24.344448400500852,1811.7483137645572,1804.0153863388116
0.59,11.765179592408389,2.9848016384112928,14.631266682770796,-24.11628893615756,1789.7511837178527,1804.0153863388116
0.6,12.194402616274077,0.2383710943678654,14.991181152415033,-23.555460233689026,1768.1920917019634,1804.0153863388116
0.61,11.299071546566275,2.8851141406667424,21.162234120266895,-23.793556050871885,1759.101657764346,1804.0153863388116
0.62,12.387868844110574,4.931377422069039,28.58329388096286,-24.389506249999926,1763.2387365750437,1804.0153863388116
0.63,8.717644280744027,7.619217595695614,34.82126515471324,-24.921989621627873,1769.9077364499767,1804.0153863388116
0.64,8.093938382115375,10.595562242953285,38.32748708542398,-25.508934484917845,1778.1527516338228,1804.0153863388116
0.65,7.478909009127966,9.48386626581193,39.073920940722964,-25.30055840379399,1790.8756689741333,1804.0153863388116
0.66,4.315752002022127,11.047267666784196,37.65346757731179,-25.627905964816815,1805.1277760306823,1804.0153863388116
0.67,3.9355757306502896,12.739270836515493,33.294559823542784,-26.79362108881172,1812.1930706141166,1804.0153863388116
0.68,6.565389432650088,11.504258956971729,27.031803929447857,-27.515517766936945,1812.1176102045342,1804.0153863388116
0.6900000000000001,8.756552004654376,9.916644095365346,21.21018564425844,-28.05627728487103,1803.4342216227483,1804.0153863388116
0.7000000000000001,10.59514569849627,7.995935058954348,17.917900803309283,-28.479775969055872,1787.8279547083123,1804.0153863388116
0.71,12.093615894103905,5.614466348964532,18.40750214069918,-28.552995363246882,1771.5339352156614,1804.0153863388116
0.72,13.074539035704696,2.614231585306071,22.43422951162217,-27.994391250811827,1762.0731444472553,1804.0153863388116
0.73,10.625592981613417,4.577959432424548,29.080165476622504,-27.676484050123126,1760.5496274465243,1804.0153863388116
0.74,9.872698210655662,8.961451211667352,35.370383591133724,-27.84495247816469,1766.7769266586454,1804.0153863388116
0.75,9.255315712349011,7.810797402086649,39.046491693424215,-27.117548548405814,1783.1278155877187,1804.0153863388116
0.76,3.8213192408825694,12.715438323942612,39.903855234720375,-27.997789044709148,1791.064477080996,1804.0153863388116
0.77,6.561548805647541,11.60706056884701,37.33485826660481,-28.34054493065273,1795.2478633503804,1804.0153863388116
0.78,8.965311910078245,9.842458272543887,33.40045668143481,-28.02165208092334,1797.3967356584847,1804.0153863388116
0.79,10.840042142864375,7.688730942041157,29.274837815088002,-27.36363965147332,1797.9138703573433,1804.0153863388116
0.8,10.997612603715911,6.14624397211286,25.82800857269916,-26.92025078399757,1794.6058264277822,1804.0153863388116
0.81,10.89097697022774,4.993780602991035,23.786293875171058,-26.861452031092874,1789.055437488764,1804.0153863388116
0.8200000000000001,9.693585492984239,6.398813097435552,23.89608787098833,-26.962290291308893,1785.4014909975685,1804.0153863388116
0.8300000000000001,9.57540180273298,9.27844049902761,25.166328105528137,-27.68471826859642,1780.1531423989172,1804.0153863388116
0.84,11.459117168581077,6.816627574872205,26.687719955547223,-27.556850733758612,1777.511229136498,1804.0153863388116
0.85,12.393097374136907,4.243692107948777,28.37003177594054,-26.903247289467142,1779.5319349880956,1804.0153863388116
0.86,8.531930711349911,8.039983493628176,30.533814367060327,-27.23789349912285,1781.5188050161826,1804.0153863388116
0.87,8.599731687018604,10.18932739139664,31.75018749044352,-27.691050847022126,1782.5817662911134,1804.0153863388116
0.88,10.723706935930053,7.923376005848985,31.679331546889465,-27.28204836572145,1786.245289272357,1804.0153863388116
0.89,9.791837845256321,7.091269654276612,31.086000347810153,-26.88045514832422,1791.3644972446566,1804.0153863388116
0.9,7.8358175003714035,8.625522920892372,29.99145018836422,-27.35326450176356,1796.5119871352226,1804.0153863388116
0.91,7.230811479140965,11.183980062814147,28.146288707281833,-28.12519865050075,1795.1686370322827,1804.0153863388116
0.92,9.49356093193388,9.330532599896825,26.005359497607703,-28.337228278607714,1790.108547065365,1804.0153863388116
0.93,11.318351693203757,7.047885691945446,24.88497053582713,-28.086446549163245,1784.332218415368,1804.0153863388116
0.9400000000000001,12.624617446249475,4.289150511888234,25.023463871650826,-27.43763964272723,1779.7532362403851,1804.0153863388116
0.9500000000000001,10.739532493199002,4.811101319328159,26.85150130652624,-27.228083215769413,1781.2554293521423,1804.0153863388116
0.96,8.266477918278927,10.461506612547957,29.122593031640882,-28.034609799214543,1779.8840944350147,1804.0153863388116
0.97,10.475561894380771,8.248659331962696,30.276259253345003,-27.876705482814028,1780.5528233661184,1804.0153863388116
0.98,11.4772674206826,6.01862530320045,30.829471338968766,-27.158699886483763,1785.28188718912,1804.0153863388116
0.99,8.390900686539826,7.945777315771719,31.109291877000555,-27.51009658770366,1791.16187822532,1804.0153863388116
1.0,7.056251425145137,11.313138097049595,30.432737105291313,-28.254147532140227,1791.210321767598,1804.0153863388116
1.01,9.394144009802,9.459243013699965,28.83794695758152,-28.31601618225087,1789.0822058441931,1804.0153863388116
1.02,11.269596206671146,7.125586229662865,27.489730584365795,-27.84992496253174,1787.229257781081,1804.0153863388116
1.03,11.998188266317044,4.897751424362639,26.704541828819615,-27.201605299891714,1785.684097430356,1804.0153863388116
1.04,9.813854663232535,6.1361199524498105,27.106141397155028,-27.224691284496018,1787.6553678972841,1804.0153863388116
1.05,8.069476887062304,10.61420371704562,27.78837919613105,-28.042893259199435,1785.0301543883093,1804.0153863388116
1.06,10.2681701341797,8.505437077147638,27.984720478383416,-28.06100685797145,1782.4593410129678,1804.0153863388116
1.07,11.950858056743785,5.912255871098601,28.286893943793086,-27.445212202939924,1782.7905849700603,1804.0153863388116
1.08,10.423568445683609,5.741025154212755,28.96907098331379,-27.25294545875666,1786.5175215417212,1804.0153863388116
1.09,7.64857434467428,9.933086900644202,29.64500207808135,-27.861656827729757,1786.5224258299545,1804.0153863388116
1.1,9.202617989467548,9.64829518193271,29.50195504585601,-28.10843432806608,1785.1645146649864,1804.0153863388116
1.11,11.157820990043733,7.299370420242915,29.059717478823657,-27.661815487138586,1785.5827778878004,1804.0153863388116
1.12,11.064384505917285,5.7811631093842175,28.70608023519085,-27.137125314932266,1787.2916904604938,1804.0153863388116
1.1300000000000001,8.795790768961218,7.522033226435374,28.725001497019772,-27.37867483106214,1790.1741812628657,1804.0153863388116
1.1400000000000001,7.913506600425093,10.730992081946859,28.45832049166565,-28.099022874093237,1788.3211399235222,1804.0153863388116
1.1500000000000001,10.116792259094531,8.684946295982645,27.744337909417343,-28.10487757251269,1785.3842180786282,1804.0153863388116
1.16,11.824218138619115,6.161626667376762,27.382195248719942,-27.552714888873396,1783.9393409127,1804.0153863388116
1.17,11.140238125972811,5.10444370296841,27.700722335568408,-27.184514127615326,1785.0338987319103,1804.0153863388116
1.18,8.447417385878335,8.378800382475761,28.631277703838638,-27.542767380322363,1784.9803145025955,1804.0153863388116
1.19,8.995278700419341,9.841886957263828,29.20750111539222,-27.977988275639778,1783.3815524020506,1804.0153863388116
1.2,11.012788696312079,7.516399597424197,29.314213218591618,-27.629922739108764,1783.9717489260572,1804.0153863388116
1.21,11.124939904061714,5.843982550200967,29.302849723823503,-27.0776815195592,1786.6544432911162,1804.0153863388116
1.22,8.596256732279512,7.762264703261549,29.445424547763018,-27.376868394890007,1790.0656030973719,1804.0153863388116
1.23,7.738151679653305,10.858120756395024,29.12244353860437,-28.089531849210324,1788.8716609240628,1804.0153863388116
1.24,9.97231125235105,8.85046812682868,28.188538377887898,-28.091302840226813,1786.4467651556392,1804.0153863388116
1.25,11.71528458331765,6.36630857794825,27.514086748305882,-27.547450168424305,1785.1688290493864,1804.0153863388116
1.26,11.312782667776075,5.044475801037663,27.457915075998972,-27.118811786823965,1785.5737565896843,1804.0153863388116
1.27,8.733684947908577,7.817402774767038,28.179490953967363,-27.388649663900424,1785.685636042355,1804.0153863388116
1.28,8.795725975126198,10.020627842020081,28.774519822708672,-27.93281405463555,1783.8200729386429,1804.0153863388116
1.29,10.854467153089331,7.743275831344414,28.899952814957413,-27.684925973677373,1783.647039113849,1804.0153863388116
1.3,11.640230868588679,5.578725604953787,28.88509310146586,-27.05586978802883,1785.6540079118206,1804.0153863388116
1.31,9.084397531352023,7.129109083309368,29.181779788758774,-27.277964874788896,1789.9623410227584,1804.0153863388116
1.32,7.5254896744569475,11.006579075144991,29.05207788758746,-28.066223695887935,1788.9736976073075,1804.0153863388116
1.33,9.798562289387593,9.04245292156775,28.16922925641261,-28.13258883728166,1786.4740164539626,1804.0153863388116
1.34,11.588505654676391,6.594263754909338,27.519531313535545,-27.63164114211955,1785.0591430787408,1804.0153863388116
1.35,11.58999529386854,4.905449540609663,27.406962772329916,-27.109673686714668,1784.8879584506392,1804.0153863388116
1.36,8.93284885299604,7.444071917773559,28.229264185854145,-27.32387989393767,1785.7112570956022,1804.0153863388116
1.37,8.60667540752187,10.183462878968822,28.893404908962367,-27.923908483171225,1784.0394058654679,1804.0153863388116
1.3800000000000001,10.706254940926677,7.946941733626897,28.986749188786057,-27.720154739296138,1783.7175680984053,1804.0153863388116
1.3900000000000001,11.808533994550503,5.593742517562174,28.887763397957922,-27.057264137595492,1785.61992011018,1804.0153863388116
1.4000000000000001,9.248456552559878,6.939894891754867,29.13310864601849,-27.276573463266374,1790.4823588938195,1804.0153863388116
1.41,7.312696530278776,11.149091767217024,28.98674234078894,-28.109843716378965,1789.6771462788704,1804.0153863388116
1.42,9.617703152102969,9.234585202152086,28.003076047576428,-28.23182556095401,1786.8645202916098,1804.0153863388116
1.43,11.451360732761202,6.829649708876185,27.313091941834568,-27.780144391975647,1784.9262003493736,1804.0153863388116
1.44,11.98991692541243,4.684024183444886,27.143375054580968,-27.147137716245577,1784.3171765364366,1804.0153863388116
1.45,9.28691601705652,6.8778667267515985,28.01403024559998,-27.274773306384752,1785.4610567947384,1804.0153863388116
1.46,8.40412516260312,10.351253935107513,28.88643092033902,-27.94918634420508,1783.8641127369954,1804.0153863388116
1.47,10.549000632501642,8.154530239888603,29.07186787814005,-27.797143037310054,1783.119195175419,1804.0153863388116
1.48,12.094218534346187,5.536481252688862,29.024848689610025,-27.07557909101012,1785.1827345583615,1804.0153863388116
1.49,9.383667730875393,6.8042727679006525,29.31391275653044,-27.282032389026185,1790.0627132150162,1804.0153863388116
1.5,7.282418689957618,10.951386555008458,29.22625367151987,-28.06997898773411,1789.2837119086914,1804.0153863388116
1.51,9.452943655134106,9.40317148788841,28.361171612330857,-28.23294216917345,1786.8025063647513,1804.0153863388116
1.52,11.330167325326224,7.028875170173938,27.656823321505485,-27.797002792954576,1785.2931685136898,1804.0153863388116
1.53,11.85347686333173,4.941281250165442,27.37510548945736,-27.172121025961744,1784.9756968255856,1804.0153863388116
1.54,9.336295401116494,6.79656677115813,28.0164661349131,-27.290640805542843,1787.001460085737,1804.0153863388116
1.55,8.204205558092719,10.510413357158617,28.586645862725554,-28.009157115543637,1785.0915613086877,1804.0153863388116
1.56,10.378461397057096,8.370502781050453,28.574665260651457,-27.930927371195615,1783.4294276550304,1804.0153863388116
1.57,12.02474222844474,5.760499294092098,28.531595298663408,-27.262487139015274,1784.3761715225755,1804.0153863388116
1.58,9.933522996156746,6.233944805353913,28.927067597508135,-27.2536247531407,1788.0544184646149,1804.0153863388116
1.59,7.586484042635087,10.144771705283155,29.259424197495907,-27.899811836023662,1787.6456097575667,1804.0153863388116
1.6,9.282295126531022,9.571665213626948,28.881119058706382,-28.143377142522223,1785.6925725821443,1804.0153863388116
1.61,11.211911402873712,7.2160113963247134,28.4011049962647,-27.72282999405268,1785.2059776264496,1804.0153863388116
1.62,11.44956014608454,5.4066006128029045,28.137167195935948,-27.15070029322744,1786.0718472499582,1804.0153863388116
1.6300000000000001,9.064622726464757,7.166025306788609,28.467416848521754,-27.33312261005095,1788.4377392244812,1804.0153863388116
1.6400000000000001,8.016602034900876,10.654194929313093,28.656852383982482,-28.055907208029478,1786.5480309326695,1804.0153863388116
1.6500000000000001,10.215318809318,8.568841193637073,28.318694722929592,-28.019852107787536,1784.4260034200888,1804.0153863388116
1.6600000000000001,11.902994000522934,6.008037250325,28.08851775856883,-27.404193695235527,1784.3629086973986,1804.0153863388116
1.67,10.560915780249724,5.6383774479727125,28.368801391119593,-27.18822379511361,1786.80925031685,1804.0153863388116
