t,iq,id,vq,vd,omega,r
0.0,0.0,0.0,0.0,0.0,0.0,255.12005073488027
0.01,0.0,0.0,66.33121319106887,0.0,45.69719497366813,255.12005073488027
0.02,11.54748738635808,0.10671355250223125,105.57300839369042,-0.027745523650580126,91.85990908274843,255.12005073488027
0.03,11.637598909674933,-0.4304389408053093,123.55815567268719,-0.14953441012722773,127.28881337749269,255.12005073488027
0.04,12.598378693658464,-3.8085448880368906,128.1917962384278,-0.4145858782212396,148.45007249568462,255.12005073488027
0.05,13.133243882784473,-2.3012350799259735,126.91333849818142,-2.2417891341635547,182.00616522159658,255.12005073488027
0.06,13.333308047957281,-0.025966826053819503,117.6725330007275,-3.0783438746035166,231.65812458730736,255.12005073488027
0.07,13.033692142252137,2.810808943840293,98.36791964605013,-3.055407995243944,303.2408794126972,255.12005073488027
0.08,11.76763579946403,6.269013117624677,65.92087191574262,-2.2069059512727955,356.0250862352017,255.12005073488027
0.09,11.375199152376256,2.3365699966397266,27.771092116580505,-2.429198702477119,399.6507258326879,255.12005073488027
0.1,12.970128543002854,2.5525388798957596,-12.650924700647938,-2.9398992615810013,356.0565677599479,255.12005073488027
0.11,-8.043655968097696,-7.089031466973929,-35.22806053905201,-1.0712256913688223,277.6722672025352,255.12005073488027
0.12,-10.458049096973063,-4.930370367955733,-35.56222987435456,0.1715085766667906,204.39112199910463,255.12005073488027
0.13,-13.008215630635002,-1.9055232458343108,-17.008694246948657,0.36685781117042,163.0312311620719,255.12005073488027
0.14,-10.876385995425563,-2.384803606027143,9.12488775712806,0.9678515162791339,175.54693184753287,255.12005073488027
0.15,6.142441659392499,0.9787269576530947,27.187211780713994,0.6895344712290578,225.99366894119785,255.12005073488027
0.16,11.368796237195383,2.021140942955081,31.021410627155085,0.1480587205812421,283.03423390830557,255.12005073488027
0.17,11.989455856219047,1.6188090381663462,19.673317526374255,0.03838457329073881,319.60171558498183,255.12005073488027
0.18,11.148155085800084,2.320019636403466,0.4086007333362687,-0.548632441792499,312.53244153413715,255.12005073488027
0.19,-0.5029863433113713,-1.9922426769388675,-13.631546225850547,-0.0074491494243587204,273.0483295136332,255.12005073488027
0.2,-10.61374443587294,-4.607332225589854,-14.964231110439886,1.1705348024596145,228.8498194938055,255.12005073488027
0.21,-10.234188814686627,-3.3636386187085017,-5.399936552513129,1.9990075210679268,213.13846880233615,255.12005073488027
0.22,-4.96128200726982,-0.6680774857239902,6.440163871280882,2.139071281169079,224.22928448270522,255.12005073488027
0.23,3.7069205970727865,1.4675556369053449,13.038535102209325,1.7508260407164489,250.0393833103364,255.12005073488027
0.24,8.438601770745022,2.3192554070230806,11.893633715646,1.1624951912595012,273.36104800608007,255.12005073488027
0.25,7.490447618165386,1.589920900040942,5.237037387873063,0.7723083113190873,279.3166716484325,255.12005073488027
0.26,2.7985069917988445,0.11125854770472121,-1.5243814186245592,0.7592802979162693,270.8884804579385,255.12005073488027
0.27,-2.086313953890368,-1.2491697055850284,-4.811780239554694,1.0851770068454236,254.6440191705643,255.12005073488027
0.28,-4.565031339362183,-1.661948506210419,-3.3642827269066937,1.5047919214042824,240.44061336606197,255.12005073488027
0.29,-3.54575328370434,-1.025762791831678,1.3238562137124106,1.7548707622184143,239.16238147477134,255.12005073488027
0.3,-0.0706443899897905,0.19223812207394414,5.308965856212851,1.6946312225608722,247.46493170495958,255.12005073488027
0.31,2.816266867267684,0.9147925363568359,6.406784282001644,1.458707544328834,258.172791006319,255.12005073488027
0.32,3.546105718942634,0.8730308133360809,4.642695802875954,1.240867458225021,263.53591900202514,255.12005073488027
0.33,2.259002258394578,0.24118208126637394,1.9332179261395104,1.1868904252291246,262.7582447899413,255.12005073488027
0.34,0.3851924375616408,-0.20695328228376336,-0.04611385668698317,1.2431100994355668,258.58110270068994,255.12005073488027
0.35000000000000003,-1.075486383858034,-0.5075675504301869,-0.586127043068183,1.3730081297245775,252.72511063683163,255.12005073488027
0.36,-1.540883302135884,-0.5742390900621989,0.4610426967993087,1.5172346176364475,248.09079212936646,255.12005073488027
0.37,-0.764370658570791,-0.3024087512839127,2.448028071459458,1.5901185020696427,249.31667935687332,255.12005073488027
0.38,0.742366543049042,0.25241234818658703,3.6859530359076667,1.5214672040282908,253.91718023399937,255.12005073488027
0.39,1.6172158498142752,0.4620001216853483,3.527613196835408,1.403871295871966,257.80876588505083,255.12005073488027
0.4,1.4366744794280772,0.24343378604090177,2.4591553466290943,1.345198512718185,257.8141543411427,255.12005073488027
0.41000000000000003,0.6942485513315404,-0.07393390218830631,1.6194376819506517,1.3668556651475536,256.88212510985204,255.12005073488027
0.42,0.14709349990044077,-0.09965328869518451,1.1569375560598152,1.3920261811864185,255.6788957526702,255.12005073488027
0.43,-0.22260687591890999,-0.1427024738037604,1.0886073179220708,1.4281322914884442,253.7307364498027,255.12005073488027
0.44,-0.3401081128771581,-0.22405773252952016,1.5416195228090115,1.4849602772080817,251.70911409280006,255.12005073488027
0.45,0.0338306554638425,-0.11297458335795599,2.402372855349718,1.5120930915558548,252.88941937488002,255.12005073488027
0.46,0.7090638740321386,0.18413061294988547,2.7642093418352616,1.4630893863553052,255.4010609670235,255.12005073488027
0.47000000000000003,0.9370161390597813,0.2284628235302703,2.432306810462794,1.4055303583669336,256.5556119100005,255.12005073488027
0.48,0.6303857306062643,0.0038681607878388036,1.9073408786859358,1.4068092647973984,255.29983110556003,255.12005073488027
0.49,0.3084309563239934,-0.10496340178077178,1.8010654027222235,1.4341384308682772,255.08608180765023,255.12005073488027
0.5,0.27450038645355795,0.004689796147560536,1.743409336594145,1.4318694498521038,255.26535913823443,255.12005073488027
0.51,0.19117254758861146,-0.0006400343320409896,1.6583296039412583,1.4320827567399101,254.50064474197012,255.12005073488027
0.52,0.06351650764071974,-0.13722271286783677,1.806225679620737,1.4677542617422272,253.14071006660504,255.12005073488027
0.53,0.239972302262755,-0.05954416120396677,2.2529025599312855,1.48186351652658,254.0982727561175,255.12005073488027
0.54,0.5994968426492422,0.13767772622330776,2.3453019716606778,1.4454718660964803,255.64878531865506,255.12005073488027
0.55,0.6226649669262012,0.12352811673573047,2.0417152771172846,1.4147313330074234,255.68359257757416,255.12005073488027
0.56,0.33771574826703243,-0.09288977284268449,1.8189022989744537,1.4401179551138785,254.34980000199536,255.12005073488027
0.5700000000000001,0.25616798507832034,-0.07281012139487023,1.9615763893137743,1.4581196889481178,254.69302953360213,255.12005073488027
0.58,0.3872104707852092,0.0643923667587236,1.96678635176387,1.440649572376901,255.3699253850152,255.12005073488027
0.59,0.3424855413013364,0.04050344978697476,1.812374594685512,1.430762599099875,254.75951241900833,255.12005073488027
0.6,0.16690950986647682,-0.13843849797694185,1.8686416861612938,1.4671616430717493,253.66672571276314,255.12005073488027
0.61,0.2964689463186126,-0.030113399379100153,2.167487977808853,1.473606741930546,254.56235779903858,255.12005073488027
0.62,0.5338695336372524,0.12045156026621764,2.1621135016240207,1.4419882022675385,255.6674801026005,255.12005073488027
0.63,0.47867278759867965,0.07345934503588142,1.895088707219057,1.4240932881608714,255.13021802843434,255.12005073488027
0.64,0.22317557125833837,-0.14461968612552867,1.8446805839210183,1.462429000003868,254.0607899444139,255.12005073488027
0.65,0.2837231465491139,-0.030614211357768067,2.048653799987629,1.4689424980956323,254.74915788296732,255.12005073488027
0.66,0.44495060578333756,0.09563580228677332,2.021643407542153,1.4437710473874934,255.5133896772088,255.12005073488027
0.67,0.370923200752125,0.04063454999267649,1.8236758278798835,1.434162422412265,254.69028338591656,255.12005073488027
0.68,0.16748519338888737,-0.1664478067665208,1.8995118097601436,1.4778451976714873,253.89126848929206,255.12005073488027
0.6900000000000001,0.32643465411537903,0.001433393327926108,2.13149936198733,1.4758080373385611,254.83367067468478,255.12005073488027
0.7000000000000001,0.5015981807947723,0.11889959128837674,2.066519174716787,1.4449084775368626,255.673347226471,255.12005073488027
0.71,0.39748299998076136,0.04235148313140749,1.8214686881141888,1.4350860878355802,254.71833273641337,255.12005073488027
0.72,0.16816210210728638,-0.1735850340159455,1.8917010160834014,1.48064171151104,254.03077198397753,255.12005073488027
0.73,0.3238104555106333,0.010122449647623669,2.088387213921752,1.4762740242624983,254.93027266781812,255.12005073488027
0.74,0.4667549487569437,0.11187879731550188,2.008718541727184,1.4472867614569438,255.6026754021523,255.12005073488027
0.75,0.34965569054268114,0.02457134167600282,1.7950954175123062,1.4420170005943382,254.47742735898504,255.12005073488027
0.76,0.15811053011997964,-0.16730525464820667,1.9293915609920174,1.4857620802196319,254.01079121581236,255.12005073488027
0.77,0.3540560248839132,0.029803529041615984,2.1208993410221026,1.4763401101223297,255.02433448546898,255.12005073488027
0.78,0.4869890933578578,0.11891490011146336,2.011616366654153,1.4457202713837651,255.65271024031165,255.12005073488027
0.79,0.3464838925220083,0.01478606833728438,1.786951811625737,1.4430650426171858,254.4044424310654,255.12005073488027
0.8,0.16333276833310734,-0.15859052252605282,1.939334884830527,1.4844464391573322,254.0748770333567,255.12005073488027
0.81,0.3642650645916713,0.03850514203065303,2.1108483750780023,1.472849197004102,255.09340938795873,255.12005073488027
0.8200000000000001,0.476556973804751,0.11432983798631019,1.9870612257190476,1.4435084905479678,255.60285582387584,255.12005073488027
0.8300000000000001,0.3238256019784787,-0.0013181444287988786,1.7818364023346251,1.4449945064793188,254.26070448911423,255.12005073488027
0.84,0.1712105517302876,-0.14647759442707603,1.9688179896936597,1.4830654995860704,254.10565090826586,255.12005073488027
0.85,0.3882883109405068,0.050701969362021315,2.124725626828517,1.4684182116076743,255.17280721142845,255.12005073488027
0.86,0.48344953585655603,0.11308755757083239,1.9790509484465457,1.439522466332878,255.59009494674163,255.12005073488027
0.87,0.3134675094165794,-0.016280316466380187,1.7806999610383276,1.4448862241898452,254.17855450130278,255.12005073488027
0.88,0.18160301073588125,-0.135033801198913,1.986107316189923,1.4798322093368985,254.1593142344971,255.12005073488027
0.89,0.4030504311773315,0.058557969206153415,2.123506761955027,1.4632567993313097,255.2335065834344,255.12005073488027
0.9,0.47925403227484564,0.10768367057448022,1.9638253322474322,1.4358446246740062,255.53391642918496,255.12005073488027
0.91,0.29820295973509403,-0.03314177261479237,1.7846145810053782,1.445538322259597,254.08645219612697,255.12005073488027
0.92,0.19492499473172237,-0.12196192279069466,2.009790388991385,1.4769170044590294,254.21153630527039,255.12005073488027
0.93,0.42186340665236177,0.06740610832194492,2.127932919520124,1.4581717970674168,255.29922789706293,255.12005073488027
0.9400000000000001,0.4788714813939489,0.10273890943954833,1.951973761960628,1.4321337416963538,255.48302245602213,255.12005073488027
0.9500000000000001,0.2854382524912562,-0.0500627144088021,1.7899676552517838,1.4461774365370377,254.0239904839072,255.12005073488027
0.96,0.20842056833320532,-0.1089651212957517,2.0272380724744794,1.474007740929845,254.27321124561888,255.12005073488027
0.97,0.43560066496910493,0.07444328374905035,2.1252837699640734,1.4535628359421344,255.35360177230237,255.12005073488027
0.98,0.473079922556859,0.09604833690130188,1.9374473321266203,1.4293347011852866,255.40857541759664,255.12005073488027
0.99,0.27076751818181877,-0.06746166630135152,1.7990976694928806,1.447835217792651,253.96951233376726,255.12005073488027
1.0,0.22370755473017132,-0.09474432543956435,2.0456666115614004,1.471794125743924,254.34071186988652,255.12005073488027
1.01,0.4493799909107389,0.08161209067868141,2.1221876103591537,1.4496275389130713,255.4082894103311,255.12005073488027
1.02,0.4666081014921036,0.08904030402994925,1.9226278596131616,1.4272931807720712,255.32782956847225,255.12005073488027
1.03,0.25607273393228025,-0.0852060667227884,1.8095749198262814,1.4503371611602958,253.93413421204036,255.12005073488027
1.04,0.2389983106090378,-0.08001063187074368,2.060412170681549,1.470287864779461,254.4150557004077,255.12005073488027
1.05,0.4597768515353657,0.08798860063119392,2.1146997161229146,1.4466107222966431,255.45594634706552,255.12005073488027
1.06,0.45658541784502726,0.08112696682586198,1.9062024664856696,1.426397596928231,255.2309862263699,255.12005073488027
1.07,0.2402265868439863,-0.10307157546962495,1.8228251364192292,1.4540074762185922,253.9140473331251,255.12005073488027
1.08,0.2552967052420129,-0.06426288721553367,2.0735204982959856,1.4696851111399345,254.4976576315118,255.12005073488027
1.09,0.46826061370452954,0.09410106452152486,2.104087878643478,1.444576205492183,255.50091733803058,255.12005073488027
1.1,0.44388291896932974,0.07260270141822758,1.888111677995732,1.4266405137686589,255.1222034222458,255.12005073488027
1.11,0.22321953211708503,-0.12111753988541193,1.8377623961514467,1.4588571011530482,253.90916785546037,255.12005073488027
1.12,0.2718292540258341,-0.04771114688464412,2.08417006094873,1.4700508239442014,254.58687243963425,255.12005073488027
1.1300000000000001,0.4741973564108038,0.09984143177533941,2.090114568791945,1.4436149402137666,255.54099948680164,255.12005073488027
1.1400000000000001,0.4284971819811837,0.06341544181637268,1.8686688165889282,1.4281253396592632,255.0001436567462,255.12005073488027
1.1500000000000001,0.2053071031532074,-0.13921362357391284,1.85495926942298,1.4649550362066444,253.91985742634637,255.12005073488027
1.16,0.2890177102684039,-0.030216085263850043,2.0927189252222,1.4714190821395061,254.6840391299508,255.12005073488027
1.17,0.4779506076858025,0.10525764795791756,2.0727030285228962,1.443749932817809,255.57724950617168,255.12005073488027
1.18,0.41031971290907776,0.05357552647278213,1.8475676126583311,1.4308728724144648,254.8650134322105,255.12005073488027
1.19,0.186289974253741,-0.15741585210631204,1.8741171028885018,1.4723367492268338,253.94561664852338,255.12005073488027
1.2,0.30664184335627676,-0.01181198526797847,2.0990556127844995,1.4738337068754452,254.78855087280488,255.12005073488027
1.21,0.479534591969128,0.11031934486093066,2.051888660582121,1.4450325573589236,255.60901274495976,255.12005073488027
1.22,0.38937743870412767,0.0431206471459046,1.8250007511973179,1.4349243825495974,254.71666400884286,255.12005073488027
1.23,0.1675651324330279,-0.17346417929117752,1.8950977600222938,1.4804562756367627,253.9817768021332,255.12005073488027
1.24,0.3247716011902355,0.007076115688161244,2.1042501502910267,1.4768818437649291,254.89682716377683,255.12005073488027
1.25,0.4796473448825542,0.1149956686553319,2.0294449457928865,1.4470537310714242,255.63528963775613,255.12005073488027
1.26,0.36706913564398874,0.03210227086568587,1.8026090935155155,1.4398570973328992,254.57513180745428,255.12005073488027
1.27,0.15920583936849333,-0.1707075273533346,1.9117175767956611,1.484562077153423,254.0126964842548,255.12005073488027
1.28,0.3398686041418741,0.021812539792002733,2.107406714000819,1.4771837415339688,254.9810526818843,255.12005073488027
1.29,0.47854660114622694,0.11670997581333603,2.0114492350169138,1.4470572732204214,255.63383676589888,255.12005073488027
1.3,0.3485258619632503,0.01983384730386542,1.7906436283231322,1.4430675726795499,254.43896475480187,255.12005073488027
1.31,0.1609738937674625,-0.16233844063130093,1.934495889693793,1.4854739057167266,254.05049947438172,255.12005073488027
1.32,0.3594185126827411,0.03498125204938125,2.1139292832627916,1.4747553957775748,255.06591096073723,255.12005073488027
1.33,0.48010730124140655,0.11642370261006478,1.996076398739058,1.4448350456194514,255.62529622890742,255.12005073488027
1.34,0.33238779414540626,0.005718318273755324,1.782551419085177,1.4445125198943756,254.31864205745669,255.12005073488027
1.35,0.16666768327284032,-0.15184293557313552,1.9559604104460948,1.4840488663261282,254.08933838034747,255.12005073488027
1.36,0.3778269318760268,0.04573222682036737,2.119363210395347,1.4706400579971015,255.13833008933847,255.12005073488027
1.37,0.480931501357561,0.11406025224376332,1.983039533656681,1.4414417146819265,255.59843418071065,255.12005073488027
1.3800000000000001,0.3183081472159829,-0.009459196272423732,1.7808918280227821,1.4450417082351938,254.21418324537854,255.12005073488027
1.3900000000000001,0.1769089968171677,-0.14000972524097346,1.9783879520512322,1.4813496448351229,254.13645414064655,255.12005073488027
1.4000000000000001,0.3965317299676434,0.055233866767083015,2.1237352318335656,1.4655887422232712,255.20793137720617,255.12005073488027
1.41,0.4808781774402302,0.11012068018982091,1.969987290051711,1.4375097040415887,255.5593317206442,255.12005073488027
1.42,0.30444481123882067,-0.02572254293246376,1.7823061710286572,1.4452987720059276,254.1230536924878,255.12005073488027
1.43,0.18876419575428338,-0.12773181540971948,1.9998839691246157,1.4782518185831302,254.18709146705302,255.12005073488027
1.44,0.41404974775733805,0.06374389662035718,2.1267181158764092,1.46040108730774,255.2712791800195,255.12005073488027
1.45,0.47958899298789026,0.10512968988865935,1.9575164867626602,1.4337048069028924,255.50768359653247,255.12005073488027
1.46,0.2912632101434127,-0.04256693210133594,1.7873116824770703,1.4458235061481262,254.0494828501094,255.12005073488027
1.47,0.2024140400124138,-0.11471525039284547,2.019820642832224,1.4752238019292525,254.24562800139162,255.12005073488027
1.48,0.42982169824186167,0.07144487803961186,2.1267353735488026,1.455500981135025,255.33045320513327,255.12005073488027
1.49,0.4758649273746043,0.09905710862990455,1.943859839813157,1.430460581671646,255.44252358607173,255.12005073488027
1.5,0.2772170116887108,-0.059849185004534955,1.7948031494405876,1.447011940859124,253.9911358307288,255.12005073488027
1.51,0.2169401162971849,-0.1010223421052128,2.0379134929115,1.4726792579564336,254.31031815076346,255.12005073488027
1.52,0.4436630346175158,0.07855492643713159,2.1239718279027717,1.4512447536617274,255.38497355848156,255.12005073488027
1.53,0.46978950072408515,0.09219727242383696,1.92928592808318,1.4280590120959011,255.36470471283783,255.12005073488027
1.54,0.2626188250674859,-0.07743872435082565,1.8047421225399196,1.4491150531513541,253.94783850581538,255.12005073488027
1.55,0.23225874983612035,-0.08654199860934149,2.0542027551696482,1.4708415855462746,254.3818598627187,255.12005073488027
1.56,0.45549062703862325,0.08524875792574871,2.118305284109326,1.4478114884994866,255.43564781873974,255.12005073488027
1.57,0.4612462385113026,0.08464988781616462,1.913499017841695,1.4266550052465414,255.27467074941077,255.12005073488027
1.58,0.24722895532318423,-0.09527055295875286,1.8167867189034428,1.452271847893979,253.92150416087125,255.12005073488027
1.59,0.2481199250082416,-0.07123414737397385,2.0679161373421806,1.4698400206816244,254.4610275042698,255.12005073488027
1.6,0.4647279586159357,0.09145195684539953,2.108928641570752,1.4453501704280807,255.48169515053235,255.12005073488027
1.61,0.4496460517778447,0.07635570225708199,1.8960501673190269,1.4264122074096932,255.1708378332381,255.12005073488027
1.62,0.23065943548951845,-0.11324341023711525,1.8309869731930153,1.4566190510939137,253.90910671246363,255.12005073488027
1.6300000000000001,0.2645483806404996,-0.05501961649500008,2.079864305393285,1.4697917172802424,254.5469627548959,255.12005073488027
1.6400000000000001,0.4719527273810973,0.09740462536602827,2.0966955146523736,1.4439163185201254,255.52414578726479,255.12005073488027
