t,iq,id,vq,vd,omega,r
0.0,0.0,0.0,0.0,0.0,0.0,2452.8104286642597
0.01,0.0,0.0,637.7307114527075,0.0,32.7067666141391,2452.8104286642597
0.02,11.54893300688988,-0.049138812603371496,1086.9223620844034,0.01277609127687659,47.58457790329718,2452.8104286642597
0.03,11.902789936769576,-6.008441519971264,1420.3357745957599,-0.9533553059327777,51.938200251547386,2452.8104286642597
0.04,12.19711197584899,-5.385929560101842,1669.5158045742244,-2.979824121005576,59.77294065874504,2452.8104286642597
0.05,12.487995407131132,-4.672017603696445,1854.5112375273886,-4.30556054545523,71.50998088383176,2452.8104286642597
0.06,12.775940673282422,-3.8148548714919164,1990.3871023116942,-5.087238880758355,87.79094673802278,2452.8104286642597
0.07,13.046060147738906,-2.75283352191091,2088.2837357290778,-5.426753916482,109.47111093571314,2452.8104286642597
0.08,13.25819064256235,-1.413562401611566,2156.3417967100227,-5.381767661308148,137.59321809556576,2452.8104286642597
0.09,13.330339305637557,0.28254517223291487,2200.4010371755894,-4.972060555744724,174.60867694023045,2452.8104286642597
0.1,13.113116795404924,2.4132852479238824,2224.2031578338865,-4.184147026206674,223.55627948072524,2452.8104286642597
0.11,12.347408549205602,5.031826695821522,2229.7651046682968,-2.9742812093350324,287.3222581285066,2452.8104286642597
0.12,10.61475738312615,8.06874856933506,2217.830293644085,-1.2591712505772612,303.03608819836,2452.8104286642597
0.13,13.281207319463569,-1.1778412096734905,2204.689272677225,-3.6524173962013755,333.47062571125974,2452.8104286642597
0.14,12.94593594755651,3.1906927491599464,2187.783152989548,-4.287376299833447,388.7095386927863,2452.8104286642597
0.15,10.88923955862365,7.694299163191119,2161.3760167479813,-3.2697274303172086,402.78056214190616,2452.8104286642597
0.16,13.33112120740978,-0.24286854701042238,2137.3064168301144,-5.662131861323468,439.6713268903065,2452.8104286642597
0.17,12.18157197260224,5.420985339778117,2110.860455642234,-5.804204898011269,507.7394904309052,2452.8104286642597
0.18,8.191873250345061,10.520028062132663,2074.0332665128058,-3.781559912398292,541.3086503371342,2452.8104286642597
0.19,12.23652870323118,5.295766523627828,2037.889053042289,-5.208482734809443,609.3696372506947,2452.8104286642597
0.2,7.147283116181182,11.25584833919368,1994.2023666647362,-3.602465039884462,651.1542579349766,2452.8104286642597
0.21,10.899507543660926,7.679746941368336,1950.8784676404266,-4.923107247510577,666.4562681151832,2452.8104286642597
0.22,12.903223427214924,3.3592563113209573,1913.6088935807627,-7.8485657776824915,726.0564418905725,2452.8104286642597
0.23,7.452912552027106,11.055852399051577,1872.232374168314,-6.711799607109495,767.357116436487,2452.8104286642597
0.24,10.131175762297065,8.668163326289035,1830.5456885534925,-7.7329048878049145,790.1840200890789,2452.8104286642597
0.25,11.871160315964053,6.070694402657574,1792.8958721133818,-9.955241927607714,856.417948088167,2452.8104286642597
0.26,3.1718924401102293,12.950555050890651,1749.5244007073777,-7.130452173316234,917.2110029343689,2452.8104286642597
0.27,4.747545243476424,12.459477996245353,1701.9134571079824,-6.220795001959227,973.1541636776763,2452.8104286642597
0.28,5.5237068758169094,12.13533848427108,1652.29943738555,-6.425242950423777,1026.0556924226412,2452.8104286642597
0.29,5.598815357577921,12.100869570800578,1601.9466107971914,-7.07340565761168,1078.0998791284183,2452.8104286642597
0.3,5.00029885462504,12.360209914973662,1551.3405049471598,-7.676669052610294,1130.747666647451,2452.8104286642597
0.31,3.6853312381329344,12.813903052661951,1500.5090513318862,-7.855683010279703,1183.6444559352237,2452.8104286642597
0.32,1.5834867510813728,13.238970786542568,1449.5333592559778,-7.2765390000357275,1233.778282900037,2452.8104286642597
0.33,-1.3053040205519322,13.269286310563528,1399.116148564233,-5.626141598740649,1254.549417199878,2452.8104286642597
0.34,8.590909587854645,10.196766655714196,1353.734478040412,-10.040602694728639,1292.923646916933,2452.8104286642597
0.35000000000000003,5.435428316712775,12.175134364418927,1311.437177656046,-11.998956859342453,1339.5738136473612,2452.8104286642597
0.36,1.2311117598227685,13.276375319062195,1269.111814442027,-11.501114976126676,1381.7943382945462,2452.8104286642597
0.37,-3.7562274013775268,12.79330033599299,1227.4225489252708,-8.476122405886475,1412.5390348025978,2452.8104286642597
0.38,4.612786331378718,12.509995205387705,1186.8648885480575,-11.36795464406314,1455.567624932322,2452.8104286642597
0.39,-1.3218083137368313,13.267652413276208,1147.3030995564816,-10.494331183951136,1478.356498834353,2452.8104286642597
0.4,5.997049367502338,11.908533774630591,1109.581084384338,-14.127754622039665,1518.8241779492319,2452.8104286642597
0.41000000000000003,-0.7040914948071093,13.31472992383691,1073.5077039308305,-13.482158536595716,1539.6151605306356,2452.8104286642597
0.42,5.772594624923115,12.018940430590648,1038.8435337018718,-16.731958419658152,1578.0988105613537,2452.8104286642597
0.43,-1.8007842354930055,13.211167772569448,1005.9286511804555,-15.257529056688321,1601.647613149386,2452.8104286642597
0.44,3.958120382722598,12.732284194662544,973.3595445097869,-17.649064400370754,1636.2370548718895,2452.8104286642597
0.45,-4.5378151961853606,12.537384536778273,942.8398456193285,-14.60620986109988,1664.4234902516403,2452.8104286642597
0.46,0.3286471745309685,13.329282381750733,911.6898887088879,-15.698194388200445,1684.328205960775,2452.8104286642597
0.47000000000000003,-8.40461724919868,10.35085439334598,884.8313565679794,-13.372955426736292,1711.8760059995711,2452.8104286642597
0.48,-4.7576089943663415,12.45563866024148,857.6344241458784,-11.902763167650772,1738.4750090522102,2452.8104286642597
0.49,-0.960288144717933,13.29870762355846,829.6452042079648,-13.524745419096556,1758.3892130678735,2452.8104286642597
0.5,2.6279349440096924,13.07179160283052,802.1454966751412,-16.89986973492305,1781.4463920759615,2452.8104286642597
0.51,-7.657786033013328,10.91494804615962,778.8175462251925,-12.826048448919465,1805.7627447432017,2452.8104286642597
0.52,-5.127309623221831,12.308065396535499,754.857348947475,-12.005865928373996,1829.8828651701056,2452.8104286642597
0.53,-2.6502658116935702,13.067282384074584,730.2051486645543,-13.30700359906807,1851.0803017357011,2452.8104286642597
0.54,-0.36433214005311854,13.328354732280426,705.5276814085244,-15.858018309250783,1868.3838313651104,2452.8104286642597
0.55,1.6792074590274417,13.227170524618044,681.674053739438,-19.008488407479412,1882.3943385905902,2452.8104286642597
0.56,-9.531138719441108,9.3239032861001,663.591147546799,-13.452700088009237,1896.1467407611635,2452.8104286642597
0.5700000000000001,-8.421084358501052,10.337461777669926,646.5201130409309,-10.528672126352449,1913.1483138383087,2452.8104286642597
0.58,-7.366263657619052,11.113772424528879,629.3644434774284,-9.408225051541907,1931.7885826950824,2452.8104286642597
0.59,-6.337116316867749,11.481915887629253,611.6511436658056,-9.436838047470104,1950.821794924557,2452.8104286642597
0.6,-5.541635665986256,11.714076749784935,593.421151110505,-10.16271190729172,1969.6105794072466,2452.8104286642597
0.61,-4.967082422556844,11.79946455605861,574.8872635888691,-11.225805043823843,1987.8970961365105,2452.8104286642597
0.62,-4.620918090869372,11.77583073830248,556.3001087160433,-12.361714957433884,2005.5633977651225,2452.8104286642597
0.63,-4.4974340837070566,11.662059448615194,537.8938802886072,-13.3784409378948,2022.5572610617862,2452.8104286642597
0.64,-4.5860875557623615,11.467785003643064,519.8646123292511,-14.138039400345393,2038.8173047084135,2452.8104286642597
0.65,-4.87125328200782,11.190527299641843,502.37295463713065,-14.539836473517623,2054.14736875164,2452.8104286642597
0.66,-5.417560200282851,10.693655192547777,485.6009800713376,-14.475678996906321,2068.136446207253,2452.8104286642597
0.67,-6.172238798979791,9.951329217252844,469.76267745876663,-13.862529603168557,2080.274266140678,2452.8104286642597
0.68,-7.123638680592139,9.274901834870569,455.1250770184412,-12.72543603041743,2089.9845000833047,2452.8104286642597
0.6900000000000001,-8.450143874076588,8.864830820697021,442.05558567711563,-11.144711278165737,2096.470347410281,2452.8104286642597
0.7000000000000001,-9.809281642804722,8.1622846836141,430.9151895374182,-9.05473073726958,2098.915604186908,2452.8104286642597
0.71,-10.651453118272546,6.900463325236299,422.0185234656317,-6.374851939538881,2096.8416184776024,2452.8104286642597
0.72,-11.339955156545873,5.609496177998739,415.80791354780564,-3.2281157905435567,2093.222574411383,2452.8104286642597
0.73,-11.854198427664022,4.378351223045531,411.7624269682723,-1.6473113785413347,2101.7749354363764,2452.8104286642597
0.74,-1.8721657997970125,11.605816707250687,404.0352405536791,-7.753866741906551,2115.3628553173326,2452.8104286642597
0.75,-3.0870333275738693,11.178150178860742,395.51315054246584,-11.45126754624705,2128.591049719314,2452.8104286642597
0.76,-4.604370858732737,10.294712859413155,386.4667142935056,-13.164662815617177,2140.0021479598736,2452.8104286642597
0.77,-6.222757658734954,8.920298446653243,377.4432919664595,-13.119772862408151,2148.230882072285,2452.8104286642597
0.78,-8.202450760071011,8.10015566836862,369.21500234567225,-11.769439348029115,2151.824456319089,2452.8104286642597
0.79,-10.344185512620257,7.126558553942519,362.6223608319074,-9.295464181738666,2148.9999635920776,2452.8104286642597
0.8,-11.372970513713108,5.158846704891325,358.38242226299434,-5.687323132060078,2144.668428285672,2452.8104286642597
0.81,-12.028195298702556,3.2677859177486193,355.84348481697606,-4.1585445359492725,2152.3314682429227,2452.8104286642597
0.8200000000000001,-3.0154063794249293,10.876887037164064,349.94901714135784,-9.050576970185512,2164.1369804497267,2452.8104286642597
0.8300000000000001,-5.082712349450104,9.524840579113436,343.5484273676286,-11.159337795077288,2173.1226607761682,2452.8104286642597
0.84,-6.99715667357738,7.957811793992632,337.229632016604,-11.060418716211815,2177.6421435639277,2452.8104286642597
0.85,-9.959813992214329,7.532497109264618,332.1582438912888,-9.477005244850934,2175.302124158776,2452.8104286642597
0.86,-11.259119633097123,5.240381389616778,329.04777523562416,-6.227667965098231,2168.491429682085,2452.8104286642597
0.87,-12.016743869750892,3.0061353015828134,327.9895124729385,-3.6305978349975243,2175.448281865142,2452.8104286642597
0.88,-3.3830428363685603,10.468654060732327,323.3961968258415,-8.517797175899933,2185.994829000399,2452.8104286642597
0.89,-5.684588013381331,8.75121751357694,318.39017045331985,-10.334746811371891,2192.714780309902,2452.8104286642597
0.9,-7.926485696303531,7.369542887658889,313.74813509884757,-9.869290892362237,2194.016692799278,2452.8104286642597
0.91,-10.716670091125774,6.274467841205343,310.59664377039695,-7.655935161996465,2187.0440085147197,2452.8104286642597
0.92,-11.763918934917896,3.7543776571048895,309.8666900712982,-3.756766966947827,2191.2755128088697,2452.8104286642597
0.93,-5.19741734323713,8.188608574867178,306.0736267979903,-7.913726723801076,2200.5520363348887,2452.8104286642597
0.9400000000000001,-5.231066434827543,8.956282653322713,301.52959016036726,-10.371947387213572,2207.535968168613,2452.8104286642597
0.9500000000000001,-7.671031895888484,7.397563027419908,297.3157566195816,-10.210602345015669,2209.015588258258,2452.8104286642597
0.96,-10.679339733100775,6.267222324481594,294.54247556575496,-8.09780621329031,2201.6676252595034,2452.8104286642597
0.97,-11.783054954751435,3.549747976298348,294.20336572613553,-4.097826785627376,2206.229662630458,2452.8104286642597
0.98,-4.418622611558221,8.882387209520845,290.4189118689948,-8.566841469420128,2215.168388657554,2452.8104286642597
0.99,-5.639255985444804,8.418998598101576,286.29871893706377,-10.54288173398593,2220.6742994930137,2452.8104286642597
1.0,-8.440839376095997,7.130221315394955,282.83595736786026,-9.967454511667887,2219.719522997982,2452.8104286642597
1.01,-11.091065056740174,5.368659452246345,281.0589236868802,-7.260329626389541,2210.1276142638217,2452.8104286642597
1.02,-12.00162230765171,2.515783833168636,281.7691547909424,-3.5089025481262768,2215.759388774563,2452.8104286642597
1.03,-4.15834521464641,9.530176851400068,278.9029975759558,-8.103238758916403,2223.602734238438,2452.8104286642597
1.04,-6.635854468010903,7.517180565621844,275.9704315675448,-9.282596194930974,2226.474519484006,2452.8104286642597
1.05,-10.265074514473017,6.927375100314694,274.12094708118707,-8.203193103141517,2220.7999891263676,2452.8104286642597
1.06,-11.614199081007627,3.954389093256936,274.21053428245403,-4.749480717781592,2219.056636404676,2452.8104286642597
1.07,-12.183725260709801,1.1256952779653195,274.11836330953514,-5.249683810296903,2224.053315828332,2452.8104286642597
1.08,-5.479317808663889,8.44845369561238,271.7223143646662,-8.322983929702303,2229.375677157117,2452.8104286642597
1.09,-8.327087340190657,6.999880810747703,269.69736750606336,-8.37923373202882,2228.0948896478044,2452.8104286642597
1.1,-11.119547352784883,5.254763215896253,269.13021630688155,-6.078412903552772,2218.0694556122976,2452.8104286642597
1.11,-12.02183782678388,2.2959244040547224,270.8197258424251,-2.7140815857179335,2223.4775322948262,2452.8104286642597
1.12,-4.372041143516217,9.321260975707437,268.8562649669668,-7.36185020095378,2230.631303667996,2452.8104286642597
1.1300000000000001,-6.891416897854844,7.223081255594248,266.7759030082575,-8.486737146494136,2232.2411827225114,2452.8104286642597
1.1400000000000001,-10.530096155094427,6.4442436528352935,265.8448542233596,-7.251311919684361,2224.834563184871,2452.8104286642597
1.1500000000000001,-11.765237701675439,3.395645324566721,266.9578661899236,-3.6188686070559286,2227.3652552312947,2452.8104286642597
1.16,-6.49231583200326,6.550452549060919,265.2278212985457,-7.172347368467574,2234.2502402374057,2452.8104286642597
1.17,-6.060707680240627,7.77294580276515,262.7869588337711,-9.181016247558555,2237.871490194484,2452.8104286642597
1.18,-9.46526429297248,6.854466400162357,261.1889040860013,-8.533796246957486,2233.627382555449,2452.8104286642597
1.19,-11.48919028497976,4.248444309839321,261.3597803554154,-5.403366799473807,2228.6147031026744,2452.8104286642597
1.2,-12.144019253001568,1.2453224152497073,262.0848733964114,-4.726238546107891,2233.310456183824,2452.8104286642597
1.21,-5.40399918028592,8.390446235142505,260.32904954750387,-8.041824248974606,2238.4543413385923,2452.8104286642597
1.22,-8.413992117707418,6.9688505839282,258.90490308510823,-8.216387340028204,2236.677958491688,2452.8104286642597
1.23,-11.187521440810144,5.042208356470965,258.9079746796762,-5.881137271002528,2226.9450029503446,2452.8104286642597
1.24,-12.052172584580433,1.9768374698199573,260.8601088791244,-3.0311013535418736,2231.9875087533856,2452.8104286642597
1.25,-4.745383088783363,8.93375353985633,259.41662722245076,-7.352220757609494,2238.2979353192436,2452.8104286642597
1.26,-7.443421446990895,7.057786225783435,257.95911442941014,-8.206537826511237,2238.575676628424,2452.8104286642597
1.27,-10.836623520289997,5.814231469147517,257.70261326309543,-6.572689169683478,2228.6823866631366,2452.8104286642597
1.28,-11.917217144879316,2.6975799637494986,259.8201810660984,-2.5875435750884845,2233.718604186493,2452.8104286642597
1.29,-4.040145732063812,9.422534279541997,257.84608808389174,-7.5750379094189215,2240.844373204508,2452.8104286642597
1.3,-6.72912305809553,7.250300039579675,255.89007535582724,-8.874744085114829,2242.2726795463996,2452.8104286642597
1.31,-10.493838574293477,6.46461877851263,255.17812711354478,-7.689361514304538,2234.6804516832785,2452.8104286642597
1.32,-11.770821838657682,3.2800187341173075,256.5191050239865,-3.9724288066821014,2237.1623755073992,2452.8104286642597
1.33,-6.287040695999783,6.670661362711913,254.91062273269014,-7.537072300070832,2243.549637235858,2452.8104286642597
1.34,-6.270990138872475,7.431984275180511,252.80983600912094,-9.260771786097841,2246.159040448716,2452.8104286642597
1.35,-10.064996961017563,6.749825068897189,251.79453504732064,-8.380176291526954,2239.8277483255383,2452.8104286642597
1.36,-11.652458087343287,3.668404152391563,252.74911376403355,-4.881421113689705,2238.4773379207836,2452.8104286642597
1.37,-11.27272329647909,1.5072551080257934,252.9529216164502,-5.7981418344989715,2242.8184590123547,2452.8104286642597
1.3800000000000001,-5.970483412738947,7.746021565738075,251.36395149716665,-8.3118630557315,2246.1322726482063,2452.8104286642597
1.3900000000000001,-9.469709698398349,6.730980145021844,250.56177851478702,-7.896972924830607,2241.079720705094,2452.8104286642597
1.4000000000000001,-11.536834576799258,4.0428017669391725,251.5407385490361,-4.850665061943634,2236.6146814438225,2452.8104286642597
1.41,-12.147951999358636,0.9474153574560868,252.718647476197,-4.563979391538755,2240.8843875094763,2452.8104286642597
1.42,-5.671340346680925,8.055607038558026,251.5271346535346,-7.691423418004333,2245.065784955841,2452.8104286642597
1.43,-8.952055466111064,6.846691264305785,250.80697083245855,-7.706389463254861,2241.5488571962683,2452.8104286642597
1.44,-11.391987262841281,4.4752345657710855,251.62332084702444,-5.0760312601330275,2234.3715013770016,2452.8104286642597
1.45,-12.115062353770018,1.3614826866360215,253.38323603748472,-3.6906757606150733,2238.8821353719063,2452.8104286642597
1.46,-5.323135106608314,8.384261658025245,252.35850402621827,-7.366709707350148,2243.8860864775197,2452.8104286642597
1.47,-8.360619642878493,6.9031651195870545,251.5535405084742,-7.755942192755223,2241.9002219639547,2452.8104286642597
1.48,-11.207904347095411,4.9608300123122495,252.1001244982763,-5.532475171363552,2232.248955960892,2452.8104286642597
1.49,-12.060592640939436,1.8268983152311504,254.41007905092863,-2.880677522007454,2237.066304969833,2452.8104286642597
1.5,-4.906019754631727,8.747452171031963,253.37705070584315,-7.127511403221841,2242.9196132675415,2452.8104286642597
1.51,-7.7093884184691355,6.9731975503222685,252.3588066157482,-7.904636503567897,2242.0747221449055,2452.8104286642597
1.52,-10.982101641548741,5.483599324438488,252.65245149978216,-6.105970868842778,2230.7501354806145,2452.8104286642597
1.53,-11.98043253871418,2.32974437564481,255.4591497973889,-2.0621360656839225,2235.6888854824824,2452.8104286642597
1.54,-4.439427779762903,9.103840257047485,254.27166788871455,-6.901005014293053,2242.245622649962,2452.8104286642597
1.55,-7.06239229656505,7.051038880182881,252.9854896573122,-8.085984317706558,2242.9798529785357,2452.8104286642597
1.56,-10.714975520574276,6.043975863333711,252.86151199437447,-6.735374798114407,2233.6874204984615,2452.8104286642597
1.57,-11.872029840355461,2.8565656915655557,254.9803626896008,-2.899186778031766,2238.5371844414776,2452.8104286642597
1.58,-3.905228436421832,9.459798905507306,252.9285571945528,-7.929181154413375,2245.6383820180185,2452.8104286642597
1.59,-6.6588167261191025,7.213048175873792,250.9717617176326,-9.211945465435049,2247.0322427326882,2452.8104286642597
1.6,-10.496871059713266,6.43820497433984,250.30434617388565,-7.979171706375613,2239.2011451405524,2452.8104286642597
1.61,-11.782480602047057,3.188435407147267,251.74027549034182,-4.170023456513192,2242.0529450581066,2452.8104286642597
1.62,-5.7323410778668435,7.239958954467669,249.97932712690795,-7.970147563816476,2248.397050497877,2452.8104286642597
1.6300000000000001,-6.419847022710791,7.2985460543439515,247.95973001359891,-9.474040975001987,2250.3212313956565,2452.8104286642597
1.6400000000000001,-10.374584738743037,6.639555162818423,247.19785732498133,-8.396900079666503,2243.1096262905794,2452.8104286642597
1.6500000000000001,-11.733228519407623,3.345378213909645,248.4616974111105,-4.6619379355737465,2244.141237437723,2452.8104286642597
1.6600000000000001,-7.826189780289574,4.9199842770309,247.48760243686763,-7.2759516799698805,2249.546055822576,2452.8104286642597
1.67,-6.299262091298159,7.381989561706136,245.742349175665,-9.082387346972554,2251.7791214756153,2452.8104286642597
