t,iq,id,vq,vd,omega,r
0.0,0.0,0.0,0.0,0.0,0.0,845.6829103723506
0.01,0.0,0.0,219.8775566968112,0.0,53.7012940720962,845.6829103723506
0.02,11.567924392606242,-0.6603666357537412,366.2871015451489,0.17169532529597273,90.12723966384304,845.6829103723506
0.03,12.152552646006038,-5.485730759327271,467.161889564627,0.17955195047365022,100.31889038088083,845.6829103723506
0.04,12.633810887232405,-4.261994866658762,540.7387719475506,-2.103513135003119,120.29203785168218,845.6829103723506
0.05,13.036843890792397,-2.7961543492601852,591.0191108457278,-3.4504515891065357,150.8822742891381,845.6829103723506
0.06,13.299595194768623,-0.9479163639610251,621.1531698134679,-4.047034590248749,194.07996657820829,845.6829103723506
0.07,13.257342783558006,1.4214922078647456,632.9994803308298,-3.9830928987476204,257.7689283977978,845.6829103723506
0.08,12.572403218270269,4.439871067385302,625.9093703847847,-3.274575904783398,347.7139187533343,845.6829103723506
0.09,10.603981016675396,8.082905688907024,597.9369566885964,-1.8491660565983405,359.1382741772573,845.6829103723506
0.1,13.328311067673875,-0.3659260322795166,573.996507246348,-4.2960231755082035,405.711493242915,845.6829103723506
0.11,12.441559423335805,4.794306716656932,544.919966827677,-4.69175200765246,497.9214361153708,845.6829103723506
0.12,8.951387519267668,9.881823680762412,499.9702347495034,-3.163561065576843,523.9656397277689,845.6829103723506
0.13,12.663905406341012,4.171723581090271,459.7636126184286,-5.0452309837126155,610.1708680563642,845.6829103723506
0.14,8.232520911427372,10.488249483144877,408.42319462042894,-3.9661167189370636,644.3909861353118,845.6829103723506
0.15,11.646860283864171,6.490641209150688,361.2719279487093,-5.6885402616967005,688.3980712121787,845.6829103723506
0.16,13.17310326615474,2.060856161162416,313.4534342962778,-4.876570456626335,756.5781927384032,845.6829103723506
0.17,8.247295452089991,10.476635695857402,262.57575009024396,-5.124230865083603,790.8484877295238,845.6829103723506
0.18,10.543562883304151,8.16155986950955,215.55687011425172,-7.00284207358487,797.3282872078031,845.6829103723506
0.19,12.079360809533473,5.6450704345370735,178.06025197429017,-9.668362290624392,843.3393017751624,845.6829103723506
0.2,9.975116975077635,6.294960134251715,138.18313068391447,-8.476854785469756,915.4280334214222,845.6829103723506
0.21,5.335652528155058,12.21918941160052,91.95394738515007,-7.531979577220696,976.0233884979849,845.6829103723506
0.22,6.1127539594701,11.849557662999928,42.18840077741414,-7.714407338788709,1003.9409909833416,845.6829103723506
0.23,10.031818389031905,5.731516077009804,-3.638310643561508,-8.484420077411272,914.1828518634143,845.6829103723506
0.24,-6.7691981906785745,-11.475008354455415,-18.005404911661394,-5.443602744482765,784.5837148302895,845.6829103723506
0.25,-8.469996562655298,-10.297423755793734,0.6998924685687299,-2.8810226515209485,725.0731467160698,845.6829103723506
0.26,-1.3659922555028694,-12.048508907205804,31.71789708458534,0.14861542679462342,763.1973176644876,845.6829103723506
0.27,12.521725653956064,4.580847566208277,47.70326170830744,-1.0080871218689202,808.6968790515539,845.6829103723506
0.28,11.00006103672931,4.58646950405334,48.865893673385536,-1.910298555897186,857.2664483114941,845.6829103723506
0.29,7.357418486387946,11.119629984578381,38.97298988919869,-4.325831787547014,888.6581864975199,845.6829103723506
0.3,8.844992947267492,9.977167811586916,23.166472864184172,-6.654803368350234,894.952139557127,845.6829103723506
0.31,11.64771072030874,0.6884960756449559,7.841362998385236,-6.733036937139777,847.9311801909081,845.6829103723506
0.32,4.661845967918725,-10.776554382809541,6.653902292952282,-3.9242478368528464,802.6086492013112,845.6829103723506
0.33,0.8137135413660275,-12.225069559884721,17.710745834532133,-0.8534952951109143,803.8450287498939,845.6829103723506
0.34,13.070400812544557,2.6348435204414598,24.767685368812568,-1.6608053060245411,831.0937079538832,845.6829103723506
0.35000000000000003,13.327019187972635,0.05792252677438281,24.808178200642107,-1.6495167277814662,853.877910346454,845.6829103723506
0.36,10.840374979728944,3.977829880058614,19.71266287899625,-2.6836467451014943,857.5506685290173,845.6829103723506
0.37,11.474258376355108,1.523457590868519,13.834092329948904,-3.0399674199267235,839.8954614994514,845.6829103723506
0.38,10.334476160805451,-4.195443004725918,12.885285400423522,-1.9339176627892996,821.6090408803333,845.6829103723506
0.39,7.600744831437132,-4.190989262423499,17.213768085053445,-0.8862148846064486,822.0928549886388,845.6829103723506
0.4,12.116129847748418,2.435531131945277,20.03225747779813,-1.5613628715364556,833.2121670232292,845.6829103723506
0.41000000000000003,13.331805171340763,0.20186295150282568,19.693642148661475,-1.589491927607737,841.5830391707543,845.6829103723506
0.42,12.218729348031975,0.3675578892321365,17.591349648810397,-1.683038349293064,840.4766628306312,845.6829103723506
0.43,11.628165361968566,0.7124662103082113,16.00283959700998,-1.8646039850808773,833.1450068558324,845.6829103723506
0.44,11.540668327744308,0.42392578980058815,16.326339924293688,-1.9677000283259485,827.5083404970266,845.6829103723506
0.45,11.963282940990013,1.6957943958968498,17.93130217533281,-2.4043673133611234,828.2793334180379,845.6829103723506
0.46,13.10849562352039,2.4382617303982195,18.98591045199547,-3.0213574193056916,832.8650796169301,845.6829103723506
0.47000000000000003,13.33323600271456,0.05094579172014857,18.808954274391112,-3.010220707848948,835.2495433821589,845.6829103723506
0.48,12.959146711465056,-1.8340476807488706,18.157405599332993,-2.5328588529370397,833.9201421275717,845.6829103723506
0.49,11.636578588522752,0.48193200195774555,18.215472707172335,-2.6765016502535426,832.4095206186364,845.6829103723506
0.5,11.560010805289226,2.3670778584233005,18.65968933720028,-3.287122573424023,832.2574440221708,845.6829103723506
0.51,12.445843419831757,3.801171227523578,18.897257509606522,-4.25175631399592,832.705150939771,845.6829103723506
0.52,13.155435995353852,2.1707790191371346,18.841265373981752,-4.778147146696339,833.0375332339305,845.6829103723506
0.53,13.331930896900513,-0.19338132807281916,18.664538162404597,-4.7061602112060354,831.0419258091407,845.6829103723506
0.54,13.08115189039351,-2.580938394892832,19.07696019492167,-4.037050041814627,829.3192224094389,845.6829103723506
0.55,11.677547240958253,-0.03851247990862516,20.279758455901412,-4.052846180987314,831.7848901398502,845.6829103723506
0.56,11.684090334908072,3.7713414460614425,20.808518822055902,-5.033780081762375,835.6068893713908,845.6829103723506
0.5700000000000001,12.687813748413184,4.098433854944487,20.107313408742105,-6.061659469587327,836.5286299607466,845.6829103723506
0.58,13.205946285230237,1.8386844453008866,19.079998209073835,-6.498733086816111,833.9086585719424,845.6829103723506
0.59,13.323821612376204,-0.5035428674448087,18.71762671669843,-6.349425096827451,828.1254313675003,845.6829103723506
0.6,13.013231072154674,-2.9040652266238514,19.914626877318998,-5.5994035665796975,825.6067227064915,845.6829103723506
0.61,11.692603578321867,-0.548587185693852,22.048916260751735,-5.4858115505655345,831.0461881491768,845.6829103723506
0.62,11.90007535153001,4.974087129872933,22.676608606503752,-6.784560076189436,837.9220748143105,845.6829103723506
0.63,12.809119613789456,3.701922810839255,21.336688283292503,-7.697319135708915,839.7388925045004,845.6829103723506
0.64,13.253686299296463,1.4551897668754181,19.486657331673975,-8.03864924698813,835.0036001432131,845.6829103723506
0.65,13.305083230275054,-0.8674894888304072,18.877053035692672,-7.7985500822234695,826.0888685653556,845.6829103723506
0.66,12.926091288444288,-3.270159289787332,20.636977900527246,-6.956983561767067,822.8223707590133,845.6829103723506
0.67,11.658696706022734,-0.7802927723911832,23.48277755124353,-6.786809033843233,830.1240212398025,845.6829103723506
0.68,12.149625891636651,5.492209798528278,24.234601738542167,-8.212053452311105,838.878215296506,845.6829103723506
0.6900000000000001,12.926206515657817,3.269703792752958,22.544486499605984,-8.960999969203137,842.2277182888236,845.6829103723506
0.7000000000000001,13.294015853674624,1.0231912138136845,20.04760743376576,-9.194332646867165,836.5351846580646,845.6829103723506
0.71,13.271725958360665,-1.280260857776021,19.073755608007826,-8.851232911707264,825.3841292569798,845.6829103723506
0.72,12.8187782724182,-3.668337686249285,21.059796349616256,-7.910267721860208,821.3043822265191,845.6829103723506
0.73,11.605295938867085,-0.7472669460164125,24.306036694997484,-7.752661692758434,827.7395592023671,845.6829103723506
0.74,12.329753315082463,5.074934577606961,25.461459899130396,-8.990279058699208,837.9185369968591,845.6829103723506
0.75,13.03561799921249,2.8018638718512077,23.816457697744518,-9.499698413493354,844.5999048130129,845.6829103723506
0.76,13.322285614187308,0.54266360832065,20.686957329720833,-9.612772312938212,839.531853327776,845.6829103723506
0.77,13.220802571051284,-1.728628692074017,18.97121629338539,-9.15790221691576,826.7866261892003,845.6829103723506
0.78,12.69655313806675,-4.071279429126062,20.653843820371886,-8.116655852263722,820.8107051399069,845.6829103723506
0.79,11.569322189897147,-0.7943111517613958,24.050596100983178,-7.950847747097021,826.7379862834172,845.6829103723506
0.8,12.483265723344445,4.684640291223156,25.463052093440236,-9.10335191384279,837.3778937013697,845.6829103723506
0.81,13.119590273868802,2.377841210759218,23.960045905727025,-9.521304022179196,844.529168122885,845.6829103723506
0.8200000000000001,13.33294478747069,0.10178935128926891,20.841598981874583,-9.523990841406814,839.537577731586,845.6829103723506
0.8300000000000001,13.155693475182922,-2.1692180537712646,19.14069719030588,-8.958976253913391,827.3277566226232,845.6829103723506
0.84,12.555026709616318,-4.488772894522356,20.718833829078964,-7.813587481875293,822.2536610341441,845.6829103723506
0.85,11.548888482068078,0.19500937470257984,23.74972638127386,-7.909177648243188,828.4593994278013,845.6829103723506
0.86,12.617884960511713,4.308915977490165,24.759086352735373,-8.98680831906971,838.3277113052009,845.6829103723506
0.87,13.182426798146718,2.000350341635433,23.127953214152075,-9.402649784316578,842.9040443157752,845.6829103723506
0.88,13.330280104380444,-0.28532458102426456,20.442857839032747,-9.308461889833913,836.5023251921673,845.6829103723506
0.89,13.080740878649264,-2.5830206819558734,19.534331497909662,-8.63972975833563,826.0015605287203,845.6829103723506
0.9,12.3804448377968,-4.801139304802779,21.47156835641103,-7.4172637459064665,824.4544638714656,845.6829103723506
0.91,11.641221573977809,2.059617554443512,23.891237787348583,-8.000775703109806,831.5754518243465,845.6829103723506
0.92,12.74238792478943,3.925471659808322,24.08489653226504,-8.959387017625472,840.0200474155138,845.6829103723506
0.93,13.233012165165926,1.6325338631551585,22.103007031867342,-9.34459110544773,841.1762765345337,845.6829103723506
0.9400000000000001,13.317206075546586,-0.6555914270357803,19.88795974214092,-9.157811995786874,832.7633483166269,845.6829103723506
0.9500000000000001,12.995494974363849,-2.9824299068145264,19.95632290567179,-8.388936134285453,824.0368777260373,845.6829103723506
0.96,12.01789250416967,-3.4966448450584258,22.460398671815536,-7.509632773638408,825.9893200125873,845.6829103723506
0.97,11.86029043506382,3.757060878528827,24.400775250815975,-8.521435050506486,833.5379478491285,845.6829103723506
0.98,12.86052319173405,3.519193233206777,24.003897329431005,-9.30854528438708,841.1009775203179,845.6829103723506
0.99,13.276464071638708,1.2301542717335452,21.750474819018574,-9.593193462705731,840.3030715598819,845.6829103723506
1.0,13.29108457905702,-1.060588746937455,19.78049623190168,-9.305138845784658,830.6624073453871,845.6829103723506
1.01,12.89309670334329,-3.397916299148072,20.412734333708823,-8.432286495475534,823.2295503071788,845.6829103723506
1.02,11.777466910625613,-2.43490885220299,23.167192490654646,-7.833189356894237,826.7771573796181,845.6829103723506
1.03,12.150898263343047,4.9414926185837,24.773755004230015,-9.121893710648129,834.3842194587496,845.6829103723506
1.04,12.968247479679768,3.0987634765430294,24.08651845787599,-9.74235541734195,841.4747984960879,845.6829103723506
1.05,13.30923150943203,0.8013328934464914,21.73692291891275,-9.919714334872607,839.5384360314583,845.6829103723506
1.06,13.249190600461223,-1.49556885847083,19.980707887756527,-9.522853102735725,829.5347059776601,845.6829103723506
1.07,12.77057279878831,-3.832785953927747,20.929939265286798,-8.541284443299219,823.5043527936125,845.6829103723506
1.08,11.618352315349698,-1.3151086809099086,23.641816317808768,-8.23768404580192,827.3303146243143,845.6829103723506
1.09,12.372653537042229,4.969428762955967,24.975588506110974,-9.483041832258273,835.1670109234234,845.6829103723506
1.1,13.063418789082428,2.6692447094311027,24.05633558288301,-9.9727099451325,841.762230349289,845.6829103723506
1.11,13.32833245132905,0.3651463331688731,21.63582114493504,-10.040955544662097,838.696689465249,845.6829103723506
1.12,13.1920715991563,-1.9357233016398334,20.11637648928349,-9.53401602290405,828.6410829801795,845.6829103723506
1.1300000000000001,12.63207226607082,-4.267145186485008,21.32497132899013,-8.443915507434347,824.1300132658253,845.6829103723506
1.1400000000000001,11.54869169494754,-0.08857455831500438,23.881967184739366,-8.463557574137297,828.4699726222302,845.6829103723506
1.1500000000000001,12.530096191835858,4.5579016225800935,24.859492854494388,-9.570736804327355,836.5034182077354,845.6829103723506
1.16,13.141962855865941,2.2509087215650494,23.630029766467473,-9.982472673793643,841.6375066782203,845.6829103723506
1.17,13.333223722005439,-0.05406437578682707,21.254821266132446,-9.945906848873415,836.9092207599244,845.6829103723506
1.18,13.122045762562935,-2.3642531131378135,20.217126867375647,-9.331741683215451,827.2804291487233,845.6829103723506
1.19,12.479248575612628,-4.695330953814426,21.800650917360834,-8.134598166355076,825.1411819789306,845.6829103723506
1.2,11.583147489092035,1.4348806366447313,24.07064962600597,-8.554620441420852,830.4740889410772,845.6829103723506
1.21,12.671011185413352,4.150090760080729,24.4971188497624,-9.531807911947354,838.3546065965038,845.6829103723506
1.22,13.20461117246454,1.8482482413903023,22.868833950075395,-9.903580591187612,841.0001347365854,845.6829103723506
1.23,13.325624401067795,-0.4533344234053809,20.680456345062897,-9.767231158688308,834.1747428787982,845.6829103723506
1.24,13.04044657365358,-2.779304038327641,20.36849227188964,-9.049145452957175,825.442311647009,845.6829103723506
1.25,12.18454968483601,-4.134496242246249,22.478387813222117,-8.001969470356427,826.163263938552,845.6829103723506
1.26,11.738893103168353,3.0157567573412933,24.42082318878095,-8.827411189687624,832.3512646598085,845.6829103723506
1.27,12.799531943385237,3.7349377247872138,24.305881598191476,-9.6531464261978,839.934067515196,845.6829103723506
1.28,13.255624560958191,1.4374266161093963,22.320381646869112,-9.962342497890978,840.4071755654376,845.6829103723506
1.29,13.305477699923529,-0.8614179906499606,20.30771631172443,-9.723999554160894,831.8703729503445,845.6829103723506
1.3,12.944242147993739,-3.1975573477078028,20.613770511897755,-8.901248823663364,824.1034997391797,845.6829103723506
1.31,11.89358909048501,-3.051298016597123,23.123401160255973,-8.13988691282519,826.3118285458281,845.6829103723506
1.32,11.993044328084187,4.3248367983163645,24.88165108096113,-9.266052502838564,833.1815878957395,845.6829103723506
1.33,12.918395657779394,3.3004289731554954,24.472507232792875,-9.920541470888429,840.942333033251,845.6829103723506
1.34,13.295981972243041,0.9973169865021649,22.22922908012809,-10.123251841427852,840.3936043405062,845.6829103723506
1.35,13.269937897144189,-1.298663152520387,20.239818841481597,-9.77562625190753,830.9210163586289,845.6829103723506
1.36,12.829983039861023,-3.628954804713916,20.821922013338387,-8.845084634207115,823.8342188913637,845.6829103723506
1.37,11.69811919760696,-2.0800674066570544,23.441751697278587,-8.340556656523418,826.5452905627081,845.6829103723506
1.3800000000000001,12.289850581572543,5.17081719464136,25.01579115756182,-9.653589291957895,833.5991484483666,845.6829103723506
1.3900000000000001,13.021385325569298,2.867281287356773,24.46919347099908,-10.169620554381233,841.157517996239,845.6829103723506
1.4000000000000001,13.321901770144578,0.5520063445255712,22.19001434045273,-10.282868310389196,839.6389186646397,845.6829103723506
1.41,13.218084031950141,-1.7492948013649308,20.412715430090863,-9.822531598589059,830.1110304346229,845.6829103723506
1.42,12.695621317158128,-4.074184231118891,21.232283594681363,-8.780736646511796,824.503227512575,845.6829103723506
1.43,11.574255501511777,-0.8479500512984375,23.70093212162427,-8.60101147548539,827.6434924639148,845.6829103723506
1.44,12.456853643737697,4.75442689251571,24.91912807039708,-9.771306488210845,834.8866991000458,845.6829103723506
1.45,13.107778881956165,2.4421119056099245,24.06836542114017,-10.20105537274779,841.068177904704,845.6829103723506
1.46,13.332752953870848,0.12440437623310628,21.824795770818383,-10.208979391512297,837.9211608831149,845.6829103723506
1.47,13.152814621072253,-2.1866058907552794,20.510299041403133,-9.639217816153593,828.7071015155185,845.6829103723506
1.48,12.546586482859542,-4.512310428805177,21.715807509954374,-8.487883163571798,825.4309936698389,845.6829103723506
1.49,11.552695156355238,0.6986487059769182,23.933312888215333,-8.71465493141385,829.543286318699,845.6829103723506
1.5,12.607384546534359,4.339542910674394,24.613880646483487,-9.747325229383797,836.812513282321,845.6829103723506
1.51,13.177789330487943,2.0306762762823167,23.336611268623955,-10.12580770609294,840.632577730278,845.6829103723506
1.52,13.330328240742745,-0.2830667268228062,21.226886335374328,-10.031903594356189,835.2815759889404,845.6829103723506
1.53,13.075601642903509,-2.608911545813079,20.61437680389278,-9.356417259713014,826.7560927974484,845.6829103723506
1.54,12.321800268324271,-4.51402033078378,22.358423976197972,-8.208861089167362,826.4403638225893,845.6829103723506
1.55,11.659436574676667,2.402614237410835,24.2639823966542,-8.878680994202018,831.7270049573351,845.6829103723506
1.56,12.743572371073073,3.921624790950905,24.328761668507948,-9.763340224567921,838.8398204824192,845.6829103723506
1.57,13.234431346874212,1.6209888039869282,22.59765222740674,-10.092401952972484,840.0886738419385,845.6829103723506
1.58,13.315644907613063,-0.6865700780954755,20.65399946390392,-9.89768384462779,832.5548399465468,845.6829103723506
1.59,12.9854912231058,-3.0256892557597403,20.768284140377403,-9.117870338911212,824.8481396247566,845.6829103723506
1.6,11.992261462889696,-3.4090440253830105,23.065910762373548,-8.261775784869226,826.3285491148442,845.6829103723506
1.61,11.883224846711705,3.882014823791687,24.852697291881253,-9.275633122029658,832.6673004403443,845.6829103723506
1.62,12.871399345434906,3.4792034531075626,24.576008683139055,-9.977188027738558,840.3785813906179,845.6829103723506
1.6300000000000001,13.281381181206742,1.1758791167739657,22.446743826288756,-10.194571183202822,840.5661328259089,845.6829103723506
1.6400000000000001,13.286001785704038,-1.1224679630380927,20.402516046075306,-9.890970721645177,831.5975965559095,845.6829103723506
1.6500000000000001,12.878393600398333,-3.4532240082272354,20.798007544639063,-9.004357159136477,824.1227439513714,845.6829103723506
1.6600000000000001,11.775313403378444,-2.5602906810795085,23.330000127054852,-8.373213822138078,826.3312353294691,845.6829103723506
1.67,12.150318575530736,4.752349458370002,25.00599894260697,-9.587132748839876,833.1580121878767,845.6829103723506
1.68,12.981021134027673,3.0448100262092948,24.571329533850655,-10.151453612273063,840.8995731413169,845.6829103723506
1.69,13.313277935869225,0.7310324069939806,22.332956218416577,-10.28429249360567,840.0650906388242,845.6829103723506
