t,iq,id,vq,vd,omega,r
0.0,0.0,0.0,0.0,0.0,0.0,1665.3578447951638
0.01,0.0,0.0,432.9930396467426,0.0,29.28695999110897,1665.3578447951638
0.02,11.54793346486221,-0.008111807679098693,737.395371865571,0.00210906999656566,51.92843220658933,1665.3578447951638
0.03,11.882200097470127,-6.049057663922426,960.1489577941893,0.18364740644749294,56.32092997939144,1665.3578447951638
0.04,12.202530863400048,-5.373641065939089,1126.4025061068298,-2.1550429430128974,64.23058459779253,1665.3578447951638
0.05,12.512916880907223,-4.6048549281475495,1249.1947835209194,-3.696940976164155,76.08828576190393,1665.3578447951638
0.06,12.8123786099458,-3.690627606949936,1338.396561246131,-4.622104060486138,92.54595670077062,1665.3578447951638
0.07,13.083443205510022,-2.5692978935832596,1401.2496719674423,-5.049843433272417,114.48745822380911,1665.3578447951638
0.08,13.281986135896046,-1.1690261176051244,1442.9630195632178,-5.050707499462768,143.06293022866544,1665.3578447951638
0.09,13.320355508205076,0.5881385149847196,1467.1489577047528,-4.6540525702322295,180.48695380502036,1665.3578447951638
0.1,13.0413540501171,2.7750427595393976,1475.9398655973116,-3.8532860510137352,229.287485286712,1665.3578447951638
0.11,12.178952935805901,5.426866790810559,1470.2731819675416,-2.6081738205520137,292.2357388732343,1665.3578447951638
0.12,10.318846857805696,8.443884017614833,1450.1021915280855,-0.8411514675994245,313.6011046204853,1665.3578447951638
0.13,13.319471769515278,-0.6078236247985951,1429.4255257376253,-3.2170555227639133,348.7039076771071,1665.3578447951638
0.14,12.750789592370758,3.8980947331827793,1405.691273037555,-3.7970686838276007,406.79202266509566,1665.3578447951638
0.15,10.319773206562928,8.442751846577256,1373.4238697784433,-2.6650792057392914,430.06215020053133,1665.3578447951638
0.16,13.296180419956954,0.9946677926478875,1342.7882300381723,-5.002481412860465,475.83113513712607,1665.3578447951638
0.17,11.415313642131055,6.889730925773108,1309.1578486029923,-4.936443746831146,492.38050300109404,1665.3578447951638
0.18,13.333325718421406,0.014250061753807053,1278.5993199685684,-7.501792202941221,534.683636372993,1665.3578447951638
0.19,11.484934208620032,6.773039495045563,1246.3422565422459,-7.378641883247939,557.8536055653207,1665.3578447951638
0.2,13.313140506188406,0.7335309402222022,1215.0114742980718,-8.741261245000752,605.3120442412878,1665.3578447951638
0.21,10.554857851393965,8.146947496740413,1181.1722241426758,-8.226698409367529,630.6017506679501,1665.3578447951638
0.22,12.90476486627185,3.3533299157722865,1148.4653397405302,-10.0008008807214,692.158024134657,1665.3578447951638
0.23,7.876874302225287,10.757910066770432,1109.8573164857046,-8.25212602928027,736.0603411915774,1665.3578447951638
0.24,10.743078156119328,7.897091205582563,1069.5169448533754,-9.00033006359919,762.7105390754679,1665.3578447951638
0.25,12.442385133864233,4.792163390199887,1031.7318161447313,-11.130378914245382,831.1893587920196,1665.3578447951638
0.26,4.906021991519712,12.397932327469073,987.970484626031,-8.648026922804062,891.5375507539719,1665.3578447951638
0.27,6.738586865010245,11.505182520955028,940.0404439026632,-8.183252431744657,945.2027288458598,1665.3578447951638
0.28,7.776376588662783,10.830777669635504,890.5778323514998,-8.888307382841873,994.8082624255355,1665.3578447951638
0.29,8.188782439919523,10.522434125688001,840.9841449911287,-10.085246137329204,1043.216724501928,1665.3578447951638
0.3,8.05558885260606,10.624747809503372,791.7009908080855,-11.319430625925033,1093.2416780257377,1665.3578447951638
0.31,7.361771942607135,11.116748249502644,742.4084880095124,-12.272062446648171,1147.0858241458802,1665.3578447951638
0.32,6.003257384930397,11.905405434005866,692.3336639253074,-12.678549201981008,1204.9624427656756,1665.3578447951638
0.33,3.8158256771992756,12.775650753640864,640.8254575073328,-12.25928945337432,1263.3327069232657,1665.3578447951638
0.34,0.6746188427492541,13.316255749826427,588.1876028792336,-10.679003035077463,1312.6734051671865,1665.3578447951638
0.35000000000000003,-3.2743675553226814,12.925025914497343,536.7568381805261,-8.408738560289258,1354.4134716834612,1665.3578447951638
0.36,5.905944207075128,11.953978450737372,486.0163828172776,-11.461434542070696,1409.2806780165809,1665.3578447951638
0.37,0.8667899770161887,13.30512881987702,435.79985346321996,-11.418494709988822,1453.1289382511834,1665.3578447951638
0.38,-4.999959050920964,12.360347376465244,387.87434592666705,-9.27809845734727,1498.769714462796,1665.3578447951638
0.39,2.29164668211933,13.134920375172026,339.37316914996376,-11.360098946142408,1545.1952876869211,1665.3578447951638
0.4,-4.851912862246956,12.419207678227313,292.9032730558843,-8.868017435570776,1589.7953858556273,1665.3578447951638
0.41000000000000003,1.1769441712175222,13.28128684260734,245.6763273971771,-11.184590005049312,1627.0570922478478,1665.3578447951638
0.42,-6.931101254200121,11.390242015945194,202.3299691586849,-10.077991476728878,1670.0780536730285,1665.3578447951638
0.43,-2.299036789187095,13.1336288823669,158.66352732883922,-10.674901444182465,1709.878089516561,1665.3578447951638
0.44,2.121418692798266,13.163485879797335,114.40916952018556,-14.042820229567939,1744.2318912887897,1665.3578447951638
0.45,-7.511947213038889,11.0158261989873,74.67416417151571,-13.652913280590374,1780.8968968085758,1665.3578447951638
0.46,-4.519731096574676,12.54391520189903,35.54927046501139,-13.379178698117018,1811.3165771253587,1665.3578447951638
0.47000000000000003,-1.6735730676824048,13.227884599016798,-3.0814390221673396,-16.19942984856621,1784.0332411476356,1665.3578447951638
0.48,10.92645005089296,-7.641365523459726,-35.33506749441705,-14.080395966476514,1709.2567423332396,1665.3578447951638
0.49,8.587600362923887,-10.19955380320567,-45.5753452078191,-10.519439610637477,1624.5742402633607,1665.3578447951638
0.5,4.666237625938412,-12.490156291898609,-31.853139375705073,-6.489897934450146,1543.3849581121717,1665.3578447951638
0.51,-0.9470466387622132,-13.299657155046777,0.9224677144108773,-3.1677975440574846,1518.7506386524735,1665.3578447951638
0.52,3.8773888024039405,-11.706094765162003,36.803020889667785,-0.2572094766658315,1553.791922648518,1665.3578447951638
0.53,0.10040295561268131,13.332955299718137,62.22747019083595,-3.7582429750220583,1589.59731510801,1665.3578447951638
0.54,0.9721233305257115,11.631108223952094,71.9248113956866,-6.309854473897219,1636.607231149612,1665.3578447951638
0.55,-2.3460599188642783,13.125310687175226,69.26504052788466,-7.525813587417662,1675.2755819803622,1665.3578447951638
0.56,2.5296840178382833,13.091160244518866,55.79625988712254,-10.91278759537848,1709.4083747671875,1665.3578447951638
0.5700000000000001,-1.3391622337205442,11.538797078925402,37.66501468940499,-12.389266336701635,1741.281912887851,1665.3578447951638
0.58,-3.1301515775303077,12.960707113404819,16.41886875098544,-14.834212229789157,1751.490624808882,1665.3578447951638
0.59,11.762508446705327,6.278628259338462,-8.305967083573128,-16.33704850608311,1717.77118941059,1665.3578447951638
0.6,8.963520554170653,-9.870819472198745,-23.284999143064088,-13.70784916071805,1651.4387435530994,1665.3578447951638
0.61,5.318814921955045,-12.226527945568442,-20.164430284043085,-10.568919117737655,1585.6589807551534,1665.3578447951638
0.62,0.6024713909894208,-13.089649938695375,0.31462894150128606,-7.287875413132541,1559.3864214123203,1665.3578447951638
0.63,7.865033334643588,-10.494840402614342,25.03132642754307,-4.690113407839767,1586.3675813248503,1665.3578447951638
0.64,1.3149541324530007,11.852055505848883,44.161344784198455,-7.8842146846736805,1625.5871875004466,1665.3578447951638
0.65,3.4076820112971777,12.890519038722193,49.033611059394104,-10.480515416734542,1660.745205052025,1665.3578447951638
0.66,-1.3399705231895336,11.772353917921874,44.75957123541592,-12.176361990277,1698.596492861693,1665.3578447951638
0.67,-0.9218607400205192,13.30142663603369,32.344307982829946,-14.337260954900206,1728.6352403464057,1665.3578447951638
0.68,3.1323140624588954,12.960184658865783,13.700480989047893,-16.74321774710651,1736.9705021312743,1665.3578447951638
0.6900000000000001,10.625360832829577,4.697138817353108,-7.017306638739515,-17.83487199302966,1705.4778952460088,1665.3578447951638
0.7000000000000001,12.758167347237183,-3.8207182811920934,-19.943263084551468,-16.794513851746185,1646.9203465015385,1665.3578447951638
0.71,10.811548118441479,-7.803089456132245,-17.186273533163305,-14.571447766353028,1590.4685445376979,1665.3578447951638
0.72,6.957390808150997,-11.374202869671077,0.39976342190674563,-11.69218591479987,1567.1688999990795,1665.3578447951638
0.73,11.401024663051249,-5.974615856864968,22.285303562002206,-10.252527820711686,1590.291668777593,1665.3578447951638
0.74,4.997371110956108,11.928019416973044,39.554842675966306,-13.377935310333209,1624.0888213552294,1665.3578447951638
0.75,4.83306519244212,10.721299572915246,45.00259455128314,-14.92121357285034,1665.7606863640483,1665.3578447951638
0.76,1.1739710844579232,13.281549972448035,40.30797453823428,-16.86329652077244,1699.2500852535388,1665.3578447951638
0.77,5.526012080755397,12.134288947487741,26.704878208197062,-18.479138446908436,1727.31142642664,1665.3578447951638
0.78,8.920966682480577,9.909295193294486,7.903473950830054,-20.05790086186765,1725.8793139463205,1665.3578447951638
0.79,11.442968407212712,4.328019565750115,-10.098534331206421,-21.084092997029735,1688.252284191522,1665.3578447951638
0.8,9.2395261371584,-9.612956597142446,-17.733720994337034,-18.541444086115195,1630.81898661708,1665.3578447951638
0.81,5.319842654283854,-12.226080807496729,-9.815437302813901,-15.45879264213747,1585.5278572395177,1665.3578447951638
0.8200000000000001,11.51666789832656,-6.680518586940961,7.653835652851178,-13.844118617607787,1579.3528049220056,1665.3578447951638
0.8300000000000001,13.28662833116399,1.115027070204163,25.87748945719649,-14.200830841730278,1609.785705932338,1665.3578447951638
0.84,10.193746675299398,8.59449280048568,36.61813515074719,-16.10016566719116,1647.0569578015113,1665.3578447951638
0.85,2.8992100946136476,13.014313604837868,37.67488867680561,-18.496872229362854,1678.0400460372566,1665.3578447951638
0.86,7.290008792677825,11.16393969799451,29.31440163017445,-19.755989434905267,1705.8318643945804,1665.3578447951638
0.87,10.49679177591587,8.221626371396518,14.68723346971697,-20.70269406929272,1718.3459557068484,1665.3578447951638
0.88,12.488274896573346,4.671270478723506,-1.826918726676762,-21.835008130046866,1698.4038824319273,1665.3578447951638
0.89,13.038722544393964,0.13356602624098624,-13.15419251569511,-21.823022592082285,1654.8838682038706,1665.3578447951638
0.9,12.270524729390335,-4.267644749927666,-13.05271107070795,-20.501511453055347,1607.1022604413688,1665.3578447951638
0.91,10.42761542275911,-8.309188550804105,-0.5994736672576404,-18.38379887734556,1583.4954344490845,1665.3578447951638
0.92,12.274126180749185,-2.2940417527141417,17.015200526417825,-17.87043990714792,1597.1131808861905,1665.3578447951638
0.93,11.29003565154274,7.093156755963571,31.12752103169646,-19.73760108122559,1627.6032339170886,1665.3578447951638
0.9400000000000001,4.890782264869294,12.40395205631728,37.224874533311144,-21.89917734417268,1656.231419161484,1665.3578447951638
0.9500000000000001,9.146196274378573,9.701797332882256,33.61943684366749,-22.405807175186496,1685.8563783870347,1665.3578447951638
0.96,6.066741859225615,9.830936919749824,24.12168788225397,-23.196263721536056,1706.1918130689382,1665.3578447951638
0.97,7.088080341196069,9.685614252746285,10.688275182781933,-24.79925140109981,1707.823164600894,1665.3578447951638
0.98,11.848949308193799,1.22588013380056,-3.17219661977261,-24.741848951241735,1683.1366539479748,1665.3578447951638
0.99,11.741447813897238,-6.317925372407107,-10.304320739977495,-23.08692955307788,1641.3127121045554,1665.3578447951638
1.0,8.815190746845852,-10.003508878113767,-6.0493332649321525,-20.549196498492375,1606.3017460836775,1665.3578447951638
1.01,12.60060357351247,-3.148222044797789,5.876796051503432,-19.830693855626084,1597.0939483706097,1665.3578447951638
1.02,11.657502232665504,0.6331551748859163,20.12990359001473,-20.026796421544397,1613.727440429341,1665.3578447951638
1.03,8.885282336011677,7.6593021687794565,30.13296844375557,-21.625246096522087,1640.2388017544038,1665.3578447951638
1.04,10.52035863599515,8.191448708734006,31.672775954798425,-22.26092437216872,1669.6905296022276,1665.3578447951638
1.05,4.01359377636353,12.069925183014222,27.182869221827886,-24.05997319340049,1692.366057652836,1665.3578447951638
1.06,7.202911274878635,11.220331855342067,16.878535798138834,-25.455111596604578,1703.7822050894206,1665.3578447951638
1.07,10.374589957107949,8.375300651299188,4.046629723381003,-26.578376710338034,1694.3102408026914,1665.3578447951638
1.08,12.465404786399162,4.650082666574173,-6.308495951313333,-27.228718041723734,1665.953957610515,1665.3578447951638
1.09,13.073637129163572,-0.1414080613761019,-9.343350728459837,-26.505500929119087,1631.311900408534,1665.3578447951638
1.1,12.550699493175273,-4.500857697127039,-3.319216093714229,-24.78869828153858,1603.3281754651025,1665.3578447951638
1.11,10.202775142646056,-7.195873795013988,9.940823946079197,-22.96277967180621,1600.9282396115009,1665.3578447951638
1.12,13.233054543666356,-1.632190314310484,22.73365817060416,-22.610368928035626,1621.2956340440644,1665.3578447951638
1.1300000000000001,11.632184723422004,6.516905426501565,30.063412357850737,-23.420936302269173,1649.0958491030833,1665.3578447951638
1.1400000000000001,5.222219450856285,12.26809690966272,30.631066986986355,-25.368906156816717,1674.2162569849893,1665.3578447951638
1.1500000000000001,9.209896202048142,9.641347920559499,23.79925948957684,-25.864056280657007,1694.487613121548,1665.3578447951638
1.16,11.8743906310671,6.064373415168594,12.11829271734318,-25.936718885757628,1702.3474212792137,1665.3578447951638
1.17,13.182313239909742,2.0010985539643062,-0.5438790707273917,-26.158437077897712,1684.9136680571114,1665.3578447951638
1.18,13.133451084901044,-2.300052255556244,-8.507460927377105,-25.45374178671651,1649.3648462667024,1665.3578447951638
1.19,11.547603820498217,-6.665630036432616,-6.92007126656825,-23.61861390593991,1613.6239325893894,1665.3578447951638
1.2,9.291207553628837,-7.790485260860865,4.07057799590998,-21.659744038480408,1599.244041367744,1665.3578447951638
1.21,12.81391147860914,-3.6853019409739853,17.504122856079274,-20.779470386435783,1613.4038084079318,1665.3578447951638
1.22,12.533534994246692,4.548436910167199,27.204883933707432,-21.936256565987453,1638.5597185814906,1665.3578447951638
1.23,7.234309776629448,11.200113384852017,30.501643945488464,-23.62948411120818,1664.0952420179708,1665.3578447951638
1.24,10.798085834585075,7.8217082588594975,25.722740444595303,-23.864761283518554,1687.3112739163187,1665.3578447951638
1.25,9.156005005320939,7.21375795371335,16.285390886415364,-24.638808329573983,1697.499460049762,1665.3578447951638
1.26,10.410108304907165,5.006995942005316,4.954262620542618,-25.311289334275994,1689.0266340446851,1665.3578447951638
1.27,12.063192163197392,-2.5031318283105843,-3.9688902432855486,-24.497389296402286,1661.486801290273,1665.3578447951638
1.28,10.342562349245364,-7.33260153724774,-5.294165328690535,-22.61594421500098,1629.5290150300539,1665.3578447951638
1.29,12.025155672272774,-2.593430363208167,0.9595051238906782,-22.014978335939333,1610.7380971565701,1665.3578447951638
1.3,12.055849612267972,-5.695109121356319,11.788081869806998,-20.56018426801877,1613.1534268670016,1665.3578447951638
1.31,13.083563314085598,2.5686861980575197,21.533865089203665,-21.28499377072729,1632.0124280030523,1665.3578447951638
1.32,8.896698488040776,9.931089254994676,26.82040215892703,-23.063335496308444,1656.2386744648156,1665.3578447951638
1.33,11.93563180822367,5.942934554266697,24.378691427192688,-23.277122784734825,1678.1928722139223,1665.3578447951638
1.34,7.07453853806337,9.894458242441084,17.95501286493185,-24.94513358259981,1689.799280042057,1665.3578447951638
1.35,9.116401805724035,9.72979937585402,8.767504013202188,-26.469235657435934,1688.065663448887,1665.3578447951638
1.36,11.77443305838936,6.25623720228745,-0.0496336879695814,-27.380592893212032,1671.3321344895094,1665.3578447951638
1.37,13.182783903676619,1.9979955772579618,-4.665914172168135,-27.27695935899861,1646.3623128087393,1665.3578447951638
1.3800000000000001,13.043602841869587,-2.764453414573912,-2.738436416252511,-26.05701724048016,1620.455508530374,1665.3578447951638
1.3900000000000001,11.036874923286438,-7.480987214633419,6.007064241092849,-24.139605098821207,1610.6100883675513,1665.3578447951638
1.4000000000000001,13.320587109407587,0.5828694866453085,16.439473650411106,-24.36596103749532,1619.8993834087576,1665.3578447951638
1.41,10.344363370751507,8.412605079975659,24.67274399750241,-25.790787605504608,1640.467195845158,1665.3578447951638
1.42,12.77851451015553,3.8062244667810026,26.044891539965985,-25.32195287843587,1662.2548436017692,1665.3578447951638
1.43,7.5917305550041725,10.960994706594551,23.264875949080285,-26.722347475219475,1682.1627443712343,1665.3578447951638
1.44,10.879313974694902,7.70832700511505,15.163534914797612,-27.07600920749405,1693.6351714147816,1665.3578447951638
1.45,12.798942294314172,3.7369578435665547,4.528888609041925,-27.170693180416873,1686.545462573019,1665.3578447951638
1.46,13.319940819285048,-0.5974565662218954,-3.9800982934297537,-26.764170021946722,1660.6834378054964,1665.3578447951638
1.47,12.335674332684755,-5.060525322110369,-5.5643268176199845,-25.35636370291702,1628.6188182243216,1665.3578447951638
1.48,9.779643823102596,-8.60843938036001,1.513178518068494,-23.105517973314797,1609.183498902423,1665.3578447951638
1.49,13.238226124584948,-1.5897002397100977,12.40697583031162,-22.77828030479377,1612.653978895924,1665.3578447951638
1.5,11.603143181572438,6.568473649616536,22.544411940290868,-24.222781989538596,1631.5995441229036,1665.3578447951638
1.51,9.97819351863655,5.926532415653497,27.20797335633484,-25.040408231538283,1656.1101848822289,1665.3578447951638
1.52,9.470387511546875,9.385602706215233,25.65731584436896,-25.775648327377837,1677.6598736918706,1665.3578447951638
1.53,12.139770561649915,5.51395942026017,17.776701706822408,-25.583098817039282,1690.8800461792985,1665.3578447951638
1.54,12.253247545827282,2.6501254213737324,7.4753644650123166,-25.69909168546547,1687.19157585269,1665.3578447951638
1.55,12.68738321108278,-2.2812448120285262,-1.2490199552668675,-24.899406122211033,1665.133674918652,1665.3578447951638
1.56,11.160358891652878,-6.819540833141773,-3.7472179565174772,-23.149137953714455,1636.5683849841164,1665.3578447951638
1.57,11.329624558073402,-2.9857980799695234,0.9017010994071831,-22.441025861253795,1618.056679213759,1665.3578447951638
1.58,12.747954873451562,-3.9073551569086136,9.710937530945285,-21.45497150125725,1616.5287259211002,1665.3578447951638
1.59,12.552641822512374,4.495437804429169,18.797289457269077,-22.662858881977918,1631.0960238239131,1665.3578447951638
1.6,9.374351817039923,7.050956334789612,24.27045414844339,-23.912865522097228,1653.1080625923275,1665.3578447951638
1.61,10.920151173947527,7.650364443339296,23.484074665808237,-24.58389453543171,1673.6429537542872,1665.3578447951638
1.62,11.247182344169465,5.024110283570919,17.196597342770712,-24.851570554613133,1684.756802445436,1665.3578447951638
1.6300000000000001,9.54962988335467,6.854036206882453,9.190307198776221,-25.89539272855056,1682.73686470601,1665.3578447951638
1.6400000000000001,11.125408418582978,4.817627203823452,1.8331304021043286,-26.571631889751853,1667.8355754524753,1665.3578447951638
1.6500000000000001,12.607610723401626,2.8417316773629926,-1.847207377025346,-26.827323802744107,1647.6017853099377,1665.3578447951638
1.6600000000000001,13.289097403844153,-1.0852041139437096,-0.43510756923937166,-26.115928683450413,1627.1479056517637,1665.3578447951638
