t,iq,id,vq,vd,omega,r
0.0,0.0,0.0,0.0,0.0,0.0,949.7817777472555
0.01,0.0,0.0,246.94326221428645,0.0,12.005799214574834,949.7817777472555
0.02,11.547010478526984,0.03375837741885885,423.4573638075977,-0.008777178128903301,23.269621812200576,949.7817777472555
0.03,11.578092448611063,-1.1372318710136393,553.1442131105281,-0.09354421742921123,29.464345408469335,949.7817777472555
0.04,11.877141144067043,-6.058984735224831,648.8843708335019,-0.5950014833582419,30.864700803080638,949.7817777472555
0.05,12.062151122051873,-5.681750442122609,720.4874406133714,-2.6649766860539494,33.01349973340867,949.7817777472555
0.06,12.244949478823,-5.276266676244672,773.7103872941447,-4.09277094841164,35.957482797312075,949.7817777472555
0.07,12.426985798329387,-4.831956306290178,812.9478272519717,-5.031792244182534,39.76191263462685,949.7817777472555
0.08,12.608241713349857,-4.337051841461247,841.4801109102727,-5.593704051193986,44.511600922185046,949.7817777472555
0.09,12.786778687751855,-3.778368506145565,861.7465954924246,-5.858503850089002,50.31215259561703,949.7817777472555
0.1,12.958055239634316,-3.1411116160307606,875.5501880277174,-5.881993656147548,57.29130530316854,949.7817777472555
0.11,13.113945078819905,-2.408780240593334,884.210255580418,-5.701290465335158,65.60016206827693,949.7817777472555
0.12,13.241372707820508,-1.5632743170550398,888.6767566314538,-5.338872473328992,75.41398588375439,949.7817777472555
0.13,13.320476795870185,-0.5853850941574334,889.6152905861551,-4.805551563919386,86.94888722800319,949.7817777472555
0.14,13.322228086686518,0.5440740612072457,887.4660530989294,-4.102707836289457,100.57941811199441,949.7817777472555
0.15,13.20533683534457,1.843056386242587,882.4569959798615,-3.2243403603037466,116.65996905548846,949.7817777472555
0.16,12.912112031943739,3.324927164963378,874.6604999896579,-2.15847193751031,135.57465472613882,949.7817777472555
0.17,12.364095675947077,4.99068290856116,864.0197323545555,-0.8882259387309727,157.7531415625902,949.7817777472555
0.18,11.458675379621262,6.817370191080959,850.3630162073446,0.6056308704930299,166.38312006466657,949.7817777472555
0.19,12.460273810454568,-3.8875913682387715,837.3611537187078,-0.13173076080908666,171.59404689683086,949.7817777472555
0.2,13.153625356105108,-2.1817235775887274,826.7597965543122,-2.2456321543303583,180.71851802166358,949.7817777472555
0.21,13.330750464053256,0.26243064402170097,816.802133982454,-3.083307465522535,194.27972574399965,949.7817777472555
0.22,13.024941066275629,2.85108540696774,806.0867745162719,-2.893680112100276,212.7733916296221,949.7817777472555
0.23,12.130562252607858,5.534188035600448,793.4235086225062,-1.8699868750810018,236.4681443489154,949.7817777472555
0.24,10.512440455190202,8.201607979771904,777.8255007450132,-0.15905352933517242,241.63744394252572,949.7817777472555
0.25,13.212879499531669,-1.788181508861296,764.4387044026552,-2.5742887749477297,251.71346562364292,949.7817777472555
0.26,13.232252328524407,1.6386812051274946,752.3648170053814,-3.4475644149493374,268.27317742968626,949.7817777472555
0.27,12.307878790997487,5.127757545349817,739.3567911501084,-2.9192947378751835,291.51658048571284,949.7817777472555
0.28,10.308203316325898,8.456874255129105,723.6791318476704,-1.2603262570765665,297.4511099592073,949.7817777472555
0.29,13.315278122177084,-0.6936471054145761,709.9105620192563,-3.4995649898975474,309.8108599236409,949.7817777472555
0.3,12.8674487868476,3.493785839978168,697.0788364406492,-3.956182795120376,330.2204708006405,949.7817777472555
0.31,11.009153009384796,7.521723724900521,682.4821219359077,-2.7915759024277347,334.4148884189755,949.7817777472555
0.32,13.26650107023705,-1.3333143407227628,669.5333190580723,-5.135809551680004,345.7726601837118,949.7817777472555
0.33,12.901711227256127,3.3650594625163635,657.7768117005508,-5.540094371855143,366.1595643468112,949.7817777472555
0.34,10.7975194023707,7.822490174695397,644.096981887903,-4.136231952177179,371.0876522992367,949.7817777472555
0.35000000000000003,13.325344143642813,-0.4614988962737776,631.6443135630798,-6.167767957131167,384.3102810767955,949.7817777472555
0.36,12.478936197889116,4.696161107414271,619.8528195683201,-6.12834218250309,407.40410305698015,949.7817777472555
0.37,9.540040911181174,9.314794532933467,605.3848355728124,-4.153444939917314,415.6548049885518,949.7817777472555
0.38,13.170044459165883,2.0803140919995045,591.8611731909842,-5.725529732983926,434.05497084938276,949.7817777472555
0.39,11.000834088678994,7.533885261346626,577.8170902161328,-4.983965871568369,438.659446811066,949.7817777472555
0.4,13.332701654537708,0.12978585772430606,564.9558333891547,-7.1524153658354495,453.4504805792714,949.7817777472555
0.41000000000000003,11.852953375122828,6.106166888068333,552.7029691279162,-6.872745542062527,477.2773467337189,949.7817777472555
0.42,7.6255601410242955,10.937486471461314,537.627593097396,-5.0064076127829304,490.47028201838003,949.7817777472555
0.43,12.171468058102729,5.443633261743734,522.7992660337306,-5.741886831615412,515.4579687583986,949.7817777472555
0.44,7.798341249867892,10.814973487179087,505.827551695589,-3.7976919407144436,528.478478159705,949.7817777472555
0.45,12.037772843227646,5.733219231167486,489.4735734914775,-5.0384011524732735,554.1324180006902,949.7817777472555
0.46,7.090396706055629,11.291769229333958,471.260518947634,-3.217397132969618,569.0381018718704,949.7817777472555
0.47000000000000003,11.367858314051693,6.967752516373088,453.59200656184856,-4.408493245102897,576.8370307584858,949.7817777472555
0.48,13.264201022725349,1.3560047959020922,437.01448631645286,-6.127065258750589,594.8390990101275,949.7817777472555
0.49,10.077198006687976,8.730856665401259,421.7876048812288,-6.038158751566994,602.6731603652682,949.7817777472555
0.5,12.765794794239582,3.8486700364078086,407.3810283298609,-8.058973390521503,625.3344898004879,949.7817777472555
0.51,7.92404803384038,10.723210365145697,392.14786227542305,-6.4845760156202426,638.7361203458744,949.7817777472555
0.52,11.38222110902307,6.944265288933552,376.80731570540775,-7.462201912511081,646.5698903233263,949.7817777472555
0.53,13.13495046316821,2.291474221520937,362.0219389080182,-8.71820182369083,666.6803009376334,949.7817777472555
0.54,8.711223204056452,10.094174957215976,347.83812102675404,-7.765337581516505,678.4369357134727,949.7817777472555
0.55,11.606450851097557,6.562627249725106,333.5251240686412,-8.927576389978572,690.7914277813932,949.7817777472555
0.56,11.816463535928884,3.945301458014722,318.7307112938013,-8.70637403007951,711.420404224537,949.7817777472555
0.5700000000000001,8.11983193176645,10.575731992521542,304.30495614164664,-7.7811706431797445,724.8881393947728,949.7817777472555
0.58,10.856225882395748,7.7408098651354535,289.5072900535617,-8.78920006606024,731.2545612127376,949.7817777472555
0.59,12.598686761014553,4.364730195053796,275.8106217147435,-10.968139284093288,755.1500378943938,949.7817777472555
0.6,5.925304124150944,11.94439403293853,261.4215663343961,-8.669161492651167,773.6861385487836,949.7817777472555
0.61,8.678315386814983,10.122480912540565,245.6916950209877,-8.509832344536031,786.1852120137964,949.7817777472555
0.62,10.773306686069041,7.855803003237655,230.19193536774006,-9.796298908577329,793.1511538432376,949.7817777472555
0.63,12.236422419533003,5.296012098600968,215.97219830787589,-11.886862759803499,812.7018530261936,949.7817777472555
0.64,5.244153342014153,11.497162936952577,201.94379895854922,-10.494595466199572,834.4511784364641,949.7817777472555
0.65,6.497466139520348,11.643054218870764,186.27515690667744,-9.186521668661928,852.2402019553363,949.7817777472555
0.66,8.329167432089895,10.41166402003017,169.81241080241614,-9.363759531086648,866.0505217598364,949.7817777472555
0.67,9.7847831120365,9.057361493734422,153.60207651764895,-10.478080143614894,876.2986849102066,949.7817777472555
0.68,10.926909594210706,7.640708376696741,138.36847832313157,-12.121684669921391,883.3499973764292,949.7817777472555
0.6900000000000001,11.809050500539087,6.190646497216204,124.60100808873494,-14.010000771006696,893.9255569332173,949.7817777472555
0.7000000000000001,11.782803312202951,5.305848634924564,111.22548270472649,-13.593084522374008,908.4610109922131,949.7817777472555
0.71,7.8054183239254895,8.525542598404694,98.64252342840508,-12.771406010776527,925.85419988931,949.7817777472555
0.72,5.734280684953142,11.147484191025551,85.64475662463144,-12.048568957338038,944.2696523237413,949.7817777472555
0.73,5.44827088036206,12.169392844015537,71.61512444126674,-11.631069333753134,961.7236852495114,949.7817777472555
0.74,6.060385021372173,11.876426700422376,56.62347992833413,-11.68384895980818,976.5313317699198,949.7817777472555
0.75,7.268481940162105,10.320400328325464,41.13542414919638,-12.200700157044452,987.5512853086752,949.7817777472555
0.76,9.103743962737665,7.336123546204256,25.813077376973308,-12.961832953551044,994.2604463827776,949.7817777472555
0.77,11.13265476940804,3.748641794957766,11.507399884803391,-13.849682427725572,990.5014884155428,949.7817777472555
0.78,11.286501116030458,-2.984291619877497,-1.45810194506991,-13.036280188607844,976.9173749721311,949.7817777472555
0.79,4.3092394541172485,-9.117061094377611,-9.113697363764873,-10.69568722026844,958.0910218101474,949.7817777472555
0.8,-0.3724564890054883,-11.551568213098196,-10.862813766185392,-7.783450095806685,939.0135521020848,949.7817777472555
0.81,-2.200467581985178,-11.35826776377453,-7.411585651385975,-4.945816159356288,923.7546645723522,949.7817777472555
0.8200000000000001,-2.745213705761988,-11.016176539081405,-0.06046759468455426,-2.195192936832868,915.2409677910895,949.7817777472555
0.8300000000000001,-0.9878173564024694,-5.474728255818395,8.889252237776613,-0.8819253557108994,914.3543071819289,949.7817777472555
0.84,2.3137263835544504,0.9897868448202821,17.143539451911696,-1.1940172179223567,919.9663163856993,949.7817777472555
0.85,6.304847853228054,6.209190723687803,22.9251615222593,-2.798508937632982,929.6336889500318,949.7817777472555
0.86,8.16541188204928,8.309387362368467,25.80555138512138,-4.896857744611905,940.5227879266624,949.7817777472555
0.87,9.158316630955609,7.679345725191293,25.622803448082056,-6.756628042134318,950.438434716882,949.7817777472555
0.88,9.885004443205853,6.899363873519624,22.76444365219312,-8.391885757832153,957.7549516852786,949.7817777472555
0.89,10.618912596339813,5.963673104356735,18.0359177673871,-9.873447126229708,960.8050959937369,949.7817777472555
0.9,10.98447693281052,2.7207628096551444,12.499811886114838,-10.521208725696477,959.2206981621431,949.7817777472555
0.91,9.953575446285095,-1.0392991274956893,7.677840914002868,-10.223783324451047,953.8926819263759,949.7817777472555
0.92,7.664246893156067,-4.229174623622997,4.810226593822732,-9.134590913584022,946.6583531727878,949.7817777472555
0.93,5.649115368432986,-5.785166624727984,4.271298498114541,-7.672739337390977,939.5515633817322,949.7817777472555
0.9400000000000001,4.366602899768704,-5.61012699460459,5.821094387150402,-6.271957985041063,934.2310811326556,949.7817777472555
0.9500000000000001,4.0584290706869455,-4.009143433305081,8.750447833910231,-5.2856819623277875,931.5769046142782,949.7817777472555
0.96,4.762041818794234,-1.4800251336298096,12.13066130015871,-4.940966861917088,931.6519817650625,949.7817777472555
0.97,6.097640134956802,1.0358671812571867,15.124593507298307,-5.225092580380255,933.9263482184012,949.7817777472555
0.98,7.662539397019196,2.993954928350733,17.134423383103076,-5.9931621899388725,937.4652016586892,949.7817777472555
0.99,9.083516213559212,4.074591727486855,17.893090049286567,-7.022616489801947,941.2040799402833,949.7817777472555
1.0,9.70997624140546,3.854505049030709,17.566367057583847,-7.9840418852750625,944.2976656573118,949.7817777472555
1.01,10.153700496459463,3.2720420553715046,16.3635968562341,-8.796227769181348,946.1414900835929,949.7817777472555
1.02,10.478918468616603,2.394855837274854,14.632248731011233,-9.386169866319094,946.4128301388978,949.7817777472555
1.03,10.284383109187063,1.0843077165515478,12.902621808845154,-9.64414131424975,945.2332617440788,949.7817777472555
1.04,9.72211634701382,-0.20776116840277872,11.626640074455795,-9.57928033329951,943.0811470073637,949.7817777472555
1.05,9.13693000577791,-1.084171288246916,11.044938268763786,-9.29947341003934,940.5962209684615,949.7817777472555
1.06,8.698233312094157,-1.4298296188598636,11.196005362764627,-8.938559422018244,938.4171994827816,949.7817777472555
1.07,8.507366590310664,-1.2730652973961494,11.93400716338008,-8.621860740883843,936.9873284701088,949.7817777472555
1.08,8.579666017896166,-0.7610974108826705,13.001278694043611,-8.436706067028311,936.5055359823468,949.7817777472555
1.09,8.855959616854093,-0.09609051571096372,14.108404219945307,-8.419333507052286,936.9193886647228,949.7817777472555
1.1,9.23571456298588,0.5354920222703203,15.007136773546954,-8.55952233799968,937.9665683721995,949.7817777472555
1.11,9.630975882411615,1.0235231102223268,15.538770736439037,-8.82028342643478,939.26206897888,949.7817777472555
1.12,10.039564960356735,1.3988702311108798,15.64176579159747,-9.173754455421385,940.403345760973,949.7817777472555
1.1300000000000001,10.35136723666876,1.464765415086065,15.384001188416859,-9.540604761032652,941.1092008653319,949.7817777472555
1.1400000000000001,10.521056224787968,1.2588587724142886,14.913125911776,-9.853260387709508,941.2576399309679,949.7817777472555
1.1500000000000001,10.56707302521929,0.9089419912211767,14.400447550882413,-10.076996717702869,940.8768094855951,949.7817777472555
1.16,10.544287631940913,0.5370490254471507,13.994653866698801,-10.207540044406917,940.114107760715,949.7817777472555
1.17,10.505253382657044,0.25201663031500265,13.793275377411318,-10.267693878034345,939.1787290420858,949.7817777472555
1.18,10.506175118780835,0.10440503402984325,13.826838343833593,-10.292319020578956,938.2942031212813,949.7817777472555
1.19,10.578626300204762,0.10156429682201917,14.062196172669776,-10.31768168741238,937.63532426512,949.7817777472555
1.2,10.727466071367036,0.2104513138257295,14.422043416211906,-10.371383386038849,937.300547486939,949.7817777472555
1.21,10.933079266765839,0.3699013480451878,14.81037280042741,-10.46545322339234,937.2923953937851,949.7817777472555
1.22,11.138342594993206,0.5043603155193486,15.146161627695985,-10.59288789194692,937.5636990739133,949.7817777472555
1.23,11.184752278969082,0.5352238478204803,15.401316092648232,-10.727002489225049,938.0177145349093,949.7817777472555
1.24,11.2480168390368,0.5368729675980566,15.525154885764962,-10.86123722232234,938.535945979125,949.7817777472555
1.25,11.318170254796708,0.47238802301691507,15.501186415498662,-10.978689378630758,938.9888389893446,949.7817777472555
1.26,11.375219145921507,0.3335728599581289,15.350516899482583,-11.0606944419897,939.2639379562903,949.7817777472555
1.27,11.385568062482934,0.16538128728592838,15.130730352768088,-11.10035784808446,939.2823377864441,949.7817777472555
1.28,11.294411149111088,0.11604549563102079,14.932715126525347,-11.128875864075667,939.0225363912335,949.7817777472555
1.29,11.200961590142153,0.12472762777411983,14.825817577537109,-11.160144592340627,938.5559617669473,949.7817777472555
1.3,11.158861391706473,0.1793733581372825,14.847642972914757,-11.20553438917858,938.0104089050269,949.7817777472555
1.31,11.186583352400698,0.2964547783155269,14.999017654384005,-11.280818897959245,937.5151475653461,949.7817777472555
1.32,11.29980885528327,0.47304158747751934,15.244543344408537,-11.400845162920243,937.1623280176009,949.7817777472555
1.33,11.487684580338561,0.6615181858040744,15.529134069964462,-11.568109475354529,936.9928042627855,949.7817777472555
1.34,11.538130950819191,0.6829079009058026,15.843035477220518,-11.739050347731997,937.041164382772,949.7817777472555
1.35,11.53094621883015,0.6513935575404384,16.1450405097539,-11.901583593683451,937.3150548833654,949.7817777472555
1.36,11.571493994970313,0.6281752063980479,16.365703344216524,-12.05839521177154,937.7626281858243,949.7817777472555
1.37,11.656645852980798,0.5685533141468966,16.45100201972445,-12.199937321385752,938.2787754237683,949.7817777472555
1.3800000000000001,11.773125929888455,0.4348675672401363,16.37714484497564,-12.307317355726719,938.7523232950606,949.7817777472555
1.3900000000000001,11.823279375823548,0.27882409867074553,16.173451600896218,-12.37546294570871,939.0781556068648,949.7817777472555
1.4000000000000001,11.804167743358473,0.11957505447387629,15.895247993360893,-12.403764218885211,939.1973351124998,949.7817777472555
1.41,11.780689640117629,-0.08066274082491987,15.595229227996484,-12.381596155725994,939.0913917976785,949.7817777472555
1.42,11.742413805085521,-0.2838727665668248,15.333664455617896,-12.308595863826866,938.7810569101682,949.7817777472555
1.43,11.669746795960148,-0.41351135466006195,15.170237984866045,-12.203921639280917,938.3098003921638,949.7817777472555
1.44,11.528292548299524,-0.3221379449128894,15.16228629422076,-12.124300887150168,937.7439349632939,949.7817777472555
1.45,11.436407874212232,-0.10568111729457641,15.319222522687685,-12.100045176102707,937.1981152256923,949.7817777472555
1.46,11.4442439069613,0.18602666604274853,15.609457013386704,-12.149468920446768,936.7868113943259,949.7817777472555
1.47,11.559034090071359,0.52491299871182,15.97140521558383,-12.284086033451414,936.5742738962011,949.7817777472555
1.48,11.67186317059984,0.7660912127382966,16.35631246987344,-12.478020618776254,936.5886076870255,949.7817777472555
1.49,11.57199119818759,0.7587239692463541,16.762462567199933,-12.667627938652924,936.8631137032122,949.7817777472555
1.5,11.522115912797593,0.7978418104740097,17.1093532927034,-12.8674795696837,937.3767423909693,949.7817777472555
1.51,11.530453901146196,0.8337585537180905,17.322778989727354,-13.076278375545664,938.0414216522065,949.7817777472555
1.52,11.592368530347755,0.8181074996893143,17.35250994199829,-13.280648739927704,938.7185389964636,949.7817777472555
1.53,11.692476575282623,0.7131066142179403,17.18742823198369,-13.457875384627476,939.2594288536302,949.7817777472555
1.54,11.810221101616555,0.5014639969625416,16.858873836150885,-13.581124957695556,939.5534452796802,949.7817777472555
1.55,11.927186907892771,0.18910004114541268,16.430050403748265,-13.625276328423737,939.5320528833577,949.7817777472555
1.56,12.032666381365281,-0.20055376159093363,15.983474153609915,-13.571241349998639,939.2009043851605,949.7817777472555
1.57,12.11081516847437,-0.6156204327834203,15.603518699125972,-13.413185575090859,938.6302404790737,949.7817777472555
1.58,12.001725471449376,-0.7784585155558417,15.397769184340211,-13.216942565374172,937.9427254718807,949.7817777472555
1.59,11.87944578823176,-0.7813710280150525,15.395768753030076,-13.021570683245816,937.2448152823334,949.7817777472555
1.6,11.721254043697455,-0.49332206536872414,15.608256877677057,-12.901120656530098,936.6328383843957,949.7817777472555
1.61,11.66783137700175,-0.08039547050633278,15.985187869787929,-12.885151054852138,936.2126528284156,949.7817777472555
1.62,11.745395744114358,0.39143899363992096,16.444546375358005,-12.987729147903579,936.0456068114257,949.7817777472555
1.6300000000000001,11.806168213963925,0.71729061491332,16.92810979129588,-13.170310317844644,936.1565734228112,949.7817777472555
1.6400000000000001,11.646943490107295,0.7546464607697523,17.42315758100485,-13.359345491495645,936.5753622269872,949.7817777472555
1.6500000000000001,11.544121073464268,0.8463231925777382,17.835571528830545,-13.571843056958159,937.267083453999,949.7817777472555
1.6600000000000001,11.509157808442023,0.9364050309888023,18.08038807041428,-13.806845133089471,938.1139130374951,949.7817777472555
1.67,11.538687695202405,0.9699121416636531,18.10391872935123,-14.049658239612134,938.9617444907083,949.7817777472555
1.68,11.616640999522787,0.9048398296762366,17.895508946032013,-14.27521747391132,939.6316957990308,949.7817777472555
1.69,11.720360041687151,0.7218085337324558,17.49520271916154,-14.453839294384997,939.9805400719082,949.7817777472555
