t,iq,id,vq,vd,omega,r
0.0,0.0,0.0,0.0,0.0,0.0,1936.3300353282125
0.01,0.0,0.0,503.44580918533524,0.0,40.998005880551084,1936.3300353282125
0.02,11.547157395170366,0.10594026126435471,854.9333264996424,-0.027544467928732226,57.976473551879664,1936.3300353282125
0.03,11.9948567247183,-5.822472836455134,1114.5975736244234,-1.1782816085033039,64.9075037301345,1936.3300353282125
0.04,12.341900547443474,-5.045321461987551,1307.8424712757976,-3.1236360564983467,77.19660810786527,1936.3300353282125
0.05,12.680217738452367,-4.121875287198245,1449.7740219401005,-4.348685559514623,95.67332966903733,1936.3300353282125
0.06,12.998512696988545,-2.969249980046361,1551.6652451734963,-5.003853100014842,121.56439649092704,1936.3300353282125
0.07,13.250016616606052,-1.4882329916519241,1621.66552134607,-5.177191735009912,156.47900395252893,1936.3300353282125
0.08,13.326316624885942,0.43250779306995657,1665.4804205925166,-4.903167952363296,204.10198100641512,1936.3300353282125
0.09,13.013799409507484,2.901517311146085,1686.4365645490068,-4.16794071139778,268.9558994737259,1936.3300353282125
0.1,11.920273405936095,5.973680582815788,1685.8615647449597,-2.909186925281329,355.4484804843354,1936.3300353282125
0.11,9.400538409045762,9.455562140763133,1663.578863250852,-0.9963911950417789,385.59524275348537,1936.3300353282125
0.12,13.2230371119152,1.7114518148902298,1639.4558094294134,-3.145709647407211,445.63846228069787,1936.3300353282125
0.13,11.295348769258549,7.084692933260206,1606.7935800969276,-3.1573167911200217,459.58072368365396,1936.3300353282125
0.14,13.33209712060393,-0.18156030557941794,1577.8596176718481,-5.9937624918486225,507.7975642279276,1936.3300353282125
0.15,11.772830885600985,6.259251609962429,1545.1173058368267,-6.233479073880144,598.5887879275925,1936.3300353282125
0.16,6.47565272540035,11.655200537004617,1497.8631361223909,-3.887317962954227,656.3842199819354,1936.3300353282125
0.17,10.450129652109329,8.28085551328382,1448.1524900938934,-4.820246598967615,680.8817605516451,1936.3300353282125
0.18,12.653360771682497,4.203598334691872,1403.9839859941246,-7.571101958068245,760.6653003506646,1936.3300353282125
0.19,6.397504884022595,11.698278037244831,1352.161536642871,-6.155683774072798,821.4536095279643,1936.3300353282125
0.2,8.829920630952373,9.990509467933023,1297.998426566914,-6.912070150910438,863.951054451516,1936.3300353282125
0.21,10.387866994836813,8.358827494054278,1246.3962416696493,-8.848451174460747,892.6254133412664,1936.3300353282125
0.22,11.395877274244842,6.921832049979811,1200.0372780105931,-11.242472215881042,910.7679763263941,1936.3300353282125
0.23,12.068438046687834,5.668384328098725,1160.2286651290324,-13.681337682466188,990.0842454113348,1936.3300353282125
0.24,1.8412974063745988,13.205582215073136,1112.8227935179666,-10.236740197628432,1065.9814295327903,1936.3300353282125
0.25,1.479507151846259,13.25099378784148,1058.4932268846223,-7.985849244293119,1138.7727871734367,1936.3300353282125
0.26,0.06533656699044257,13.333173249860351,999.8583966828053,-6.116978371100443,1181.5567969984506,1936.3300353282125
0.27,4.28420179873631,10.724519040508653,943.9731537192415,-7.479617152358409,1214.8214647934603,1936.3300353282125
0.28,8.454623414367148,10.310049500318248,893.3461425957813,-11.027787238832854,1264.8413718774118,1936.3300353282125
0.29,5.706757335774133,12.050340181437445,843.8760089587796,-12.600964724963326,1326.1659169295776,1936.3300353282125
0.3,1.8131630744394238,13.209474533200293,792.394003675779,-12.114899561717124,1386.588488239073,1936.3300353282125
0.31,-3.233831599242955,12.653522403076533,739.3933848947406,-9.22330056099671,1424.7599290060255,1936.3300353282125
0.32,4.988601464155168,12.04172194694533,688.4029573536693,-12.173817273877402,1481.7002609579845,1936.3300353282125
0.33,-1.4232926905576742,12.527857810091225,637.7418153054867,-11.223404770547738,1510.6897703567001,1936.3300353282125
0.34,5.8626374015912575,11.080745574459321,590.115034503843,-14.604037611423767,1563.4401592243553,1936.3300353282125
0.35000000000000003,-1.913638024690048,12.064689393217908,543.819178509585,-13.439203214508362,1593.3073800932284,1936.3300353282125
0.36,3.903593901818184,11.571724187451931,499.5952770398287,-16.222175702146206,1642.5151271968894,1936.3300353282125
0.37,-4.355080161850197,10.995906024447459,456.7033213154601,-13.49479783737718,1679.008548495964,1936.3300353282125
0.38,-0.2104817524907503,11.698472612733374,414.30891280797175,-14.809142737300176,1709.8537774542133,1936.3300353282125
0.39,-8.277405963060305,8.710582530961588,376.2093752512859,-11.987407042384902,1748.692739551886,1936.3300353282125
0.4,-5.337580825655525,9.991129829406248,337.8982014154032,-10.339680194584279,1784.0809664525252,1936.3300353282125
0.41000000000000003,-2.7512085611508224,10.841542020581235,299.71770462288146,-11.575693245968012,1811.7628552173862,1936.3300353282125
0.42,-0.3066535664552348,11.105053920962074,263.1105440469772,-14.488029534186138,1835.9374900924413,1936.3300353282125
0.43,-9.64658988793032,7.678608587091851,231.70513980196458,-12.062369837660244,1864.4072815321151,1936.3300353282125
0.44,-7.699833881720633,8.010236746029888,201.11716907130472,-9.017605275834226,1895.0460054638704,1936.3300353282125
0.45,-6.483942276315202,8.458377593329109,170.41824973042642,-8.05322736479213,1925.1164641031253,1936.3300353282125
0.46,-5.661021573235071,8.88028262612676,139.72157402341128,-8.435205986647544,1953.550822924477,1936.3300353282125
0.47000000000000003,-5.080245098071109,9.088081711645694,109.41107503460314,-9.53543125816216,1980.2835933462372,1936.3300353282125
0.48,-4.753080043648794,9.136201081952033,79.85276563909049,-10.898627284202547,2005.5713542505803,1936.3300353282125
0.49,-4.675304535741048,9.054745458729808,51.29706330158051,-12.202821793699828,2029.7167657551377,1936.3300353282125
0.5,-4.833348451006278,8.85212540867426,23.87572910802421,-13.221532700370345,2031.262346047204,1936.3300353282125
0.51,-4.478367482478401,6.868145220196667,0.8873382027389755,-14.839011116655444,1977.3697747305575,1936.3300353282125
0.52,4.6331532353633,-5.053775947089317,-10.083074450700066,-13.456347918210254,1893.1857562859218,1936.3300353282125
0.53,6.810648238126911,-9.50766134085998,-0.1796015152403994,-11.03489372905755,1834.7131326408435,1936.3300353282125
0.54,3.575608195623585,-7.135423296446852,24.947798744571777,-9.274760285389966,1840.3571023160491,1936.3300353282125
0.55,-3.45095710763469,7.0761574749478395,49.42461316173627,-11.013999537230886,1859.4711197918018,1936.3300353282125
0.56,-5.831146839073395,8.709386004209868,64.40387395984507,-12.199293916437174,1878.5168080998467,1936.3300353282125
0.5700000000000001,-8.137522294442608,7.7668828448801595,71.46936140612287,-12.223639489735541,1901.1638488010726,1936.3300353282125
0.58,-7.043542523630737,8.035209752538169,71.22507996080512,-11.460252563434691,1929.5457302288503,1936.3300353282125
0.59,-6.281676996746185,8.42283134352785,64.29102270873318,-10.543390725342173,1957.898439663785,1936.3300353282125
0.6,-5.7738040726383515,8.634127699258208,51.97255820854278,-10.435850123584483,1983.1045691424301,1936.3300353282125
0.61,-5.495269512920232,8.688309175773513,36.182201445994096,-11.093538200233603,1998.2869362874083,1936.3300353282125
0.62,-5.432087876530409,8.621417294212494,19.69068341706826,-12.936070475405169,1993.30943547493,1936.3300353282125
0.63,-2.886367902351892,5.385617812182456,6.191743164359835,-14.250116933630482,1953.530809319821,1936.3300353282125
0.64,2.7554070685140855,-2.156259756764335,1.544066411171631,-13.635633218749932,1900.6464794352414,1936.3300353282125
0.65,4.300484422785738,-5.1866356232509885,9.903226804021044,-12.308670554272316,1869.6054839408812,1936.3300353282125
0.66,1.5932869623611292,-0.41749683919188463,26.523524839811436,-12.251987732314936,1876.049876275137,1936.3300353282125
0.67,-2.6218939391707607,7.5176975794631495,41.42925048834831,-13.869405413219908,1895.1691652245793,1936.3300353282125
0.68,-4.516397859904178,8.898152605920973,49.203081863697854,-14.951555113116749,1911.6144620274774,1936.3300353282125
0.6900000000000001,-5.54979743420856,8.433739972910793,50.98541087733175,-15.58669403108656,1926.766387577488,1936.3300353282125
0.7000000000000001,-6.372278491607115,7.83181854646444,48.68996407328215,-15.75799683619053,1941.1542506177332,1936.3300353282125
0.71,-6.8416115862620694,7.663263740214179,43.489566116078045,-15.828832558416252,1954.3266448515287,1936.3300353282125
0.72,-6.529477658599887,7.720458812219032,36.15726865501931,-16.13281786521111,1965.173277340717,1936.3300353282125
0.73,-5.22680455325483,7.898354814126302,27.419557348070104,-16.917445186768983,1972.2779463461907,1936.3300353282125
0.74,-3.005534672468692,7.99440835819137,18.163964975939592,-18.278609651286228,1965.4735051803555,1936.3300353282125
0.75,1.0574892380999663,5.777911194813831,10.586886401786696,-19.59964160217771,1940.0638418489891,1936.3300353282125
0.76,4.791067497486296,1.993349580383271,8.672428747940765,-20.06013338112922,1909.0960147971039,1936.3300353282125
0.77,6.16171580521611,1.00436588957484,14.23647671685545,-20.301335016614846,1892.6535282798452,1936.3300353282125
0.78,5.219588627922154,4.507925084801491,24.02455245891226,-21.463351879767483,1893.2903528320628,1936.3300353282125
0.79,3.055312841978248,7.853846486761722,33.0888793149084,-22.8716495222498,1903.5388793708335,1936.3300353282125
0.8,0.9924759726670156,9.297650497963598,38.575406699750594,-23.8526067311339,1921.4342627682531,1936.3300353282125
0.81,-0.6878431958267686,10.376980511852818,39.29360726458325,-24.567608510202867,1937.0491883997688,1936.3300353282125
0.8200000000000001,-1.1966948814238227,9.851321744006672,35.87356291702328,-24.962311253205343,1949.4904742374683,1936.3300353282125
0.8300000000000001,-1.0072586042877285,9.155228750911972,29.907766999542776,-25.20554099442147,1957.7179838870345,1936.3300353282125
0.84,-0.08434499044205479,8.425794123670984,22.775070350929102,-25.51174313343898,1954.0155624247764,1936.3300353282125
0.85,2.671910702261419,6.275494164251072,16.591495125586132,-25.768100106471135,1939.1463466081336,1936.3300353282125
0.86,5.351608517918601,4.215200849105016,14.008115664247782,-25.93509438602593,1919.2366966949191,1936.3300353282125
0.87,6.662603833414848,3.415932941506087,16.306425692574976,-26.040650416615044,1904.4474876901784,1936.3300353282125
0.88,5.9459245323257255,4.730125415393651,22.40443083237897,-26.262783742583544,1902.4995619606707,1936.3300353282125
0.89,3.894554585854602,7.630107993794928,29.119196808576582,-26.798553340951145,1904.2283752994385,1936.3300353282125
0.9,2.488885742611754,7.9317091968396465,34.33621108964943,-26.77774221839586,1910.9231000688865,1936.3300353282125
0.91,0.988945237174669,8.701509704010958,37.40171172228823,-26.584221452493683,1922.501689488436,1936.3300353282125
0.92,0.0024618848950171968,9.612326823825061,37.47850722420535,-26.55642675982207,1935.938282169729,1936.3300353282125
0.93,0.05750458378826284,10.092300502448422,34.303949561992866,-26.87127575017694,1946.190227357855,1936.3300353282125
0.9400000000000001,1.1552033232737662,9.600070161772882,28.77868987032775,-27.389818014070975,1949.1876773999695,1936.3300353282125
0.9500000000000001,2.711283497892929,8.094786619897388,22.82555387851433,-27.75163176187482,1943.1027775000402,1936.3300353282125
0.96,4.760183649738842,6.282175475950107,18.564644294849366,-27.9875790423629,1930.1317647740723,1936.3300353282125
0.97,6.315378114893964,4.795351034645576,17.60841107533184,-28.071139199760257,1915.7220406548086,1936.3300353282125
0.98,6.519236544436361,4.3998214823547634,20.337885481986884,-28.01804697369426,1907.4205751491572,1936.3300353282125
0.99,5.20896155389406,5.8503625893002065,25.370451130977496,-28.030760154063405,1908.0386510080286,1936.3300353282125
1.0,3.392648828477501,7.887130740927388,30.236538399886914,-28.1470542109526,1909.9337360181507,1936.3300353282125
1.01,2.361412447376284,7.933862086978282,33.77386817717157,-27.82943800289232,1914.213769103492,1936.3300353282125
1.02,1.2590955373832038,8.30461620780771,35.89039696220206,-27.35097741725891,1921.5620130270015,1936.3300353282125
1.03,0.4380685415746701,8.860068140025488,36.135875301682475,-26.966492142113825,1930.8636891779386,1936.3300353282125
1.04,0.273738054297882,9.29023857224534,34.20092744983374,-26.862796641903373,1939.298902546133,1936.3300353282125
1.05,0.9869108333408314,9.25236222936182,30.359468842405494,-27.087807116221864,1943.5083056281271,1936.3300353282125
1.06,2.4948164456124804,8.559306095448116,25.63829323012257,-27.54139977072279,1941.348427092016,1936.3300353282125
1.07,4.306700539802674,7.297511625791628,21.580465580144615,-28.01012724509783,1933.1100050716993,1936.3300353282125
1.08,5.6975875797641695,5.941500223682765,19.692812079909075,-28.28786905623098,1921.898062253021,1936.3300353282125
1.09,6.221837626260272,5.130019025870737,20.69148149077927,-28.358978586000568,1913.2065754934076,1936.3300353282125
1.1,5.45064299945255,5.471959284991579,24.041287637875737,-28.301039152587094,1912.4453324903889,1936.3300353282125
1.11,3.7318224059663905,7.3838531589959295,27.91228467796536,-28.37974326202998,1914.092731384306,1936.3300353282125
1.12,2.8003608969043694,7.935231411111135,30.843332818416027,-28.25684629459058,1916.078542182948,1936.3300353282125
1.1300000000000001,2.102305250088938,7.961591600793567,32.78328001346642,-27.881845313757374,1919.2752181218243,1936.3300353282125
1.1400000000000001,1.447371406839119,8.187401822185583,33.7549475505776,-27.445867075304026,1924.1810049629155,1936.3300353282125
1.1500000000000001,1.0386654003864022,8.512238763724326,33.52381908699893,-27.120031872710815,1930.1087103627376,1936.3300353282125
1.16,1.094744444799319,8.749123294285138,31.935487317642558,-27.027372775107263,1935.3319081713846,1936.3300353282125
1.17,1.741109376562139,8.686006617852716,29.187424579612976,-27.201674903693185,1937.733688027097,1936.3300353282125
1.18,2.9147278685104503,8.201906914297417,25.947456940246905,-27.580312217727663,1935.9191883193241,1936.3300353282125
1.19,4.354773719712172,7.3911645082251685,23.196275355079518,-28.054538566818625,1930.257228339967,1936.3300353282125
1.2,5.199483547308631,6.390490559723104,21.96878388233429,-28.323709500789462,1922.9798001182837,1936.3300353282125
1.21,5.337052769855792,5.85389985763445,22.695292877993666,-28.38900827590346,1918.0360656492842,1936.3300353282125
1.22,4.5896954606533935,6.218669316237302,24.878419258714192,-28.352623516953933,1918.9379358571853,1936.3300353282125
1.23,3.290269558712609,7.676193712278442,27.159529156345553,-28.431801467292757,1920.3760079619642,1936.3300353282125
1.24,2.8403873903491683,7.925104635445836,28.673357768984562,-28.356629013291908,1920.9282683808765,1936.3300353282125
1.25,2.5896409654378973,7.837007467756939,29.703194968820025,-28.114992018176142,1921.5494888636138,1936.3300353282125
1.26,2.3373276368408162,7.868825514396598,30.42034853676677,-27.815877413685953,1922.9033369016038,1936.3300353282125
1.27,2.141542003770155,7.999903010898657,30.74917666482757,-27.55711597625635,1925.304579037878,1936.3300353282125
1.28,2.1031891615855334,8.171381598735612,30.488643001521876,-27.42690033280588,1928.3245352576548,1936.3300353282125
1.29,2.341093394424939,8.275474274628623,29.509705133684378,-27.485888698449283,1930.9175157531781,1936.3300353282125
1.3,2.9228554688533954,8.194825393273263,27.90967372713927,-27.745285260382406,1931.933248646306,1936.3300353282125
1.31,3.80730763460372,7.874866961010322,26.044505622791444,-28.1653048039936,1930.7375173641476,1936.3300353282125
1.32,4.212879535674159,7.215824625354941,24.622706290321304,-28.41018931477911,1927.9357229844277,1936.3300353282125
1.33,4.270492859619714,6.714767675274281,24.108290842796585,-28.467175164579515,1925.524756595613,1936.3300353282125
1.34,3.956202974735732,6.717764101754982,24.437897312257167,-28.436013956825295,1925.17115604538,1936.3300353282125
1.35,3.403668626539262,7.3780763749435225,25.127272184253847,-28.465192979076026,1925.974651516202,1936.3300353282125
1.36,3.151829990194685,7.91341721437753,25.62210167831559,-28.540383489225295,1925.0585833229352,1936.3300353282125
1.37,3.3136633736668504,7.714293886424718,26.05326877117733,-28.490241930303977,1923.0462599606572,1936.3300353282125
1.3800000000000001,3.41315108479772,7.569004479785802,26.788402314000994,-28.359984086013988,1920.9196709773337,1936.3300353282125
1.3900000000000001,3.3744912360565023,7.520399702075393,27.8893796804344,-28.179772539197305,1919.808171246197,1936.3300353282125
1.4000000000000001,3.1902669668671866,7.622872085070036,29.131595220436,-28.002635856414436,1920.6910685063372,1936.3300353282125
1.41,2.9605474599070964,7.886262206059535,30.05407924364302,-27.91434245315151,1923.6403013003717,1936.3300353282125
1.42,2.8871992560987167,8.210254325546584,30.17599703162638,-28.00737712693114,1927.733421062511,1936.3300353282125
1.43,3.1701129298950077,8.420843418667028,29.22351377576788,-28.334746826214857,1931.3165745362728,1936.3300353282125
1.44,3.1713654338274817,8.121541937979833,27.547321546939294,-28.55333825383976,1933.4719740588796,1936.3300353282125
1.45,3.1447363454970945,7.647060742412903,25.621633767145816,-28.59892523847339,1933.5624874055727,1936.3300353282125
1.46,3.3092573978724147,7.2029899689413615,23.942495696227148,-28.56025417196626,1931.8449703349222,1936.3300353282125
1.47,3.5879423892128797,7.0559018340967725,22.905334572218823,-28.53897138822181,1929.4877352179228,1936.3300353282125
1.48,3.8202139207119314,7.2720960753157735,22.62674886301138,-28.608192134414317,1927.4526540749316,1936.3300353282125
1.49,3.9571770237443413,7.6712962639935,22.94945544985015,-28.78169817123992,1923.731437352807,1936.3300353282125
1.5,4.277117513005523,7.409133496804914,23.900479442546793,-28.82387525951605,1919.1870270563243,1936.3300353282125
1.51,4.333595391656397,7.228115378437055,25.69297839665988,-28.73083928038208,1915.6226937276558,1936.3300353282125
1.52,4.030374871507354,7.2591628636212056,28.095218208711728,-28.528329851183994,1914.8682870158198,1936.3300353282125
1.53,3.4459256149764665,7.594365668249196,30.4631798414068,-28.31414202210225,1917.9253790273613,1936.3300353282125
1.54,2.8608498739971546,8.18911782227162,31.927001486720105,-28.244967213127598,1924.1795487923825,1936.3300353282125
1.55,2.6514809896671117,8.789975669890989,31.751026748719983,-28.455154251014584,1931.461747984184,1936.3300353282125
1.56,2.4300107363990264,8.83447431183554,29.911675759765785,-28.672764517473023,1937.3454461032566,1936.3300353282125
1.57,2.3119975118673044,8.368125890587994,26.95972603964151,-28.714621031131745,1939.432265087501,1936.3300353282125
1.58,2.8107184405515864,7.609579150179034,23.78258050792903,-28.67316703445805,1937.0363746363755,1936.3300353282125
1.59,3.663775851177771,6.817089871579612,21.391514334708415,-28.604700941732002,1931.0191340156148,1936.3300353282125
1.6,4.488830819139315,6.444047129078427,20.608467572147635,-28.57882354888109,1924.4639632849767,1936.3300353282125
1.61,4.7875213860209795,6.687172506324455,21.58427794892224,-28.647970598287266,1920.4191283520843,1936.3300353282125
1.62,4.580632560544654,7.42507677058072,23.614826527476993,-28.835725481756896,1916.2205214759742,1936.3300353282125
1.6300000000000001,4.426343992302974,7.257645896930462,26.200586173811395,-28.772591810648542,1913.28983571459,1936.3300353282125
1.6400000000000001,3.894853498305695,7.341145241618784,29.13933095002648,-28.535538814616682,1913.6348983782693,1936.3300353282125
1.6500000000000001,3.107204349733518,7.765724744666038,31.734707519117794,-28.263608601998467,1918.111044597117,1936.3300353282125
1.6600000000000001,2.398167690254625,8.439252938681376,33.08197137565323,-28.145181801095102,1925.7288010375585,1936.3300353282125
1.67,2.1771828084546816,9.05294291360618,32.48331372092821,-28.32564750790136,1933.897565032421,1936.3300353282125
