t,iq,id,vq,vd,omega,r
0.0,0.0,0.0,0.0,0.0,0.0,627.286190252695
0.01,0.0,0.0,163.0944094657007,0.0,13.766750615063229,627.286190252695
0.02,11.547194468569764,0.005861233053425036,279.4889321709802,-0.0015239205938905093,27.90202556364101,627.286190252695
0.03,11.578506813306378,-0.9844430108441975,363.3563383108661,0.006679449332511831,37.7723243938077,627.286190252695
0.04,11.935517203326384,-5.943164718134408,423.7810394830342,0.0652053992266673,39.7166873635486,627.286190252695
0.05,12.165944444437283,-5.45596678441533,468.82623164334024,-2.157875064694003,42.814579399853194,627.286190252695
0.06,12.389316524170898,-4.927739222167062,501.9066013401749,-3.665333839250417,47.140660164463256,627.286190252695
0.07,12.606514100619062,-4.342070935471974,525.7028621331262,-4.625982861737007,52.80211677728388,627.286190252695
0.08,12.81525102686386,-3.680641098537378,542.1995587369622,-5.161183731320942,59.93932926866891,627.286190252695
0.09,13.008996111154609,-2.9229775842010777,552.8499763113011,-5.356104696706226,68.72617832760525,627.286190252695
0.1,13.17535178564859,-2.046431797589211,558.6995128876946,-5.268022581519133,79.36916501386371,627.286190252695
0.11,13.293751938498247,-1.0266144239449355,560.4780501938524,-4.932420582443085,92.10611043326224,627.286190252695
0.12,13.332357679529844,0.16129625804493664,558.6689638318595,-4.367487262530409,107.43583829158749,627.286190252695
0.13,13.244004354764634,1.5408200507369862,553.5003106378626,-3.5778379426820104,125.92674717973365,627.286190252695
0.14,12.960321755589309,3.1317467600967053,544.9893436577091,-2.5577323836870893,148.10715516185385,627.286190252695
0.15,12.384728438962524,4.939258979941282,533.00072931295,-1.2921410988910589,174.56053708326056,627.286190252695
0.16,11.386878955091964,6.936624931467855,517.2615222773004,0.24031967141424615,185.27081307324244,627.286190252695
0.17,12.690699046773094,-4.089490858531195,502.130279226238,-0.5127567364643315,191.91370671498805,627.286190252695
0.18,13.24552187804155,-1.5277198552419116,489.67189209792855,-2.4819498136893814,203.70356479326946,627.286190252695
0.19,13.277535734488255,1.218532969256555,477.6592859121584,-3.1101900439713064,221.84353977617644,627.286190252695
0.2,12.684638774598819,4.1082498628639845,464.2250180200615,-2.6574823860766172,246.76062792312368,627.286190252695
0.21,11.316678574607735,7.050571878705441,447.84627643907675,-1.3202280616738467,255.50310321924678,627.286190252695
0.22,12.990994931863819,-3.0019707623603322,432.49437272290515,-2.6308285473476776,264.3612767282169,627.286190252695
0.23,13.320224764754661,0.5910922044777136,419.47467465780943,-3.9580075487147672,281.29101794060875,627.286190252695
0.24,12.618949227313124,4.305798204313719,405.7799119666537,-3.7274469499262373,306.9718999521893,627.286190252695
0.25,10.731945039620129,7.912214193533351,389.0639510483606,-2.2262239981319802,313.53698684210485,627.286190252695
0.26,13.283006689124068,-1.1573724873449294,374.154241588199,-4.492446973691622,326.4860529676331,627.286190252695
0.27,12.928553409115207,3.2604117110318,360.4274350451552,-4.9230394924173915,350.00417032712085,627.286190252695
0.28,11.006972387496106,7.524914394109475,344.4305048504763,-3.659906218052109,355.7496438832697,627.286190252695
0.29,13.292848124946588,-1.0382516577794354,330.0156416382509,-5.86165139413778,369.1502385992826,627.286190252695
0.3,12.736615257627234,3.944161451684617,316.7088305841155,-6.055054034286792,394.44678318442425,627.286190252695
0.31,10.211529181300936,8.573356959628892,300.60284697931723,-4.364424849690989,402.6237813038546,627.286190252695
0.32,13.302068166111068,0.9125570020071203,285.6978507671686,-6.1589090098007695,421.0365149710828,627.286190252695
0.33,11.712868683264695,6.370752309294005,270.7205952827861,-5.718917586542676,438.7943999228495,627.286190252695
0.34,11.268619900147634,3.101012154770845,254.10402479522418,-5.0130466859122444,452.68845290200363,627.286190252695
0.35000000000000003,12.451487477545248,4.768462789443952,238.92397600955806,-5.7659375563454445,480.17059791559825,627.286190252695
0.36,8.776999063444604,10.037034682518053,221.01044624611376,-4.025319883152964,492.7675968002393,627.286190252695
0.37,12.681835602798083,4.116894888308512,203.90050172002884,-5.538564326505491,518.9862284940068,627.286190252695
0.38,8.882667987543849,9.94364054060893,185.16460645370145,-4.227963903569248,531.4415423207081,627.286190252695
0.39,12.55306589206131,4.494253496115309,167.3667608177693,-5.87251994743561,558.5920373443346,627.286190252695
0.4,8.156716194666869,10.5473104959244,147.96372787372482,-4.405196056886713,573.3847755926423,627.286190252695
0.41000000000000003,11.96483432793201,5.883920230842483,129.19849058155177,-5.802404110572384,591.2650531914402,627.286190252695
0.42,10.734258036828173,4.557991567722766,109.99802849429996,-5.472639739988995,609.7578106911893,627.286190252695
0.43,10.650713483308019,8.021226843460951,92.0324871868319,-5.996989773929161,620.5864000655101,627.286190252695
0.44,12.945070013209651,3.1942041467129103,74.55602062854192,-7.24156232680705,639.4138652853107,627.286190252695
0.45,8.791970629599003,9.17089024950659,57.83337949741992,-7.505231628689939,654.0219955793323,627.286190252695
0.46,11.513016128989143,6.725194227040105,41.55292142891055,-8.459798883601692,666.7800007912379,627.286190252695
0.47000000000000003,13.135968516585388,2.2856309651943407,24.798886150911237,-8.281777180874771,675.7143624452235,627.286190252695
0.48,12.045425314849954,0.6806721811021665,9.602048589544106,-8.43589563830939,671.0002102361079,627.286190252695
0.49,8.599046848882494,-5.845049133643354,-3.394612811778933,-6.909376141751097,655.267104588606,627.286190252695
0.5,-1.3141061897954502,-11.97730281374075,-9.804852261446035,-3.8537279015149357,635.7275601654928,627.286190252695
0.51,-5.978544202568013,-10.607703350417532,-10.178518864644644,-1.2154980585437847,615.7159581952187,627.286190252695
0.52,-6.5782956811660735,-9.49395663558171,-5.435273395495345,1.1468536332032848,602.1674322491162,627.286190252695
0.53,-7.871019766601794,-8.642531134112131,2.9605835473651605,3.2989721617166223,597.0412487949156,627.286190252695
0.54,-2.1130299892379703,-1.2891556429491835,11.043758345887849,3.5477273175422885,600.0401163295213,627.286190252695
0.55,4.173547177288054,3.1558475161015407,16.719035585347925,2.714315406926396,608.9019596721197,627.286190252695
0.56,8.440990163442542,5.387972440032853,19.073552826343576,1.345001047678869,618.989313620195,627.286190252695
0.5700000000000001,10.026275273666032,5.546880262900519,18.524476775469058,-0.043308096274937646,628.5210638664205,627.286190252695
0.58,11.203973340336184,4.1739102510357,15.307670553824668,-1.0730559589152144,634.4563123820338,627.286190252695
0.59,9.858108810467547,2.4717176350803065,11.00471897901561,-1.673963441525737,635.5438589141621,627.286190252695
0.6,6.9561933520512,-0.8353881882382201,7.2193971648989,-1.4320453362329966,633.6644484988491,627.286190252695
0.61,3.500988949992689,-3.2226026447745713,4.802931514035909,-0.6025225304739903,629.1990159107921,627.286190252695
0.62,1.4745221123086938,-3.4927622704591927,4.0210135656918515,0.27336963339765397,623.9719990807065,627.286190252695
0.63,0.29401164740111885,-3.71427303643548,4.840133719788617,1.2041530001662868,620.8927699652936,627.286190252695
0.64,0.23536624278316398,-2.2449594111498,6.411025976143469,1.75069971670088,618.7231380970693,627.286190252695
0.65,1.4521211423320088,-0.7019249498728249,8.198287499153635,1.9107506095563167,618.9402161289468,627.286190252695
0.66,2.4478382480207332,-0.08307490514170646,9.660693516709838,1.9253308353944318,620.755210640221,627.286190252695
0.67,3.752190322042508,1.4078600936551982,10.324197373464742,1.5584564619926633,622.6181936543676,627.286190252695
0.68,4.591547302929824,1.2786251471062746,10.316286297363787,1.240092524681584,625.1041061894437,627.286190252695
0.6900000000000001,4.401164330895522,0.8044753062977144,9.738560934822312,1.0437151965152411,626.3526354322142,627.286190252695
0.7000000000000001,4.387308383509439,0.7838202256714095,8.862775811111284,0.8479666909036517,626.6459811949511,627.286190252695
0.71,3.701744865847643,-0.39249728188974475,8.101314036634584,0.9578541864516994,626.8579993858441,627.286190252695
0.72,2.919124505106203,-0.46599710987168463,7.48428664876923,1.0750884621994399,625.6597092445393,627.286190252695
0.73,2.646305749094804,-0.6319167641984257,7.244041552507611,1.234726849792314,624.7571337785424,627.286190252695
0.74,2.0363999881705985,-1.216590437407052,7.382330486272304,1.544721195876163,624.2798113417659,627.286190252695
0.75,2.1462480081561415,-0.2680641136570289,7.60103795613343,1.60225196105292,623.4330112240831,627.286190252695
0.76,2.408939513120831,-0.3217291158718699,7.96793892113337,1.6832208900430359,623.7963646002202,627.286190252695
0.77,2.2951125536630053,-0.26013111877219375,8.264121931669525,1.7476376897650876,623.918553145094,627.286190252695
0.78,2.826412060882918,0.4546195199152042,8.39289331282808,1.626835303399413,624.1208945330186,627.286190252695
0.79,2.883523747556784,-0.0621463413707366,8.460741775111988,1.6475395473549566,625.020389760143,627.286190252695
0.8,2.8093381708691405,0.30528229535490026,8.316604259028333,1.5675446871489749,624.9399871675508,627.286190252695
0.81,3.011716109644537,0.25081576625295154,8.149006249441396,1.5053854108767561,625.1571326140669,627.286190252695
0.8200000000000001,2.570266704007468,-0.4716897619264413,8.040947022687755,1.6305329066401604,625.4079478140065,627.286190252695
0.8300000000000001,2.6085161480653696,0.1955264806030103,7.855487948903538,1.5749791240641131,624.8732349685176,627.286190252695
0.84,2.6094981739750556,-0.20365814294858975,7.8116895346498945,1.6298855060367763,625.1112385466171,627.286190252695
0.85,2.1935402714784824,-0.3927153966041086,7.808821936543715,1.729954927724359,624.8114950436955,627.286190252695
0.86,2.4710237594247046,0.1628738997953869,7.809962399087166,1.6836805598115172,624.4627525362066,627.286190252695
0.87,2.384302759708204,-0.3748733881246432,7.924100773354255,1.7827763797218785,624.9154888738253,627.286190252695
0.88,2.307372361676059,0.0905314193945802,7.93617496825678,1.7554894767980413,624.5548146418654,627.286190252695
0.89,2.602750306160754,0.16882904830445122,7.968984257298733,1.71249923843283,624.7067752053146,627.286190252695
0.9,2.307673130701192,-0.41268479204302994,8.038350902588638,1.821485574847062,625.0535920271733,627.286190252695
0.91,2.496924856554668,0.3463849265632226,7.9669085593532625,1.7272986460201936,624.7339867008658,627.286190252695
0.92,2.60541357071172,-0.02059916098344894,7.955717220754128,1.736118277141523,625.1881200811096,627.286190252695
0.93,2.2442713600897886,-0.21593514254823043,7.918237011931811,1.7920554225942285,625.0435690502671,627.286190252695
0.9400000000000001,2.519023558542473,0.27583386439185975,7.847834411227042,1.7181792664268627,624.7843534931426,627.286190252695
0.9500000000000001,2.3880549687378307,-0.3286015991400789,7.880181700399967,1.8063740208472014,625.2210687849403,627.286190252695
0.96,2.257333202626899,0.08445163492683161,7.829068831425047,1.7811305797748247,624.7790277281725,627.286190252695
0.97,2.5009367187936378,0.12174784056040765,7.832609658263251,1.7503206575783867,624.8263405133159,627.286190252695
0.98,2.1755228208950133,-0.46409566917383116,7.906472399011807,1.8722030099691866,625.0748510316431,627.286190252695
0.99,2.3634532058973163,0.3074557152328935,7.864079493767143,1.7876235673168959,624.6890911941938,627.286190252695
1.0,2.48780733813419,-0.03753266351905493,7.8940164809110085,1.8004566169841787,625.1203490671879,627.286190252695
1.01,2.1586562992514646,-0.1987852947099229,7.894791634133784,1.8517654669735681,624.9861147648726,627.286190252695
1.02,2.465960273950111,0.30830419328157527,7.8515897408780155,1.7696185237732598,624.755455418649,627.286190252695
1.03,2.3576582092279468,-0.29040648577347206,7.898248511191964,1.8482072520071782,625.2341168825716,627.286190252695
1.04,2.247673503576437,0.1304974518231602,7.845661710245986,1.811373849675422,624.8298948789105,627.286190252695
1.05,2.4953909849336617,0.1536076299455753,7.837452852681716,1.772740840407804,624.9028653014796,627.286190252695
1.06,2.1630766324441866,-0.44531502221250513,7.895108371673725,1.8900588224825112,625.1513661850992,627.286190252695
1.07,2.344174705187856,0.3151302137539701,7.838474722712074,1.803671816684354,624.7543671440998,627.286190252695
1.08,2.456592487560106,-0.04272849771934695,7.860128190557114,1.817932528228924,625.1662126158286,627.286190252695
1.09,2.121868099014137,-0.20260294212536573,7.858884364188334,1.8701820082043252,625.0072626964999,627.286190252695
1.1,2.4270309283662197,0.30068384303941187,7.820396392045313,1.7899781795928242,624.7591650292969,627.286190252695
1.11,2.319188763063446,-0.2957170296788063,7.8759149054540165,1.869871445739708,625.2278242249977,627.286190252695
1.12,2.2181605890933316,0.1358663872196738,7.8322899548876945,1.831589014765805,624.8227904531753,627.286190252695
1.1300000000000001,2.4728070402686844,0.16018682559001007,7.831442017906895,1.791299103984599,624.9043853311949,627.286190252695
1.1400000000000001,2.145851719743482,-0.4346843608465219,7.892883922771086,1.905918906060594,625.1580959968041,627.286190252695
1.1500000000000001,2.33380867053313,0.3268919271191695,7.837038642946514,1.8165801614011445,624.7697528558739,627.286190252695
1.16,2.4468414524385858,-0.03541698475765048,7.8571907326323815,1.8290574967093254,625.1878304990653,627.286190252695
1.17,2.113466466791009,-0.19285462944018072,7.852567027766606,1.8788455305161962,625.0270797152713,627.286190252695
1.18,2.417241041611946,0.3032687165431778,7.811604163809272,1.7980671179205678,624.7837998250599,627.286190252695
1.19,2.306459279175567,-0.295231265439793,7.864127567450627,1.8778599341003457,625.2460332048544,627.286190252695
1.2,2.20484812837119,0.13662456130859346,7.819348575028073,1.8393852355057132,624.8332146291255,627.286190252695
1.21,2.457861685141643,0.1573439462545143,7.819725109824621,1.7998420550926257,624.911346043035,627.286190252695
1.22,2.130391851601156,-0.43499641321284677,7.88333158353563,1.914514561990511,625.1587280373587,627.286190252695
1.23,2.321977046816394,0.3284892000739127,7.830313203770193,1.824757405839165,624.7696060752316,627.286190252695
1.24,2.435987899347747,-0.03472694688395528,7.853213384395039,1.8370713040297322,625.1899450925146,627.286190252695
1.25,2.106238272707494,-0.18635828174965274,7.849809212356836,1.8851771878158021,625.0286488408586,627.286190252695
1.26,2.4117837792068695,0.30626239561536917,7.809806127965762,1.8036853821383094,624.7898620928366,627.286190252695
1.27,2.3003019546699397,-0.2937588616033877,7.862315364988443,1.883125310111344,625.2528113915491,627.286190252695
1.28,2.2011031633852634,0.14122270074874554,7.816746784354304,1.8434698193006362,624.8399769280378,627.286190252695
1.29,2.453320040011284,0.15787409058544555,7.816576281384624,1.8038347827559078,624.9203987548373,627.286190252695
1.3,2.124387709058984,-0.4338300040091009,7.879412333625827,1.9182093247041283,625.1641358099052,627.286190252695
1.31,2.317444830852423,0.3295946220656637,7.8261967948415325,1.828176422926965,624.7739091311252,627.286190252695
1.32,2.4300311859390797,-0.036140623941187,7.849535681986146,1.8408689313723299,625.1942200653946,627.286190252695
1.33,2.1017280533605915,-0.1831229682283595,7.846176137454183,1.888119496872291,625.0293550081861,627.286190252695
1.34,2.4076579360076384,0.30608571616027835,7.807059816325089,1.806705980988335,624.7936825527096,627.286190252695
1.35,2.2951960919944563,-0.2942059987146694,7.859869061317713,1.8862603978157517,625.2554120334668,627.286190252695
1.36,2.1981408306531955,0.14371359882794188,7.8143816662673,1.8459528021333398,624.841462950278,627.286190252695
1.37,2.4499709589833305,0.15735336214901774,7.814691941674288,1.8064780639628746,624.9243013857621,627.286190252695
1.3800000000000001,2.120296213880662,-0.4328840393608978,7.877558468033525,1.9206014478181979,625.165473393473,627.286190252695
1.3900000000000001,2.3153371845359416,0.33091798286371266,7.824541256921364,1.8302339318800236,624.7755718409013,627.286190252695
1.4000000000000001,2.426866113393822,-0.03709255511790449,7.848263057758457,1.8431871760393161,625.1972325410826,627.286190252695
1.41,2.1000012755854343,-0.17965203107970706,7.844554208141458,1.889525778568861,625.0298108897641,627.286190252695
1.42,2.4060289856765613,0.3059193252491603,7.805755741867298,1.808190233693282,624.795832958086,627.286190252695
1.43,2.292072491252168,-0.2953277636103142,7.858806286967532,1.8880346454844552,625.2566978469,627.286190252695
1.44,2.197084124214949,0.1459423024202422,7.81324959214476,1.8471363692190887,624.8419539543376,627.286190252695
1.45,2.4483779950290714,0.15657730526404945,7.813848668194325,1.8078856928746385,624.9274036389781,627.286190252695
1.46,2.1177992095909537,-0.4322566266627774,7.876546810233762,1.921838188859601,625.1661058769283,627.286190252695
1.47,2.3145800223670157,0.33183233228371567,7.8235680680764,1.8312392161992068,624.7764560037898,627.286190252695
1.48,2.4248825551278044,-0.03843499497891689,7.847574464924514,1.8445506382165622,625.1993871849901,627.286190252695
1.49,2.0993097874194477,-0.1766126444282501,7.843474200860949,1.8900855758181183,625.0293685879587,627.286190252695
1.5,2.405335873367391,0.3054183010629767,7.804985573813987,1.8089106910974615,624.7970159170997,627.286190252695
1.51,2.289847111088271,-0.29670562190881866,7.858295794272124,1.8891083358043843,625.257079148589,627.286190252695
1.52,2.196883876819487,0.14793698901309277,7.81268160112153,1.8476776624418918,624.8416282829329,627.286190252695
1.53,2.4476180220286077,0.1556480690316565,7.8135647552593595,1.808688534383792,624.9298166284643,627.286190252695
1.54,2.116127175492783,-0.43174876417161046,7.876059392453865,1.9224996937587273,625.1661861105024,627.286190252695
1.55,2.314579172832426,0.3326040659007957,7.823067420000121,1.8317051489828047,624.7768553885519,627.286190252695
1.56,2.4235994699792514,-0.039906401017202775,7.847304372789108,1.8454068539062851,625.2011173897708,627.286190252695
1.57,2.099254513501441,-0.17373876786729034,7.8427597896973635,1.8901798695416083,625.0285475505534,627.286190252695
1.58,2.405208712833356,0.3047709184723595,7.804534443423264,1.8092020430601221,624.7978138933895,627.286190252695
1.59,2.288137851305068,-0.298216365889164,7.85807211561028,1.8897860073760282,625.2570867415542,627.286190252695
1.6,2.1971470877924224,0.14978183770956544,7.812378400600845,1.8478605659126492,624.840923477845,627.286190252695
1.61,2.4472808957413825,0.15460067639452402,7.813535164935597,1.8091622084271688,624.9318666635967,627.286190252695
1.62,2.1148660204721503,-0.43133171150834526,7.875814273987301,1.9228544601832835,625.1659347952948,627.286190252695
1.6300000000000001,2.31495221176777,0.33327482480898785,7.822798542165461,1.8318896886178633,624.7769241007448,627.286190252695
1.6400000000000001,2.422668410147576,-0.04145642446271658,7.847260922577793,1.8460011072262594,625.2025477499252,627.286190252695
1.6500000000000001,2.099537899622606,-0.17094610731604443,7.842262141978026,1.8900325308838044,625.0274697398881,627.286190252695
1.6600000000000001,2.4053960264571725,0.3040614169139729,7.804285462397459,1.8092671014130108,624.7983868177232,627.286190252695
1.67,2.2867258625952043,-0.2997759772450258,7.858032386351861,1.890249469665857,625.2568977714488,627.286190252695
1.68,2.1976841668063476,0.1515608951714733,7.812239772382433,1.8478458771488235,624.8400304367036,627.286190252695
1.69,2.447189440561127,0.1534967852927201,7.813655986849889,1.8094523219244307,624.9337448363798,627.286190252695
1.7,2.11384104484321,-0.43095722614443366,7.8757034196782945,1.9230361685749109,625.1655234512681,627.286190252695
1.71,2.3155338926879905,0.33388476416288004,7.822651932235682,1.8319165576311174,624.7768110640625,627.286190252695
