t,iq,id,vq,vd,omega,r
0.0,0.0,0.0,0.0,0.0,0.0,567.1648272018983
0.01,0.0,0.0,147.46285507249357,0.0,49.59816722631356,567.1648272018983
0.02,11.54851012707807,0.07550000411473426,243.41841522323847,-0.019630001069830906,92.6681712691426,567.1648272018983
0.03,11.83823192483893,-2.4164335008556157,304.74438856559976,-0.1944617430601267,105.02112971476504,567.1648272018983
0.04,12.64334265781779,-4.233634870271961,348.0862698071063,-2.3763022354912864,126.38802026765266,567.1648272018983
0.05,13.059170583401922,-2.6899519422078138,375.3622898529466,-3.6653564425103293,159.1771698646942,567.1648272018983
0.06,13.313081387765434,-0.7346031176841823,387.69543312309673,-4.198891206031626,206.1487668237892,567.1648272018983
0.07,13.213791219416905,1.7814318363154982,385.24126789674744,-4.060448583753099,274.1393739128335,567.1648272018983
0.08,12.370082699263994,4.975824734769838,366.351599315972,-3.252377448702528,368.98809416633725,567.1648272018983
0.09,10.066124343273382,8.74362158853737,328.28795366063423,-1.67737161133701,395.9316849912266,567.1648272018983
0.1,13.30276061226416,0.9024067101761943,292.9599147271716,-4.012643400058601,460.18482774274884,567.1648272018983
0.11,11.628217702738127,6.523981210542025,250.91375185342005,-4.155249571577399,517.3713489448779,567.1648272018983
0.12,11.514034629530062,2.9878614743990743,204.1099430253507,-4.090901731289266,574.4346774507158,567.1648272018983
0.13,11.440696417778978,6.847499051040238,155.83198654785775,-5.035298806246198,620.5558215209071,567.1648272018983
0.14,13.105892369541317,1.7185240587926414,106.71887953655528,-5.293370433015343,694.0819370001966,567.1648272018983
0.15,9.319024194110545,9.535909282672524,53.22982139433546,-5.5135948257309675,739.3910755666457,567.1648272018983
0.16,11.72577642928276,6.346963439965178,1.013410171995983,-6.9777154198348335,701.5284675334688,567.1648272018983
0.17,1.945787606855832,-8.861602282869907,-32.587520844054545,-4.6102291918890055,590.467098347221,567.1648272018983
0.18,-8.394199182533521,-10.35930489278751,-33.65857354059649,-1.7030075973185652,480.1081377945392,567.1648272018983
0.19,-10.898548079809082,-6.271210706415113,-6.56369160211623,-0.4105659454301018,440.6037887183171,567.1648272018983
0.2,-6.319428785763762,-5.959265603091998,27.005677513041785,1.0761310043096666,486.95686025250865,567.1648272018983
0.21,11.899654977352725,4.874180650264044,43.026718713412535,-0.18485752462012556,547.1088869897826,567.1648272018983
0.22,10.193504168144901,5.842994736039346,41.22216152554659,-1.6193025401529737,601.8619424717893,567.1648272018983
0.23,12.232297237119061,5.305533157049074,25.98497129844893,-2.6321306958773043,650.0116461131832,567.1648272018983
0.24,11.28963266039537,3.6133038085956213,1.9787880148821575,-3.518534354541675,626.3345180258012,567.1648272018983
0.25,0.774024097979847,-5.58051099988064,-12.665213349090552,-2.031468456486752,556.1001433688288,567.1648272018983
0.26,-7.133307244395626,-9.203210722812532,-7.334298519730772,0.3055612214457001,513.1128563726588,567.1648272018983
0.27,-7.145294337253813,-6.592638239409158,8.39501051278284,1.9276150564639556,514.6445238501148,567.1648272018983
0.28,3.220906429486317,1.110845212520676,20.600881060915196,1.5728689188144882,554.6084759481937,567.1648272018983
0.29,10.242097480342329,4.645750957226184,20.70959307276642,0.37608212206088715,593.1170023357021,567.1648272018983
0.3,10.116613352194735,4.898886465315702,11.308565528673192,-0.8511708493489332,603.5650255747752,567.1648272018983
0.31,5.409038869097458,0.1711592932995423,0.7988517306198593,-0.8466834009536577,581.363132928757,567.1648272018983
0.32,-1.1450217887675869,-4.190900495100216,-2.1769097208640664,0.24466232070539387,549.3525092989004,567.1648272018983
0.33,-3.6532109078248025,-5.011116367150405,3.5346606093307624,1.505643571213497,539.6364673403152,567.1648272018983
0.34,-0.24374263144992703,-1.168486278963666,10.540751969411126,1.7593388400725463,549.6050035778106,567.1648272018983
0.35000000000000003,4.448391678373472,1.7733915946669647,13.672003250366492,1.2865721626694984,570.3586374303214,567.1648272018983
0.36,6.496062827147496,2.9581865272381616,11.021521936460994,0.5351775815342457,580.2922983123362,567.1648272018983
0.37,5.101919692617415,1.320259983734565,6.378779058222316,0.2214918510356403,577.9205153575674,567.1648272018983
0.38,1.8363702014059045,-1.268761669614716,3.287137793413373,0.5645724849728122,564.6946735644065,567.1648272018983
0.39,-0.042776399928491915,-2.0180392562627487,4.066420186713418,1.0765750749049796,554.7711309523095,567.1648272018983
0.4,0.07869266732229308,-1.7584492779918663,7.243191817728522,1.5135914946202373,555.98461623549,567.1648272018983
0.41000000000000003,2.224385900390561,0.4227732158091456,9.448556299070484,1.3860859657299407,562.7791520406944,567.1648272018983
0.42,3.6970928490317387,0.9677495421694668,9.538029449575081,1.1386988169239705,571.368900829956,567.1648272018983
0.43,3.7471127850438144,1.079663527363155,7.4638351590469645,0.8676637952312447,570.8462994994752,567.1648272018983
0.44,2.6054287132478384,-0.09172139419691383,5.908752760363553,0.902307992996074,568.3739444581461,567.1648272018983
0.45,1.3082407736790094,-0.8978396132911977,5.317108682690845,1.1348290785098163,561.8831144361761,567.1648272018983
0.46,1.1044210933776035,-0.7319618957165117,6.428378097799709,1.3161607752631974,560.5543971767714,567.1648272018983
0.47000000000000003,1.4828759519612718,-0.5946664590382622,7.7197692400993265,1.4634544356559807,562.940955903312,567.1648272018983
0.48,2.5451822490702,0.59064207868214,8.104952852241869,1.3039408306082414,565.908177307945,567.1648272018983
0.49,2.739457937427995,0.24580843226612137,7.702635870443285,1.2459370590058712,569.1742919301795,567.1648272018983
0.5,2.499114605248754,0.372527047292886,6.545233324160255,1.1515381110323821,566.3857538962798,567.1648272018983
0.51,1.8652364024997088,-0.3590773239070505,6.307916712306456,1.248623485721144,565.8447306770992,567.1648272018983
0.52,1.4766064915137675,-0.3944758171048863,6.278085751929473,1.3475964249293435,562.5320447607816,567.1648272018983
0.53,1.6618615502254737,-0.1963485687887765,7.052090283228356,1.394702294643377,563.8641408049789,567.1648272018983
0.54,1.8506292000670148,-0.19780429096029206,7.399395945501074,1.4441679246051649,564.9708987486682,567.1648272018983
0.55,2.3396548735074023,0.42652849080782523,7.347006504260456,1.3312924740855274,566.0302566819695,567.1648272018983
0.56,2.151396899022612,-0.14099022149911777,7.084088909898848,1.3722152165833763,567.4128462383788,567.1648272018983
0.5700000000000001,2.067193210767466,0.21265080792045543,6.492301989405312,1.3155161043090666,564.9369327484047,567.1648272018983
0.58,1.7334422041136686,-0.3326711079903044,6.644011696716574,1.4041371004657501,565.691375541686,567.1648272018983
0.59,1.672123182523729,-0.07256404914733228,6.587412578421797,1.4196770421641531,563.4485482769402,567.1648272018983
0.6,1.8280504661603076,-0.05566608991023678,7.080338692932349,1.4334245850493412,565.3199641664642,567.1648272018983
0.61,1.8681312984211462,-0.0653593995356907,7.0554066599677565,1.4498613680295185,565.1073039862471,567.1648272018983
0.62,2.116617855552513,0.26195950859418415,7.040274736223299,1.3810983017996734,565.7396294072371,567.1648272018983
0.63,1.863853369624043,-0.2918978872780451,6.926815233131984,1.459611347577907,566.4243050792114,567.1648272018983
0.64,1.9577398619865958,0.22043687781957855,6.614725176663693,1.3993787804720361,564.740595072361,567.1648272018983
0.65,1.7372228993926975,-0.29040886550309053,6.805519753894303,1.4770894542810356,566.0065275881353,567.1648272018983
0.66,1.78170285750084,0.09972114497224227,6.63656481822102,1.448257867933222,564.0147145707607,567.1648272018983
0.67,1.8300300759855397,-0.06673960695341408,6.986020314997941,1.466607377190832,565.8839034848934,567.1648272018983
0.68,1.8153138317619457,-0.0019253617687705615,6.833878059609602,1.466440575181178,564.7938666323554,567.1648272018983
0.6900000000000001,1.9691301677388222,0.15049960650862138,6.943697865226244,1.4272914238712489,565.6632886392164,567.1648272018983
0.7000000000000001,1.7387731698227062,-0.3023131925614423,6.877998563351607,1.5073978500023102,565.8384876704097,567.1648272018983
0.71,1.9325788050464263,0.23769455972977588,6.722748698297995,1.4425741325469539,564.9030768699091,567.1648272018983
0.72,1.7372478912574647,-0.28428602876443576,6.865181725623828,1.518865445623005,566.2099427073701,567.1648272018983
0.73,1.83548306441239,0.1928376271435603,6.630981073046617,1.4658848022780349,564.3685266287403,567.1648272018983
0.74,1.7918321000261224,-0.11612038529105706,6.900948861759767,1.4980044787251454,566.1342839324302,567.1648272018983
0.75,1.774011806872621,0.05309605709201204,6.697602357303279,1.4830383000283118,564.5065173525451,567.1648272018983
0.76,1.8722166359043304,0.06774435489574798,6.909421278174046,1.4659557283263374,565.744819452137,567.1648272018983
0.77,1.7103667683571382,-0.2034732116751703,6.826067001204649,1.5195362069108391,565.3391388345565,567.1648272018983
0.78,1.9154307633935905,0.2184636005638001,6.805637568417154,1.4607009386474992,565.0744702314453,567.1648272018983
0.79,1.7246678171938294,-0.3003017755389841,6.901614172225071,1.5409640362932728,566.2077012706897,567.1648272018983
0.8,1.8818933591515494,0.25073633106432913,6.657517749427333,1.4727695724611571,564.6385900311378,567.1648272018983
0.81,1.7708209668688386,-0.16442587041050472,6.863173636718596,1.5180276620785318,566.3024716534036,567.1648272018983
0.8200000000000001,1.7717825229138544,0.10994283872927207,6.619168461330712,1.4877982653048163,564.3702742660598,567.1648272018983
0.8300000000000001,1.8107794971567517,-0.0065181987752555015,6.884043825132158,1.4905924253736755,565.8617623817187,567.1648272018983
0.84,1.7090263965890728,-0.1035846606123341,6.768656080878893,1.5174592551451296,564.919059951716,567.1648272018983
0.85,1.8942557856378759,0.17672022900077566,6.864108677424542,1.4704761489988045,565.2638431844751,567.1648272018983
0.86,1.699082529743246,-0.31516930482064276,6.91308794957588,1.5541873705421796,566.0442988778561,567.1648272018983
0.87,1.9131841985439009,0.280256323569972,6.704978407328638,1.4781690333657804,564.8902323426911,567.1648272018983
0.88,1.7547377604604963,-0.20863767586342152,6.848067811747808,1.5352173923259698,566.4056302595146,567.1648272018983
0.89,1.7867259204435553,0.1632118320678994,6.575711706464781,1.490695939229682,564.3720633896628,567.1648272018983
0.9,1.7641846442036488,-0.07474612174343376,6.85341757993367,1.5117620492036534,565.9812624876948,567.1648272018983
0.91,1.7085590839716338,-0.02044489490613255,6.706633252113637,1.5163302606618136,564.5955349069291,567.1648272018983
0.92,1.8623161410124733,0.1234401325740511,6.895696995840084,1.484031377243499,565.5040915351306,567.1648272018983
0.93,1.6787746130012573,-0.2806594170814548,6.883937108279812,1.558237227010418,565.7447215435825,567.1648272018983
0.9400000000000001,1.9178762924954071,0.2745022875877189,6.7546971328554575,1.484060038066796,565.0675771539298,567.1648272018983
0.9500000000000001,1.730893682238317,-0.2527260031803823,6.8549274942870975,1.5525138217695726,566.3931392410556,567.1648272018983
0.96,1.8167598554685718,0.21471427915668007,6.579545238027087,1.4941608491570322,564.4875332681563,567.1648272018983
0.97,1.7392087459440042,-0.12918814798311118,6.833898105800829,1.5298969104242075,566.1335952842974,567.1648272018983
0.98,1.7187237885461923,0.053510304887617766,6.645769367477088,1.514692349673596,564.4111422360869,567.1648272018983
0.99,1.8230829582657595,0.0605933550750799,6.8946008081484145,1.4994731804029513,565.7267583750742,567.1648272018983
1.0,1.6891270946058983,-0.17362370962325424,6.82001963844971,1.5452212784557482,565.3105309981055,567.1648272018983
1.01,1.9023733796559206,0.23141848904980966,6.810030155403126,1.4833162342065649,565.172463888734,567.1648272018983
1.02,1.7082892965888468,-0.2915617058981673,6.884370171471383,1.5614364626305866,566.2560170967254,567.1648272018983
1.03,1.8647164097198288,0.25931782611440235,6.632993792123442,1.4910982107818604,564.6878855222592,567.1648272018983
1.04,1.7401858871493678,-0.1723611343408149,6.8341093612162505,1.5385052839716162,566.3014735425108,567.1648272018983
1.05,1.747459053786188,0.1179711520645132,6.59687440074769,1.5061091730914342,564.3445736204757,567.1648272018983
1.06,1.786019831131631,-0.010605555436581704,6.874616229767345,1.5100463290255903,565.881937351688,567.1648272018983
1.07,1.697806637548148,-0.08282430772516425,6.756395527556616,1.5314745934797673,564.9015707873035,567.1648272018983
1.08,1.8811490793707166,0.17775568071339576,6.85989260258826,1.484429873417033,565.3254240942964,567.1648272018983
1.09,1.6818761819043628,-0.3123994681258021,6.897028529917384,1.5674312919368751,566.0305998336374,567.1648272018983
1.1,1.8999796044725565,0.28311012570835425,6.696357679245376,1.4906986645714448,564.9164662310188,567.1648272018983
1.11,1.7363309573945485,-0.2137495356068409,6.83714300511358,1.5491046450863069,566.4050931883713,567.1648272018983
1.12,1.777510763434212,0.17326882345659134,6.567400750002859,1.5019172556315248,564.3855335234613,567.1648272018983
1.1300000000000001,1.7505989728073228,-0.07844101397567582,6.845039140965661,1.5240446074997662,566.0125846725949,567.1648272018983
1.1400000000000001,1.701419296775464,-0.0058621034017122264,6.691966234366631,1.524784344244455,564.5773280481986,567.1648272018983
1.1500000000000001,1.8491273494410123,0.11846344097745853,6.889434671148609,1.4939252285562987,565.5470569813649,567.1648272018983
1.16,1.669978741636536,-0.2670584186942642,6.868476737619214,1.5645450518265818,565.6962568778929,567.1648272018983
1.17,1.9077039074763396,0.2716262288685126,6.754824091127812,1.4912516481338258,565.0835504250231,567.1648272018983
1.18,1.7199927728594122,-0.25677684492044384,6.853149268006641,1.5607298901018265,566.3826501649446,567.1648272018983
1.19,1.8161781060972977,0.22346641593017677,6.580696149989154,1.5000608535107762,564.5056606578489,567.1648272018983
1.2,1.733083023821882,-0.13305664319432842,6.831817875939747,1.5368902449006032,566.1611049567194,567.1648272018983
1.21,1.718425450276965,0.06573067123206322,6.6367342074119735,1.5184697039483237,564.4053870139787,567.1648272018983
1.22,1.8146996002741775,0.053751030808253164,6.889513792250765,1.5051517426504983,565.760486314418,567.1648272018983
1.23,1.6864170399499416,-0.15917559905293044,6.806726586732208,1.5470749087123428,565.2594566268199,567.1648272018983
1.24,1.8949599384992935,0.22515019498893274,6.812254113767485,1.4869441020246905,565.1882846693068,567.1648272018983
1.25,1.6998914068838862,-0.295622751535889,6.8840793000856895,1.5660575193739112,566.2292230613456,567.1648272018983
1.26,1.866521226278341,0.26479932138955853,6.639274346539961,1.494253468297267,564.7256964633682,567.1648272018983
1.27,1.737366889020039,-0.17644174034913518,6.831042118269842,1.542776314001938,566.3259040209473,567.1648272018983
1.28,1.7477465863918744,0.12629984420438967,6.587730394360125,1.5081739371053053,564.3524179061288,567.1648272018983
1.29,1.7771144467592543,-0.019737045677247378,6.865995289157197,1.5145685674234335,565.9003785773837,567.1648272018983
1.3,1.693725160223671,-0.07231490172149246,6.744030441382754,1.5331730714142493,564.8485460966948,567.1648272018983
1.31,1.8736269203641056,0.1704959318321051,6.863413294798094,1.488120980120687,565.3490048844662,567.1648272018983
1.32,1.676245476665267,-0.3102041029094459,6.895276731549075,1.570479006195464,565.996008357812,567.1648272018983
1.33,1.9010489525508145,0.2853895261564374,6.703501134940641,1.4931756883656957,564.9449098978688,567.1648272018983
1.34,1.7331392059672521,-0.2181847819969011,6.83738574152148,1.5527576269464545,566.4142637005082,567.1648272018983
1.35,1.7802903298715562,0.1811342863154281,6.564788985135693,1.5034808646844742,564.3966215942576,567.1648272018983
1.36,1.7451066212398438,-0.08595616403663175,6.841091989884746,1.5276408101971528,566.0314625606771,567.1648272018983
1.37,1.7012277706959067,0.004539632377769498,6.683216586357311,1.5256009441385663,564.5509093041384,567.1648272018983
1.3800000000000001,1.843284903020222,0.11098947441436335,6.88925979628439,1.496789077114609,565.5808072817771,567.1648272018983
1.3900000000000001,1.6699886651932192,-0.2532497730920569,6.859201592618281,1.5637439128626878,565.6400847110905,567.1648272018983
1.4000000000000001,1.9048860899942748,0.2665901387571084,6.761223944280531,1.491897979054919,565.0953557217553,567.1648272018983
1.41,1.716210979488002,-0.2623312115461123,6.856873110442714,1.562769995444479,566.3677110277944,567.1648272018983
1.42,1.8220905225181436,0.2303013404546016,6.586847174848476,1.5002683348108212,564.5313233704472,567.1648272018983
1.43,1.7327510039779925,-0.13850891984891456,6.831292653475624,1.538583667376085,566.1865074303372,567.1648272018983
1.44,1.7215337930150625,0.0748006768461068,6.629049479622871,1.517750402197608,564.3875574053753,567.1648272018983
1.45,1.8091839411426078,0.044458623374241724,6.888183942236312,1.5069391668887664,565.7810708159011,567.1648272018983
1.46,1.6881365042400007,-0.14590618487969997,6.799364252939387,1.5453193611912308,565.2052223456338,567.1648272018983
1.47,1.89310271700052,0.21896155919144544,6.819698610330447,1.4869302939526579,565.2084795555946,567.1648272018983
1.48,1.6967059869547585,-0.299416224997358,6.886540420368532,1.5669681280438852,566.2050475837669,567.1648272018983
1.49,1.8717408417038686,0.2688076990753666,6.6468340856462,1.4940839640343162,564.7571070682465,567.1648272018983
1.5,1.736776025344828,-0.18220401318660878,6.830399166041756,1.5441450844535882,566.3419461935891,567.1648272018983
1.51,1.7510166170953523,0.13355350931521687,6.582374466674285,1.507599131899766,564.3535093556098,567.1648272018983
1.52,1.7718588112865739,-0.029009820947851872,6.861915171862643,1.5164772204393593,565.9171837825747,567.1648272018983
1.53,1.693950406986598,-0.06175579023574629,6.7354807647202435,1.5322436276911744,564.801521625571,567.1648272018983
1.54,1.8696747419490825,0.16303919283539792,6.868287851535215,1.4892358796516134,565.3779250288,567.1648272018983
1.55,1.6733027295467766,-0.3078156358741191,6.8928873985148496,1.5708983369072385,565.9582404049089,567.1648272018983
1.56,1.9027849195397095,0.285440854780546,6.71073989221626,1.4936055583055554,564.9806570973326,567.1648272018983
1.57,1.7308785825435948,-0.22371134295239103,6.83555766916752,1.5546249160209824,566.4191057885819,567.1648272018983
1.58,1.7825308279401062,0.18664273809809484,6.5614543061451505,1.5038606906859537,564.4013799186052,567.1648272018983
1.59,1.7395461596488782,-0.09465758817331382,6.838036692438882,1.5303380909919961,566.0422018524185,567.1648272018983
1.6,1.702128775305884,0.014537705049329719,6.677126790487655,1.5256117117974373,564.5210085194285,567.1648272018983
1.61,1.8395459511073613,0.10395927601656466,6.892032734900157,1.4987276770836238,565.6160891809412,567.1648272018983
1.62,1.6736559588021958,-0.2368932651455019,6.851511343746808,1.56135951878162,565.5879834660296,567.1648272018983
1.6300000000000001,1.9037379890039898,0.26100767679361925,6.7677680173100825,1.4911285901638238,565.1068808790906,567.1648272018983
1.6400000000000001,1.713025399080582,-0.26871297641866654,6.860716400010502,1.563604040800613,566.3481980012555,567.1648272018983
1.6500000000000001,1.8286089762774753,0.23618757073757568,6.594152449108232,1.4995081426446568,564.5654876370701,567.1648272018983
1.6600000000000001,1.733439447298169,-0.1441982730178123,6.8294062774224,1.5393615693366638,566.2127073148916,567.1648272018983
1.67,1.7241205011858654,0.08241999869475802,6.620027116560513,1.5164903869458486,564.3828666152319,567.1648272018983
1.68,1.8027885406652755,0.03400577943607863,6.882331854662597,1.5084730842794156,565.7986546829998,567.1648272018983
1.69,1.6869555050625826,-0.13508279834992065,6.789136557799941,1.5439346696447558,565.1385177355863,567.1648272018983
