t,iq,id,vq,vd,omega,r
0.0,0.0,0.0,0.0,0.0,0.0,623.6880472241007
0.01,0.0,0.0,162.1588922782662,0.0,38.32450179852293,623.6880472241007
0.02,11.546610345722936,0.1270118988830769,271.50289508749637,-0.03302309370959999,72.93829537508917,623.6880472241007
0.03,11.773687515183738,-2.5616168116395976,344.96499785722926,-0.06217602571754469,81.64640632583814,623.6880472241007
0.04,12.44307410535465,-4.790374159335604,398.2397173217814,-2.292934135183934,95.86159150110767,623.6880472241007
0.05,12.830749032484468,-3.626245585061307,434.748530526152,-3.699004986466729,117.40305472863263,623.6880472241007
0.06,13.152383437489519,-2.189197956108372,456.82436860227403,-4.417072078149268,147.71882846270967,623.6880472241007
0.07,13.328243800375551,-0.3683679892829854,465.86503391348356,-4.552439134624482,189.16764286561911,623.6880472241007
0.08,13.190100943960328,1.949106171021631,462.31519085350334,-4.145801428896606,245.58396984501712,623.6880472241007
0.09,12.423272679107235,4.841494987947983,445.5141598943523,-3.1791850042157352,321.1490044452744,623.6880472241007
0.1,10.494180474083187,8.224959206898774,413.864439680462,-1.5695662043072125,343.9507177448262,623.6880472241007
0.11,13.325107597299137,-0.46827908150860137,384.16712713979666,-3.95862086737235,390.07374997066984,623.6880472241007
0.12,12.54454413756422,4.517985187943947,350.93442350453256,-4.4292920391149355,467.6849209194752,623.6880472241007
0.13,9.3817103269774,9.474243458897567,306.6384147339678,-3.029301364003761,503.3038510328351,623.6880472241007
0.14,12.921333920910246,3.288906730527935,264.19041548931125,-5.0649559851473835,576.6602991420813,623.6880472241007
0.15,9.197257908692118,9.653404826214325,214.65691079189116,-4.302369138054222,616.7639444075905,623.6880472241007
0.16,12.362068727557691,4.995701607674127,166.9757407154305,-6.312139171860326,691.7201843875304,623.6880472241007
0.17,6.473731696081708,11.656267657570531,113.16904287188925,-5.876792895334402,754.9982748952937,623.6880472241007
0.18,9.579252989017908,9.274464402334468,56.98946972254195,-6.569362105915666,800.8948326882784,623.6880472241007
0.19,11.486728726060452,6.769995638970188,2.6308363192802595,-8.18025785434569,785.4947429775307,623.6880472241007
0.2,6.256785826343004,-6.698309626117162,-39.178733749558326,-6.370997395165526,696.5527726335587,623.6880472241007
0.21,-6.03172304786687,-11.891008992159131,-52.34828793747866,-2.660807712661165,612.4443856222705,623.6880472241007
0.22,-9.804946193755374,-9.035530306259824,-41.108514335304285,-0.19840545961076378,537.8705000719563,623.6880472241007
0.23,-11.556660087831123,-5.055268286209968,-12.806401170583767,0.9903819187919065,503.37306710011063,623.6880472241007
0.24,-10.154307444250167,-6.018640870626398,20.14187152475895,2.50467586229267,539.3815892575416,623.6880472241007
0.25,9.954689048087626,6.698751306605564,38.16863856787914,0.7028141138689595,594.7166854826339,623.6880472241007
0.26,9.198764554855453,7.802795862125489,40.06420147277683,-1.4407647931734349,648.06452876085,623.6880472241007
0.27,11.478119835828354,6.784581255474907,27.899801626370806,-2.825295775950412,698.6228184861196,623.6880472241007
0.28,10.925470040803583,5.013357970100477,5.689171150340764,-3.92250880126659,697.9766665009873,623.6880472241007
0.29,5.316532371356967,-1.9373410002823523,-14.149565865174342,-3.368666561492174,650.5132161273582,623.6880472241007
0.3,-6.54135678195183,-9.63510703239027,-18.62730550023137,-0.8829121430735273,592.6833692612739,623.6880472241007
0.31,-8.104673927347608,-8.283297235451343,-8.256035887572967,1.1743940678199187,566.0735813619762,623.6880472241007
0.32,-8.48702231738401,-5.885890974940428,8.53925752019752,2.6218927489499158,577.5473109627817,623.6880472241007
0.33,4.413092707183448,4.575056405803487,18.72742996247769,1.373519173691606,613.5355583953059,623.6880472241007
0.34,9.760655159614148,6.37070247375311,18.412030280923315,-0.23711290542616764,646.9799982566889,623.6880472241007
0.35000000000000003,10.074726209805995,6.37955446997972,9.732775861209028,-1.832090042883364,659.0548718763532,623.6880472241007
0.36,7.280547689310209,1.9257965238687005,-1.0218741751733333,-2.269001594389429,645.5927970822712,623.6880472241007
0.37,-0.6994711932325985,-4.945923218067054,-6.108772904641555,-0.963803592453308,618.8523280275717,623.6880472241007
0.38,-5.3152973779748045,-6.8292296196147415,-3.257455808621187,0.7623368764658541,600.7992675464665,623.6880472241007
0.39,-4.281608180654874,-3.882435650933432,3.7053348687889502,1.703477849512399,601.3269935619531,623.6880472241007
0.4,0.7800269521826559,1.200616713350477,9.04469793479694,1.3524931475319406,614.7360334367127,623.6880472241007
0.41000000000000003,5.2133153593273605,3.906130791510101,9.800949258993075,0.3489053088728189,629.6510466272225,623.6880472241007
0.42,6.139689429034207,3.5433498095853295,6.616863178351911,-0.5333043337042659,635.4124517295654,623.6880472241007
0.43,4.26568340951262,1.1737468806396025,2.5804672087793703,-0.8030450245747092,630.739892268294,623.6880472241007
0.44,1.2432378373779704,-1.6830004294088443,0.583646538720605,-0.35372744412201357,622.4315601911,623.6880472241007
0.45,-0.6069878381051995,-2.3786359193519506,1.1511008340238729,0.24788789061540517,614.7455221923472,623.6880472241007
0.46,-0.38790445238500837,-1.5002210372895433,3.5583777511888446,0.6141590011171668,614.0740281235917,623.6880472241007
0.47000000000000003,1.127136905695386,-0.05384438004677511,5.671662826999009,0.6131563295564331,618.4506065198808,623.6880472241007
0.48,2.898287285926789,1.4807734924550318,6.194973893807086,0.227616777717657,623.6772591942389,623.6880472241007
0.49,3.5366170000234822,1.3627703531278315,5.254866827382124,-0.11189577917102887,626.9884857002967,623.6880472241007
0.5,2.850441130405483,0.5079223237071168,3.6908964193673683,-0.23032787980360098,625.5297535170946,623.6880472241007
0.51,1.8442874628984045,-0.34945300557642756,2.79404683890139,-0.13439087511665865,621.9588216655992,623.6880472241007
0.52,1.0152169908550133,-1.0445887782757028,3.0165490040484055,0.13370767717926,619.8415695509079,623.6880472241007
0.53,1.0308612757319044,-0.5134781200515259,3.7414691817117722,0.2567661006098997,618.6690792895537,623.6880472241007
0.54,1.6329321629166522,0.015527170270207558,4.593682318361067,0.24759425513913047,620.4021184123286,623.6880472241007
0.55,2.1182407353333024,0.26632320571483153,4.863420860518856,0.17850549335597615,622.4094630004531,623.6880472241007
0.56,2.5048787049341597,0.6695619934876033,4.532907414619966,0.007082607106347538,623.2009037018616,623.6880472241007
0.5700000000000001,2.351094668891056,0.18793224720538892,4.060543061303317,-0.035084157232177574,623.5980155334404,623.6880472241007
0.58,1.8918043185240463,-0.11567358634152602,3.6107216895252723,-0.0031297023113268712,622.0044925510331,623.6880472241007
0.59,1.6647200045418709,-0.22343078444895836,3.633636429620611,0.053805565781986836,620.8059980346374,623.6880472241007
0.6,1.544629874647598,-0.4209561717146546,3.9811771047874545,0.16101986258330753,620.9711756069216,623.6880472241007
0.61,1.782563865767293,0.09665378324541363,4.2107229270063655,0.1316803172223534,620.8911105938206,623.6880472241007
0.62,2.064475641243029,0.17603669479272738,4.391819706641893,0.08687731440869831,622.0518032194797,623.6880472241007
0.63,2.048771539395301,0.049477041175884806,4.277237937710221,0.07577365065089557,622.4480237192691,623.6880472241007
0.64,2.113150153327762,0.24468872962673838,4.054350284448956,0.012649351359702429,622.0403333393145,623.6880472241007
0.65,1.9638453115959376,-0.11368437813434235,3.9808873799633826,0.04465417697089881,622.2776738026324,623.6880472241007
0.66,1.7990045105003496,-0.07298958674022549,3.8830046110831495,0.062494625742014004,621.3487245979876,623.6880472241007
0.67,1.8464515791339553,-0.018797604875371337,4.015037394188055,0.0666521071422083,621.2152242819192,623.6880472241007
0.68,1.8136903532531656,-0.20512873024470957,4.181483156839643,0.11979760095707909,621.755454423377,623.6880472241007
0.6900000000000001,1.9735497121036638,0.1962386121104447,4.164243033991563,0.06672427450591623,621.5181903522315,623.6880472241007
0.7000000000000001,2.058929881980734,0.07912131574611847,4.193493620476372,0.04811511853302981,622.2031530325313,623.6880472241007
0.71,1.923565591872412,-0.06192954597699751,4.07832978649871,0.06500801364451034,622.0020778931139,623.6880472241007
0.72,1.9735415567386672,0.11902883039901092,4.007947721806264,0.033441222280997634,621.5389069116416,623.6880472241007
0.73,1.9018170485465826,-0.14847842787117238,4.075127492681054,0.0732359018314925,621.9966016347835,623.6880472241007
0.74,1.8695032363591864,0.029893258831176994,4.026359271811026,0.06397887025667477,621.3926263559159,623.6880472241007
0.75,1.9605235240766739,0.056318378760118804,4.11521315774956,0.049635024367355646,621.5794797599502,623.6880472241007
0.76,1.8793608408959628,-0.1759424592274994,4.171457906354657,0.09594324755410676,621.9887184131766,623.6880472241007
0.77,1.9903548887642315,0.18217672282108396,4.093499059883692,0.046817875028350026,621.5761600324951,623.6880472241007
0.78,2.0079430992168645,0.0012939387235019195,4.123434784683179,0.04830321818845031,622.1254415803874,623.6880472241007
0.79,1.8783470136412002,-0.06871311505447145,4.040302587578055,0.06618156748984776,621.7439044255947,623.6880472241007
0.8,1.9516862463481086,0.09559737620410924,4.041498704838398,0.040639118526234676,621.4317976176578,623.6880472241007
0.81,1.9065770732723115,-0.14829763667209622,4.132488997941173,0.08015247782302079,621.993237062947,623.6880472241007
0.8200000000000001,1.9229356162946738,0.0907551138233742,4.069679654272835,0.055073171862222575,621.4707782110779,623.6880472241007
0.8300000000000001,2.000186400064716,0.0618474457378706,4.12840238819335,0.03990038710860998,621.7707635975745,623.6880472241007
0.84,1.879229652301084,-0.1773987825308046,4.136125595362306,0.08664254502399779,621.9936889902601,623.6880472241007
0.85,1.9790733474304694,0.16191120583688978,4.0617191260866905,0.042771643681098405,621.5269745162018,623.6880472241007
0.86,1.9764434839221656,-0.04234637062424884,4.11256987545655,0.05540081210177209,622.0783543654409,623.6880472241007
0.87,1.8763332996987596,-0.03749983769084109,4.041397068546666,0.06472730619514827,621.6283045121779,623.6880472241007
0.88,1.9603662666509345,0.09078648913787613,4.0699013487277425,0.04074782064239208,621.4616385502985,623.6880472241007
0.89,1.9092302637774496,-0.15554471619491467,4.151373970881462,0.0820973117444486,622.0184042599135,623.6880472241007
0.9,1.9488690685047243,0.12202124681513726,4.075603399658666,0.04881634041056373,621.5003253304503,623.6880472241007
0.91,2.0072310142508476,0.04525313816515383,4.125323289345726,0.038270736955775216,621.8734249207209,623.6880472241007
0.92,1.8661895513530524,-0.1732669161795103,4.110110896078683,0.08377266654409943,621.9305725107669,623.6880472241007
0.93,1.9709290610421317,0.14960057537871507,4.055128438154266,0.04314384778383842,621.4948529743187,623.6880472241007
0.9400000000000001,1.9597931335273944,-0.06910969660420985,4.11794727185754,0.06260837465472012,622.0735041250372,623.6880472241007
0.9500000000000001,1.8875193556417809,0.0006650518033683994,4.044639433984655,0.06174436421980224,621.5752690016125,623.6880472241007
0.96,1.9700392975090724,0.08361032432106959,4.084481317045026,0.0400123304143578,621.5259151420315,623.6880472241007
0.97,1.9001624124437808,-0.16919151747817218,4.151166041897844,0.08483822820189323,622.0215365774126,623.6880472241007
0.98,1.9592673356802917,0.13977032877060247,4.072429606063634,0.046806027546754954,621.5045207553991,623.6880472241007
0.99,2.002764224453754,0.024720290023952485,4.122355356458006,0.04177645542823323,621.9484856614271,623.6880472241007
1.0,1.8650736170918492,-0.1401911173840834,4.087914599866797,0.07847334884833448,621.8479363463186,623.6880472241007
1.01,1.9665245477792592,0.1350413207145979,4.0563021662117125,0.041960694288698246,621.4656340159597,623.6880472241007
1.02,1.9479853225415442,-0.09303007308435585,4.128917553167544,0.06749892649777678,622.0647533093688,623.6880472241007
1.03,1.9050141520401116,0.03754698977185367,4.052926012611415,0.05680640842625115,621.5422123988486,623.6880472241007
1.04,1.9832650025785252,0.07558418868026917,4.098011368879629,0.03752998926709965,621.6028472121693,623.6880472241007
1.05,1.8904112965690563,-0.18310548456256293,4.147030736647108,0.08589325714016877,622.0125781568084,623.6880472241007
1.06,1.967367922654129,0.15111625120758565,4.0691891470994035,0.044771976980570914,621.5086323317465,623.6880472241007
1.07,1.9962437286992767,0.002458959573859998,4.119732638203303,0.04564381000344311,622.0074518851028,623.6880472241007
1.08,1.869403130970073,-0.10161860898211245,4.068810900653998,0.07208923793453094,621.7635472040909,623.6880472241007
1.09,1.9642475105229016,0.11890093796512546,4.060364631040332,0.04015880797377719,621.4486207382378,623.6880472241007
1.1,1.9365528345571466,-0.1163129587737381,4.139509255284974,0.07158918663460044,622.0503834783448,623.6880472241007
1.11,1.9230677884129057,0.07076218927687361,4.0622754676811095,0.05202788783487595,621.517756433973,623.6880472241007
1.12,1.9955911514135223,0.06607068565702179,4.110551414173378,0.035557131456819116,621.6908702736877,623.6880472241007
1.1300000000000001,1.880432340717048,-0.1911729264763437,4.1391580163072,0.08592279919723857,621.9942804510001,623.6880472241007
1.1400000000000001,1.97275991380253,0.15671700600212213,4.06545235362774,0.04326464837192335,621.5083866887087,623.6880472241007
1.1500000000000001,1.9868916916738946,-0.02158738345161909,4.118362184401474,0.050444538129365564,622.0480407602837,623.6880472241007
1.16,1.8751870975634133,-0.064286881864698,4.055287531190234,0.0669432535796709,621.6873626587392,623.6880472241007
1.17,1.964486230833056,0.10452208898823834,4.0670509045051055,0.03912464162408188,621.4543559631838,623.6880472241007
1.18,1.924395961508308,-0.1380363931368167,4.147105699006051,0.07605932472953653,622.0379942391443,623.6880472241007
1.19,1.938811670093549,0.09961441763150558,4.068935487876322,0.04877921221397691,621.5065516749536,623.6880472241007
1.2,2.0031181256101176,0.05399564278063296,4.1182012048473196,0.035736489267327476,621.7902186188927,623.6880472241007
1.21,1.8714416021078342,-0.18591761817928398,4.123278051417997,0.08461502642174767,621.9615709308181,623.6880472241007
1.22,1.9721359239222613,0.15382495393901252,4.059142677420694,0.04276136221581149,621.4966389977888,623.6880472241007
1.23,1.9727659874953847,-0.04772817346552716,4.118446255819404,0.05670893685623865,622.0645972340633,623.6880472241007
1.24,1.8821394423136715,-0.027702538172795887,4.049000575839419,0.06343431504651029,621.6214327711591,623.6880472241007
1.25,1.9681226682726958,0.09329374326365344,4.077195334376102,0.03890091641623247,621.484859156024,623.6880472241007
1.26,1.9124544520619773,-0.15667614358980775,4.151801156693258,0.080569651182219,622.0304899313533,623.6880472241007
1.27,1.9521777679428265,0.12398859663107392,4.0722924969823175,0.04676585462224162,621.5061780350009,623.6880472241007
1.28,2.0054239734805126,0.038878873005709025,4.121114457795305,0.037897233607068,621.8809059335598,623.6880472241007
1.29,1.8615228457186286,-0.17415436334081746,4.105210801292909,0.08356615680573762,621.9072696915426,623.6880472241007
1.3,1.9689988386772335,0.14720288288527472,4.056817077253709,0.04355186362215806,621.4800646231623,623.6880472241007
1.31,1.9587164397883063,-0.0719547671437033,4.123508492213925,0.06373213190837368,622.0722977753627,623.6880472241007
1.32,1.8932308901886001,0.009639307579692113,4.048870655825275,0.060506364266216646,621.5753275676478,623.6880472241007
1.33,1.9748423006563989,0.0837405360951089,4.087493582746871,0.03883021795728527,621.5442641362388,623.6880472241007
1.34,1.8993240041225956,-0.17268092922752554,4.149674170961138,0.0845646649173931,622.0232669482193,623.6880472241007
1.35,1.9603320352191702,0.14110582251998088,4.070386122695926,0.04615034176992284,621.5006451495917,623.6880472241007
1.36,2.0008152549704556,0.019841802197319458,4.1218542133693274,0.04240253142381956,621.9548342345953,623.6880472241007
1.37,1.8657526726781293,-0.13339029305280609,4.085528027549041,0.07728242563952231,621.82973934388,623.6880472241007
1.3800000000000001,1.9669936367467162,0.13290978672091613,4.05859512768402,0.04139197816155607,621.4594359255838,623.6880472241007
1.3900000000000001,1.9474856645669976,-0.09666726823259325,4.132774650076271,0.06785456576923961,622.0641601138518,623.6880472241007
1.4000000000000001,1.9099111125437918,0.04442261801210878,4.055597153140104,0.055338012403765374,621.5409583967274,623.6880472241007
1.41,1.9867130429305173,0.07421867353492073,4.100155097118174,0.0364853834648071,621.619572982042,623.6880472241007
1.42,1.8889823107953396,-0.18550469384425353,4.145219241402235,0.08545879059966216,622.0098201701757,623.6880472241007
1.43,1.9682387714070213,0.1516678531923743,4.068021275544294,0.04417010183120233,621.504144681315,623.6880472241007
1.44,1.994587151294277,-0.0021820539516082538,4.120143394506894,0.046254114390544235,622.0122150881513,623.6880472241007
1.45,1.8709922564951946,-0.09474666808826604,4.0675086092500905,0.07086642755397736,621.7479996116658,623.6880472241007
1.46,1.9653981297295129,0.11694744479832664,4.06286907595895,0.039512625225529736,621.4513516149732,623.6880472241007
1.47,1.9359248710532728,-0.11968547951925729,4.141322973031205,0.0718003243485198,622.0514360711614,623.6880472241007
1.48,1.926552008828006,0.07578296504375115,4.062930643119393,0.05089989864195192,621.5162629893625,623.6880472241007
1.49,1.996960527401054,0.06340200819137155,4.111284215585938,0.035173206162632954,621.7062694546604,623.6880472241007
1.5,1.8783436003129996,-0.19165258917714034,4.136428862485671,0.08563689943060318,621.9870663870728,623.6880472241007
1.51,1.9727537824155905,0.1563744544806136,4.064733554993609,0.04306301537387223,621.5056088037035,623.6880472241007
1.52,1.9849667506028104,-0.025845050759861432,4.118793918594042,0.05134647311624228,622.0521159700943,623.6880472241007
1.53,1.876770361577501,-0.05764906609615039,4.0542010339276215,0.06607677979364278,621.6751954349456,623.6880472241007
1.54,1.9653712556916452,0.10254687641178059,4.068954363703828,0.03883810126561827,621.4563799646892,623.6880472241007
1.55,1.9227049732215606,-0.14156015203899397,4.148809752778591,0.07666920955987452,622.0360345419521,623.6880472241007
1.56,1.9419357458266309,0.10443283106310774,4.07034013336042,0.04810107196307648,621.5071948951665,623.6880472241007
1.57,2.004494557497086,0.05174819343689285,4.119092384570844,0.03569086998011547,621.8078736535915,623.6880472241007
1.58,1.869976193056464,-0.18450964325996044,4.119980124994188,0.08418085916207406,621.9539048213755,623.6880472241007
1.59,1.9716589800682571,0.1525667035080404,4.058123841110461,0.04266841981738395,621.4964594087203,623.6880472241007
1.6,1.9701554671065407,-0.05234562547360622,4.1180714174351065,0.05780394947560197,622.066736783074,623.6880472241007
1.61,1.8831012385104906,-0.02187725154477882,4.0477914866065845,0.06296857862250839,621.610250593618,623.6880472241007
1.62,1.9684492208997748,0.0911328043321814,4.078839721072978,0.03905527698069342,621.4918908352042,623.6880472241007
1.6300000000000001,1.9100054150112864,-0.15969662175893617,4.152145500187303,0.08148772668133873,622.028757296965,623.6880472241007
1.6400000000000001,1.954033153195285,0.1277523284790339,4.0726507516729775,0.046675155059200495,621.5056529961486,623.6880472241007
1.6500000000000001,2.005298839335086,0.036135870282813065,4.121642984974011,0.03855735207045936,621.8961309361748,623.6880472241007
1.6600000000000001,1.8620710209429252,-0.16763212214962084,4.1016318005034185,0.08250306253218864,621.8960810313661,623.6880472241007
1.67,1.9685432434579115,0.14483914738252068,4.056423314645544,0.043168562991236996,621.4761454846689,623.6880472241007
