t,iq,id,vq,vd,omega,r
0.0,0.0,0.0,0.0,0.0,0.0,1668.0221317719302
0.01,0.0,0.0,433.68575426070186,0.0,11.727436397049308,1668.0221317719302
0.02,11.547440987062851,-0.04905719861155779,743.1465837489153,0.012754871639005025,22.295739024032855,1668.0221317719302
0.03,11.61655683733504,-2.9066294912714166,972.7127522221476,0.13307098952514262,24.059731028967644,1668.0221317719302
0.04,11.84863591027361,-6.114540444183228,1144.553810637129,-1.8674362769028412,25.09670054157887,1668.0221317719302
0.05,12.00162712609181,-5.808504463632182,1273.2435909427913,-3.620235718084533,26.737609357415028,1668.0221317719302
0.06,12.15428671085595,-5.481887661024092,1369.3982927246573,-4.8330737195127655,29.01135105579891,1668.0221317719302
0.07,12.308464046736676,-5.1263525618092585,1440.9925915470126,-5.635905096788864,31.961090702005897,1668.0221317719302
0.08,12.46510379801724,-4.7327544920937825,1493.9974426123033,-6.123487717350913,35.64451064110747,1668.0221317719302
0.09,12.62400815633146,-4.290943468126157,1532.8771242386865,-6.36395072647759,40.13409856303835,1668.0221317719302
0.1,12.783462619476236,-3.7895726981061477,1560.9619002963168,-6.40514965890755,45.51730676176182,1668.0221317719302
0.11,12.939687026605075,-3.21594114238523,1580.7273929637554,-6.279356893005252,51.896320424071995,1668.0221317719302
0.12,13.086063547312543,-2.5559183503147254,1594.004039987086,-6.006702995527101,59.38703270243949,1668.0221317719302
0.13,13.21208622888289,-1.7940332378026955,1602.1342539792547,-5.597688798508608,68.11661690899638,1668.0221317719302
0.14,13.301978723192832,-0.9138598500332966,1606.0906314896974,-5.055023312932443,78.21981281933553,1668.0221317719302
0.15,13.332950089427618,0.10109248542693194,1606.5651613942148,-4.375006039430645,90.07136134517802,1668.0221317719302
0.16,13.27301991549141,1.2667754736914016,1603.9751625436136,-3.5489497366223195,104.09802261645432,1668.0221317719302
0.17,13.077607864270227,2.598836340779309,1598.5184966876059,-2.564676712117605,120.6346509500425,1668.0221317719302
0.18,12.685231801857004,4.106418379918613,1590.2495569665625,-1.405886144991664,140.04280375125984,1668.0221317719302
0.19,12.01371073497506,5.783470597670808,1579.1023448101166,-0.05320175238780364,162.67972553412335,1668.0221317719302
0.2,10.958133468517353,7.595859968689363,1564.915239795731,1.5130921584291057,165.39799944853496,1668.0221317719302
0.21,12.853719073346525,-3.543964413092419,1553.3172592225574,-1.2830467205583462,170.33203047930576,1668.0221317719302
0.22,13.274920871504818,-1.246697089538391,1543.7504186379167,-2.7999620891251533,178.85720961055384,1668.0221317719302
0.23,13.280980977564024,1.1803906350697233,1534.6634394049204,-3.167358356580412,192.2082128274633,1668.0221317719302
0.24,12.806178905683561,3.712082921137826,1524.589341138474,-2.620622039538612,210.59230593032055,1668.0221317719302
0.25,11.751563543236971,6.29908978083671,1512.3719839944551,-1.33885929077743,233.9618474190338,1668.0221317719302
0.26,9.991906869828188,8.828339304900892,1497.1309216443972,0.5429320789530894,238.65720430931913,1668.0221317719302
0.27,13.29490094395721,-1.0116257549822514,1484.3706260810293,-1.7849401688821995,247.09236100489156,1668.0221317719302
0.28,13.123432605540946,2.356542897042722,1473.1238577839492,-2.568497990431931,262.5722645195287,1668.0221317719302
0.29,12.04324658503211,5.721712110014813,1460.9246108931873,-1.9765274742317396,284.6051134073225,1668.0221317719302
0.3,9.946072104095727,8.879945240704275,1446.0877859419693,-0.30093698114788003,288.91327996675955,1668.0221317719302
0.31,13.331184298353152,-0.2393804108946247,1433.5313000744718,-2.57881147042117,298.68442128743004,1668.0221317719302
0.32,12.781196862250862,3.797207466832228,1422.1941025015824,-3.0674045948379773,316.8783101906471,1668.0221317719302
0.33,10.929202836649484,7.637427782516214,1409.2045307309195,-1.9699881148150387,318.6714950709441,1668.0221317719302
0.34,13.260782747714465,-1.3890351671920063,1398.1318986271256,-4.427719709852173,325.85868039967676,1668.0221317719302
0.35000000000000003,12.975278307311738,3.0691905489205458,1388.7834200763252,-4.966090777095595,342.52062613954575,1668.0221317719302
0.36,11.145132202011355,7.318729806289289,1377.8135074028785,-3.7552315976153783,343.55157101774466,1668.0221317719302
0.37,13.257374014354351,-1.4212009081406025,1368.2784585922232,-5.9692857914319974,350.5345613196415,1668.0221317719302
0.38,12.89968515973439,3.3728178956928723,1360.243986661446,-6.2208295504199125,367.7154683787543,1668.0221317719302
0.39,10.769119552519188,7.8615419506179975,1350.15668363757,-4.652204153602963,369.43555998254055,1668.0221317719302
0.4,13.327122665427886,-0.4069142887832875,1341.205306953048,-6.542076060750984,378.4845520251354,1668.0221317719302
0.41000000000000003,12.478640845991485,4.696945860293755,1333.0829834370122,-6.375980685397418,398.0756233397743,1668.0221317719302
0.42,9.615647027684671,9.23672615252594,1322.2148566615083,-4.3183973389256165,401.97805059948365,1668.0221317719302
0.43,13.208409184357814,1.8209076298236244,1312.4793464048275,-5.8452856405448665,415.8435454418818,1668.0221317719302
0.44,11.268730713492257,7.126954881614871,1302.392761054659,-5.126218845436106,415.9237851888178,1668.0221317719302
0.45,13.318210120228278,-0.6348676800931274,1293.5522013166885,-7.3256467637263984,424.2867244106318,1668.0221317719302
0.46,12.32641967373139,5.083026244750804,1285.933612493792,-7.2030911812868155,444.329067219979,1668.0221317719302
0.47000000000000003,8.853875006760914,9.969286591448364,1275.3901605794567,-4.893686890443696,449.7371968448543,1668.0221317719302
0.48,12.867246285628198,3.4945315569851516,1265.6391833554264,-6.088972935972162,466.77109531253825,1668.0221317719302
0.49,9.812891959837234,9.026900307544086,1254.6694759714164,-4.78205953217964,469.70128448565544,1668.0221317719302
0.5,13.101523283591408,2.475452570195995,1244.879132352473,-6.53075145513369,484.68127298292336,1668.0221317719302
0.51,10.325011138826145,8.436345343861511,1234.65219038353,-5.581487312934703,486.26658743486126,1668.0221317719302
0.52,13.19097209719541,1.943201715929117,1225.5669300648901,-7.441114038593973,500.11221509801146,1668.0221317719302
0.53,10.522436037482146,8.18877998329878,1216.3248800500596,-6.5245652778864,501.09686985962,1668.0221317719302
0.54,13.205874753056126,1.8391981362464813,1208.048571598754,-8.300711829910107,514.6776779421847,1668.0221317719302
0.55,10.46081194704332,8.267356964978195,1199.572506568809,-7.253135820216557,515.7068848320262,1668.0221317719302
0.56,13.160676364383399,2.1387789529864736,1191.8648201338233,-8.868651068006422,529.842906717194,1668.0221317719302
0.5700000000000001,10.136637594340161,8.661775571947558,1183.6945479529454,-7.598894788389433,531.5639803626833,1668.0221317719302
0.58,13.024884425838339,2.851344151682085,1176.124916396405,-9.02252154281865,547.0199208959102,1668.0221317719302
0.59,9.490094351310836,9.365676002350067,1167.667435579397,-7.462646985198932,550.2961800169809,1668.0221317719302
0.6,12.714943079182884,4.013477329064782,1159.651894085383,-8.668327459255355,567.728548636858,1668.0221317719302
0.61,8.395148817700285,10.358535326311495,1150.2113692473058,-6.746243608552987,573.8122504261569,1668.0221317719302
0.62,12.066581854123244,5.672334628309706,1140.9977979485952,-7.685591045426306,593.6011743497552,1668.0221317719302
0.63,6.64174196385469,11.5613598449036,1129.7894605981671,-5.310022720475745,604.1618451729479,1668.0221317719302
0.64,10.787819193249545,7.835862098807921,1118.4631262054772,-5.886969993774337,603.7369074057111,1668.0221317719302
0.65,13.030998364623997,2.8232710459579398,1108.9506978813117,-8.325676000321835,618.7739180857825,1668.0221317719302
0.66,8.780281972609135,10.03416295757911,1099.540742415262,-7.1309440311776005,623.6583950469695,1668.0221317719302
0.67,11.980006991745938,5.852965936642395,1090.5186358329156,-8.321756994462731,643.019805983096,1668.0221317719302
0.68,5.851526817637729,11.980709982310907,1079.7323515049131,-5.785993119896023,655.1757281635394,1668.0221317719302
0.6900000000000001,9.776144854053506,9.066684596385873,1068.386840480425,-6.0233552654660745,657.2153967967995,1668.0221317719302
0.7000000000000001,12.34662292606826,5.0337540761605855,1058.5030878748905,-8.095454160833798,675.2300039612078,1668.0221317719302
0.71,6.243445349923923,11.78122098682013,1047.8033459811256,-6.064118090740625,686.4059079295724,1668.0221317719302
0.72,9.774315609423452,9.068656578852174,1036.660654404087,-6.497950140747157,688.3518364067304,1668.0221317719302
0.73,12.175087549767484,5.435533178380434,1026.970332620865,-8.554301065915599,706.3480158749207,1668.0221317719302
0.74,5.458795099679007,12.164675656896822,1016.473833324661,-6.262866231417807,718.9744109725518,1668.0221317719302
0.75,8.832003304046308,9.988668350440554,1005.2078977528149,-6.3596271292655,723.417775341802,1668.0221317719302
0.76,11.3408927413999,7.011556860344274,994.9921320148165,-8.085481478569385,720.718889998006,1668.0221317719302
0.77,12.876548212021017,3.4600988311428407,986.9079843394221,-10.683054907705566,735.9534782310853,1668.0221317719302
0.78,6.93556748221961,11.38752306155099,979.0972526214028,-8.862386889785299,745.282694254477,1668.0221317719302
0.79,9.748705978007683,9.096181041081746,970.4469996048781,-9.085491666497498,747.1123298014952,1668.0221317719302
0.8,11.80106530005906,6.205854942030125,962.7247400313636,-10.67340113065354,764.5701841418057,1668.0221317719302
0.81,3.888389290659247,12.753752643910898,953.9196320051154,-7.535455020768611,779.2427554939895,1668.0221317719302
0.8200000000000001,6.810019708721939,11.463045378283924,943.5496821855623,-6.698786087626456,788.676341588855,1668.0221317719302
0.8300000000000001,9.221240984288546,9.630498039429474,933.0743298791773,-7.513065029519033,791.8585732136734,1668.0221317719302
0.84,11.106477509654368,7.3772579665699265,923.7898688572636,-9.35892881931158,789.5503778506951,1668.0221317719302
0.85,12.446926236174866,4.780356163404514,916.523564969066,-11.746234249284909,805.3510956626142,1668.0221317719302
0.86,4.8225617743007865,12.430634565895282,909.2411845187579,-9.1256234144197,818.3540193317331,1668.0221317719302
0.87,7.1774042433181755,11.236665257351754,900.3059035007327,-8.418130417017236,826.7447496316121,1668.0221317719302
0.88,9.143988692340976,9.703878017170151,891.1511666530633,-9.082728512214382,830.0274445437111,1668.0221317719302
0.89,10.741339650993572,7.899455695158433,882.9133909599553,-10.609058579270195,828.7008609312348,1668.0221317719302
0.9,11.978605254416113,5.855834179401974,876.348682276771,-12.61184336066055,844.4056091000142,1668.0221317719302
0.91,3.1784477104325344,12.948947753768408,869.4891476943509,-9.253550087039994,858.7596671734913,1668.0221317719302
0.92,5.1573958890946345,12.295488823992622,860.6618028229321,-7.774385732950906,870.7815184577983,1668.0221317719302
0.93,6.856267334010729,11.435443848944173,850.8913735557808,-7.672264679398583,879.6203084369988,1668.0221317719302
0.9400000000000001,8.303487422808523,10.432155788572102,841.0891651704312,-8.484192433239409,884.9730598841143,1668.0221317719302
0.9500000000000001,9.53716666986808,9.317737369605089,832.0407392596952,-9.866406375463583,887.0119974410486,1668.0221317719302
0.96,10.589701510326297,8.101604760784786,824.3075362876185,-11.573380604563352,885.9653654419146,1668.0221317719302
0.97,11.482223573263212,6.7776337752475495,818.2624567779181,-13.4332930750058,883.128540805892,1668.0221317719302
0.98,12.21866787197733,5.336846748042027,813.8486985982825,-14.880865319831116,897.5634307299291,1668.0221317719302
0.99,3.0040201875211676,12.990521178564894,809.5291924631224,-11.282707979994575,911.1504678782369,1668.0221317719302
1.0,4.2987997275202,12.621335059352871,802.7925710876806,-9.277451212597333,923.5778561043115,1668.0221317719302
1.01,5.387011325819672,12.196634238726203,794.5714663958673,-8.450321305005893,934.6118587883287,1668.0221317719302
1.02,6.292195644178656,11.755256345701564,785.5423877143207,-8.412324209812299,944.1059085401381,1668.0221317719302
1.03,7.041648332454742,11.322233284110297,776.2688685534531,-8.878415108124718,952.0690557030671,1668.0221317719302
1.04,7.66309822523564,10.911219151321637,767.1839993961439,-9.644783796616256,958.6157673670523,1668.0221317719302
1.05,8.181560820183456,10.528050167215996,758.5921139510451,-10.570265594878348,963.9136223063109,1668.0221317719302
1.06,8.608270695277097,10.113993345434334,750.6869030920566,-11.544905621866523,968.111495158492,1668.0221317719302
1.07,8.961404239881968,9.705245145910771,743.5788497764526,-12.506944040619679,971.3229156848645,1668.0221317719302
1.08,9.264843414414115,9.339608680862241,737.3209699846499,-13.429291631993399,973.6800798174054,1668.0221317719302
1.09,9.53246121715552,9.009465132780313,731.918734776525,-14.298078460611666,975.2259197377373,1668.0221317719302
1.1,9.775215771293032,8.70727875872964,727.3647154241005,-15.108696613466906,976.0673769350886,1668.0221317719302
1.11,10.00298721376365,8.425592980677933,723.6235331754739,-15.862804067145701,976.2256095926701,1668.0221317719302
1.12,10.222700569964697,8.156558988614382,720.6618837491352,-16.565786214808146,975.7102478992754,1668.0221317719302
1.1300000000000001,10.441908187923282,7.893401202093681,718.449412026552,-17.22552459765585,974.5690719730084,1668.0221317719302
1.1400000000000001,10.666862372380848,7.628322773787124,716.9477422666251,-17.85117876880489,972.7511012180721,1668.0221317719302
1.1500000000000001,10.901631790054747,7.352870204624739,716.1386605128318,-18.45222134051552,970.232548546463,1668.0221317719302
1.16,11.153041929630032,7.059448337777191,716.0097191868571,-19.03839257974819,966.9920534742749,1668.0221317719302
1.17,11.42706662646617,6.738906533231289,716.5519789309396,-19.619159054624813,962.9407965185419,1668.0221317719302
1.18,11.694520794532213,6.361911751690876,717.7850793996656,-20.19826464750281,965.5604490411379,1668.0221317719302
1.19,11.92546189881229,5.889414256652824,717.8560492834625,-17.421846319670237,978.4555639509135,1668.0221317719302
1.2,1.1230933885370016,13.050179791757134,717.6396536572383,-12.827348191383503,990.8724783152177,1668.0221317719302
1.21,1.2080927494334412,12.839529039410937,714.3501284344636,-9.4679073111855,1003.0082430469283,1668.0221317719302
1.22,1.12369621264686,12.647643873704842,708.9285961607873,-7.019640401485174,1014.8630223750665,1668.0221317719302
1.23,0.8716184773870035,12.467072900905585,701.9775764349226,-5.164071543229821,1026.4316116333462,1668.0221317719302
1.24,0.4621782621051286,12.288099145026543,693.9494961621657,-3.6613666153233084,1037.6821946683535,1668.0221317719302
1.25,-0.09406257785246197,12.09562926343385,685.1876747690383,-2.330875105218278,1048.5472687894983,1668.0221317719302
1.26,-0.7771409477168643,11.874822278645974,675.9571127077553,-1.0381773078473941,1051.0264791534569,1668.0221317719302
1.27,6.747850443212603,7.560372156260957,666.3578829466198,-2.6917584213873997,1047.2601672604296,1668.0221317719302
1.28,10.150381839202975,6.249933932727479,659.5464367578519,-7.212970182978908,1044.9010822597168,1668.0221317719302
1.29,9.85427596795435,6.757247257925779,655.2983868700757,-10.38715896610417,1043.669826587634,1668.0221317719302
1.3,9.541519466049701,7.211110757531014,652.6330611032378,-12.53528981950968,1043.5634458025158,1668.0221317719302
1.31,9.210677093506602,7.624408377776475,650.8565841034379,-13.912570299972863,1044.5101027635533,1668.0221317719302
1.32,8.85513963181331,8.006359197304729,649.4734067852054,-14.704859326057646,1046.5745283051199,1668.0221317719302
1.33,8.468318591843056,8.36470157059596,648.0987825687647,-15.045427847757098,1049.7323383692199,1668.0221317719302
1.34,8.040714550488154,8.704938130587948,646.4548321683868,-15.026965288181863,1054.0180038384099,1668.0221317719302
1.35,7.563263876645187,9.031528552178889,644.3257850583054,-14.71116666585852,1059.489186557621,1668.0221317719302
1.36,7.02492818891522,9.345576664569414,641.5355977186668,-14.135368556871633,1066.1576875045837,1668.0221317719302
1.37,6.401515234816711,9.666261533952538,637.9512888612043,-13.322994706690976,1073.9277709005885,1668.0221317719302
1.3800000000000001,5.3780120930638615,10.404200150565018,633.5722815360283,-12.388788328267392,1082.648912066404,1668.0221317719302
1.3900000000000001,3.8245537342625626,11.208685113131388,628.4559466257135,-11.315318232715105,1092.0526731767113,1668.0221317719302
1.4000000000000001,2.199611507587796,11.247164851624252,622.5782933551963,-9.87143942287378,1101.7441711368767,1668.0221317719302
1.41,0.6211664701489463,11.13859415356173,615.9768574520067,-8.0529377497313,1111.3357395883884,1668.0221317719302
1.42,-0.8818582648881463,10.89276673509006,608.7495146030235,-5.8599847015495365,1118.800613715441,1668.0221317719302
1.43,-2.3355690572666927,10.510497563578184,601.4458049001013,-4.10040594090029,1114.9019772518106,1668.0221317719302
1.44,9.043770316569425,5.950364073344016,594.2516722169339,-7.956457489716242,1114.5260050648965,1668.0221317719302
1.45,8.27275471372213,6.981718255973023,589.5904219604619,-10.268191412322379,1116.9092153748313,1668.0221317719302
1.46,7.3735834791050525,7.86675111844176,585.9445785836699,-11.3086712598986,1121.8790240062885,1668.0221317719302
1.47,6.336827873791573,8.638918548791676,582.3410161369684,-11.337167182694449,1128.9553392317594,1668.0221317719302
1.48,3.777462986119642,10.319352003440121,578.5273914555906,-10.802018316802386,1137.3780148385047,1668.0221317719302
1.49,1.1418992268717432,10.643384362963475,574.1015603836372,-9.433611094677094,1146.155732124405,1668.0221317719302
1.5,-0.8985682766139131,10.373058821048692,568.8284603967726,-7.2559567583229425,1154.3967543187132,1668.0221317719302
1.51,-2.713778670094324,9.860342510376109,562.8310672850039,-4.392576849574322,1150.45597649653,1668.0221317719302
1.52,8.566763342050617,5.683730992569801,556.5526209326453,-8.049376945626683,1150.8879116714825,1668.0221317719302
1.53,7.5725083552303,6.933825376638811,552.5035864368429,-9.97768361692757,1154.7245962224463,1668.0221317719302
1.54,6.371980805688512,7.9810662665505525,549.0232201618307,-10.462864430480357,1161.2489362653112,1668.0221317719302
1.55,2.6778009620307586,10.134258327548714,545.7577199691824,-10.112680495696377,1169.230417127949,1668.0221317719302
1.56,-0.13491720294502407,10.1371871007334,541.8380949535265,-8.52604241539172,1177.2263294281183,1668.0221317719302
1.57,-2.30072121958548,9.63946215452599,537.0446244728313,-5.884944067195369,1172.4001183496432,1668.0221317719302
1.58,8.631411769469148,4.987331519600317,531.5089030510377,-9.12054771780991,1171.9058891715706,1668.0221317719302
1.59,7.597187888568611,6.439727692674601,528.3914566156143,-10.917593724602261,1175.2541606200105,1668.0221317719302
1.6,6.292331043216351,7.665678817114008,525.8211340235325,-11.179850252588597,1181.5778058682772,1668.0221317719302
1.61,1.7606548898890195,10.045635672663366,523.5101257462592,-10.54661357378656,1189.2712072393801,1668.0221317719302
1.62,-0.9944224233427384,9.752151043711818,520.3044679175908,-8.502505392036117,1196.5634117869754,1668.0221317719302
1.6300000000000001,-3.2078465989944718,9.059260941991052,516.1287841943597,-5.327968928375873,1192.7071892487816,1668.0221317719302
1.6400000000000001,8.023712169712399,5.37810276724948,511.1538167517275,-8.558009050298768,1194.0722745282058,1668.0221317719302
1.6500000000000001,6.784703706119787,6.838757908379196,507.96744606324546,-9.866688797857494,1199.1635724465277,1668.0221317719302
1.6600000000000001,2.8869114007184695,9.161833108205226,505.4554553770228,-9.84673308251254,1206.3007390305754,1668.0221317719302
1.67,-0.8566511277530253,9.542178038372269,502.5613523480357,-8.280009210445234,1213.290671525097,1668.0221317719302
1.68,-3.2514318418959633,8.796557616759097,498.74040676052675,-5.289024628147826,1209.132422041669,1668.0221317719302
