t,iq,id,vq,vd,omega,r
0.0,0.0,0.0,0.0,0.0,0.0,1766.208948337904
0.01,0.0,0.0,459.21432656785504,0.0,79.3834101862947,1766.208948337904
0.02,11.545534900544007,0.2521678969144774,769.2496595180648,-0.06556365319776412,95.48710554384313,1766.208948337904
0.03,12.308209605380407,-5.126963437337853,998.4424595791351,-2.45642684405421,121.95745172014804,1766.208948337904
0.04,12.803350154557142,-3.7218278570588588,1163.8091521961244,-4.002092586981445,167.6329748437707,1766.208948337904
0.05,13.21337937718356,-1.784484018532492,1276.4186672456024,-4.807918588223541,238.67642057389654,1766.208948337904
0.06,13.296636420930867,0.9885533204397765,1343.0897338685427,-4.951498055786818,348.6186968130643,1766.208948337904
0.07,12.406990152963868,4.883070050903971,1365.5005712972222,-4.380204229606881,515.0002270036414,1766.208948337904
0.08,9.122287808201623,9.724281100529423,1340.4602626677522,-2.834793527291388,600.4117958476968,1766.208948337904
0.09,12.528927575969771,4.5611129753473545,1300.5636421656754,-5.0375371674161356,775.9809464316222,1766.208948337904
0.1,6.552164052737641,11.612360828177463,1227.1631237626177,-4.0150877759263555,915.596439084406,1766.208948337904
0.11,8.448961016463276,10.314690277466482,1137.497715885946,-5.497907759011437,1035.8480592046765,1766.208948337904
0.12,8.829018199515374,9.991306992100881,1040.194296467266,-7.913825576695152,1156.7691421196475,1766.208948337904
0.13,7.923149388237885,10.723874372140108,937.1650752800728,-10.213963782479794,1295.7274159521764,1766.208948337904
0.14,5.361214525909027,12.207995600628294,825.7391559317383,-11.627139826575654,1449.331832394368,1766.208948337904
0.15,0.42431108858834676,13.32658012686971,704.8827179819245,-11.186555851468311,1569.3193444453557,1766.208948337904
0.16,-6.409510140915431,11.691704646084762,585.339647378551,-9.642784787644109,1697.7191105906709,1766.208948337904
0.17,-1.4181253146824506,13.257703359542877,463.1458557741838,-10.739206646870764,1803.4880132764604,1766.208948337904
0.18,2.2899069044821854,13.135223795070356,343.6867218583548,-14.577417617179918,1910.547286530216,1766.208948337904
0.19,-8.950346129430756,9.882766917273806,230.47208774174692,-10.620533765854093,2007.7843574578822,1766.208948337904
0.2,-8.57065293313261,10.213798807376376,121.44704928321212,-8.836254147867376,2098.7878787892273,1766.208948337904
0.21,-9.18449648083639,9.665547173920455,17.21122311368946,-7.6487926299915285,2126.068425168191,1766.208948337904
0.22,-5.9398575279643735,7.249297793990993,-71.57393356520953,-9.43695458468998,1921.539053016172,1766.208948337904
0.23,10.406283471443729,-8.335888800226092,-100.6870271747292,-7.202573246575936,1711.242018428357,1766.208948337904
0.24,8.627402610562086,-10.165908811957948,-69.22122075868121,-5.475702037801354,1483.5296725705311,1766.208948337904
0.25,3.8277750056716364,-12.772075645083426,12.251497402645954,-2.3208532028152913,1493.3522315048108,1766.208948337904
0.26,0.1337228196273439,4.4022837769157075,80.37096083853008,-3.593167741264209,1614.2983415154981,1766.208948337904
0.27,-4.234164247757603,12.643165382956479,105.54389288020437,-4.995624481558538,1734.5713221643869,1766.208948337904
0.28,0.4388739276063438,13.326108488731627,93.54797825124875,-8.677888247884157,1832.532563251816,1766.208948337904
0.29,-3.4431392211339777,11.034129843124177,60.39383329887319,-10.40390314001479,1925.0966716851412,1766.208948337904
0.3,-8.062457571893521,10.619536509621996,13.650681225492049,-11.334925721774301,1942.1751444089405,1766.208948337904
0.31,1.373522883713822,6.8971846821363485,-30.949393044989574,-13.02199837403353,1762.049359139385,1766.208948337904
0.32,5.418626841133535,-12.182621266965699,-28.11497775265856,-9.465421838708568,1562.4392506592528,1766.208948337904
0.33,1.8010488899485484,-12.70399220500142,24.919814336099066,-6.310517856093138,1631.1240375087477,1766.208948337904
0.34,-0.2281232475626691,11.562395226520797,57.908345658474005,-9.359021323490598,1741.4173851880303,1766.208948337904
0.35000000000000003,-4.506102544096348,12.548817380130533,56.88581933838586,-10.77681903096518,1858.1078366582087,1766.208948337904
0.36,-1.6318483486219113,13.233096717884203,26.774345000627918,-12.820936894964557,1929.3547589667498,1766.208948337904
0.37,-0.9728495874853289,12.267596313622773,-15.355684247791958,-15.510387208658099,1800.638209664412,1766.208948337904
0.38,9.07072516125597,-8.80478781039194,-25.043951124196965,-13.098466414819967,1624.663016374022,1766.208948337904
0.39,7.5805966175876,-10.968697857959128,10.859298496135393,-10.079290771234346,1624.3195643859574,1766.208948337904
0.4,5.692379470806225,4.085228124963486,44.930866307768966,-11.251137062304442,1735.4856583102367,1766.208948337904
0.41000000000000003,1.9629239237946003,13.188051692618306,47.27215569708421,-13.707776720845422,1830.1170740187777,1766.208948337904
0.42,-1.0937022538286143,11.50667668006877,25.525557985794855,-15.248509438662381,1906.4496321701408,1766.208948337904
0.43,0.41559596539004673,11.543425575865395,-10.799480651384362,-17.644902275262773,1805.9806494545219,1766.208948337904
0.44,9.867248011192082,-6.182232105634649,-22.299044626638665,-15.92208767203911,1638.4674843209577,1766.208948337904
0.45,6.585556258737343,-9.486863440565063,9.959136444177805,-13.200048453195322,1630.565632753419,1766.208948337904
0.46,8.316268747422573,3.117770201222104,41.852609544231946,-14.105537339918717,1721.486800473549,1766.208948337904
0.47000000000000003,0.48331756050648167,11.609261334076526,48.18398508681412,-15.778136493893598,1828.9938077358117,1766.208948337904
0.48,-1.6430659350549843,13.23170858622724,27.06602294553882,-17.17412265133127,1896.6167686576819,1766.208948337904
0.49,2.300232587281222,12.173748563560842,-7.996014883196967,-19.712506337708945,1809.2543699966595,1766.208948337904
0.5,10.862091360251098,-4.604735927937989,-20.684887739068085,-18.393537510809455,1652.5012560348057,1766.208948337904
0.51,7.3345823618729495,-10.932522585778738,7.751016157115084,-15.515197261586483,1632.6750026834409,1766.208948337904
0.52,10.773416341257771,2.064599473742054,38.60502267913624,-16.161318350617204,1730.3574768097728,1766.208948337904
0.53,2.220166952812986,13.147191201143112,43.32787509058098,-18.566946974846054,1820.9660788868791,1766.208948337904
0.54,2.124575331737665,11.850280426430789,23.89397383111941,-19.85148370666236,1886.8040607217322,1766.208948337904
0.55,3.757070531101646,11.354976414489355,-8.47438360255543,-21.8601166811316,1800.3768977894865,1766.208948337904
0.56,11.804133972307651,-4.273992586932763,-19.18360346361756,-20.63532884438419,1654.8379763930072,1766.208948337904
0.5700000000000001,9.675476836029755,-7.711742229930432,8.191579760072974,-18.164209076522933,1638.4735116665581,1766.208948337904
0.58,11.812307597341436,2.128822174191475,37.31463836822548,-18.794820264112023,1720.5458367076455,1766.208948337904
0.59,3.684330737462923,11.035376009237975,43.954064423829,-20.074017942022746,1817.6204013607592,1766.208948337904
0.6,-0.9295124540164311,13.300894119404383,26.16326177115855,-21.23438490418461,1878.3808350307709,1766.208948337904
0.61,4.269852060178318,11.1739574757801,-4.928607595363641,-23.361831474780313,1808.70113504396,1766.208948337904
0.62,11.45270923025996,-1.9508883797864138,-17.78986315127532,-22.74286092127804,1668.4980215693183,1766.208948337904
0.63,8.822961988560593,-7.674553430155486,5.987338178832548,-20.324214299895857,1639.251656271463,1766.208948337904
0.64,11.488329114578482,1.1715352110640858,35.12038889851659,-20.705558989074078,1721.7994480405712,1766.208948337904
0.65,3.4564446460855422,12.660398330665668,42.08605020300923,-22.798871274329453,1806.4950806338124,1766.208948337904
0.66,4.338540697855413,11.661816285190373,25.80450494793863,-23.61934402305148,1873.8345941067648,1766.208948337904
0.67,5.6415644584249645,10.807375063881567,-4.2338596428429405,-24.95074782825772,1809.309159647472,1766.208948337904
0.68,12.253686370156776,-2.512168833966661,-17.493200937298482,-24.189510180787575,1677.01843913488,1766.208948337904
0.6900000000000001,10.948554013186428,-7.609661148705448,4.041367666515565,-21.680896214347154,1638.918087730564,1766.208948337904
0.7000000000000001,12.700721453309924,-0.3191548067074299,33.05238429466505,-21.674012576090274,1710.3278543895133,1766.208948337904
0.71,5.943027472400819,10.288599096846522,42.48821602533526,-22.718531480530974,1804.9760900888814,1766.208948337904
0.72,0.3967191730486089,13.327430047669107,27.783933236541493,-23.68216754971611,1867.2625306571365,1766.208948337904
0.73,4.517886233637579,11.522099855611424,-0.986404397910343,-25.486217579047914,1820.7651849875294,1766.208948337904
0.74,12.703135135002034,0.48841643831594617,-17.378604202020494,-25.3197530225488,1692.1009738217037,1766.208948337904
0.75,10.044843693857286,-5.874081665111,0.3363898410631204,-22.856870000246563,1632.9934331733205,1766.208948337904
0.76,11.603657185858333,-1.8485112742430663,31.314841607308264,-22.434997885594473,1700.7383228211506,1766.208948337904
0.77,5.413982132688227,11.433740224901815,43.629070860435135,-24.299873053837636,1781.8194625647047,1766.208948337904
0.78,4.488525314981178,11.16065310960379,32.96295720662863,-24.63713701829404,1852.1300293507175,1766.208948337904
0.79,3.9989827465637258,10.84860832054736,7.095361874212931,-25.334312963369328,1841.34523405776,1766.208948337904
0.8,11.345670061795602,4.494097489144365,-14.57409427520079,-26.024497859072024,1724.861924042917,1766.208948337904
0.81,10.413184542151352,-7.081555663353359,-5.349906554186665,-23.711778370950586,1638.875328199119,1766.208948337904
0.8200000000000001,11.328008448780055,-3.513676268382336,24.511275506052463,-22.821085480725046,1694.2893039789317,1766.208948337904
0.8300000000000001,8.739031257775974,8.983114633104814,39.010987040362956,-24.03936775287178,1783.8210870377002,1766.208948337904
0.84,1.9696100626699093,13.093221426150395,29.87316813183797,-25.14572203680652,1852.3789498270462,1766.208948337904
0.85,4.4981276181510905,12.551678202878056,4.518926637126388,-26.742349620595217,1835.3647380135026,1766.208948337904
0.86,12.420266865417682,1.5985274443215962,-15.78416677246489,-27.032449974090053,1720.4419892821177,1766.208948337904
0.87,11.795702383348091,-4.361695519449552,-5.529192417645819,-24.82732000757637,1631.3449727677432,1766.208948337904
0.88,11.2703083025368,-4.613754071155967,26.265448505212046,-23.67136090427031,1680.6821916007013,1766.208948337904
0.89,7.386844675156844,9.63239603015308,43.82283564902481,-25.20477718220242,1760.3328330683603,1766.208948337904
0.9,4.253992797624544,10.873806195325553,38.48210182795755,-25.202763587330494,1839.2229450412804,1766.208948337904
0.91,1.9775216878415542,11.855679996748421,15.298516944371661,-25.647309215013465,1868.6439078389287,1766.208948337904
0.92,9.761935224254023,7.239222924850745,-13.28953275025588,-26.891283189809823,1756.6414547790428,1766.208948337904
0.93,10.565355328253705,-4.947614824617548,-12.365850533973896,-24.86905503184989,1641.1124017186207,1766.208948337904
0.9400000000000001,10.381555293274497,-5.325388875035569,17.634102493670074,-22.99347842926437,1667.4987683350814,1766.208948337904
0.9500000000000001,10.919437036587379,7.38647365557597,39.01799337227546,-24.323667903997446,1759.5892470121616,1766.208948337904
0.96,3.500485488663126,12.86562781683959,35.69453991192067,-25.56010682658766,1839.254959829445,1766.208948337904
0.97,6.022971797810161,11.754252956639899,12.197818342657579,-26.375763535969686,1851.9176659860016,1766.208948337904
0.98,9.921535789407558,6.278539335772333,-12.301524284227675,-27.206236052159607,1754.7234482982037,1766.208948337904
0.99,12.495567141870922,-4.651728665858908,-11.093653673511174,-25.2784734383946,1639.2513537841585,1766.208948337904
1.0,10.580110712405023,-6.911791154115023,19.25896626999257,-23.458171848111505,1665.5858765631833,1766.208948337904
1.01,9.321890533805078,7.003013581477798,41.090798589928056,-24.742840723311048,1744.1062813925653,1766.208948337904
1.02,4.110211893352732,10.79463792572202,40.51827263325316,-24.867783763638727,1831.613510830517,1766.208948337904
1.03,0.8340825458427672,13.224005934650348,19.340630199836568,-25.66005192571039,1868.6011990438235,1766.208948337904
1.04,8.042436002174007,8.289160707128937,-9.570361301890966,-27.018079446547354,1779.9097599218337,1766.208948337904
1.05,11.503001323555086,-2.5487476872012236,-14.851937129081636,-25.545589374558496,1659.0732065118493,1766.208948337904
1.06,10.651392711749992,-5.3608782379612,10.849791955500484,-23.3585192291859,1653.5405747489465,1766.208948337904
1.07,11.766396278686491,4.4018654958113554,36.03283689695286,-24.302594787643798,1737.45314926368,1766.208948337904
1.08,4.987753540032905,12.365277692056372,38.47509976531018,-25.72274044470112,1813.9531158860073,1766.208948337904
1.09,5.301885994523254,11.045547568201568,20.661909555905055,-26.094513230454936,1864.3147832316488,1766.208948337904
1.1,8.425564597961985,9.54346638904023,-7.061113553787341,-27.211714493041892,1783.6946481731713,1766.208948337904
1.11,11.696408889802354,-3.48606467006303,-13.614972383152155,-26.076956467301155,1660.2428844599822,1766.208948337904
1.12,10.079754018204557,-7.02698107396472,11.800443214776427,-23.90496354395578,1659.5921740256404,1766.208948337904
1.1300000000000001,11.008095848890871,3.652830888625541,35.55446900031335,-24.780156354479722,1730.3892648073902,1766.208948337904
1.1400000000000001,5.349594382188037,10.243286687996696,39.32168278348364,-25.16878927920765,1819.1204249291386,1766.208948337904
1.1500000000000001,2.26252840278845,13.139967389775109,21.251993969051735,-26.178881649004545,1860.9571972029698,1766.208948337904
1.16,7.42859448345061,9.129683410068106,-5.925614060748049,-27.4529566139996,1793.6559007642538,1766.208948337904
1.17,12.934544327976988,-0.9430309681709579,-15.183050914900805,-26.52201833598526,1676.5952206132795,1766.208948337904
1.18,11.77229052530453,-4.882820005710796,6.025928714138973,-24.328570959371135,1647.1207315627855,1766.208948337904
1.19,11.97433659418554,1.9167013335853778,33.059249925314866,-24.703966228847634,1722.3979350143215,1766.208948337904
1.2,6.37817425762545,11.708828759408082,39.47718108274691,-25.93210421408155,1798.9809772470119,1766.208948337904
1.21,4.491526561653217,10.79529166459058,25.319126303376063,-26.02203579656703,1853.8069841724098,1766.208948337904
1.22,6.694402841419571,9.628424595950555,-0.2951610096165457,-26.85635966379711,1806.2355239960782,1766.208948337904
1.23,11.68968354313154,0.883016443877878,-12.83982623501341,-26.53869514838725,1690.3545969973752,1766.208948337904
1.24,10.30585543909315,-5.365238272613391,4.779827891401989,-24.52640672997994,1657.5542116645004,1766.208948337904
1.25,12.104771782584411,0.20781104013062457,29.22733380400065,-24.634089983140036,1716.504527950215,1766.208948337904
1.26,7.0705048819526635,9.218094217229716,37.329853858911406,-25.346784142847778,1803.1008193105633,1766.208948337904
1.27,3.813200467749523,12.776434556265396,23.31907877176323,-26.663596289808357,1853.0905044738977,1766.208948337904
1.28,6.949432052465836,10.634570992759237,-1.974475206187737,-27.920429623915545,1805.1110133088469,1766.208948337904
1.29,13.087089710274192,-1.797359157250404,-14.42757460560466,-27.10827571570561,1691.2413059974315,1766.208948337904
1.3,12.14145765554368,-5.510243531498171,3.0710165116600705,-24.891612319288424,1647.1259882932918,1766.208948337904
1.31,12.111721489935793,0.5707669701678997,30.237867699103454,-24.91723403356002,1715.5618164219447,1766.208948337904
1.32,7.666299440462992,10.90897019277872,38.577915234318276,-25.978492144405216,1792.8654110322764,1766.208948337904
1.33,3.976428352020362,10.840912770583547,26.296314001007083,-26.05062452735722,1848.2261615499117,1766.208948337904
1.34,6.129232550980336,9.786003922519848,1.996015606881918,-26.924742113004985,1814.3049928797836,1766.208948337904
1.35,12.379495905251115,2.3202409254076195,-12.828952999973469,-26.958098458833636,1705.0535418014836,1766.208948337904
1.36,10.714329721908863,-4.4337788014608,1.0822389681935913,-24.94642836273189,1653.0318645382765,1766.208948337904
1.37,12.16375787645567,-1.6009843366278247,26.841292940073167,-24.574510223223264,1705.9016555081157,1766.208948337904
1.3800000000000001,7.603325926538785,8.71391561356898,37.8948807294093,-25.46598574197696,1792.828838502863,1766.208948337904
1.3900000000000001,5.4107020786181605,12.186142982675646,25.968134868816122,-26.43708544245672,1857.4786159548864,1766.208948337904
1.4000000000000001,7.498140811275623,10.910489626621636,-0.632896507845933,-27.446556558674043,1812.6452224423092,1766.208948337904
1.41,12.047458817459411,-0.5436670650640365,-14.896634627415695,-27.0972381252378,1696.7763536667824,1766.208948337904
1.42,11.418098129554654,-6.885115313605011,1.437473008797451,-24.665751767242362,1644.4363484471066,1766.208948337904
1.43,12.296753243598168,-0.3204314349951334,29.323058056989673,-24.545652536549618,1709.9374068648726,1766.208948337904
1.44,8.662870867830087,9.976969203576203,38.97737903314332,-25.420778316697454,1791.9453092455092,1766.208948337904
1.45,2.854150208435586,11.532293062944657,27.271069691363703,-25.709086711779037,1849.9964523311226,1766.208948337904
1.46,5.423023992012566,10.477145696568845,2.558327430610235,-26.9111714675079,1821.270825416756,1766.208948337904
1.47,13.122818875075133,2.359958166949061,-14.220159197893366,-27.06514288820034,1709.750130717891,1766.208948337904
1.48,10.99932704140857,-4.361211245019953,-1.364078052465134,-24.922502139962678,1643.5770984782564,1766.208948337904
1.49,11.873072228005313,-2.739469050529614,26.97860922597584,-24.253852299275177,1696.136274575639,1766.208948337904
1.5,7.289360848474587,9.047318983331339,40.542552916412305,-25.44406327057077,1775.592812232768,1766.208948337904
1.51,6.519387172931973,11.340950195380996,31.721028792449335,-25.996859265063158,1844.3322687445093,1766.208948337904
1.52,5.49834317003994,10.532956680590376,7.62305230424497,-26.53520144733055,1835.514857905854,1766.208948337904
1.53,11.126711723366514,4.78162561507367,-12.619655872079637,-27.09517394277333,1727.4861682498874,1766.208948337904
1.54,10.80407728679487,-6.161279851342089,-4.305816349002738,-24.962001150145472,1648.0246568383525,1766.208948337904
1.55,11.63704128055398,-2.6284357104219573,23.14737854033163,-24.122850880704853,1696.0709920178144,1766.208948337904
1.56,9.77163232861121,8.98454953134044,36.984004423107464,-25.2502089171164,1777.7785754085473,1766.208948337904
1.57,3.276374309417071,11.75140755218135,29.217972947870592,-25.868066052407414,1841.7418103932237,1766.208948337904
1.58,4.836878955154401,11.720826024904474,6.445695865351347,-27.411477347189198,1833.0654244828445,1766.208948337904
1.59,12.215099612783611,2.3238722342107807,-13.336980574605926,-27.790385594502084,1729.5981067515572,1766.208948337904
1.6,12.269230401545473,-3.4919865399577983,-5.694212411452268,-25.852123497506383,1640.714293554448,1766.208948337904
1.61,11.49824672524447,-4.6871770623784705,23.701437571834745,-24.66837732668756,1680.964591895736,1766.208948337904
1.62,8.360288143192241,8.056561925347248,41.266931998711954,-25.98028068748236,1756.5498636805269,1766.208948337904
1.6300000000000001,5.945426475838225,10.703571065228262,37.030990662493075,-26.11506269817197,1831.2843940355874,1766.208948337904
1.6400000000000001,3.2992081838445095,11.135990064025638,15.667304570586936,-26.343569517494817,1862.3136144617808,1766.208948337904
1.6500000000000001,9.975870843688204,7.311675438081757,-11.41180750035699,-27.411911568443923,1759.1820758914241,1766.208948337904
1.6600000000000001,10.842675876210839,-4.1882731308131955,-11.311551684320603,-25.595616373390587,1649.3585345764004,1766.208948337904
1.67,10.664684470605039,-4.765685785581608,16.486244865046945,-23.815062360603847,1668.799736759231,1766.208948337904
1.68,10.831907127681774,7.54003230716899,37.57453870721306,-25.12373407652871,1754.5853255187967,1766.208948337904
