t,iq,id,vq,vd,omega,r
0.0,0.0,0.0,0.0,0.0,0.0,2113.379597410294
0.01,0.0,0.0,549.4786953266764,0.0,69.91173180017483,2113.379597410294
0.02,11.552366057363669,0.01004274745288386,926.2014586348962,-0.0026111143377498037,82.03998813904826,2113.379597410294
0.03,12.218344789461343,-5.33758638184157,1206.3536349964672,-2.394977108271767,100.413159938709,2113.379597410294
0.04,12.665011192811145,-4.16836529874076,1411.9833913086904,-3.9683855464545856,132.39386401801195,2113.379597410294
0.05,13.071725773040747,-2.6282623712635713,1558.2411779154195,-4.835643775544273,181.04928810341647,2113.379597410294
0.06,13.323927301975136,-0.5007384841004905,1655.7864381454715,-5.099780872262856,252.8208943822151,2113.379597410294
0.07,13.106841789538507,2.447136302248964,1710.9816050922602,-4.766541568083172,361.68905376119994,2113.379597410294
0.08,11.708767936874093,6.378285912234326,1725.02105196571,-3.7405073688714356,518.3989177188281,2113.379597410294
0.09,7.760735727644765,10.841990534188627,1696.0684174098783,-1.7335436590796793,600.262657877545,2113.379597410294
0.1,11.810249843011169,6.188358136326016,1654.4807371935142,-3.5807103694747755,753.6466073977552,2113.379597410294
0.11,5.05801513291038,12.336703801787062,1585.1491293727483,-2.1181773024118473,873.7296299917349,2113.379597410294
0.12,7.466794138366776,11.04648193195595,1503.6104662082753,-3.264561859259351,969.2366868003372,2113.379597410294
0.13,8.454919374201921,10.309806795159778,1418.6448542715225,-5.5844218074723315,1053.6839881342041,2113.379597410294
0.14,8.442380151031394,10.320077284751742,1333.846208931691,-8.068801322145026,1140.000679860293,2113.379597410294
0.15,7.481992739475533,11.036193294076227,1248.9005083621319,-10.108576697314763,1237.5732335984505,2113.379597410294
0.16,5.307823070290617,12.231303774833998,1161.3252046903874,-11.228109053269204,1343.45346852725,2113.379597410294
0.17,1.4894506939794947,13.249879788435129,1070.0303732348655,-10.832372135345372,1436.7595271996743,2113.379597410294
0.18,-3.924495596514638,12.742688573873057,979.1116749586321,-8.103856679503496,1504.8682088259472,2113.379597410294
0.19,3.5560863362246034,12.850370724111208,892.6153330348616,-11.07514085414662,1589.9175530216621,2113.379597410294
0.2,-4.002441684947865,12.7184212202761,808.29678753074,-9.477326896540019,1653.2087223444641,2113.379597410294
0.21,1.386264913966477,13.26107263256194,728.0413624559621,-12.164486504952801,1710.3597998546857,2113.379597410294
0.22,-7.794025504883975,10.745455771849697,655.5613046791085,-8.526575242423332,1771.010354262625,2113.379597410294
0.23,-4.435503525173015,11.894992261474393,585.695088789857,-8.611798623142745,1826.3087958362767,2113.379597410294
0.24,-1.557402493050497,12.35861528962068,518.7202910909969,-10.969127360989118,1871.6624323103085,2113.379597410294
0.25,0.5556708400962229,12.191267820456247,456.2298781099763,-14.375377172114833,1901.1104582504654,2113.379597410294
0.26,-10.553957959827368,7.075088329114325,404.6644803604674,-11.746931627458787,1922.44492221336,2113.379597410294
0.27,-9.965847770622855,7.791680328424013,360.98160328767267,-7.921094823931972,1948.8807465512878,2113.379597410294
0.28,-9.208532703848693,7.930123464921166,321.5778705148034,-5.708022671070075,1976.8355077012081,2113.379597410294
0.29,-8.65972941530597,7.7058103141785725,285.00432540409605,-4.449686015543431,2004.0302398116562,2113.379597410294
0.3,-8.565251297468839,7.4701012082301945,250.81631607488114,-3.6982220641728896,2028.4020758291067,2113.379597410294
0.31,-8.83019547675362,7.154386037059215,219.185835574782,-3.0835218076267767,2048.026966844068,2113.379597410294
0.32,-9.447578982795108,6.805789791669415,190.72469734104166,-2.3480741980575144,2061.731426740312,2113.379597410294
0.33,-10.46587467536755,6.5174248716386165,166.18136992020243,-1.350065930141525,2068.942945234261,2113.379597410294
0.34,-10.963342080303338,5.562252780660014,146.00067439877378,0.15917819397641192,2069.9318282623176,2113.379597410294
0.35000000000000003,-11.380904232163918,4.620239621717509,130.42825328630596,1.049186859728404,2070.8236679374913,2113.379597410294
0.36,-11.699650841167323,3.7318102013340955,118.3401191160253,0.5952170536498305,2075.5039029104646,2113.379597410294
0.37,-11.940448729462993,2.8336932875608953,108.11329773106948,-0.6469286734123041,2086.3165966174583,2113.379597410294
0.38,-9.106593645439464,4.441801659894113,97.11430645231869,-2.950074185745645,2108.564548559595,2113.379597410294
0.39,-5.466308369873658,7.595217173327043,82.61981888632302,-6.311347620574706,2137.2587267154877,2113.379597410294
0.4,-5.3506821070569845,7.91936680638794,64.81390889275548,-8.62412724192279,2162.0395400377292,2113.379597410294
0.41000000000000003,-6.647190157607444,6.4639926256293005,45.81651090495993,-9.013526002804475,2171.7707406216227,2113.379597410294
0.42,-8.452125487197627,5.69847417291389,28.96999166211705,-9.433983665075118,2174.5727603061646,2113.379597410294
0.43,-10.94834696095054,5.2009860954314,15.752768797264729,-10.510446628084281,2132.2901226263957,2113.379597410294
0.44,-4.86909038971959,-2.3401992738936643,12.6044439017546,-9.849984955917614,2077.190386456793,2113.379597410294
0.45,-2.504347739926218,-4.675203538361496,22.80518351030951,-8.657834028682561,2066.377269197653,2113.379597410294
0.46,-9.204230495161035,3.7776816807252858,36.97394620776428,-9.662348591663713,2079.3556681711693,2113.379597410294
0.47000000000000003,-7.634691163239444,5.591509702678422,45.01922036763308,-10.31485088501043,2104.3896864394546,2113.379597410294
0.48,-5.915931790097845,7.285050064158438,44.848175599209924,-11.260877791853348,2127.1572259542463,2113.379597410294
0.49,-5.894790784904675,7.5532835948054,38.904023402518966,-12.206614484483895,2138.7699456973755,2113.379597410294
0.5,-7.039725626516424,6.51339454510343,31.29630265939609,-13.021572195753347,2143.7727164313287,2113.379597410294
0.51,-8.747318186026874,6.130963858539731,24.404234999486263,-14.0203826187932,2139.120879596435,2113.379597410294
0.52,-7.965139589857652,4.881338779382326,19.67953917283373,-14.880431984298879,2120.174382542556,2113.379597410294
0.53,-3.2234263979165743,3.543528163760814,18.844746096921934,-15.683948934700906,2102.220553778484,2113.379597410294
0.54,-1.4241231844986812,4.033515149986773,22.10983576478065,-16.670706730413563,2093.056809364551,2113.379597410294
0.55,-1.9290164911098278,5.775535962531004,27.293445705573635,-17.900208994945952,2094.356213220656,2113.379597410294
0.56,-2.9878075697004602,7.9410234307669985,31.569050394065417,-19.4452901988582,2100.6652749123987,2113.379597410294
0.5700000000000001,-4.435551628008857,8.68851737340168,33.829150875496055,-20.671431594433546,2105.7758502088905,2113.379597410294
0.58,-5.630712028785589,7.9863931940700335,34.585415836283545,-21.198815612082836,2108.6747283704835,2113.379597410294
0.59,-6.106326997475436,7.180620752623932,34.528380236402704,-21.32111968878581,2111.6683461608504,2113.379597410294
0.6,-6.168111613192619,6.844602317634643,33.74281801734333,-21.33565556757304,2115.985618401064,2113.379597410294
0.61,-6.027459622264455,7.018892903252421,32.078415697458496,-21.4558790614955,2123.3934181775903,2113.379597410294
0.62,-5.76156164031844,7.7676098178027875,29.017719229012194,-21.840778440904664,2125.123976422481,2113.379597410294
0.63,-3.556709220272117,7.656634364301111,25.36400156916676,-22.440572831602946,2118.1538053100594,2113.379597410294
0.64,0.4468195665129273,7.3207509630329834,22.761768867892123,-23.401201628776967,2109.3795224392925,2113.379597410294
0.65,3.197841293075958,7.553734389231421,21.99832035375239,-24.662481937394777,2101.134191342003,2113.379597410294
0.66,3.4659923385956763,7.32270746208056,23.346815638852704,-25.53359406599868,2095.0274363213543,2113.379597410294
0.67,2.6702544225541183,7.426065523848495,26.220175856132713,-26.086558029238997,2093.1894595880594,2113.379597410294
0.68,1.1175733364847513,7.5775569622793855,29.446672072679174,-26.311672185907366,2094.130049083084,2113.379597410294
0.6900000000000001,-0.5379291155700754,7.480180255468098,32.276033162887316,-26.21448088600713,2097.6953159846666,2113.379597410294
0.7000000000000001,-1.9072594422223408,7.423199907714958,34.04492256339263,-25.931912125427722,2103.0433282566887,2113.379597410294
0.71,-2.7296268276579205,7.7074405402738755,34.40833141997282,-25.69124633432463,2111.70564055523,2113.379597410294
0.72,-3.169106323362387,8.423097469611145,32.778412962002044,-25.700558324805677,2123.9445503177094,2113.379597410294
0.73,-2.530834634506631,8.975425606100885,28.512562115342806,-25.957470033405816,2123.739246614391,2113.379597410294
0.74,0.964278458338514,8.566545864059153,23.72859768172064,-26.661781627868084,2113.9776259594073,2113.379597410294
0.75,4.1206980760639444,7.365127694120636,21.188461698944465,-27.22578723346702,2101.10153623416,2113.379597410294
0.76,5.346464906884103,6.7959417980969254,21.971786302543702,-27.601013495334733,2091.3690461942156,2113.379597410294
0.77,4.791450000771128,7.069533085399875,25.25952933408415,-27.857271953864604,2087.2607044332176,2113.379597410294
0.78,2.9627880612688067,7.484441932262787,29.50611297030613,-27.87618708436283,2087.3644638302967,2113.379597410294
0.79,0.7314340161658173,7.636592684149101,33.541121635639854,-27.582381112225498,2090.307236995944,2113.379597410294
0.8,-1.3271405727012855,7.509946967923975,36.61240202791917,-27.01206914227758,2094.8890071914707,2113.379597410294
0.81,-2.797223457249684,7.420350002880782,38.3388217040804,-26.335024514202203,2100.8378855358806,2113.379597410294
0.8200000000000001,-3.6229086893442903,7.600265955427398,38.50588640598879,-25.767380065417694,2109.5356566269143,2113.379597410294
0.8300000000000001,-3.9669775840344528,8.27718247832142,36.677241717816685,-25.5339411669716,2122.2221003117397,2113.379597410294
0.84,-3.1137267542319886,8.738509366248191,32.08383119716626,-25.602229369186656,2129.5099534185515,2113.379597410294
0.85,-1.6480809094516862,9.529364963051489,26.092546833775963,-26.31007816510918,2122.8936375679264,2113.379597410294
0.86,2.3791746134891034,7.935298684234809,21.44920068189754,-26.900224457710266,2109.550239175504,2113.379597410294
0.87,4.722561420396326,6.906881077600379,20.272291762372262,-27.32652681729367,2097.7679618770667,2113.379597410294
0.88,5.17338965577079,6.958729015237104,22.20071751022298,-27.731377935755138,2091.4444416978736,2113.379597410294
0.89,4.035299413254468,7.3346792830127345,25.73521380673759,-27.981593115706804,2089.8791347672377,2113.379597410294
0.9,2.2043406283087266,7.531287889444545,29.53138688835754,-27.956305239210316,2092.197728717736,2113.379597410294
0.91,0.36032300215072866,7.5945187079848235,32.534442788101536,-27.68462443060062,2097.372515115704,2113.379597410294
0.92,-0.9820981766367161,7.876007566822702,34.0542614845273,-27.36025782163099,2105.331330047786,2113.379597410294
0.93,-1.805593920335725,8.358118764665681,33.597872045279146,-27.170463236938396,2116.702228157117,2113.379597410294
0.9400000000000001,-2.0653132488898818,9.164618180246558,30.671181074195058,-27.289615642471166,2122.1328327859565,2113.379597410294
0.9500000000000001,0.14834055500285082,9.195846280819566,26.187695983910622,-27.772741157337308,2116.3544158271675,2113.379597410294
0.96,3.439650683404026,7.991009158484053,22.800503857698303,-28.189586479930288,2104.663741555318,2113.379597410294
0.97,5.071751850374636,6.933965126912798,22.412469827092153,-28.33277484868172,2093.811683006076,2113.379597410294
0.98,5.107525914114233,6.961114376175273,24.839021904177944,-28.417777407698892,2087.577206902126,2113.379597410294
0.99,3.6654079286758163,7.35834891006319,28.831824902688638,-28.356423652510315,2086.2550751301706,2113.379597410294
1.0,1.4650493058561964,7.653863210404814,33.03166174992263,-28.041874376071974,2088.188618986643,2113.379597410294
1.01,-0.7687401526853423,7.62415748903847,36.54989608515141,-27.447655683449476,2092.070066936976,2113.379597410294
1.02,-2.5897422431422545,7.396235256952734,38.89824954736506,-26.661862761845526,2097.266138977829,2113.379597410294
1.03,-3.717713927090796,7.387717671674791,39.8042937321448,-25.897923520151892,2104.032545066341,2113.379597410294
1.04,-4.2628902791803895,7.645294114148142,39.05489545429236,-25.346243036331092,2113.4851263420856,2113.379597410294
1.05,-4.259048643667853,8.3858482616338,36.26171174975895,-25.197436815173756,2127.7935408313474,2113.379597410294
1.06,-2.9727511383252887,8.795449244341544,30.44896288037328,-25.341710999945008,2130.698238825787,2113.379597410294
1.07,-0.3912173098859415,9.24113140334904,24.029328283143105,-26.228741024603785,2120.6049176687343,2113.379597410294
1.08,3.2108277397562635,7.40859521897047,20.072658391379104,-26.778521506818436,2107.04823901384,2113.379597410294
1.09,5.149162701899586,6.845332743020211,19.685501459759937,-27.293444948821804,2096.9053128413298,2113.379597410294
1.1,5.162207079807431,7.071316380115885,21.99187828795882,-27.76641606135775,2092.054964012134,2113.379597410294
1.11,3.8617908177754536,7.418300875901717,25.512169361920765,-28.04430024113962,2092.175515629866,2113.379597410294
1.12,2.064449201778746,7.5831627187515185,28.860693762588873,-28.04813745214798,2095.8088558116533,2113.379597410294
1.1300000000000001,0.5062673635120589,7.816769728320088,31.11438600846626,-27.8917792952842,2102.4262329903922,2113.379597410294
1.1400000000000001,-0.5806380017812209,8.244040787308423,31.6421082824493,-27.75989827705535,2112.6928558118557,2113.379597410294
1.1500000000000001,-1.2206683274432264,9.140702567783363,29.834909415181617,-27.88845759614257,2117.641174020082,2113.379597410294
1.16,0.7074502936556484,9.001252735945016,26.453464841259827,-28.24308503511742,2113.5529038125724,2113.379597410294
1.17,3.87969475689878,8.154765698703258,23.58490420155001,-28.69404779690151,2103.3716447728993,2113.379597410294
1.18,5.160957367781598,7.06993382254235,23.33039239346329,-28.773423165038324,2092.9669690701285,2113.379597410294
1.19,5.112993639360301,6.966974549298661,25.761834749660085,-28.737510065379443,2086.752792924417,2113.379597410294
1.2,3.61358064100323,7.385828957545467,29.77082235268851,-28.568682463574984,2085.4619948834893,2113.379597410294
1.21,1.3052557161885803,7.768529132609377,34.015936041649866,-28.169982383586287,2087.537627870464,2113.379597410294
1.22,-1.0783596115920586,7.824712156051406,37.58170808962728,-27.50248524867706,2091.089979999649,2113.379597410294
1.23,-3.070693179135933,7.530908869659393,40.093882372835274,-26.611434508239974,2095.560279334395,2113.379597410294
1.24,-4.49089491525486,7.088590338721458,41.368294493474906,-25.616392821655065,2100.718939661459,2113.379597410294
1.25,-5.1155792788474,7.234701990842241,41.29838615046981,-24.8095036408584,2107.7959691701285,2113.379597410294
1.26,-5.307632025943457,7.624884251057333,39.61558299075912,-24.327432606059126,2117.610391744811,2113.379597410294
1.27,-4.636461994655294,8.141129996342624,35.85602549990625,-24.225087676641298,2133.0901908093483,2113.379597410294
1.28,-3.166292997187461,8.70774952816963,29.000151970236022,-24.451341183760512,2133.111568645315,2113.379597410294
1.29,0.00344484376411458,8.927888383604955,22.11430890295412,-25.51852212385153,2120.613225995054,2113.379597410294
1.3,3.6393474310930456,7.12892613067352,18.41739987537434,-26.226218867408182,2106.4850229575795,2113.379597410294
1.31,5.408181919777151,6.81872412945895,18.490052993242237,-26.94189691164958,2095.398303516298,2113.379597410294
1.32,5.396530630729565,6.731921658991657,21.341905654671542,-27.443846517140422,2091.858334354545,2113.379597410294
1.33,3.664225087541655,7.472176546714263,25.18563988276019,-27.831038897386165,2093.7035067840507,2113.379597410294
1.34,1.8243981733686594,7.717455035591839,28.36703904708895,-27.92897906864145,2098.5942018969954,2113.379597410294
1.35,0.43664693118590403,8.121567644610037,30.13704557818365,-27.9170980827854,2107.4748060614215,2113.379597410294
1.36,-0.5026842813899814,8.823635005395285,29.696251236088184,-28.01050426955564,2113.6643754833467,2113.379597410294
1.37,0.3510687343356045,8.819432259281815,27.49316618328646,-28.229034438617077,2112.512741502114,2113.379597410294
1.3800000000000001,3.3974289557367143,8.476555775498422,24.88655090090039,-28.74593332780529,2105.2331375048507,2113.379597410294
1.3900000000000001,4.7379908773176584,7.472717977685191,24.076628632423223,-28.908399317329653,2096.0113159565644,2113.379597410294
1.4000000000000001,4.93680677145629,7.106465947905772,25.649236710005557,-28.86904685989851,2089.225775547309,2113.379597410294
1.41,3.861616095519587,7.369757532386769,28.97403574487096,-28.70709750073837,2087.002560500516,2113.379597410294
1.42,1.843397362152865,7.775133215042753,32.828142901057944,-28.362774344974454,2088.1718530456537,2113.379597410294
1.43,-0.41319515222594605,7.916795516920785,36.2879041131764,-27.777615949066597,2090.8552276241253,2113.379597410294
1.44,-2.4079230667531735,7.717939481891389,38.94665355038491,-26.968195251435304,2094.8597955769956,2113.379597410294
1.45,-3.9689663122672836,7.32773804427842,40.49084828228695,-26.02342693440238,2099.3769880908667,2113.379597410294
1.46,-4.834623100180862,7.142784543407666,40.84766674633729,-25.13757348179351,2105.0418596189793,2113.379597410294
1.47,-5.173298331066359,7.292270021086737,39.8736463594957,-24.4925313281746,2113.3119910750243,2113.379597410294
1.48,-5.168129656994751,8.085531309896306,37.179067832520474,-24.296214950170153,2125.798418684986,2113.379597410294
1.49,-3.7683603943243313,8.413420522566616,31.84110653685901,-24.390400247145465,2131.546093553456,2113.379597410294
1.5,-2.278942078770422,9.262865515513573,25.595830847156936,-25.190578473201256,2124.1251032761193,2113.379597410294
1.51,1.997138780944322,7.86898335905267,20.896329744562987,-25.97468890766176,2111.17080535043,2113.379597410294
1.52,4.340601381744333,6.975093346728201,19.595883708250422,-26.60796551362146,2100.6019638346625,2113.379597410294
1.53,4.818760383369112,7.067621850894522,21.119219076425672,-27.20242366927338,2094.9817094699983,2113.379597410294
1.54,3.8811320650740475,7.381842528877215,24.103783633772924,-27.626177255745688,2094.462515870427,2113.379597410294
1.55,2.330769378566133,7.60462708335449,27.12609384206756,-27.79967800119186,2097.785312852097,2113.379597410294
1.56,0.8879634086964286,7.858240545985576,29.17750132334487,-27.805268460216993,2104.417899284839,2113.379597410294
1.57,-0.1431117080772495,8.367396336434558,29.54033863009642,-27.83333568607585,2112.577087670138,2113.379597410294
1.58,-0.2767974811162357,8.928346904230933,27.894790112301486,-28.03382030925762,2113.0586778263223,2113.379597410294
1.59,2.315314810259285,8.399294916830291,25.45192896056067,-28.394068644495377,2107.5093669763955,2113.379597410294
1.6,4.620930642527823,7.813089463102746,24.03343307840146,-28.78526590805095,2098.749490593662,2113.379597410294
1.61,5.100169441410553,7.156895939289697,24.88056373070191,-28.843517243203408,2090.9840965563044,2113.379597410294
1.62,4.411320267879261,7.2349201623186845,27.73919595522585,-28.747573623066298,2087.4697540106263,2113.379597410294
1.6300000000000001,2.620029769967569,7.686185030633764,31.486742254474663,-28.49499210903043,2087.832948768457,2113.379597410294
1.6400000000000001,0.3796019499129355,7.9528855697275365,35.07409314692796,-28.011890497965403,2090.3845479734296,2113.379597410294
1.6500000000000001,-1.737235968817703,7.8900185973349455,37.91141701874887,-27.293500492282266,2093.9046173566494,2113.379597410294
1.6600000000000001,-3.4365314204341693,7.536973974491797,39.76469580053927,-26.40047009080363,2097.9165211806685,2113.379597410294
1.67,-4.550474309738501,7.155826866338657,40.550866091378744,-25.4674995931231,2102.8037126199233,2113.379597410294
1.68,-5.037037765780114,7.2250975932724515,40.129410920982636,-24.723456251425514,2109.7342396753616,2113.379597410294
1.69,-5.140039337867483,7.664891047099506,38.19435103057404,-24.322611348770444,2119.6665902367627,2113.379597410294
