t,iq,id,vq,vd,omega,r
0.0,0.0,0.0,0.0,0.0,0.0,1621.670884383357
0.01,0.0,0.0,421.63442993967277,0.0,145.70005120521353,1621.670884383357
0.02,11.57677865783404,-0.06944334882426184,687.679771016477,0.018055270694308078,181.87896472528814,1621.670884383357
0.03,12.785213875145061,-3.783660125404493,879.3145088803891,-2.5378641158184547,258.6265732366404,1621.670884383357
0.04,13.306076233739168,-0.8521226670493984,1003.8188840049238,-3.9898788699277383,401.17588566775197,1621.670884383357
0.05,12.853776248472506,3.543757036251467,1061.3371442362609,-4.4335808087713175,659.8204732226643,1621.670884383357
0.06,9.251643173218545,9.601295557018148,1039.314391378351,-3.659830659289812,787.5317874517812,1621.670884383357
0.07,11.700501930445755,6.393436662188258,991.55831302312,-6.238059712814361,1040.6087462631142,1621.670884383357
0.08,1.660106638274184,13.229581388968274,893.082025182677,-5.373222294956252,1285.1466876976838,1621.670884383357
0.09,-0.5186773302869634,13.323241032302317,759.020969946388,-4.255405872077604,1373.5502733420758,1621.670884383357
0.1,8.509232037727621,10.265025470299019,635.2728195764715,-9.454688279066259,1543.461198171653,1621.670884383357
0.11,3.116749022348798,12.96393664399304,501.46929786953274,-11.701008507766314,1704.3087018196877,1621.670884383357
0.12,-5.501436419725591,12.145450798446905,362.96686875269324,-9.534263527127713,1835.2832757101637,1621.670884383357
0.13,-2.219680667243793,13.147273310966114,225.99580288823867,-11.232539219674212,1936.8615303619495,1621.670884383357
0.14,-0.30388376197562894,13.329869933235857,97.23764890330365,-14.549499949903767,2011.1182838472246,1621.670884383357
0.15,-3.7707608410223252,10.884975969603715,-17.208747315038412,-16.24394027239326,1654.753967615202,1621.670884383357
0.16,7.772107526304975,-9.556292621679745,-23.974330525929002,-13.65045443106049,1247.8208128851081,1621.670884383357
0.17,3.7658677585775377,-12.790465894668728,73.14369236038532,-10.25503627221462,1374.6898127861643,1621.670884383357
0.18,6.10368294428436,11.854232674172966,121.56092964483462,-12.781619839060696,1568.9286001435169,1621.670884383357
0.19,-0.07540610176573193,13.33312010362144,110.48526770212288,-12.54958066908111,1668.460497886383,1621.670884383357
0.2,2.23678472036974,11.861991742959827,76.5294204795879,-14.51945900054102,1797.5679085321503,1621.670884383357
0.21,-4.563555171927441,12.528038233121418,20.857552676382753,-14.145134619525377,1808.777492090372,1621.670884383357
0.22,4.6493072068949,9.464423980252347,-27.285650511465207,-16.480604472059774,1398.707946173763,1621.670884383357
0.23,5.359973718623724,-10.55882751553003,32.23364190347858,-12.866669879817811,1469.4849461927734,1621.670884383357
0.24,8.291066870271159,9.165315136732715,65.91338016460887,-14.604445868983627,1598.043383025609,1621.670884383357
0.25,4.759534886433862,12.454902867650022,60.357911768133384,-16.999225973870608,1704.2151694834959,1621.670884383357
0.26,-3.2275275131589924,12.53326153118983,31.26627187323589,-17.47446597265481,1754.7019288194888,1621.670884383357
0.27,4.5703533767207825,10.696331484728313,-5.49812257117684,-19.426897354398445,1519.742067834302,1621.670884383357
0.28,8.220756627200844,-10.462349700405712,20.24198698663377,-16.599723117445674,1519.8735216509183,1621.670884383357
0.29,10.82448470541676,6.071907150555,42.80019817193022,-18.08089970739329,1636.3200897323231,1621.670884383357
0.3,4.383640554011826,12.592119490816492,33.47662253265159,-19.878737900982983,1702.3673041357392,1621.670884383357
0.31,6.633939511047239,10.552634119238828,8.70933796243764,-21.027231343276107,1608.9179585287636,1621.670884383357
0.32,11.518970641871315,-1.1974260232188119,9.903469910379648,-20.610374236046827,1520.6329615715497,1621.670884383357
0.33,12.891986080241535,-0.5025812401700342,32.80907390845951,-20.4916773738348,1573.765123175954,1621.670884383357
0.34,10.208612191484853,7.746854867664,39.42584517864137,-21.039488625267,1668.305971268205,1621.670884383357
0.35000000000000003,4.878732498694681,12.408696425650765,22.586788974486712,-22.617932937916162,1681.6319172097917,1621.670884383357
0.36,9.604701962419474,7.817052829873033,4.2086654834919,-23.514116307753103,1539.94320208729,1621.670884383357
0.37,11.136546562227629,-4.413666703983033,23.258018122178644,-22.288392436418782,1535.8375574686656,1621.670884383357
0.38,10.584709318455614,4.619349767468002,41.04988243125257,-22.753286101463235,1606.4143324606105,1621.670884383357
0.39,7.062485261216864,9.195391931987979,38.31828998058778,-22.71202664401507,1692.4597386846956,1621.670884383357
0.4,5.6337648426196605,12.084637829734096,15.476153307649312,-23.932452151444455,1651.7691222946335,1621.670884383357
0.41000000000000003,11.233528961887547,2.6785333747774813,5.065698583449877,-23.8962985027812,1510.9790764650288,1621.670884383357
0.42,11.10118839348693,-3.3326788920549526,31.355810337076843,-22.937322092889033,1557.5729264048173,1621.670884383357
0.43,8.777770273716193,10.036360236641672,42.91895201060219,-23.952709637702863,1641.1935742593234,1621.670884383357
0.44,5.426351018520726,10.344549070844911,31.486227087491983,-23.832029661507622,1689.0190911431391,1621.670884383357
0.45,7.238677674141198,10.202717766293313,10.26523924496672,-24.8505046421736,1603.619941950953,1621.670884383357
0.46,11.932933212951008,-1.2318521516588101,12.379752666103814,-24.073130613803293,1530.059330074154,1621.670884383357
0.47000000000000003,12.895391306793075,2.5164417161099184,32.73254154130217,-24.43850144597289,1580.715869858461,1621.670884383357
0.48,9.491574212519314,9.364176244924916,37.877359525748396,-24.962137963287056,1646.0945476519837,1621.670884383357
0.49,7.3929287499818335,8.87006136937427,25.80594920964487,-24.76205604109076,1661.2730321743174,1621.670884383357
0.5,9.33117434040159,7.047849009743665,11.90701750858898,-25.258665544389892,1583.7919315727224,1621.670884383357
0.51,11.529647958356923,0.6654134686313231,18.942809803728373,-24.788253886607603,1558.706889139299,1621.670884383357
0.52,13.23048941667861,1.652854371362766,31.01033095500058,-24.579411120861373,1599.3978050674293,1621.670884383357
0.53,10.11726028182634,8.684401082835647,31.617908525728097,-24.995601830428974,1641.539959546684,1621.670884383357
0.54,9.675448360647898,6.739846686356273,21.398035393260795,-24.832220677365758,1631.0904131998875,1621.670884383357
0.55,10.551990596515138,4.6903960017030855,15.458868367542093,-24.99718592618612,1583.7356900948507,1621.670884383357
0.56,11.639850887347102,4.193854362115879,22.158236370346334,-25.26329162561631,1574.2331473047784,1621.670884383357
0.5700000000000001,12.279365179179614,2.144388096482068,29.89259373987224,-24.95342357928108,1606.7454985391566,1621.670884383357
0.58,10.75305037025705,7.883507183512451,28.644915017886262,-25.17309383094533,1636.0851463765962,1621.670884383357
0.59,10.519200550846646,5.584682253679707,20.16020595205291,-25.030658087113217,1617.683920917094,1621.670884383357
0.6,10.616035570829657,4.660667234596331,17.78166270373117,-25.187209081222168,1594.1873932605636,1621.670884383357
0.61,12.210643983739427,5.35517985506984,21.52564067784754,-25.658496306619693,1580.133530353927,1621.670884383357
0.62,11.610482289995783,2.7058919850013536,28.00694882071394,-25.46536130143,1602.456073258891,1621.670884383357
0.63,11.336550312295092,7.018575695579535,28.022208862869302,-25.523018492882144,1627.092358490752,1621.670884383357
0.64,10.30917901541626,5.515351459901272,21.96726786086895,-25.485132817418187,1622.6727821477014,1621.670884383357
0.65,10.165032847236946,7.13291294532147,18.256416028774876,-26.012281820112822,1604.3913117603508,1621.670884383357
0.66,12.60076435976578,4.358728636590517,19.224911812467536,-26.131955214162463,1573.3192813589376,1621.670884383357
0.67,11.700843728926305,1.999203750607292,27.74473520138758,-25.773784139627107,1589.5879791509863,1621.670884383357
0.68,11.91125950676069,5.9916337288239525,30.83154744540919,-25.554781065406207,1627.5955768012257,1621.670884383357
0.6900000000000001,8.5445666895839,8.145435486236224,24.666899276696366,-26.16712966500504,1648.7293536285042,1621.670884383357
0.7000000000000001,10.399586116114062,8.344242709275983,14.092155665353411,-26.66350563409374,1601.0690559179689,1621.670884383357
0.71,12.872613423069703,3.4747088277988754,16.3624511926771,-26.742926378477986,1547.9599530698404,1621.670884383357
0.72,11.992584137702199,0.5211639355280022,31.56843927898111,-26.08300779944683,1573.9283610678658,1621.670884383357
0.73,12.077785900317057,5.022583168006324,37.67390163948934,-25.28170315092323,1642.7749809423335,1621.670884383357
0.74,7.528760871771836,11.004341757390813,26.778077688106993,-25.993221906484056,1665.9758284171467,1621.670884383357
0.75,11.078324767785936,7.419467509008877,11.092317685229029,-26.097047853262772,1593.7217267554956,1621.670884383357
0.76,13.110549775182166,2.4271922812683355,15.473427109760983,-26.192171436222388,1535.1801363366899,1621.670884383357
0.77,11.658669958623003,0.8611404430391087,34.13566519707993,-25.6354541708388,1575.2826495753275,1621.670884383357
0.78,10.0192733572779,6.310639253188571,39.94308884949741,-25.0721874741575,1635.4730914346376,1621.670884383357
0.79,8.559336881668093,10.223283715318384,29.873017473604264,-25.426715825912797,1667.4657577048517,1621.670884383357
0.8,11.253002113185495,6.589488654474153,13.073990859370358,-25.16937893766059,1615.056313607161,1621.670884383357
0.81,13.277954232647796,1.2139642389659817,11.857384522325596,-25.264626623164382,1532.5797127427631,1621.670884383357
0.8200000000000001,11.811517808941886,-0.8897966373437858,31.682410963912602,-24.54763351798206,1566.7105804986272,1621.670884383357
0.8300000000000001,9.99669895474977,6.045648498174314,40.232573392168696,-24.42462980254535,1625.0181579105038,1621.670884383357
0.84,9.503297950398926,9.352278109836195,32.36811099462387,-24.49658739926315,1670.405818604175,1621.670884383357
0.85,9.090576462378817,7.560725450298398,14.928969470779759,-24.494452631265645,1623.9978262625054,1621.670884383357
0.86,13.333166493157638,-0.06670115078587013,11.06517924700698,-24.113902609081443,1536.7734624747213,1621.670884383357
0.87,11.601321791384372,-0.5559471146747459,30.07819790628646,-23.618580041935253,1567.5765668982701,1621.670884383357
0.88,9.641664582466017,6.360608139604054,38.88182429003716,-24.044665305941656,1624.2252040362725,1621.670884383357
0.89,9.769460857336572,8.682234398209264,31.412977620749288,-23.962602381839293,1668.6749193044004,1621.670884383357
0.9,8.896250988041514,7.4923541987921904,14.712207675049365,-24.22368810969299,1619.3329940821338,1621.670884383357
0.91,12.725201674783907,-0.0951638742996721,12.170573981238684,-23.750960340589568,1541.40356987933,1621.670884383357
0.92,11.589618235676248,1.0958787104842251,29.94747657731644,-23.633505408301996,1574.187801736441,1621.670884383357
0.93,8.937340840659362,7.617997770433156,37.313871311987356,-24.377976748226782,1627.4847215283494,1621.670884383357
0.9400000000000001,9.703487442203649,8.210877168382305,29.36075969874251,-24.160007763398365,1662.5658713806797,1621.670884383357
0.9500000000000001,9.498999111893076,6.714210102532574,14.439063671354447,-24.485999922793724,1608.8595452189536,1621.670884383357
0.96,12.096422367911675,0.3743865013067196,14.699160964114201,-24.04226182716065,1554.1357923389985,1621.670884383357
0.97,12.112386837989066,3.7962930917657207,28.9080130706836,-24.468591477101594,1584.589371968037,1621.670884383357
0.98,8.848713844712416,8.258000614565294,33.85840824325056,-25.187429035074285,1627.24104763417,1621.670884383357
0.99,10.91126820629482,7.135849761222096,26.38709763718388,-24.804841135297785,1645.8304161270473,1621.670884383357
1.0,10.556456824216374,5.214674307714199,15.90310874233896,-24.98705620979719,1598.769822366986,1621.670884383357
1.01,11.342592358488497,2.2284983290042297,18.696455096447828,-24.78742793261948,1581.2011661694742,1621.670884383357
1.02,12.693286002835189,4.081454180559428,25.482605297644877,-25.052790278331543,1593.5240694095921,1621.670884383357
1.03,9.584207705766103,7.138762447852281,28.585304398817254,-25.558213969280207,1618.5141600307315,1621.670884383357
1.04,11.886958963716495,6.039700685687813,24.179293328229306,-25.267581257525457,1622.4171162846014,1621.670884383357
1.05,11.10091533557629,4.080501629874176,19.78270413359509,-25.354314856966493,1603.7746545526322,1621.670884383357
1.06,10.754777299923195,6.268676119026704,21.036081837639866,-25.81795552654384,1594.2412696621502,1621.670884383357
1.07,12.994876697235537,2.9851226777843687,23.81896234241042,-25.461619936576344,1596.97065057751,1621.670884383357
1.08,9.873534516491446,7.106069898146513,26.29592418993225,-25.95353082628079,1611.6132170194094,1621.670884383357
1.09,12.323158177307395,5.090928237054574,23.937280546828518,-25.567363066587134,1612.3694347692235,1621.670884383357
1.1,10.526208727593083,4.792422338496216,22.246136240223265,-25.689710896784838,1617.5448591072466,1621.670884383357
1.11,11.127272538658314,7.345854860273121,19.732462127940465,-26.21049332101204,1599.757824311731,1621.670884383357
1.12,13.18194477407129,2.003524332548098,21.23843928338166,-25.70107960233475,1585.431844691271,1621.670884383357
1.1300000000000001,10.451850476395387,6.065678194382118,26.884086516842235,-26.04271860081611,1600.3155329132123,1621.670884383357
1.1400000000000001,12.734255683666872,3.9517730148346986,27.103260720429823,-25.350053862190443,1622.5272393543082,1621.670884383357
1.1500000000000001,8.972467142732995,8.499368862397898,22.857282511291366,-26.03690272773231,1629.431971793247,1621.670884383357
1.16,11.663514072920393,6.460666935275772,17.00520893453608,-26.231164258195367,1594.8642365211706,1621.670884383357
1.17,13.294227218015513,1.0204413033356157,20.13411987653263,-25.759760914930325,1573.4802863670247,1621.670884383357
1.18,10.789070396184574,6.068429944641271,28.911054588559335,-26.140483456056877,1597.8704930540366,1621.670884383357
1.19,11.362788811838477,4.634188084036573,29.68582965537356,-25.517872223218596,1641.7857561963388,1621.670884383357
1.2,8.949268199588449,9.883743039436661,20.352336545781107,-26.204367181716357,1637.5612419779688,1621.670884383357
1.21,12.074537465955109,5.655379983787484,12.774924714653128,-26.387186454004144,1575.4441161376178,1621.670884383357
1.22,13.333243777186805,0.04886876187396627,21.408625988588327,-25.994030766787354,1565.311461477377,1621.670884383357
1.23,11.159896531143664,7.296196762145698,32.057028604664474,-26.560296015487346,1606.2398349756893,1621.670884383357
1.24,9.320181509627636,6.81792322992541,30.68627409110326,-26.297228578492057,1643.06067442953,1621.670884383357
1.25,9.73597764943876,9.109803345155518,20.436444519426068,-26.60358904946036,1634.022981664106,1621.670884383357
1.26,12.511104535321161,4.609776684834527,13.511758349755489,-26.48962250976307,1568.9858992793197,1621.670884383357
1.27,13.283111814706022,-1.1561653410282702,23.578097989750514,-25.787677609479974,1571.7389091443479,1621.670884383357
1.28,11.784062180852594,6.238081138906204,32.15749573608057,-25.985563139679595,1615.2172086801174,1621.670884383357
1.29,8.365730802078557,8.410854515538368,28.876527866535433,-26.468633747026114,1644.4073638868035,1621.670884383357
1.3,10.42711691715167,8.3098141118696,18.400412197990075,-26.624283962898343,1622.7819877129061,1621.670884383357
1.31,12.857347101390943,3.5307794170879143,14.53085606967625,-26.450086698832,1560.0866399831723,1621.670884383357
1.32,12.530605698999327,-0.7638224816403392,26.84047420864552,-25.639376655681694,1569.6996496645515,1621.670884383357
1.33,12.352353080219624,5.019676399865482,34.98699292074637,-25.302786698195906,1634.642195182535,1621.670884383357
1.34,7.316988287110131,11.146275619419738,26.796660529517244,-26.190586859641655,1658.2900085240194,1621.670884383357
1.35,10.997171305484532,7.539230799995804,13.054370677181304,-26.29536287361813,1604.8544980858326,1621.670884383357
1.36,13.081729667290407,2.5780082796049664,14.459989898773003,-26.35424190235783,1538.6620390553248,1621.670884383357
1.37,11.932802209301489,-0.06473049334096981,32.31461380491558,-25.638970863971196,1569.809236284602,1621.670884383357
1.3800000000000001,11.038113655608223,5.398309607123977,39.60080235255321,-24.98418121041083,1631.1851073754187,1621.670884383357
1.3900000000000001,8.429123291530527,10.330907913342141,30.76045244898239,-25.41830282142904,1666.0468378416174,1621.670884383357
1.4000000000000001,10.971371118439821,6.83201018545283,14.201405056962697,-25.148704563441274,1620.0873269581434,1621.670884383357
1.41,13.26316548600475,1.3660962881986434,11.5474467151247,-25.196801844321612,1536.2677609088332,1621.670884383357
1.42,11.913233404001499,-1.2332726793533055,30.460650651991717,-24.43260566004735,1564.5046140870209,1621.670884383357
1.43,10.61531583953403,5.3800618257337085,39.644900377857745,-24.2376834214879,1622.5721316829806,1621.670884383357
1.44,9.368792855418093,9.487017350571499,32.6027685208589,-24.42181130001768,1668.7054083221858,1621.670884383357
1.45,9.061305366471,7.623437137615163,15.547298291793428,-24.41573617607393,1626.6087778145622,1621.670884383357
1.46,13.332944754206121,0.101793708377377,10.941704444906152,-24.051043420868396,1539.1369476537043,1621.670884383357
1.47,11.637221272098465,-0.7574505465301415,29.36509969550459,-23.52554011709325,1566.5587718014106,1621.670884383357
1.48,10.017052515047375,5.851005659472167,38.45836767248968,-23.862291132432482,1622.994325772784,1621.670884383357
1.49,9.950560895230158,8.716182855640985,31.371027633711876,-23.85665664322462,1667.842058444332,1621.670884383357
1.5,8.951943551407638,7.47043096398043,14.868880621600315,-24.11286433601644,1620.2837518793,1621.670884383357
1.51,12.803985189474293,-0.08104064076803086,12.055272409916203,-23.657750743790686,1541.7008546397842,1621.670884383357
1.52,11.564953356485994,0.8892932373438875,29.774271120551003,-23.50691516723535,1573.5014308268628,1621.670884383357
1.53,9.091391285316835,7.301100280466484,37.30382913588255,-24.225007063346663,1626.9113477719352,1621.670884383357
1.54,9.753193273674137,8.270368306771314,29.496785080349525,-24.05461043069285,1663.063022011131,1621.670884383357
1.55,9.465968517916528,6.780389505899635,14.43430893134796,-24.381550536918237,1609.844462946734,1621.670884383357
1.56,12.197449200240875,0.2571186662783207,14.428646994683978,-23.932695917244892,1552.5809919995381,1621.670884383357
1.57,12.000875176562474,3.476192177816729,29.07971017082234,-24.29718529913202,1583.6625821657212,1621.670884383357
1.58,8.839478293179049,8.173457104524529,34.23632353462026,-25.023904579937838,1627.8861281166462,1621.670884383357
1.59,10.750096118347143,7.312408538515509,26.57000021811366,-24.68434865410276,1647.70697764761,1621.670884383357
1.6,10.539662655012807,5.290641092508115,15.594121849367468,-24.870408222676655,1598.85681453105,1621.670884383357
1.61,11.452672398439807,1.8450565971794628,18.378017087747164,-24.620668352549764,1581.2392575944596,1621.670884383357
1.62,12.629552136583403,4.274598297746734,25.26598964706671,-24.982553208850312,1592.222357105661,1621.670884383357
1.6300000000000001,9.694941666206752,6.759492075512516,28.68775886281223,-25.435544656539175,1617.8628278863234,1621.670884383357
1.6400000000000001,11.804883226609917,6.198589338218941,24.46103332450194,-25.197149317173057,1624.110045241822,1621.670884383357
1.6500000000000001,11.168504324468497,4.044808878207116,19.575826009251532,-25.251119233698763,1604.0390647250417,1621.670884383357
1.6600000000000001,10.737298606529475,5.948922791984543,20.78192988187264,-25.664660263710065,1593.8808654520049,1621.670884383357
1.67,12.948912097654842,3.178592969379023,23.73915604427257,-25.397331195259376,1595.8476677006408,1621.670884383357
1.68,9.906920300665734,6.836008770894539,26.487722982054475,-25.84816370834659,1611.4282593826722,1621.670884383357
