t,iq,id,vq,vd,omega,r
0.0,0.0,0.0,0.0,0.0,0.0,453.8757179977801
0.01,0.0,0.0,118.00768667942283,0.0,59.72547807261444,453.8757179977801
0.02,11.573715845566213,-0.899213657724679,190.3651073205607,0.23379555100841654,113.3778664218168,453.8757179977801
0.03,12.21657237494401,-5.341641806180249,231.24680564592762,0.9616500809153569,126.40925269353495,453.8757179977801
0.04,12.782112243245663,-3.7941249819750347,259.30016666326185,-1.5506914457699252,153.08246242498808,453.8757179977801
0.05,13.192988043688846,-1.9294673505558162,273.77361837035056,-2.9757733121877035,194.04556123120508,453.8757179977801
0.06,13.326363424803752,0.43106339189326004,274.46099019754575,-3.5208815498720734,256.84209489177266,453.8757179977801
0.07,12.87944470679501,3.449301642707945,259.2566091534191,-3.274530920453232,350.4801293396129,453.8757179977801
0.08,11.225546522216844,7.194781654457836,224.2927928604963,-2.2224674184471147,387.70005317362956,453.8757179977801
0.09,13.27387674576332,-1.2577654455666682,188.0705991577689,-3.0473821383879813,431.5927540278294,453.8757179977801
0.1,12.625618672074614,4.286202389661344,150.99916731244858,-4.167186146898603,533.182277775732,453.8757179977801
0.11,9.08674662905523,9.757500370337228,97.74591356878058,-3.047756248768212,564.6795910119213,453.8757179977801
0.12,12.554843404253662,4.48928556370009,49.91627187947829,-5.1498183694423085,616.7634357600945,453.8757179977801
0.13,13.27640690991769,-1.2307710347857492,-0.19997106987519087,-4.103020581103235,557.6345292722432,453.8757179977801
0.14,0.03916111255515631,-13.333275823481681,-25.425802643777615,-0.6486765773458549,419.1643113300947,453.8757179977801
0.15,-6.593850290234498,-11.58874092072785,-13.648456110848253,2.231063303808569,343.43333769012,453.8757179977801
0.16,-12.228926155289763,-5.313298680315996,17.83303099993951,3.4966335514834492,376.5979742562577,453.8757179977801
0.17,10.995303520229843,3.5914778669977907,33.83975239284607,2.509716319260864,443.55168810641226,453.8757179977801
0.18,13.170790235478972,2.0755872303493943,30.93898973479155,2.1441986775822945,499.34736079759574,453.8757179977801
0.19,10.671318253004618,7.993794125499368,15.23503018819398,-0.09233732353870713,515.2181494285447,453.8757179977801
0.2,13.226311399190715,1.6859610165764272,-3.5914133370662116,-0.4507492465935845,469.13200874644343,453.8757179977801
0.21,-7.707490935040461,-9.27904885401369,-4.808413860308604,1.9786630656157391,413.01928030116056,453.8757179977801
0.22,-5.881562936979818,-11.965993280798843,7.418954302563457,4.997030830083301,411.659287169205,453.8757179977801
0.23,6.34625035520958,4.2744000665428175,16.277821219302496,3.76602687997418,446.8448273132893,453.8757179977801
0.24,12.08059922983328,1.2455428883695356,14.606195192779802,3.484929729663529,469.49232804629,453.8757179977801
0.25,12.422867848546481,4.842533654537451,7.366428024998561,2.238326408367487,470.82208625081796,453.8757179977801
0.26,7.202818096835889,-4.990157329485398,1.3680343530019494,3.5841926505790647,444.3225307412872,453.8757179977801
0.27,-5.728706527136328,-9.112436626621601,5.582818600244284,5.903524600205828,442.2192124347094,453.8757179977801
0.28,-1.822223514320108,3.4867086748931815,8.934469222529604,4.905855978467384,448.5486087784315,453.8757179977801
0.29,8.031639297360561,2.698188370625317,8.09650411147258,4.239194088853734,456.21269292828765,453.8757179977801
0.3,7.539235514836351,2.45564499194002,5.555734696463286,3.6277082746555815,450.20108539474126,453.8757179977801
0.31,0.22780198027231346,-5.092066754256501,6.550672762836022,4.976202080681671,448.2421176188864,453.8757179977801
0.32,2.4894098598999994,2.1024817151908293,7.333693991546712,4.378636167189491,451.633664399206,453.8757179977801
0.33,4.07280230275447,0.15983755251028442,6.82625742326988,4.358103220688725,449.57444624641505,453.8757179977801
0.34,4.090291796796311,0.4408198858839212,6.899419698499554,4.245088425884008,452.241269001361,453.8757179977801
0.35000000000000003,3.3920150178302646,-0.024779790331462825,6.4403427333869665,4.2559393702290285,446.9820079393717,453.8757179977801
0.36,3.000102735011478,-0.9250178541406111,7.470256297684271,4.496196214402272,451.9039119234817,453.8757179977801
0.37,5.036188421389507,2.024269860629016,6.634580814206614,3.9606358720973223,447.70424534294307,453.8757179977801
0.38,3.5394048500148343,-2.076898157333402,7.349562266931296,4.520872091610298,451.4241818833844,453.8757179977801
0.39,5.026359734368534,2.1550348087485447,6.653787447690139,3.939794059762342,448.6346682404198,453.8757179977801
0.4,3.096524141393784,-2.5654803427998747,7.237112344041165,4.628369296977795,450.57585152585096,453.8757179977801
0.41000000000000003,4.811496001965761,2.24910293028542,6.8226434100719775,4.017947731675587,450.7246449157319,453.8757179977801
0.42,3.1011345090913442,-1.9971448614688756,6.8507437343411235,4.559696424960348,449.33825056797804,453.8757179977801
0.43,3.9234648685899054,1.2329136791500508,7.0098850145267155,4.219167419766647,452.0112128981137,453.8757179977801
0.44,3.5669838505222318,-0.2922603730317379,6.5611005136920815,4.307484253546398,447.7350426931428,453.8757179977801
0.45,3.3812831580128098,-0.33220022303972435,7.295567259323002,4.390933707806409,452.0333167555,453.8757179977801
0.46,4.506741636619998,1.26506721889805,6.575244835328388,4.058694228662518,447.3107636021571,453.8757179977801
0.47000000000000003,3.463450555590523,-1.5934159218898274,7.408279237680226,4.485633040542854,451.6787007374814,453.8757179977801
0.48,5.078175469421642,2.065715702699008,6.6281630649079375,3.932612798622214,448.0008721596599,453.8757179977801
0.49,3.2972802483988812,-2.432427514872457,7.327141700326716,4.585701109516042,450.99727258498154,453.8757179977801
0.5,5.020136769666119,2.313190299671568,6.744526291643936,3.9599473564527097,449.6972303505752,453.8757179977801
0.51,3.0794825191798934,-2.4341574653587683,7.051684538499116,4.615960200442705,450.02519729360426,453.8757179977801
0.52,4.381303179366792,1.8325339612207752,6.902691043669218,4.115159795871717,451.57604361694086,453.8757179977801
0.53,3.2691117484931325,-1.1545588586622504,6.655945152831115,4.43367043873611,448.35992797259087,453.8757179977801
0.54,3.5389861396705706,0.39303173553311765,7.179608536742506,4.319936598910877,452.0812838048807,453.8757179977801
0.55,4.093142026085401,0.6161946435706518,6.5621764612589635,4.1636563089378384,447.39050283422057,453.8757179977801
0.56,3.4548018280774198,-1.0262474362761846,7.373071006816173,4.436642588805352,451.89313459088527,453.8757179977801
0.5700000000000001,4.867158605140422,1.7362562869510179,6.592777321917497,3.9749534798353263,447.4478924317679,453.8757179977801
0.58,3.39002480828434,-2.121231518318697,7.411451270909193,4.543836237467697,451.34230678567565,453.8757179977801
0.59,5.1819495199041965,2.3112453329611524,6.6924533033039815,3.9217001357146097,448.80322976588747,453.8757179977801
0.6,3.207891840684353,-2.571023870638647,7.203733748096132,4.613278795410269,450.54545382319293,453.8757179977801
0.61,4.74738690369792,2.1532314115652325,6.816635874615255,4.0277283896969225,450.74082017949047,453.8757179977801
0.62,3.0715525686965077,-1.95151302426827,6.8472768668005735,4.556654090122324,449.25286117285657,453.8757179977801
0.63,3.918939623834454,1.204886744351048,7.029661886587803,4.223868406348368,452.0514535282155,453.8757179977801
0.64,3.629266674127699,-0.2179428753779804,6.5533221413905025,4.292582421390154,447.7023140120327,453.8757179977801
0.65,3.3726862711574856,-0.40631438023753075,7.299558769229518,4.396044731498132,452.0128958915855,453.8757179977801
0.66,4.527014358363316,1.305806872584715,6.578861606519747,4.05247180082373,447.2978066969679,453.8757179977801
0.67,3.465534321722088,-1.6313400268880192,7.414721543604869,4.489678276540463,451.6598384562695,453.8757179977801
0.68,5.105181976138775,2.0952235733873703,6.632379140810645,3.9286067471908654,448.0498042529211,453.8757179977801
0.6900000000000001,3.2914537872603056,-2.4594309451447605,7.320231754132589,4.5890110286623775,450.96196240016945,453.8757179977801
0.7000000000000001,5.006394321736688,2.310226381407215,6.750801086283831,3.963757860045053,449.77941041439817,453.8757179977801
0.71,3.0767484248499044,-2.4101257130062184,7.036812854743418,4.613492809240743,449.97445376607686,453.8757179977801
0.72,4.346835984627383,1.7929492366819932,6.910768607397819,4.123224750573362,451.6289853699882,453.8757179977801
0.73,3.291136679773768,-1.0828776639895088,6.643679271411778,4.422702435577454,448.27531512889345,453.8757179977801
0.74,3.516548990627747,0.32665764211290127,7.195925320278909,4.326942671988205,452.0759714109055,453.8757179977801
0.75,4.1451049738396115,0.6859874016657226,6.565293600885423,4.151852523976246,447.37927524022393,453.8757179977801
0.76,3.4671835671295073,-1.0784025897111391,7.376354574266004,4.4390970713178,451.87667733770127,453.8757179977801
0.77,4.888968535030503,1.7626500344718286,6.594680734874303,3.9700240364580126,447.51974834894446,453.8757179977801
0.78,3.383579907348391,-2.148680044260886,7.396401346410505,4.546307348310561,451.31703893915574,453.8757179977801
0.79,5.148059198390682,2.2994989925859244,6.693438612656389,3.9269508097956125,448.86023794902127,453.8757179977801
0.8,3.1825147330133987,-2.5650312235568045,7.195903396147864,4.616853917846241,450.50889361885413,453.8757179977801
0.81,4.7269856987998216,2.144478415557588,6.8239317998232085,4.0336392175657,450.8291254867155,453.8757179977801
0.8200000000000001,3.0827277753945905,-1.8972078482186618,6.82813824429615,4.548358042258128,449.1839625587467,453.8757179977801
0.8300000000000001,3.8770948718836657,1.1393167417124954,7.040311344398377,4.233163610930693,452.0646920390578,453.8757179977801
0.84,3.6599351208920003,-0.14491523062811895,6.551448356562765,4.2822347383111286,447.6666006293837,453.8757179977801
0.85,3.3734847346335437,-0.4597736474678605,7.307201932962801,4.400326734346491,452.00750768455765,453.8757179977801
0.86,4.558344165956386,1.3490704198556915,6.579410804914349,4.0449706887093315,447.29161647991265,453.8757179977801
0.87,3.460331248915894,-1.6771420625653,7.418492413369093,4.494518329174866,451.6349143300556,453.8757179977801
0.88,5.123644487228679,2.122523187989067,6.637716097608489,3.925890879672056,448.03425217833967,453.8757179977801
0.89,3.282281757506134,-2.4953742099719434,7.331932361906447,4.595913406144652,450.9254516394484,453.8757179977801
0.9,5.040540170569433,2.3432827889384025,6.7628693301052945,3.961706138920948,449.8911616545025,453.8757179977801
0.91,3.098846645962165,-2.3921428740533157,7.0140565895296785,4.607096114064194,449.9182400689589,453.8757179977801
0.92,4.295965321511235,1.7308758558294477,6.917192770457119,4.133146962808005,451.66272096176016,453.8757179977801
0.93,3.306750713136623,-1.0085269198530775,6.636201688333683,4.412672720528099,448.23386594674184,453.8757179977801
0.9400000000000001,3.5049936735557905,0.269114568685366,7.20272240325029,4.332617663471373,452.0813568477622,453.8757179977801
0.9500000000000001,4.171586127898796,0.7376882430461194,6.56327532522643,4.143509865966235,447.3577017970424,453.8757179977801
0.96,3.4599501142731715,-1.1291939969639717,7.382144757486014,4.444477187607328,451.8603658541056,453.8757179977801
0.97,4.91331038907154,1.8000696024797835,6.598094952818132,3.965167150992944,447.56159263457204,453.8757179977801
0.98,3.3790904116460876,-2.1800196219493113,7.390183622678215,4.549972948724562,451.2910637530604,453.8757179977801
0.99,5.137619417361131,2.3032465173872785,6.697062328275816,3.9293286579843776,448.9305020959339,453.8757179977801
1.0,3.1686579691188657,-2.562263248301171,7.184497042511341,4.618549567716555,450.46884526638826,453.8757179977801
1.01,4.699202667060309,2.125064952549002,6.830725679910265,4.040410047570803,450.9081486440085,453.8757179977801
1.02,3.092332729443456,-1.8402887171794955,6.811210501592263,4.540135763562962,449.1128088849709,453.8757179977801
1.03,3.8411048824219334,1.0767767651051812,7.052127235249674,4.241770917463819,452.07885717633303,453.8757179977801
1.04,3.6950945602787924,-0.07235044149575431,6.549368420849553,4.271349799903767,447.6303124179612,453.8757179977801
1.05,3.3741702453628113,-0.5154155043071358,7.3148719451964554,4.404634326608664,451.99933022816674,453.8757179977801
1.06,4.5899127154393575,1.3920832024139598,6.580643105937134,4.037538538937964,447.29102782867017,453.8757179977801
1.07,3.4565120299030943,-1.722009527885639,7.4211046715891715,4.49918184821237,451.61038791722524,453.8757179977801
1.08,5.138735194260569,2.1472657497966647,6.64273756063362,3.9236726579863803,448.1524936745482,453.8757179977801
1.09,3.2819506709080337,-2.4990258492987936,7.306202761374875,4.594892036302032,450.8955080301099,453.8757179977801
1.1,4.978526093194458,2.3007442325648606,6.762227832215326,3.971708277342181,449.94505017050074,453.8757179977801
1.11,3.0697590451897567,-2.358696996877371,7.0060472768138675,4.607976938855946,449.86712073001786,453.8757179977801
1.12,4.275075984344652,1.7096626572038356,6.928153722681544,4.139877678014175,451.72763275446096,453.8757179977801
1.1300000000000001,3.338663619759413,-0.9374421344246273,6.621268131972898,4.400709259536616,448.19150773999775,453.8757179977801
1.1400000000000001,3.4751181914873124,0.195450968916687,7.207537852974012,4.340517586274031,452.07279634300943,453.8757179977801
1.1500000000000001,4.189404781318712,0.7916579791428155,6.564961319408571,4.136641021386066,447.3432617889893,453.8757179977801
1.16,3.460748752012057,-1.1701857456153018,7.387470089436523,4.448805895037472,451.85081070118866,453.8757179977801
1.17,4.9372640325143395,1.8332189386830267,6.599540263528779,3.9604671135237313,447.5852840056339,453.8757179977801
1.18,3.3684486940479985,-2.215853249447629,7.388380008393535,4.554921147766946,451.2609461316447,453.8757179977801
1.19,5.137692680874017,2.3163679609144534,6.703200743580516,3.930506945434712,449.0084303896812,453.8757179977801
1.2,3.1640225237135926,-2.5580539174356813,7.171278873668077,4.6187646435771335,450.4291807020052,453.8757179977801
1.21,4.668151559163382,2.098751400650658,6.8366265143432114,4.047508740233606,450.9795103462959,453.8757179977801
1.22,3.0998490940508283,-1.783480974127154,6.79589588190977,4.532201307513172,449.04015411620907,453.8757179977801
1.23,3.8089962575639005,1.0172729403309644,7.064839878577292,4.249875533285849,452.0928554002681,453.8757179977801
1.24,3.733453475116179,-0.0007234498401667011,6.547420574160136,4.260236359647602,447.58587569177274,453.8757179977801
1.25,3.3753459263855623,-0.5714350296347764,7.324695541637844,4.408802232854242,451.9881551619495,453.8757179977801
1.26,4.627752771525887,1.437171425190294,6.583101194560847,4.029423312008419,447.3133971371711,453.8757179977801
1.27,3.4571753619703047,-1.7637564481142762,7.417840923563865,4.5023717027700325,451.58658792675595,453.8757179977801
1.28,5.139009342722511,2.1589257389222043,6.645820857935903,3.9234134461691164,448.1837264826724,453.8757179977801
1.29,3.2680856079034495,-2.5141154734630415,7.304535186525993,4.598672726658728,450.86028417885603,453.8757179977801
1.3,4.978152629227549,2.3054149891893303,6.769989236775045,3.9741236747348725,450.03547270094924,453.8757179977801
1.31,3.075450015246654,-2.332145692762285,6.988463198089973,4.60353570474496,449.81111575485306,453.8757179977801
1.32,4.235092279621102,1.6598876955026658,6.936487835733675,4.148643446986644,451.76740700526676,453.8757179977801
1.33,3.3612359983113427,-0.8649946313964538,6.6124322345931335,4.390140928104748,448.1409568751262,453.8757179977801
1.34,3.4602594242319853,0.13408209872622256,7.216331926240806,4.346629636121967,452.0712817799296,453.8757179977801
1.35,4.2209948437053555,0.8461969104926734,6.56528166653432,4.127959260381133,447.34197325379336,453.8757179977801
1.36,3.460099630634101,-1.2177524551918983,7.3885949822645545,4.453036867835953,451.83592581995674,453.8757179977801
1.37,4.949585123873695,1.8595768011882496,6.60131236515794,3.957369374975089,447.62936098180876,453.8757179977801
1.3800000000000001,3.356923651444235,-2.2430470546182697,7.381662969395491,4.559157377187721,451.2350993352786,453.8757179977801
1.3900000000000001,5.1243062450716215,2.3200262869704824,6.707009864281983,3.9335200720292134,449.08215510788403,453.8757179977801
1.4000000000000001,3.1507653800717366,-2.5508995074231344,7.15897409266201,4.619954206828933,450.3892731815944,453.8757179977801
1.41,4.637861883630402,2.07605421965171,6.84317768002815,4.054671114645258,451.05517852491505,453.8757179977801
1.42,3.1132087747223856,-1.7187780612723706,6.77859783221969,4.522313952772591,448.9652607383832,453.8757179977801
1.43,3.7737644681243085,0.9494930671816889,7.077064650969132,4.2582579746926275,452.09815889592693,453.8757179977801
1.44,3.7704310129408984,0.07045389528551471,6.547551026173596,4.249434892590211,447.57883197532004,453.8757179977801
1.45,3.3810242293188475,-0.6229411877969728,7.325603811501188,4.412104140370278,451.98284483933884,453.8757179977801
1.46,4.6410825881880395,1.4662049285054437,6.581910741835613,4.024661447080894,447.33819247970456,453.8757179977801
1.47,3.443101350099429,-1.8011032480645688,7.41394311980687,4.507610340862736,451.56580357281564,453.8757179977801
1.48,5.13384987763903,2.1746422757048274,6.6487756604317205,3.9241923166988353,448.229738532626,453.8757179977801
1.49,3.2504603372604595,-2.531442110929508,7.299849988210809,4.604113688297556,450.8318796499064,453.8757179977801
1.5,4.966249577853197,2.309706896432695,6.776067877137203,3.9782754741157587,450.1269384577063,453.8757179977801
1.51,3.0746591789694886,-2.3021784228832476,6.970563283324125,4.59993893302973,449.758082646535,453.8757179977801
1.52,4.192425199810784,1.611836675216145,6.944376719086003,4.1578396132447,451.8064950583626,453.8757179977801
1.53,3.381732228253523,-0.7932784077076185,6.603872202474294,4.380210366000843,448.08682016502127,453.8757179977801
1.54,3.445126025122464,0.07491843634090767,7.226377965348111,4.352798788475131,452.069178724728,453.8757179977801
1.55,4.2557275036012685,0.9017567852272539,6.56615130732897,4.119091208679454,447.3329089309134,453.8757179977801
1.56,3.461147585477998,-1.2652481622603036,7.391875174795527,4.457073298719406,451.8191017526983,453.8757179977801
1.57,4.968080676085613,1.887852838653582,6.604077807920644,3.9535790790468712,447.656232113491,453.8757179977801
1.58,3.34924209824467,-2.2733418278368225,7.379455836602234,4.563526482670981,451.2062355832457,453.8757179977801
1.59,5.123481016433603,2.330128273430375,6.712713762247997,3.934959713300715,449.16075212332964,453.8757179977801
1.6,3.1457200428393928,-2.5441443481884,7.1452576644858645,4.619738526564002,450.34757018190476,453.8757179977801
1.61,4.605434709374595,2.047277857160207,6.849470613859948,4.062004840220465,451.12527315152494,453.8757179977801
1.62,3.129467350308146,-1.6486011596751358,6.761697631741165,4.511113920307602,448.8870666761826,453.8757179977801
1.6300000000000001,3.7413038021591087,0.8787763822054554,7.089798211835677,4.266146049337431,452.09803134614555,453.8757179977801
1.6400000000000001,3.8097562619370535,0.14029071214965816,6.548986637962643,4.2384582280005745,447.5361096472852,453.8757179977801
1.6500000000000001,3.3911840859519224,-0.6740889206510257,7.335897642846849,4.415124254491338,451.97251157158775,453.8757179977801
1.6600000000000001,4.681798330788413,1.5076911467472005,6.583979505006443,4.0163836671305555,447.36774105647504,453.8757179977801
1.67,3.4429325362424312,-1.8437786167389039,7.408676969368687,4.510843018950143,451.53982186146766,453.8757179977801
1.68,5.128024772148885,2.182540768906995,6.652073080000585,3.924944632866935,448.28410318969355,453.8757179977801
1.69,3.238387802557867,-2.5362292762896925,7.291833387796407,4.606189652391325,450.7979773606486,453.8757179977801
1.7,4.949472207464439,2.299925695723979,6.7816509094545605,3.9828466787401924,450.2063379068175,453.8757179977801
