t,iq,id,vq,vd,omega,r
0.0,0.0,0.0,0.0,0.0,0.0,1733.429886416664
0.01,0.0,0.0,450.6917704683326,0.0,101.37891051360326,1733.429886416664
0.02,11.540057314185518,0.4261336414441655,748.945571050466,-0.11079474677548302,122.80646792737282,1733.429886416664
0.03,12.492532193271566,-4.659873086024039,968.1357810957643,-2.5194738019380756,165.07242412274334,1733.429886416664
0.04,13.043085811228801,-2.76689181188922,1121.997784160326,-4.012736062837023,238.9673902946956,1733.429886416664
0.05,13.333321434555211,-0.017812933736426118,1218.864631260882,-4.692724689608721,359.7896719915049,1733.429886416664
0.06,12.714351303380019,4.015351629934362,1261.1778989711831,-4.5744008305686945,553.2511918686245,1733.429886416664
0.07,9.529588923359393,9.325487264993914,1244.2715438416144,-3.406062817564978,648.7422474588648,1733.429886416664
0.08,12.52801374461981,4.563622398095052,1207.9632113818902,-5.801907541681553,868.1074300062453,1733.429886416664
0.09,5.682107211384485,12.061983063166279,1126.2741113228067,-4.7037365898464145,1057.2147597803962,1733.429886416664
0.1,6.321745247736468,11.739391585618868,1018.25368157618,-5.793339020315602,1243.986232746736,1733.429886416664
0.11,4.590610052225387,12.518149908280574,891.0496090860448,-7.245387038323801,1438.6028860113734,1733.429886416664
0.12,0.021234675021570313,13.333316424144238,747.9699799812657,-7.40542703191061,1570.282933399684,1733.429886416664
0.13,1.1112242804772428,11.5391595092696,607.0852617876233,-9.467651159713693,1737.788644100397,1733.429886416664
0.14,-1.9282145586665491,13.193171203070326,461.0614323165367,-10.474293875349987,1871.3428767981982,1733.429886416664
0.15,1.0677198564164705,13.290513612573132,317.11923222538763,-14.135343919620563,1991.7870493488278,1733.429886416664
0.16,-10.477527768226885,8.246162116027813,181.83735692393617,-11.289352730248702,2098.3202520717778,1733.429886416664
0.17,-10.922127121297022,7.6475431953017265,54.033736263474104,-8.92445036666112,2195.617342568694,1733.429886416664
0.18,-7.525289883676001,8.866607367728133,-67.30606778465366,-10.220246885242561,1955.29507284567,1733.429886416664
0.19,6.963393289863637,-9.212083573583133,-112.28177176296501,-6.618514629708803,1699.110129066642,1733.429886416664
0.2,-0.48016447554207664,-13.32468460618131,-79.93295496839801,-1.1081548162834214,1444.418338721588,1733.429886416664
0.21,0.4069744478419678,-11.540301976162867,7.791840134424208,1.621712524272177,1441.237452987707,1733.429886416664
0.22,-2.3757213089754248,2.0544803752752845,81.4935146338143,0.9721446069389744,1576.6168617410522,1733.429886416664
0.23,-2.8750248839455015,11.599474968035187,106.6285000887127,-1.9752210263272125,1741.2070895909023,1733.429886416664
0.24,-1.840776315093848,13.205654862049336,84.82978113476636,-4.939879585241876,1871.6190961207874,1733.429886416664
0.25,-0.4626278422629211,12.574617361653035,35.11670207997022,-8.626595977055057,1987.1914688393226,1733.429886416664
0.26,-4.330018199884506,10.707028971406015,-30.306614600576687,-10.642406430787313,1758.831216389118,1733.429886416664
0.27,7.105844397446816,-10.200284958029687,-35.000953662055096,-7.402334003614491,1509.1237842062858,1733.429886416664
0.28,4.842434777927232,-12.422906390989935,24.294738010069292,-3.8291849597928818,1604.1965045993206,1733.429886416664
0.29,-0.060459067217021545,10.83957850770308,55.618572015211384,-6.756711971949929,1731.5321445859572,1733.429886416664
0.3,-2.6499501721238343,11.404675962858343,48.47798537905927,-8.795864783003319,1863.7978324225362,1733.429886416664
0.31,-4.771065545259018,12.450490405627404,10.878993322056703,-10.758934051538564,1870.515172131179,1733.429886416664
0.32,2.2767439292686458,5.386261122888106,-24.09916558072093,-12.034857039433199,1651.54254688964,1733.429886416664
0.33,5.897464658502712,-9.943431799438901,-2.7126059344941886,-9.180725765504807,1563.322850559248,1733.429886416664
0.34,4.74090454597684,-5.486195732541641,39.522689457794755,-7.853749193038368,1686.795376190837,1733.429886416664
0.35000000000000003,-1.1185732553710417,12.641930501537813,47.38361085116232,-10.733225281638568,1822.8254552989893,1733.429886416664
0.36,0.8599446147930289,13.132035557502922,18.99094075574159,-13.219734399242034,1886.726898515428,1733.429886416664
0.37,1.681771809894442,9.612396786045213,-20.400987925538438,-15.587637208038759,1691.4457479235657,1733.429886416664
0.38,8.238423396217227,-9.173787773281596,-10.077314161262782,-13.106328419125092,1553.382171938234,1733.429886416664
0.39,7.534111619177205,-8.75477183442946,34.43876543117413,-10.921825619906247,1665.3588780029527,1733.429886416664
0.4,2.1130588169926288,12.502641925072254,47.97903914667135,-13.550197249065821,1784.2073611571336,1733.429886416664
0.41000000000000003,-1.2388787958785263,11.604841766682085,29.10873830426256,-14.951524599862475,1881.5228792885412,1733.429886416664
0.42,0.3654842023505447,11.773327147603554,-10.15610829885238,-17.44880920899167,1750.9355362732035,1733.429886416664
0.43,9.657675289576149,-6.084620635070804,-15.733988066100187,-15.749074572397227,1572.269712246066,1733.429886416664
0.44,7.259525425417124,-9.5107881379407,24.55181385910797,-13.337115862883351,1654.6559984454466,1733.429886416664
0.45,3.7052220107796785,11.075632533436757,42.21609922459454,-15.990113961195561,1779.0052822591292,1733.429886416664
0.46,-0.4731496958863204,13.299417723458491,26.082603624494382,-17.88922890582261,1858.6800588049878,1733.429886416664
0.47000000000000003,3.4797695774262505,11.498629543811,-8.029440515288783,-20.17014528353904,1744.2361001744398,1733.429886416664
0.48,10.862696236061403,-3.9455439500326173,-12.376057694028962,-19.02931756109245,1591.6569850121075,1733.429886416664
0.49,9.199932736925374,-7.063489834269447,22.3096032594935,-17.232265643682723,1656.573862537476,1733.429886416664
0.5,6.791960810760185,9.339401346867279,38.94059642712687,-19.67146051928541,1767.721592810583,1733.429886416664
0.51,3.619582717328403,11.902993728764663,25.23464224589284,-21.04501352308585,1851.3675036758611,1733.429886416664
0.52,3.944175754123323,11.129298320907367,-6.810918465721151,-22.767026080011842,1742.8437054327612,1733.429886416664
0.53,11.632439209484613,-2.932798840784937,-11.064127674239229,-21.893205398198685,1592.536020045839,1733.429886416664
0.54,10.589656088159174,-5.917022988147303,23.025429581509695,-20.384107409688237,1647.4709737929484,1733.429886416664
0.55,7.6016248684428955,9.188346748472433,41.250524925370875,-22.088816361346257,1751.6446524935266,1733.429886416664
0.56,2.2715224027881984,11.640108701419937,31.042382847392037,-22.714408358881144,1836.5712743357517,1733.429886416664
0.5700000000000001,3.6927972465712395,11.75226654466797,1.3700149497308416,-24.43600506151456,1782.632647752802,1733.429886416664
0.58,12.139726399202834,0.9902489147069029,-13.51020587955767,-24.5724278213681,1632.162720498721,1733.429886416664
0.59,10.486478277931594,-5.380365473636491,10.923347245562804,-22.579384107589114,1622.244030834203,1733.429886416664
0.6,10.962783294250553,4.235222772069668,36.012814921271776,-23.578401795182746,1721.708384814871,1733.429886416664
0.61,5.283527556056924,12.241818261278215,34.00341438314294,-25.021285108088843,1809.500175761482,1733.429886416664
0.62,4.74791767607784,10.97318523629042,10.159155909511645,-25.695477499291325,1804.956732649784,1733.429886416664
0.63,10.516597500384353,5.613458678331473,-10.587099057287286,-26.482743010977874,1666.9593679252687,1733.429886416664
0.64,11.057768765921448,-4.303443962640502,4.739976965759848,-25.130148812185716,1620.2860833171305,1733.429886416664
0.65,12.412045987185955,1.3622891937681927,30.38146151749275,-25.48906284023127,1691.6943579594272,1733.429886416664
0.66,7.097857231633368,9.568685661316517,36.19895869173832,-26.046572022849826,1784.5361755106394,1733.429886416664
0.67,3.7325796824209205,11.858768716378044,18.458344207427338,-26.70886555239226,1817.297539856827,1733.429886416664
0.68,8.453965004291092,7.951143871992905,-5.925056719210271,-27.89991387835949,1722.2252001820655,1733.429886416664
0.6900000000000001,12.889198459508437,-2.1498161052344313,-5.181830563355757,-26.639116739441693,1608.9044921640336,1733.429886416664
0.7000000000000001,11.622921670720972,-3.00831879645635,24.22138505097689,-25.836927413996495,1655.5527201395948,1733.429886416664
0.71,8.387763578527416,8.022369638438883,39.73990113743081,-26.78135744509138,1741.988793952627,1733.429886416664
0.72,5.722590692189295,10.641662708170227,31.19793299613518,-26.902584921246415,1816.2330564478614,1733.429886416664
0.73,5.0196147926171,10.399078339422493,5.954024643524724,-27.29913483724662,1787.9016838954612,1733.429886416664
0.74,11.970482796116984,3.7676801092142242,-10.491449573205246,-27.562454074989358,1654.174595758616,1733.429886416664
0.75,11.109894306890014,-3.571239309126268,8.009701463162237,-25.802914157735042,1622.7858442690729,1733.429886416664
0.76,11.249438028254804,2.646075613008769,32.99539994075702,-26.265143653612068,1700.351854910253,1733.429886416664
0.77,5.831237341649358,10.21061032004457,36.348070129850846,-26.71859980593122,1797.9652031794624,1733.429886416664
0.78,6.038530476111687,11.887553468516899,14.848539500249409,-27.509024161707984,1815.2607873259017,1733.429886416664
0.79,9.603737250012095,7.320007139512959,-8.869440575840539,-28.294044890166145,1698.8711357292561,1733.429886416664
0.8,11.870292576920413,-3.5550886010865166,-1.6903652448018027,-26.855948576274294,1607.078815194184,1733.429886416664
0.81,11.69372602948101,-1.2917152293519583,27.858459633954464,-26.118078646052755,1672.7783069397008,1733.429886416664
0.8200000000000001,8.60130929121585,10.187995693688801,38.65440525637198,-27.05339485305908,1763.2376152515785,1733.429886416664
0.8300000000000001,4.00398092592288,10.950561204096193,25.431587007523632,-26.96161279640187,1821.9822403498995,1733.429886416664
0.84,6.366439173532304,9.79699524850774,-0.5668538154429674,-27.892837581242375,1758.2206694238073,1733.429886416664
0.85,12.958335206229961,0.34025191700116597,-9.315927917563764,-27.325415322466714,1635.497090369557,1733.429886416664
0.86,12.17677263987608,-4.110456081865971,13.693703868565818,-25.550520278545015,1641.0879531725625,1733.429886416664
0.87,11.14891549255712,5.979826472525603,33.7589673157362,-26.461736492002895,1729.0188415520165,1733.429886416664
0.88,6.2357599676355235,11.785290637222822,29.980369556900335,-27.541613774661442,1804.5346173643175,1733.429886416664
0.89,6.389419338982528,10.38294926420981,7.674241121566917,-27.998815263938393,1781.8217906051148,1733.429886416664
0.9,11.294718470408778,4.459661992936791,-7.315299385592018,-28.255231474407296,1661.1107108518966,1733.429886416664
0.91,11.269398168458602,-2.535062112299598,9.116137681812187,-26.927145927114374,1638.717019544838,1733.429886416664
0.92,11.323272760308598,2.9129374317169114,30.030954318746954,-27.55824608866472,1703.760398393628,1733.429886416664
0.93,7.374469700219343,9.184475853898464,32.62953426423217,-27.723091575881984,1783.8252863665102,1733.429886416664
0.9400000000000001,5.070649033823578,11.158988582479813,15.322836349631144,-28.310684789749587,1798.7298961417728,1733.429886416664
0.9500000000000001,9.487880190989856,6.604705600359083,-4.36948194289257,-29.14078099416397,1711.6672178779888,1733.429886416664
0.96,12.539845546751305,-1.7645643857760875,-0.9274943918557964,-28.056856159788044,1621.6472286393437,1733.429886416664
0.97,11.524312264917807,-0.7619519074609729,24.92263072177266,-27.447583812094255,1667.2439597964026,1733.429886416664
0.98,8.334668072070006,8.426067191050835,37.31850116730593,-28.288040244855186,1746.9539898098562,1733.429886416664
0.99,6.094973939606252,10.25004610967274,27.84699857781632,-28.153165566430726,1810.2402144027978,1733.429886416664
1.0,6.199830592388212,9.747928468679984,4.367633860725894,-28.476999163668744,1773.4382449917468,1733.429886416664
1.01,12.635674493693404,2.896787640003318,-8.480818080044743,-28.395702764430165,1656.3791043038648,1733.429886416664
1.02,11.877726725586866,-2.836577151061757,9.22278620918257,-26.723142698581178,1628.8502727829489,1733.429886416664
1.03,11.30094874013822,3.368511170712871,32.518222373936815,-27.04278761060304,1705.681986718024,1733.429886416664
1.04,6.014871065421358,10.4251185481092,34.60116210175938,-27.573599880473704,1793.4590786994684,1733.429886416664
1.05,6.497843221143686,11.267662620452962,14.299272132274096,-28.12930941416328,1807.7220771015527,1733.429886416664
1.06,10.055721862796027,7.2930188003693495,-7.546018883391861,-28.795429708433293,1690.908070364862,1733.429886416664
1.07,11.466149258990256,-2.72367814633043,1.4689320428636021,-27.509148337385017,1623.9082876566279,1733.429886416664
1.08,12.565044378699044,-0.07037837188970908,26.38536673534095,-26.943630792565642,1687.4042554824664,1733.429886416664
1.09,8.817281157011893,9.549231649798713,33.76799304809645,-27.637591671437626,1767.0155805873242,1733.429886416664
1.1,5.116201520619123,10.440886536272322,20.30635051343684,-27.737595957662485,1806.0544570968339,1733.429886416664
1.11,8.12460392500004,8.218214392369255,-1.41372277115819,-28.588319076382394,1737.7604369848727,1733.429886416664
1.12,13.186711995517303,-0.15923537016793343,-4.977997376981687,-27.865989288993454,1634.8933184264533,1733.429886416664
1.1300000000000001,12.064136886416362,-2.7597410736310426,17.882488722505354,-26.823566585319362,1662.243188845795,1733.429886416664
1.1400000000000001,10.117262169255605,6.267322048131103,32.37770835576504,-27.480588914209267,1747.744530924978,1733.429886416664
1.1500000000000001,7.291081546805981,11.163239120237595,23.954956842357543,-28.1855021347524,1810.0172688070563,1733.429886416664
1.16,7.684739150772703,9.685083461697959,1.115267703745391,-28.799180242510523,1745.5252563763302,1733.429886416664
1.17,11.6059725243859,1.516808643762673,-4.361643479487378,-28.387748035193532,1644.7230358272732,1733.429886416664
1.18,11.785481101016822,-1.5582796859915828,15.900814015746638,-27.214397832978364,1651.9903641591125,1733.429886416664
1.19,10.248476180286884,6.084306883494289,32.89289593032126,-27.87813201364349,1725.7132370662835,1733.429886416664
1.2,6.0690815780577045,9.829588063907615,29.690485972187243,-27.880223870608738,1797.0170374704194,1733.429886416664
1.21,5.840157243259562,10.894331983039478,9.398576683737637,-28.79051269044346,1783.3126601440476,1733.429886416664
1.22,10.718213845198946,4.3981578063699,-6.083634932910098,-29.311446727850804,1682.5062978251474,1733.429886416664
1.23,12.182181624995334,-2.7041595894656885,4.948662650814327,-28.02036684323727,1632.206987793843,1733.429886416664
1.24,12.183108885876688,1.7768207376070135,27.585691397013168,-27.777848787114685,1690.5177740485497,1733.429886416664
1.25,7.787228440571886,10.291558261311438,33.95925357250154,-28.753114315157607,1765.5177063471344,1733.429886416664
1.26,6.167758207666745,10.003460491787315,20.46647698749466,-28.61203299282802,1807.0477290660235,1733.429886416664
1.27,8.314140984824594,8.27550522937989,-1.4807898072592995,-29.1147460255589,1733.645363545021,1733.429886416664
1.28,12.441709000282172,0.45784679110352755,-3.8780547420640654,-28.298700949493192,1642.422717047348,1733.429886416664
1.29,13.052441718042845,-2.3498935895774613,16.739393234288972,-27.066418352820598,1663.2263598557038,1733.429886416664
1.3,10.718788837121796,6.945809522847076,31.009190363164308,-27.77119012683722,1737.4405357305704,1733.429886416664
1.31,6.202198729361644,10.697020824330606,25.366519539920414,-28.52534513657167,1798.6659972964387,1733.429886416664
1.32,7.869138220942093,10.763570106497474,4.9812428443395165,-29.38508598850599,1756.7465981356686,1733.429886416664
1.33,11.210348247318699,2.9931358044477894,-3.5941876310911973,-29.30976064518442,1655.197601021228,1733.429886416664
1.34,11.515542029565113,-1.1410755820707852,13.980311865355153,-28.269118621644594,1655.7694031811266,1733.429886416664
1.35,10.643833018572696,4.597640204340763,30.16941008415119,-28.710102858348876,1720.827617519823,1733.429886416664
1.36,7.837445319589499,9.341375021993285,28.34498636846981,-28.774403358821687,1784.1674820544301,1733.429886416664
1.37,6.440589070752806,9.60931933107297,11.213602445692823,-28.961823578573647,1785.9248677243768,1733.429886416664
1.3800000000000001,10.779645718738239,4.996360799628448,-4.923344974308115,-29.369246448836837,1695.6560909066436,1733.429886416664
1.3900000000000001,13.197960587345506,-1.8951554323201127,2.4125499505313477,-28.031232454687657,1626.100921967923,1733.429886416664
1.4000000000000001,11.54471086780975,0.5641962484641522,26.8898347399353,-27.745337207887022,1680.8318804493626,1733.429886416664
1.41,7.7888208812454485,8.781266809658534,35.68208418900987,-28.294767942014236,1761.3189816526387,1733.429886416664
1.42,6.7493341915182405,10.558739582864405,22.930488404506118,-28.46396528351674,1815.5528855692592,1733.429886416664
1.43,7.760759282680471,9.21443991022662,-1.2677650788063202,-28.993703081063572,1737.3454847423116,1733.429886416664
1.44,11.749077875387634,0.6148548810866785,-4.529293754139597,-28.288575575450324,1638.408530388686,1733.429886416664
1.45,12.097902482650051,-1.8149308765228973,17.295910132961644,-27.044157842642992,1655.2616424005405,1733.429886416664
1.46,10.505224121499081,7.035095458349399,33.33987079831189,-27.748732359589212,1733.9246959407637,1733.429886416664
1.47,5.589223451215499,10.368678911776623,28.18714175288392,-27.9225727003498,1800.851617682329,1733.429886416664
1.48,6.422979441908705,10.965078738082228,7.0582156237136475,-29.01630398484682,1773.11433133234,1733.429886416664
1.49,10.993977848307756,3.578195902063548,-5.744995290424736,-29.314551198099817,1666.275246526324,1733.429886416664
1.5,11.686673860139532,-2.4683514230716153,9.35372151057273,-28.122125272355447,1649.2894118491035,1733.429886416664
1.51,12.339915495649995,3.4163380246985593,27.42879050705208,-28.276214315758512,1712.4338502633288,1733.429886416664
1.52,8.443518633268887,10.319145840011123,28.29475578201872,-28.99796894903908,1776.1485038275466,1733.429886416664
1.53,7.10605224789562,9.395725447756382,13.025576840297363,-29.05917000528888,1791.8203899514028,1733.429886416664
1.54,10.5833612727674,6.20245462669145,-4.533945976757746,-29.56375008224125,1700.6034154899803,1733.429886416664
1.55,12.439718785779384,-0.86582115401004,1.6255002282637876,-28.30742189148883,1633.9468536901281,1733.429886416664
1.56,11.844528396633544,-0.05832894512772757,24.21961545047769,-28.13976967601977,1680.0129090358357,1733.429886416664
1.57,8.757422396626287,7.756055096024086,33.43965870863692,-28.359411262059492,1764.313600030633,1733.429886416664
1.58,6.11283010766587,11.849518380617475,20.813387037505354,-29.2708632691224,1807.612703997886,1733.429886416664
1.59,8.88002959624224,9.775046874216072,-1.4826847300105983,-30.02842826125098,1724.483096199211,1733.429886416664
1.6,11.559565869212342,0.15001935627517238,-1.5434127690178137,-29.343813307540138,1636.678983432609,1733.429886416664
1.61,11.926825328310752,-0.4380440606849678,20.483883505879,-28.364399184781902,1661.9970382016593,1733.429886416664
1.62,9.427099710594893,7.67989775150707,34.535803250213334,-29.067216288125604,1736.0208594111484,1733.429886416664
1.6300000000000001,6.131062006093827,9.81490328429509,28.309008509201536,-28.74545109805899,1800.306456866486,1733.429886416664
1.6400000000000001,6.171048053974317,10.056238386546442,7.2397460217407845,-29.180814611635995,1782.4458046203333,1733.429886416664
1.6500000000000001,11.520501785724587,3.436404992955672,-7.822989178379591,-29.384515092697672,1674.533159723497,1733.429886416664
1.6600000000000001,12.901981839020332,-3.364021760239856,5.176266889104588,-27.629657937520534,1622.6814238964898,1733.429886416664
1.67,11.84536946568533,1.7579420279484372,30.25367544728983,-27.475536986664626,1689.8294165636948,1733.429886416664
1.68,7.054908377623917,10.66920921723941,36.54250493035656,-28.56062390544723,1769.4888238169974,1733.429886416664
