t,iq,id,vq,vd,omega,r
0.0,0.0,0.0,0.0,0.0,0.0,154.35423320376535
0.01,0.0,0.0,40.13210063297899,0.0,23.883614622462687,154.35423320376535
0.02,11.54683783178394,0.08173582625971448,66.40391936784697,-0.021251314827525767,48.87596489433429,154.35423320376535
0.03,11.558308058967803,0.055512372235534735,79.96217141200214,-0.08139065824482251,72.73894920412518,154.35423320376535
0.04,11.720472784213444,-0.8863808410895768,84.15788841808774,-0.15803564435652614,94.12121184768785,154.35423320376535
0.05,12.319626393330815,-2.672775427753206,81.94092753510951,-0.2449729476308128,112.60917697431042,154.35423320376535
0.06,13.021147733897427,-2.8683600662740414,75.77875686763316,-0.7820812469689256,128.93024335129553,154.35423320376535
0.07,13.278116940422361,-1.2121832758483482,67.49881210204374,-1.9622753912901405,150.8170567218963,154.35423320376535
0.08,13.31345761534462,0.7277527754671258,55.92768741696211,-2.4003540633565503,179.23762031600324,154.35423320376535
0.09,12.993133579516895,2.9927007138382784,40.118722596154505,-2.2626908769736493,203.0379689735427,154.35423320376535
0.1,11.916514848874776,3.197325616297066,21.80405906546823,-2.9998228982957693,220.5375685749223,154.35423320376535
0.11,11.576950819689191,0.47184066296314686,2.1923871620347555,-3.090528214503218,217.1315553984254,154.35423320376535
0.12,1.66003718242737,-2.7316312141334858,-13.783723414099516,-2.37558569219888,194.1831732644696,154.35423320376535
0.13,-9.792274750626012,-4.781409853418814,-20.94888280094898,-1.159735442451323,165.93605654146225,154.35423320376535
0.14,-11.541980590735736,-3.483204718768551,-20.658875262058103,-0.3019163141056881,141.86460806594974,154.35423320376535
0.15,-11.89220478922722,-1.9626324335885763,-14.319201053557356,0.1735360714396562,125.55900580871774,154.35423320376535
0.16,-10.770237863300881,-1.7092392592761332,-4.275998385657178,0.5983119545155648,119.70741333400528,154.35423320376535
0.17,-3.5167832751726906,-0.4008936326931847,5.250883779441854,0.6854519064230313,124.21273551409166,154.35423320376535
0.18,3.5973500348887857,0.5561181053342654,11.7707261382366,0.5368522627091905,136.22524548520718,154.35423320376535
0.19,8.445205808723257,1.0776844096647364,14.023067958245827,0.26221549724970183,151.09983196360943,154.35423320376535
0.2,10.09481009598737,1.1553619575943808,12.147723836631299,-0.027401767628189216,162.89940509889448,154.35423320376535
0.21,8.718862154404995,0.8482235738423416,7.727479072310739,-0.23638627725125433,169.21424783599937,154.35423320376535
0.22,5.442947569424096,0.207351513789363,2.6213492403749687,-0.2818154350980653,170.061884738583,154.35423320376535
0.23,1.6407143563018385,-0.47600641102007446,-1.6861962692995154,-0.1559802530949523,166.33620540575248,154.35423320376535
0.24,-1.5902181280931835,-0.9514080060927028,-4.214568669600748,0.08662576437894964,159.6581122549395,154.35423320376535
0.25,-3.511857380913459,-1.0958071517798393,-4.576576763129591,0.3620215437807807,152.32822104385951,154.35423320376535
0.26,-3.8152168720009025,-0.930853951652207,-3.0399369981312327,0.5930854996925564,147.35788578228184,154.35423320376535
0.27,-2.654364420836222,-0.49980271549749866,-0.5891642094471706,0.7137256662053838,145.7286525931277,154.35423320376535
0.28,-0.8187149924454027,-0.0836621107540425,1.7698455289312274,0.7304797878464598,146.78659082431966,154.35423320376535
0.29,0.9405631777401812,0.21443078650647718,3.3984431653438283,0.6738911622472352,149.59124954393712,154.35423320376535
0.3,2.1469251918274295,0.35803809006673004,4.01234757500698,0.5829455666949502,153.05898641607507,154.35423320376535
0.31,2.5900925554876673,0.34425302559347437,3.6495270906996495,0.49702016094131424,156.05259492628196,154.35423320376535
0.32,2.303169951124317,0.1994993602767885,2.6220773132309825,0.4485928575252839,157.62626112804776,154.35423320376535
0.33,1.5431580326841887,0.012240667792220855,1.410144281156076,0.4474052775020743,157.82418561556048,154.35423320376535
0.34,0.6679940127304755,-0.10160188271425236,0.3824300703490834,0.4739441736857021,157.10544672895563,154.35423320376535
0.35000000000000003,-0.09030644471415139,-0.18028836360705444,-0.2680263063294542,0.5198031293963937,155.84044482018948,154.35423320376535
0.36,-0.5834787663108812,-0.21063367623591425,-0.47612777655413724,0.5727650015816609,154.36650377748492,154.35423320376535
0.37,-0.7560912155669443,-0.19805345534754498,-0.27370708117268894,0.6221525632096635,153.00853980859307,154.35423320376535
0.38,-0.6250767916946642,-0.15789642871342602,0.23125496099424186,0.6612251001216787,152.04064593013226,154.35423320376535
0.39,-0.26439543693694667,-0.11057870275693635,0.881822763873782,0.6883965985513479,151.84440612799415,154.35423320376535
0.4,0.2497298309826425,0.016510106601363136,1.4436682204131062,0.6829981838074243,152.46221114953974,154.35423320376535
0.41000000000000003,0.6852230657909787,0.10805096836700909,1.7348349849582236,0.6550700330980155,153.46754358563203,154.35423320376535
0.42,0.9049434999882953,0.13823851288405464,1.7180209857915831,0.6202085294318314,154.47058285242792,154.35423320376535
0.43,0.8837605398037844,0.1106231389675359,1.4581748756088788,0.5928288984291127,155.1397491379978,154.35423320376535
0.44,0.6745891632572782,0.04066597940309899,1.0885486521462129,0.5833619751739823,155.24183519323802,154.35423320376535
0.45,0.3825101321324829,-0.04923490092584698,0.7729205515037703,0.5965697092087334,154.77014209769342,154.35423320376535
0.46,0.15555476032279453,-0.09357095581022395,0.6370411226145953,0.6204058087101333,154.33358686066697,154.35423320376535
0.47000000000000003,0.07972105851484189,-0.05541561611061768,0.6273963331488233,0.6338781593407916,154.08675245888378,154.35423320376535
0.48,0.08034455976041657,-0.02032379133790705,0.6766424884344869,0.6386081889275411,153.98263886196102,154.35423320376535
0.49,0.1114800467318337,0.00041724893570956045,0.7424008433021231,0.6382964662908777,153.9386587579065,154.35423320376535
0.5,0.14642668766645814,0.0013309629819706348,0.8097781174814204,0.6379545884049224,153.8644278804167,154.35423320376535
0.51,0.17950448494985327,-0.01746406567360264,0.8877648578831794,0.6425085551098788,153.68149899941278,154.35423320376535
0.52,0.2232121608460042,-0.05156210130472441,1.0015375808108975,0.655740060792371,153.5989735976862,154.35423320376535
0.53,0.33850299849735316,0.0011468296115091994,1.1053990783470953,0.6549262640803314,153.82580453808342,154.35423320376535
0.54,0.4327574715534313,0.043140460769474406,1.126106022744687,0.6437212125763832,154.1800748171575,154.35423320376535
0.55,0.4499327301761797,0.05475814259027195,1.0534479814756346,0.6299155001106072,154.48293845366183,154.35423320376535
0.56,0.38604418337241875,0.0370658163973093,0.9223708722614034,0.6208259692732094,154.5830669450172,154.35423320376535
0.5700000000000001,0.2722853308403067,-0.0029264475746850205,0.7972274078501286,0.6219575038066005,154.38453670861648,154.35423320376535
0.58,0.16243591598523363,-0.05431248274436913,0.7521263491535949,0.6360494848443896,153.9411077286738,154.35423320376535
0.59,0.13835292357296516,-0.06286360187297266,0.8254946067567862,0.6518508965039189,153.7640285140289,154.35423320376535
0.6,0.21834484010486424,-0.006613683638038666,0.9194304421458136,0.6529418182310791,153.8584320667778,154.35423320376535
0.61,0.296570995751158,0.030336096099678876,0.9675116803709601,0.6449882964087822,154.0758332559306,154.35423320376535
0.62,0.3274244636352335,0.04020785037079061,0.9527730048504686,0.6348376162733734,154.2614581499795,154.35423320376535
0.63,0.3027505538360075,0.02303751468211125,0.8986696199954344,0.6292499409597324,154.27970942990981,154.35423320376535
0.64,0.24540037311850427,-0.015072643572571279,0.856341459187563,0.633399203435422,154.04414817309228,154.35423320376535
0.65,0.19956980197780322,-0.06456582839495968,0.8867841846409606,0.6500355923823858,153.82485117362125,154.35423320376535
0.66,0.25342151385469924,-0.01696192149215771,0.9574287665892501,0.6538000336863972,153.89280033594707,154.35423320376535
0.67,0.3225295701665466,0.024713651993734626,0.9907840188158052,0.6472048649531046,154.10928907357552,154.35423320376535
0.68,0.3485685976685237,0.041401095288863876,0.9624526242948256,0.6366877166979373,154.32178197017495,154.35423320376535
0.6900000000000001,0.3174218787820337,0.03138345989522244,0.889396501219786,0.6289420280780681,154.39226755558414,154.35423320376535
0.7000000000000001,0.2468477709955167,-0.0008503851631425918,0.8181768557399816,0.6294769628194373,154.2238824489805,154.35423320376535
0.71,0.17730805870343422,-0.046580911812471905,0.8088167779492907,0.6415794960390486,153.8564642148037,154.35423320376535
0.72,0.1809200406317115,-0.05084039809770547,0.8916670775542578,0.6543321904263273,153.7616628793954,154.35423320376535
0.73,0.26773435329408746,0.003832961214501593,0.9729559405506812,0.6528272165295799,153.91627701467735,154.35423320376535
0.74,0.3363863565258363,0.03690551770904907,0.9961157373060849,0.643270111537372,154.16362046988013,154.35423320376535
0.75,0.34854344890212596,0.0421729123238509,0.954038053076067,0.6326742095102613,154.34773536801572,154.35423320376535
0.76,0.30339090264120083,0.020980617483671776,0.878425162834427,0.6276409780877451,154.3380543871102,154.35423320376535
0.77,0.22998612265814128,-0.019660309591340352,0.8258041939425664,0.6329624647563303,154.0597062473738,154.35423320376535
0.78,0.1766488808053351,-0.06972755420048837,0.8585905666550085,0.650895025752544,153.81295753330477,154.35423320376535
0.79,0.2329160710992661,-0.019038189067266932,0.9375852817330877,0.6551476793680283,153.86421190174423,154.35423320376535
0.8,0.3078137702728189,0.02389566558972637,0.9818756439940328,0.6487444244240268,154.07465108148284,154.35423320376535
0.81,0.3417066068983874,0.041781357922841246,0.9639012026764205,0.6381202280199854,154.29028947974547,154.35423320376535
0.8200000000000001,0.31812272531762303,0.032573245127649725,0.8984359071851659,0.6300689978660248,154.37031690522969,154.35423320376535
0.8300000000000001,0.2531705163570318,0.0006164976192983285,0.8309716005645869,0.6302344409362838,154.21398229221313,154.35423320376535
0.84,0.18650796444481965,-0.045366505168928595,0.8216373089907233,0.6420358972563982,153.8621826751873,154.35423320376535
0.85,0.1911210613540948,-0.048226860001567576,0.9003415409978736,0.6541212158051164,153.78101827094625,154.35423320376535
0.86,0.2744305923245424,0.005286720006596246,0.9750161748542187,0.6522644000033858,153.9396137613274,154.35423320376535
0.87,0.33794199558621574,0.03701960524662232,0.9919644676307248,0.6426921698393299,154.18269210300522,154.35423320376535
0.88,0.3452447118993597,0.04121522104167771,0.946034754266006,0.6323464084209599,154.3566435713322,154.35423320376535
0.89,0.2970935185570852,0.019387244495588665,0.8699007799851742,0.6277178770625237,154.3341179110403,154.35423320376535
0.9,0.2232893542384064,-0.021390193525988338,0.8200705628529414,0.6334731998242364,154.0442443260673,154.35423320376535
0.91,0.1725774780433288,-0.07040561959472538,0.8578292673783053,0.6515647589836052,153.8020195369347,154.35423320376535
0.92,0.23281416808278413,-0.017909656688560753,0.939499023056204,0.6555172135266838,153.8589933093395,154.35423320376535
0.93,0.3093643978966538,0.024906751620128703,0.9846326571663164,0.6488623615385647,154.07405902814588,154.35423320376535
0.9400000000000001,0.34363129121831915,0.042405253308929955,0.9662750521453222,0.638086063194444,154.29211248263073,154.35423320376535
0.9500000000000001,0.31960070929249096,0.032675436109260964,0.899964826380264,0.6300145023391255,154.3717683557659,154.35423320376535
0.96,0.25396260208133703,0.00020676967504723587,0.831950210200549,0.630287496584706,154.2124516058581,154.35423320376535
0.97,0.18695268936766285,-0.046166950599891385,0.8229207039616617,0.6422929714374281,153.86216656184985,154.35423320376535
0.98,0.1927523621470399,-0.047133019544896335,0.9011941276160653,0.6540858870131023,153.78592888427207,154.35423320376535
0.99,0.27540648593776157,0.005934129894967888,0.9743544215428152,0.6520716830449618,153.94590694978677,154.35423320376535
1.0,0.33745945740597866,0.03712723741046428,0.9898508103161342,0.6424779426171907,154.1871907661109,154.35423320376535
1.01,0.34345719492145144,0.040812430951650394,0.9432743054609902,0.6322379829438662,154.35689523238617,154.35423320376535
1.02,0.2947058189634476,0.018615216334945645,0.867722812661751,0.6278061510062968,154.32879971295273,154.35423320376535
1.03,0.22133407473067646,-0.022337906223428655,0.8197623393188981,0.6338001587877377,154.03374606729528,154.35423320376535
1.04,0.17260673925099468,-0.07049460006194914,0.8601702484350366,0.6519053757416103,153.79921564118268,154.35423320376535
1.05,0.23502761425301216,-0.01667905852652786,0.9418888310285551,0.6555369849578879,153.86194912738927,154.35423320376535
1.06,0.31128227276825154,0.025685350071042057,0.985749400483294,0.6486920033541517,154.07951747935968,154.35423320376535
1.07,0.3443459774263185,0.042591252950554465,0.9658355166618462,0.637875131087718,154.29669307478474,154.35423320376535
1.08,0.31898946502457903,0.032288277996496056,0.8985549918206196,0.6299060913381346,154.37253465508724,154.35423320376535
1.09,0.25256749537629625,-0.0006060362114107196,0.830743559039531,0.6303865435330662,154.20762005526925,154.35423320376535
1.1,0.18577299040464088,-0.047201144170462235,0.8232706896102925,0.6426527806552723,153.85779354587845,154.35423320376535
1.11,0.1936795178587869,-0.046061376856153496,0.9023799244366862,0.6541567271961676,153.78693895705135,154.35423320376535
1.12,0.27660584677700595,0.006715454606289306,0.9749313070200233,0.6519500952299708,153.94966539101074,154.35423320376535
1.1300000000000001,0.3378936761409702,0.03743971792419509,0.9893596985401989,0.6422829231157431,154.19086823875304,154.35423320376535
1.1400000000000001,0.34287590686492986,0.04061727181251845,0.9420201122923805,0.6320968296237303,154.3579057081994,154.35423320376535
1.1500000000000001,0.2934426456003277,0.017993657549926656,0.8665652827019649,0.6278246513788744,154.3252953249704,154.35423320376535
1.16,0.2201455485533588,-0.0232258482511445,0.8198224400651222,0.6340433084996713,154.0256494098621,154.35423320376535
1.17,0.17314885144314857,-0.0701923954532378,0.8621476018023323,0.6520610728350017,153.79822404196207,154.35423320376535
1.18,0.23697844353364583,-0.015638955462036502,0.9435412391278347,0.6554252773005987,153.86568318483182,154.35423320376535
1.19,0.3126578088957484,0.026269454145737177,0.98608290655496,0.6484388296680869,154.08476267528064,154.35423320376535
1.2,0.3444819747497038,0.04261497771594237,0.9648210084256821,0.6376216300033992,154.30032629512198,154.35423320376535
1.21,0.31795414003111055,0.03179495233188435,0.8969188427275195,0.6297810921742686,154.37201070314111,154.35423320376535
1.22,0.2510078955216783,-0.0014605048220307365,0.8296751123680609,0.6304787729513155,154.20158756428188,154.35423320376535
1.23,0.18470336139647808,-0.04822760558918898,0.8240279586196522,0.6430033453562843,153.85315342877988,154.35423320376535
1.24,0.19490433619748623,-0.04494829833639474,0.9039541499236581,0.654207626867855,153.78804784385122,154.35423320376535
1.25,0.27808873584804017,0.007524913544872641,0.9757975177929615,0.6518016663628242,153.9537632315183,154.35423320376535
1.26,0.3385408756514807,0.037760332820575115,0.9890181166671453,0.6420592289649233,154.19497539270247,154.35423320376535
1.27,0.3424121862929156,0.04040559729701221,0.9407786881413784,0.631931376995906,154.3592900210859,154.35423320376535
1.28,0.292188048569518,0.017349371554012546,0.8653265667622575,0.6278245963648328,154.32200155514153,154.35423320376535
1.29,0.21889963739327634,-0.02414638456206172,0.8197653383410998,0.6342761500665088,154.01765064976888,154.35423320376535
1.3,0.17366842466817325,-0.06981444659565467,0.86398969185415,0.6521864423357584,153.79711989532746,154.35423320376535
1.31,0.23882419653942,-0.014640355459607998,0.9451157196544696,0.6552947902892999,153.8691519900941,154.35423320376535
1.32,0.31397224901627835,0.02682585451257792,0.9864211593457738,0.6481736645614334,154.08969386816128,154.35423320376535
1.33,0.3446192903880223,0.04262487222765349,0.9638892814553968,0.6373594563273693,154.3036822685847,154.35423320376535
1.34,0.3169801007373982,0.03129870720256506,0.8954184979584786,0.629648041176979,154.37130512230723,154.35423320376535
1.35,0.24954997734358614,-0.0023088053029139965,0.828761096683823,0.6305613176277622,154.19549599019098,154.35423320376535
1.36,0.18375305221807192,-0.04924972958981858,0.8249231975953151,0.643343159268086,153.8488692670982,154.35423320376535
1.37,0.19622421475736243,-0.04382981149008448,0.9055496836782974,0.6542464129596098,153.7894838744204,154.35423320376535
1.3800000000000001,0.27957824731582015,0.008323772485580139,0.9766027677867729,0.6516439339984581,153.95808027580625,154.35423320376535
1.3900000000000001,0.33913785364545673,0.03806013607779498,0.9885749762880272,0.6418315363430873,154.19915588299452,154.35423320376535
1.4000000000000001,0.34186702031501087,0.04017315614063648,0.9394395036634035,0.6317671171072998,154.3606011402935,154.35423320376535
1.41,0.2908559060592889,0.016691992825286044,0.8640292015861074,0.6278289305341318,154.31852720210782,154.35423320376535
1.42,0.21761153653174026,-0.02507854708919248,0.8197060009446875,0.6345162727055748,154.00974251579152,154.35423320376535
1.43,0.17428532659459012,-0.06922895689586622,0.865778450252032,0.6522650160276079,153.7960000139532,154.35423320376535
1.44,0.2406270077414737,-0.013685764860653205,0.9466540039766135,0.6551310253224191,153.8724763244591,154.35423320376535
1.45,0.31525812994420943,0.02734836301391186,0.98676761699004,0.6478835932901955,154.09441734023963,154.35423320376535
1.46,0.34476182283024254,0.0426113857423219,0.9630166800772426,0.6370781166273308,154.30682705854116,154.35423320376535
1.47,0.3160508331895204,0.03078866748252647,0.894018520799301,0.629499176939297,154.37043267827772,154.35423320376535
1.48,0.24816775540732547,-0.003160015098765609,0.8279694878998318,0.6306286675398014,154.1893134540931,154.35423320376535
1.49,0.18289897925268325,-0.050275378180205305,0.8259385605081127,0.6436686657156672,153.8447674923149,154.35423320376535
1.5,0.19762665769357232,-0.04271024947034978,0.9071965067807041,0.6542705767961559,153.79110022559877,154.35423320376535
1.51,0.2810976722630827,0.009114075516306545,0.9774072957780442,0.6514738146672128,153.96252781256032,154.35423320376535
1.52,0.3397301881752361,0.03834432775815222,0.9881004955067537,0.6415954302052562,154.20338880132047,154.35423320376535
1.53,0.3412946379574896,0.03992437974889407,0.9380636822431759,0.6315985347481254,154.36187799638665,154.35423320376535
1.54,0.28949547715085544,0.016020947699474958,0.8627117144575399,0.6278323321437507,154.3149486196635,154.35423320376535
1.55,0.21631052435150339,-0.026021674221598,0.819656372690348,0.634758176918361,154.00181597796808,154.35423320376535
1.56,0.17493028163840257,-0.06858564351593423,0.8675732375741496,0.6523302274902879,153.79482415624145,154.35423320376535
1.57,0.2424270656574453,-0.012743040869249642,0.9482136834178393,0.6549575616811335,153.8757167074926,154.35423320376535
1.58,0.3165554299555037,0.027861258199178666,0.9871537408416615,0.6475862041406545,154.0990554447151,154.35423320376535
1.59,0.3449306586562524,0.042591056163092875,0.962198376280926,0.6367911421202422,154.3099002065044,154.35423320376535
1.6,0.31516080660706924,0.030273933984235966,0.8926806748469919,0.6293458298459716,154.36950891218157,154.35423320376535
1.61,0.2468304781310976,-0.0040093798942600345,0.827241344438149,0.6306910079583217,154.18310332797594,154.35423320376535
1.62,0.18209580154328311,-0.051304321968601574,0.8270112656076136,0.6439900378712153,153.84084422309905,154.35423320376535
1.6300000000000001,0.19906362928943333,-0.041589592888403415,0.9088455162231357,0.6542902888025142,153.79285418771047,154.35423320376535
