t,iq,id,vq,vd,omega,r
0.0,0.0,0.0,0.0,0.0,0.0,1558.4085559675198
0.01,0.0,0.0,405.18622455155514,0.0,92.19924951170557,1558.4085559675198
0.02,11.556527854501372,-0.023080675222564184,673.443508520608,0.006000975557866688,113.39140162561327,1558.4085559675198
0.03,12.393904052812383,-4.916189592301999,870.0957393011814,-2.4468251389254876,147.87910372374705,1558.4085559675198
0.04,12.935488766185246,-3.2327864386118974,1009.0563449088553,-3.9934700314592413,208.51893903010378,1558.4085559675198
0.05,13.305482117114241,-0.8613497599296549,1098.0894873598552,-4.743151313565979,305.27009416594257,1558.4085559675198
0.06,13.082505875595908,2.574066392456931,1140.5991119827122,-4.752044100770375,461.40212151160364,1558.4085559675198
0.07,11.15551627316206,7.3028921980948205,1133.2195166806478,-3.8926045476837077,513.1952641987117,1558.4085559675198
0.08,13.323277114766304,0.5177496508180724,1114.4888811194476,-6.586748029499515,649.9461104517784,1558.4085559675198
0.09,10.7739522416508,7.854917623527661,1066.9407352131684,-6.666512317242803,719.2434878854906,1558.4085559675198
0.1,12.769931943798085,3.8349205896006464,1013.4051224695361,-9.16024893219263,914.641834639983,1558.4085559675198
0.11,5.756206661102035,12.026797689013577,925.3345834703218,-7.657852538631609,1087.381064816334,1558.4085559675198
0.12,5.995776313632559,11.9091747898274,816.5052477070884,-8.10248028450316,1257.0719389362046,1558.4085559675198
0.13,4.018500548848699,12.713356406420786,693.0182505551317,-8.805985456009166,1420.1467744402,1558.4085559675198
0.14,-0.49015754976118053,13.324320746446695,560.6776148454153,-8.21574613634738,1511.4255861546287,1558.4085559675198
0.15,6.929970473624759,11.390930032814124,436.60503898918523,-12.732811093291799,1655.356438878548,1558.4085559675198
0.16,-0.6797227314187806,13.315996199540248,310.02141961257416,-13.081497308258005,1753.763889568372,1558.4085559675198
0.17,3.726657145555889,12.801945332536574,188.8405401278856,-16.648073373756638,1860.2530099100738,1558.4085559675198
0.18,-7.147533965681983,11.255689049862744,74.77010887856005,-13.380358985743177,1952.57704959268,1558.4085559675198
0.19,-5.937883621951942,11.938145411659747,-34.018021384357674,-12.872172283695491,1705.6099725077352,1558.4085559675198
0.2,3.8916469408892063,-12.752758990322267,-67.38766376957554,-8.76358921178202,1422.4918457139572,1558.4085559675198
0.21,-1.7847805058673005,-13.213339332797513,-20.403004673924357,-3.4877066132284886,1198.8999087722204,1558.4085559675198
0.22,2.727983964632859,-13.051278913059965,70.98295285845462,-0.22650748916087243,1292.7184630356146,1558.4085559675198
0.23,7.62567954773553,10.937403220738721,124.05059171699641,-4.132088066170193,1444.4490326560885,1558.4085559675198
0.24,3.2027899707887624,12.942948434603014,127.22499561114937,-7.036056969870466,1585.3470687750757,1558.4085559675198
0.25,-3.841711222534863,12.767890689555086,95.98141469670162,-6.29218879949975,1702.2065873651293,1558.4085559675198
0.26,1.3744918407894087,13.262298064716425,42.259076977091674,-9.87381568879068,1790.40987070323,1558.4085559675198
0.27,-0.3114517685986211,11.620635499639139,-20.295931662848275,-11.91426758633218,1583.6332943414266,1558.4085559675198
0.28,4.601420284930759,-12.51418032230659,-25.733834284474923,-8.544374347536072,1322.7549826557272,1558.4085559675198
0.29,-2.6656999839813977,-13.064142580865354,36.52743835901468,-5.272839079734145,1401.7788667585112,1558.4085559675198
0.3,5.239171520935599,10.357122061261112,71.23343760725032,-7.814373860754752,1516.5793506041532,1558.4085559675198
0.31,5.558737482152984,12.119332299358955,68.67536204666389,-10.928460440768863,1646.8251230082622,1558.4085559675198
0.32,-2.2451785507383564,13.142943013384869,36.33584070438281,-11.548176433573907,1736.8113779127173,1558.4085559675198
0.33,2.27263294847768,13.1382235199159,-11.979717483969482,-14.018012209364782,1584.1039460070192,1558.4085559675198
0.34,6.727548532464605,-11.511640566014517,-18.60292696374338,-10.893603427001848,1372.0487232771623,1558.4085559675198
0.35000000000000003,-0.06626079029268883,-13.333168688854403,30.192086726945313,-7.5420959735598485,1444.3710721662376,1558.4085559675198
0.36,8.031878011795259,10.642683561086347,55.04371027506018,-9.948714549229734,1587.9861102424766,1558.4085559675198
0.37,1.648978880377566,13.230972996338798,40.0434920285558,-11.775843226021028,1678.489279598526,1558.4085559675198
0.38,5.2212714758177725,11.55585915377223,4.50259611640395,-13.674502957527167,1631.6791732248623,1558.4085559675198
0.39,11.707036962927138,-5.329342893880602,-16.338574029797932,-12.173315213580487,1442.5596905134237,1558.4085559675198
0.4,7.481819422080465,-10.191526909531161,12.68663448072883,-9.576811646041193,1433.1464934940793,1558.4085559675198
0.41000000000000003,11.251939476380869,2.907049881603959,41.245595999644166,-10.434559884353533,1546.474752762328,1558.4085559675198
0.42,5.368651285934841,12.20472700013433,38.73461392280518,-12.658677593973792,1641.5219412823076,1558.4085559675198
0.43,2.966601609523592,11.187496779876348,13.215329142769216,-14.458692585041636,1644.0731362507859,1558.4085559675198
0.44,12.584230624523192,4.406236190513434,-11.468561824012886,-15.492439026776363,1500.1897841448217,1558.4085559675198
0.45,5.441981979758239,-12.172206451985783,3.2358916442293575,-12.283602987354927,1423.5223413429471,1558.4085559675198
0.46,10.59655350057674,-7.226968452720262,35.0234356380389,-10.526313254167516,1509.6115901212345,1558.4085559675198
0.47000000000000003,8.836120566059389,9.98502634547551,42.13791026457901,-12.449714172811131,1628.1918077049381,1558.4085559675198
0.48,1.9517657426113375,13.189707664074536,19.79569614506835,-14.936390279415967,1671.0512314933749,1558.4085559675198
0.49,8.69669527639001,8.045788626705328,-11.138519223986746,-16.814449651145434,1526.520969721239,1558.4085559675198
0.5,7.287920588655965,-8.975020837542642,-3.5292124449818467,-14.400486347117294,1409.856069834187,1558.4085559675198
0.51,7.504188816746117,-11.021112828584972,32.8973482007544,-11.624747220060627,1486.6560156980026,1558.4085559675198
0.52,7.746180736851676,8.8602123962696,46.421121723845374,-13.568636282638046,1588.0969333466176,1558.4085559675198
0.53,6.415004520281069,11.688690892591486,31.71636099549528,-15.388108854584365,1671.3631746049655,1558.4085559675198
0.54,7.060665665628166,9.617570716817882,-0.840153008109235,-16.99955343420654,1589.4099953641794,1558.4085559675198
0.55,9.850212278028936,-8.274361260872292,-10.261429600497525,-14.752043799211565,1437.47472196645,1558.4085559675198
0.56,3.9361435748466946,-12.73909539708259,20.56648642706735,-11.522622608578814,1469.971333121314,1558.4085559675198
0.5700000000000001,10.975974855866438,5.18810368253849,39.536434000293326,-12.99892052000965,1564.295893803767,1558.4085559675198
0.58,7.0766988575511185,9.950973710455342,32.090834152084085,-14.449357228952023,1651.1136158428894,1558.4085559675198
0.59,3.4917428173411715,12.258657851013954,5.471992064744384,-17.02442466029795,1608.313203355109,1558.4085559675198
0.6,12.956951025144027,-1.3319565863527316,-9.910055495639146,-16.555529369336096,1464.8079087317935,1558.4085559675198
0.61,8.628736032401543,-8.413425292052146,12.811257401352604,-14.381358359266066,1454.3772509972675,1558.4085559675198
0.62,13.048717650218816,-0.428030858107177,35.617010992528044,-14.354204589078721,1544.3871522340032,1558.4085559675198
0.63,5.404511187914029,10.317329155159202,34.5349907484015,-16.220361049601774,1635.5757452627645,1558.4085559675198
0.64,6.817978166069118,11.458313641403894,10.683244189985983,-17.83039669984256,1628.4914645278557,1558.4085559675198
0.65,11.405510310761494,1.8739929327808307,-9.663893041886208,-18.203051725951536,1487.6188188792673,1558.4085559675198
0.66,8.66443162669486,-10.134367388451418,7.303570566829731,-15.54937627562636,1440.9389732274217,1558.4085559675198
0.67,12.237180876196167,-4.164734957653697,34.04274199682865,-14.567888860520913,1525.4179589037028,1558.4085559675198
0.68,5.503260406260605,12.144624435471936,38.125995182957915,-16.951155693186326,1611.4893999438548,1558.4085559675198
0.6900000000000001,7.959273852579807,9.314278650876245,18.780113211460453,-17.82821672336534,1654.2437052918135,1558.4085559675198
0.7000000000000001,12.805337442211634,3.7149846256573555,-8.8560121695418,-18.700969939527486,1526.1270988642684,1558.4085559675198
0.71,7.113064798497945,-9.633698290124805,-1.2258253026408639,-16.15905853783846,1422.162396940073,1558.4085559675198
0.72,10.224873244991493,-8.557437987016609,31.28802507774997,-14.030461644115393,1499.0361656223838,1558.4085559675198
0.73,9.160300558266304,9.688481380484962,41.8433180762778,-15.70519581053679,1610.6579103212935,1558.4085559675198
0.74,2.585935900983171,13.080164880221659,23.64243640356808,-17.743272666407695,1662.8124039935503,1558.4085559675198
0.75,7.415207057242283,11.081176926482222,-5.56915685555567,-19.892518726986,1553.0864566049602,1558.4085559675198
0.76,11.866565425702092,-6.079671271977578,-6.152527481139994,-18.20099242700701,1425.3372335562094,1558.4085559675198
0.77,7.106930334587192,-11.281370439671862,26.66365911943946,-15.328632825412098,1483.2793117726515,1558.4085559675198
0.78,11.741294073090987,6.318211081229886,41.260337655904884,-16.648676878979174,1583.9181318625754,1558.4085559675198
0.79,6.812045909183675,11.461841401317317,28.7560287632102,-18.177332337145383,1657.309034913746,1558.4085559675198
0.8,10.8206807694157,7.790420108323746,-0.7610786717923286,-19.217403451624385,1578.9251254337153,1558.4085559675198
0.81,10.016803077195014,-6.68598161205673,-7.602543935917444,-17.401144031406396,1443.0650665884682,1558.4085559675198
0.8200000000000001,7.156492547843305,-9.128391361846031,20.83140896563061,-15.094622093446993,1479.2835713620834,1558.4085559675198
0.8300000000000001,12.157860583188807,3.4815751748367836,37.12020176204581,-16.079061492859044,1565.772969519917,1558.4085559675198
0.84,10.005646064375467,8.716454834857341,29.027447646968504,-17.038297354730062,1642.2645122799834,1558.4085559675198
0.85,6.438758537740215,9.841597850635942,4.303435208997257,-19.00902550173168,1593.4387824524424,1558.4085559675198
0.86,13.223976399115784,-1.7041789734081527,-7.3397103923507,-18.467522990139205,1463.6572165684688,1558.4085559675198
0.87,10.856959701013517,-7.739780605956877,14.955370357979413,-16.472221822324496,1467.903709215848,1558.4085559675198
0.88,11.851605466575068,1.4400548454974273,34.56626929512417,-16.924033888213398,1551.34491561371,1558.4085559675198
0.89,6.669157488850028,9.455319805599865,31.519465891291336,-18.36730941060054,1632.0374196287594,1558.4085559675198
0.9,7.516710838652145,11.012576262885405,8.85162776694469,-19.874066478782368,1613.2411549571782,1558.4085559675198
0.91,11.538351134324044,0.4540021644533062,-7.593363520291839,-19.881981278911372,1484.0638941953803,1558.4085559675198
0.92,7.7711546363776725,-10.834525065515493,10.379457836246056,-17.060464740232813,1453.4893124499558,1558.4085559675198
0.93,11.574292209335832,-0.18765317748887345,33.98341010502774,-17.120020164740858,1535.8415222306942,1558.4085559675198
0.9400000000000001,6.339959571262296,11.729564800645303,35.180142073727154,-19.112495837572446,1615.3570825847487,1558.4085559675198
0.9500000000000001,10.017012481708294,8.113691544152523,14.89987702456527,-19.633518010263796,1634.9870914627163,1558.4085559675198
0.96,13.032689028646859,2.8154563502859675,-7.729385960644642,-20.28439974589662,1510.9483880580435,1558.4085559675198
0.97,9.087472716632565,-7.193439558131104,3.1436270347331496,-18.385950897279674,1436.7661778723955,1558.4085559675198
0.98,10.523046596817162,-5.2955278910594705,31.650926272364565,-17.08104804118552,1508.6399311707949,1558.4085559675198
0.99,9.902090344722208,8.928963242321975,39.317963762055875,-18.319294391487684,1610.8233191264264,1558.4085559675198
1.0,3.5653562420926654,12.847801860425331,21.27035811562576,-20.246090707871115,1649.7092483139402,1558.4085559675198
1.01,8.583828163174687,9.705112593606927,-4.764563900904227,-22.00497830161592,1544.2946383522028,1558.4085559675198
1.02,11.233839659397434,-7.18182597148713,-3.016898427269201,-20.0406524230932,1434.7398792260647,1558.4085559675198
1.03,9.148591164176214,-7.100234535894373,26.729523043264116,-18.266409703475535,1488.635122848558,1558.4085559675198
1.04,12.263980793596916,5.231878522296144,39.58844822393648,-19.020548085869432,1579.3266985935072,1558.4085559675198
1.05,7.806909075907659,10.808790332793413,28.243032127399125,-20.193133976625646,1647.1661194914218,1558.4085559675198
1.06,11.528637151918566,6.698380639914448,1.027827172323179,-20.812359385872405,1580.6591509274263,1558.4085559675198
1.07,11.197880774707068,-3.1866266095300793,-6.665914511918141,-19.916852660995442,1453.90492154845,1558.4085559675198
1.08,10.571957602051404,-6.406635417984258,18.090806217852787,-18.282993718414833,1476.9343701743344,1558.4085559675198
1.09,13.287994698867138,1.0986239851088886,34.87989913420534,-18.632702308722987,1554.7610086907355,1558.4085559675198
1.1,10.950798427714002,7.606430935291156,29.70495833236531,-19.194169654147206,1628.292620241694,1558.4085559675198
1.11,6.240938220740185,10.612413887571908,8.319071326317879,-21.092602535959685,1604.3369897872042,1558.4085559675198
1.12,12.86347800572672,-3.0685594601199693,-6.205575723339872,-20.188652937452776,1478.8169687643165,1558.4085559675198
1.1300000000000001,9.942591708644464,-8.883841955650276,12.491082223499532,-17.9095396235849,1464.7690967890665,1558.4085559675198
1.1400000000000001,12.102492771824517,-0.3677693665914825,32.99420353427743,-17.90275800782762,1542.1233630072902,1558.4085559675198
1.1500000000000001,6.855800530203725,9.485063323357185,32.53056360831764,-19.513029439951126,1619.9035040644671,1558.4085559675198
1.16,8.792026318934232,10.023874050732358,12.263546909246672,-20.619661972555054,1622.4245598113253,1558.4085559675198
1.17,12.03909843171968,5.70387519705252,-6.807909938231058,-22.002430783281387,1504.567329720251,1558.4085559675198
1.18,8.382941613300034,-8.4985741131966,5.771795089356035,-19.735762761879744,1445.4007241901131,1558.4085559675198
1.19,11.347197640447352,-4.452401488844518,31.74897711862576,-18.663124115912137,1513.213688855568,1558.4085559675198
1.2,7.67760922113044,10.901013458637257,38.69260645487988,-20.38829278545483,1599.2807862963289,1558.4085559675198
1.21,7.247638278688192,9.071228561529638,22.335939827620855,-20.765558505989702,1642.1516196515695,1558.4085559675198
1.22,9.65303283007633,6.337140749649626,-2.3089996507649357,-21.78317528972953,1551.5531100393073,1558.4085559675198
1.23,12.481492165583113,-4.689363613355776,-2.8378107073400414,-20.50056934276053,1444.7283223141142,1558.4085559675198
1.24,8.797040524334726,-9.330845685662737,24.48807996859209,-18.12144310062178,1490.0780193753762,1558.4085559675198
1.25,10.77498178218471,7.85350529199321,37.82485235222108,-19.544373540337222,1586.6756208169925,1558.4085559675198
1.26,5.1716102649895594,12.289516875973293,25.736524089142296,-21.41126364412202,1647.5831382980152,1558.4085559675198
1.27,9.686706834421367,9.162177060161635,-0.5003929032592477,-22.526903865483145,1569.7878804581694,1558.4085559675198
1.28,10.491935240984684,-6.8775634558832515,-5.198307541835005,-20.64711559635188,1447.6464348809152,1558.4085559675198
1.29,9.254073628124498,-6.932988780206324,21.412497394686152,-18.91331414805707,1486.4896150045063,1558.4085559675198
1.3,12.751502452838745,3.895762181271493,35.66116037230046,-19.80921506189923,1568.731527602124,1558.4085559675198
1.31,8.968364288579146,9.866418791289775,27.465813014928063,-20.77345446031389,1633.8515632797848,1558.4085559675198
1.32,11.410000984803318,5.852369449407302,3.6850129562583045,-21.280535818842527,1583.0374272646616,1558.4085559675198
1.33,13.33159658053234,-0.2151984937591177,-5.3161786089662915,-21.166060515971083,1466.6472615559062,1558.4085559675198
1.34,11.61522830436907,-6.547079441641237,15.90140325769402,-19.465971846081953,1475.9278322817465,1558.4085559675198
1.35,13.27569630205739,-0.39743018861701807,33.093249716387696,-19.42811079145794,1548.1366601506272,1558.4085559675198
1.36,11.247758403698304,6.541203394687299,29.843067295137732,-19.798218462613708,1620.6655709902143,1558.4085559675198
1.37,6.324840405432203,11.73772429492148,10.35978403762498,-21.73110524797253,1609.8902575900365,1558.4085559675198
1.3800000000000001,11.535643250499556,0.8957887408015842,-5.338907075077996,-21.84663307763173,1493.161380063686,1558.4085559675198
1.3900000000000001,8.765064523333404,-10.047458468666584,9.97661533258226,-19.225335988370404,1460.6749410139864,1558.4085559675198
1.4000000000000001,12.009315701263258,-2.004695013453515,31.700112024367478,-18.804589869559152,1530.549202704828,1558.4085559675198
1.41,6.676541568883793,10.27238703982676,34.43138776765126,-20.759303779588745,1604.174000905796,1558.4085559675198
1.42,10.107452618537677,8.695813897605767,17.10189110211308,-21.303197982896407,1637.7327143541079,1558.4085559675198
1.43,12.74223613228711,3.925964356284274,-6.2800339284491,-22.219053300301827,1524.3708284001639,1558.4085559675198
1.44,10.007314341828714,-5.94736111451521,0.8885374553767181,-20.633479766965028,1436.4614160571289,1558.4085559675198
1.45,10.304689399968082,-8.356880662349898,29.675270455831374,-18.5201644058992,1495.8554176465111,1558.4085559675198
1.46,9.043330841747721,9.797752041385419,41.09925268647006,-20.018505007632694,1594.5111871512665,1558.4085559675198
1.47,3.2548562860633803,12.472212844155656,26.635686923640357,-21.24534560451976,1649.7726654460519,1558.4085559675198
1.48,7.572342968065385,10.974397466456573,0.04313600161137077,-22.875871480066497,1575.1534507366284,1558.4085559675198
1.49,11.770379502459189,-6.26386016333908,-6.381470784530296,-21.137523862933772,1445.1316591132315,1558.4085559675198
1.5,7.56683422794391,-10.461808688145489,21.388298241034903,-18.48009220564934,1476.0203507694382,1558.4085559675198
1.51,11.659676575875853,6.467589962555582,38.445876705655586,-19.834303098096438,1575.5152507910036,1558.4085559675198
1.52,6.783877097061826,11.478536026416336,28.787790648030978,-21.10924446694706,1642.0743963097677,1558.4085559675198
1.53,10.898111888520333,7.681727347613266,2.9085627432002723,-21.74528783753263,1586.1788012696968,1558.4085559675198
1.54,11.575414479860298,-1.7725519091150739,-6.375669277821754,-21.207607067686574,1462.5874148201285,1558.4085559675198
1.55,10.460927909343521,-6.018023236130013,16.21144276189103,-19.66064654538392,1472.494221044814,1558.4085559675198
1.56,13.122111031858221,2.3638908277165527,34.28381884113093,-20.335438392951524,1547.4775406356202,1558.4085559675198
1.57,10.223352620552646,8.559254580488718,31.26327327470992,-20.979436777049326,1622.286772485666,1558.4085559675198
1.58,7.218421038622251,9.14809338838718,10.745038416333538,-22.215918846352952,1613.029521377363,1558.4085559675198
1.59,12.981582145368664,-1.7776795312591345,-6.1206575724538546,-21.662241234341703,1490.2080762055418,1558.4085559675198
1.6,10.710579914148502,-7.941111740834302,9.502741863533917,-19.615328977037375,1457.6273097506962,1558.4085559675198
1.61,13.175642757330351,-2.0445575827024154,31.705299764523854,-19.16315512294309,1526.8328591063425,1558.4085559675198
1.62,9.93352839240275,6.707401015066644,34.44442028060536,-19.837760469808682,1610.7177008075255,1558.4085559675198
1.6300000000000001,8.072290481748514,10.612064085560833,16.331457251846263,-21.00039953126061,1635.523262794929,1558.4085559675198
1.6400000000000001,11.610080118516871,6.556204497984867,-6.241476828345701,-22.34050042096506,1521.8623867184122,1558.4085559675198
1.6500000000000001,8.517772487473458,-8.91139698046253,1.9331541991384396,-19.95797516106495,1439.0972349181886,1558.4085559675198
1.6600000000000001,11.843687722467287,-6.124119439597451,29.594454896506694,-18.454818076574238,1497.380432496833,1558.4085559675198
