t,iq,id,vq,vd,omega,r
0.0,0.0,0.0,0.0,0.0,0.0,2340.5598117352
0.01,0.0,0.0,608.5455510511521,0.0,52.757623276404544,2340.5598117352
0.02,11.548971717374084,0.06510976851904124,1031.7576047540572,-0.01692853981495072,59.7782225570528,2340.5598117352
0.03,12.070591983701824,-5.663796159888787,1347.9463021716683,-2.365492125092302,69.54538701129813,2340.5598117352
0.04,12.42293475695147,-4.842362006532022,1582.7487592384348,-3.9700206296530607,86.515123119043,2340.5598117352
0.05,12.773398373688025,-3.823358702089279,1754.6599508463694,-4.937283033681116,112.00718142233441,2340.5598117352
0.06,13.09833181459669,-2.4922843843554268,1877.2644068661152,-5.387217143602887,147.85565761883655,2340.5598117352
0.07,13.314318368183518,-0.7118315590283366,1960.2941185478887,-5.375630126811608,197.2391698830752,2340.5598117352
0.08,13.229019014194385,1.664582139715872,2010.2391035122068,-4.898731202442117,268.08374906821456,2340.5598117352
0.09,12.451581890430614,4.7682162496764,2029.9221878161968,-3.89838952152077,367.07484789447386,2340.5598117352
0.1,10.247859498800093,8.529897623689891,2019.7539923175411,-2.232953610997344,392.91250083721974,2340.5598117352
0.11,13.319560237731725,0.6058818789283733,2005.614961036319,-4.512920229650247,456.0787972456885,2340.5598117352
0.12,11.794909752090051,6.217546277900049,1979.758066645005,-4.63166425834539,567.4223992815884,2340.5598117352
0.13,7.024053143851164,11.333157336335374,1932.3581082081714,-2.6276658716872094,630.0357451429976,2340.5598117352
0.14,11.063196161644628,7.442007018724807,1881.463371113143,-4.042197530434127,645.4308258348848,2340.5598117352
0.15,13.035550588641668,2.802177479879102,1838.6331519400946,-7.201797470610317,730.1783178949162,2340.5598117352
0.16,8.019859033301817,10.651743465918853,1786.5892850049545,-6.461473141370386,783.7012670173333,2340.5598117352
0.17,10.48405921272716,8.237856529571784,1733.9164796086213,-7.853148073847299,807.88450704399,2340.5598117352
0.18,12.0139441321937,5.782985748409406,1687.7713021769814,-10.287378793605868,904.3402899311201,2340.5598117352
0.19,3.0212325369521196,12.986528856297188,1630.4617847159157,-7.564410291311932,991.9322469468538,2340.5598117352
0.2,3.7505999018893035,12.721885042772263,1565.8367346137497,-6.525052360796995,1073.4985775465198,2340.5598117352
0.21,2.9365372150471862,12.35799785093879,1497.3777530837215,-6.102081912894369,1151.3282862765027,2340.5598117352
0.22,1.0356432819511898,12.071859533326961,1427.0385417076102,-5.47733925269967,1224.3368067384258,2340.5598117352
0.23,-1.669873709172725,11.453134923572904,1356.4706132083752,-3.9782830230661026,1240.0601026037891,2340.5598117352
0.24,8.649715866539562,7.529073906323993,1297.1949722221948,-8.435232345158344,1281.8283255381925,2340.5598117352
0.25,6.276885447928683,9.2167787183826,1243.3979395326348,-10.502288828673041,1340.9502407191685,2340.5598117352
0.26,0.48406790556083323,10.848663524284834,1189.792773049542,-10.359746196129837,1399.4302154158522,2340.5598117352
0.27,-3.945930876794517,9.615122968949516,1135.5819803391787,-7.40179108938219,1426.827428886802,2340.5598117352
0.28,4.3497771794040245,8.7168076847704,1086.303995376999,-10.130212093572693,1480.109878296435,2340.5598117352
0.29,-2.6868980643695615,9.537714501605329,1037.9963095012922,-9.067182947013627,1495.3189125319027,2340.5598117352
0.3,5.667526380071055,7.490984208942389,995.328506036155,-12.193846696724895,1542.9167043379668,2340.5598117352
0.31,-2.8444875718207774,9.093981313092293,954.2207327635977,-11.107864590880268,1556.5386961530385,2340.5598117352
0.32,4.434207713608288,7.433709449029331,917.5026254056659,-13.762529843162657,1600.8667270145268,2340.5598117352
0.33,-4.123026405627036,8.19145406554484,881.6841579496283,-11.587045062925304,1620.0141407474478,2340.5598117352
0.34,0.7398153699183485,8.490758565484795,848.5082515308753,-13.50711562134465,1655.947283145009,2340.5598117352
0.35000000000000003,-6.112500696754494,6.3721372794805005,816.4480862709269,-9.450044188200126,1683.2113143774639,2340.5598117352
0.36,-3.51949042764494,7.984110651446812,785.2224225209543,-9.81527191186771,1694.5066514397529,2340.5598117352
0.37,0.9932523332049545,7.704284763580657,757.2527923491292,-12.711155467926979,1723.997087389842,2340.5598117352
0.38,-6.488974536233719,5.428224965159019,731.1975219739477,-8.751660786396194,1748.4621112026728,2340.5598117352
0.39,-4.732541881659785,6.896106056930888,705.3394525014274,-8.556506037168862,1763.1190155872384,2340.5598117352
0.4,-2.6066466989431634,7.914165550424954,681.4599915203771,-10.86924085415252,1773.177941802183,2340.5598117352
0.41000000000000003,-8.670044538923815,4.1998763872616465,662.2050953593517,-5.550602431727807,1790.646134872438,2340.5598117352
0.42,-6.708776128018651,4.582286684300133,643.392923433937,-3.439892731788881,1810.9125037605313,2340.5598117352
0.43,-5.597525733553086,5.779772122688871,624.1416477556028,-3.9494724655317985,1826.24551075632,2340.5598117352
0.44,-4.315589105012906,6.726560029169861,605.4369573925793,-6.24815151240587,1834.1754498940531,2340.5598117352
0.45,-2.8210933291391163,7.46449117224949,588.6584635032035,-9.662781764970807,1837.6925121198778,2340.5598117352
0.46,-9.356694928873234,3.669616475531967,576.7450522696292,-4.568103889059441,1845.6394907750162,2340.5598117352
0.47000000000000003,-7.578413078701203,3.7086605890653317,565.7286400029271,-1.9885926741197886,1859.664864818005,2340.5598117352
0.48,-6.600907285303084,4.168068062852326,553.9419673859069,-1.420467162335181,1874.569554919181,2340.5598117352
0.49,-5.942873726700576,4.979922698433333,541.2835095774115,-2.4181561197136214,1887.0847729959232,2340.5598117352
0.5,-5.227454518802157,5.664769539336518,528.4109290110571,-4.466004516128455,1895.9919718139547,2340.5598117352
0.51,-4.461859036359892,6.246722746699141,516.1458419309495,-7.167439925370111,1900.67968900952,2340.5598117352
0.52,-3.589794374996237,6.77208594885847,505.26768695492257,-10.240881061886945,1898.756818080251,2340.5598117352
0.53,-8.10064434656603,4.325659001761941,498.4197808852997,-10.469650810620289,1895.5832235960318,2340.5598117352
0.54,-9.445066268681378,3.21570459668793,494.7872224782472,-5.4215035520958095,1896.8688676632848,2340.5598117352
0.55,-8.215921472419158,3.221730566451366,491.64442401732856,-2.3810530792917706,1903.1663066030417,2340.5598117352
0.56,-7.315917242383266,3.277866597657859,487.6544182420813,-0.8986167579759675,1912.5108299228218,2340.5598117352
0.5700000000000001,-6.726641080911056,3.501940234793519,482.28241930218275,-0.6326732704565333,1922.9650325943355,2340.5598117352
0.58,-6.392085725821511,4.01043608046143,475.5989362527143,-1.3169510815620082,1932.8866538397594,2340.5598117352
0.59,-6.054172708888315,4.4461316204406485,468.01087335150584,-2.6334614303835298,1941.644989064957,2340.5598117352
0.6,-5.718350061358958,4.8220448117988255,459.9915762960036,-4.3401522225267595,1948.875086603256,2340.5598117352
0.61,-5.391128436391957,5.147379745148977,452.00151591896037,-6.258242761620387,1954.527391691606,2340.5598117352
0.62,-5.066139076401244,5.438823703908944,444.40515767502893,-8.264675661034744,1958.4465702238022,2340.5598117352
0.63,-4.735607026154933,5.709329314254201,437.52124085679634,-10.280499102990952,1960.7587159242896,2340.5598117352
0.64,-4.397388295437208,5.9624688000448955,431.55731004763743,-12.259611380049668,1961.3943928486924,2340.5598117352
0.65,-4.028212731665729,6.214630133272769,426.68263407187936,-14.183190359054082,1960.277690041835,2340.5598117352
0.66,-3.619225417386369,6.467129572020457,423.03833002814383,-16.049179773782335,1954.2623248994087,2340.5598117352
0.67,-10.356625398379787,3.093470129224575,423.4714949390989,-14.085203760203157,1942.6657613769428,2340.5598117352
0.68,-10.587616432750183,2.773763200338032,426.9249478163732,-9.242333922379547,1934.1239618354266,2340.5598117352
0.6900000000000001,-9.820460621746527,2.8939615314152904,431.68219513448014,-4.489964663481086,1929.6056378976236,2340.5598117352
0.7000000000000001,-8.984861056937397,2.9374072688761586,436.29360615760373,-1.3464867785276213,1928.987219049228,2340.5598117352
0.71,-8.220832568024107,2.950919523508291,439.8360212616466,0.5299267888720287,1931.83296433295,2340.5598117352
0.72,-7.5922628972484025,2.980416492255353,441.72607154197976,1.4119475790236902,1937.1425576650306,2340.5598117352
0.73,-7.093041908813784,3.032031813051575,441.7688099652875,1.531129073101336,1943.9973469833315,2340.5598117352
0.74,-6.745913603561163,3.177858199820384,440.0495953726212,1.068224671995949,1951.5217862037018,2340.5598117352
0.75,-6.559611180214021,3.4952722886581866,436.8560738939494,0.15822463130173303,1959.026291915278,2340.5598117352
0.76,-6.380263119002615,3.763194313718137,432.5410850711965,-1.0278711299729932,1966.1367311768677,2340.5598117352
0.77,-6.214684199871032,3.9856566959753006,427.4707339663677,-2.3592030495524603,1972.7045299329104,2340.5598117352
0.78,-6.0668041724650115,4.167066239612282,421.9627990214415,-3.73763631241527,1978.5886804904337,2340.5598117352
0.79,-5.937230905430895,4.314495636616362,416.2970865706386,-5.0928700508133655,1983.8813027182223,2340.5598117352
0.8,-5.827332919880221,4.430832639115899,410.6630691397133,-6.37677311078966,1988.514678802683,2340.5598117352
0.81,-5.73917318873415,4.518244824248925,405.22527443619674,-7.557708002077365,1992.574484816001,2340.5598117352
0.8200000000000001,-5.666350009585667,4.586167980853976,400.08464864181485,-8.618834462826065,1996.175295026135,2340.5598117352
0.8300000000000001,-5.610522626619213,4.6340693455064335,395.2896541284947,-9.552035049065633,1999.432576443236,2340.5598117352
0.84,-5.56977746917041,4.664656440203228,390.8479704944087,-10.355540898255503,2002.3752930520875,2340.5598117352
0.85,-5.544873430863285,4.677897190763642,386.75955238289293,-11.03093697188892,2005.0532976578124,2340.5598117352
0.86,-5.534508322566133,4.675452090295445,383.011468576868,-11.582151142844333,2007.5218030659348,2340.5598117352
0.87,-5.537764987005054,4.658186683754117,379.57982428105083,-12.01437468848222,2009.8255338893534,2340.5598117352
0.88,-5.554019218222507,4.62644462559367,376.43523858687394,-12.333169657485191,2012.0109889492003,2340.5598117352
0.89,-5.581964088616621,4.580974313711512,373.5434061667067,-12.544035635524056,2014.11495427467,2340.5598117352
0.9,-5.621331652882515,4.52135902471355,370.86909752297566,-12.651741650334634,2016.164722010661,2340.5598117352
0.91,-5.671273186770536,4.447576239409241,368.3785643103663,-12.660253963664044,2018.1926552414145,2340.5598117352
0.92,-5.730389116264741,4.3599798718360185,366.0375647407499,-12.572745562746492,2020.1922329539166,2340.5598117352
0.93,-5.80021067977846,4.2558164429998655,363.82234493303326,-12.390747821682107,2022.1912220643248,2340.5598117352
0.9400000000000001,-5.877232646090166,4.137278764244513,361.7062998091864,-12.115617319922384,2024.24068846828,2340.5598117352
0.9500000000000001,-5.963438440344387,4.0001586439300265,359.65630450401244,-11.746834304845182,2026.3001226121025,2340.5598117352
0.96,-6.055863376078229,3.8459685429534174,357.65702616765304,-11.283306508421914,2028.3028263910883,2340.5598117352
0.97,-6.155841705127721,3.6711731383643276,355.7132628995341,-10.722420737732293,2030.0999038467548,2340.5598117352
0.98,-6.261019056274299,3.477035863853807,353.86478420838785,-10.061800934579153,2031.7495694253253,2340.5598117352
0.99,-6.3674554427037915,3.2658107195239543,352.12218763347454,-9.300485977650206,2033.048618107761,2340.5598117352
1.0,-6.47407269040496,3.0380733759484,350.5448520563537,-8.438241827012453,2033.9421880124985,2340.5598117352
1.01,-6.578186998901764,2.79614565187848,349.1869388891122,-7.476928518074434,2034.2478322561774,2340.5598117352
1.02,-6.680965851291523,2.550305998738895,348.1343905182358,-6.422639824909843,2033.7381969430974,2340.5598117352
1.03,-6.782222402742963,2.3048657797807137,347.5071553441492,-5.284479537803891,2032.6314156986164,2340.5598117352
1.04,-7.008536509470421,2.2546893953429366,347.3678511583654,-4.125071098146764,2030.678148085708,2340.5598117352
1.05,-7.2506287928898905,2.2154904984629495,347.8003907918774,-2.949102857233266,2027.667543597791,2340.5598117352
1.06,-7.507505261655885,2.193808914468733,348.92139238908396,-1.7698518428396954,2023.8719220781331,2340.5598117352
1.07,-7.819012018947236,2.248478929836594,350.7576010019653,-0.6213590035522661,2019.1161980954907,2340.5598117352
1.08,-8.09101269314999,2.2748459396051954,353.3555849801349,0.4892486281972974,2013.3910890114596,2340.5598117352
1.09,-8.313834810233308,2.2866357936008446,356.7531934522981,1.5445415951697918,2007.3521906455403,2340.5598117352
1.1,-8.560903989660254,2.3759044977742367,360.8321581017475,2.4992884934125037,2000.9397136076464,2340.5598117352
1.11,-8.702047190994525,2.4193339064475405,365.49608493469873,3.3453885193418587,1994.3985296752883,2340.5598117352
1.12,-8.762873271149964,2.4555659933292784,370.6196674165127,4.063107207997604,1988.2110516183675,2340.5598117352
1.1300000000000001,-8.75679720132828,2.499813190125884,375.9917496265625,4.631554616627534,1982.6544849088182,2340.5598117352
1.1400000000000001,-8.683121332240573,2.545504059042626,381.3873804964633,5.036575987585733,1978.1294110535287,2340.5598117352
1.1500000000000001,-8.557715918488874,2.5956656830000764,386.53954871568266,5.2697255502863944,1974.7464458037873,2340.5598117352
1.16,-8.37459975029927,2.6266618240876913,391.2190215430408,5.335919022855639,1972.4901530935815,2340.5598117352
1.17,-8.152217055925515,2.638627690226943,395.26015852861497,5.246313216677081,1971.050482066506,2340.5598117352
1.18,-7.869814971084166,2.590104217524904,398.60980262148246,5.02840160310302,1970.9925198606593,2340.5598117352
1.19,-7.6830051941587545,2.6464859216056995,401.11539893810675,4.667428766833812,1971.891055626654,2340.5598117352
1.2,-7.4630191703889714,2.6454136329788263,402.7412841215575,4.202564651476143,1973.7586520339787,2340.5598117352
1.21,-7.305195727659085,2.697966463025093,403.4768578702629,3.6429844298287493,1976.169925187932,2340.5598117352
1.22,-7.125282377527041,2.6886781300518714,403.40104765297235,3.033855899197809,1979.131073148515,2340.5598117352
1.23,-7.00775199026847,2.7317699092735412,402.5896550929496,2.385685030670134,1982.3984365276606,2340.5598117352
1.24,-6.90056470396941,2.751320458897591,401.149105762194,1.7316203327343171,1985.7348746801129,2340.5598117352
1.25,-6.799311556013377,2.739494628761361,399.2185985385726,1.1022567662410827,1989.1444386458209,2340.5598117352
1.26,-6.775112555061514,2.810722972917613,396.9186746176432,0.4932398717845502,1992.486064518391,2340.5598117352
1.27,-6.737624449407347,2.8234124094903623,394.3532921158938,-0.05995721976706296,1995.672485105222,2340.5598117352
1.28,-6.716135983076234,2.825168244142275,391.6310507285633,-0.5432596964476356,1998.655913938616,2340.5598117352
1.29,-6.707147713181621,2.812256621022986,388.844412189455,-0.9448319952166916,2001.402015447504,2340.5598117352
1.3,-6.7094013640371735,2.7847865975289943,386.07130082356605,-1.2565386106154277,2003.8847475978573,2340.5598117352
1.31,-6.722433364532378,2.7445289851942394,383.3766639998075,-1.473790982377772,2006.0815432843606,2340.5598117352
1.32,-6.746459278254743,2.694637109620312,380.8148542430363,-1.595300265023171,2007.95974299111,2340.5598117352
1.33,-6.777811070777526,2.6322561669711426,378.4337489872219,-1.6209364610492663,2009.3847865037226,2340.5598117352
1.34,-6.782029306492039,2.507761313171705,376.29467244128733,-1.5395990107493396,2010.4813302239074,2340.5598117352
1.35,-6.856140457208822,2.477486709630888,374.43505063038646,-1.3863797584924116,2011.2747117641602,2340.5598117352
1.36,-6.951162082595822,2.463739554055827,372.8635843914511,-1.1694245261235214,2011.6925663044,2340.5598117352
1.37,-7.048758114414901,2.4411226718600267,371.60126972264413,-0.8913239635502341,2011.640363290693,2340.5598117352
1.3800000000000001,-7.1419864988064665,2.404714149216959,370.68585478534663,-0.5554792804913955,2011.0304584289793,2340.5598117352
1.3900000000000001,-7.2253111507273164,2.353828940565267,370.1660842726889,-0.1675656437778506,2009.9685501284387,2340.5598117352
1.4000000000000001,-7.3409238086648845,2.350428875829098,370.06143286814,0.24793514045770992,2008.607273848443,2340.5598117352
1.41,-7.480411356401288,2.385174497190221,370.34586493701914,0.670919734344357,2006.911369223752,2340.5598117352
1.42,-7.594177525314329,2.3974003578500387,370.9984476733393,1.0983711104864318,2004.8250792227195,2105.7074275505242
1.43,-7.678903027010431,2.390221099636384,310.9563847087478,1.5239765240499672,2002.5963858660043,2105.7074275505242
1.44,-7.770846814097538,2.4126847265797027,268.83968818766226,1.9273015612879583,2000.082062197929,2105.7074275505242
1.45,-7.81962311075217,2.407194864345973,237.88200178469557,2.3052900668416343,1997.516477630589,2105.7074275505242
1.46,-7.8666289360817805,2.4273175050598894,215.30672505677322,2.63971137266683,1994.9262059068817,2105.7074275505242
1.47,-7.888609603354702,2.4463979500490796,199.02121592506347,2.922117746840024,1992.6315317417193,2105.7074275505242
1.48,-7.907423837148421,2.4887459935116336,187.37928883868642,3.1390734923238592,1990.5251655930313,2105.7074275505242
1.49,-7.879659692506923,2.5019996866162746,179.16604263401004,3.2942772443089625,1988.652466788523,2105.7074275505242
1.5,-7.805980046639483,2.483453499355262,173.45757604592336,3.3928672584129815,1987.2332682571505,2105.7074275505242
1.51,-7.757940662018,2.5126217740271755,169.52242701979768,3.419387160181665,1986.16117911223,2105.7074275505242
1.52,-7.673469868493511,2.511011043827706,166.82441766702217,3.3852009957720526,1985.6890959502512,2105.7074275505242
1.53,-7.615732661794307,2.549846130315208,164.91070829450408,3.2829944758260767,1985.6404419950115,2105.7074275505242
1.54,-7.547191202121205,2.5762664658684615,163.47895966900919,3.124487452405908,1985.965499295622,2105.7074275505242
1.55,-7.463472802408074,2.5810348153194873,162.31185946427712,2.9248481991464748,1986.621507704759,2105.7074275505242
1.56,-7.382911724283442,2.583028375089442,161.26124782676652,2.69372956435674,1987.4759618003425,2105.7074275505242
1.57,-7.299990099368913,2.571699757659035,160.24799209449918,2.4441817647602675,1988.4728011257616,2105.7074275505242
1.58,-7.216631943280976,2.5481504824758168,159.2262876340054,2.188148504635061,1989.6852626928317,2105.7074275505242
1.59,-7.161826512047867,2.5513183483884982,158.14964312854326,1.9260247270369781,1991.0638258414754,2105.7074275505242
1.6,-7.123647416105232,2.562393030281434,156.99342013093712,1.6647130948674334,1992.5549042628745,2105.7074275505242
1.61,-7.096215300642372,2.5725867738502135,155.75115375172737,1.4133087828244733,1994.088097071129,2105.7074275505242
1.62,-7.0746863425207875,2.574441299917454,154.43460601735427,1.181932538043257,1995.6036878394484,2105.7074275505242
1.6300000000000001,-7.060729483251374,2.57028290693559,153.06797648901892,0.9785324789993473,1997.052156215878,2105.7074275505242
1.6400000000000001,-7.055011989833232,2.5615701012376797,151.68194122350943,0.8092009480577791,1998.3923616436807,2105.7074275505242
1.6500000000000001,-7.057682244771283,2.5494447118213035,150.3098243573187,0.6782532411228895,1999.5893977653227,2105.7074275505242
1.6600000000000001,-7.068369591265878,2.534640698324027,148.98524990156653,0.5883824242849505,2000.6126401388415,2105.7074275505242
1.67,-7.086228159231991,2.517512019738067,147.74087690049092,0.5408208080731542,2001.4344589405655,2105.7074275505242
1.68,-7.109999362381815,2.4981287742909135,146.60778905584465,0.5354739562336628,2002.0299043120194,2105.7074275505242
1.69,-7.138095356864131,2.4764216238193533,145.61514045107626,0.571009080445494,2002.3774885295315,2105.7074275505242
1.7,-7.1687052003253875,2.452349448380814,144.78972744103297,0.6448968037847592,2002.4609932624933,2105.7074275505242
1.71,-7.1999242967745705,2.4260647539893188,144.15525661575592,0.7534203537679655,2002.354565607332,2105.7074275505242
