t,iq,id,vq,vd,omega,r
0.0,0.0,0.0,0.0,0.0,0.0,111.28499958114713
0.01,0.0,0.0,28.934099891098256,0.0,55.389704273459316,111.28499958114713
0.02,11.554967362304856,-0.13742208275235407,39.044413418587304,0.035729741515612055,113.36339147628597,111.28499958114713
0.03,11.696446309276633,-0.6545896352529073,32.18872321567598,0.2130297733081843,175.49851031139931,111.28499958114713
0.04,12.427739513412796,-1.7587244652295912,11.301019636058557,0.826559931765161,198.90545880342898,111.28499958114713
0.05,12.06367766736205,1.6383521942478105,-13.850443452812204,0.38300111660843433,154.9069283816425,111.28499958114713
0.06,-12.434484559655985,-2.6799777382543875,-20.962337586534005,1.0961788504970529,101.67838747316371,111.28499958114713
0.07,-12.894713756744766,-3.3917745959003485,-14.800118419296282,1.9512404680485997,70.62674338920567,111.28499958114713
0.08,-11.832012271389857,-0.5879000168583817,-1.3776618774774207,2.070176726472776,70.60242979249766,111.28499958114713
0.09,-2.806763503059002,1.9894244716467775,9.404662093733469,1.5470473636760298,92.60192502860616,111.28499958114713
0.1,11.575141173667468,1.4862524586096395,10.817831439323495,1.1805159691539913,117.48184850313577,111.28499958114713
0.11,11.466125963500186,1.4085874896430859,6.154378635307668,0.8291457464328851,130.531875835682,111.28499958114713
0.12,7.931618590036728,0.6739274555339669,-0.7354002754260579,0.6680104828904844,125.8087280986536,111.28499958114713
0.13,-2.269049229506452,-0.9320758993841245,-3.6498319418603473,0.9170894912856964,112.92949563153435,111.28499958114713
0.14,-6.560326852060776,-1.01798932553906,-2.2491691405452223,1.172445956932011,104.25142685022873,111.28499958114713
0.15,-4.406048296510861,-0.20438001034018616,0.6759740185696521,1.2154048663650683,104.18687362293474,111.28499958114713
0.16,-0.00465679819931096,0.42175378211067127,2.4083013249624026,1.103705082912892,108.46638619914359,111.28499958114713
0.17,2.5805590524925606,0.5419366383017377,2.3991676230711416,0.967019094775547,112.5384530477255,111.28499958114713
0.18,2.562029153542045,0.33897099169269884,1.4047615985447253,0.8843060033184627,114.14361295852264,111.28499958114713
0.19,1.0730813241096826,0.049591480177219815,0.42067580235978064,0.8748019283893125,113.32689932695024,111.28499958114713
0.2,-0.4055198380428124,-0.1318446939321949,0.034533973356955905,0.9095774636134554,111.42774098775959,111.28499958114713
0.21,-1.0006949435912529,-0.1535204756754498,0.2739656920490455,0.9481743403497503,109.87408503581631,111.28499958114713
0.22,-0.6702635213905468,-0.08923339826918608,0.8064924540268145,0.9698398191429842,109.31947702921829,111.28499958114713
0.23,0.09479084448366049,-0.040016377587782474,1.2720709172953482,0.9793517433331159,109.63271942583468,111.28499958114713
0.24,0.8077812634674767,0.028743577340650805,1.4729333121005903,0.9714782494486689,110.80164437112312,111.28499958114713
0.25,1.15551837673738,0.105067418195459,1.2897258998366659,0.944448156491256,111.82693753011006,111.28499958114713
0.26,0.9117085826160155,0.0795995784752179,0.9184994332932749,0.9248029402696539,112.18638542758855,111.28499958114713
0.27,0.36972485275781025,0.024409612891524858,0.6025471168172659,0.9192524367026095,111.92521169540066,111.28499958114713
0.28,-0.10629321795806508,-0.013632495503800295,0.47643931077243745,0.9230409816625128,111.3558188391052,111.28499958114713
0.29,-0.3128120690225907,-0.024863646977624075,0.5446966306121691,0.9293692049216571,110.79667774024801,111.28499958114713
0.3,-0.23875195387281903,-0.024756418245159922,0.7313158891422276,0.9355572371956224,110.41188022514838,111.28499958114713
0.31,0.007849746034273786,-0.03398262870878461,0.9490152497852729,0.9441451564774549,110.17331559964506,111.28499958114713
0.32,0.30288198503809044,-0.06397516829589385,1.1506510727662624,0.9604388739472995,110.08968066393453,111.28499958114713
0.33,0.6251002497220368,-0.0268175947950976,1.2908199063491697,0.9667716969110659,110.76611126573867,111.28499958114713
0.34,0.8855440869494271,0.06681465270422504,1.1897872190736127,0.9491317112600164,111.55354304480794,111.28499958114713
0.35000000000000003,0.7645732359160564,0.07215198573172721,0.9248434348990382,0.9310403414968095,111.94222979941088,111.28499958114713
0.36,0.3802776589810856,0.03751467009431833,0.6654225538111498,0.9220080471296039,111.83851917878384,111.28499958114713
0.37,-0.012301418705240316,0.0025221811797814775,0.5350809060614166,0.921727426723804,111.4101197185189,111.28499958114713
0.38,-0.22556311226663983,-0.01702862103862099,0.5666082613233984,0.9261800900056432,110.90005677564683,111.28499958114713
0.39,-0.20628390340838046,-0.02660573362057439,0.719322775890707,0.9329272945366063,110.47968521951113,111.28499958114713
0.4,-0.010007078459596282,-0.04028170622915701,0.925394083226477,0.9431344808199813,110.17794351346036,111.28499958114713
0.41000000000000003,0.26805748486910563,-0.06884931265162086,1.1353805003581137,0.9606324850471111,110.05306542599118,111.28499958114713
0.42,0.6021019320268062,-0.029264519046716286,1.2907468925435155,0.967552766872741,110.72746378880883,111.28499958114713
0.43,0.8854014185053716,0.06784835944314332,1.1992035075087855,0.9496195482270566,111.53637927498211,111.28499958114713
0.44,0.7784660689617114,0.0742644601722115,0.934722265443317,0.930989272176713,111.94666596728925,111.28499958114713
0.45,0.39494066620059254,0.038815972918767525,0.6703028894621799,0.9216397638195556,111.85302074889906,111.28499958114713
0.46,-0.004961439884637622,0.0025557807840281502,0.5344734307401128,0.921363420544896,111.42292569935395,111.28499958114713
0.47000000000000003,-0.22628637953371622,-0.01772601512971579,0.5630776959637785,0.9259977422864623,110.90554781876139,111.28499958114713
0.48,-0.21127013980157627,-0.027208791387284437,0.7157817879192122,0.932894767895859,110.47912217273499,111.28499958114713
0.49,-0.015003825079224193,-0.04034334365815385,0.9233036896050948,0.943111949333106,110.17615586226574,111.28499958114713
0.5,0.2651927006234241,-0.06838609138679319,1.1344441420172517,0.9604888996570907,110.04871415697421,111.28499958114713
0.51,0.6001396359510697,-0.030208106957864356,1.291405536772353,0.9676591465522673,110.72105833493706,111.28499958114713
0.52,0.8860284924615174,0.0676404118292136,1.20130139486476,0.949770558407093,111.53252621808089,111.28499958114713
0.53,0.7814103268858973,0.07444933986932584,0.9369986567341645,0.9310901341593605,111.9465841052463,111.28499958114713
0.54,0.39830968548739265,0.03907186035303023,0.671715531879855,0.9216759438662658,111.85577054248006,111.28499958114713
0.55,-0.0027449875523131717,0.0027259689394261385,0.5346277207927613,0.9213579105455456,111.42681912048215,111.28499958114713
0.56,-0.22584450707887896,-0.017630071549549133,0.5621544721439714,0.9259689888378225,110.90917461992191,111.28499958114713
0.5700000000000001,-0.21238340804351571,-0.02710242322514841,0.7142483984764041,0.9328393181608656,110.48194234670709,111.28499958114713
0.58,-0.01702911198933974,-0.04013270351843332,0.9215887648553572,0.9430027968434069,110.1785441431088,111.28499958114713
0.59,0.26285989625826334,-0.06804425716118051,1.132722742253883,0.9602929766701295,110.0464450082825,111.28499958114713
0.6,0.596991372426245,-0.03140207727767669,1.2910932189500621,0.9677770741907135,110.71425616240104,111.28499958114713
0.61,0.8852114867916121,0.06728839065292996,1.2029158892538427,0.9499680718481749,111.5272227131848,111.28499958114713
0.62,0.7836395844911271,0.07463619261599042,0.9393362636368117,0.9312355456745466,111.94532111751981,111.28499958114713
0.63,0.40177118152432223,0.03941763126004971,0.6734507841488796,0.9217333234730936,111.85816663335402,111.28499958114713
0.64,-5.024086083001405e-05,0.0029870218113096265,0.5350613403778754,0.9213508741147536,111.43103224276112,111.28499958114713
0.65,-0.22499029457737524,-0.01749346722348208,0.561321493061817,0.9259290458109719,110.91331175527782,111.28499958114713
0.66,-0.21336567274584026,-0.02700569039868897,0.7126458263721237,0.9327755906423962,110.48505897689168,111.28499958114713
0.67,-0.019158549982031564,-0.039952953925937236,0.9197610714877184,0.942893301759153,110.18090847065908,111.28499958114713
0.68,0.2603599875369821,-0.06772512109586838,1.1309401719126229,0.9601023037048193,110.04394449485744,111.28499958114713
0.6900000000000001,0.5937660722485991,-0.03256605035277919,1.2907980043337959,0.9678922255855832,110.70725890133527,111.28499958114713
0.7000000000000001,0.8844185880622879,0.06693813039745422,1.2045888580482755,0.9501626511787172,111.52185080029676,111.28499958114713
0.71,0.7859554626952057,0.0748286060288407,0.9417258998511231,0.9313765949151932,111.9440919755725,111.28499958114713
0.72,0.40530909730831943,0.03976428906241519,0.6752095788188117,0.9217861658192535,111.86062700914414,111.28499958114713
0.73,0.0026786256722538112,0.003242919714734672,0.5354940197821412,0.9213406495840467,111.43528530838198,111.28499958114713
0.74,-0.22414140590320375,-0.017367858268458672,0.5604795567726071,0.9258887219309933,110.91745139835815,111.28499958114713
0.75,-0.21436161633294173,-0.026913455985233453,0.7110375477576232,0.9327125419044694,110.48815281929612,111.28499958114713
0.76,-0.02128886243652799,-0.0397755695317354,0.9179337120811649,0.9427850554228682,110.18324365658192,111.28499958114713
0.77,0.25786120774879917,-0.0674062651786803,1.1291649822105563,0.9599129286740077,110.0414744975736,111.28499958114713
0.78,0.5905438285175905,-0.033739261065891785,1.2905011613569366,0.9680110738993527,110.70029099409419,111.28499958114713
0.79,0.8836186050376027,0.06659315761333406,1.2062547441303662,0.9503594603092269,111.51649547957327,111.28499958114713
0.8,0.7882587527323027,0.07502204961450121,0.9441076350090195,0.93151965898559,111.9428600730913,111.28499958114713
0.81,0.40883353610358397,0.04011130805855716,0.6769647342281896,0.9218409393865101,111.86307053865455,111.28499958114713
0.8200000000000001,0.005401013543030215,0.0034995488130448054,0.5359289620355496,0.921332169775704,111.43952081243717,111.28499958114713
0.8300000000000001,-0.2232938738860995,-0.01724484266593456,0.5596445688210313,0.9258508243569773,110.92158562970037,111.28499958114713
0.84,-0.21534797294261523,-0.02681864872042575,0.7094349427363078,0.9326512245976288,110.49124997435322,111.28499958114713
0.85,-0.0234009221790486,-0.039597418255668794,0.9161064610253832,0.9426783668568983,110.18557755047964,111.28499958114713
0.86,0.2553628748250643,-0.06708765713818546,1.1273903362546862,0.95972518353027,110.03921496110226,111.28499958114713
0.87,0.587313571984327,-0.034923127218148664,1.2901522171920037,0.9681343200356067,110.69340813435689,111.28499958114713
0.88,0.8827358056505197,0.0662452418619382,1.2078699734077274,0.9505613258793213,111.51111514207211,111.28499958114713
0.89,0.7904845281749667,0.07521387470704582,0.9464653938303436,0.9316681708741087,111.941556169797,111.28499958114713
0.9,0.4123206178732272,0.0404618716583465,0.6787233210253395,0.921900222990009,111.86545303376268,111.28499958114713
0.91,0.008126872054666067,0.003762641260516884,0.5363812086763159,0.921326554978858,111.44373491337458,111.28499958114713
0.92,-0.22242481858379162,-0.01712020599593235,0.5588262783756666,0.9258154349504056,110.92573589215124,111.28499958114713
0.93,-0.21631049014241793,-0.026719751691725455,0.7078386700880646,0.9325913683302948,110.49437388762276,111.28499958114713
0.9400000000000001,-0.02550461176856204,-0.039418896167509,0.9142768076728455,0.9425730838169297,110.1879241257152,111.28499958114713
0.9500000000000001,0.2528610901244259,-0.0667702707674057,1.125611239599868,0.95953916525478,110.0370219017195,111.28499958114713
0.96,0.5840766654655972,-0.03610093632399589,1.2897833595769228,0.9682577059913448,110.68653793468307,111.28499958114713
0.97,0.8818193617785433,0.06589455240114932,1.2094713434555366,0.950764113003806,111.505712475848,111.28499958114713
0.98,0.7926881629398885,0.07540435970420101,0.9488206456220851,0.9318179250047253,111.9402204316504,111.28499958114713
0.99,0.41580263462601275,0.0408130043093165,0.6804885500648791,0.9219605874813449,111.86781135704273,111.28499958114713
1.0,0.010860938233798453,0.004027043872682121,0.5368438792425303,0.9213216861175408,111.44793216078372,111.28499958114713
1.01,-0.2215146829205047,-0.01696958992971545,0.5580119532376422,0.9257740499379936,110.9298558743283,111.28499958114713
1.02,-0.2172662461056512,-0.026631050986904575,0.7062527199651699,0.9325284272952917,110.49747022023534,111.28499958114713
1.03,-0.027592452093960704,-0.03924533656120978,0.9124602918174203,0.9424659042913373,110.1902579640791,111.28499958114713
1.04,0.2503798001435887,-0.06645590659268061,1.1238431460877196,0.959351986639822,110.03455036297608,111.28499958114713
1.05,0.5808566937600084,-0.03727442010057136,1.2894935842653477,0.9683787768000439,110.67957417548817,111.28499958114713
1.06,0.8810175827093466,0.06555566408321706,1.2111436929881374,0.9509615599374018,111.50036791573866,111.28499958114713
1.07,0.79499607834535,0.07559780472412522,0.9512048673950518,0.9319616873499614,111.93898563261081,111.28499958114713
1.08,0.4193264530826593,0.041157756346019786,0.6822472603423735,0.9220166487472375,111.87022966063644,111.28499958114713
1.09,0.013585130395136508,0.004281438472625304,0.5372884308178815,0.9213150523078151,111.45213591517549,111.28499958114713
1.1,-0.22066932642813222,-0.01685840307664791,0.5571951609406676,0.9257410514924699,110.93397922584354,111.28499958114713
1.11,-0.2182275252737922,-0.026532675707612117,0.7046642799667892,0.9324709631456826,110.50057267576534,111.28499958114713
1.12,-0.02968536992932158,-0.03906658697187266,0.9106409927419049,0.9423629490012932,110.19259431103704,111.28499958114713
1.1300000000000001,0.24789408456847434,-0.06613827330138793,1.122072778229614,0.9591682341899355,110.03291149537523,111.28499958114713
1.1400000000000001,0.5776262850118099,-0.03845105152016243,1.288987734571822,0.9685041248521638,110.67290881298605,111.28499958114713
1.1500000000000001,0.8798868432904289,0.0651831144006697,1.2126161370305908,0.951172004592788,111.49487133559474,111.28499958114713
1.16,0.7970040304440411,0.07577806452477853,0.9535063937100564,0.9321215389603522,111.93744416029725,111.28499958114713
1.17,0.42272585569426135,0.04151459640627034,0.6840308384994352,0.9220855245399695,111.87242910817,111.28499958114713
1.18,0.016344407883950095,0.004560484308344724,0.5378013197721077,0.9213149445838625,111.4562907532569,111.28499958114713
1.19,-0.219703831026216,-0.016710071758868725,0.556426350439454,0.925705168084252,110.9381607481791,111.28499958114713
1.2,-0.21911799816265004,-0.026433360983587867,0.7030909999442669,0.932410741222396,110.50375202764748,111.28499958114713
1.21,-0.031756862555651605,-0.038892988119380176,0.9088125798073395,0.9422585845235989,110.1949639031276,111.28499958114713
1.22,0.24539536570930434,-0.06582778238926694,1.1202890168474455,0.9589848780636145,110.03126991419154,111.28499958114713
1.23,0.5743747888698046,-0.039628503916000556,1.2884748820266483,0.968630011257882,110.6662191861472,111.28499958114713
1.24,0.878741276458293,0.06481141323644721,1.2140915040666163,0.9513827587772455,111.48935511614768,111.28499958114713
1.25,0.7990142974485722,0.07596023579538871,0.9558149564444294,0.9322812116028089,111.9358927858749,111.28499958114713
1.26,0.4261344394005526,0.04187138609135935,0.6858214672955579,0.9221542535770092,111.87462373461996,111.28499958114713
1.27,0.019113465409706674,0.0048389895213920555,0.5383199628273825,0.9213148301623607,111.46044155616163,111.28499958114713
1.28,-0.21873025192041723,-0.016562591547352165,0.5556622910117481,0.9256694938598862,110.94233799812363,111.28499958114713
1.29,-0.2200019800422417,-0.026335329406396463,0.7015219346397815,0.9323510535900756,110.50692715262909,111.28499958114713
1.3,-0.03382260033186142,-0.038720496675739006,0.9069880065100995,0.9421550294317036,110.19732830306472,111.28499958114713
1.31,0.24290271211790337,-0.0655182543204536,1.1185088833723722,0.9588025705882641,110.02963700192751,111.28499958114713
1.32,0.5711272646449648,-0.04080311075146223,1.287962379502138,0.9687561968404399,110.65953535769007,111.28499958114713
1.33,0.8775912081168469,0.0644411510574816,1.2155670103448462,0.95159346645798,111.48384178746105,111.28499958114713
1.34,0.8010233450058803,0.07614153083986186,0.958123236848298,0.9324410799501908,111.93433771858385,111.28499958114713
1.35,0.42954120050103994,0.042227327784953674,0.6876132644976797,0.9222233900345015,111.87680747797005,111.28499958114713
1.36,0.021883398462200207,0.005116886923008258,0.5388423211029276,0.9213152727123689,111.46457908894278,111.28499958114713
1.37,-0.2177517907694697,-0.016415488547440845,0.5549040276289714,0.9256344686039335,110.94650573388628,111.28499958114713
1.3800000000000001,-0.22087725932639526,-0.026236985144243472,0.699958792511917,0.9322919298559625,110.51009763469466,111.28499958114713
1.3900000000000001,-0.035880065833024194,-0.0385487375569328,0.9051684046402738,0.9420522317693226,110.19969017785255,111.28499958114713
1.4000000000000001,0.24041779118108686,-0.06520957354128917,1.116732403666929,0.9586212335144884,110.02801490932427,111.28499958114713
1.41,0.5678837434435596,-0.041975009943889,1.287449728924413,0.9688826403644866,110.65285797554941,111.28499958114713
1.42,0.8764354182139003,0.06407228234203932,1.217042328360414,0.9518040968561174,111.47833095613686,111.28499958114713
1.43,0.8030306489632586,0.07632193692919864,0.9604311402587999,0.932601116077946,111.93277823457802,111.28499958114713
1.44,0.43294600974670416,0.042582370282608556,0.6894063480721551,0.9222929191737599,111.87897982933342,111.28499958114713
1.45,0.024654604565870982,0.005394252789373846,0.5393685329883706,0.9213162371513488,111.468703179012,111.28499958114713
1.46,-0.21676832038323052,-0.016268842207630127,0.5541517093706677,0.9256000786532262,110.95066419090212,111.28499958114713
1.47,-0.22174405494484978,-0.02613862257531281,0.6984017178948491,0.9322334321007313,110.51326434749635,111.28499958114713
1.48,-0.03792904422768194,-0.038377581332571416,0.9033536356913524,0.9419502170214468,110.20205030878579,111.28499958114713
1.49,0.23794038460231445,-0.06490170805082278,1.1149593037299161,0.9584408853013349,110.02640336942495,111.28499958114713
1.5,0.5646438359413858,-0.04314417643677186,1.2869368325553319,0.9690093540943874,110.64618651421253,111.28499958114713
1.51,0.8752731970995205,0.063704945922086,1.2185176749546454,0.9520146263902772,111.47282242641334,111.28499958114713
1.52,0.8050365101935341,0.07650150267798092,0.9627388438367609,0.9327612851532231,111.93121445138249,111.28499958114713
1.53,0.4363491357998512,0.04293648929638996,0.6912007958222048,0.9223628129629415,111.8811414220342,111.28499958114713
1.54,0.02742473468376598,0.005670238837209057,0.5398991262341393,0.9213179157582311,111.4728156845079,111.28499958114713
1.55,-0.21577824290976066,-0.01612158806557215,0.5534049482725841,0.925566231043652,110.95481439966287,111.28499958114713
1.56,-0.22260329644919966,-0.02604084973779315,0.6968503311397959,0.9321756360948223,110.5164276188046,111.28499958114713
1.57,-0.039970095877135285,-0.03820696518321975,0.9015433814975754,0.9418490385450815,110.2044085127612,111.28499958114713
1.58,0.23547001088526653,-0.06459460552433784,1.1131894358655505,0.9582615663295772,110.02480156180175,111.28499958114713
1.59,0.5614073584799926,-0.044310492118709716,1.2864237971155448,0.9691363482251983,110.63952044751463,111.28499958114713
1.6,0.8741040446973121,0.06333933599090308,1.2199934136300414,0.9522250159463763,111.4673163128933,111.28499958114713
1.61,0.8070414573149618,0.0766802554230894,0.9650465335847954,0.9329215428962822,111.92964679323622,111.28499958114713
1.62,0.439750859305119,0.04328964501810259,0.6929966169129141,0.9224330377458063,111.88329227549372,111.28499958114713
1.6300000000000001,0.030195937622679025,0.005945571646911867,0.5404335533148481,0.9213200855677902,111.47691518510163,111.28499958114713
