t,iq,id,vq,vd,ia,ib,va,vb,theta_e,omega,omega_obs,r
0,0,0,0,0,0,0,0,0,0,-0.144963141214248,0,0
0.01,-0.0630889974635862,-0.00464105132025594,0.206062983666229,-0.0557772798034009,-0.0630887749066933,0.00464407569815749,0.206065657300916,0.055767401417288,-1.57084426515748,-0.144963141214248,6.87430474914527,-0.144963141214248
0.02,0.0246708517550509,0.0149002173966153,-0.203810627620364,-0.173205604196326,0.0246701374346792,-0.0149014000597305,-0.203802324193124,0.173215374345067,-1.57084426515748,-0.144963141214248,9.92616035364881,-0.144963141214248
0.03,-0.0336598966204178,-0.00464105132025594,0.0880515530082729,-0.0557772798034009,-0.0336596740973403,0.00464266491525129,0.08805422677856,0.0557730586920378,-1.57084426515748,-0.144963141214248,9.92616035364881,-0.144963141214248
0.04,0.0148416100647301,-0.00452383665648547,-0.144804886932838,-0.0564816517538752,0.0148418269129982,0.00452312516880304,-0.144802179128551,0.0564885933981465,-1.57084426515748,-0.144963141214248,9.92616035364881,-0.144963141214248
0.05,0.024553645537582,0.0149002173966153,-0.203107029123874,-0.173205604196326,0.0245529312173449,-0.0149013944410564,-0.203098725697443,0.173215340615707,-1.57084426515748,-0.144963141214248,12.9780159581524,-0.144963141214248
0.06,0.00524678080936026,-0.0239479244947678,-0.0872063432383732,0.0602425037120936,0.00524792882761861,0.0239476729451698,-0.0872092310651542,-0.0602383231135721,-1.57084426515748,-0.144963141214248,14.8091293208554,-0.144963141214248
0.07,0.0825915219695591,0.102191385347772,-0.49356272267859,-0.639397803419988,0.082586622986976,-0.102195344532675,-0.493532070427741,0.639421463274041,-1.57084426515748,-0.144963141214248,17.8609849253589,-0.144963141214248
0.08,-0.00475823219663853,-0.00452387044387337,-0.027497156172342,-0.0564814487170917,-0.00475801532422957,0.00452409854053546,-0.0274944485125797,0.0564827668208342,-1.57084426515748,-0.144963141214248,14.8091293208554,-0.144963141214248
0.09,-0.08245460889746,-0.053084119607106,0.380618346248893,0.176967014508901,-0.0824520640369438,0.0530880722850466,0.380609862302642,-0.17698526052584,-1.57084426515748,-0.144963141214248,17.8609849253589,-0.144963141214248
0.1,-0.0333671344875751,-0.00411381340306546,0.0866455730120212,-0.0585935493583791,-0.0333669372397564,0.00411541296412936,0.0866483817912748,0.0585893956441588,-1.57084426515748,-0.144963141214248,17.8609849253589,-0.144963141214248
0.11,0.00483669419990583,-0.0241823200371289,-0.0850962069509496,0.061651044589528,0.00483785345517388,0.0241820881461422,-0.0850991623032985,-0.0616469651458665,-1.57084426515748,-0.144963141214248,17.8609849253589,-0.144963141214248
0.12,-0.00464105132025594,-0.00464105132025594,-0.027848879358281,-0.0557772798034009,-0.00464082883052229,0.00464127379932405,-0.0278462054548192,0.0557786147689861,-1.57084426515748,-0.144963141214248,19.9972838485119,-0.144963141214248
0.13,-0.0336601077942857,-0.00464105132025594,0.0880525671634546,-0.0557772798034009,-0.0336598852712079,0.00464266492537462,0.0880552409337405,0.0557730586434208,-1.57084426515748,-0.144963141214248,22.7027538420203,-0.144963141214248
0.14,0.0051881481352914,0.0147830872023918,-0.0868543665070115,-0.172501739844284,0.00518743945233584,-0.0147833358967318,-0.0868460969562642,0.172505903302184,-1.57084426515748,-0.144963141214248,22.7439538925655,-0.144963141214248
0.15,0.00518814391214043,0.0147830956486938,-0.0868543411550913,-0.172501790600205,0.00518743522877998,-0.0147833443428313,-0.0868460716019109,0.17250595405689,-1.57084426515748,-0.144963141214248,22.7439538925655,-0.144963141214248
0.16,-0.0627378476234582,-0.0530843265644477,0.204306142534576,0.176968080501415,-0.0627353027756763,0.0530873340531375,0.204297658739814,-0.176977874400006,-1.57084426515748,-0.144963141214248,22.7439538925655,-0.144963141214248
0.17,-0.00428973676084469,-0.00428973676084469,-0.0296063543535957,-0.0578884160169306,-0.00428953111295944,0.00428994239887175,-0.0296035792437013,0.0578898352305636,-1.57084426515748,-0.144963141214248,22.7439538925655,-0.144963141214248
0.18,-0.0433137513300771,-0.0239481272234586,0.146004051020949,0.060243721959016,-0.0433126032463022,0.0239502035862565,0.146001162867798,-0.0602507210849273,-1.57084426515748,-0.144963141214248,22.7439538925655,-0.144963141214248
0.19,-0.160444305242703,-0.0924596725878395,0.731840475468331,0.413232407222162,-0.160439872693038,0.0924673639188756,0.731820664942453,-0.413267489981394,-1.57084426515748,-0.144963141214248,22.7439538925655,-0.144963141214248
0.2,0.0151929161767421,-0.00411419351602768,-0.146913806216788,-0.0585915189646459,0.0151931133869852,0.00411346518777619,-0.146910997266498,0.0585985617046301,-1.57084426515748,-0.144963141214248,22.7439538925655,-0.144963141214248
0.21,-0.0434894466225026,-0.0240652489713801,0.146707294564456,0.0609475355551373,-0.0434882929239009,0.0240673337565881,0.146704372670827,-0.0609545683925838,-1.57084426515748,-0.144963141214248,20.0384838991696,-0.144963141214248
0.22,0.0148416860879891,-0.00475811393750839,-0.144805343306671,-0.0550738215381176,0.0148419141671264,0.00475740244591234,-0.144802702991459,0.0550807632058843,-1.57084426515748,-0.144963141214248,19.9972838485119,-0.144963141214248
0.23,-0.0436065345830358,-0.0241823200371289,0.147410183154902,0.061651044589528,-0.0436053752721044,0.0241844104352075,0.147407227535393,-0.0616581111214942,-1.57084426515748,-0.144963141214248,19.9972838485119,-0.144963141214248
0.24,0.00536367448750455,0.0150172631212777,-0.0875567480132377,-0.173908960949852,0.0053629545783372,-0.0150175202297945,-0.0875484110018078,0.173913158077154,-1.57084426515748,-0.144963141214248,19.9972838485119,-0.144963141214248
0.25,0.00524662031655403,0.0149002173966153,-0.0872053797869489,-0.173205604196326,0.00524590601850157,-0.0149004688938813,-0.0871970764936938,0.173209784480419,-1.57084426515748,-0.144963141214248,17.8609849253589,-0.144963141214248
0.26,-0.00434847924556094,-0.00440699366049994,-0.0292539466068655,-0.0571837902605621,-0.00434826797650442,0.00440720211441079,-0.029251205275981,0.0571851925811544,-1.57084426515748,-0.144963141214248,17.8609849253589,-0.144963141214248
0.27,-0.111942498687685,-0.0532016721534942,0.440679966420157,0.17767296003713,-0.111939948158009,0.0532070384324518,0.44067144856302,-0.177694085308982,-1.57084426515748,-0.144963141214248,13.0054826584909,-0.144963141214248
0.28,0.0246123457864066,0.0147832054593267,-0.203459411512014,-0.1725024504795,0.0246116370754628,-0.0147843853178961,-0.203451141793216,0.172512203792324,-1.57084426515748,-0.144963141214248,14.8091293208554,-0.144963141214248
0.29,-0.00510906527542034,-0.0049335600422337,-0.0253905441094086,-0.0543710739079768,-0.00510882876275976,0.00493380495678837,-0.0253879376199797,0.0543722910266113,-1.57084426515748,-0.144963141214248,14.8091293208554,-0.144963141214248
0.3,0.00518808055943118,-0.0240653249946259,-0.0868539608436033,0.0609479923976533,0.00518923420574471,0.0240650762588869,-0.0868568824907615,-0.0609438286909562,-1.57084426515748,-0.144963141214248,14.8091293208554,-0.144963141214248
0.31,0.043919653981418,0.0342075129210832,-0.261059983523558,-0.28922792571734,0.0439180140787956,-0.0342096183180737,-0.261046118110422,0.289240440173146,-1.57084426515748,-0.144963141214248,12.9780159581524,-0.144963141214248
0.32,-0.0821627463753636,-0.0530847995954673,0.320914584978073,0.176970516981907,-0.0821602014825853,0.0530887382819957,0.320906100932522,-0.176985900898287,-1.57084426515748,-0.144963141214248,12.9780159581524,-0.144963141214248
0.33,-0.0241823200371289,0.0143738537402379,0.0308050367290811,-0.170394004552276,-0.0241830090683545,-0.0143726944628961,0.030813205103254,0.170392527613466,-1.57084426515748,-0.144963141214248,9.92616035364881,-0.144963141214248
0.34,-0.0434311856162106,-0.0239483975268973,0.146708612968854,0.0602453462793372,-0.0434300375193428,0.0239504795193023,0.146705724737026,-0.0602523791807927,-1.57084426515748,-0.144963141214248,9.92616035364881,-0.144963141214248
0.35,0.0147832645899958,-0.00464105132025594,-0.14445463428254,-0.0557772798034009,0.0147834870574101,0.00464034262942535,-0.144451960245093,0.0557842046579429,-1.57084426515748,-0.144963141214248,9.92616035364881,-0.144963141214248
0.36,0.0246708517550509,0.0149002173966153,-0.203810627620364,-0.173205604196326,0.0246701374346792,-0.0149014000597305,-0.203802324193124,0.173215374345067,-1.57084426515748,-0.144963141214248,9.92616035364881,-0.144963141214248
0.37,0.0150756212676587,0.0344414861134865,-0.145858687375863,-0.290633928589255,0.0150739701818875,-0.03444220877451,-0.145844754693622,0.290640920481943,-1.57084426515748,-0.144963141214248,9.92616035364881,-0.144963141214248
0.38,0.0245539242895183,0.0146663624655502,-0.203108702494516,-0.171800311986087,0.0245532211799034,-0.0146675395236229,-0.20310046643549,0.171810048487302,-1.57084426515748,-0.144963141214248,9.92616035364881,-0.144963141214248
0.39,0.00524650205742415,0.0149002173966153,-0.0872046698677332,-0.173205604196326,0.00524578775937183,-0.0149004688882121,-0.0871963665744789,0.173209784446387,-1.57084426515748,-0.144963141214248,9.92616035364881,-0.144963141214248
0.4,0.0538073889709431,0.0537489336844715,-0.320416636076834,-0.406657163795454,0.0538048122732456,-0.0537515130608329,-0.320397141230104,0.40667252357706,-1.57084426515748,-0.144963141214248,6.87430474914527,-0.144963141214248
0.41,0.0243201453817107,0.0147833152721685,-0.202056195117265,-0.172503110372069,0.0243194366658383,-0.0147844811231288,-0.202047925368445,0.172512796416995,-1.57084426515748,-0.144963141214248,6.87430474914527,-0.144963141214248
0.42,-0.0340114012346433,-0.00475794499841353,0.089809813965181,-0.0550748367349874,-0.0340111731074704,0.0047595754438302,0.0898124540594773,0.0550705313362802,-1.57084426515748,-0.144963141214248,6.87430474914527,-0.144963141214248
0.43,-0.00481637916804026,-0.00493326439989648,-0.0271472077646421,-0.0543724951784084,-0.0048161426698886,0.00493349528355875,-0.0271446012050613,0.0543737965086205,-1.57084426515748,-0.144963141214248,6.87430474914527,-0.144963141214248
0.44,-0.0336023240388602,-0.00452417453468781,0.087704900591739,-0.0564796213600597,-0.0336021071187305,0.00452578536988216,0.0877076080315286,0.0564754168658389,-1.57084426515748,-0.144963141214248,6.87430474914527,-0.144963141214248
0.45,-0.0336607835528852,-0.0532020522697564,0.0880558124707074,0.177674787407354,-0.0336582330949365,0.0532036658514711,0.0880472949311499,-0.177679008454662,-1.57084426515748,-0.144963141214248,6.87430474914527,-0.144963141214248
0.46,0.0439784006903813,0.0343246262227161,-0.261412264504179,-0.289931688557621,0.0439767551734715,-0.034326734435793,-0.2613983653534,0.289944219900392,-1.57084426515748,-0.144963141214248,6.87430474914527,-0.144963141214248
0.47,-0.00475790276473827,-0.00475790276473827,-0.0274981449756441,-0.055075090527604,-0.00475767467320344,0.00475813084533902,-0.0274955047343895,0.0550764086803641,-1.57084426515748,-0.144963141214248,6.87430474914527,-0.144963141214248
0.48,0.0153091678825623,0.0348504365994335,-0.146910256653635,-0.292038205602621,0.0153074971921061,-0.0348511704558294,-0.146896256651445,0.292045247904204,-1.57084426515748,-0.144963141214248,6.87430474914527,-0.144963141214248
0.49,-0.160036524657653,-0.0532021367381938,0.730093142038193,0.177675193480766,-0.160033974050444,0.0532098085660051,0.73008462374144,-0.177710192746359,-1.57084426515748,-0.144963141214248,6.87430474914527,-0.144963141214248
0.5,0.00507116998648197,-0.0240654939337335,-0.0861521371253133,0.0609490075945997,0.00507232364102849,0.0240652508024958,-0.0861550588219449,-0.0609448775321813,-1.57084426515748,-0.144963141214248,6.87430474914527,-0.144963141214248
0.51,0.0440368939895736,0.0342078508036885,-0.26176327778408,-0.289229956137614,0.0440352540706189,-0.0342099618209725,-0.261749412272801,0.289242504308193,-1.57084426515748,-0.144963141214248,6.87430474914527,-0.144963141214248
0.52,-0.0433731611281673,-0.024065510828518,0.146359830854084,0.0609491091195446,-0.0433720074171462,0.0240675900391895,0.14635690888542,-0.060956125300148,-1.57084426515748,-0.144963141214248,6.87430474914527,-0.144963141214248
0.53,0.00489598151356046,-0.0240655192748193,-0.085451048671566,0.0609491598754617,0.0048971351695231,0.0240652845418301,-0.0854539703763032,-0.0609450634220756,-1.57084426515748,-0.144963141214248,6.87430474914527,-0.144963141214248
0.54,-0.0238903392525959,-0.0239487354095025,0.0294028091310061,0.0602473766996107,-0.0238891911619838,0.0239498806457293,0.0293999209366331,-0.0602487861529084,-1.57084426515748,-0.144963141214248,6.87430474914527,-0.144963141214248
0.55,0.0537491870953075,0.0536324032277823,-0.320066865152167,-0.40595690341482,0.0537466159839561,-0.053634979814175,-0.320047403875174,0.405972246429785,-1.57084426515748,-0.144963141214248,6.87430474914527,-0.144963141214248
0.56,0.00472086906389642,-0.0243574831689646,-0.0847502644670344,0.0623527770227322,0.00472203671633128,0.024357256830244,-0.0847532534596846,-0.0623487141621806,-1.57084426515748,-0.144963141214248,6.87430474914527,-0.144963141214248
0.57,0.0246708517550509,0.0149002173966153,-0.203810627620364,-0.173205604196326,0.0246701374346792,-0.0149014000597305,-0.203802324193124,0.173215374345067,-1.57084426515748,-0.144963141214248,6.87430474914527,-0.144963141214248
0.58,-0.00487456837313025,-0.0047578098466931,-0.0267975129022919,-0.0550756488951546,-0.00487434028591571,0.00475804352005219,-0.0267948726350751,0.0550769334607597,-1.57084426515748,-0.144963141214248,6.87430474914527,-0.144963141214248
0.59,-0.0628562321903961,-0.0530855978319605,0.26366855041147,0.176974628525469,-0.0628536872815357,0.0530886109958111,0.263660066234596,-0.176987268160685,-1.57084426515748,-0.144963141214248,6.87430474914527,-0.144963141214248
0.6,0.044037008024463,0.0342080028502077,-0.261763734157917,-0.289230869822812,0.0440353680982193,-0.0342101138729582,-0.261749868602836,0.289243418015268,-1.57084426515748,-0.144963141214248,9.92616035364881,-0.144963141214248
0.61,-0.0341864207662672,-0.00475778450560728,0.0905100910855202,-0.0550758011760167,-0.0341861926465869,0.0047594233411739,0.0905127312252455,0.0550714622071699,-1.57084426515748,-0.144963141214248,9.92616035364881,-0.144963141214248
0.62,0.0056548443639046,0.0150169421356653,-0.0889552739433939,-0.173907032067793,0.00565412446979021,-0.0150172132023895,-0.0889469370228244,0.173911296238141,-1.57084426515748,-0.144963141214248,9.92616035364881,-0.144963141214248
0.63,0.00512958303817967,0.0149002173966153,-0.086502795445643,-0.173205604196326,0.00512886874026169,-0.0149004632833058,-0.0864944921531951,0.173209750799676,-1.57084426515748,-0.144963141214248,9.92616035364881,-0.144963141214248
0.64,-0.0824560026549461,-0.0533191613460375,0.322323100362279,0.178378042635935,-0.0824534465269123,0.0533231140905225,0.322314548840634,-0.178393494072619,-1.57084426515748,-0.144963141214248,9.92616035364881,-0.144963141214248
0.65,-0.00499114951414846,-0.00493279981516637,-0.0260974893142644,-0.0543747286221908,-0.0049909130380674,0.0049330390770334,-0.0260948826488222,0.0543759796306166,-1.57084426515748,-0.144963141214248,9.92616035364881,-0.144963141214248
0.66,-0.0725687280226026,-0.0239489381337768,0.263319185136977,0.0602485949199925,-0.0725675798663387,0.0239524169322533,0.263316296615425,-0.0602612179413319,-1.57084426515748,-0.144963141214248,9.92616035364881,-0.144963141214248
0.67,0.00512958303817967,0.0149002173966153,-0.086502795445643,-0.173205604196326,0.00512886874026169,-0.0149004632833058,-0.0864944921531951,0.173209750799676,-1.57084426515748,-0.144963141214248,12.9780159581524,-0.144963141214248
0.68,0.0148418803681695,-0.00452437726336432,-0.144806509586462,-0.0564784031132235,0.0148420972423532,0.00452366576272337,-0.144803801937908,0.0564853448352859,-1.57084426515748,-0.144963141214248,12.9780159581524,-0.144963141214248
0.69,0.0439787892507416,0.0343248205028962,-0.261414013923863,-0.289932856035349,0.0439771437245178,-0.0343269287345998,-0.261400114717115,0.289945387461983,-1.57084426515748,-0.144963141214248,12.9780159581524,-0.144963141214248
0.7,-0.0240073342939881,-0.0239490057129412,0.0301047342568535,0.060249001019932,-0.0240061861902837,0.0239501565577184,0.0301018459838068,-0.0602504441223691,-1.57084426515748,-0.144963141214248,12.9780159581524,-0.144963141214248
0.71,0.0138503789543826,-0.00516597054137228,-0.139904823269571,-0.0529733956876104,0.0138506265866368,0.00516530657094837,-0.139902283650966,0.0529801024348843,-1.57084426515748,-0.144963141214248,12.9780159581524,-0.144963141214248
0.72,-0.0627399762581111,-0.0919352390639156,0.204316081264995,0.410431416403158,-0.0627355689611973,0.0919382466100073,0.204296405620179,-0.410441210509936,-1.57084426515748,-0.144963141214248,14.8091293208554,-0.144963141214248
0.73,0.0539244389198548,0.0150168492176212,-0.320768384621284,-0.173906473700249,0.0539237189747309,-0.0150194342496703,-0.320760047461119,0.173921850611545,-1.57084426515748,-0.144963141214248,14.8091293208554,-0.144963141214248
0.74,0.0246708517550509,0.0149002173966153,-0.203810627620364,-0.173205604196326,0.0246701374346792,-0.0149014000597305,-0.203802324193124,0.173215374345067,-1.57084426515748,-0.144963141214248,14.8091293208554,-0.144963141214248
0.75,-0.00464105132025594,-0.00464105132025594,-0.027848879358281,-0.0557772798034009,-0.00464082883052229,0.00464127379932405,-0.0278462054548192,0.0557786147689861,-1.57084426515748,-0.144963141214248,14.8091293208554,-0.144963141214248
0.76,-0.0334865284758843,-0.0529694939527955,0.0873589581474472,0.176276500090214,-0.0334839891666008,0.0529710991812744,0.0873505076402948,-0.176280687733073,-1.57084426515748,-0.144963141214248,14.8091293208554,-0.144963141214248
0.77,-0.0337197583283006,-0.00475764935388794,0.147062947624943,-0.0550766133361774,-0.0337195302156354,0.00475926581842157,0.14706558773862,0.0550695633159887,-1.57084426515748,-0.144963141214248,14.8091293208554,-0.144963141214248
0.78,0.023621545469075,0.014142385078966,-0.198561401504828,-0.169001909928487,0.0236208674791493,-0.0141435174409268,-0.19855329960184,0.169011428442754,-1.57084426515748,-0.144963141214248,14.8091293208554,-0.144963141214248
0.79,0.0246708517550509,0.0149002173966153,-0.145156711533001,-0.173205604196326,0.0246701374346792,-0.0149014000597305,-0.145148408173158,0.173212562572372,-1.57084426515748,-0.144963141214248,14.8091293208554,-0.144963141214248
0.8,0.00524615573072585,0.0149002173966153,-0.0872025908402765,-0.173205604196326,0.00524544143267392,-0.0149004688716098,-0.0871942875470245,0.173209784346722,-1.57084426515748,-0.144963141214248,14.8091293208554,-0.144963141214248
0.81,-0.0240657557908841,-0.0240657557908841,0.0304551643836827,0.0609505811590835,-0.024064602090305,0.024066909436158,0.0304522424776302,-0.0609520410597609,-1.57084426515748,-0.144963141214248,14.8091293208554,-0.144963141214248
0.82,0.00460508193837422,-0.0243571537370641,-0.0840538664910045,0.0623514572641351,0.0046062495751497,0.0243569329489891,-0.0840568554211878,-0.0623474277877637,-1.57084426515748,-0.144963141214248,14.8091293208554,-0.144963141214248
0.83,0.0149002173966153,-0.00464105132025594,-0.145156711533001,-0.0557772798034009,0.0149004398638952,0.0046403370228993,-0.145154037494748,0.0557842383143767,-1.57084426515748,-0.144963141214248,14.8091293208554,-0.144963141214248
0.84,0.00483823577528752,0.0146671395863016,-0.0851036103132914,-0.171804981897187,0.00483753265107289,-0.0146673715065492,-0.0850953741659909,0.171809061427503,-1.57084426515748,-0.144963141214248,14.8091293208554,-0.144963141214248
0.85,0.0144340955611402,-0.00464105132025594,-0.143058085945746,-0.0557772798034009,0.0144343180289556,0.00464035936801685,-0.143055411909904,0.0557841377097024,-1.57084426515748,-0.144963141214248,14.8091293208554,-0.144963141214248
