t,iq,id,vq,vd,ia,ib,va,vb,theta_e,omega,omega_obs,r
0,0,0,0,0,0,0,0,0,0,-0.144963141214248,0,0
0.01,0.00524682286240607,-0.0144116856786916,-0.0289045797191795,-0.0557772798034009,0.0151099206036565,0.00262985429293458,0.0339646455926362,0.0528486756766515,-2.62011914539939,-0.144963141214248,-15.099055603283,-0.144963141214248
0.02,-0.00428935779293415,0.00501235186240574,0.0286937917593836,-0.0557772798034009,-0.00648291987567634,0.001222297571759,0.0626577545210231,0.00290592948657624,-2.62011914539939,-0.144963141214248,-13.2679422405809,-0.144963141214248
0.03,-0.00475827384813278,0.0052468055660565,-0.027497031153681,-0.0564816990112384,-0.00691980586079836,0.00151209308929258,0.0352766197349678,0.0519791222082204,-2.62011914539939,-0.144963141214248,-15.0715889028058,-0.144963141214248
0.04,0.0146071826980543,0.00512958303817967,-0.143749422549334,-0.0557772798034009,0.00282889978262738,-0.0152210293521749,-0.0232462702822256,0.152429040354847,-2.62011914539939,-0.144963141214248,-15.099055603283,-0.144963141214248
0.05,-0.0047582565517833,0.00524678826970703,-0.0274970830693803,-0.0564815950731898,-0.0069197822470538,0.00151208670818938,0.0352765037494942,0.0519791154459953,-2.62011914539939,-0.144963141214248,-15.099055603283,-0.144963141214248
0.06,0.0242606637123453,-0.0141772925114312,-0.201348235297175,-0.0564815431058335,0.0243785848816359,-0.0139735473623222,-0.051328942125772,0.202723003798661,-2.62011914539939,-0.144963141214248,-15.099055603283,-0.144963141214248
0.07,0.112254997175438,-0.0435478068512333,-0.612629318365888,0.0609468332577875,0.0936804598446744,-0.0756410425344616,-0.35803255299941,0.500841181611825,-2.62011914539939,-0.144963141214248,-15.099055603283,-0.144963141214248
0.08,-0.0240651407498482,0.0245536724677702,0.0304533183128963,-0.173205604196326,-0.0332783981178674,0.0086349319437538,0.165354742923647,0.0598781672559841,-2.62011914539939,-0.144963141214248,-15.099055603283,-0.144963141214248
0.09,-0.0627961749155455,0.00512958303817967,0.2046566302461,-0.0557772798034009,-0.0357302280957797,0.0518943446474944,0.150315109450348,-0.149668998516345,-2.62011914539939,-0.144963141214248,-15.099055603283,-0.144963141214248
0.1,-0.0339529543955646,0.00512958303817967,0.0894589528164431,-0.0557772798034009,-0.0213617373384791,0.026884789607038,0.0929284260782926,-0.0497826958680703,-2.62011914539939,-0.144963141214248,-15.099055603283,-0.144963141214248
0.11,0.00495385302362858,-0.0141773789926234,-0.0857995143587051,0.0602430376715696,0.0147608111699428,0.00276716253326136,-0.094977642791227,0.0443849932061488,-2.62011914539939,-0.144963141214248,-13.2679422405809,-0.144963141214248
0.12,-0.140434202434414,0.0438606863881777,0.612421593415703,-0.289226025612684,-0.10798945935553,0.0999189756349226,0.555866783327851,-0.386941883447999,-2.62011914539939,-0.144963141214248,-15.099055603283,-0.144963141214248
0.13,0.00460247082809903,-0.014294549632007,-0.0836900864234857,0.0609471450685973,0.0146873642303928,0.00313021067488923,-0.0945373354031794,0.0422051806352007,-2.62011914539939,-0.144963141214248,-15.099055603283,-0.144963141214248
0.14,0.0149587810960091,0.00501245563939199,-0.145508274203755,-0.0550734322498249,0.00310561099289229,-0.0154675474389452,-0.0247327533135347,0.153603488616187,-2.62011914539939,-0.144963141214248,-15.099055603283,-0.144963141214248
0.15,0.0049539049126774,-0.0144116856786916,-0.0857997220215039,0.0609472490066475,0.0149640010850505,0.00288383936998248,-0.0955883580868212,0.0440343645203525,-2.62011914539939,-0.144963141214248,-15.099055603283,-0.144963141214248
0.16,0.00524669314061761,-0.0144116856786916,-0.0872058169557506,0.0609473009740022,0.0151098559816662,0.00262996677289174,-0.0962888610605801,0.0452535439782543,-2.62011914539939,-0.144963141214248,-15.099055603283,-0.144963141214248
0.17,0.00507103231118519,-0.0142945842247026,-0.0861513106492619,0.0609473529446744,0.014920812034261,0.00272394476751123,-0.0957635950160198,0.0443391703480805,-2.62011914539939,-0.144963141214248,-18.1509112077874,-0.144963141214248
0.18,-0.0725671206049542,0.0244366661428745,0.263311948042403,-0.171798324841375,-0.057338609170082,0.0507486112471353,0.280134978239177,-0.142731357336514,-2.62011914539939,-0.144963141214248,-18.1509112077874,-0.144963141214248
0.19,-0.0334846177627994,0.00483687264270144,0.0873503555224152,-0.0543701043831591,-0.0208746264308713,0.0266245175553298,0.0906578685374363,-0.0486553566709449,-2.62011914539939,-0.144963141214248,-18.1509112077874,-0.144963141214248
0.2,-0.00434836254590846,0.00512958303817967,-0.0292545070529019,-0.0557772798034009,-0.00661396310602939,0.00121506008424366,0.0337903263741275,0.0531520927970395,-2.62011914539939,-0.144963141214248,-18.1509112077874,-0.144963141214248
0.21,0.00495398274541734,-0.0144116856786916,-0.0271461174250052,-0.0557772798034009,0.0149640398580787,0.00288377188229704,0.0348406382441295,0.0513239374976311,-2.62011914539939,-0.144963141214248,-18.1509112077874,-0.144963141214248
0.22,-0.00458252221328362,0.00501252482423503,-0.0282002343679031,-0.0550738479986849,-0.00662911214847157,0.00147641019767436,0.0337055851745281,0.0518875272086611,-2.62011914539939,-0.144963141214248,-18.1509112077874,-0.144963141214248
0.23,0.111787214022525,-0.043313915274777,-0.668826007707983,0.176969229480386,0.0932446256369365,-0.0753519493123829,-0.486628807120479,0.491771024817425,-2.62011914539939,-0.144963141214248,-18.1509112077874,-0.144963141214248
0.24,0.0151342992318051,0.00501254212058477,-0.146210620814768,-0.0550739519367351,0.00319297182883038,-0.015619779852762,-0.0250821825197284,0.154212742472912,-2.62011914539939,-0.144963141214248,-18.1509112077874,-0.144963141214248
0.25,0.00542216371103618,0.0244367872167657,-0.0879079039866001,-0.171799052404379,-0.0184877020017105,-0.0168748719545575,0.105172511820551,0.161806850126056,-2.62011914539939,-0.144963141214248,-18.1509112077874,-0.144963141214248
0.26,-0.0434895415115088,0.0245538281338052,0.147059115369134,-0.172502380267707,-0.0429549602671928,0.025477481927176,0.222833137146414,-0.0415794131832644,-2.62011914539939,-0.144963141214248,-18.1509112077874,-0.144963141214248
0.27,-0.0434310513206282,0.0244368218083533,0.146707968018974,-0.171799260273798,-0.0428243683348209,0.0254850535732581,0.222048544606642,-0.0416252032902219,-2.62011914539939,-0.144963141214248,-18.1509112077874,-0.144963141214248
0.28,0.0437440951723361,-0.0434310729417589,-0.260357348132575,0.177673129001313,0.0594499645136824,-0.0162943449896179,-0.283757080577632,0.137242882211805,-2.62011914539939,-0.144963141214248,-18.1509112077874,-0.144963141214248
0.29,-0.00458255248175669,0.00501258536118116,-0.0282000526637871,-0.0557772798034009,-0.00662917971770714,0.00147640628606165,0.0343156116186616,0.0522377900733215,-2.62011914539939,-0.144963141214248,-18.1509112077874,-0.144963141214248
0.3,0.0535147987161596,-0.0144116856786916,-0.318660428367254,-0.0557772798034009,0.0391550151674838,-0.0392226357218201,-0.110379645998849,0.304091938891247,-2.62011914539939,-0.144963141214248,-18.1795105119432,-0.144963141214248
0.31,0.0631684872855468,-0.0434311378023769,-0.376963404763989,0.0609480805043642,0.0691264436185972,-0.0331369327095651,-0.240634694949126,0.296497926864871,-2.62011914539939,-0.144963141214248,-18.1509112077874,-0.144963141214248
0.32,0.00472018197354625,-0.0140607704804343,-0.0847473182816834,0.0595423082361007,0.0145432963704845,0.0029116859458219,-0.093845889803735,0.0438217228434143,-2.62011914539939,-0.144963141214248,-18.1509112077874,-0.144963141214248
0.33,-0.062855486675821,0.0438612312190218,0.205011437620621,-0.288525348147904,-0.0693434477705402,0.0326512796165352,0.352304470113706,-0.0340312564717231,-2.62011914539939,-0.144963141214248,-18.1509112077874,-0.144963141214248
0.34,-0.0434312026629922,-0.0144116856786916,0.146708694835431,0.061651044589528,-0.00913944362253312,0.0448378926704393,0.0196273967535254,-0.157921049059254,-2.62011914539939,-0.144963141214248,-15.099055603283,-0.144963141214248
0.35,0.111904886249934,-0.0437235887540002,-0.669180763158401,0.061651044589528,0.0936584672095477,-0.0752498990039029,-0.386814738515047,0.549525343499075,-2.62011914539939,-0.144963141214248,-15.099055603283,-0.144963141214248
0.36,0.00512958303817967,-0.0144116856786916,-0.086502795445643,0.061651044589528,0.015051516607833,0.00273151131264541,-0.0965488513280158,0.0442933880633603,-2.62011914539939,-0.144963141214248,-15.099055603283,-0.144963141214248
0.37,-0.0724508493685269,0.0244369947707389,0.262262010279142,-0.171800299647618,-0.0572809726329924,0.0506476303677129,0.279613655316471,-0.141819987150013,-2.62011914539939,-0.144963141214248,-13.2857846120141,-0.144963141214248
0.38,0.00489574335077223,-0.0142947658349878,-0.0854499763885634,0.0609484442858662,0.0148336478490625,0.0028760258558938,-0.0954151657940451,0.0437305095118759,-2.62011914539939,-0.144963141214248,-13.2679422405809,-0.144963141214248
0.39,-0.00528406289719342,0.0053634054297933,-0.0246906558001836,-0.057182376476015,-0.00728283417777494,0.0019099122610386,0.0372821866899168,0.0498948015218624,-2.62011914539939,-0.144963141214248,-13.2679422405809,-0.144963141214248
0.4,-0.082280064722148,0.0438614128281924,0.379921431079956,-0.288526439482398,-0.0790201207306319,0.0494939703972347,0.439438287796409,-0.185692733548708,-2.62011914539939,-0.144963141214248,-13.2679422405809,-0.144963141214248
0.41,-0.0042319226721543,0.00483734828953564,-0.0299540502361549,-0.0543723910068805,-0.00630256492930558,0.00125967586674284,0.0322236835849182,0.0530587998881832,-2.62011914539939,-0.144963141214248,-13.2679422405809,-0.144963141214248
0.42,-0.0338945117697847,0.0052464682897393,0.0891081169604831,-0.0564796722342998,-0.0214339732319191,0.026775887457201,0.0933626889720009,-0.0491285883356573,-2.62011914539939,-0.144963141214248,-13.2679422405809,-0.144963141214248
0.43,-0.0337776394900705,0.00512958303817967,0.0887573330185545,-0.0557772798034009,-0.0212744027567716,0.0267327764927143,0.0925789083268294,-0.0491743311072554,-2.62011914539939,-0.144963141214248,-13.2679422405809,-0.144963141214248
0.44,-0.00464105132025594,-0.00464105132025594,-0.027848879358281,-0.0557772798034009,0.00171221259450057,0.00633616940633159,0.0344905515284016,0.0519332925881426,-2.62011914539939,-0.144963141214248,-13.2679422405809,-0.144963140554388
0.45,-0.00464105132025594,-0.00464105132025594,-0.027848879358281,-0.0557772798034009,0.00171221259450057,0.00633616940633159,0.0344905515284016,0.0519332925881426,-2.62011914539939,-0.144963141214248,-13.2679422405809,289.781319286659
0.46,-0.00464105132025594,-0.00464105132025594,-0.027848879358281,-0.0557772798034009,0.00171221259450057,0.00633616940633159,0.0344905515284016,0.0519332925881426,-2.62011914539939,-0.144963141214248,-13.2679422405809,289.781319286659
0.47,-0.00464105132025594,-0.00464105132025594,-0.027848879358281,-0.0557772798034009,0.00171221259450057,0.00633616940633159,0.0344905515284016,0.0519332925881426,-2.62011914539939,-0.144963141214248,-13.2679422405809,289.781319286659
0.48,-0.00464105132025594,-0.00464105132025594,-0.027848879358281,-0.0557772798034009,0.00171221259450057,0.00633616940633159,0.0344905515284016,0.0519332925881426,-2.62011914539939,-0.144963141214248,-13.2679422405809,289.781319286659
0.49,-0.00464105132025594,-0.00464105132025594,-0.027848879358281,-0.0557772798034009,0.00171221259450057,0.00633616940633159,0.0344905515284016,0.0519332925881426,-2.62011914539939,-0.144963141214248,-13.2679422405809,289.781319286659
0.5,-0.00464105132025594,-0.00464105132025594,-0.027848879358281,-0.0557772798034009,0.00171221259450057,0.00633616940633159,0.0344905515284016,0.0519332925881426,-2.62011914539939,-0.144963141214248,-13.2679422405809,289.781319286659
0.51,-0.00464105132025594,-0.00464105132025594,-0.027848879358281,-0.0557772798034009,0.00171221259450057,0.00633616940633159,0.0344905515284016,0.0519332925881426,-2.62011914539939,-0.144963141214248,-13.2679422405809,289.781319286659
0.52,-0.00464105132025594,-0.00464105132025594,-0.027848879358281,-0.0557772798034009,0.00171221259450057,0.00633616940633159,0.0344905515284016,0.0519332925881426,-2.62011914539939,-0.144963141214248,-13.2679422405809,289.781319286659
0.53,-0.00464105132025594,-0.00464105132025594,-0.027848879358281,-0.0557772798034009,0.00171221259450057,0.00633616940633159,0.0344905515284016,0.0519332925881426,-2.62011914539939,-0.144963141214248,-13.2679422405809,289.781319286659
0.54,-0.00464105132025594,-0.00464105132025594,-0.027848879358281,-0.0557772798034009,0.00171221259450057,0.00633616940633159,0.0344905515284016,0.0519332925881426,-2.62011914539939,-0.144963141214248,-13.2679422405809,289.781319286659
0.55,-0.00464105132025594,-0.00464105132025594,-0.027848879358281,-0.0557772798034009,0.00171221259450057,0.00633616940633159,0.0344905515284016,0.0519332925881426,-2.62011914539939,-0.144963141214248,-13.2679422405809,289.781319286659
0.56,-0.00464105132025594,-0.00464105132025594,-0.027848879358281,-0.0557772798034009,0.00171221259450057,0.00633616940633159,0.0344905515284016,0.0519332925881426,-2.62011914539939,-0.144963141214248,-13.2679422405809,289.781319286659
0.57,-0.00464105132025594,-0.00464105132025594,-0.027848879358281,-0.0557772798034009,0.00171221259450057,0.00633616940633159,0.0344905515284016,0.0519332925881426,-2.62011914539939,-0.144963141214248,-13.2679422405809,289.781319286659
0.58,-0.00464105132025594,-0.00464105132025594,-0.027848879358281,-0.0557772798034009,0.00171221259450057,0.00633616940633159,0.0344905515284016,0.0519332925881426,-2.62011914539939,-0.144963141214248,-13.2679422405809,289.781319286659
0.59,-0.00464105132025594,-0.00464105132025594,-0.027848879358281,-0.0557772798034009,0.00171221259450057,0.00633616940633159,0.0344905515284016,0.0519332925881426,-2.62011914539939,-0.144963141214248,-13.2679422405809,289.781319286659
0.6,-0.00464105132025594,-0.00464105132025594,-0.027848879358281,-0.0557772798034009,0.00171221259450057,0.00633616940633159,0.0344905515284016,0.0519332925881426,-2.62011914539939,-0.144963141214248,-13.2679422405809,289.781319286659
0.61,-0.00464105132025594,-0.00464105132025594,-0.027848879358281,-0.0557772798034009,0.00171221259450057,0.00633616940633159,0.0344905515284016,0.0519332925881426,-2.62011914539939,-0.144963141214248,-13.2679422405809,289.781319286659
0.62,-0.00464105132025594,-0.00464105132025594,-0.027848879358281,-0.0557772798034009,0.00171221259450057,0.00633616940633159,0.0344905515284016,0.0519332925881426,-2.62011914539939,-0.144963141214248,-13.2679422405809,289.781319286659
0.63,-0.00464105132025594,-0.00464105132025594,-0.027848879358281,-0.0557772798034009,0.00171221259450057,0.00633616940633159,0.0344905515284016,0.0519332925881426,-2.62011914539939,-0.144963141214248,-13.2679422405809,289.781319286659
0.64,-0.00464105132025594,-0.00464105132025594,-0.027848879358281,-0.0557772798034009,0.00171221259450057,0.00633616940633159,0.0344905515284016,0.0519332925881426,-2.62011914539939,-0.144963141214248,-13.2679422405809,289.781319286659
0.65,-0.00464105132025594,-0.00464105132025594,-0.027848879358281,-0.0557772798034009,0.00171221259450057,0.00633616940633159,0.0344905515284016,0.0519332925881426,-2.62011914539939,-0.144963141214248,-13.2679422405809,289.781319286659
0.66,-0.00464105132025594,-0.00464105132025594,-0.027848879358281,-0.0557772798034009,0.00171221259450057,0.00633616940633159,0.0344905515284016,0.0519332925881426,-2.62011914539939,-0.144963141214248,-13.2679422405809,289.781319286659
0.67,-0.00464105132025594,-0.00464105132025594,-0.027848879358281,-0.0557772798034009,0.00171221259450057,0.00633616940633159,0.0344905515284016,0.0519332925881426,-2.62011914539939,-0.144963141214248,-13.2679422405809,289.781319286659
0.68,-0.00464105132025594,-0.00464105132025594,-0.027848879358281,-0.0557772798034009,0.00171221259450057,0.00633616940633159,0.0344905515284016,0.0519332925881426,-2.62011914539939,-0.144963141214248,-13.2679422405809,289.781319286659
0.69,-0.00464105132025594,-0.00464105132025594,-0.027848879358281,-0.0557772798034009,0.00171221259450057,0.00633616940633159,0.0344905515284016,0.0519332925881426,-2.62011914539939,-0.144963141214248,-13.2679422405809,289.781319286659
0.7,-0.00464105132025594,-0.00464105132025594,-0.027848879358281,-0.0557772798034009,0.00171221259450057,0.00633616940633159,0.0344905515284016,0.0519332925881426,-2.62011914539939,-0.144963141214248,-13.2679422405809,289.781319286659
0.71,-0.00464105132025594,-0.00464105132025594,-0.027848879358281,-0.0557772798034009,0.00171221259450057,0.00633616940633159,0.0344905515284016,0.0519332925881426,-2.62011914539939,-0.144963141214248,-13.2679422405809,289.781319286659
0.72,-0.00464105132025594,-0.00464105132025594,-0.027848879358281,-0.0557772798034009,0.00171221259450057,0.00633616940633159,0.0344905515284016,0.0519332925881426,-2.62011914539939,-0.144963141214248,-13.2679422405809,289.781319286659
0.73,-0.00464105132025594,-0.00464105132025594,-0.027848879358281,-0.0557772798034009,0.00171221259450057,0.00633616940633159,0.0344905515284016,0.0519332925881426,-2.62011914539939,-0.144963141214248,-13.2679422405809,289.781319286659
0.74,-0.00464105132025594,-0.00464105132025594,-0.027848879358281,-0.0557772798034009,0.00171221259450057,0.00633616940633159,0.0344905515284016,0.0519332925881426,-2.62011914539939,-0.144963141214248,-13.2679422405809,289.781319286659
0.75,-0.00464105132025594,-0.00464105132025594,-0.027848879358281,-0.0557772798034009,0.00171221259450057,0.00633616940633159,0.0344905515284016,0.0519332925881426,-2.62011914539939,-0.144963141214248,-13.2679422405809,289.781319286659
0.76,-0.00464105132025594,-0.00464105132025594,-0.027848879358281,-0.0557772798034009,0.00171221259450057,0.00633616940633159,0.0344905515284016,0.0519332925881426,-2.62011914539939,-0.144963141214248,-13.2679422405809,289.781319286659
0.77,-0.00464105132025594,-0.00464105132025594,-0.027848879358281,-0.0557772798034009,0.00171221259450057,0.00633616940633159,0.0344905515284016,0.0519332925881426,-2.62011914539939,-0.144963141214248,-13.2679422405809,289.781319286659
0.78,-0.00464105132025594,-0.00464105132025594,-0.027848879358281,-0.0557772798034009,0.00171221259450057,0.00633616940633159,0.0344905515284016,0.0519332925881426,-2.62011914539939,-0.144963141214248,-13.2679422405809,289.781319286659
0.79,-0.00464105132025594,-0.00464105132025594,-0.027848879358281,-0.0557772798034009,0.00171221259450057,0.00633616940633159,0.0344905515284016,0.0519332925881426,-2.62011914539939,-0.144963141214248,-13.2679422405809,289.781319286659
0.8,-0.00464105132025594,-0.00464105132025594,-0.027848879358281,-0.0557772798034009,0.00171221259450057,0.00633616940633159,0.0344905515284016,0.0519332925881426,-2.62011914539939,-0.144963141214248,-13.2679422405809,289.781319286659
0.81,-0.00464105132025594,-0.00464105132025594,-0.027848879358281,-0.0557772798034009,0.00171221259450057,0.00633616940633159,0.0344905515284016,0.0519332925881426,-2.62011914539939,-0.144963141214248,-13.2679422405809,289.781319286659
0.82,-0.00464105132025594,-0.00464105132025594,-0.027848879358281,-0.0557772798034009,0.00171221259450057,0.00633616940633159,0.0344905515284016,0.0519332925881426,-2.62011914539939,-0.144963141214248,-13.2679422405809,289.781319286659
0.83,-0.00464105132025594,-0.00464105132025594,-0.027848879358281,-0.0557772798034009,0.00171221259450057,0.00633616940633159,0.0344905515284016,0.0519332925881426,-2.62011914539939,-0.144963141214248,-13.2679422405809,289.781319286659
0.84,-0.00464105132025594,-0.00464105132025594,-0.027848879358281,-0.0557772798034009,0.00171221259450057,0.00633616940633159,0.0344905515284016,0.0519332925881426,-2.62011914539939,-0.144963141214248,-13.2679422405809,289.781319286659
