t,iq,id,vq,vd,ia,ib,va,vb,theta_e,omega,omega_obs,r
0,0,0,0,0,0,0,0,0,0,-0.144963141214248,0,0
0.01,-0.0144703094847844,-0.0235374581701075,-0.0274969558621035,0.058128194861211,0.0276198984612925,0.000736887157503458,-0.0365421472989273,0.052911634734611,2.61705109019401,-0.144963141214248,12.9780159581524,-0.144963141214248
0.02,-0.0144703094848733,0.0147829697842518,-0.02749695586157,-0.172501034249595,-0.00554848686889679,0.0199283804082468,0.163079818005391,-0.0625912322786634,2.61705109019401,-0.144963141214248,12.9780159581524,-0.144963141214248
0.03,0.0342656146946748,-0.111238672168991,-0.261408773215993,0.526432352526645,0.0791222590883653,-0.0853688623157047,-0.324737668036661,0.489909191033542,2.61705109019401,-0.144963141214248,12.9780159581524,-0.144963141214248
0.04,-0.0142944380659727,0.101897945720785,-0.0282008028560588,-0.637986912125966,-0.0810392493544105,0.0634047503410555,0.566335305037913,-0.295104909470115,2.61705109019401,-0.144963141214248,12.9780159581524,-0.144963141214248
0.05,-0.0144116856786916,-0.0241823200371289,-0.027848879358281,0.061651044589528,0.028148701232893,0.000363187803842209,-0.0394151136441573,0.054980543803333,2.61705109019401,-0.144963141214248,12.9780159581524,-0.144963141214248
0.06,-0.0238892010044432,-0.00516866557909028,0.0293973427337028,-0.0529589999993884,0.0164378574310601,0.0180888327864267,0.0311161873098688,-0.051967704663908,2.61705109019401,-0.144963141214248,14.7812542971954,-0.144963141214248
0.07,-0.0142944380654394,-0.0238305771973723,-0.0282008028576595,0.0595373347333115,0.027785529432172,0.000437862239189542,-0.0374093354064528,0.0542265722078251,2.61705109019401,-0.144963141214248,14.8091293208554,-0.144963141214248
0.08,0.00501233542474985,-0.0530838564654314,-0.0861508719457313,0.176965659123038,0.0434366653360074,-0.0309237033380612,-0.110027510641268,0.163195478331806,2.61705109019401,-0.144963141214248,14.8091293208554,-0.144963141214248
0.09,0.00530545445859086,-0.00528591319509695,-0.0875585659469776,-0.0522544300323658,0.0019181834903025,-0.00723942659440736,0.0890797645057713,0.0496167661611976,2.61705109019401,-0.144963141214248,14.8091293208554,-0.144963141214248
0.1,-0.0241236962302363,0.170057890993733,0.0304531132281022,-0.872138990911687,-0.135112684798561,0.106048108967439,0.739631651005007,-0.463140186558398,2.61705109019401,-0.144963141214248,14.8091293208554,-0.144963141214248
0.11,0.0148415935896338,-0.072918244215344,-0.144804788031489,0.295803123419042,0.0556817392821234,-0.0493648371844377,-0.183512874012123,0.273479321947961,2.61705109019401,-0.144963141214248,14.8091293208554,-0.144963141214248
0.12,-0.0142944380645509,-0.0240650724229883,-0.0282008028603261,0.0609464746321171,0.0279884976243212,0.000320423217512909,-0.0386290215527632,0.0549322923782216,2.61705109019401,-0.144963141214248,14.8091293208554,-0.144963141214248
0.13,0.00501233542388782,-0.0047582989345478,-0.0861508719431439,-0.0550727098450811,0.00160830383192242,-0.00672147855284112,0.090814140773754,0.0469868911694449,2.61705109019401,-0.144963141214248,14.8091293208554,-0.144963141214248
0.14,0.00524683065264943,-0.00464105132025594,-0.0872066424517092,-0.0557772798034009,0.00138938071185792,-0.00686572723696101,0.0919527308884313,0.0475478570718685,2.61705109019401,-0.144963141214248,14.8091293208554,-0.144963141214248
0.15,-0.0337184591662703,0.101897945705359,0.0884031823057468,-0.63869148200531,-0.071311383820059,0.0802172822101817,0.508547976785189,-0.3963847715738,2.61705109019401,-0.144963141214248,13.0065036198035,-0.144963141214248
0.16,0.00518820684338393,-0.00452380370984744,-0.086854718936486,-0.0564818497383846,0.00131725637429773,-0.00675626567708355,0.0923863249325342,0.0468903883206959,2.61705109019401,-0.144963141214248,14.8091293208554,-0.144963141214248
0.17,0.00501233542759327,-0.00452380370966954,-0.027848879358281,-0.0564818497394536,0.00140533563811104,-0.00660403953551018,0.0628352412826255,-0.00418233002721441,2.61705109019401,-0.144963141214248,12.9780159581524,-0.144963141214248
0.18,-0.0627372432224345,0.0147829697858515,0.26260531314325,-0.172501034259208,0.0186243781655171,0.0617059998767389,0.017791885837169,-0.313690302862422,2.61705109019401,-0.144963141214248,12.9780159581524,-0.144963141214248
0.19,-0.0240064486207164,-0.00440655609837262,0.0301011897441943,-0.057186419679776,0.0158369303195119,0.0185719937024038,0.0344227477144467,-0.0546940824915733,2.61705109019401,-0.144963141214248,12.9780159581524,-0.144963141214248
0.2,-0.0144116856786916,-0.0241823200371289,-0.027848879358281,0.061651044589528,0.028148701232893,0.000363187803842209,-0.0394151136441573,0.054980543803333,2.61705109019401,-0.144963141214248,12.9780159581524,-0.144963141214248
0.21,0.00501233542688276,0.0828842912661254,-0.0861508719521333,-0.523376867554142,-0.0742510578285332,0.0371713553218511,0.496156502119961,-0.187547443685547,2.61705109019401,-0.144963141214248,12.9780159581524,-0.144963141214248
0.22,-0.0144116856786916,-0.0241823200371289,-0.027848879358281,0.061651044589528,0.028148701232893,0.000363187803842209,-0.0394151136441573,0.054980543803333,2.61705109019401,-0.144963141214248,12.9780159581524,-0.144963141214248
0.23,0.00501233542652695,-0.0533183516949567,-0.0861508719510653,0.178374799039996,0.0436396335310953,-0.0310411423624649,-0.111247196801954,0.163901198513602,2.61705109019401,-0.144963141214248,12.9780159581524,-0.144963141214248
0.24,0.0050123354263496,0.0343242385016564,-0.086150871950533,-0.289929358645729,-0.0322197281242574,0.0128516915129398,0.294095164519286,-0.0706331363379445,2.61705109019401,-0.144963141214248,12.9780159581524,-0.144963141214248
0.25,-0.0144116856786916,0.0146657221725993,-0.027496955862637,-0.171796464307135,-0.00547636252871543,0.0198189188504155,0.162469974938112,-0.0622383721971731,2.61705109019401,-0.144963141214248,12.9780159581524,-0.144963141214248
0.26,-0.0142944380665057,-0.0243581914554078,-0.0282008028544589,0.0623556145351924,0.0282422078663886,0.000173624442870198,-0.039848707707043,0.0556380125433701,2.61705109019401,-0.144963141214248,12.9780159581524,-0.144963141214248
0.27,0.0341483670825771,-0.111590415007412,-0.260704926224166,0.411822307928111,0.0794854308873526,-0.0854435367513826,-0.225889026479791,0.431901400299647,2.61705109019401,-0.144963141214248,12.9780159581524,-0.144963141214248
0.28,-0.0144116856786916,0.0151933364279695,-0.027848879358281,-0.173910174144129,-0.00593304096009112,0.020083156646323,0.164475753157308,-0.0629923437862862,2.61705109019401,-0.144963141214248,12.9780159581524,-0.144963141214248
0.29,-0.00464105132025594,-0.00464105132025594,-0.027848879358281,-0.0557772798034009,0.00634139273981369,0.00169276484897846,0.0622253982203578,-0.0038294699498561,2.61705109019401,-0.144963141214248,12.9780159581524,91.7158905543538
0.3,-0.00464105132025594,-0.00464105132025594,-0.027848879358281,-0.0557772798034009,0.00634139273981369,0.00169276484897846,0.0622253982203578,-0.0038294699498561,2.61705109019401,-0.144963141214248,12.9780159581524,91.7158905543538
0.31,-0.00464105132025594,-0.00464105132025594,-0.027848879358281,-0.0557772798034009,0.00634139273981369,0.00169276484897846,0.0622253982203578,-0.0038294699498561,2.61705109019401,-0.144963141214248,12.9780159581524,91.7158905543538
0.32,-0.00464105132025594,-0.00464105132025594,-0.027848879358281,-0.0557772798034009,0.00634139273981369,0.00169276484897846,0.0622253982203578,-0.0038294699498561,2.61705109019401,-0.144963141214248,12.9780159581524,91.7158905543538
0.33,-0.00464105132025594,-0.00464105132025594,-0.027848879358281,-0.0557772798034009,0.00634139273981369,0.00169276484897846,0.0622253982203578,-0.0038294699498561,2.61705109019401,-0.144963141214248,12.9780159581524,91.7158905543538
0.34,-0.00464105132025594,-0.00464105132025594,-0.027848879358281,-0.0557772798034009,0.00634139273981369,0.00169276484897846,0.0622253982203578,-0.0038294699498561,2.61705109019401,-0.144963141214248,12.9780159581524,91.7158905543538
0.35,-0.00464105132025594,-0.00464105132025594,-0.027848879358281,-0.0557772798034009,0.00634139273981369,0.00169276484897846,0.0622253982203578,-0.0038294699498561,2.61705109019401,-0.144963141214248,12.9780159581524,91.7158905543538
0.36,-0.00464105132025594,-0.00464105132025594,-0.027848879358281,-0.0557772798034009,0.00634139273981369,0.00169276484897846,0.0622253982203578,-0.0038294699498561,2.61705109019401,-0.144963141214248,12.9780159581524,91.7158905543538
0.37,-0.00464105132025594,-0.00464105132025594,-0.027848879358281,-0.0557772798034009,0.00634139273981369,0.00169276484897846,0.0622253982203578,-0.0038294699498561,2.61705109019401,-0.144963141214248,12.9780159581524,91.7158905543538
0.38,-0.00464105132025594,-0.00464105132025594,-0.027848879358281,-0.0557772798034009,0.00634139273981369,0.00169276484897846,0.0622253982203578,-0.0038294699498561,2.61705109019401,-0.144963141214248,12.9780159581524,91.7158905543538
0.39,-0.00464105132025594,-0.00464105132025594,-0.027848879358281,-0.0557772798034009,0.00634139273981369,0.00169276484897846,0.0622253982203578,-0.0038294699498561,2.61705109019401,-0.144963141214248,12.9780159581524,91.7158905543538
0.4,-0.00464105132025594,-0.00464105132025594,-0.027848879358281,-0.0557772798034009,0.00634139273981369,0.00169276484897846,0.0622253982203578,-0.0038294699498561,2.61705109019401,-0.144963141214248,12.9780159581524,91.7158905543538
0.41,-0.00464105132025594,-0.00464105132025594,-0.027848879358281,-0.0557772798034009,0.00634139273981369,0.00169276484897846,0.0622253982203578,-0.0038294699498561,2.61705109019401,-0.144963141214248,12.9780159581524,91.7158905543538
0.42,-0.00464105132025594,-0.00464105132025594,-0.027848879358281,-0.0557772798034009,0.00634139273981369,0.00169276484897846,0.0622253982203578,-0.0038294699498561,2.61705109019401,-0.144963141214248,12.9780159581524,91.7158905543538
0.43,-0.00464105132025594,-0.00464105132025594,-0.027848879358281,-0.0557772798034009,0.00634139273981369,0.00169276484897846,0.0622253982203578,-0.0038294699498561,2.61705109019401,-0.144963141214248,12.9780159581524,91.7158905543538
0.44,-0.00464105132025594,-0.00464105132025594,-0.027848879358281,-0.0557772798034009,0.00634139273981369,0.00169276484897846,0.0622253982203578,-0.0038294699498561,2.61705109019401,-0.144963141214248,12.9780159581524,91.7158905543538
0.45,-0.00464105132025594,-0.00464105132025594,-0.027848879358281,-0.0557772798034009,0.00634139273981369,0.00169276484897846,0.0622253982203578,-0.0038294699498561,2.61705109019401,-0.144963141214248,12.9780159581524,91.7158905543538
0.46,-0.00464105132025594,-0.00464105132025594,-0.027848879358281,-0.0557772798034009,0.00634139273981369,0.00169276484897846,0.0622253982203578,-0.0038294699498561,2.61705109019401,-0.144963141214248,12.9780159581524,91.7158905543538
0.47,-0.00464105132025594,-0.00464105132025594,-0.027848879358281,-0.0557772798034009,0.00634139273981369,0.00169276484897846,0.0622253982203578,-0.0038294699498561,2.61705109019401,-0.144963141214248,12.9780159581524,91.7158905543538
0.48,-0.00464105132025594,-0.00464105132025594,-0.027848879358281,-0.0557772798034009,0.00634139273981369,0.00169276484897846,0.0622253982203578,-0.0038294699498561,2.61705109019401,-0.144963141214248,12.9780159581524,91.7158905543538
0.49,-0.00464105132025594,-0.00464105132025594,-0.027848879358281,-0.0557772798034009,0.00634139273981369,0.00169276484897846,0.0622253982203578,-0.0038294699498561,2.61705109019401,-0.144963141214248,12.9780159581524,91.7158905543538
0.5,-0.00464105132025594,-0.00464105132025594,-0.027848879358281,-0.0557772798034009,0.00634139273981369,0.00169276484897846,0.0622253982203578,-0.0038294699498561,2.61705109019401,-0.144963141214248,12.9780159581524,91.7158905543538
0.51,-0.00464105132025594,-0.00464105132025594,-0.027848879358281,-0.0557772798034009,0.00634139273981369,0.00169276484897846,0.0622253982203578,-0.0038294699498561,2.61705109019401,-0.144963141214248,12.9780159581524,91.7158905543538
0.52,-0.00464105132025594,-0.00464105132025594,-0.027848879358281,-0.0557772798034009,0.00634139273981369,0.00169276484897846,0.0622253982203578,-0.0038294699498561,2.61705109019401,-0.144963141214248,12.9780159581524,91.7158905543538
0.53,-0.00464105132025594,-0.00464105132025594,-0.027848879358281,-0.0557772798034009,0.00634139273981369,0.00169276484897846,0.0622253982203578,-0.0038294699498561,2.61705109019401,-0.144963141214248,12.9780159581524,91.7158905543538
0.54,-0.00464105132025594,-0.00464105132025594,-0.027848879358281,-0.0557772798034009,0.00634139273981369,0.00169276484897846,0.0622253982203578,-0.0038294699498561,2.61705109019401,-0.144963141214248,12.9780159581524,91.7158905543538
0.55,-0.00464105132025594,-0.00464105132025594,-0.027848879358281,-0.0557772798034009,0.00634139273981369,0.00169276484897846,0.0622253982203578,-0.0038294699498561,2.61705109019401,-0.144963141214248,12.9780159581524,91.7158905543538
0.56,-0.00464105132025594,-0.00464105132025594,-0.027848879358281,-0.0557772798034009,0.00634139273981369,0.00169276484897846,0.0622253982203578,-0.0038294699498561,2.61705109019401,-0.144963141214248,12.9780159581524,91.7158905543538
0.57,-0.00464105132025594,-0.00464105132025594,-0.027848879358281,-0.0557772798034009,0.00634139273981369,0.00169276484897846,0.0622253982203578,-0.0038294699498561,2.61705109019401,-0.144963141214248,12.9780159581524,91.7158905543538
0.58,-0.00464105132025594,-0.00464105132025594,-0.027848879358281,-0.0557772798034009,0.00634139273981369,0.00169276484897846,0.0622253982203578,-0.0038294699498561,2.61705109019401,-0.144963141214248,12.9780159581524,91.7158905543538
0.59,-0.00464105132025594,-0.00464105132025594,-0.027848879358281,-0.0557772798034009,0.00634139273981369,0.00169276484897846,0.0622253982203578,-0.0038294699498561,2.61705109019401,-0.144963141214248,12.9780159581524,91.7158905543538
0.6,-0.00464105132025594,-0.00464105132025594,-0.027848879358281,-0.0557772798034009,0.00634139273981369,0.00169276484897846,0.0622253982203578,-0.0038294699498561,2.61705109019401,-0.144963141214248,12.9780159581524,91.7158905543538
0.61,-0.00464105132025594,-0.00464105132025594,-0.027848879358281,-0.0557772798034009,0.00634139273981369,0.00169276484897846,0.0622253982203578,-0.0038294699498561,2.61705109019401,-0.144963141214248,12.9780159581524,91.7158905543538
0.62,-0.00464105132025594,-0.00464105132025594,-0.027848879358281,-0.0557772798034009,0.00634139273981369,0.00169276484897846,0.0622253982203578,-0.0038294699498561,2.61705109019401,-0.144963141214248,12.9780159581524,91.7158905543538
0.63,-0.00464105132025594,-0.00464105132025594,-0.027848879358281,-0.0557772798034009,0.00634139273981369,0.00169276484897846,0.0622253982203578,-0.0038294699498561,2.61705109019401,-0.144963141214248,12.9780159581524,91.7158905543538
0.64,-0.00464105132025594,-0.00464105132025594,-0.027848879358281,-0.0557772798034009,0.00634139273981369,0.00169276484897846,0.0622253982203578,-0.0038294699498561,2.61705109019401,-0.144963141214248,12.9780159581524,91.7158905543538
0.65,-0.00464105132025594,-0.00464105132025594,-0.027848879358281,-0.0557772798034009,0.00634139273981369,0.00169276484897846,0.0622253982203578,-0.0038294699498561,2.61705109019401,-0.144963141214248,12.9780159581524,91.7158905543538
0.66,-0.00464105132025594,-0.00464105132025594,-0.027848879358281,-0.0557772798034009,0.00634139273981369,0.00169276484897846,0.0622253982203578,-0.0038294699498561,2.61705109019401,-0.144963141214248,12.9780159581524,91.7158905543538
0.67,-0.00464105132025594,-0.00464105132025594,-0.027848879358281,-0.0557772798034009,0.00634139273981369,0.00169276484897846,0.0622253982203578,-0.0038294699498561,2.61705109019401,-0.144963141214248,12.9780159581524,91.7158905543538
0.68,-0.00464105132025594,-0.00464105132025594,-0.027848879358281,-0.0557772798034009,0.00634139273981369,0.00169276484897846,0.0622253982203578,-0.0038294699498561,2.61705109019401,-0.144963141214248,12.9780159581524,91.7158905543538
0.69,-0.00464105132025594,-0.00464105132025594,-0.027848879358281,-0.0557772798034009,0.00634139273981369,0.00169276484897846,0.0622253982203578,-0.0038294699498561,2.61705109019401,-0.144963141214248,12.9780159581524,91.7158905543538
0.7,-0.00464105132025594,-0.00464105132025594,-0.027848879358281,-0.0557772798034009,0.00634139273981369,0.00169276484897846,0.0622253982203578,-0.0038294699498561,2.61705109019401,-0.144963141214248,12.9780159581524,91.7158905543538
0.71,-0.00464105132025594,-0.00464105132025594,-0.027848879358281,-0.0557772798034009,0.00634139273981369,0.00169276484897846,0.0622253982203578,-0.0038294699498561,2.61705109019401,-0.144963141214248,12.9780159581524,91.7158905543538
0.72,-0.00464105132025594,-0.00464105132025594,-0.027848879358281,-0.0557772798034009,0.00634139273981369,0.00169276484897846,0.0622253982203578,-0.0038294699498561,2.61705109019401,-0.144963141214248,12.9780159581524,91.7158905543538
0.73,-0.00464105132025594,-0.00464105132025594,-0.027848879358281,-0.0557772798034009,0.00634139273981369,0.00169276484897846,0.0622253982203578,-0.0038294699498561,2.61705109019401,-0.144963141214248,12.9780159581524,91.7158905543538
0.74,-0.00464105132025594,-0.00464105132025594,-0.027848879358281,-0.0557772798034009,0.00634139273981369,0.00169276484897846,0.0622253982203578,-0.0038294699498561,2.61705109019401,-0.144963141214248,12.9780159581524,91.7158905543538
0.75,-0.00464105132025594,-0.00464105132025594,-0.027848879358281,-0.0557772798034009,0.00634139273981369,0.00169276484897846,0.0622253982203578,-0.0038294699498561,2.61705109019401,-0.144963141214248,12.9780159581524,91.7158905543538
0.76,-0.00464105132025594,-0.00464105132025594,-0.027848879358281,-0.0557772798034009,0.00634139273981369,0.00169276484897846,0.0622253982203578,-0.0038294699498561,2.61705109019401,-0.144963141214248,12.9780159581524,91.7158905543538
0.77,-0.00464105132025594,-0.00464105132025594,-0.027848879358281,-0.0557772798034009,0.00634139273981369,0.00169276484897846,0.0622253982203578,-0.0038294699498561,2.61705109019401,-0.144963141214248,12.9780159581524,91.7158905543538
0.78,-0.00464105132025594,-0.00464105132025594,-0.027848879358281,-0.0557772798034009,0.00634139273981369,0.00169276484897846,0.0622253982203578,-0.0038294699498561,2.61705109019401,-0.144963141214248,12.9780159581524,91.7158905543538
0.79,-0.00464105132025594,-0.00464105132025594,-0.027848879358281,-0.0557772798034009,0.00634139273981369,0.00169276484897846,0.0622253982203578,-0.0038294699498561,2.61705109019401,-0.144963141214248,12.9780159581524,91.7158905543538
0.8,-0.00464105132025594,-0.00464105132025594,-0.027848879358281,-0.0557772798034009,0.00634139273981369,0.00169276484897846,0.0622253982203578,-0.0038294699498561,2.61705109019401,-0.144963141214248,12.9780159581524,91.7158905543538
0.81,-0.00458242751371825,-0.0049341703529444,-0.027848879358281,-0.0543681399013816,0.00656574322584112,0.00149522402424483,0.0610057120699304,-0.00312374978015816,2.61705109019401,-0.144963141214248,12.9780159581524,91.7158905543538
0.82,0.102894550429162,-0.0914042844136454,0.38272853325325,0.408299458151681,0.0275840462281214,-0.134837502612867,-0.545081747149216,-0.126789063479066,2.61705109019401,-0.144963141214248,27.9285269306186,91.7158905543538
0.83,0.132206453504558,-0.0530838564654266,0.323722693665972,0.177670229076161,-0.020264216646851,-0.141017033329965,-0.315908698219795,-0.191219212118979,2.61705109019401,-0.144963141214248,38.912083938472,91.7158905543538
0.84,0.132206453504646,0.0337966242386485,0.382376609752807,-0.170387324379511,-0.0954639316683679,-0.0975058762773903,-0.0440210557378349,-0.416300202554581,2.61705109019401,-0.144963141214248,46.8536131681467,91.7158905543538
0.85,0.151689098414716,0.0344414861134865,0.265420701078526,-0.173205604196326,-0.105779319479718,-0.114046192895609,0.0169917368558498,-0.316480032173678,2.61705109019401,-0.144963141214248,43.8116387087124,91.7158905543538
