t,iq,id,vq,vd,ia,ib,va,vb,theta_e,omega,omega_obs,r
0,0,0,0,0,0,0,0,0,0,-0.144963141214248,0,0
0.01,-0.0437822088853605,-0.0242995602998495,0.148464770340263,0.0623555703704349,0.043708621814662,-0.0244316766659641,-0.148275772437307,0.0628036662666214,1.5677762099521,-0.144963141214248,33.7306340687792,-0.144963141214248
0.02,-0.0432546603508193,-0.0239478558355385,0.146001607275173,0.060242091121777,0.0431821378729936,-0.0240783805498261,-0.145819003550166,0.0606827576276393,1.5677762099521,-0.144963141214248,33.7306340687792,-0.144963141214248
0.03,-0.0435477528456955,-0.0241823200371289,0.147409164024299,0.061651044589528,0.0434745209229992,-0.0243137288543656,-0.147222298682431,0.0620959556491713,1.5677762099521,-0.144963141214248,33.7306340687792,-0.144963141214248
0.04,0.014548570065782,0.0146657858427264,-0.143397571825998,-0.171796846916701,-0.0145042113968054,0.0147096572733854,0.142878072092116,-0.172229140192224,1.5677762099521,-0.144963141214248,35.8669329919321,-0.144963141214248
0.05,-0.0044066360990508,-0.00452384370965337,-0.0289042896476571,-0.0564816093696421,0.004392953486557,-0.00453713161411202,0.0287335770277648,-0.0565686459817628,1.5677762099521,-0.144963141214248,35.8669329919321,-0.144963141214248
0.06,0.0442121204719221,0.0344414861134865,-0.262464543707726,-0.290633928589255,-0.0441079016861853,0.034574854608097,0.261585599636724,-0.291425275522945,1.5677762099521,-0.144963141214248,35.8669329919321,-0.144963141214248
0.07,0.0254325951187648,-0.00411369052999246,-0.149026010296084,-0.0585942056914753,-0.0254449029393275,-0.00403686247719363,0.148848369577116,-0.059044013749218,1.5677762099521,-0.144963141214248,35.9127108260378,-0.144963141214248
0.08,-0.00458245975785607,-0.00475823444505568,-0.0282006092929358,-0.0550730973784143,0.00456806845717812,-0.00477205228774989,0.0280341537465339,-0.0551580152204629,1.5677762099521,-0.144963141214248,38.9187885964366,-0.144963141214248
0.09,0.111962098685163,0.0632261018558593,-0.611574396741477,-0.405245719470366,-0.11177063815164,0.0635639516160597,0.610347720063916,-0.407090894655647,1.5677762099521,-0.144963141214248,38.9187885964366,-0.144963141214248
0.1,-0.0433720883511531,-0.0239479864352309,0.146706145152004,0.06024287592768,0.0432995649433655,-0.0240788657946654,-0.146523535843716,0.0606856702134367,1.5677762099521,-0.144963141214248,38.9187885964366,-0.144963141214248
0.11,0.0439778031938751,0.0340900101964159,-0.261409574388933,-0.288521822737579,-0.0438746469734771,0.0342226726294675,0.26053701392593,-0.289309993177868,1.5677762099521,-0.144963141214248,38.9187885964366,-0.144963141214248
0.12,0.0145487659653211,0.0146659164424192,-0.085096267680663,-0.171797631722607,-0.0145044069010254,0.0147097884641212,0.0845770314625567,-0.172053848511613,1.5677762099521,-0.144963141214248,35.8669329919321,-0.144963141214248
0.13,0.00483672725024756,-0.0241823200371289,-0.0850963656740704,0.061651044589528,-0.0049097385131319,-0.0241676022932372,0.0852821706629835,0.0613937628503484,1.5677762099521,-0.144963141214248,35.8669329919321,-0.144963141214248
0.14,-0.0823961566513759,-0.0921667910098116,0.380619035586002,0.411824353339914,0.0821174268249069,-0.0924152163208009,-0.379373543979028,0.412971987407196,1.5677762099521,-0.144963141214248,35.8669329919321,-0.144963141214248
0.15,-0.0434893367713564,-0.0240651940458071,0.147058193565242,0.0609472054937628,0.0434164588487109,-0.0241964269741008,-0.146873455497068,0.0613910597931157,1.5677762099521,-0.144963141214248,35.8669329919321,-0.144963141214248
0.16,0.0246122928403526,0.0343243682840899,-0.144805177585166,-0.28993013854052,-0.0245085171495895,0.0343985436332613,0.143928895630465,-0.290366144190729,1.5677762099521,-0.144963141214248,33.7306340687792,-0.144963141214248
0.17,-0.0234211071985646,-0.00440683198531307,0.0855923488721179,-0.0571847618068094,0.0234076912581782,-0.00447754626053612,-0.0857646629237237,-0.0569260025114001,1.5677762099521,-0.144963141214248,33.7306340687792,-0.144963141214248
0.18,-0.0434893857517419,-0.0240652185359998,0.147058414090183,0.0609473526613975,0.0434165077549099,-0.0241964516121081,-0.14687367557654,0.0613912076260894,1.5677762099521,-0.144963141214248,33.6894340177343,-0.144963141214248
0.19,-0.0920498405197606,-0.111474015897428,0.380268310176593,0.411121446243911,0.0917127566807605,-0.111751508365789,-0.379024943027452,0.41226802428673,1.5677762099521,-0.144963141214248,31.0251640757454,-0.144963141214248
0.2,-0.0141189727355614,-0.0236554367394946,0.0293992929647188,0.0588366692538897,0.0140474662709731,-0.0236979697402463,-0.0292214655421297,0.0589251900912259,1.5677762099521,-0.144963141214248,33.7306340687792,-0.144963141214248
0.21,-0.0631477804555451,-0.0727427992909912,0.264717878193052,0.295100603801634,0.062927801047613,-0.0729331809292807,-0.263825433985073,0.295898735687917,1.5677762099521,-0.144963141214248,33.7306340687792,-0.144963141214248
0.22,-0.0144702201053921,0.0147831485432142,0.0311564236734663,-0.172502108456481,0.014514800881272,0.0147393794349102,-0.0316772573142451,-0.172407225855238,1.5677762099521,-0.144963141214248,33.7306340687792,-0.144963141214248
0.23,0.189718089625175,0.102309153510894,-0.961041100065562,-0.640105114996778,-0.189408239278478,0.102881656851785,0.959103527889987,-0.643004647766442,1.5677762099521,-0.144963141214248,33.7306340687792,-0.144963141214248
0.24,0.0436853840889465,0.0340903285248361,-0.260005178073966,-0.288523735651911,-0.0435822282407528,0.0342221078179145,0.259132618238566,-0.289307664648959,1.5677762099521,-0.144963141214248,33.7306340687792,-0.144963141214248
0.25,0.0243782408359886,-0.00464105132025594,-0.143751457735689,-0.0557772798034009,-0.0243921461537698,-0.00456740513068918,0.143582348503965,-0.0562111709670635,1.5677762099521,-0.144963141214248,35.8669329919321,-0.144963141214248
0.26,0.0242612250351019,-0.00475808752595565,-0.143400266778121,-0.0550739802516805,-0.0242754843490182,-0.00468479420349339,0.143233283191613,-0.0555068139866619,1.5677762099521,-0.144963141214248,35.8669329919321,-0.144963141214248
0.27,-0.0826305841220809,-0.092284190436742,0.323372088260639,0.412529516758931,0.0823514986670462,-0.0925333232096019,-0.322124728058515,0.413504255403293,1.5677762099521,-0.144963141214248,35.8669329919321,-0.144963141214248
0.28,0.025138931282448,-0.0044070115565574,-0.147615391212909,-0.0571836827187197,-0.0251521263047051,-0.00433106906380347,0.14744201686485,-0.0576292369812465,1.5677762099521,-0.144963141214248,35.8669329919321,-0.144963141214248
0.29,0.102367879742844,0.0342074626736406,-0.553626831409028,-0.28922762376801,-0.102264102511952,0.0345164691566058,0.552750806676448,-0.290898319907534,1.5677762099521,-0.144963141214248,35.8669329919321,-0.144963141214248
0.3,0.0149002173966153,0.0149002173966153,-0.086502795445643,-0.173205604196326,-0.0148551491143256,0.0149451497725498,0.0859793005780795,-0.17346606243594,1.5677762099521,-0.144963141214248,38.9187885964366,-0.144963141214248
0.31,0.0339735045468626,0.0146662266133033,-0.260006378586025,-0.171799495616284,-0.0339290559583361,0.0147687635245664,0.259486339052549,-0.172583960565676,1.5677762099521,-0.144963141214248,38.9187885964366,-0.144963141214248
0.32,-0.0433141334499425,-0.0240653328073982,0.204659933305535,0.0609480393465372,0.0432412559072448,-0.0241960366013616,-0.204474930023453,0.0615658573619944,1.5677762099521,-0.144963141214248,38.9187885964366,-0.144963141214248
0.33,-0.0134173636023445,-0.0235389351641985,0.0258893924395331,0.0581362636097263,0.0133462121853143,-0.0235793497579223,-0.0257136963276858,0.0582141873477187,1.5677762099521,-0.144963141214248,38.9187885964366,-0.144963141214248
0.34,-0.0241238345842021,-0.00475802222610967,0.0891078598656214,-0.0550743726546308,0.0241093548050438,-0.00483085721529923,-0.0892737842724313,-0.0548050057459331,1.5677762099521,-0.144963141214248,35.8669329919321,-0.144963141214248
0.35,-0.0141777601908345,0.0150171801405438,0.0297518313716714,-0.173908462298066,0.0142230491021867,0.0149742932266983,-0.0302769187646299,-0.173817815309496,1.5677762099521,-0.144963141214248,35.8669329919321,-0.144963141214248
0.36,-0.0142362538056882,-0.0239484108731245,0.0301029488208515,0.0602454264801227,0.0141638619914635,-0.02399129673975,-0.0299208635842465,0.060336066012424,1.5677762099521,-0.144963141214248,35.8669329919321,-0.144963141214248
0.37,0.0140231192460379,0.0145493781363843,-0.140944478063846,-0.17109732417331,-0.0139791145377458,0.0145916631774681,0.140427102154627,-0.171522212020515,1.5677762099521,-0.144963141214248,35.8669329919321,-0.144963141214248
0.38,0.0243785061096715,-0.00464105132025594,-0.143752731703357,-0.0557772798034009,-0.0243924114262428,-0.00456740432953288,0.143583622465823,-0.0562111748145889,1.5677762099521,-0.144963141214248,35.8669329919321,-0.144963141214248
0.39,-0.023773064700336,-0.00440719112780282,0.0870021596030286,-0.0571826036306234,0.0237596460701794,-0.00447896835255116,-0.0871744607071886,-0.0569195865583956,1.5677762099521,-0.144963141214248,35.8669329919321,-0.144963141214248
0.4,-0.0437235887540002,-0.0241823200371289,0.148112868903805,0.061651044589528,0.0436503560293955,-0.0243142598985466,-0.147926000352656,0.0620980809168995,1.5677762099521,-0.144963141214248,35.8669329919321,-0.144963141214248
0.41,-0.0437235887540002,-0.0241823200371289,0.148112868903805,0.061651044589528,0.0436503560293955,-0.0243142598985466,-0.147926000352656,0.0620980809168995,1.5677762099521,-0.144963141214248,33.6894340176844,-0.144963141214248
0.42,0.0342661276978118,0.0146664061757156,-0.203108833692363,-0.171800574651299,-0.0342216772324642,0.0147698268409231,0.202589050384144,-0.172413202623347,1.5677762099521,-0.144963141214248,35.8348885077666,-0.144963141214248
0.43,-0.0147039293000031,-0.0244745636584405,0.0322085265916752,0.0630559760404938,0.0146299463124479,-0.0245188595580104,-0.0320179435773176,0.0631529618363675,1.5677762099521,-0.144963141214248,33.7306340687792,-0.144963141214248
0.44,-0.08228012441792,-0.0921676480585384,0.321618681487607,0.411828767812575,0.0820013925322384,-0.0924157229352493,-0.32037344562246,0.412798214167459,1.5677762099521,-0.144963141214248,33.7306340687792,-0.144963141214248
0.45,-0.043782029314129,-0.0242992011573865,0.148463692359493,0.0623534121944096,0.0437084433289,-0.0244313169828137,-0.148274700979388,0.0628015048448156,1.5677762099521,-0.144963141214248,33.7306340687792,-0.144963141214248
0.46,-0.0428470415665074,-0.072392690558479,0.143903281415769,0.29299610058613,0.0426282121087705,-0.0725217632832199,-0.143017744024672,0.293429368426197,1.5677762099521,-0.144963141214248,33.7306340687792,-0.144963141214248
0.47,-0.0435482915594293,-0.0241823200371289,0.147411319985996,0.061651044589528,0.0434750596342762,-0.0243137304813416,-0.147224454634295,0.0620959621604177,1.5677762099521,-0.144963141214248,33.7306340687792,-0.144963141214248
0.48,-0.0143532573614644,-0.0240654634026747,-0.0281996293188306,0.0609488241259039,0.0142805115018606,-0.0241087020993486,0.0283835730034954,0.060863380119782,1.5677762099521,-0.144963141214248,33.7306340687792,-0.144963141214248
0.49,-0.043489891808942,-0.0240654715645999,0.147060692517212,0.0609488731729344,0.0434170130456273,-0.0241967061679038,-0.146875949401063,0.0613927350117973,1.5677762099521,-0.144963141214248,33.7306340687792,-0.144963141214248
0.5,-0.0534358029571339,-0.0436067484433963,0.206416084027321,0.178377246612894,0.0533038619852851,-0.0437679316958543,-0.205876423348657,0.17899983285896,1.5677762099521,-0.144963141214248,33.7306340687792,-0.144963141214248
0.51,-0.0240654878884503,-0.00464105132025594,0.0887575998854549,-0.0557772798034009,0.0240513616406509,-0.00471371062932641,-0.0889256487481346,-0.0555089675135178,1.5677762099521,-0.144963141214248,35.8669329919321,-0.144963141214248
0.52,-0.0142364496985614,-0.0239486720636221,0.0301037327947966,0.0602469960385236,0.0141640570946187,-0.0239915585206749,-0.0299216428143737,0.0603376379313561,1.5677762099521,-0.144963141214248,35.8669329919321,-0.144963141214248
0.53,0.0733487998099867,0.0344414861134865,-0.43737440956344,-0.290633928589255,-0.0732444481449843,0.0346628506503389,0.436494667807354,-0.291953522951754,1.5677762099521,-0.144963141214248,35.8669329919321,-0.144963141214248
0.54,-0.00452424365735295,-0.00452424365735295,-0.0281994823287195,-0.0564792059848421,0.00451055930061712,-0.00453788674801534,0.0280287801816277,-0.0565641140107046,1.5677762099521,-0.144963141214248,35.8669329919321,-0.144963141214248
0.55,-0.0142364864272249,-0.0239487210351734,0.0301038797849077,0.0602472903207063,0.014164093675215,-0.0239916076029275,-0.0299217889150492,0.0603379326561234,1.5677762099521,-0.144963141214248,35.8669329919321,-0.144963141214248
0.56,-0.0524431010609628,-0.0429644450501585,0.201508475385145,0.174868400458174,0.0523131044447272,-0.043122633160714,-0.200979434197134,0.175476181177521,1.5677762099521,-0.144963141214248,35.8669329919321,-0.144963141214248
0.57,0.0146666510511938,0.0147834342239046,-0.085451207059264,-0.172503825182517,-0.0146219365323857,0.0148276617358531,0.0849298364389189,-0.172761110707659,1.5677762099521,-0.144963141214248,35.8669329919321,-0.144963141214248
0.58,0.0337408360487865,0.0142579548373069,-0.200305577982684,-0.169696954362497,-0.0336976215479488,0.014359790925532,0.199792160628258,-0.170301125781296,1.5677762099521,-0.144963141214248,33.7626785526339,-0.144963141214248
0.59,-0.0437235887540002,-0.0241823200371289,0.148112868903805,0.061651044589528,0.0436503560293955,-0.0243142598985466,-0.147926000352656,0.0620980809168995,1.5677762099521,-0.144963141214248,35.8669329919321,-0.144963141214248
0.6,-0.0241823200371289,-0.00464105132025594,0.0894589528164431,-0.0557772798034009,0.0241681932565107,-0.00471406347553002,-0.0896269984805681,-0.0555068493489381,1.5677762099521,-0.144963141214248,33.7306340687792,-0.144963141214248
0.61,-0.0243574458246007,-0.00487455237021823,0.0901598157537085,-0.0543741141523709,0.0243426130459309,-0.00494809236013557,-0.0903236205037396,-0.0541015734123709,1.5677762099521,-0.144963141214248,33.7306340687792,-0.144963141214248
0.62,-0.0534942231124358,-0.0437235887540002,0.206766784991167,0.179079368982457,0.0533619290033055,-0.0438849479090289,-0.206225002224744,0.179703011182737,1.5677762099521,-0.144963141214248,30.9839640247255,-0.144963141214248
0.63,-0.0144116856786916,0.0149002173966153,0.0308050367290811,-0.173205604196326,0.0144566202825991,0.0148566245349523,-0.0313279966084803,-0.173111779614772,1.5677762099521,-0.144963141214248,30.9839640247255,-0.144963141214248
0.64,0.0246124887354482,0.034324760074281,-0.144806353559424,-0.289932492904831,-0.0245087118605413,0.0343989360132909,0.143930064488916,-0.290368502095878,1.5677762099521,-0.144963141214248,30.9839640247255,-0.144963141214248
0.65,0.0147251405806949,0.0146667816420547,-0.0858021284951924,-0.17180283092154,-0.014680778099034,0.0147111863309477,0.0852828733558087,-0.172061179465729,1.5677762099521,-0.144963141214248,30.9839640247255,-0.144963141214248
0.66,0.102194023188083,0.0827694641865668,-0.552581343352671,-0.522685227013658,-0.101943584054337,0.0830777241338138,0.551000255220284,-0.52435170096696,1.5677762099521,-0.144963141214248,30.9839640247255,-0.144963141214248
0.67,0.0242623963180464,-0.0047577528736858,-0.143405289140394,-0.0550759912600686,-0.0242766546159336,-0.00468445601534377,0.14323829945751,-0.0555088401539765,1.5677762099521,-0.144963141214248,30.9839640247255,-0.144963141214248
0.68,-0.0145867257659485,-0.0241823200371289,0.0315055566894205,0.061651044589528,0.0145136259214471,-0.0242262633016612,-0.0313192199316796,0.0617459137446466,1.5677762099521,-0.144963141214248,30.9839640247255,-0.144963141214248
0.69,-0.0147033987526401,0.0143751338635079,0.0322059786563525,-0.170400842399241,0.0147467462149642,0.0143306623902857,-0.0327204614512204,-0.170302799607063,1.5677762099521,-0.144963141214248,30.9839640247255,-0.144963141214248
0.7,-0.0242989971047831,-0.00504942105704565,0.0898091637999091,-0.0536738555966782,0.0242836364696081,-0.00512278372777088,-0.0899708552896624,-0.0534023770585037,1.5677762099521,-0.144963141214248,30.9839640247255,-0.144963141214248
0.71,0.0246125173043958,-0.00452438241894577,-0.144806525061151,-0.0564783721320575,-0.0246260692005693,-0.00445002922022078,0.144635293640208,-0.0569154465201099,1.5677762099521,-0.144963141214248,30.9839640247255,-0.144963141214248
0.72,-0.0627398841436391,-0.0726271792414597,0.262969567264032,0.294404563530507,0.0625202557814664,-0.0728163295143911,-0.262079233149063,0.29519741849586,1.5677762099521,-0.144963141214248,33.7306340687792,-0.144963141214248
0.73,0.0440371416057723,-0.00452439874282273,-0.320068047369885,-0.0564782740378372,-0.044050604964287,-0.00439138099818663,0.319896016956367,-0.0574446578971078,1.5677762099521,-0.144963141214248,33.7306340687792,-0.144963141214248
0.74,0.179659590711681,0.0826531136203706,-0.901355587087818,-0.52198585143808,-0.179409149684157,0.0831953288078007,0.899775020546005,-0.52470566594749,1.5677762099521,-0.144963141214248,33.7306340687792,-0.144963141214248
0.75,0.0633451623012536,0.0147835811430325,-0.319368017403268,-0.172504708055951,-0.0633002253379777,0.0149748232225303,0.318845577327376,-0.173468448601858,1.5677762099521,-0.144963141214248,33.7306340687792,-0.144963141214248
0.76,-0.0241823200371289,-0.00464105132025594,0.0894589528164431,-0.0557772798034009,0.0241681932565107,-0.00471406347553002,-0.0896269984805681,-0.0555068493489381,1.5677762099521,-0.144963141214248,33.7306340687792,-0.144963141214248
0.77,0.0146669775371506,0.0147835974668829,-0.0854526770006625,-0.172504806150012,-0.0146222625238414,0.0148278259641112,0.0849313034109817,-0.172762096110068,1.5677762099521,-0.144963141214248,33.7306340687792,-0.144963141214248
0.78,-0.0242989318049361,-0.00475766308806309,0.0898089677997514,-0.0550765308041168,0.0242844523118755,-0.00483102689215209,-0.0899748955269777,-0.0548050464609151,1.5677762099521,-0.144963141214248,33.7306340687792,-0.144963141214248
0.79,-0.0046993531231969,-0.00475765492613787,-0.0271488983883681,-0.0550765798511472,0.00468496303963316,-0.00477182580255981,0.0269824371208871,-0.0551583213923257,1.5677762099521,-0.144963141214248,30.9839640247255,-0.144963141214248
0.8,-0.00475764676421266,0.0342082952255731,-0.0271489473850718,-0.289232626778809,0.00486093795824901,0.0341937705896709,0.0262753085712387,-0.289313300587742,1.5677762099521,-0.144963141214248,30.9381861905644,-0.144963141214248
0.81,-0.0437235887540002,-0.0241823200371289,0.148112868903805,0.061651044589528,0.0436503560293955,-0.0243142598985466,-0.147926000352656,0.0620980809168995,1.5677762099521,-0.144963141214248,30.9839640247255,-0.144963141214248
0.82,0.0339751696330614,0.0146670591564027,-0.201711125680958,-0.171804498574002,-0.0339307185225675,0.0147696010926162,0.201191336896369,-0.172412905293065,1.5677762099521,-0.144963141214248,27.9778862543275,-0.144963141214248
0.83,-0.0437235887540002,-0.0241823200371289,0.148112868903805,0.061651044589528,0.0436503560293955,-0.0243142598985466,-0.147926000352656,0.0620980809168995,1.5677762099521,-0.144963141214248,30.9839640247255,-0.144963141214248
0.84,-0.00458276992433744,-0.00475761411209296,-0.0285486153181487,-0.0550768251128534,0.00456838049572013,-0.00477143289435382,0.0283821469264716,-0.0551627939551619,1.5677762099521,-0.144963141214248,30.9839640247255,-0.144963141214248
0.85,-0.0143534083637357,-0.0238326561473936,-0.028198722839863,0.0595498276589769,0.0142813656074871,-0.0238758963618403,0.0283784414022919,0.0594643927707156,1.5677762099521,-0.144963141214248,30.9839640247255,-0.144963141214248
0.86,0.0436876613661018,0.0340918467096063,-0.318319907929883,-0.288532858800273,-0.043584500922434,0.0342236328733936,0.317447054594344,-0.289492904785805,1.5677762099521,-0.144963141214248,30.9839640247255,-0.144963141214248
