t,iq,id,vq,vd,ia,ib,va,vb,theta_e,omega,omega_obs,r
0,0,0,0,0,0,0,0,0,0,-0.144963141214248,0,0
0.01,0.0253742895698937,-0.0343632931208895,-0.207329623167877,0.0637646106304138,-0.0424368150463061,0.00487926367545268,0.158586576311817,-0.147992553952821,0.52156938491557,-0.144963141214248,95.9884884006597,-0.144963141214248
0.02,0.00559850614339606,0.014607140455855,-0.0886140332211903,-0.171796666646966,0.00987554253136279,0.01213200243348,-0.104803106416957,-0.162427985396885,0.52156938491557,-0.144963141214248,95.9884884006597,-0.144963141214248
0.03,-0.0244753748291315,0.0149002173966153,0.032564268581236,-0.173205604196326,0.0251137060639011,-0.013797181568308,-0.166400764201041,-0.0580637458880731,0.52156938491557,-0.144963141214248,93.8521894775067,-0.144963141214248
0.04,-0.00534432966404419,-0.0142358660927445,0.0339714147335195,-0.0564816421001845,-0.00968027469526281,-0.011726637403484,-0.0658977153377352,0.00131302193314906,0.52156938491557,-0.144963141214248,95.9884884006597,-0.144963141214248
0.05,-0.0238893095425747,0.014607206902061,0.0293978639843176,-0.171796986080335,0.0245676527098458,-0.0134350304885763,-0.163601804249387,-0.0601073080371458,0.52156938491557,-0.144963141214248,95.9884884006597,-0.144963141214248
0.06,0.0439191321261257,-0.0144116856786916,-0.261057477331604,-0.0557772798034009,-0.0343778165198615,0.0308990708944497,0.0817086219620352,-0.254137389043944,0.52156938491557,-0.144963141214248,95.9884884006597,-0.144963141214248
0.07,0.0146658444389839,-0.014235905960468,-0.143749751525518,-0.0564814823835002,-0.0196502077764246,0.00562293037188842,0.0226504778636082,-0.152777959040027,0.52156938491557,-0.144963141214248,93.8764524250764,-0.144963141214248
0.08,0.00507099422852339,-0.033835776776252,-0.0861510820359327,0.0609468952483776,-0.0318634944933366,-0.0124616407904891,0.0957673349254501,-0.0443300184711824,0.52156938491557,-0.144963141214248,93.8521894775067,-0.144963141214248
0.09,-0.00428954504082762,-0.014528854438501,-0.0296073134460303,-0.0550731837011994,-0.0104598442557054,-0.010958077664391,-0.032998969096984,-0.0531104190438546,0.52156938491557,-0.144963141214248,93.8521894775067,-0.144963141214248
0.1,-0.0240651601324058,0.0147244775395306,0.0304533764904345,-0.172501561306532,0.024756946901744,-0.01352907059316,-0.164738598066609,-0.0595431868470922,0.52156938491557,-0.144963141214248,93.8521894775067,-0.144963141214248
0.11,-0.00464105132025594,-0.00464105132025594,-0.027848879358281,-0.0557772798034009,-0.00171160509545909,-0.00633633353854556,-0.0344855721758641,-0.051936599190573,0.52156938491557,-0.144963141214248,93.8521894775067,251.93830979081
0.12,-0.00464105132025594,-0.00464105132025594,-0.027848879358281,-0.0557772798034009,-0.00171160509545909,-0.00633633353854556,-0.0344855721758641,-0.051936599190573,0.52156938491557,-0.144963141214248,93.8521894775067,251.93830979081
0.13,-0.00464105132025594,-0.00464105132025594,-0.027848879358281,-0.0557772798034009,-0.00171160509545909,-0.00633633353854556,-0.0344855721758641,-0.051936599190573,0.52156938491557,-0.144963141214248,93.8521894775067,251.93830979081
0.14,-0.00464105132025594,-0.00464105132025594,-0.027848879358281,-0.0557772798034009,-0.00171160509545909,-0.00633633353854556,-0.0344855721758641,-0.051936599190573,0.52156938491557,-0.144963141214248,93.8521894775067,251.93830979081
0.15,-0.00464105132025594,-0.00464105132025594,-0.027848879358281,-0.0557772798034009,-0.00171160509545909,-0.00633633353854556,-0.0344855721758641,-0.051936599190573,0.52156938491557,-0.144963141214248,93.8521894775067,251.93830979081
0.16,-0.00464105132025594,-0.00464105132025594,-0.027848879358281,-0.0557772798034009,-0.00171160509545909,-0.00633633353854556,-0.0344855721758641,-0.051936599190573,0.52156938491557,-0.144963141214248,93.8521894775067,251.93830979081
0.17,-0.00464105132025594,-0.00464105132025594,-0.027848879358281,-0.0557772798034009,-0.00171160509545909,-0.00633633353854556,-0.0344855721758641,-0.051936599190573,0.52156938491557,-0.144963141214248,93.8521894775067,251.93830979081
0.18,-0.00464105132025594,-0.00464105132025594,-0.027848879358281,-0.0557772798034009,-0.00171160509545909,-0.00633633353854556,-0.0344855721758641,-0.051936599190573,0.52156938491557,-0.144963141214248,93.8521894775067,251.93830979081
0.19,-0.00464105132025594,-0.00464105132025594,-0.027848879358281,-0.0557772798034009,-0.00171160509545909,-0.00633633353854556,-0.0344855721758641,-0.051936599190573,0.52156938491557,-0.144963141214248,93.8521894775067,251.93830979081
0.2,-0.00464105132025594,-0.00464105132025594,-0.027848879358281,-0.0557772798034009,-0.00171160509545909,-0.00633633353854556,-0.0344855721758641,-0.051936599190573,0.52156938491557,-0.144963141214248,93.8521894775067,251.93830979081
0.21,-0.00464105132025594,-0.00464105132025594,-0.027848879358281,-0.0557772798034009,-0.00171160509545909,-0.00633633353854556,-0.0344855721758641,-0.051936599190573,0.52156938491557,-0.144963141214248,93.8521894775067,251.93830979081
0.22,-0.00464105132025594,-0.00464105132025594,-0.027848879358281,-0.0557772798034009,-0.00171160509545909,-0.00633633353854556,-0.0344855721758641,-0.051936599190573,0.52156938491557,-0.144963141214248,93.8521894775067,251.93830979081
0.23,-0.00464105132025594,-0.00464105132025594,-0.027848879358281,-0.0557772798034009,-0.00171160509545909,-0.00633633353854556,-0.0344855721758641,-0.051936599190573,0.52156938491557,-0.144963141214248,93.8521894775067,251.93830979081
0.24,-0.00464105132025594,-0.00464105132025594,-0.027848879358281,-0.0557772798034009,-0.00171160509545909,-0.00633633353854556,-0.0344855721758641,-0.051936599190573,0.52156938491557,-0.144963141214248,93.8521894775067,251.93830979081
0.25,-0.00464105132025594,-0.00464105132025594,-0.027848879358281,-0.0557772798034009,-0.00171160509545909,-0.00633633353854556,-0.0344855721758641,-0.051936599190573,0.52156938491557,-0.144963141214248,93.8521894775067,251.93830979081
0.26,-0.00464105132025594,-0.00464105132025594,-0.027848879358281,-0.0557772798034009,-0.00171160509545909,-0.00633633353854556,-0.0344855721758641,-0.051936599190573,0.52156938491557,-0.144963141214248,93.8521894775067,251.93830979081
0.27,-0.00464105132025594,-0.00464105132025594,-0.027848879358281,-0.0557772798034009,-0.00171160509545909,-0.00633633353854556,-0.0344855721758641,-0.051936599190573,0.52156938491557,-0.144963141214248,93.8521894775067,251.93830979081
0.28,-0.00464105132025594,-0.00464105132025594,-0.027848879358281,-0.0557772798034009,-0.00171160509545909,-0.00633633353854556,-0.0344855721758641,-0.051936599190573,0.52156938491557,-0.144963141214248,93.8521894775067,251.93830979081
0.29,-0.00464105132025594,-0.00464105132025594,-0.027848879358281,-0.0557772798034009,-0.00171160509545909,-0.00633633353854556,-0.0344855721758641,-0.051936599190573,0.52156938491557,-0.144963141214248,93.8521894775067,251.93830979081
0.3,-0.00464105132025594,-0.00464105132025594,-0.027848879358281,-0.0557772798034009,-0.00171160509545909,-0.00633633353854556,-0.0344855721758641,-0.051936599190573,0.52156938491557,-0.144963141214248,93.8521894775067,251.93830979081
0.31,-0.00464105132025594,-0.00464105132025594,-0.027848879358281,-0.0557772798034009,-0.00171160509545909,-0.00633633353854556,-0.0344855721758641,-0.051936599190573,0.52156938491557,-0.144963141214248,93.8521894775067,251.93830979081
0.32,-0.00464105132025594,-0.00464105132025594,-0.027848879358281,-0.0557772798034009,-0.00171160509545909,-0.00633633353854556,-0.0344855721758641,-0.051936599190573,0.52156938491557,-0.144963141214248,93.8521894775067,251.93830979081
0.33,-0.00464105132025594,-0.00464105132025594,-0.027848879358281,-0.0557772798034009,-0.00171160509545909,-0.00633633353854556,-0.0344855721758641,-0.051936599190573,0.52156938491557,-0.144963141214248,93.8521894775067,251.93830979081
0.34,-0.00464105132025594,-0.00464105132025594,-0.027848879358281,-0.0557772798034009,-0.00171160509545909,-0.00633633353854556,-0.0344855721758641,-0.051936599190573,0.52156938491557,-0.144963141214248,93.8521894775067,251.93830979081
0.35,-0.00464105132025594,-0.00464105132025594,-0.027848879358281,-0.0557772798034009,-0.00171160509545909,-0.00633633353854556,-0.0344855721758641,-0.051936599190573,0.52156938491557,-0.144963141214248,93.8521894775067,251.93830979081
0.36,-0.00464105132025594,-0.00464105132025594,-0.027848879358281,-0.0557772798034009,-0.00171160509545909,-0.00633633353854556,-0.0344855721758641,-0.051936599190573,0.52156938491557,-0.144963141214248,93.8521894775067,251.93830979081
0.37,-0.00464105132025594,-0.00464105132025594,-0.027848879358281,-0.0557772798034009,-0.00171160509545909,-0.00633633353854556,-0.0344855721758641,-0.051936599190573,0.52156938491557,-0.144963141214248,93.8521894775067,251.93830979081
0.38,-0.00464105132025594,-0.00464105132025594,-0.027848879358281,-0.0557772798034009,-0.00171160509545909,-0.00633633353854556,-0.0344855721758641,-0.051936599190573,0.52156938491557,-0.144963141214248,93.8521894775067,251.93830979081
0.39,-0.00464105132025594,-0.00464105132025594,-0.027848879358281,-0.0557772798034009,-0.00171160509545909,-0.00633633353854556,-0.0344855721758641,-0.051936599190573,0.52156938491557,-0.144963141214248,93.8521894775067,251.93830979081
0.4,-0.00464105132025594,-0.00464105132025594,-0.027848879358281,-0.0557772798034009,-0.00171160509545909,-0.00633633353854556,-0.0344855721758641,-0.051936599190573,0.52156938491557,-0.144963141214248,93.8521894775067,251.93830979081
0.41,-0.00464105132025594,-0.00464105132025594,-0.027848879358281,-0.0557772798034009,-0.00171160509545909,-0.00633633353854556,-0.0344855721758641,-0.051936599190573,0.52156938491557,-0.144963141214248,93.8521894775067,251.93830979081
0.42,-0.00464105132025594,-0.00464105132025594,-0.027848879358281,-0.0557772798034009,-0.00171160509545909,-0.00633633353854556,-0.0344855721758641,-0.051936599190573,0.52156938491557,-0.144963141214248,93.8521894775067,251.93830979081
0.43,-0.00464105132025594,-0.00464105132025594,-0.027848879358281,-0.0557772798034009,-0.00171160509545909,-0.00633633353854556,-0.0344855721758641,-0.051936599190573,0.52156938491557,-0.144963141214248,93.8521894775067,251.93830979081
0.44,-0.00464105132025594,-0.00464105132025594,-0.027848879358281,-0.0557772798034009,-0.00171160509545909,-0.00633633353854556,-0.0344855721758641,-0.051936599190573,0.52156938491557,-0.144963141214248,93.8521894775067,251.93830979081
0.45,-0.00464105132025594,-0.00464105132025594,-0.027848879358281,-0.0557772798034009,-0.00171160509545909,-0.00633633353854556,-0.0344855721758641,-0.051936599190573,0.52156938491557,-0.144963141214248,93.8521894775067,251.93830979081
0.46,-0.00464105132025594,-0.00464105132025594,-0.027848879358281,-0.0557772798034009,-0.00171160509545909,-0.00633633353854556,-0.0344855721758641,-0.051936599190573,0.52156938491557,-0.144963141214248,93.8521894775067,251.93830979081
0.47,-0.00464105132025594,-0.00464105132025594,-0.027848879358281,-0.0557772798034009,-0.00171160509545909,-0.00633633353854556,-0.0344855721758641,-0.051936599190573,0.52156938491557,-0.144963141214248,93.8521894775067,251.93830979081
0.48,-0.00464105132025594,-0.00464105132025594,-0.027848879358281,-0.0557772798034009,-0.00171160509545909,-0.00633633353854556,-0.0344855721758641,-0.051936599190573,0.52156938491557,-0.144963141214248,93.8521894775067,251.93830979081
0.49,-0.00464105132025594,-0.00464105132025594,-0.027848879358281,-0.0557772798034009,-0.00171160509545909,-0.00633633353854556,-0.0344855721758641,-0.051936599190573,0.52156938491557,-0.144963141214248,93.8521894775067,251.93830979081
0.5,-0.00464105132025594,-0.00464105132025594,-0.027848879358281,-0.0557772798034009,-0.00171160509545909,-0.00633633353854556,-0.0344855721758641,-0.051936599190573,0.52156938491557,-0.144963141214248,93.8521894775067,251.93830979081
0.51,-0.00464105132025594,-0.00464105132025594,-0.027848879358281,-0.0557772798034009,-0.00171160509545909,-0.00633633353854556,-0.0344855721758641,-0.051936599190573,0.52156938491557,-0.144963141214248,93.8521894775067,251.93830979081
0.52,-0.00464105132025594,-0.00464105132025594,-0.027848879358281,-0.0557772798034009,-0.00171160509545909,-0.00633633353854556,-0.0344855721758641,-0.051936599190573,0.52156938491557,-0.144963141214248,93.8521894775067,251.93830979081
0.53,-0.00464105132025594,-0.00464105132025594,-0.027848879358281,-0.0557772798034009,-0.00171160509545909,-0.00633633353854556,-0.0344855721758641,-0.051936599190573,0.52156938491557,-0.144963141214248,93.8521894775067,251.93830979081
0.54,-0.00464105132025594,-0.00464105132025594,-0.027848879358281,-0.0557772798034009,-0.00171160509545909,-0.00633633353854556,-0.0344855721758641,-0.051936599190573,0.52156938491557,-0.144963141214248,93.8521894775067,251.93830979081
0.55,-0.00464105132025594,-0.00464105132025594,-0.027848879358281,-0.0557772798034009,-0.00171160509545909,-0.00633633353854556,-0.0344855721758641,-0.051936599190573,0.52156938491557,-0.144963141214248,93.8521894775067,251.93830979081
0.56,-0.00464105132025594,-0.00464105132025594,-0.027848879358281,-0.0557772798034009,-0.00171160509545909,-0.00633633353854556,-0.0344855721758641,-0.051936599190573,0.52156938491557,-0.144963141214248,93.8521894775067,251.93830979081
0.57,-0.00464105132025594,-0.00464105132025594,-0.027848879358281,-0.0557772798034009,-0.00171160509545909,-0.00633633353854556,-0.0344855721758641,-0.051936599190573,0.52156938491557,-0.144963141214248,93.8521894775067,251.93830979081
0.58,-0.00464105132025594,-0.00464105132025594,-0.027848879358281,-0.0557772798034009,-0.00171160509545909,-0.00633633353854556,-0.0344855721758641,-0.051936599190573,0.52156938491557,-0.144963141214248,93.8521894775067,251.93830979081
0.59,-0.00464105132025594,-0.00464105132025594,-0.027848879358281,-0.0557772798034009,-0.00171160509545909,-0.00633633353854556,-0.0344855721758641,-0.051936599190573,0.52156938491557,-0.144963141214248,93.8521894775067,251.93830979081
0.6,-0.00464105132025594,-0.00464105132025594,-0.027848879358281,-0.0557772798034009,-0.00171160509545909,-0.00633633353854556,-0.0344855721758641,-0.051936599190573,0.52156938491557,-0.144963141214248,93.8521894775067,251.93830979081
0.61,-0.00464105132025594,-0.00464105132025594,-0.027848879358281,-0.0557772798034009,-0.00171160509545909,-0.00633633353854556,-0.0344855721758641,-0.051936599190573,0.52156938491557,-0.144963141214248,93.8521894775067,251.93830979081
0.62,0.308427695464421,0.0144917700818814,0.73325091972542,-0.171101780402389,-0.141106547757438,0.274639030200694,-0.513687813837607,0.550506639787189,0.52156938491557,-0.144963141214248,114.873713260515,251.93830979081
0.63,0.288594669806119,0.0149002173966153,1.20353310755539,-0.173205604196326,-0.130870772472651,0.257646542440183,-0.74982599717962,0.957211103289416,0.52156938491557,-0.144963141214248,124.981116643447,251.93830979081
0.64,0.337331151224994,0.0149002173966153,1.02792161021423,-0.173205604196326,-0.155153308506038,0.299902939173454,-0.662329066996793,0.804949206522733,0.52156938491557,-0.144963141214248,98.7646656337029,251.93830979081
0.65,0.357397446886211,0.0144918631065686,0.966816309970664,-0.171803374433733,-0.165505227923484,0.317097727313012,-0.630668085587558,0.75266721897093,0.52156938491557,-0.144963141214248,61.8458233363995,251.93830979081
0.66,0.347568440762615,-0.0144116856786916,1.02582058334758,-0.173205604196326,-0.185668493725438,0.294174655835583,-0.661282248287049,0.8031275357283,0.52156938491557,-0.144963141214248,25.8311024097639,251.93830979081
0.67,0.406425521345804,-0.0343612466690912,0.731150584254608,-0.0536742545931951,-0.232290565688684,0.335266301267953,-0.410827175486099,0.607192831268704,0.52156938491557,-0.144963141214248,-0.144963141214248,251.93830979081
0.68,0.338147673786444,0.0142003409153725,1.08237411062105,-0.287129152634278,-0.156166953630551,0.300262188034141,-0.788235642207953,0.795400174747405,0.52156938491557,-0.144963141214248,-0.144963141214248,251.93830979081
0.69,0.337564425666403,0.0147252615655589,1.08552525215793,-0.289933026637207,-0.155421228915081,0.300018026802038,-0.792236737783515,0.796735328897676,0.52156938491557,-0.144963141214248,-0.144963141214248,251.93830979081
0.7,0.395605072292004,-0.0142367431368894,0.795056269810075,-0.0564781285165016,-0.209450653636025,0.335911419528645,-0.445098704174777,0.661204502939121,0.52156938491557,-0.144963141214248,-0.144963141214248,251.93830979081
0.71,0.42445052393904,-0.0530860548564984,0.679848533855876,0.176976982560036,-0.257506495577658,0.341565193232078,-0.185282906561846,0.677631998859288,0.52156938491557,-0.144963141214248,-0.144963141214248,251.93830979081
0.72,0.356872419941865,0.0149002173966153,0.969267694126867,-0.0557772798034009,-0.164889578912537,0.316845967876625,-0.531290397231686,0.812601674641197,0.52156938491557,-0.144963141214248,-0.144963141214248,251.93830979081
0.73,0.405550689059968,-0.0338363526128474,0.73605196982803,0.178378679986052,-0.231399584708454,0.334769312141825,-0.212070463616686,0.727060915070184,0.52156938491557,-0.144963141214248,-0.144963141214248,251.93830979081
0.74,0.337447744148208,0.0149002173966153,1.14452952554796,-0.0557772798034009,-0.155211399935225,0.30000402970515,-0.618613109353286,0.964560397657694,0.52156938491557,-0.144963141214248,-0.144963141214248,251.93830979081
0.75,0.395313745025195,-0.0142368095831244,0.85545918023548,0.0609504620710175,-0.209305559922456,0.335658794519819,-0.373378851591923,0.772083933947421,0.52156938491557,-0.144963141214248,-0.144963141214248,251.93830979081
0.76,0.395313793752461,-0.0142368228723787,0.855458914313883,0.0609505153099649,-0.209305595722693,0.335658830146968,-0.373378672938549,0.77208372990906,0.52156938491557,-0.144963141214248,-0.144963141214248,251.93830979081
0.77,0.289410510225794,0.0144922351746869,1.43360072162396,-0.053675851601931,-0.131630994219061,0.258150633681992,-0.76081834759311,1.21624321911845,0.52156938491557,-0.144963141214248,-0.144963141214248,251.93830979081
0.78,0.445099522891835,0.0151333323758544,0.73290276945186,-0.0571781254598194,-0.444774833018395,0.0227585355591209,-0.733774980251369,-0.0446103783710479,1.5536590387871,-0.144963141214248,-0.144963141214248,251.93830979081
0.79,0.570660889526284,0.102136634841836,0.0950561603836745,-0.639417053821728,-0.570349822896873,0.103859628986673,-0.0969868381535321,-0.639127057454092,1.5677762099521,-0.144963141214248,-0.144963141214248,251.93830979081
0.8,0.328026675949014,-0.0532611435712081,1.37774631345364,0.177678736281827,-0.328186034599389,-0.0522702232882235,-1.37720342044521,0.181838874490126,1.5677762099521,-0.144963141214248,-0.144963141214248,251.93830979081
0.81,0.376588485025403,-0.0144116856786916,1.20318381389905,-0.173205604196326,-0.376630292483497,-0.0132742804560241,-1.20370142708711,-0.169571064106244,1.5677762099521,-0.144963141214248,-0.144963141214248,251.93830979081
0.82,0.356930680967683,-0.0533777010608012,1.4381492771292,0.0609508347169487,-0.357090259816617,-0.0522994869065711,-1.43795864001569,0.0652939289992431,1.5677762099521,-0.144963141214248,-0.144963141214248,251.93830979081
0.83,0.483249844044806,0.0341502031331572,0.854757614787286,-0.524090264107845,-0.483144502713137,0.0356095161640856,-0.856336528050566,-0.521506410023676,1.5677762099521,-0.144963141214248,-0.144963141214248,251.93830979081
0.84,0.483424649271023,0.0341502252819197,0.795404100938141,-0.524090370585766,-0.483319307075255,0.0356100662441525,-0.796983285207629,-0.521685770775466,1.5677762099521,-0.144963141214248,-0.177007625049465,251.93830979081
0.85,0.444691633694662,0.0147254741869295,0.910963443959572,-0.524790527219385,-0.444645133071493,0.0160684256818131,-0.912544215766594,-0.522036922028333,1.5677762099521,-0.144963137662288,-0.144963141214248,251.93830979081
