t,iq,id,vq,vd,ia,ib,va,vb,theta_e,omega,omega_obs,r
0,0,0,0,0,0,0,0,0,0,-0.144963141214248,0,0
0.01,0.0244949914876803,-0.00440657096376183,-0.144452909167188,-0.0571863303499699,0.00845561075422152,0.0234078004608142,-0.121851441833988,-0.0963802130560928,-0.524637440120955,-0.144963141214248,101.787014049217,-0.144963141214248
0.02,0.00507096707667212,0.0150174493196304,-0.0861509190411518,-0.173910079861877,0.0155377301057593,-0.0031332785259122,-0.193673078667211,0.0125473235697364,-0.524637440120955,-0.144963141214248,98.7809362789578,-0.144963141214248
0.03,-0.00464105132025594,-0.00493411048971375,-0.027848879358281,-0.0543684276877672,-0.00659519936102516,-0.00154536373397528,-0.0610056613753685,0.00312974294566356,-0.524637440120955,-0.144963141214248,101.787014049217,-0.144963141214248
0.04,-0.00464105132025594,0.0344414861134865,-0.027848879358281,-0.290633928589255,0.0274846001784749,-0.0212685701468649,-0.265494776549,0.121474952784238,-0.524637440120955,-0.144963141214248,101.787014049217,-0.144963141214248
0.05,-0.00464105132025594,0.0333866216976129,-0.027848879358281,-0.284999313850457,0.0265716091145781,-0.0207401893626561,-0.260617985913529,0.11865257854391,-0.524637440120955,-0.144963141214248,101.787014049217,-0.144963141214248
0.06,0.00507098358713606,0.0144900212393099,-0.0861510181548153,-0.17109277249248,0.0150812464163648,-0.00286907591142864,-0.191234732995437,0.011136050666142,-0.524637440120955,-0.144963141214248,101.787014049217,-0.144963141214248
0.07,-0.0142944950318361,0.0143728594857657,0.0301015317042564,-0.170388693688795,0.00527968873966145,-0.0195713199561257,-0.132394534972977,0.111400611565672,-0.524637440120955,-0.144963141214248,101.787014049217,-0.144963141214248
0.08,-0.0144116856786916,0.0143728966343099,0.0308050367290811,-0.170388892119733,0.00522102018599027,-0.0196727677254484,-0.132042321583798,0.112009598501337,-0.524637440120955,-0.144963141214248,101.787014049217,-0.144963141214248
0.09,-0.00469963838845162,-0.00428952891108187,-0.0274971764027009,-0.0571855366262289,-0.00606665661011257,-0.00191894159269967,-0.0632677172068614,0.00484523155108588,-0.524637440120955,-0.144963141214248,101.787014049217,-0.144963141214248
0.1,-0.0144116856786916,-0.0336600396926656,0.0308050367290811,0.0602428869821653,-0.0363517554042557,0.00438689357545812,0.0675707757982521,-0.00351368436947985,-0.524637440120955,-0.144963141214248,101.787014049217,-0.144963141214248
0.11,0.00489526778627133,0.0153102690874549,-0.0854478352491573,-0.175317691784647,0.0157031596148821,-0.00343202044561461,-0.194539200538228,0.0138609182744446,-0.524637440120955,-0.144963141214248,101.787014049217,-0.144963141214248
0.12,-0.00487535006170018,-0.00399672978128432,-0.0267939934970437,-0.0592971777452644,-0.0059012511658767,-0.00221768389225422,-0.0647431306469991,0.00651155972856805,-0.524637440120955,-0.144963141214248,101.787014049217,-0.144963141214248
0.13,-0.00464105132025594,-0.00440676908044221,-0.027848879358281,-0.0571851398177609,-0.00613878241583045,-0.00180950864509725,-0.0634435415100624,0.00454063191086191,-0.524637440120955,-0.144963141214248,101.787014049217,-0.144963141214248
0.14,-0.014353119246354,-0.120951600704084,0.0304534576522429,0.526437179365108,-0.111873754801304,0.0481618597194702,0.470888442936179,-0.237334344775485,-0.524637440120955,-0.144963141214248,101.819058533433,-0.144963141214248
0.15,-0.00464105132025594,-0.0054609235863553,-0.027848879358281,-0.0515542950531327,-0.00705115904867769,-0.00128148345424816,-0.0585700138083647,0.00172014604773025,-0.524637440120955,-0.144963141214248,101.787014049217,-0.144963141214248
0.16,-0.0338358380413536,0.0828847506659261,0.0891074232964372,-0.523379233823173,0.0547888706671214,-0.0708020160725307,-0.408353819531147,0.33928323471428,-0.524637440120955,-0.144963141214248,101.787014049217,-0.144963141214248
0.17,0.00501247493920047,-0.0336601841481165,-0.0857997859624617,0.0602435814370361,-0.0266223331402167,0.0211986858100343,0.00916410978689845,-0.104436159769396,-0.524637440120955,-0.144963141214248,101.787014049217,-0.144963141214248
0.18,-0.0045825013983825,-0.00452395147650906,-0.0282003593214546,-0.0564809617719108,-0.00621087682500361,-0.00170013678644372,-0.0630101275112601,0.00388370178488803,-0.524637440120955,-0.144963141214248,101.787014049217,-0.144963141214248
0.19,-0.0144116856786916,-0.0722743965039588,0.0308050367290811,0.292285899210722,-0.069772697637513,0.0237287955551276,0.268405303360642,-0.119743852840896,-0.524637440120955,-0.144963141214248,101.787014049217,-0.144963141214248
0.2,0.00489541637161302,0.014783134063332,-0.0854485042266138,-0.172502021443282,0.015246995723475,-0.00316785031121077,-0.19210255716773,0.0124499721366404,-0.524637440120955,-0.144963141214248,101.787014049217,-0.144963141214248
0.21,-0.0143531481396661,0.0147831423185643,0.030453631101155,-0.172502071051018,0.00560541153373192,-0.019827594908804,-0.134047308604035,0.112763944681578,-0.524637440120955,-0.144963141214248,101.787014049217,-0.144963141214248
0.22,-0.0434894551083617,0.0538656880075385,0.147058726355273,-0.407358769444608,0.0248372198476953,-0.0646216493165018,-0.278909693719164,0.331325849867079,-0.524637440120955,-0.144963141214248,101.787014049217,-0.144963141214248
0.23,-0.0142946271111041,-0.0728013746941321,0.0301023245868902,0.295100825515699,-0.0701701656670031,0.0240940733763777,0.270489649875817,-0.121762048585098,-0.524637440120955,-0.144963141214248,101.787014049217,-0.144963141214248
0.24,0.00501253272582456,-0.0339529543955646,-0.085800132860286,0.061651044589528,-0.0268756984849295,0.0213453842191212,0.0103821032726115,-0.105141457234811,-0.524637440120955,-0.144963141214248,101.787014049217,-0.144963141214248
0.25,-0.00469957234881761,0.0340318389135548,-0.0274975728440177,-0.288523924446132,0.0271007350923474,-0.0211140284539527,-0.263492586971668,0.120722111069544,-0.524637440120955,-0.144963141214248,101.787014049217,-0.144963141214248
0.26,-0.00469956822120172,-0.0528505372020322,-0.0274975976224331,0.175562943449248,-0.0480964462980211,0.0224052912837725,0.138177185742169,-0.111738669796733,-0.524637440120955,-0.144963141214248,101.787014049217,-0.144963141214248
0.27,-0.0144116856786916,-0.0339529543955646,0.0308050367290811,0.061651044589528,-0.036605274721247,0.00453361432752355,0.0687895440994044,-0.00421902944480088,-0.524637440120955,-0.144963141214248,101.787014049217,-0.144963141214248
0.28,-0.00446552538311394,-0.00569420694310796,-0.0285513437163154,-0.0508549785651666,-0.00716514629286334,-0.00101271331582068,-0.0583166153317933,0.000761872111571416,-0.524637440120955,-0.144963141214248,101.787014049217,-0.144963141214248
0.29,-0.0145286947148867,0.0153097490232983,0.0311562441296798,-0.175315013046637,0.00597326144192,-0.0202433083516808,-0.136129987334301,0.114781060703297,-0.524637440120955,-0.144963141214248,101.787014049217,-0.144963141214248
0.3,-0.00458255092977426,0.0340319833801148,-0.0282000619804643,-0.288524668562142,0.0271594760688267,-0.0210128181231175,-0.263845107282796,0.120114475512013,-0.524637440120955,-0.144963141214248,101.787014049217,-0.144963141214248
0.31,0.00512958303817967,-0.0339529543955646,-0.086502795445643,0.061651044589528,-0.0268170680724296,0.0214466919204697,0.0100301401176333,-0.10574961564049,-0.524637440120955,-0.144963141214248,101.787014049217,-0.144963141214248
0.32,0.00507109090291648,-0.033777477989775,-0.0861516623802104,0.0609480571291292,-0.0266944909258652,0.0213081706512848,0.00959758281639687,-0.105093582119803,-0.524637440120955,-0.144963141214248,103.92331297237,-0.144963141214248
0.33,-0.00464105132025594,0.0344414861134865,-0.027848879358281,-0.290633928589255,0.0274846001784749,-0.0212685701468649,-0.265494776549,0.121474952784238,-0.524637440120955,-0.144963141214248,103.92331297237,-0.144963141214248
0.34,-0.00464105132025594,-0.0529678681722784,-0.027848879358281,0.176267815896562,-0.0481686858391368,0.0225147089833216,0.138611300041247,-0.112395776181011,-0.524637440120955,-0.144963141214248,101.787014049217,-0.144963141214248
0.35,-0.00464105132025594,-0.00440713230176069,-0.027848879358281,-0.0571829571308827,-0.00613909678591726,-0.00180932670781488,-0.0634416523823365,0.00453953860466346,-0.524637440120955,-0.144963141214248,101.787014049217,-0.144963141214248
0.36,-0.00487495382828548,0.0348508155025382,-0.0267957774632073,-0.29274229575726,0.0277217154702693,-0.0216760468583481,-0.266792082210313,0.123442497888589,-0.524637440120955,-0.144963141214248,101.787014049217,-0.144963141214248
0.37,-0.0142947426799086,0.0534565113358343,0.0301030183558626,-0.405251295189108,0.0391066844123985,-0.0391485058048458,-0.335668688189721,0.229044396865705,-0.524637440120955,-0.144963141214248,101.787014049217,-0.144963141214248
0.38,-0.00458258394848034,0.0343245513699353,-0.0281998637664749,-0.289931238748719,0.0274126787646607,-0.0211593937847406,-0.265062402377125,0.120819197004787,-0.524637440120955,-0.144963141214248,101.787014049217,-0.144963141214248
0.39,0.00501265654986025,0.0146079011758167,-0.0858008761860858,-0.171800323730719,0.0151540561934236,-0.00297860425968999,-0.191671736711557,0.0117935123799298,-0.524637440120955,-0.144963141214248,101.787014049217,-0.144963141214248
0.4,0.00507112392163585,-0.0340698726286522,-0.0861518605942797,0.0623536352145988,-0.0269475435854795,0.0214546594815637,0.0108140192416173,-0.105797806669956,-0.524637440120955,-0.144963141214248,103.92331297237,-0.144963141214248
0.41,-0.00464105132025594,-0.00493332626489561,-0.027848879358281,-0.0543721977687246,-0.00659452061004989,-0.00154575655159068,-0.0610089244015664,0.00313163137634985,-0.524637440120955,-0.144963141214248,103.92331297237,-0.144963141214248
0.42,0.0342076826682405,-0.0335437983663841,-0.202757971736775,0.0595435703607313,-0.0118977432308763,0.0464090041736279,-0.0500260200883744,-0.205313490029837,-0.524637440120955,-0.144963141214248,103.92331297237,-0.144963141214248
0.43,-0.0142947922113003,0.0149002173966153,0.0301033156968529,-0.173205604196326,0.00573597111009665,-0.0198357303433674,-0.134831693204005,0.112813143953618,-0.524637440120955,-0.144963141214248,101.787014049217,-0.144963141214248
0.44,-0.0143532430726118,0.0150171026087747,0.0304542009913823,-0.17390799639046,0.00580785792429257,-0.019944867605356,-0.13526385940721,0.11346866485878,-0.524637440120955,-0.144963141214248,101.787014049217,-0.144963141214248
0.45,-0.00464105132025594,0.033915539807312,-0.027848879358281,-0.287824558243652,0.0270293907028295,-0.021005124041824,-0.263063250769843,0.120067741313261,-0.524637440120955,-0.144963141214248,101.787014049217,-0.144963141214248
0.46,-0.0434898513506084,0.0538658861286619,0.147060510361201,-0.407359960003516,0.0248371928451977,-0.0646220915051072,-0.278909830547358,0.33132799028426,-0.524637440120955,-0.144963141214248,101.787014049217,-0.144963141214248
0.47,0.00512958303817967,0.014608066280455,-0.086502795445643,-0.171801117454455,0.0152127674815479,-0.00287748642952614,-0.192024014507549,0.0111863949025126,-0.524637440120955,-0.144963141214248,101.787014049217,-0.144963141214248
0.48,-0.00493318179833404,-0.0524425533913546,-0.026445932862144,0.173461818876888,-0.0478603508865839,0.0219987386427851,0.136885428728256,-0.109775996351247,-0.524637440120955,-0.144963141214248,103.891268488321,-0.144963141214248
0.49,0.00507116107017995,0.0150170613326147,-0.0861520836000241,-0.17390774835179,0.0155374914720234,-0.00313291628104268,-0.193671644058818,0.0125451477858749,-0.524637440120955,-0.144963141214248,103.92331297237,-0.144963141214248
0.5,0.00489591167664431,0.0147833817158476,-0.0854507342440322,-0.172503509648595,0.015247458166029,-0.00316754567088714,-0.1921049622318,0.0124487874849774,-0.524637440120955,-0.144963141214248,103.92331297237,-0.144963141214248
0.51,0.00489592818710787,0.0147833899710794,-0.0854508085792781,-0.172503559256328,0.015247473581057,-0.00316753551602772,-0.192105042402039,0.012448747995881,-0.524637440120955,-0.144963141214248,103.92331297237,-0.144963141214248
0.52,0.00489594469751831,0.0153090844927727,-0.0854508829142849,-0.175311590193601,0.0157024734058748,-0.00343084121256061,-0.194535446150127,0.0138552242208781,-0.524637440120955,-0.144963141214248,101.787014049217,-0.144963141214248
0.53,-0.0339529543955646,0.0827690087877196,0.0894589528164431,-0.52268279447634,0.0546300319300462,-0.0708454059146464,-0.407574966503882,0.339238639544452,-0.524637440120955,-0.144963141214248,101.787014049217,-0.144963141214248
0.54,-0.00493305798096527,0.0349670981027633,-0.0264465274907662,-0.292739617019755,0.0277932543865489,-0.021784582194213,-0.266614824702226,0.123743433919518,-0.524637440120955,-0.144963141214248,101.787014049217,-0.144963141214248
0.55,-0.00469944852478191,-0.00481624293383387,-0.0274983161698176,-0.0550754332676336,-0.00652243544619059,-0.00165494661093831,-0.0614419818324644,0.00378729590762748,-0.524637440120955,-0.144963141214248,101.787014049217,-0.144963141214248
0.56,0.00512958303817967,0.0149002173966153,-0.086502795445643,-0.173205604196326,0.0154656259099373,-0.00302382470157448,-0.193239605654045,0.0118899012440985,-0.524637440120955,-0.144963141214248,101.787014049217,-0.144963141214248
0.57,-0.033777787547682,-0.00440749552307916,0.0887579255531776,-0.0571807744440044,-0.0207339801882543,-0.0270271532713932,-0.00503150329622492,0.10546228846891,-0.524637440120955,-0.144963141214248,101.787014049217,-0.144963141214248
0.58,-0.00458266649857872,-0.00481620578528761,-0.0281993682114919,-0.0550755820908448,-0.00646390726574535,-0.00155388972043643,-0.0617932670746593,0.00318060598196519,-0.524637440120955,-0.144963141214248,101.787014049217,-0.144963141214248
0.59,0.00524634442630233,0.014491552538186,-0.0868532595204386,-0.171100659881856,0.0151704098751874,-0.00271806714876851,-0.19159331174148,0.0105322076158472,-0.524637440120955,-0.144963141214248,101.787014049217,-0.144963141214248
0.6,0.00507120647173423,0.0150169705295062,-0.0861523561492627,-0.173907202693417,0.015537435623028,-0.00313283150253492,-0.193671308308145,0.0125446385731172,-0.524637440120955,-0.144963141214248,101.787014049217,-0.144963141214248
0.61,-0.00469942375908549,0.0343247412358274,-0.027498464840316,-0.289932379699897,0.0273543181223211,-0.0212606143993258,-0.264712059687718,0.121426833207927,-0.524637440120955,-0.144963141214248,101.787014049217,-0.144963141214248
0.62,-0.0336027445282826,0.0827693431047417,0.0880573938582446,-0.522684580248608,0.0548057411396628,-0.0705424647709147,-0.408278551916758,0.338026476903105,-0.524637440120955,-0.144963141214248,101.787014049217,-0.144963141214248
0.63,-0.00464105132025594,-0.00464105132025594,-0.027848879358281,-0.0557772798034009,-0.0063415550074175,-0.00169215684923025,-0.0622250307773217,0.00383543589964971,-0.524637440120955,-0.144963141214248,101.787014049217,-0.144963141214248
0.64,-0.0143533256227097,-0.0723935312135063,0.0304546965463621,0.293000693044587,-0.0698465768886261,0.0238389809961266,0.26884847629863,-0.120405113920647,-0.524637440120955,-0.144963141214248,103.891268488146,-0.144963141214248
0.65,-0.0531440875422398,0.121443500485551,0.263318808652704,-0.755437772951977,0.0784901972368159,-0.106827462707897,-0.521939435189305,0.606302110986917,-0.524637440120955,-0.144963141214248,103.92331297237,-0.144963141214248
0.66,0.00507123123742957,-0.159804165040226,-0.0861525048197546,0.643182259748614,-0.135771224587623,0.0844349638742409,0.513524126321542,-0.396734980847099,-0.524637440120955,-0.144963141214248,103.92331297237,-0.144963141214248
0.67,0.00507123536504546,0.014258392992139,-0.0861525295981699,-0.169699347981518,0.0148808969856478,-0.00275283558326766,-0.190029473352618,0.0104367772249167,-0.524637440120955,-0.144963141214248,101.787014049217,-0.144963141214248
0.68,-0.00481608195681091,0.0339163942038216,-0.0271483972201655,-0.287829122048339,0.0269424574749708,-0.0211570420052789,-0.262716329797765,0.120676298535932,-0.524637440120955,-0.144963141214248,101.787014049217,-0.144963141214248
0.69,-0.0143533462607891,0.0538660759945529,0.0304548204384387,-0.407361100954688,0.0394318104307891,-0.039404378158821,-0.337318519508387,0.230405683644356,-0.524637440120955,-0.144963141214248,101.787014049217,-0.144963141214248
0.7,-0.014353350388405,0.0536327430886385,0.030454845216854,-0.289231723749728,0.0392298574254928,-0.0392875054560574,-0.235076869073213,0.171234789827175,-0.524637440120955,-0.144963141214248,101.787014049217,-0.144963141214248
0.71,-0.00469938248292551,0.0345581484388257,-0.0274987126244757,-0.291334981401273,0.0275563540398374,-0.0213774921651692,-0.265926143435997,0.122129180875582,-0.524637440120955,-0.144963141214248,101.787014049217,-0.144963141214248
0.72,-0.0145283397488254,-0.0337779732903637,0.0311551786845507,0.0609500413850835,-0.0365122595290913,0.00434500167342963,0.0683582077365899,-0.00356484764764094,-0.524637440120955,-0.144963141214248,101.787014049217,-0.144963141214248
0.73,-0.00469937422770699,-0.00452440550535384,-0.0274987621812267,-0.0564782334001125,-0.00626981130089805,-0.00180106345253128,-0.0626563366158549,0.00448957140247669,-0.524637440120955,-0.144963141214248,101.787014049217,-0.144963141214248
0.74,-0.0337196792673906,0.0828864264313602,0.0884086755807561,-0.52338786532855,0.0548485048930932,-0.0707023193922895,-0.408711292347159,0.33868278816473,-0.524637440120955,-0.144963141214248,101.787014049217,-0.144963141214248
0.75,-0.0141784270609812,0.0139671829257738,0.02975483382864,-0.168299623341817,0.0049867117617745,-0.0192676593962674,-0.130760093581935,0.11005412886217,-0.524637440120955,-0.144963141214248,101.787014049217,-0.144963141214248
0.76,-0.00469936184706764,0.0343248650598631,-0.0274988365032159,-0.289933123789201,0.0273544563044007,-0.0212606228374928,-0.264712889866844,0.12142688424537,-0.524637440120955,-0.144963141214248,101.787014049217,-0.144963141214248
0.77,0.00501297023978805,0.0151334429933985,-0.0858027592923435,-0.174607114580969,0.0156090727089715,-0.0032415762563117,-0.194101973169523,0.013197801944625,-0.524637440120955,-0.144963141214248,101.787014049217,-0.144963141214248
0.78,0.0246708517550509,-0.00516577176447525,-0.145156711533001,-0.0529744574650454,0.00788660648055562,0.0239402916119083,-0.118558576316905,-0.0990990818751594,-0.524637440120955,-0.144963141214248,98.7351584447133,-0.144963141214248
0.79,0.00512958303817967,-0.0339529543955646,-0.086502795445643,0.061651044589528,-0.0268170680724296,0.0214466919204697,0.0100301401176333,-0.10574961564049,-0.524637440120955,-0.144963141214248,98.7351584447133,-0.144963141214248
0.8,0.034208310048094,-0.0335448962811276,-0.202760796396152,0.0595492254821576,-0.0118983792281483,0.0464100971190677,-0.050022540418821,-0.205318767434383,-0.524637440120955,-0.144963141214248,101.787014049217,-0.144963141214248
0.81,-0.00464105132025594,0.0344414861134865,-0.027848879358281,-0.290633928589255,0.0274846001784749,-0.0212685701468649,-0.265494776549,0.121474952784238,-0.524637440120955,-0.144963141214248,101.787014049217,-0.144963141214248
0.82,-0.0145865429620407,0.0154247892466626,0.0315048250982274,-0.176007632810958,0.00604385325694705,-0.0203509998942535,-0.136554849679866,0.115429692198741,-0.524637440120955,-0.144963141214248,101.787014049217,-0.144963141214248
0.83,-0.0143534040451911,0.014492245962112,0.0304551673229233,-0.17110423155855,0.00535351092401895,-0.0196821066326059,-0.132836701196836,0.112065097550717,-0.524637440120955,-0.144963141214248,98.7809362787911,-0.144963141214248
0.84,-0.00464105132025594,-0.0920522629932267,-0.027848879358281,0.411134386015593,-0.0819964486040655,0.042092052644796,0.341889632782393,-0.230040262653847,-0.524637440120955,-0.144963141214248,98.7351584447133,-0.144963141214248
0.85,-0.00440795780718551,-0.00504896496812921,-0.028898338906243,-0.0536762048120603,-0.00657785019224772,-0.00128608947109843,-0.06093221208688,0.00187469591288707,-0.524637440120955,-0.144963141214248,98.7351584447133,-0.144963141214248
