t,iq,id,vq,vd,ia,ib,va,vb,theta_e,omega,omega_obs,r
0,0,0,0,0,0,0,0,0,0,-0.144963141214248,0,0
0.01,0.0244363722966636,0.00501234330898601,-0.144101012027837,-0.0557772798034009,0.0244361319850543,-0.00501351474290156,-0.144098337990796,0.055784187705871,-1.57084426515748,-0.144963141214248,-10.2160866360773,-0.144963141214248
0.02,-0.00458243583098179,0.00524681401672797,-0.0282007529279164,-0.0564817497934166,-0.00458268734938903,-0.00524659433622885,-0.0281980452529126,0.0564831016264351,-1.57084426515748,-0.144963141214248,-7.16423103157285,-0.144963141214248
0.03,-0.00499271799729986,0.00471930524829511,-0.0260896428705424,-0.0543684450196613,-0.00499294422732906,-0.00471906590014688,-0.0260870365063348,0.0543696956519487,-1.57084426515748,-0.144963141214248,-7.13552053874252,-0.144963141214248
0.04,0.00542261672021562,-0.0138842250510268,-0.0882619005729439,-0.0578903741845735,0.00542328230099924,0.0138839650837069,-0.0882591253017805,0.0578946052490454,-1.57084426515748,-0.144963141214248,-7.16423103157285,-0.144963141214248
0.05,0.0244950446751297,0.00483657123831102,-0.144453122026256,-0.0550729676078222,0.0244948127896783,-0.00483774548508629,-0.144450481752384,0.0550798923906784,-1.57084426515748,-0.144963141214248,-5.02793210842083,-0.144963141214248
0.06,-0.00510983519746388,0.00460220117632074,-0.0840404160299725,-0.170388565753197,-0.00511005581358105,-0.00460195621390026,-0.0840322477845643,0.170392594317347,-1.57084426515748,-0.144963141214248,-2.31388685102208,-0.144963141214248
0.07,0.0246708517550509,0.00512958303817967,-0.145156711533001,-0.0557772798034009,0.0246706058228915,-0.0051307657125218,-0.145154037494748,0.0557842383143767,-1.57084426515748,-0.144963141214248,-2.28126206436718,-0.144963141214248
0.08,-0.0144116856786916,-0.0144116856786916,0.0308050367290811,-0.0557772798034009,-0.0144109947895187,0.0144123765347452,0.0308077105651469,0.0557758029962908,-1.57084426515748,-0.144963141214248,-2.28126206436718,-0.144963141214248
0.09,0.0437434416291178,0.04397778105052,-0.260354405677586,-0.28992982677291,0.0437413333560419,-0.0439798779889523,-0.260340506617273,0.289942307403663,-1.57084426515748,-0.144963141214248,-2.28126206436718,-0.144963141214248
0.1,0.00524674399823555,0.024553690794995,-0.086854458851914,-0.172501554964776,0.00524556692847516,-0.0245539422870979,-0.0868461893100294,0.172505718427103,-1.57084426515748,-0.144963141214248,-2.28126206436718,-0.144963141214248
0.11,0.0246708517550509,0.00512958303817967,-0.145156711533001,-0.0557772798034009,0.0246706058228915,-0.0051307657125218,-0.145154037494748,0.0557842383143767,-1.57084426515748,-0.144963141214248,-2.28126206436718,-0.144963141214248
0.12,-0.0529670775679879,-0.043313586663874,0.203953898094406,0.0602431565190131,-0.0529650011247049,0.0433161257690733,0.203951009901775,-0.0602529336657047,-1.57084426515748,-0.144963141214248,-0.144963141214248,-0.144963141214248
0.13,0.00536385244108962,0.0247879864565059,-0.0875575492156671,-0.173909495633439,0.0053626641394443,-0.0247882435623265,-0.0875492121786044,0.173913692799149,-1.57084426515748,-0.144963141214248,-0.144963141214248,-0.144963141214248
0.14,0.0050124570873699,0.0244365998534314,-0.0857996787964648,-0.172501765344008,0.00501128563102672,-0.0244368401143378,-0.0857914092457069,0.172505878241906,-1.57084426515748,-0.144963141214248,-0.144963141214248,-0.144963141214248
0.15,-0.0141188926838354,-0.0141774512828067,0.0290473764665793,-0.0564810660575708,-0.0141182130238124,0.0141781281031127,0.0290500840430253,0.056479673509007,-1.57084426515748,-0.144963141214248,-0.144963141214248,-0.144963141214248
0.16,-0.0140603603434646,-0.0140603603434646,0.0290475078270148,-0.0571847471154513,-0.0140596862966567,0.0140610343579606,0.0290502491367784,0.0571833545597817,-1.57084426515748,-0.144963141214248,-0.144963141214248,-0.144963141214248
0.17,-0.0434893893695824,-0.0142945859864827,0.147058430378827,-0.0557772798034009,-0.0434887040605655,0.0142966707801729,0.147061104081312,0.0557702299989565,-1.57084426515748,-0.144963141214248,-0.144963141214248,-0.144963141214248
0.18,-0.00481668773260064,-0.0434308614000923,-0.0271459728724698,0.0609474161164454,-0.00481460572268571,0.0434310922543113,-0.0271488945606091,-0.0609461147129244,-1.57084426515748,-0.144963141214248,-0.144963141214248,-0.144963141214248
0.19,-0.0532015176406949,-0.0434308832822593,0.205361077107893,0.0602438928396524,-0.0531994355741347,0.0434334336259971,0.205358188878347,-0.0602537374442008,-1.57084426515748,-0.144963141214248,-0.144963141214248,-0.144963141214248
0.2,-0.00464105132025594,-0.00464105132025594,-0.027848879358281,-0.0557772798034009,-0.00464082883052229,0.00464127379932405,-0.0278462054548192,0.0557786147689861,-1.57084426515748,-0.144963141214248,-0.144963141214248,159.772270534791
0.21,-0.00464105132025594,-0.00464105132025594,-0.027848879358281,-0.0557772798034009,-0.00464082883052229,0.00464127379932405,-0.0278462054548192,0.0557786147689861,-1.57084426515748,-0.144963141214248,-0.144963141214248,159.772270534791
0.22,-0.00464105132025594,-0.00464105132025594,-0.027848879358281,-0.0557772798034009,-0.00464082883052229,0.00464127379932405,-0.0278462054548192,0.0557786147689861,-1.57084426515748,-0.144963141214248,-0.144963141214248,159.772270534791
0.23,-0.00464105132025594,-0.00464105132025594,-0.027848879358281,-0.0557772798034009,-0.00464082883052229,0.00464127379932405,-0.0278462054548192,0.0557786147689861,-1.57084426515748,-0.144963141214248,-0.144963141214248,159.772270534791
0.24,-0.00464105132025594,-0.00464105132025594,-0.027848879358281,-0.0557772798034009,-0.00464082883052229,0.00464127379932405,-0.0278462054548192,0.0557786147689861,-1.57084426515748,-0.144963141214248,-0.144963141214248,159.772270534791
0.25,-0.00464105132025594,-0.00464105132025594,-0.027848879358281,-0.0557772798034009,-0.00464082883052229,0.00464127379932405,-0.0278462054548192,0.0557786147689861,-1.57084426515748,-0.144963141214248,-0.144963141214248,159.772270534791
0.26,-0.00464105132025594,-0.00464105132025594,-0.027848879358281,-0.0557772798034009,-0.00464082883052229,0.00464127379932405,-0.0278462054548192,0.0557786147689861,-1.57084426515748,-0.144963141214248,-0.144963141214248,159.772270534791
0.27,-0.00464105132025594,-0.00464105132025594,-0.027848879358281,-0.0557772798034009,-0.00464082883052229,0.00464127379932405,-0.0278462054548192,0.0557786147689861,-1.57084426515748,-0.144963141214248,-0.144963141214248,159.772270534791
0.28,-0.00464105132025594,-0.00464105132025594,-0.027848879358281,-0.0557772798034009,-0.00464082883052229,0.00464127379932405,-0.0278462054548192,0.0557786147689861,-1.57084426515748,-0.144963141214248,-0.144963141214248,159.772270534791
0.29,-0.00464105132025594,-0.00464105132025594,-0.027848879358281,-0.0557772798034009,-0.00464082883052229,0.00464127379932405,-0.0278462054548192,0.0557786147689861,-1.57084426515748,-0.144963141214248,-0.144963141214248,159.772270534791
0.3,-0.00464105132025594,-0.00464105132025594,-0.027848879358281,-0.0557772798034009,-0.00464082883052229,0.00464127379932405,-0.0278462054548192,0.0557786147689861,-1.57084426515748,-0.144963141214248,-0.144963141214248,159.772270534791
0.31,-0.00464105132025594,-0.00464105132025594,-0.027848879358281,-0.0557772798034009,-0.00464082883052229,0.00464127379932405,-0.0278462054548192,0.0557786147689861,-1.57084426515748,-0.144963141214248,-0.144963141214248,159.772270534791
0.32,-0.00464105132025594,-0.00464105132025594,-0.027848879358281,-0.0557772798034009,-0.00464082883052229,0.00464127379932405,-0.0278462054548192,0.0557786147689861,-1.57084426515748,-0.144963141214248,-0.144963141214248,159.772270534791
0.33,-0.00464105132025594,-0.00464105132025594,-0.027848879358281,-0.0557772798034009,-0.00464082883052229,0.00464127379932405,-0.0278462054548192,0.0557786147689861,-1.57084426515748,-0.144963141214248,-0.144963141214248,159.772270534791
0.34,-0.00464105132025594,-0.00464105132025594,-0.027848879358281,-0.0557772798034009,-0.00464082883052229,0.00464127379932405,-0.0278462054548192,0.0557786147689861,-1.57084426515748,-0.144963141214248,-0.144963141214248,159.772270534791
0.35,-0.00464105132025594,-0.00464105132025594,-0.027848879358281,-0.0557772798034009,-0.00464082883052229,0.00464127379932405,-0.0278462054548192,0.0557786147689861,-1.57084426515748,-0.144963141214248,-0.144963141214248,159.772270534791
0.36,-0.00464105132025594,-0.00464105132025594,-0.027848879358281,-0.0557772798034009,-0.00464082883052229,0.00464127379932405,-0.0278462054548192,0.0557786147689861,-1.57084426515748,-0.144963141214248,-0.144963141214248,159.772270534791
0.37,-0.00464105132025594,-0.00464105132025594,-0.027848879358281,-0.0557772798034009,-0.00464082883052229,0.00464127379932405,-0.0278462054548192,0.0557786147689861,-1.57084426515748,-0.144963141214248,-0.144963141214248,159.772270534791
0.38,-0.00464105132025594,-0.00464105132025594,-0.027848879358281,-0.0557772798034009,-0.00464082883052229,0.00464127379932405,-0.0278462054548192,0.0557786147689861,-1.57084426515748,-0.144963141214248,-0.144963141214248,159.772270534791
0.39,-0.00464105132025594,-0.00464105132025594,-0.027848879358281,-0.0557772798034009,-0.00464082883052229,0.00464127379932405,-0.0278462054548192,0.0557786147689861,-1.57084426515748,-0.144963141214248,-0.144963141214248,159.772270534791
0.4,-0.00464105132025594,-0.00464105132025594,-0.027848879358281,-0.0557772798034009,-0.00464082883052229,0.00464127379932405,-0.0278462054548192,0.0557786147689861,-1.57084426515748,-0.144963141214248,-0.144963141214248,159.772270534791
0.41,-0.00464105132025594,-0.00464105132025594,-0.027848879358281,-0.0557772798034009,-0.00464082883052229,0.00464127379932405,-0.0278462054548192,0.0557786147689861,-1.57084426515748,-0.144963141214248,-0.144963141214248,159.772270534791
0.42,-0.00464105132025594,-0.00464105132025594,-0.027848879358281,-0.0557772798034009,-0.00464082883052229,0.00464127379932405,-0.0278462054548192,0.0557786147689861,-1.57084426515748,-0.144963141214248,-0.144963141214248,159.772270534791
0.43,-0.00464105132025594,-0.00464105132025594,-0.027848879358281,-0.0557772798034009,-0.00464082883052229,0.00464127379932405,-0.0278462054548192,0.0557786147689861,-1.57084426515748,-0.144963141214248,-0.144963141214248,159.772270534791
0.44,-0.00464105132025594,-0.00464105132025594,-0.027848879358281,-0.0557772798034009,-0.00464082883052229,0.00464127379932405,-0.0278462054548192,0.0557786147689861,-1.57084426515748,-0.144963141214248,-0.144963141214248,159.772270534791
0.45,-0.00464105132025594,-0.00464105132025594,-0.027848879358281,-0.0557772798034009,-0.00464082883052229,0.00464127379932405,-0.0278462054548192,0.0557786147689861,-1.57084426515748,-0.144963141214248,-0.144963141214248,159.772270534791
0.46,-0.00464105132025594,-0.00464105132025594,-0.027848879358281,-0.0557772798034009,-0.00464082883052229,0.00464127379932405,-0.0278462054548192,0.0557786147689861,-1.57084426515748,-0.144963141214248,-0.144963141214248,159.772270534791
0.47,-0.00464105132025594,-0.00464105132025594,-0.027848879358281,-0.0557772798034009,-0.00464082883052229,0.00464127379932405,-0.0278462054548192,0.0557786147689861,-1.57084426515748,-0.144963141214248,-0.144963141214248,159.772270534791
0.48,-0.00464105132025594,-0.00464105132025594,-0.027848879358281,-0.0557772798034009,-0.00464082883052229,0.00464127379932405,-0.0278462054548192,0.0557786147689861,-1.57084426515748,-0.144963141214248,-0.144963141214248,159.772270534791
0.49,-0.00464105132025594,-0.00464105132025594,-0.027848879358281,-0.0557772798034009,-0.00464082883052229,0.00464127379932405,-0.0278462054548192,0.0557786147689861,-1.57084426515748,-0.144963141214248,-0.144963141214248,159.772270534791
0.5,-0.00464105132025594,-0.00464105132025594,-0.027848879358281,-0.0557772798034009,-0.00464082883052229,0.00464127379932405,-0.0278462054548192,0.0557786147689861,-1.57084426515748,-0.144963141214248,-0.144963141214248,159.772270534791
0.51,-0.00464105132025594,-0.00464105132025594,-0.027848879358281,-0.0557772798034009,-0.00464082883052229,0.00464127379932405,-0.0278462054548192,0.0557786147689861,-1.57084426515748,-0.144963141214248,-0.144963141214248,159.772270534791
0.52,-0.00464105132025594,-0.00464105132025594,-0.027848879358281,-0.0557772798034009,-0.00464082883052229,0.00464127379932405,-0.0278462054548192,0.0557786147689861,-1.57084426515748,-0.144963141214248,-0.144963141214248,159.772270534791
0.53,-0.00464105132025594,-0.00464105132025594,-0.027848879358281,-0.0557772798034009,-0.00464082883052229,0.00464127379932405,-0.0278462054548192,0.0557786147689861,-1.57084426515748,-0.144963141214248,-0.144963141214248,159.772270534791
0.54,-0.00464105132025594,-0.00464105132025594,-0.027848879358281,-0.0557772798034009,-0.00464082883052229,0.00464127379932405,-0.0278462054548192,0.0557786147689861,-1.57084426515748,-0.144963141214248,-0.144963141214248,159.772270534791
0.55,-0.00464105132025594,-0.00464105132025594,-0.027848879358281,-0.0557772798034009,-0.00464082883052229,0.00464127379932405,-0.0278462054548192,0.0557786147689861,-1.57084426515748,-0.144963141214248,-0.144963141214248,159.772270534791
0.56,-0.00464105132025594,-0.00464105132025594,-0.027848879358281,-0.0557772798034009,-0.00464082883052229,0.00464127379932405,-0.0278462054548192,0.0557786147689861,-1.57084426515748,-0.144963141214248,-0.144963141214248,159.772270534791
0.57,-0.00464105132025594,-0.00464105132025594,-0.027848879358281,-0.0557772798034009,-0.00464082883052229,0.00464127379932405,-0.0278462054548192,0.0557786147689861,-1.57084426515748,-0.144963141214248,-0.144963141214248,159.772270534791
0.58,-0.00464105132025594,-0.00464105132025594,-0.027848879358281,-0.0557772798034009,-0.00464082883052229,0.00464127379932405,-0.0278462054548192,0.0557786147689861,-1.57084426515748,-0.144963141214248,-0.144963141214248,159.772270534791
0.59,-0.00464105132025594,-0.00464105132025594,-0.027848879358281,-0.0557772798034009,-0.00464082883052229,0.00464127379932405,-0.0278462054548192,0.0557786147689861,-1.57084426515748,-0.144963141214248,-0.144963141214248,159.772270534791
0.6,-0.00464105132025594,-0.00464105132025594,-0.027848879358281,-0.0557772798034009,-0.00464082883052229,0.00464127379932405,-0.0278462054548192,0.0557786147689861,-1.57084426515748,-0.144963141214248,-0.144963141214248,159.772270534791
0.61,-0.00464105132025594,-0.00464105132025594,-0.027848879358281,-0.0557772798034009,-0.00464082883052229,0.00464127379932405,-0.0278462054548192,0.0557786147689861,-1.57084426515748,-0.144963141214248,-0.144963141214248,159.772270534791
0.62,-0.00464105132025594,-0.00464105132025594,-0.027848879358281,-0.0557772798034009,-0.00464082883052229,0.00464127379932405,-0.0278462054548192,0.0557786147689861,-1.57084426515748,-0.144963141214248,-0.144963141214248,159.772270534791
0.63,-0.00464105132025594,-0.00464105132025594,-0.027848879358281,-0.0557772798034009,-0.00464082883052229,0.00464127379932405,-0.0278462054548192,0.0557786147689861,-1.57084426515748,-0.144963141214248,-0.144963141214248,159.772270534791
0.64,-0.00464105132025594,-0.00464105132025594,-0.027848879358281,-0.0557772798034009,-0.00464082883052229,0.00464127379932405,-0.0278462054548192,0.0557786147689861,-1.57084426515748,-0.144963141214248,-0.144963141214248,159.772270534791
0.65,-0.00464105132025594,-0.00464105132025594,-0.027848879358281,-0.0557772798034009,-0.00464082883052229,0.00464127379932405,-0.0278462054548192,0.0557786147689861,-1.57084426515748,-0.144963141214248,-0.144963141214248,159.772270534791
0.66,-0.00464105132025594,-0.00464105132025594,-0.027848879358281,-0.0557772798034009,-0.00464082883052229,0.00464127379932405,-0.0278462054548192,0.0557786147689861,-1.57084426515748,-0.144963141214248,-0.144963141214248,159.772270534791
0.67,-0.00464105132025594,-0.00464105132025594,-0.027848879358281,-0.0557772798034009,-0.00464082883052229,0.00464127379932405,-0.0278462054548192,0.0557786147689861,-1.57084426515748,-0.144963141214248,-0.144963141214248,159.772270534791
0.68,-0.00464105132025594,-0.00464105132025594,-0.027848879358281,-0.0557772798034009,-0.00464082883052229,0.00464127379932405,-0.0278462054548192,0.0557786147689861,-1.57084426515748,-0.144963141214248,-0.144963141214248,159.772270534791
0.69,-0.00464105132025594,-0.00464105132025594,-0.027848879358281,-0.0557772798034009,-0.00464082883052229,0.00464127379932405,-0.0278462054548192,0.0557786147689861,-1.57084426515748,-0.144963141214248,-0.144963141214248,159.772270534791
0.7,-0.00464105132025594,-0.00464105132025594,-0.027848879358281,-0.0557772798034009,-0.00464082883052229,0.00464127379932405,-0.0278462054548192,0.0557786147689861,-1.57084426515748,-0.144963141214248,-0.144963141214248,159.772270534791
0.71,-0.00464105132025594,-0.00464105132025594,-0.027848879358281,-0.0557772798034009,-0.00464082883052229,0.00464127379932405,-0.0278462054548192,0.0557786147689861,-1.57084426515748,-0.144963141214248,-0.144963141214248,159.772270534791
0.72,0.219558756503441,0.00501296472255221,0.385528810348117,-0.0557772798034009,0.219558515937838,-0.00502349000406585,0.38553148377659,0.0557587981194203,-1.57084426515748,-0.144963141214248,4.73800582599233,159.772270534791
0.73,0.182167097139845,-0.0137703330712891,0.787705811921749,-0.0585802228512559,0.182167757057747,0.0137616002631161,0.787708619256603,0.0585424614571376,-1.57084426515748,-0.144963141214248,14.7890017355465,159.772270534791
0.74,0.181001001490023,-0.0144116856786916,0.851959861952142,-0.0557772798034009,0.181001692154658,0.0144030087704977,0.851962534844666,0.0557364381785566,-1.57084426515748,-0.144963141214248,27.932108420222,159.772270534791
0.75,0.200367382118021,0.00512958303817967,0.794005857519311,-0.173205604196326,0.200367135983978,-0.00513918831649589,0.794014159800016,0.173167540656628,-1.57084426515748,-0.144963141214248,48.9642063674618,159.772270534791
0.76,0.220025247270574,0.00501299973179777,0.735001959332597,-0.172505026228797,0.220025006702757,-0.0050235473761149,0.735010228096539,0.172469791240168,-1.57084426515748,-0.144963141214248,74.9038672350192,159.772270534791
0.77,0.346344050971141,0.0439789713604487,0.0933078890037944,-0.406661202216714,0.346341942293302,-0.0439955744766029,0.0933273835687329,0.406656728722029,-1.57084426515748,-0.144963141214248,101.747115099145,159.772270534791
0.78,0.21944242700798,0.00472160272813496,0.796454839023829,-0.171104185842556,0.219442200409928,-0.00473212243333786,0.796463040563166,0.171066004905109,-1.57084426515748,-0.144963141214248,111.85813754408,159.772270534791
0.79,0.23939169354063,-0.0142951286286884,0.677047665926811,-0.0564776999898462,0.239392378550618,0.0142836525664625,0.677050372597313,0.0564452433684674,-1.57084426515748,-0.144963141214248,98.7782338822378,159.772270534791
0.8,0.142792576284803,-0.0821651105534927,1.14138137318047,0.176277898629254,0.142796514981588,0.0821582652167878,1.14137292139516,-0.176332614380797,-1.57084426515748,-0.144963141214248,72.8256503831875,159.772270534791
0.81,0.288186630566586,0.0246708517550509,0.443131440381006,-0.290633928589255,0.288185447555211,-0.0246846669218857,0.443145372386472,0.290612685259651,-1.57084426515748,-0.144963141214248,43.87957988166,159.772270534791
0.82,0.25015289215763,0.00565397160948926,0.61384647824278,-0.176006653817771,0.250152620828053,-0.00566596352303373,0.613854915008228,0.175977226820498,-1.57084426515748,-0.144963141214248,17.8930294092292,159.772270534791
0.83,0.307028810803248,0.0242630246123994,0.328621310796649,-0.289233508974822,0.307027647320788,-0.0242777430429706,0.328635175799868,0.289217755074936,-1.57084426515748,-0.144963141214248,-0.144963141214248,159.772270534791
0.84,0.210254647921385,-0.0142951723908029,0.793655665256591,-0.173205604196326,0.21025533296695,0.014285093110834,0.793663967537699,0.173167557444272,-1.57084426515748,-0.144963141214248,-0.144963141214248,159.772270534791
