t,iq,id,vq,vd,ia,ib,va,vb,theta_e,omega,omega_obs,r
0,0,0,0,0,0,0,0,0,0,-0.144963141214248,0,0
0.01,-0.0142944455004445,-0.0533183628450652,0.0304531355461741,0.178374843709172,-0.0533074187509992,0.0143352047334118,0.169638379377654,-0.0629904641591769,-0.524637440120955,-0.144963141214248,-70.004989784207,-0.144963141214248
0.02,0.0147243695120926,-0.00464105132025594,-0.0857990426366607,-0.0557772798034009,0.00335856956968772,0.015068723414127,-0.0912522235210437,-0.0463207551978577,-0.524637440120955,-0.144963141214248,-70.032456484354,-0.144963141214248
0.03,-0.0144116856786916,-0.00464105132025594,0.0308050367290811,-0.0557772798034009,-0.0112356583318262,-0.0101486956457033,-0.0328453287864362,0.0546007289974943,-0.524637440120955,-0.144963141214248,-68.2013431216519,-0.144963141214248
0.04,0.00495375991935286,0.0151932559279933,-0.027145225662962,-0.174614357096493,0.0156311827345774,-0.00332278337397133,-0.164726727592365,0.0639698538158832,-0.524637440120955,-0.144963141214248,-68.2013431216519,-0.144963141214248
0.05,0.0246122481763913,-0.160033543796673,-0.144804909463758,0.761290703050649,-0.126181672653421,0.101462719196771,0.586368701024866,-0.506659395269218,-0.524637440120955,-0.144963141214248,-68.2013431216519,-0.144963141214248
0.06,-0.0142358873255607,-0.00464105132025594,0.0301014821474258,-0.0557772798034009,-0.0111476010703506,-0.00999654118581163,-0.0331977387416823,0.0539917985640196,-0.524637440120955,-0.144963141214248,-70.032456484354,-0.144963141214248
0.07,-0.0142944950318361,-0.0530840558484417,0.0304532842166688,0.176966686101809,-0.0531046495424909,0.0142177976671805,0.168419685545438,-0.062284990408709,-0.524637440120955,-0.144963141214248,-70.032456484354,-0.144963141214248
0.08,0.0147244438091802,-0.00464105132025594,-0.0857993399776506,-0.0557772798034009,0.0033586067850424,0.0150687877186727,-0.0912523724589196,-0.0463210125481509,-0.524637440120955,-0.144963141214248,-70.032456484354,-0.144963141214248
0.09,-0.0142945115423002,-0.00452387718386458,0.030453333773501,-0.0564814082148149,-0.0110755510242148,-0.0101059732098229,-0.033630923615937,0.0546490255044665,-0.524637440120955,-0.144963141214248,-70.032456484354,-0.144963141214248
0.1,-0.053142725468957,0.102074348394999,0.205360072282508,-0.63869442894595,0.0617267698100434,-0.0971242902643329,-0.449928903666178,0.497661847543311,-0.524637440120955,-0.144963141214248,-70.032456484354,-0.144963141214248
0.11,-0.0240065835981977,-0.0241823200371289,0.088755646018786,0.061651044589528,-0.0329548130004834,-0.00866492692055479,0.0978169602498602,0.0459375476780081,-0.524637440120955,-0.144963141214248,-70.032456484354,-0.144963141214248
0.12,0.0244365530136067,0.0150173667673374,-0.202404113138714,-0.173909583784699,0.0252378659341539,0.0136277859867704,-0.251903785880084,-0.0880707159441608,-0.524637440120955,-0.144963141214248,-70.032456484354,-0.144963141214248
0.13,0.00501244191827281,-0.0243580317169892,-0.0274972755030274,0.062354974596708,-0.0185712846175803,0.0165392161471678,0.040195215578765,-0.0550326054409756,-0.524637440120955,-0.144963141214248,-70.032456484354,-0.144963141214248
0.14,-0.0240066207401163,0.0146659516672651,0.0887557946627667,-0.171797843397431,0.000668565279363424,-0.0281240288389407,-0.104234286204962,0.162872046900534,-0.524637440120955,-0.144963141214248,-70.032456484354,-0.144963141214248
0.15,0.00501245842873691,-0.0240651954276862,-0.0274973250598597,0.0609472137978166,-0.0183178248979168,0.0163925489623122,0.0389767658945889,-0.0543275020184323,-0.524637440120955,-0.144963141214248,-70.032456484354,-0.144963141214248
0.16,0.00501246668396869,-0.0726255845895686,-0.086151265925637,0.29439634982345,-0.06034710973783,0.040716418132306,0.211648587081555,-0.222027311374845,-0.524637440120955,-0.144963141214248,-70.032456484354,-0.144963141214248
0.17,0.00518813708766928,0.0137291364068232,-0.0282003840998716,-0.167575751586359,0.0144813784288696,-0.00238655226581736,-0.159163303134798,0.0595309761244818,-0.524637440120955,-0.144963141214248,-70.032456484354,-0.144963141214248
0.18,-0.0144116856786916,0.0342072864259928,0.0308050367290811,-0.289226564652235,0.0223877957119747,-0.0296077984978653,-0.234896993183092,0.171535298355633,-0.524637440120955,-0.144963141214248,-70.032456484354,-0.144963141214248
0.19,0.0149002173966153,-0.00464105132025594,-0.086502795445643,-0.0557772798034009,0.00344665164139983,0.0152209207437159,-0.0916047327682072,-0.0469298571981948,-0.524637440120955,-0.144963141214248,-70.032456484354,-0.144963141214248
0.2,-0.0144116856786916,0.0342073194469199,0.0308050367290811,-0.289226763083166,0.0223878242917722,-0.0296078150380226,-0.234897164926174,0.171535397749536,-0.524637440120955,-0.144963141214248,-70.032456484354,-0.144963141214248
0.21,-0.0337188042394625,-0.00528496424953646,0.146707246392101,-0.052259614076858,-0.0214638895944925,-0.0265365794693573,0.0282545593484844,0.15315274494255,-0.524637440120955,-0.144963141214248,-70.032456484354,-0.144963141214248
0.22,-0.0241823200371289,0.0146660837509768,0.0891075719669323,-0.171798637121174,0.000580671954214913,-0.0282761637258378,-0.104058768193005,0.163176909704435,-0.524637440120955,-0.144963141214248,-73.0843120888576,-0.144963141214248
0.23,0.00501252447059223,-0.072625786842751,-0.0274975232871855,0.294397391585856,-0.060347255843817,0.0407165694554179,0.241029103843214,-0.171262690216002,-0.524637440120955,-0.144963141214248,-73.0843120888576,-0.144963141214248
0.24,-0.0144116856786916,0.0344414861134865,0.0308050367290811,-0.290633928589255,0.0225904968540662,-0.029725108943338,-0.236115074558114,0.172240245882083,-0.524637440120955,-0.144963141214248,-70.032456484354,-0.144963141214248
0.25,-0.0144116856786916,-0.00464105132025594,0.0308050367290811,-0.0557772798034009,-0.0112356583318262,-0.0101486956457033,-0.0328453287864362,0.0546007289974943,-0.524637440120955,-0.144963141214248,-70.032456484354,-0.144963141214248
0.26,0.00518809993912545,0.0147831835947237,-0.0282001610941288,-0.172502319089684,0.0153936435696981,-0.00291455585342838,-0.163427163216329,0.0619988830554015,-0.524637440120955,-0.144963141214248,-70.032456484354,-0.144963141214248
0.27,0.0050125574915199,0.0150172429432751,-0.0274976224008484,-0.173908839695235,0.0155082941690559,-0.0031837289754568,-0.164292613585708,0.0633114593341517,-0.524637440120955,-0.144963141214248,-68.2013431216519,-0.144963141214248
0.28,-0.0144116856786916,-0.0920501827347522,-0.0274976471792637,0.411123274203606,-0.0868887514531057,0.0336344718484341,0.342055947378374,-0.229730703336257,-0.524637440120955,-0.144963141214248,-68.2013431216519,-0.144963141214248
0.29,0.00512958303817967,-0.0239483019647387,-0.027848879358281,0.0602447720226538,-0.018157985322755,0.0164353691214557,0.038192705320474,-0.0542799216826724,-0.524637440120955,-0.144963141214248,-68.2013431216519,-0.144963141214248
0.3,0.00512958303817967,0.0146662158346886,-0.086502795445643,-0.171799430844917,0.0152630962466346,-0.00290661349704776,-0.192022554737541,0.0111855500810768,-0.524637440120955,-0.144963141214248,-70.032456484354,-0.144963141214248
0.31,0.00518807930105876,0.0147832248708571,-0.0868539532894908,-0.172502567128195,0.015393668956831,-0.00291459439097461,-0.192807017828527,0.0112338214290786,-0.524637440120955,-0.144963141214248,-70.032456484354,-0.144963141214248
0.32,-0.0142947014081652,-0.179342627066835,0.0301027705982159,0.877322428196434,-0.162382253918389,0.0774604414134489,0.774405933447419,-0.413396020851201,-0.524637440120955,-0.144963141214248,-70.032456484354,-0.144963141214248
0.33,-0.0142947096589804,-0.00452407530054475,-0.0281999876585547,-0.0564802176826072,-0.0110758217318063,-0.0101060454444254,-0.0630092973321335,0.00388365074744421,-0.524637440120955,-0.144963141214248,-73.0843120888576,-0.144963141214248
0.34,-0.0243577716838481,-0.0234220295680128,0.09016111986016,0.0581366032321598,-0.0324726871836342,-0.00934971109506465,0.0954791923374468,0.0489143741695686,-0.524637440120955,-0.144963141214248,-73.0843120888576,-0.144963141214248
0.35,-0.0241823200371289,-0.0241823200371289,0.0894589528164431,0.061651044589528,-0.0330428392491834,-0.00881702779335975,0.0981692460902899,0.0465462636530437,-0.524637440120955,-0.144963141214248,-73.0843120888576,-0.144963141214248
0.36,0.00518805866518706,-0.0726261624402553,-0.0281999133233055,0.294399326207381,-0.0602596559808964,0.0408686834211207,0.240678951633714,-0.17187158177924,-0.524637440120955,-0.144963141214248,-70.032456484354,-0.144963141214248
0.37,0.00512958303817967,0.0146663313990493,-0.086502795445643,-0.171800125299788,0.0152631962682365,-0.00290667138314823,-0.192023155792124,0.0111858979329938,-0.524637440120955,-0.144963141214248,-70.032456484354,-0.144963141214248
0.38,0.00524651778173088,0.013321598358674,-0.0289018325828627,-0.165476015950427,0.0141578948094467,-0.00213188794932712,-0.157697325186016,0.0578721125469762,-0.524637440120955,-0.144963141214248,-70.0782343182828,-0.144963141214248
0.39,0.014958680640775,-0.14072837340844,-0.145156711533001,0.645279465390151,-0.114308404128948,0.0834375572161072,0.485784107258854,-0.4488539411568,-0.524637440120955,-0.144963141214248,-70.032456484354,-0.144963141214248
0.4,0.0244370152888756,0.0635780118391619,-0.20240688821491,-0.407359662357113,0.0672676079539264,-0.0106958041215336,-0.453957527282504,0.0288618491455152,-0.524637440120955,-0.144963141214248,-70.032456484354,-0.144963141214248
0.41,-0.024123865048201,-0.0240654100592731,0.0304541266561331,0.0609485035721898,-0.0329123729486026,-0.00882499479188909,0.0680057203226806,-0.00417084181795311,-0.524637440120955,-0.144963141214248,-70.032456484354,-0.144963141214248
0.42,0.00512958303817967,0.0143741596448118,-0.027848879358281,-0.0536698055746041,0.0150103199774755,-0.00276032277350267,-0.0604010000210178,0.00277980366013656,-0.524637440120955,-0.144963141214248,-70.0782343181822,-0.144963141214248
0.43,0.00501268957078845,-0.0240654265697377,-0.0274980188421669,0.0609486027876618,-0.0183179091737799,0.0163928647959312,0.038977620558054,-0.0543287982348653,-0.524637440120955,-0.144963141214248,-70.032456484354,-0.144963141214248
0.44,-0.0142948004665321,-0.0045241661080965,0.0304542009913823,-0.0564796719975343,-0.011075945811685,-0.0101060785534367,-0.0336289865213725,0.0546489064164867,-0.524637440120955,-0.144963141214248,-73.0843120888576,-0.144963141214248
0.45,-0.0144701241571554,-0.0527929613708698,0.0311558476883645,0.176269998636854,-0.052940678136115,0.0139199806723257,0.168168612148975,-0.0613279475647492,-0.524637440120955,-0.144963141214248,-73.0843120888576,-0.144963141214248
0.46,-0.0142948169769957,-0.00505009177619153,0.030454250548213,-0.0536704008673967,-0.0115311456950356,-0.00984265707589287,-0.0311975217907781,0.0532417875341758,-0.524637440120955,-0.144963141214248,-73.0843120888576,-0.144963141214248
0.47,-0.0142948252322275,0.0343246256670224,0.0301035139241755,-0.172503360825391,0.0225478887915298,-0.0295654302631629,-0.134223798338842,0.112461562349684,-0.524637440120955,-0.144963141214248,-70.0782343180433,-0.144963141214248
0.48,0.00512958303817967,0.0146665130141528,-0.027848879358281,-0.171801216669934,0.0152633534571264,-0.00290676235401554,-0.162644398388216,0.0619517376973149,-0.524637440120955,-0.144963141214248,-70.032456484354,-0.144963141214248
0.49,0.0144912636206172,-0.00399840967225893,-0.0847492362175484,-0.0592880005807178,0.00379801695381789,0.0145450702455488,-0.0937649247920728,-0.0436536244893129,-0.524637440120955,-0.144963141214248,-70.032456484354,-0.144963141214248
0.5,0.00512958303817967,-0.0727434026273878,-0.027848879358281,0.295103504279924,-0.0603904184170552,0.0408767979588523,0.24146425434834,-0.17192048217651,-0.524637440120955,-0.144963141214248,-70.032456484354,-0.144963141214248
0.51,0.0148418036838341,-0.00452422389469348,-0.086152133156775,-0.0564793247435584,0.00351850704864278,0.015111844579251,-0.092036710124516,-0.0462747032449354,-0.524637440120955,-0.144963141214248,-70.032456484354,-0.144963141214248
0.52,-0.0531437656014437,0.102310240356048,0.205364234949356,-0.640110920438339,0.0619304146228093,-0.09724334860884,-0.451152799914867,0.498374969866794,-0.524637440120955,-0.144963141214248,-70.032456484354,-0.144963141214248
0.53,0.00512958303817967,-0.0239486981980979,-0.027848879358281,0.0602471530870627,-0.0181583282649481,0.0164355675944442,0.0381947661450645,-0.0542811143560252,-0.524637440120955,-0.144963141214248,-70.032456484354,-0.144963141214248
0.54,-0.0144116856786916,-0.00464105132025594,0.0308050367290811,-0.0557772798034009,-0.0112356583318262,-0.0101486956457033,-0.0328453287864362,0.0546007289974943,-0.524637440120955,-0.144963141214248,-73.0843120888576,-0.144963141214248
0.55,-0.024123922832603,-0.024065525628077,0.0891083896279797,0.0609491980537607,-0.0329125019182131,-0.00882498691628679,0.0973861971454326,0.0465944036450659,-0.524637440120955,-0.144963141214248,-73.0843120888576,-0.144963141214248
0.56,0.0148418243197052,-0.00528337516626688,-0.0861522570355949,-0.0522682951632283,0.0028614677049461,0.0154921207346854,-0.0883921024729495,-0.0483841119791318,-0.524637440120955,-0.144963141214248,-73.0843120888576,-0.144963141214248
0.57,-0.0241823200371289,0.0138492163093198,0.0894589528164431,-0.167591625633912,-0.000126331394650006,-0.0278669954451351,-0.100241569772233,0.161373742942371,-0.524637440120955,-0.144963141214248,-73.0843120888576,-0.144963141214248
0.58,-0.0241239352154517,-0.0723932587908576,0.0891084639632322,0.292999204812605,-0.0747404320245885,0.0153823271782024,0.298226815747459,-0.0696392040436781,-0.524637440120955,-0.144963141214248,-73.0843120888576,-0.144963141214248
0.59,-0.0144116856786916,0.0344414861134865,0.0308050367290811,-0.290633928589255,0.0225904968540662,-0.029725108943338,-0.236115074558114,0.172240245882083,-0.524637440120955,-0.144963141214248,-70.032456484354,-0.144963141214248
0.6,-0.053260716846654,0.102193784391636,0.205715467102026,-0.639410909282585,0.0617710405430945,-0.0972862378629527,-0.450371004418035,0.498328328207496,-0.524637440120955,-0.144963141214248,-70.032456484354,-0.144963141214248
0.61,0.00518795547700922,-0.0240655751594698,-0.0281992938762459,0.0609494957001701,-0.0182302472198028,0.016544632848522,0.0386271252472366,-0.0549362029663338,-0.524637440120955,-0.144963141214248,-70.0049897843735,-0.144963141214248
0.62,-0.024007215103488,0.0632280743878704,0.0887581733373438,-0.405256255855683,0.0426990569429451,-0.0524492736270613,-0.306292659122435,0.279813247027471,-0.524637440120955,-0.144963141214248,-68.2013431216519,-0.144963141214248
0.63,-0.014294957311496,-0.0536109514796313,0.0304546717679468,0.179780818656349,-0.0535609122197877,0.0144813191827636,0.170856028066501,-0.0636933863331158,-0.524637440120955,-0.144963141214248,-68.2013431216519,-0.144963141214248
0.64,-0.0144700457346734,0.0346165662814322,0.0311553769118001,-0.291335328655415,0.0227127972129677,-0.0298633174219298,-0.236546655115089,0.17289479803377,-0.524637440120955,-0.144963141214248,-68.2013431216519,-0.144963141214248
0.65,0.00512958303817967,0.0146667936831513,-0.027848879358281,-0.171802903279472,0.0152635963777176,-0.00290690294090359,-0.162645858158224,0.0619525825187507,-0.524637440120955,-0.144963141214248,-70.032456484354,-0.144963141214248
0.66,0.00501287943667947,0.0147835137951151,-0.0858022141938662,-0.172504303345632,0.0153061615434807,-0.00306637557743886,-0.192281705220778,0.0121449771807788,-0.524637440120955,-0.144963141214248,-70.032456484354,-0.144963141214248
0.67,0.00501288769191125,0.0150169127428837,-0.0274986135108079,-0.173205604196326,0.0155081737758917,-0.00318327778804241,-0.163684455766364,0.0629583513959862,-0.524637440120955,-0.144963141214248,-70.032456484354,-0.144963141214248
0.68,-0.0144116856786916,-0.0532025053848442,0.0308050367290811,0.177676965711999,-0.0532658689860388,0.0141756997882972,0.169210629094934,-0.0623363251547573,-0.524637440120955,-0.144963141214248,-73.0843120888576,-0.144963141214248
0.69,-0.0142950068428867,-0.00557448200669485,0.0304548204384387,-0.0508692156109274,-0.0119851034821471,-0.00958015473796577,-0.0287727947945585,0.0518391692113096,-0.524637440120955,-0.144963141214248,-73.0843120888576,-0.144963141214248
0.7,-0.0336612779441318,0.0827696402930857,0.146712102854897,-0.522686167696055,0.054776679014327,-0.0705932746317968,-0.378899826702873,0.388793251419603,-0.524637440120955,-0.144963141214248,-73.0843120888576,-0.144963141214248
0.71,-0.0146450103294229,0.0348498042522663,0.0318555369307358,-0.292737087025786,0.0228270263513643,-0.0301315789815984,-0.237409175219402,0.174202930156561,-0.524637440120955,-0.144963141214248,-70.032456484354,-0.144963141214248
0.72,0.0148418903615484,-0.00475770539038983,-0.0861526534901734,-0.0550762765989564,0.00331647092237829,0.0152288703030456,-0.0908226247266227,-0.0469779393457153,-0.524637440120955,-0.144963141214248,-70.032456484354,-0.144963141214248
0.73,0.00518790594563072,0.0147835715817132,-0.0281989965353352,-0.172504650599614,0.0153938822034179,-0.00291491809827345,-0.163428597824626,0.0620010588391161,-0.524637440120955,-0.144963141214248,-70.032456484354,-0.144963141214248
0.74,-0.0144116856786916,-0.00493264523047336,0.0308050367290811,-0.0543754717723614,-0.0114880344953493,-0.0100026364776883,-0.0316320560791776,0.0538985644201278,-0.524637440120955,-0.144963141214248,-70.0049897841737,-0.144963141214248
0.75,0.00512958303817967,-0.0239490614194186,-0.027848879358281,0.060249335773954,-0.0181586426350368,0.0164357495317277,0.0381966552728017,-0.0542822076622302,-0.524637440120955,-0.144963141214248,-68.2013431216519,-0.144963141214248
0.76,-0.0144699962055033,-0.00423287763257402,0.0311550795841461,-0.0571788894035094,-0.0109115894161031,-0.0104036176234044,-0.0338830935505442,0.0556057582338224,-0.524637440120955,-0.144963141214248,-70.032456484354,-0.144963141214248
0.77,-0.0142950728802999,-0.00475766411864758,-0.027848879358281,-0.0550765246110793,-0.0112781761002992,-0.00998935535305417,-0.0616185232310045,0.00348442815639334,-0.524637440120955,-0.144963141214248,-70.032456484354,-0.144963141214248
0.78,-0.0337197453092449,-0.0047576558634158,0.147062889009102,-0.055076574218812,-0.0210079726121587,-0.0268015223403788,0.0259946056746146,0.154871568814954,-0.524637440120955,-0.144963141214248,-70.0782343178768,-0.144963141214248
0.79,0.0148419192526513,-0.00452445503232787,-0.0861528269258239,-0.056477935780257,0.00351836488605751,0.0151120603813754,-0.0920358554773835,-0.0462759994365975,-0.524637440120955,-0.144963141214248,-73.0843120888576,-0.144963141214248
0.8,0.00501299500548339,-0.0238325559390401,-0.0274989356168772,0.0602498318512811,-0.0181162053457876,0.0162764844294378,0.0383723711846187,-0.0539795778775515,-0.524637440120955,-0.144963141214248,-73.0843120888576,-0.144963141214248
0.81,-0.0243571897033257,0.0154248263952056,0.09015879074242,-0.175307274480498,0.00114977588225069,-0.0288075680158291,-0.10656895880585,0.165844219232849,-0.524637440120955,-0.144963141214248,-73.0843120888576,-0.144963141214248
0.82,-0.0532610800679703,0.102194783250256,0.205717102437448,-0.639416365999748,0.0617717231235467,-0.0972870525605612,-0.450374908099051,0.498332476864948,-0.524637440120955,-0.144963141214248,-73.0843120888576,-0.144963141214248
0.83,-0.0241823200371289,0.0151916255641177,0.0894589528164431,-0.174606519288177,0.00103553133887269,-0.0285394072206255,-0.106312999544774,0.164887497842438,-0.524637440120955,-0.144963141214248,-73.0843120888576,-0.144963141214248
0.84,-0.0144116856786916,-0.0532028355830183,0.0308050367290811,0.177678553106098,-0.053266154774409,0.0141758651843117,0.169212002993423,-0.0623371202792549,-0.524637440120955,-0.144963141214248,-73.0385342555012,-0.144963141214248
