t,iq,id,vq,vd,ia,ib,va,vb,theta_e,omega,omega_obs,r
0,0,0,0,0,0,0,0,0,0,-0.144963141214248,0,0
0.01,0.0244949923013402,-0.0240650804013218,-0.202403029401358,0.0609465225758994,0.0330688808717138,-0.00925104645200741,-0.153674637858794,0.145139831210836,-2.62011914539939,-0.144963141214248,124.981116643447,-0.144963141214248
0.02,-0.0334254159021961,-0.00475828209656005,0.0869958420783045,-0.0550728110287206,-0.0125253094122214,0.0313530907706616,0.0910905718611091,-0.0479979038243817,-2.62011914539939,-0.144963141214248,124.981116643447,-0.144963141214248
0.03,-0.0336012886451614,-0.00475827323705699,0.0876997209642882,-0.0550728642676691,-0.0126129295672675,0.0315055831646567,0.0914412611588913,-0.0486082008876133,-2.62011914539939,-0.144963141214248,121.929261038943,-0.144963141214248
0.04,-0.00487547743485203,-0.0045238382629579,-0.0267934200234681,-0.0564816421001845,0.00149379746071081,0.00648104636563628,0.0356270801384466,0.0513690024401488,-2.62011914539939,-0.144963141214248,121.929261038943,-0.144963141214248
0.05,0.00518818513709052,0.0147830131987936,-0.0868545886318338,-0.172501295138331,-0.0102336073000272,-0.0118628843828667,0.106306134545633,0.161243363115424,-2.62011914539939,-0.144963141214248,121.929261038943,-0.144963141214248
0.06,-0.0340115520647238,-0.00452385598193738,0.0898107194104735,-0.0564815356224475,-0.0130205656489679,0.0317445399553632,0.0937143119577269,-0.0497368768780919,-2.62011914539939,-0.144963141214248,121.929261038943,-0.144963141214248
0.07,-0.00464105132025594,-0.00464105132025594,-0.027848879358281,-0.0557772798034009,0.00171221259450057,0.00633616940633159,0.0344905515284016,0.0519332925881426,-2.62011914539939,-0.144963141214248,121.929261038943,382.862915224029
0.08,-0.00464105132025594,-0.00464105132025594,-0.027848879358281,-0.0557772798034009,0.00171221259450057,0.00633616940633159,0.0344905515284016,0.0519332925881426,-2.62011914539939,-0.144963141214248,121.929261038943,382.862915224029
0.09,-0.00464105132025594,-0.00464105132025594,-0.027848879358281,-0.0557772798034009,0.00171221259450057,0.00633616940633159,0.0344905515284016,0.0519332925881426,-2.62011914539939,-0.144963141214248,121.929261038943,382.862915224029
0.1,-0.00464105132025594,-0.00464105132025594,-0.027848879358281,-0.0557772798034009,0.00171221259450057,0.00633616940633159,0.0344905515284016,0.0519332925881426,-2.62011914539939,-0.144963141214248,121.929261038943,382.862915224029
0.11,-0.00464105132025594,-0.00464105132025594,-0.027848879358281,-0.0557772798034009,0.00171221259450057,0.00633616940633159,0.0344905515284016,0.0519332925881426,-2.62011914539939,-0.144963141214248,121.929261038943,382.862915224029
0.12,-0.00464105132025594,-0.00464105132025594,-0.027848879358281,-0.0557772798034009,0.00171221259450057,0.00633616940633159,0.0344905515284016,0.0519332925881426,-2.62011914539939,-0.144963141214248,121.929261038943,382.862915224029
0.13,-0.00464105132025594,-0.00464105132025594,-0.027848879358281,-0.0557772798034009,0.00171221259450057,0.00633616940633159,0.0344905515284016,0.0519332925881426,-2.62011914539939,-0.144963141214248,121.929261038943,382.862915224029
0.14,-0.00464105132025594,-0.00464105132025594,-0.027848879358281,-0.0557772798034009,0.00171221259450057,0.00633616940633159,0.0344905515284016,0.0519332925881426,-2.62011914539939,-0.144963141214248,121.929261038943,382.862915224029
0.15,-0.00464105132025594,-0.00464105132025594,-0.027848879358281,-0.0557772798034009,0.00171221259450057,0.00633616940633159,0.0344905515284016,0.0519332925881426,-2.62011914539939,-0.144963141214248,121.929261038943,382.862915224029
0.16,-0.00464105132025594,-0.00464105132025594,-0.027848879358281,-0.0557772798034009,0.00171221259450057,0.00633616940633159,0.0344905515284016,0.0519332925881426,-2.62011914539939,-0.144963141214248,121.929261038943,382.862915224029
0.17,-0.00464105132025594,-0.00464105132025594,-0.027848879358281,-0.0557772798034009,0.00171221259450057,0.00633616940633159,0.0344905515284016,0.0519332925881426,-2.62011914539939,-0.144963141214248,121.929261038943,382.862915224029
0.18,-0.00464105132025594,-0.00464105132025594,-0.027848879358281,-0.0557772798034009,0.00171221259450057,0.00633616940633159,0.0344905515284016,0.0519332925881426,-2.62011914539939,-0.144963141214248,121.929261038943,382.862915224029
0.19,-0.00464105132025594,-0.00464105132025594,-0.027848879358281,-0.0557772798034009,0.00171221259450057,0.00633616940633159,0.0344905515284016,0.0519332925881426,-2.62011914539939,-0.144963141214248,121.929261038943,382.862915224029
0.2,-0.00464105132025594,-0.00464105132025594,-0.027848879358281,-0.0557772798034009,0.00171221259450057,0.00633616940633159,0.0344905515284016,0.0519332925881426,-2.62011914539939,-0.144963141214248,121.929261038943,382.862915224029
0.21,-0.00464105132025594,-0.00464105132025594,-0.027848879358281,-0.0557772798034009,0.00171221259450057,0.00633616940633159,0.0344905515284016,0.0519332925881426,-2.62011914539939,-0.144963141214248,121.929261038943,382.862915224029
0.22,-0.00464105132025594,-0.00464105132025594,-0.027848879358281,-0.0557772798034009,0.00171221259450057,0.00633616940633159,0.0344905515284016,0.0519332925881426,-2.62011914539939,-0.144963141214248,121.929261038943,382.862915224029
0.23,-0.00464105132025594,-0.00464105132025594,-0.027848879358281,-0.0557772798034009,0.00171221259450057,0.00633616940633159,0.0344905515284016,0.0519332925881426,-2.62011914539939,-0.144963141214248,121.929261038943,382.862915224029
0.24,-0.00464105132025594,-0.00464105132025594,-0.027848879358281,-0.0557772798034009,0.00171221259450057,0.00633616940633159,0.0344905515284016,0.0519332925881426,-2.62011914539939,-0.144963141214248,121.929261038943,382.862915224029
0.25,-0.00464105132025594,-0.00464105132025594,-0.027848879358281,-0.0557772798034009,0.00171221259450057,0.00633616940633159,0.0344905515284016,0.0519332925881426,-2.62011914539939,-0.144963141214248,121.929261038943,382.862915224029
0.26,-0.00464105132025594,-0.00464105132025594,-0.027848879358281,-0.0557772798034009,0.00171221259450057,0.00633616940633159,0.0344905515284016,0.0519332925881426,-2.62011914539939,-0.144963141214248,121.929261038943,382.862915224029
0.27,-0.00464105132025594,-0.00464105132025594,-0.027848879358281,-0.0557772798034009,0.00171221259450057,0.00633616940633159,0.0344905515284016,0.0519332925881426,-2.62011914539939,-0.144963141214248,121.929261038943,382.862915224029
0.28,-0.00464105132025594,-0.00464105132025594,-0.027848879358281,-0.0557772798034009,0.00171221259450057,0.00633616940633159,0.0344905515284016,0.0519332925881426,-2.62011914539939,-0.144963141214248,121.929261038943,382.862915224029
0.29,-0.00464105132025594,-0.00464105132025594,-0.027848879358281,-0.0557772798034009,0.00171221259450057,0.00633616940633159,0.0344905515284016,0.0519332925881426,-2.62011914539939,-0.144963141214248,121.929261038943,382.862915224029
0.3,-0.00464105132025594,-0.00464105132025594,-0.027848879358281,-0.0557772798034009,0.00171221259450057,0.00633616940633159,0.0344905515284016,0.0519332925881426,-2.62011914539939,-0.144963141214248,121.929261038943,382.862915224029
0.31,-0.00464105132025594,-0.00464105132025594,-0.027848879358281,-0.0557772798034009,0.00171221259450057,0.00633616940633159,0.0344905515284016,0.0519332925881426,-2.62011914539939,-0.144963141214248,121.929261038943,382.862915224029
0.32,-0.00464105132025594,-0.00464105132025594,-0.027848879358281,-0.0557772798034009,0.00171221259450057,0.00633616940633159,0.0344905515284016,0.0519332925881426,-2.62011914539939,-0.144963141214248,121.929261038943,382.862915224029
0.33,-0.00464105132025594,-0.00464105132025594,-0.027848879358281,-0.0557772798034009,0.00171221259450057,0.00633616940633159,0.0344905515284016,0.0519332925881426,-2.62011914539939,-0.144963141214248,121.929261038943,382.862915224029
0.34,-0.00464105132025594,-0.00464105132025594,-0.027848879358281,-0.0557772798034009,0.00171221259450057,0.00633616940633159,0.0344905515284016,0.0519332925881426,-2.62011914539939,-0.144963141214248,121.929261038943,382.862915224029
0.35,-0.00464105132025594,-0.00464105132025594,-0.027848879358281,-0.0557772798034009,0.00171221259450057,0.00633616940633159,0.0344905515284016,0.0519332925881426,-2.62011914539939,-0.144963141214248,121.929261038943,382.862915224029
0.36,-0.00464105132025594,-0.00464105132025594,-0.027848879358281,-0.0557772798034009,0.00171221259450057,0.00633616940633159,0.0344905515284016,0.0519332925881426,-2.62011914539939,-0.144963141214248,121.929261038943,382.862915224029
0.37,-0.00464105132025594,-0.00464105132025594,-0.027848879358281,-0.0557772798034009,0.00171221259450057,0.00633616940633159,0.0344905515284016,0.0519332925881426,-2.62011914539939,-0.144963141214248,121.929261038943,382.862915224029
0.38,-0.00464105132025594,-0.00464105132025594,-0.027848879358281,-0.0557772798034009,0.00171221259450057,0.00633616940633159,0.0344905515284016,0.0519332925881426,-2.62011914539939,-0.144963141214248,121.929261038943,382.862915224029
0.39,-0.00464105132025594,-0.00464105132025594,-0.027848879358281,-0.0557772798034009,0.00171221259450057,0.00633616940633159,0.0344905515284016,0.0519332925881426,-2.62011914539939,-0.144963141214248,121.929261038943,382.862915224029
0.4,-0.00464105132025594,-0.00464105132025594,-0.027848879358281,-0.0557772798034009,0.00171221259450057,0.00633616940633159,0.0344905515284016,0.0519332925881426,-2.62011914539939,-0.144963141214248,121.929261038943,382.862915224029
0.41,-0.00464105132025594,-0.00464105132025594,-0.027848879358281,-0.0557772798034009,0.00171221259450057,0.00633616940633159,0.0344905515284016,0.0519332925881426,-2.62011914539939,-0.144963141214248,121.929261038943,382.862915224029
0.42,-0.00464105132025594,-0.00464105132025594,-0.027848879358281,-0.0557772798034009,0.00171221259450057,0.00633616940633159,0.0344905515284016,0.0519332925881426,-2.62011914539939,-0.144963141214248,121.929261038943,382.862915224029
0.43,-0.00464105132025594,-0.00464105132025594,-0.027848879358281,-0.0557772798034009,0.00171221259450057,0.00633616940633159,0.0344905515284016,0.0519332925881426,-2.62011914539939,-0.144963141214248,121.929261038943,382.862915224029
0.44,-0.00464105132025594,-0.00464105132025594,-0.027848879358281,-0.0557772798034009,0.00171221259450057,0.00633616940633159,0.0344905515284016,0.0519332925881426,-2.62011914539939,-0.144963141214248,121.929261038943,382.862915224029
0.45,-0.00464105132025594,-0.00464105132025594,-0.027848879358281,-0.0557772798034009,0.00171221259450057,0.00633616940633159,0.0344905515284016,0.0519332925881426,-2.62011914539939,-0.144963141214248,121.929261038943,382.862915224029
0.46,-0.00464105132025594,-0.00464105132025594,-0.027848879358281,-0.0557772798034009,0.00171221259450057,0.00633616940633159,0.0344905515284016,0.0519332925881426,-2.62011914539939,-0.144963141214248,121.929261038943,382.862915224029
0.47,-0.00464105132025594,-0.00464105132025594,-0.027848879358281,-0.0557772798034009,0.00171221259450057,0.00633616940633159,0.0344905515284016,0.0519332925881426,-2.62011914539939,-0.144963141214248,121.929261038943,382.862915224029
0.48,-0.00464105132025594,-0.00464105132025594,-0.027848879358281,-0.0557772798034009,0.00171221259450057,0.00633616940633159,0.0344905515284016,0.0519332925881426,-2.62011914539939,-0.144963141214248,121.929261038943,382.862915224029
0.49,-0.00464105132025594,-0.00464105132025594,-0.027848879358281,-0.0557772798034009,0.00171221259450057,0.00633616940633159,0.0344905515284016,0.0519332925881426,-2.62011914539939,-0.144963141214248,121.929261038943,382.862915224029
0.5,-0.00464105132025594,-0.00464105132025594,-0.027848879358281,-0.0557772798034009,0.00171221259450057,0.00633616940633159,0.0344905515284016,0.0519332925881426,-2.62011914539939,-0.144963141214248,121.929261038943,382.862915224029
0.51,-0.00464105132025594,-0.00464105132025594,-0.027848879358281,-0.0557772798034009,0.00171221259450057,0.00633616940633159,0.0344905515284016,0.0519332925881426,-2.62011914539939,-0.144963141214248,121.929261038943,382.862915224029
0.52,-0.00464105132025594,-0.00464105132025594,-0.027848879358281,-0.0557772798034009,0.00171221259450057,0.00633616940633159,0.0344905515284016,0.0519332925881426,-2.62011914539939,-0.144963141214248,121.929261038943,382.862915224029
0.53,-0.00464105132025594,-0.00464105132025594,-0.027848879358281,-0.0557772798034009,0.00171221259450057,0.00633616940633159,0.0344905515284016,0.0519332925881426,-2.62011914539939,-0.144963141214248,121.929261038943,382.862915224029
0.54,-0.00464105132025594,-0.00464105132025594,-0.027848879358281,-0.0557772798034009,0.00171221259450057,0.00633616940633159,0.0344905515284016,0.0519332925881426,-2.62011914539939,-0.144963141214248,121.929261038943,382.862915224029
0.55,-0.00464105132025594,-0.00464105132025594,-0.027848879358281,-0.0557772798034009,0.00171221259450057,0.00633616940633159,0.0344905515284016,0.0519332925881426,-2.62011914539939,-0.144963141214248,121.929261038943,382.862915224029
0.56,-0.00464105132025594,-0.00464105132025594,-0.027848879358281,-0.0557772798034009,0.00171221259450057,0.00633616940633159,0.0344905515284016,0.0519332925881426,-2.62011914539939,-0.144963141214248,121.929261038943,382.862915224029
0.57,-0.00464105132025594,-0.00464105132025594,-0.027848879358281,-0.0557772798034009,0.00171221259450057,0.00633616940633159,0.0344905515284016,0.0519332925881426,-2.62011914539939,-0.144963141214248,121.929261038943,382.862915224029
0.58,0.434745658132369,-0.0236570140185625,0.972070765179972,0.0588450943744546,0.237084841483093,-0.365176970133876,0.433221393209387,-0.872183204444589,-2.62011914539939,-0.144963141214248,121.929261038943,382.862915224029
0.59,0.513436021299416,0.0147834915853256,1.26148620269524,-0.172504169881505,0.242953874556347,-0.452557747065816,0.777995833013978,-1.00788273724171,-2.62011914539939,-0.144963141214248,85.9315229107812,382.862915224029
0.6,0.591192569116642,-0.0241823200371289,1.08727618769622,0.061651044589528,0.315475659966897,-0.50056822347165,0.488178934485783,-0.973474030241456,-2.62011914539939,-0.144963141214248,35.8838136909801,382.862915224029
0.61,0.572059792012019,-0.00475775941253991,1.20283244616083,-0.1725042763594,0.289101741404661,-0.493654965566289,0.748777067547169,-0.957024828316902,-2.62011914539939,-0.144963141214248,-0.144963141214248,382.862915224029
0.62,0.484532512381826,0.0632282426412784,1.66996218955821,-0.640113803376122,0.18654958129915,-0.451629073399466,1.38693935566894,-1.12912294260781,-2.62011914539939,-0.144963141214248,-0.144963141214248,382.862915224029
0.63,0.513669331170056,0.0149002173966153,1.49470118246668,-0.525490577375109,0.242968888487177,-0.452818194743172,1.20024342008968,-1.03425707844266,-2.62011914539939,-0.144963141214248,-0.144963141214248,382.862915224029
0.64,0.552635151651985,-0.00475773283405787,1.20178201250375,-0.524789409254865,0.279425171827429,-0.476812143524412,1.05371532049634,-0.780620236091104,-2.62011914539939,-0.0866084648614768,-0.144963141214248,382.862915224029
0.65,0.503198590009803,-0.00516607826460171,1.49820353212292,-0.17040114467114,0.335340208106533,0.37520988017316,0.883910800710341,1.22161862713305,-0.739612064714416,46.8536131681467,25.776750643977,382.862915224029
0.66,0.474295027935289,0.0144335622174305,1.73001774754036,-0.289231805304556,0.194944232713652,0.432620904920354,0.395246606669486,1.7089167808646,-0.39294064438756,72.79438580643,56.9039761261304,382.862915224029
0.67,0.46341615840231,0.0247291792226976,1.79497439852958,-0.173906612599728,-0.214360289752877,0.411601426565125,-1.06251197092671,1.45713585945854,0.533457721052573,72.79438580643,101.764551829235,382.862915224029
0.68,0.425208537410811,-0.0046993743603595,1.90808046949803,-0.172504649005331,-0.421266029215553,0.057959615555843,-1.91268347643101,0.110321579920023,1.42301889542228,95.9884884006597,140.826601883099,382.862915224029
0.69,0.425500134892323,-0.0432570398711831,1.96533399346835,0.0595483387333839,-0.296018184312027,-0.308698511250724,-1.53534830390597,-1.22832784557757,2.27584689028656,106.975168576873,158.830848266568,382.862915224029
0.7,0.395954957375608,0.00501295467697827,2.08334203499767,-0.289933079876154,0.0742011158895071,-0.388972559939213,0.700344891030914,-1.98340420973679,-2.94043578724132,129.864085610653,153.990285248217,382.862915224029
0.71,0.386067703515476,-0.0143533759278434,2.20134997015835,-0.0557772798034009,0.34964403578282,-0.164326928224626,1.98170732647677,-0.960150440424161,-2.04730497581096,129.864085610653,148.806078626207,382.862915224029
0.72,0.29877336168124,-0.218428900783643,2.55047334725194,0.760615053064278,0.0944969594415549,0.357836598189957,2.46010325589649,1.01554986303873,-0.889470107287488,150.921889281731,142.965385264217,382.862915224029
0.73,0.318256289638992,0.00460487501595238,2.31585786904761,-0.0529745238177806,-0.142083905425578,0.284816492829516,-1.110724194621,2.03280489306942,0.477204244859193,182.966373129021,155.785254856961,382.862915224029
0.74,0.338497080457137,0.00571254765425125,2.48867017767037,-0.0592804585906895,-0.338090237841088,0.0175470155657468,-2.48922099220585,0.027789889498292,1.53581706869648,150.921889281731,166.791538425151,382.862915224029
0.75,0.357397048228567,-0.00569030789365904,2.3745121574252,-0.167600944048243,-0.0754012455806449,-0.349399029551177,-0.374536314994015,-2.35077021653684,2.91312922352499,176.862661920014,184.775841079615,382.862915224029
0.76,0.346752059970804,-0.00464105132025594,2.37836130116823,-0.173205604196326,0.324849670913847,-0.121372244597018,2.27938115064293,-0.700731211173999,-1.94174529835725,189.985641019381,195.74638929799,382.862915224029
0.77,0.327443950517436,-0.0242988863862513,2.37766143753808,-0.0550768037362442,0.116753286293388,0.306885396768519,0.95770575768673,2.17694902272863,-0.43760858120631,203.718991239648,208.867666713575,382.862915224029
0.78,0.288769373156863,-0.0241240412923192,2.66918170446502,0.0609506217613187,-0.270836433642124,0.103040508799679,-2.38071537276265,1.20848676601585,1.12390629393007,197.920465591091,218.949442746381,382.862915224029
0.79,0.40584214036416,0.150989806634016,2.78718926736212,-0.991702027000511,-0.362608682758673,-0.236686940473614,-0.85866699163438,-2.83100475448789,2.50526469141264,127.7277866875,216.871988032971,382.862915224029
0.8,0.327502246981252,-0.0437818586393071,3.02250455606531,-0.406661620281554,0.32096966185891,-0.0784413735847214,2.96316231429941,-0.72150991951692,-1.94338308096967,161.908569457944,218.978269262167,382.862915224029
0.81,0.347567909227874,0.0432798731830344,2.902748291278,-0.638717323099834,0.168899357165302,0.306838077977494,0.481496578387579,2.93292831592356,-0.379305094939855,174.726362996861,239.730887372794,382.862915224029
0.82,0.327443994814924,-0.0241823200371289,2.96420033249026,-0.291334138461834,-0.328273110491037,-0.00641243099559349,-2.97562835550892,-0.130365184232366,1.516609724959,189.985641019381,252.821718866579,382.862915224029
0.83,0.346868759199166,-0.0337781846073669,2.84724216623561,-0.0571775930706647,0.134261288416388,-0.321609714244626,0.891710427544172,-2.7046089816734,-2.84319442029632,205.855290162801,265.976845571528,382.862915224029
0.84,0.278823849407005,-0.0726859788314269,3.13876320433479,-0.057177486592744,0.160532356962776,0.239280907898643,2.31174352519717,2.12389867733091,-0.84593638821833,218.978269262167,271.729219165918,382.862915224029
0.85,0.346985290110306,-0.0532612321661881,2.78788875875514,-0.17390565435205,-0.345396724518582,0.0627427533395559,-2.69232833040785,0.744268143273728,1.23879328343253,231.796062801084,273.911670143239,382.862915224029
0.86,0.298539830325302,0.0242049053005669,3.02075619987289,-0.405962262231853,0.00354446004720604,-0.299498488367209,0.683945756897172,-2.97018376183179,-3.04885787326742,242.769274670893,281.846494714949,382.862915224029
