t,iq,id,vq,vd,ia,ib,va,vb,theta_e,omega,omega_obs,r
0,0,0,0,0,0,0,0,0,0,-0.144963141214248,0,0
0.01,0.00483648371242685,-0.00464105132025594,-0.0264412800047651,-0.0557772798034009,-0.00485047815135687,-0.0046264234307972,0.0262727057719022,-0.0558568810620528,1.5677762099521,-0.144963141214248,35.8669329919321,-0.144963141214248
0.02,0.0246708517550509,0.0342070241575074,-0.203458754052405,-0.289224988615939,-0.0245674301896614,0.0342813768963283,0.202584334237097,-0.289838137866912,1.5677762099521,-0.144963141214248,35.8669329919321,-0.144963141214248
0.03,0.00495374969966271,-0.00464105132025594,-0.0857991008505676,-0.0557772798034009,-0.00496774360379539,-0.00462606927435245,0.0856302559134301,-0.0560361483440216,1.5677762099521,-0.144963141214248,35.8669329919321,-0.144963141214248
0.04,-0.00481687153030562,0.0146657904498824,0.0315086787833156,-0.171796874602243,0.00486114189614313,0.0146511760730971,-0.032027380932214,-0.171700931367281,1.5677762099521,-0.144963141214248,35.8669329919321,-0.144963141214248
0.05,-0.0343631709192568,-0.0245925365608212,0.149871842687289,0.063763981196229,0.0342887419833511,-0.0246962050388426,-0.14967858480852,0.0642163201857226,1.5677762099521,-0.144963141214248,35.8669329919321,-0.144963141214248
0.06,-0.0241823200371289,-0.00464105132025594,0.0308050367290811,-0.0557772798034009,0.0241681932565107,-0.00471406347553002,-0.0309733498872882,-0.055683990759522,1.5677762099521,-0.144963141214248,35.8669329919321,-0.144963141214248
0.07,-0.0341873288284283,-0.0243581008617767,0.0908659216798663,0.0623552516021456,0.0341136087165861,-0.0244612393461009,-0.0906771874220217,0.0626293925112645,1.5677762099521,-0.144963141214248,33.7626785525915,-0.144963141214248
0.08,-0.0439579456822406,-0.00505117594467666,0.149519732685545,-0.0536648165499747,0.0439424900915017,-0.00518391083885237,-0.149681124563363,-0.0532130054323775,1.5677762099521,-0.144963141214248,35.8348885080785,-0.144963141214248
0.09,0.0436848567687837,0.0144901234052854,-0.260002715982627,-0.171093298727327,-0.0436408957426116,0.0146219904935015,0.25948480925973,-0.171877755835891,1.5677762099521,-0.144963141214248,35.8669329919321,-0.144963141214248
0.1,-0.0244752224358718,-0.00493395371899883,0.032563353752051,-0.0543691813470156,0.0244602097213348,-0.00500784913660004,-0.0327274062759667,-0.0542705884100559,1.5677762099521,-0.144963141214248,35.8669329919321,-0.144963141214248
0.11,0.0536312982088013,0.034324333906301,-0.319360274124222,-0.289929931955871,-0.0535273902792553,0.0344861499092738,0.318483196726288,-0.290893113592671,1.5677762099521,-0.144963141214248,35.8669329919321,-0.144963141214248
0.12,0.0536898961931732,-0.00464105132025594,-0.319712016340079,-0.0557772798034009,-0.0537036678337019,-0.00447888064122824,0.319542104631534,-0.0567425916059152,1.5677762099521,-0.144963141214248,35.8669329919321,-0.144963141214248
0.13,0.0240851782422387,-0.00493388807666204,-0.200997950873706,-0.0543694969158654,-0.0240999692964221,-0.00486112563352868,0.200832832228868,-0.0549762853350827,1.5677762099521,-0.144963141214248,35.8669329919321,-0.144963141214248
0.14,-0.0436064628037491,-0.00464105132025594,0.206063668345343,-0.0557772798034009,0.0435922474383682,-0.00477272656707767,-0.206231182227902,-0.0551546900189669,1.5677762099521,-0.144963141214248,35.8669329919321,-0.144963141214248
0.15,-0.00411402392952993,0.0150173345945544,-0.0303096037257136,-0.173909390450476,0.00415935920351697,0.0150048412931848,0.0297842396164885,-0.174000135733664,1.5677762099521,-0.144963141214248,35.8669329919321,-0.144963141214248
0.16,-0.00434828020618663,-0.0239481031458735,0.0290475078187296,0.0602435772708425,0.00427593441592482,-0.0239611262236903,-0.028865432980335,0.0603310292612758,1.5677762099521,-0.144963141214248,35.8669329919321,-0.144963141214248
0.17,0.0252563502216326,-0.00428975224030694,-0.206622463713565,-0.0578883229970074,-0.0252691905720972,-0.0042134556639431,0.206446692168099,-0.0585120820285819,1.5677762099521,-0.144963141214248,35.8669329919321,-0.144963141214248
0.18,-0.0340114998660668,-0.0240652290961245,0.148112868903805,0.0609474161198029,0.0339386650617088,-0.0241678378929014,-0.147928125389618,0.0613944556561068,1.5677762099521,-0.144963141214248,35.8669329919321,-0.144963141214248
0.19,0.00524666522687268,-0.00464105132025594,-0.0872056493872599,-0.0557772798034009,-0.00526065779514963,-0.00462518463658001,0.0870367980354884,-0.0560403962784898,1.5677762099521,-0.144963141214248,38.9187885964366,-0.144963141214248
0.2,0.00512958303817967,-0.00464105132025594,-0.086502795445643,-0.0557772798034009,-0.00514357614041573,-0.00462553823793254,0.0863339472992716,-0.0560382735806896,1.5677762099521,-0.144963141214248,38.9187885964366,-0.144963141214248
0.21,0.0540412871723926,0.0343244214294168,-0.321469834225054,-0.289930457903955,-0.0539373771087421,0.0344874756446824,0.320592745617945,-0.290900010646663,1.5677762099521,-0.144963141214248,38.9187885964366,-0.144963141214248
0.22,0.0146661055330987,0.014783161464857,-0.144102667054362,-0.172502186105833,-0.0146213918405414,0.0148273873305235,0.143581033901331,-0.17293660563136,1.5677762099521,-0.144963141214248,38.9187885964366,-0.144963141214248
0.23,0.00512958303817967,-0.00464105132025594,-0.086502795445643,-0.0557772798034009,-0.00514357614041573,-0.00462553823793254,0.0863339472992716,-0.0560382735806896,1.5677762099521,-0.144963141214248,38.9187885964366,-0.144963141214248
0.24,-0.0241823200371289,-0.00464105132025594,0.0308050367290811,-0.0557772798034009,0.0241681932565107,-0.00471406347553002,-0.0309733498872882,-0.055683990759522,1.5677762099521,-0.144963141214248,35.8669329919321,-0.144963141214248
0.25,-0.02388974585007,-0.00464105132025594,0.0293999593359419,-0.0557772798034009,0.0238756204037508,-0.00471317986864317,-0.0295682789020738,-0.0556882342509715,1.5677762099521,-0.144963141214248,35.8669329919321,-0.144963141214248
0.26,0.0440365890881538,0.0149002173966153,-0.261762057551996,-0.173205604196326,-0.0439913879280016,0.0150331448856646,0.261237763405909,-0.173995365080646,1.5677762099521,-0.144963141214248,35.8669329919321,-0.144963141214248
0.27,0.0141981443754105,0.0142566504605109,-0.141644543458555,-0.169689828614059,-0.014155022939348,0.0142994654321312,0.141131415151235,-0.170116837156293,1.5677762099521,-0.144963141214248,38.9187885964366,-0.144963141214248
0.28,0.00489557620240084,-0.00475805473814536,-0.0850980332975446,-0.0550741772817546,-0.00490992373529249,-0.0047432478491338,0.0849313150062002,-0.055330931726203,1.5677762099521,-0.144963141214248,35.8669329919321,-0.144963141214248
0.29,-0.0724505185014223,-0.0532017364484934,0.262611386945716,0.177673269128792,0.0722895128711951,-0.0534203025179118,-0.262073596076621,0.178465574708213,1.5677762099521,-0.144963141214248,35.8669329919321,-0.144963141214248
0.3,0.0438026697754927,0.0147832314833497,-0.260357715730638,-0.172502606864301,-0.043757822992731,0.014915453043337,0.259835551119977,-0.173288129684734,1.5677762099521,-0.144963141214248,38.8779324476426,-0.144963141214248
0.31,0.00489562871627136,-0.0047580284812101,-0.0854494602683596,-0.0550743350661828,-0.00490997616962462,-0.00474322143372051,0.0852827398977884,-0.0553321508588118,1.5677762099521,-0.144963141214248,35.8669329919321,-0.144963141214248
0.32,-0.00464105132025594,-0.00464105132025594,-0.027848879358281,-0.0557772798034009,0.00462701365855917,-0.00465504665046503,0.0276802987059917,-0.0558611321701058,1.5677762099521,-0.144963141214248,35.8669329919321,153.973744886234
0.33,-0.00464105132025594,-0.00464105132025594,-0.027848879358281,-0.0557772798034009,0.00462701365855917,-0.00465504665046503,0.0276802987059917,-0.0558611321701058,1.5677762099521,-0.144963141214248,35.8669329919321,153.973744886234
0.34,-0.00464105132025594,-0.00464105132025594,-0.027848879358281,-0.0557772798034009,0.00462701365855917,-0.00465504665046503,0.0276802987059917,-0.0558611321701058,1.5677762099521,-0.144963141214248,35.8669329919321,153.973744886234
0.35,-0.00464105132025594,-0.00464105132025594,-0.027848879358281,-0.0557772798034009,0.00462701365855917,-0.00465504665046503,0.0276802987059917,-0.0558611321701058,1.5677762099521,-0.144963141214248,35.8669329919321,153.973744886234
0.36,-0.00464105132025594,-0.00464105132025594,-0.027848879358281,-0.0557772798034009,0.00462701365855917,-0.00465504665046503,0.0276802987059917,-0.0558611321701058,1.5677762099521,-0.144963141214248,35.8669329919321,153.973744886234
0.37,-0.00464105132025594,-0.00464105132025594,-0.027848879358281,-0.0557772798034009,0.00462701365855917,-0.00465504665046503,0.0276802987059917,-0.0558611321701058,1.5677762099521,-0.144963141214248,35.8669329919321,153.973744886234
0.38,-0.00464105132025594,-0.00464105132025594,-0.027848879358281,-0.0557772798034009,0.00462701365855917,-0.00465504665046503,0.0276802987059917,-0.0558611321701058,1.5677762099521,-0.144963141214248,35.8669329919321,153.973744886234
0.39,-0.00464105132025594,-0.00464105132025594,-0.027848879358281,-0.0557772798034009,0.00462701365855917,-0.00465504665046503,0.0276802987059917,-0.0558611321701058,1.5677762099521,-0.144963141214248,35.8669329919321,153.973744886234
0.4,-0.00464105132025594,-0.00464105132025594,-0.027848879358281,-0.0557772798034009,0.00462701365855917,-0.00465504665046503,0.0276802987059917,-0.0558611321701058,1.5677762099521,-0.144963141214248,35.8669329919321,153.973744886234
0.41,-0.00464105132025594,-0.00464105132025594,-0.027848879358281,-0.0557772798034009,0.00462701365855917,-0.00465504665046503,0.0276802987059917,-0.0558611321701058,1.5677762099521,-0.144963141214248,35.8669329919321,153.973744886234
0.42,-0.00464105132025594,-0.00464105132025594,-0.027848879358281,-0.0557772798034009,0.00462701365855917,-0.00465504665046503,0.0276802987059917,-0.0558611321701058,1.5677762099521,-0.144963141214248,35.8669329919321,153.973744886234
0.43,-0.00464105132025594,-0.00464105132025594,-0.027848879358281,-0.0557772798034009,0.00462701365855917,-0.00465504665046503,0.0276802987059917,-0.0558611321701058,1.5677762099521,-0.144963141214248,35.8669329919321,153.973744886234
0.44,-0.00464105132025594,-0.00464105132025594,-0.027848879358281,-0.0557772798034009,0.00462701365855917,-0.00465504665046503,0.0276802987059917,-0.0558611321701058,1.5677762099521,-0.144963141214248,35.8669329919321,153.973744886234
0.45,-0.00464105132025594,-0.00464105132025594,-0.027848879358281,-0.0557772798034009,0.00462701365855917,-0.00465504665046503,0.0276802987059917,-0.0558611321701058,1.5677762099521,-0.144963141214248,35.8669329919321,153.973744886234
0.46,-0.00464105132025594,-0.00464105132025594,-0.027848879358281,-0.0557772798034009,0.00462701365855917,-0.00465504665046503,0.0276802987059917,-0.0558611321701058,1.5677762099521,-0.144963141214248,35.8669329919321,153.973744886234
0.47,-0.00464105132025594,-0.00464105132025594,-0.027848879358281,-0.0557772798034009,0.00462701365855917,-0.00465504665046503,0.0276802987059917,-0.0558611321701058,1.5677762099521,-0.144963141214248,35.8669329919321,153.973744886234
0.48,-0.00464105132025594,-0.00464105132025594,-0.027848879358281,-0.0557772798034009,0.00462701365855917,-0.00465504665046503,0.0276802987059917,-0.0558611321701058,1.5677762099521,-0.144963141214248,35.8669329919321,153.973744886234
0.49,-0.00464105132025594,-0.00464105132025594,-0.027848879358281,-0.0557772798034009,0.00462701365855917,-0.00465504665046503,0.0276802987059917,-0.0558611321701058,1.5677762099521,-0.144963141214248,35.8669329919321,153.973744886234
0.5,-0.00464105132025594,-0.00464105132025594,-0.027848879358281,-0.0557772798034009,0.00462701365855917,-0.00465504665046503,0.0276802987059917,-0.0558611321701058,1.5677762099521,-0.144963141214248,35.8669329919321,153.973744886234
0.51,-0.00464105132025594,-0.00464105132025594,-0.027848879358281,-0.0557772798034009,0.00462701365855917,-0.00465504665046503,0.0276802987059917,-0.0558611321701058,1.5677762099521,-0.144963141214248,35.8669329919321,153.973744886234
0.52,-0.00464105132025594,-0.00464105132025594,-0.027848879358281,-0.0557772798034009,0.00462701365855917,-0.00465504665046503,0.0276802987059917,-0.0558611321701058,1.5677762099521,-0.144963141214248,35.8669329919321,153.973744886234
0.53,-0.00464105132025594,-0.00464105132025594,-0.027848879358281,-0.0557772798034009,0.00462701365855917,-0.00465504665046503,0.0276802987059917,-0.0558611321701058,1.5677762099521,-0.144963141214248,35.8669329919321,153.973744886234
0.54,-0.00464105132025594,-0.00464105132025594,-0.027848879358281,-0.0557772798034009,0.00462701365855917,-0.00465504665046503,0.0276802987059917,-0.0558611321701058,1.5677762099521,-0.144963141214248,35.8669329919321,153.973744886234
0.55,-0.00464105132025594,-0.00464105132025594,-0.027848879358281,-0.0557772798034009,0.00462701365855917,-0.00465504665046503,0.0276802987059917,-0.0558611321701058,1.5677762099521,-0.144963141214248,35.8669329919321,153.973744886234
0.56,-0.00464105132025594,-0.00464105132025594,-0.027848879358281,-0.0557772798034009,0.00462701365855917,-0.00465504665046503,0.0276802987059917,-0.0558611321701058,1.5677762099521,-0.144963141214248,35.8669329919321,153.973744886234
0.57,-0.00464105132025594,-0.00464105132025594,-0.027848879358281,-0.0557772798034009,0.00462701365855917,-0.00465504665046503,0.0276802987059917,-0.0558611321701058,1.5677762099521,-0.144963141214248,35.8669329919321,153.973744886234
0.58,-0.00464105132025594,-0.00464105132025594,-0.027848879358281,-0.0557772798034009,0.00462701365855917,-0.00465504665046503,0.0276802987059917,-0.0558611321701058,1.5677762099521,-0.144963141214248,35.8669329919321,153.973744886234
0.59,-0.00464105132025594,-0.00464105132025594,-0.027848879358281,-0.0557772798034009,0.00462701365855917,-0.00465504665046503,0.0276802987059917,-0.0558611321701058,1.5677762099521,-0.144963141214248,35.8669329919321,153.973744886234
0.6,-0.00464105132025594,-0.00464105132025594,-0.027848879358281,-0.0557772798034009,0.00462701365855917,-0.00465504665046503,0.0276802987059917,-0.0558611321701058,1.5677762099521,-0.144963141214248,35.8669329919321,153.973744886234
0.61,-0.00464105132025594,-0.00464105132025594,-0.027848879358281,-0.0557772798034009,0.00462701365855917,-0.00465504665046503,0.0276802987059917,-0.0558611321701058,1.5677762099521,-0.144963141214248,35.8669329919321,153.973744886234
0.62,-0.00464105132025594,-0.00464105132025594,-0.027848879358281,-0.0557772798034009,0.00462701365855917,-0.00465504665046503,0.0276802987059917,-0.0558611321701058,1.5677762099521,-0.144963141214248,35.8669329919321,153.973744886234
0.63,-0.00464105132025594,-0.00464105132025594,-0.027848879358281,-0.0557772798034009,0.00462701365855917,-0.00465504665046503,0.0276802987059917,-0.0558611321701058,1.5677762099521,-0.144963141214248,35.8669329919321,153.973744886234
0.64,-0.00464105132025594,-0.00464105132025594,-0.027848879358281,-0.0557772798034009,0.00462701365855917,-0.00465504665046503,0.0276802987059917,-0.0558611321701058,1.5677762099521,-0.144963141214248,35.8669329919321,153.973744886234
0.65,-0.00464105132025594,-0.00464105132025594,-0.027848879358281,-0.0557772798034009,0.00462701365855917,-0.00465504665046503,0.0276802987059917,-0.0558611321701058,1.5677762099521,-0.144963141214248,35.8669329919321,153.973744886234
0.66,-0.00464105132025594,-0.00464105132025594,-0.027848879358281,-0.0557772798034009,0.00462701365855917,-0.00465504665046503,0.0276802987059917,-0.0558611321701058,1.5677762099521,-0.144963141214248,35.8669329919321,153.973744886234
0.67,-0.00464105132025594,-0.00464105132025594,-0.027848879358281,-0.0557772798034009,0.00462701365855917,-0.00465504665046503,0.0276802987059917,-0.0558611321701058,1.5677762099521,-0.144963141214248,35.8669329919321,153.973744886234
0.68,-0.00464105132025594,-0.00464105132025594,-0.027848879358281,-0.0557772798034009,0.00462701365855917,-0.00465504665046503,0.0276802987059917,-0.0558611321701058,1.5677762099521,-0.144963141214248,35.8669329919321,153.973744886234
0.69,-0.00464105132025594,-0.00464105132025594,-0.027848879358281,-0.0557772798034009,0.00462701365855917,-0.00465504665046503,0.0276802987059917,-0.0558611321701058,1.5677762099521,-0.144963141214248,35.8669329919321,153.973744886234
0.7,-0.00464105132025594,-0.00464105132025594,-0.027848879358281,-0.0557772798034009,0.00462701365855917,-0.00465504665046503,0.0276802987059917,-0.0558611321701058,1.5677762099521,-0.144963141214248,35.8669329919321,153.973744886234
0.71,-0.00464105132025594,-0.00464105132025594,-0.027848879358281,-0.0557772798034009,0.00462701365855917,-0.00465504665046503,0.0276802987059917,-0.0558611321701058,1.5677762099521,-0.144963141214248,35.8669329919321,153.973744886234
0.72,-0.00464105132025594,-0.00464105132025594,-0.027848879358281,-0.0557772798034009,0.00462701365855917,-0.00465504665046503,0.0276802987059917,-0.0558611321701058,1.5677762099521,-0.144963141214248,35.8669329919321,153.973744886234
0.73,-0.00464105132025594,-0.00464105132025594,-0.027848879358281,-0.0557772798034009,0.00462701365855917,-0.00465504665046503,0.0276802987059917,-0.0558611321701058,1.5677762099521,-0.144963141214248,35.8669329919321,153.973744886234
0.74,-0.00464105132025594,-0.00464105132025594,-0.027848879358281,-0.0557772798034009,0.00462701365855917,-0.00465504665046503,0.0276802987059917,-0.0558611321701058,1.5677762099521,-0.144963141214248,35.8669329919321,153.973744886234
0.75,-0.00464105132025594,-0.00464105132025594,-0.027848879358281,-0.0557772798034009,0.00462701365855917,-0.00465504665046503,0.0276802987059917,-0.0558611321701058,1.5677762099521,-0.144963141214248,35.8669329919321,153.973744886234
0.76,-0.00464105132025594,-0.00464105132025594,-0.027848879358281,-0.0557772798034009,0.00462701365855917,-0.00465504665046503,0.0276802987059917,-0.0558611321701058,1.5677762099521,-0.144963141214248,35.8669329919321,153.973744886234
0.77,-0.00464105132025594,-0.00464105132025594,-0.027848879358281,-0.0557772798034009,0.00462701365855917,-0.00465504665046503,0.0276802987059917,-0.0558611321701058,1.5677762099521,-0.144963141214248,35.8669329919321,153.973744886234
0.78,-0.00464105132025594,-0.00464105132025594,-0.027848879358281,-0.0557772798034009,0.00462701365855917,-0.00465504665046503,0.0276802987059917,-0.0558611321701058,1.5677762099521,-0.144963141214248,35.8669329919321,153.973744886234
0.79,-0.00464105132025594,-0.00464105132025594,-0.027848879358281,-0.0557772798034009,0.00462701365855917,-0.00465504665046503,0.0276802987059917,-0.0558611321701058,1.5677762099521,-0.144963141214248,35.8669329919321,153.973744886234
0.8,-0.00464105132025594,-0.00464105132025594,-0.027848879358281,-0.0557772798034009,0.00462701365855917,-0.00465504665046503,0.0276802987059917,-0.0558611321701058,1.5677762099521,-0.144963141214248,35.8669329919321,153.973744886234
0.81,-0.00464105132025594,-0.00464105132025594,-0.027848879358281,-0.0557772798034009,0.00462701365855917,-0.00465504665046503,0.0276802987059917,-0.0558611321701058,1.5677762099521,-0.144963141214248,35.8669329919321,153.973744886234
0.82,-0.00464105132025594,-0.00464105132025594,-0.027848879358281,-0.0557772798034009,0.00462701365855917,-0.00465504665046503,0.0276802987059917,-0.0558611321701058,1.5677762099521,-0.144963141214248,35.8669329919321,153.973744886234
0.83,-0.0052236615268042,-0.00516540050614937,-0.0250509140337865,-0.0529764405612646,0.00520803761468433,-0.00518115299326084,0.0248908049906665,-0.053051855531979,1.5677762099521,-0.144963141214248,35.8669329919321,153.973744886234
0.84,0.220083538923765,0.0149002173966153,0.500386084823109,-0.173205604196326,-0.2200375348928,0.0155648264357321,-0.500906903154938,-0.171693592138272,1.5677762099521,-0.144963141214248,67.9031239382258,153.973744886234
0.85,0.239450050835609,0.0147837128599306,0.559739360889481,-0.17250549957542,-0.239404310339489,0.0155068114702692,-0.56025779414322,-0.170814237154002,1.5677762099521,-0.144963141214248,85.9074837611596,153.973744886234
