t,iq,id,vq,vd,ia,ib,va,vb,theta_e,omega,omega_obs,r
0,0,0,0,0,0,0,0,0,0,-0.144963141214248,0,0
0.01,-0.00464105132025594,-0.0141771904543735,-0.027848879358281,0.0602419046985216,-0.0145951368730213,0.00308448799553504,0.0381902236353677,-0.0542784854421938,-0.524637440120955,-0.144963141214248,812.869369898633,-0.144963141214248
0.02,0.0147829697798353,-0.0627372431953616,-0.144452864513067,0.2936894134823,-0.0468946572671234,0.0442197806311215,0.181833503293352,-0.272133567825938,-0.524637440120955,-0.144963141214248,812.82291187047,-0.144963141214248
0.03,-0.00481692273902767,0.0249639707863371,-0.0271450323639524,-0.174614744091604,0.0191936636863578,-0.0166735076210689,-0.164726965715476,0.0639702149628165,-0.524637440120955,-0.144963141214248,812.869369898633,-0.144963141214248
0.04,-0.00458242751610474,0.0245536041467485,-0.0282008028428025,-0.172501034273999,0.0189559475388501,-0.016264998353518,-0.163426372652575,0.0619976840551272,-0.524637440120955,-0.144963141214248,812.869369898633,-0.144963141214248
0.05,0.00512958303817967,0.00460196878026463,-0.086502795445643,-0.0529590000042988,0.00655243401623943,0.00213456020363431,-0.0891654958071141,-0.0483415314076581,-0.524637440120955,-0.144963141214248,809.817514294128,-0.144963141214248
0.06,-0.00481692273324263,0.0249639707766954,-0.0271450323871045,-0.174614744045253,0.0191936636809106,-0.0166735076112324,-0.164726965686955,0.0639702149195608,-0.524637440120955,-0.144963141214248,809.817514294128,-0.144963141214248
0.07,-0.00469967512686871,-0.0145289332919171,-0.0274969558589824,0.0623556145414399,-0.0149289368904262,0.00320993648235548,0.0401959295639763,-0.0550326493350931,-0.524637440120955,-0.144963141214248,809.817514294128,-0.144963141214248
0.08,0.0148415935921086,-0.0142944380696782,-0.144804788046346,0.0609464746629283,-0.00493777331148429,0.0200055555985226,-0.0197830928864629,-0.155857398447529,-0.524637440120955,-0.144963141214248,809.817514294128,-0.144963141214248
0.09,0.00495371161780847,-0.033718459168403,-0.0857989484449133,0.177670229074363,-0.0267022049999001,0.0211770157394043,0.110797950943272,-0.163254353449952,-0.524637440120955,-0.144963141214248,809.817514294128,-0.144963141214248
0.1,-0.00464105132025594,-0.0141771904599539,-0.027848879358281,0.0602419047320557,-0.0145951368778512,0.00308448799833027,0.0381902236643917,-0.054278485458991,-0.524637440120955,-0.144963141214248,809.817514294128,-0.144963141214248
0.11,0.0148415935896471,-0.0145289332926279,-0.14480478803157,0.0623556145457112,-0.0051407302424021,0.0201230140753501,-0.0185634744130276,-0.156563235531072,-0.524637440120955,-0.144963141214248,809.817514294128,-0.144963141214248
0.12,4.42198392729488,-0.0338357067858404,5.01533213368844,-0.0564818497342718,2.18568339459735,3.84420015177272,2.46329069659069,4.36908978560146,-0.524637440120955,-0.144963141214248,873.25020534634,1695.77119628162
0.13,4.61698624783413,0.0246708517550509,4.83901846188273,-1.11263219933975,2.33399766306822,3.98366986237664,1.46087126563385,4.74551422194632,-0.524637440120955,-0.144963141214248,893.613018482787,1695.77119628162
0.14,4.64536017002459,0.14174259264116,5.66721175695349,-1.81931585549634,-4.64587578010709,-0.123694412298314,-5.55410297542189,-2.13989238482264,1.62791786123342,184.797486463547,671.691688869293,1695.77119628162
0.15,4.50909890324043,0.00489508780888544,7.83388741736955,-1.22865138381177,4.50641749127214,0.155557948833232,7.78520641369134,1.50663113839547,-1.53520522102783,362.720668234303,876.388892663994,1695.77119628162
0.16,4.48990937736539,-0.0242409438423465,9.18151979333932,-1.3474888481256,-3.9807158436203,-2.07696297816364,-7.5460913009197,-5.4011608001881,2.04629805546995,509.820108371392,481.262875232109,1695.77119628162
0.17,4.55836244168423,-0.044720193481525,10.177580596338,-1.81015644607139,-3.06045851396916,3.37849992300371,-8.11193304406651,6.40752334703441,0.726234704082119,799.746390799265,535.219466301408,1695.77119628162
0.18,4.60686387063982,0.432809790204332,10.4733136412314,-6.27243277325579,2.19215515596598,4.074920221216,-1.7002356324732,12.0889581981528,-0.399880643804212,561.701653627352,828.55216587417,1695.77119628162
0.19,4.51898678521244,-0.00446517989721868,12.3495351090978,-4.63618650109231,-2.86697664603996,3.49309410320101,-11.4120544496986,6.61590930415947,0.686281212383564,791.811566227555,1050.68945780719,1695.77119628162
0.2,4.52899191479949,-0.218188035872088,13.63886549249,-3.46965352647131,-2.53330136036636,-3.76055288500014,-5.37457804818154,-13.0065775021715,2.50063147492039,1000.86367512983,1173.62519079212,1695.77119628162
0.21,4.54835731209508,-0.140960941875503,14.7546975921906,-4.63618650109445,2.51128358303138,3.79484900769718,4.73468179075968,14.7233866569542,-0.615580471272431,1178.78685687848,1309.43625380456,1695.77119628162
0.22,4.59680011725121,-0.0433718459194957,15.8705296917638,-4.98988061413102,1.69106651823323,-4.27466331608581,10.3557826573984,-13.0203835117543,-2.77431810681568,1359.76189421967,1474.59313724194,1695.77119628162
0.23,2.60323896526156,-0.199877867064868,15.5709254883094,-3.4611986871983,-1.70125603695275,-1.98053835325911,-8.57524941827601,-13.4498592680036,2.35527434298583,1524.86728242914,1628.6192865807,1695.77119628162
0.24,0.775368230788606,-0.0160531522446859,14.4554453122777,-2.63004100717989,-0.716808751792039,-0.296038528518811,-12.5187833235216,-7.69136392159524,1.94175401925201,1646.94150660407,1686.92081502856,1695.77119628162
0.25,0.0242018612893529,-0.0142358142540548,13.7494867780115,-0.643623471739173,-0.0201072470474228,-0.0195981405627915,-13.1990140103578,-3.90495415932936,1.81166666779289,1680.81710381955,1687.06195894144,1695.77119628162
0.26,-0.248144800802115,-0.179398617456586,11.9986673830235,0.643860676935639,0.261631989967743,-0.159086165130645,-12.01185646968,-0.312857302206537,1.65044574587694,1680.81710382261,1670.80060679722,1695.77119628162
0.27,0.0729964092717177,-0.0238892009951782,12.6473796951813,-0.0578909897232209,-0.0768057544301461,-0.000213955995997113,-12.0488234296204,3.84518120283113,1.25730246301348,1665.86301135961,1670.69657034388,1695.77119628162
0.28,-0.0134150809723139,-0.0137668238098589,13.4046017516418,-0.0593001295416124,0.00170781903858202,-0.0191461011549844,-10.4309816760721,8.41911431796307,0.887301634318085,1660.98004239223,1660.98004239027,1695.77119628162
0.29,0.23868682677422,0.0919514399852314,13.8148272407436,-0.990271885490545,-0.00458252719787638,0.255744929637686,-6.11393851679025,12.4277852375913,0.385633279940538,1662.81115574966,1657.87396752539,1695.77119628162
0.3,0.199311170271762,0.0145484745580061,13.580563499906,-0.64150976186849,-8.32760029671684e-05,0.199841421562626,-1.63409832553851,13.4971464544186,0.0732812583033353,1670.74598032291,1655.01641632265,1695.77119628162
0.31,0.209902537935027,0.0538655072217,13.9897332185499,-0.75893808631204,0.100547261666223,0.191965664823792,2.46814521986468,13.791188553519,-0.231287123055101,1660.98004238783,1662.90217127215,1695.77119628162
0.32,-0.0430787268812597,-0.257036078054428,12.6494912359957,0.75987986137989,-0.250064415335464,0.0734241807189192,6.20455352426494,11.0494597830751,-0.451649018681577,1660.98004239402,1667.99931028063,1695.77119628162
0.33,0.0845257578003073,-0.033835706786551,13.6968155615977,-0.408766822908785,0.0505466273873857,0.0757264633085584,11.0618768131104,8.08731897574867,-0.969337555981161,1654.87633118546,1670.69840828453,1695.77119628162
0.34,0.00612618775362106,-0.0340702020091459,13.6964636380836,-0.407357683028134,-0.00216944623473718,0.0345485505393672,13.2047937889754,3.65957339889545,-1.33017493681955,1662.81115575413,1670.69871460839,1695.77119628162
0.35,0.199838784550677,0.111375461082593,13.9300235319951,-1.45857604315988,0.174223335533115,-0.148277653399856,13.9465045047855,-1.29151530134841,-1.7674651141292,1667.99931027697,1665.81083425477,1695.77119628162
0.36,0.32574317885055,0.189364664481225,13.2858862254699,-1.4585760429129,0.226002142457888,-0.301480722976102,12.8014783570404,-3.84244306962591,-1.97174239422619,1675.93413485005,1661.01114443681,1695.77119628162
0.37,0.268174601252736,0.0543931214643921,13.9293196850122,-0.763165505884451,0.168068033420383,-0.215938335091084,11.0668194332579,-8.49316643592399,-2.28010227339741,1665.86301135294,1665.89905882657,1695.77119628162
0.38,0.0541586262517955,-0.149559100096706,12.7056816876391,0.17132909944094,0.152552167784765,0.0450435047857872,7.39405016943858,-10.3340080752702,-2.50705163160098,1665.86301135891,1665.81185533292,1695.77119628162
0.39,0.0745792520379481,-0.120598939910606,13.3470036060094,-0.0621184092004825,0.135371290173541,-0.0421993239146389,3.38373799840454,-12.9111068895639,-2.88993171882407,1657.92818678997,1670.70024622644,1695.77119628162
0.4,-0.00505141797152274,-0.0821026404998567,13.35509784666,-0.05930012960569,0.081268426319845,-0.0127201919823426,-2.813659213903,-13.0554768900739,2.92488347347347,1660.98004239163,1670.6652198347,1695.77119628162
0.41,0.131971958282189,0.0342069908926151,13.8724253863645,-0.993794735076526,-0.107185720342353,-0.0842492572872552,-7.6161973692302,-11.6372398664223,2.49056715304761,1665.86301135654,1665.81287641106,1695.77119628162
0.42,0.257700481169978,0.237748845800598,13.4629037442395,-1.80874730614624,-0.343221506080118,0.0716453029782825,-10.6227148909528,-8.4663612248521,2.1101578708839,1673.79783592826,1658.0078581243,1695.77119628162
0.43,0.141449473613118,-0.062326876584548,14.4540376183482,-0.295565918150206,-0.117205467431303,-0.100774359508873,-13.7431521845918,-4.48690658647437,1.86592320568096,1670.74598032007,1662.89522793843,1695.77119628162
0.44,-0.101526661597107,-0.227665551141585,13.4042498281532,0.641746966906894,0.117194952596998,-0.220010475381157,-13.4163174117451,-0.296950723833825,1.64076611381271,1670.74598032524,1665.86301135748,1695.77119628162
0.45,0.0931825398752464,-0.0141771904563991,13.8158830112313,-0.526899717253943,-0.0917607385440275,0.0215393901653117,-13.0185757936382,4.6554195296845,1.18924982179106,1662.81115575381,1665.86301135748,1695.77119628162
0.46,0.0443293680876361,-0.0148220523336905,13.5254288189034,-0.640805191867441,-0.0426833135434765,0.0190504817624402,-10.3988304195821,8.67249571541674,0.828329636740431,1662.81115575326,1665.86301135748,1695.77119628162
0.47,0.374772222097708,-0.0145875570959446,13.1148514061402,-0.408062252982184,-0.17689252110965,0.330720503225236,-6.09808983906299,11.6180524410145,0.452248881285631,1665.86301135546,1665.81491856873,1695.77119628162
0.48,0.14150809740004,-0.0437822125620345,13.5197980427909,-0.407357683013187,-0.0651423116138825,0.133033465730267,-2.49355363610658,13.2940990542279,0.155292737183235,1673.79783592909,1661.08987297996,1695.77119628162
0.49,0.161049366131653,0.0249053469787644,13.9900851420259,-0.644328041655411,0.0509134377010763,0.154806319318684,1.65276906186781,13.9070484048388,-0.164312692588443,1665.86301135633,1665.93887067021,1695.77119628162
0.5,0.0253157136453856,-0.276342851493665,12.6484354656898,0.758470721264609,-0.253688347035091,0.112465459175821,4.76845692837151,11.7396770009656,-0.325931282915864,1662.81115575298,1665.86301135748,1695.77119628162
0.51,0.122963433400203,0.0153105840391726,13.7575810186522,-0.645737181550055,0.101215511467969,0.0714831460937766,9.73600054089122,9.74157612813143,-0.832014309515328,1657.9281867875,1670.70392210899,1695.77119628162
0.52,0.00729866394861506,-0.0549598183221894,13.6321789458175,-0.400311983276177,-0.0162313200864204,0.0530131717000129,12.2295013391843,6.03621151796678,-1.14165637606991,1665.86301135742,1670.7042284316,1695.77119628162
0.53,0.189950902560853,0.121263343020514,13.8720734628549,-1.22512853409918,0.189051904377951,-0.12266018586022,13.8807270873567,1.12284353773341,-1.57816744114832,1670.74598032273,1667.99931028063,1695.77119628162
0.54,0.0149002173966153,-0.0153496665451161,13.8685542280476,-0.519854017996456,0.0181524350700026,0.011318915254652,13.5870358771742,-2.82833884969689,-1.8134967514052,1678.98599045608,1661.05328692499,1695.77119628162
0.55,0.268350472651589,0.0251984660129696,14.0466275171208,-0.64573718156716,0.227662019575605,-0.14428078078696,12.8087897512708,-5.80169166882691,-2.04203618232887,1665.86301135548,1670.70478027333,1695.77119628162
0.56,0.0545689928736521,-0.159388358338333,12.8802357416883,0.172033669737759,0.144112641274672,0.0872580677179554,9.76999284955068,-8.39507641803919,-2.26729279665752,1665.86301135721,1667.99931028063,1695.77119628162
0.57,0.248867827739552,0.0541000024435844,13.5830269644033,-0.879184690457733,0.0378303552086381,-0.251854859339635,5.64677377254257,-12.3848913276366,-2.77844613304537,1660.98004239027,1673.71085804309,1695.77119628162
0.58,0.015310584028159,-0.0341288258090833,13.1728014751646,-0.407357683055589,0.0358009906756993,-0.0108388099452183,2.0818904933774,-13.0136225148737,-3.01387335042399,1667.99931028048,1667.96726579677,1695.77119628162
0.59,0.181645863364714,-0.00505141796778684,13.5766923414063,-0.640100621951864,-0.0562408990338051,-0.172793801326514,-3.95629554882538,-13.0032314933546,2.79912482610511,1665.86301135748,1665.81723352275,1695.77119628162
0.6,0.0734067759378607,-0.00469967512494009,13.2879977664237,-0.759642656232234,-0.0400255463556423,-0.0617138342578355,-7.31846951880059,-11.1170115367411,2.50229048525142,1673.79783592803,1665.93625589193,1695.77119628162
0.61,0.28800898897707,0.209199052232937,13.7572290951774,-1.69484183161112,-0.355859999618497,0.00877962745660149,-10.3648877165868,-9.20342022478182,2.174330723799,1660.98004238989,1665.86301135748,1695.77119628162
0.62,-0.0430787269005176,-0.179046874650547,13.0554936430112,0.172033669673747,0.106165766691068,-0.150473884831874,-12.1958181967041,-4.66235223456456,1.94912013174604,1670.74598032295,1665.86301135748,1695.77119628162
0.63,0.0936515303355595,0.0634016463459178,14.1052814331783,-0.877070980595576,-0.0894421940440439,0.069213234414761,-14.1325103276879,0.0192263351315921,1.50733552219393,1665.86301135748,1670.67273578929,1695.77119628162
0.64,0.0637533891887934,0.014020860321016,14.2197738775227,-0.638691482169983,-0.054283171439041,0.0362548818191271,-13.4776407888363,4.57854722639932,1.19842838410434,1675.93413485067,1670.74598032469,1695.77119628162
0.65,0.2286230733284,0.0814773198786259,13.7568771716824,-1.22160568420718,-0.112509043162291,0.21505529177268,-10.9285745620901,8.44453953778886,0.824355752957306,1670.7459803238,1667.99931028063,1695.77119628162
0.66,0.0636361415783577,0.0140794841235654,13.8120118528226,-0.873548130943013,-0.023453935458157,0.060808743612174,-8.36476253052744,11.0256748350144,0.585860481272166,1675.93413485074,1665.93625589385,1695.77119628162
0.67,0.190888883463462,-0.0329563496680352,13.6399212630155,-0.413698812682951,-0.0837418287698122,0.174676824243104,-4.11607318221727,13.0106318189206,0.276078947469259,1662.8111557532,1670.74598032469,1695.77119628162
0.68,-0.0512078947020014,-0.130486821872006,12.9968397269559,0.0567190550285311,-0.124587728058763,-0.0642413977060238,-1.26831244469624,12.9349311355728,0.102104876735267,1657.92818679421,1670.70478027303,1695.77119628162
0.69,0.142270206902358,0.0153105840503727,13.6996309496242,-0.645737181626974,0.062221827893756,0.128855228413763,3.99473623924716,13.1201732855356,-0.342655745769425,1660.98004239066,1673.75205809471,1695.77119628162
0.7,0.113837660898018,0.0335035052243081,13.8657388399921,-0.872843560977932,0.0953752758264893,0.0706049195316338,7.6654003154191,11.5871570052873,-0.647313627931299,1670.74598032394,1670.79175815981,1695.77119628162
0.71,0.0836464007528033,-0.0245926866921241,13.4010825165934,-0.288520218688678,0.049284255451423,0.0719206699234262,10.2034956243815,8.69257922462401,-0.886713975327258,1675.93413485227,1673.75205809477,1695.77119628162
0.72,-0.00446517990300454,-0.0829233737992436,13.9851582131093,-0.406653113099087,-0.0294495571978501,0.0776462963357933,13.2004230797576,4.63668497048206,-1.26207518971342,1680.81710381776,1662.88897807259,1695.77119628162
0.73,0.142211583096452,0.0727032902347482,13.9303754554024,-1.34396599828062,0.137295516114423,-0.0816078674677334,13.9876727981367,0.454548815068788,-1.63449107050812,1667.99931028063,1665.86301135748,1695.77119628162
0.74,0.258755709716009,0.101311707668398,13.1159071766385,-0.988158175509956,0.20380076617152,-0.188901633474208,12.569144287127,-3.87557602627139,-1.94508563942542,1662.8111557542,1673.79783592919,1695.77119628162
0.75,0.14086323550846,0.0715308140680126,13.9243927557468,-0.750483246565073,0.0858235904446613,-0.13264018924267,12.41490569792,-6.34996497875559,-2.09742991992098,1688.75192839126,1673.79783592919,1695.77119628162
0.76,0.102953174234695,0.10219106475566,14.3381374800921,-0.992385595164804,-0.00612324014143424,-0.144930589355958,10.3955089107612,-9.92473727882997,-2.4021338215656,1670.74598032295,1675.93413485234,1695.77119628162
0.77,0.218735191330792,-0.0825130071457919,13.523317277882,-0.292043068535802,0.176523825593691,-0.153273674427567,6.68166941863831,-11.7609818098735,-2.64653509817704,1675.93413484888,1670.67273578769,1695.77119628162
0.78,0.0645741224763985,-0.0523217469872856,13.3494670705261,-0.53183170690389,0.0634745012148151,-0.0536504445175329,3.01888623330623,-13.0145089012949,-2.95347868238207,1662.81115575621,1667.9672657962,1695.77119628162
0.79,0.0841740149679376,0.0736412711555321,13.639921262935,-0.996613014791484,-0.0939303510953832,-0.0607074192856461,-2.78849373763279,-13.3889877225839,2.86332388095476,1662.81115575757,1670.74598032469,1695.77119628162
0.8,0.0648672415110662,-0.0141771904529499,13.5247249718046,-0.175319314045667,-0.0198901629738924,-0.0633492949231971,-6.5609564985653,-11.8280502302267,2.62219008237828,1657.92818678866,1675.90209036794,1695.77119628162
0.81,0.0828842912753586,-0.0639097193184952,14.2183661836443,-0.286406509042437,-0.0180852735808704,-0.103088218740516,-10.3039752306309,-9.80163558122656,2.31107394400667,1683.8689594177,1673.79783592919,1695.77119628162
0.82,0.150692493702289,-0.0725665013764005,13.8720734628485,-0.409471392886021,-0.106653632117301,-0.128837601407404,-12.4352044761761,-6.16179994936115,2.00133843101835,1678.98599045505,1675.93413485234,1695.77119628162
0.83,0.0634016463617493,-0.0339529543955646,13.7519502428184,-0.524786007448501,-0.056026984292905,-0.0450948877879764,-13.4175564370779,-3.05952857355441,1.75684511139113,1683.86895942021,1673.79783592919,1695.77119628162
0.84,0.083470529326035,-0.00446517989988556,12.9978954975407,-0.761756366069054,-0.0834388606838668,0.00502231274265788,-13.0004936263166,0.716048600541538,1.45723418062438,1670.74598032615,1667.9672657963,1695.77119628162
0.85,0.199780160746,0.0244949803409985,13.6364020280706,-0.758938086303501,-0.170233743683002,0.107389893385148,-12.6567917694051,5.13157572251729,1.13001075246398,1678.98599045285,1673.82988041397,1695.77119628162
0.86,0.249102322964232,0.0731722807054208,13.2925727719971,-0.642214331811856,-0.134751766414984,0.221919155139548,-10.2544111545319,8.48245141575453,0.831412279895431,1660.98004239117,1670.74598032469,1695.77119628162
0.87,0.228447201965511,0.0819463103938374,13.9841024427229,-1.10558650003104,-0.0420491153508254,0.239029692237695,-7.89103270168036,11.5978034790486,0.518547350026113,1686.92081502022,1668.11833265253,1695.77119628162
0.88,0.19088888346275,-0.0620923813279528,13.4636075912424,-0.179546733821204,-0.122604739877105,0.158940578230667,-4.69157979438088,12.6210160222362,0.342563703712428,1667.99931028093,1673.87565824808,1695.77119628162
0.89,0.0644568748492728,-0.0530252326721162,13.581267346869,-0.527604287174136,-0.0552294984937922,0.062578482814711,-0.998458070323307,13.5547877339625,0.0346997038253464,1667.99931028323,1670.79175815998,1695.77119628162
0.9,0.0352622194160201,-0.159505605872132,13.0000070386037,0.172033669377878,-0.149081388724122,0.0667847434588668,2.79698435864565,12.6967183588768,-0.203596143651202,1662.81115575489,1673.71085804347,1695.77119628162
