t,iq,id,vq,vd,ia,ib,va,vb,theta_e,omega,omega_obs,r
0,0,0,0,0,0,0,0,0,0,-0.144963141214248,0,0
0.01,0.00524682276737334,-0.0144116856786916,-0.0872065951157528,-0.0557772798034009,-0.0151096683450426,-0.00263130305294715,-0.0049110967566736,-0.103402013049052,0.52156938491557,-0.144963141214248,786.928597260349,-0.144963141214248
0.02,0.0243777743142341,-0.0532597611597824,-0.202403133368494,0.177670429029125,-0.0583242716324885,-0.00539975720310529,0.254892703667873,-0.086968496397602,0.52156938491557,-0.144963141214248,786.882819426105,-0.144963141214248
0.03,0.0439776760250027,-0.0338357321721048,-0.261409001835087,0.0609466272110082,-0.0512483780620159,0.0212719652640559,0.183087865716124,-0.196285483508915,0.52156938491557,-0.144963141214248,786.928597260349,-0.144963141214248
0.04,0.00501236956314371,-0.0142358654661376,-0.0861509744135146,-0.0564816446104751,-0.0148404111756037,-0.00274698204335517,-0.00604776204024732,-0.102837693209283,0.52156938491557,-0.144963141214248,783.922519490034,-0.144963141214248
0.05,0.0146072055911927,-0.0336599425901419,-0.143749532492838,0.0602424201716705,-0.0364623754626482,-0.00410577227521127,0.12385446453565,-0.0946210806038331,0.52156938491557,-0.144963141214248,786.928597260349,-0.144963141214248
0.06,-0.0339529543955646,0.0149002173966153,0.0894589528164431,-0.173205604196326,0.0298358292174629,-0.0220146061868041,-0.194748055179551,-0.00873387473069411,0.52156938491557,-0.144963141214248,786.928597260349,-0.144963141214248
0.07,0.00512958303817967,-0.0144116856786916,-0.086502795445643,-0.0557772798034009,-0.0150512546502947,-0.00273295439020988,-0.00526175893728616,-0.102791791768913,0.52156938491557,-0.144963141214248,786.928597260349,-0.144963141214248
0.08,-0.0630890897755192,0.0537483979032215,0.206063353103611,-0.289929774174764,0.0780355210438101,-0.0279209774414797,-0.354049530390038,0.0342097862595837,0.52156938491557,-0.144963141214248,786.928597260349,-0.144963141214248
0.09,-0.0341287089616162,0.0149002173966153,0.090162332159823,-0.173205604196326,0.02992339743041,-0.0221669921296244,-0.195098507935957,-0.0081240178899346,0.52156938491557,-0.144963141214248,786.928597260349,-0.144963141214248
0.1,0.00512958303817967,-0.0144116856786916,-0.086502795445643,-0.0557772798034009,-0.0150512546502947,-0.00273295439020988,-0.00526175893728616,-0.102791791768913,0.52156938491557,-0.144963141214248,786.882819426327,-0.144963141214248
0.11,-0.111590844340697,0.0147244890891644,0.497223268407855,-0.172501607576272,0.0683658822783851,-0.0894171866024903,-0.397302754218181,0.345164170726389,0.52156938491557,-0.144963141214248,783.876741655845,-0.144963141214248
0.12,-0.0145288291352349,0.0149002173966153,-0.0271456576207543,-0.173205604196326,0.0201579245386834,-0.00517314534881751,-0.136650802933029,-0.109834539696928,0.52156938491557,-0.144963141214248,786.882819426382,-0.144963141214248
0.13,0.0437435816572159,0.0149002173966153,-0.260355036127668,-0.173205604196326,-0.00887580694181704,0.0453512675214211,-0.0204562199009282,-0.312036006302828,0.52156938491557,-0.144963141214248,783.844697171609,-0.144963141214248
0.14,0.0635191372871738,-0.0338358284447548,-0.378717700908682,0.06094720573721,-0.0609848278746448,0.0382151129443531,0.241536425722629,-0.297996332054387,0.52156938491557,-0.144963141214248,783.876741655845,-0.144963141214248
0.15,-0.014528802876634,0.0149002173966153,-0.0271458152532802,-0.173205604196326,0.0201579114555596,-0.00517312258160443,-0.136650724393968,-0.109834676370367,0.52156938491557,-0.144963141214248,783.876741655845,-0.144963141214248
0.16,-0.0235382235892128,-0.0146459025688429,0.0279929904857751,-0.0543698124913504,-0.000970839617907957,-0.0277057377131184,-0.0610879792800988,-0.0028182998696931,0.52156938491557,-0.144963141214248,783.876741655845,-0.144963141214248
0.17,-0.0338944045494601,0.014724567858302,0.089107473308117,-0.0557772798034009,0.0296543623764583,-0.022051357110661,-0.09275807698692,0.0494690397654157,0.52156938491557,-0.144963141214248,781.772487216857,-0.144963141214248
0.18,-0.0336016815775399,0.014724580987603,0.0873502333990187,-0.172501975736594,0.029508527036902,-0.0217975485367344,-0.193087330887833,-0.0102116383848912,0.52156938491557,-0.144963141214248,783.876741655845,-0.144963141214248
0.19,-0.0337187900137819,0.0147245941102783,0.0884046718842229,-0.172502028308198,0.0295668866939193,-0.0218990794997165,-0.193612741447912,-0.00929742601065776,0.52156938491557,-0.144963141214248,783.876741655845,-0.144963141214248
0.2,0.00489543616207739,-0.0142360755216149,-0.144102509416803,-0.0557772798034009,-0.0147823322323786,-0.00284847244074378,0.0234368070916474,-0.152732950720647,0.52156938491557,-0.144963141214248,783.922519490284,-0.144963141214248
0.21,0.0151343467669829,-0.0338358897103807,-0.146210834832934,0.0609475738975328,-0.0368775719504451,-0.00373638482976278,0.125692182724426,-0.0964037872104007,0.52156938491557,-0.144963141214248,783.922519490256,-0.144963141214248
0.22,-0.0148213814418011,-0.033660314564772,-0.0257407903909389,0.0602442084018272,-0.0218001555828182,-0.0296216701252257,0.0650591661317045,0.00769791128555823,0.52156938491557,-0.144963141214248,786.882819425966,-0.144963141214248
0.23,-0.0820453195213161,0.0146075994479897,0.378863992472748,-0.171798873204915,0.0535437288304411,-0.0638583238107606,-0.337721957233328,0.242892274947884,0.52156938491557,-0.144963141214248,783.876741655845,-0.144963141214248
0.24,0.0444461973250879,0.0147246597567409,-0.263518430558869,-0.172502291298769,-0.00937809440369631,0.0458729921300955,-0.0182702863868807,-0.314428370830108,0.52156938491557,-0.144963141214248,783.876741655845,-0.144963141214248
0.25,-0.0248844980794256,-0.0142361411681174,0.0343177301786881,-0.0564805401028137,5.52089945200455e-05,-0.0286688491570629,-0.0660693085794847,0.00161383975400816,0.52156938491557,-0.144963141214248,783.876741655845,-0.144963141214248
0.26,-0.0629723051687481,0.0149002173966153,0.205361812699673,-0.173205604196326,0.0442944731388195,-0.0471754951864496,-0.252495666200095,0.0917583456176075,0.52156938491557,-0.144963141214248,783.876741655845,-0.144963141214248
0.27,0.0240272848068558,-0.0142361674200929,-0.200649676293977,-0.0564804349330645,-0.0243146922607487,0.0137395275853199,0.0510012880727578,-0.202111852057284,0.52156938491557,-0.144963141214248,781.740442732692,-0.144963141214248
0.28,0.199255232591746,-0.10164537438726,-1.07729793917414,0.410420505109917,-0.18740765368266,0.122117980619879,0.892604809612621,-0.729570075194943,0.52156938491557,-0.144963141214248,781.772487216644,-0.144963141214248
0.29,-0.082513639521015,0.0149002173966153,0.322669960086106,-0.173205604196326,0.0540307762475953,-0.0641185807980238,-0.310943449728795,0.193469004074916,0.52156938491557,-0.144963141214248,783.876741655845,-0.144963141214248
0.3,-0.0241238270802168,-0.0142362068079552,0.0304538987312229,-0.0564802771387836,-0.000323845752828067,-0.0280093509600534,-0.0641439595282081,-0.00173611913444398,0.52156938491557,-0.144963141214248,783.876741655845,-0.144963141214248
0.31,-0.0144701742591703,0.0147247516551791,-0.0274977676325098,-0.172502659459088,0.0199765647263319,-0.00520971363244894,-0.135865887103393,-0.109789596350646,0.52156938491557,-0.144963141214248,783.876741655845,-0.144963141214248
0.32,4.48008011920174,0.0149002173966153,5.2520568248653,-0.0557772798034009,-2.21924263468404,3.8918250242458,-2.66515353964307,4.52594394648062,0.52156938491557,-0.144963141214248,702.431871138228,1840.73433749556
0.33,4.65612697713642,0.0537488355199099,4.8976758352537,-1.23006052373268,-2.27327323916642,4.06382038784037,-3.50673480051415,3.63360544337666,0.52156938491557,-0.144963125867196,664.2089056199,1840.73433749556
0.34,4.5095089731794,0.0449723013372434,7.42084743082712,-1.11755170793938,2.12481454739926,-3.97779547315264,4.54195365746429,-5.97398990499469,-2.64101260134712,223.861238240094,807.157822135119,1840.73433749556
0.35,4.49061087756057,0.0732901392394152,8.70877656445315,-1.81720214569732,-2.59909301388072,3.66274118705806,-6.61969143602483,5.94345843593734,0.633461358260622,435.965202752199,646.518824607754,1840.73433749556
0.36,4.50945048897758,-0.160854267654162,9.82636000369712,-0.877072868780688,3.91113937901304,2.25033476751708,8.27644019876682,5.36909167137665,-1.08434275122761,694.762557998133,475.733933125023,1840.73433749556
0.37,4.26652925909454,0.149993691015832,12.3418102411565,-3.10188742226889,3.4853386805722,-2.46539739347667,12.021249770323,-4.1751095277437,-2.15130496986525,964.851778981277,736.534831586606,1840.73433749556
0.38,4.62564584946795,0.0346753179041506,11.2979717708544,-4.63829223743526,3.93184093932353,-2.43688915017309,12.0613155369293,-1.91900717390592,-2.11813929305894,726.807041847259,966.640166382949,1840.73433749556
0.39,4.55812828692676,0.0249631196112141,12.8774162661109,-4.87455372378608,2.80419904355233,3.59355316665314,4.00713323945687,13.1731547815249,-0.657162084830509,917.853202691675,1123.62914460807,1840.73433749556
0.4,4.5773773184225,0.00524648142777816,14.1692058161058,-5.10589770007993,-4.00170034201955,-2.22234223589815,-9.89525011009406,-11.3543212056701,2.07888352646658,1115.91863142424,1262.40159672738,1840.73433749556
0.41,4.50003050164717,-0.00475794095698764,15.7490020010873,-5.57490852627101,2.29118674045562,3.8730815217495,3.23771392123772,16.3898711914024,-0.535252911308033,1285.90698859484,1411.70600253964,1840.73433749556
0.42,4.50974266492864,0.00331792933829041,16.9810851404843,-5.68250372408327,4.20768758283202,-1.62269994694458,17.8889891567354,-0.79508997780134,-1.93813649424434,1482.75167508456,1576.55656080097,1840.73433749556
0.43,3.36406566783491,0.0344999221811933,16.9227820734019,-5.22262355309222,2.76430609655248,-1.91748269006499,16.9356892468243,-5.18061575646799,-2.16699807140977,1626.79925961849,1725.78772207788,1840.73433749556
0.44,0.952881115806445,-0.132126751510214,15.4564341974898,-2.51755852596642,0.961377392505573,-0.034545745097807,15.6589507514606,-0.191625667204161,-1.7444961899588,1756.8083083717,1814.72032032213,1840.73433749556
0.45,0.286666732672361,0.189194098347419,14.5773269703379,-2.16176282629352,0.342812413897689,-0.0212572657738277,11.5633000674971,9.1357414404255,-1.04936692204809,1814.79356485655,1824.91046618657,1840.73433749556
0.46,-0.169047570199485,-0.0821050509267036,13.6409685926949,-0.176014227470142,-0.110162444219037,-0.152258189473388,2.19096264947174,13.4650171861672,-0.174204174717853,1806.85874028633,1806.85874028556,1840.73433749556
0.47,0.0431605863561646,0.00442856029434132,14.1671001965813,-0.638706282446182,-0.0152343366252773,0.0406246642875519,-6.87444354746538,12.4038985648836,0.461021315294807,1819.9817193847,1796.93868364416,1840.73433749556
0.48,0.17017891179164,0.0828273444212439,14.5759242310139,-0.87637144930958,-0.115666605251462,0.149808102024105,-13.4478976641168,5.69031128505862,1.11045190092032,1814.79356485707,1802.00323801897,1840.73433749556
0.49,0.209261528001184,0.0156011351060457,15.2797713028785,-0.646428891888104,-0.206525765133222,-0.0371603398009839,-14.6340287770193,-4.4423510817931,1.82323782651107,1806.85874028544,1802.04901585328,1840.73433749556
0.5,0.123370087695066,-0.120895771265826,14.5235814990491,-0.295547546570335,0.0206039099794919,-0.17149765287433,-8.62098778617429,-11.6918919556433,2.4858917300586,1790.98909114214,1801.97577131836,1840.73433749556
0.51,0.189486812562322,-0.0350041734478575,14.8663893572681,-0.871458514865517,0.0527974971525253,-0.185318559751109,2.27588438169066,-14.7169739670288,-3.04671688110364,1819.98171938474,1803.8984403496,1840.73433749556
0.52,0.12266917874961,0.112314577570768,15.0469086751975,-1.23006052373268,0.000520408741760736,-0.166319033561242,11.1003699030431,-10.2325117926829,-2.39710221222719,1798.92391571438,1811.71424255222,1840.73433749556
0.53,0.0539243625247505,-0.0622721882755488,14.578728895294,-0.295546442196196,0.0615903883195914,0.0547017949702572,14.4926058085553,-1.60967722845411,-1.70168147945756,1806.85874028529,1809.91059589007,1840.73433749556
0.54,0.0158344242633964,-0.101938679400397,14.8094888456976,-0.174609074316306,-0.0381027888165229,0.0958665782953248,12.6709948157248,7.66794226501154,-1.03838328431524,1806.85874028538,1809.86481805588,1840.73433749556
0.55,0.101843406225949,-0.10182194292995,14.5808315199872,-0.410167300367719,-0.0642847982917802,0.128869128042052,4.2332591571578,13.9588109069821,-0.322575324339016,1811.74170925232,1803.77941798056,1840.73433749556
0.56,-0.0430814178146228,-0.0726852167714648,14.345164201754,-0.526893837102509,-0.0536810996106373,-0.0652494355732351,-5.37821483467367,13.3092508535589,0.347319189495742,1806.85874028628,1803.77941798058,1840.73433749556
0.57,0.247994446802105,-0.00539992371861322,13.8183300328656,-0.872864509695007,-0.20971348353073,0.132478902645875,-12.0012365047412,6.9049590662616,0.985612734712978,1814.79356485657,1796.89290580914,1840.73433749556
0.58,0.393620140438041,0.20885364397935,14.1692020331385,-1.81018689902334,-0.404905965728734,0.186031767392555,-14.0426878125926,-2.61648272750945,1.6279407725252,1814.79356485705,1801.97577131836,1840.73433749556
0.59,0.327385418718916,0.0546247813717126,14.9285493467583,-0.881282911032863,-0.271113449063891,-0.191474742110673,-9.99046002018413,-11.1278458720895,2.35103536361879,1796.78761679177,1802.00323801879,1840.73433749556
0.6,0.0862711032181564,0.0447373755270677,14.5727720277318,-0.646425999257079,-0.0551223747903552,-0.0800353660390161,-1.1715185295226,-14.5399826505998,3.016864704301,1790.98909114331,1809.81904022202,1840.73433749556
0.61,0.0446206215464461,-0.149624919695057,13.7617769026519,0.288792657479086,0.139018541414815,0.0710806696918417,9.29654968379539,-10.1510624416414,-2.37912340913128,1806.85874028477,1806.85874028556,1840.73433749556
0.62,0.169946602893189,0.110039032504176,15.0381507161724,-1.33416387639675,0.115051140762163,-0.166594332192651,14.4080956249738,-4.50918514512424,-1.96258889427925,1827.91654395357,1811.66846471733,1840.73433749556
0.63,0.0445622117328848,-0.0626230234924399,14.8705960779039,-0.527594362485231,0.0169240594108774,0.0749733952740452,13.513455215684,6.22892540147976,-1.17434415094115,1806.8587402859,1806.85874028556,1840.73433749556
0.64,0.200133861037471,-0.237911048414446,14.6946343033697,0.408326344926476,-0.124530262398829,0.284863902659332,6.88048674598778,12.9906855035451,-0.459303204763913,1806.85874028526,1806.85874028556,1840.73433749556
0.65,0.0739907418722449,-0.101822336788971,14.8719968994722,-0.292036241603424,-0.117940208439526,0.0439604980091545,-4.27130085408638,14.2484232797248,0.27161492707749,1801.97577131908,1803.80688468106,1840.73433749556
0.66,0.316506503395864,0.150114042231489,14.579077379931,-1.45860723733807,-0.115988283587133,0.330540936099394,-11.2933252101649,9.33476502223204,0.780344501031083,1806.85874028491,1809.91059589007,1840.73433749556
0.67,0.113073209300826,0.0244958586351055,14.1122970556607,-0.994502823609326,-0.113169687943923,0.024046194762053,-14.1082323746465,-1.05059188858226,1.57477137561573,1803.80688468201,1801.97577131836,1840.73433749556
0.68,0.228862620001878,0.101436086697374,14.985452800655,-1.57533550951796,-0.243091128566166,-0.0597836242714435,-10.8897750510298,-10.4143303647511,2.22914153011708,1814.79356485646,1806.85874028556,1840.73433749556
0.69,0.0652114463666684,0.0347330975490615,14.6935838316632,-1.2328643082975,-0.046510215178631,-0.0574083677404516,-1.58638840958164,-14.6596293280128,2.95008848256622,1801.97577131905,1806.8129624511,1840.73433749556
0.7,0.355356154264144,0.00565444423431412,14.6953343201126,-0.998007449119065,0.218485843729556,-0.280310372984634,9.99462429298817,-10.8192585185116,-2.46360230849945,1809.91059588947,1806.85874028556,1840.73433749556
0.71,-0.0423823774663162,-0.180220902100863,14.11299581133,0.061651044589528,-0.0282035999617186,0.18297649144889,14.0652379137472,-1.16169447429462,-1.64883422793539,1801.97577131919,1806.81296245115,1840.73433749556
0.72,0.169306164923734,0.0623539694012637,15.156864729168,-1.10492352752541,0.180289687681828,0.00694431399527753,13.5893040533843,6.80310368616047,-1.17942178219026,1830.96839956035,1809.98384042508,1840.73433749556
0.73,0.0845190583146518,0.170763928880544,14.8115918907442,-1.46421643676992,0.19053547609817,-0.000151568989642928,5.26902547557207,13.9199337156984,-0.46039236423716,1798.92391571405,1814.79356485727,1840.73433749556
0.74,0.142093365271121,-0.0136537804143812,14.6384299992236,-0.647123000670852,-0.0584744084658625,0.130221709896022,-5.30459909592257,13.6588297248228,0.326256990424554,1803.80688468111,1809.91059589007,1840.73433749556
0.75,0.0737572076701695,-0.0632648574708714,14.5752264472251,-0.407361622403159,-0.0952659780102825,-0.0191562341772741,-12.9156761706494,6.76671844650086,1.06025851777717,1814.79356485727,1814.67454248809,1840.73433749556
0.76,0.0929487089554967,-0.0633231491251731,14.9809049773312,-0.524789999394229,-0.0783454645367474,-0.0806924525475822,-14.570626845386,-3.5213281323681,1.77290638088624,1822.72838942881,1803.7794179805,1840.73433749556
0.77,0.170647494352903,-0.160038604609334,14.9299494327882,-0.177408756492735,0.00663163737878694,-0.233856673370471,-9.76753542870037,-11.2929232522662,2.41661504355111,1809.91059589019,1806.81296245132,1840.73433749556
0.78,0.0450280810920116,-0.121247551705701,14.2812575068342,-0.409463198551364,0.1272715846544,-0.0230312965551905,2.911554530966,-13.9873094732578,-2.96502991135321,1816.92986378037,1803.89844034949,1840.73433749556
0.79,0.170822417456576,0.0826535941306474,14.984404982296,-1.22655842280045,0.0674445225698982,-0.177378553674735,11.7363761271943,-9.39650539504042,-2.32759542164393,1814.79356485756,1811.78748708696,1840.73433749556
0.8,0.190655087551322,0.0835277544999373,14.4034632494471,-0.997304977711723,0.177906230218141,-0.108053789524356,14.4086072817013,-0.920003803496267,-1.70369105559018,1806.85874028578,1811.71424255227,1840.73433749556
0.81,0.180884461945753,0.228921856928044,14.753987369261,-1.46211591255791,0.271435350571825,-0.106991848347148,12.0201503053044,8.67951109636713,-1.04418190862451,1806.8587402853,1814.74778702314,1840.73433749556
0.82,-0.00277655858714486,-0.256813051906474,13.5826578284502,0.641089779950096,-0.255665733481336,0.0244066718451328,2.07436997618612,13.4386226598046,-0.105985967089252,1806.85874028587,1809.81904022185,1840.73433749556
0.83,0.296384261103584,0.0813720441965086,15.0413111157056,-1.22025758624475,-0.0345297903758937,0.305405850276698,-6.71951461913018,13.512149789709,0.380530887119911,1824.86468835118,1806.90451811964,1840.73433749556
0.84,0.268179374330227,0.0151332439768357,14.2306482402462,-0.645019373435264,-0.242904309762108,0.114659008317743,-13.4328198087379,4.74201975066635,1.18614082296156,1806.85874028704,1811.74170925277,1840.73433749556
0.85,0.160411191937961,0.0148419651279936,14.9875536390063,-0.642918901768038,-0.156557572742063,-0.0379705260028299,-13.9694263021923,-5.46765375494445,1.90099768582832,1816.92986377907,1811.78748708679,1840.73433749556
0.86,-0.00341784558430142,0.0053043267147446,14.3462068974426,-0.644319005820276,-0.00294019201398105,0.0055832625995742,-6.48856024884549,-12.8112210668068,2.62789666508044,1803.80688468347,1816.85204146147,1840.73433749556
0.87,0.219384616734706,0.0828287097796253,14.6928854962406,-1.1112322004838,-0.0294356806714798,-0.232645107249213,4.5038905887827,-14.0296361596908,-2.90644539647805,1816.92986377923,1809.86481805542,1840.73433749556
0.88,0.113130713234865,-0.130261558636204,14.4052098498542,-0.180205072494624,0.160226981895458,0.0639839527384426,12.8881379180067,-6.43727004971266,-2.04653088358528,1803.80688468249,1814.67454248725,1840.73433749556
0.89,0.131332543017409,0.043688007605929,14.5762770503186,-1.10983262241301,0.134104335908808,-0.0342477145872941,14.4606063046637,2.14253270662079,-1.49969606519002,1822.72838942819,1803.92590705103,1840.73433749556
