t,iq,id,vq,vd,ia,ib,va,vb,theta_e,omega,omega_obs,r
0,0,0,0,0,0,0,0,0,0,-0.144963141214248,0,0
0.01,0.00483646400778204,-0.00487554654457405,-0.0847431779651559,-0.0543681399123945,-0.00485116664870183,-0.00486091764519849,0.0845785936042561,-0.0546238258738243,1.5677762099521,-0.144963141214248,689.879589037124,-0.144963141214248
0.02,-0.0242409438455189,-0.0047582989370359,0.0311569602390483,-0.0550727098301295,0.02422646269658,-0.00483148760807839,-0.0313231439118824,-0.0549783611509727,1.5677762099521,-0.144963141214248,689.879589037124,-0.144963141214248
0.03,-0.0436063411414857,-0.0434890935289712,0.205711014499674,0.177670229087179,0.0434748003284317,-0.0436205912399434,-0.205173492308806,0.178290689168515,1.5677762099521,-0.144963141214248,689.879589037124,-0.144963141214248
0.04,-0.0724492537877951,-0.0917560272880615,0.320907305805194,0.409708598234346,0.0721718098772166,-0.0919744137091546,-0.31966847633443,0.410675905823954,1.5677762099521,-0.144963141214248,689.879589037124,-0.144963141214248
0.05,-0.0241823200371289,-0.00487554654599597,0.0894589528164431,-0.0543681399038498,0.0241674850546065,-0.00494855763184299,-0.0896227427198931,-0.0540977158758392,1.5677762099521,-0.144963141214248,689.879589037124,-0.144963141214248
0.06,-0.0340115781998934,-0.0242995676457867,0.148464792389393,0.0623556145139912,0.0339380356664534,-0.0244021756104281,-0.148275794353019,0.0628037104765672,1.5677762099521,-0.144963141214248,689.879589037124,-0.144963141214248
0.07,-0.0234202105511629,-0.00411343706074102,0.0855877943241594,-0.0585955596110487,0.023407680700472,-0.00418414996603033,-0.0857643691642696,-0.0583368076368724,1.5677762099521,-0.144963141214248,689.879589037124,-0.144963141214248
0.08,0.0143139793515487,-0.0247099342776889,-0.0836874075524001,0.063764754369327,-0.0143885408471887,-0.024666591762403,0.0838796026077388,0.0635117182021549,1.5677762099521,-0.144963141214248,689.879589037124,-0.144963141214248
0.09,-0.00364444660481917,-0.0235374581624346,0.0258781077239733,0.0581281948192939,0.00357334421837085,-0.0235483574565355,-0.0257024360322433,0.0582060845129768,1.5677762099521,-0.144963141214248,689.879589037124,-0.144963141214248
0.1,0.0146070983731932,0.0243777327316288,-0.085095101494753,-0.171796464338854,-0.0145334082675087,0.0244217366325325,0.0845758688075952,-0.172052677611172,1.5677762099521,-0.144963141214248,689.879589037124,-0.144963141214248
0.11,0.0632257749260799,0.0244949803341464,-0.376956987870994,-0.172501034240143,-0.0631515089915981,0.024685817561054,0.376434296253092,-0.173638699958075,1.5677762099521,-0.144963141214248,689.879589037124,-0.144963141214248
0.12,0.00524683064790378,-0.00434793229594569,-0.0285527263358586,-0.0571864196651428,-0.0052599379630698,-0.00433206644946347,0.0283798867130797,-0.0572723913022761,1.5677762099521,-0.144963141214248,692.931444641628,-0.144963141214248
0.13,0.0243191089121753,-0.0047582989345478,-0.201699086605369,-0.0550727098450811,-0.024333368600587,-0.00468483079531508,0.201531840980983,-0.0556816125658744,1.5677762099521,-0.144963141214248,692.931444641628,-0.144963141214248
0.14,0.0146070983714155,-0.0241823200371289,-0.143749017573574,0.061651044589528,-0.0146800650760396,-0.0241380946757108,0.143934555074171,0.0612166252577538,1.5677762099521,-0.144963141214248,692.931444641628,-0.144963141214248
0.15,0.0147829697819682,-0.0241823200371289,-0.144452864525871,0.061651044589528,-0.014855935684522,-0.0241375635243091,0.144638398816538,0.0612144995609499,1.5677762099521,-0.144963141214248,692.931444641628,-0.144963141214248
0.16,0.0151933364227032,-0.0236547057901707,-0.146564405496694,0.0588327648489523,-0.0152647069995083,-0.0236087123302423,0.146741418636401,0.0583898555825223,1.5677762099521,-0.144963141214248,692.931444641628,-0.144963141214248
0.17,-0.0336598353580573,-0.0241823200371289,0.0880512587979096,0.061651044589528,0.0335866485296972,-0.0242838662336177,-0.0878646641607005,0.0619166881123637,1.5677762099521,-0.144963141214248,692.931444641628,-0.144963141214248
0.18,0.0047192164004132,-0.00475829893104637,-0.0847431779856959,-0.0550727098661221,-0.0047335654750924,-0.00474402466731984,0.0845764657444466,-0.0553283926143879,1.5677762099521,-0.144963141214248,692.931444641628,-0.144963141214248
0.19,0.160580375657965,0.0829429150595901,-0.844780622512946,-0.523376867480927,-0.160329146409268,0.0834275075542304,0.84319611295946,-0.525925812902889,1.5677762099521,-0.144963141214248,692.931444641628,-0.144963141214248
0.2,-0.0337184591732721,-0.0240650724259827,0.147057098424633,0.0609464746501111,0.0336456261785021,-0.0241667962076876,-0.146872362568683,0.0613903256453496,1.5677762099521,-0.144963141214248,692.931444641628,-0.144963141214248
0.21,-0.00446517989668579,-0.0240650724214155,0.029749266208783,0.0609464746226656,0.00439248031295504,-0.0240784480159757,-0.0295650653410807,0.0610360427966123,1.5677762099521,-0.144963141214248,692.931444641628,-0.144963141214248
0.22,0.00489508781517671,-0.00475829893175743,-0.0267931088759099,-0.0550727098618492,-0.00490943608778779,-0.00474349351661645,0.0266266609188267,-0.0551533768964114,1.5677762099521,-0.144963141214248,692.931444641628,-0.144963141214248
0.23,0.00512958303817967,-0.00464105132025594,-0.086502795445643,-0.0557772798034009,-0.00514357614041573,-0.00462553823793254,0.0863339472992716,-0.0560382735806896,1.5677762099521,-0.144963141214248,689.925366871469,-0.144963141214248
0.24,-0.0241823200371289,-0.00464105132025594,0.0308050367290811,-0.0557772798034009,0.0241681932565107,-0.00471406347553002,-0.0309733498872882,-0.055683990759522,1.5677762099521,-0.144963141214248,692.931444641628,-0.144963141214248
0.25,-0.0338943305873523,-0.0242995676535534,0.0891070293075428,0.0623556145606632,0.0338207885886023,-0.0244018215172436,-0.0889183019750382,0.0626244434157239,1.5677762099521,-0.144963141214248,692.931444641628,-0.144963141214248
0.26,-0.0241823200371289,-0.00464105132025594,0.0308050367290811,-0.0557772798034009,0.0241681932565107,-0.00471406347553002,-0.0309733498872882,-0.055683990759522,1.5677762099521,-0.144963141214248,692.931444641628,-0.144963141214248
0.27,4.50898165561832,0.0633430225300624,4.1991042375414,-0.405948543062364,-4.5087697891463,0.0769603643917642,-4.20031109748752,-0.393264925560141,1.5677762099521,-0.144963141214248,762.745693449994,560.786096966608
0.28,4.558421065488,0.0637533891887934,5.60187129453693,-0.995908444894463,-4.55820773419174,0.0775200417464605,-5.60485350222209,-0.97898562287589,1.5677762099521,-0.144963141214248,718.167238643501,560.786096966608
0.29,4.47972837637683,-0.00417206088704801,6.54420511030237,-1.58445920667844,2.33364998485312,-3.82388042182321,4.75716035716225,-4.76513975026752,-2.59457758581958,187.849342096228,580.069246604543,560.786096966608
0.3,3.1518014607124,-0.00469967512669081,7.06645957922661,-1.2293559537829,-1.04645044584378,2.97301463149586,-3.49646406559657,6.26265966534482,0.336949163017459,365.772523838807,311.228234542297,560.786096966608
0.31,1.49997801607452,0.0632843987541622,5.71988297371756,-1.22794681395929,0.759629365981462,-1.29495258220953,4.13155415045919,-4.14188060097828,-2.5689133040301,475.944511161399,286.537196778838,560.786096966608
0.32,0.601900388388724,-0.0244754390701928,5.54462507244036,-0.289224788685431,-0.580272162513653,0.161763228429405,-5.3649917825645,1.42946890324334,1.25828614118991,516.922976187867,490.674292239699,560.786096966608
0.33,0.0150174650056289,-0.0540804611575037,4.48744688890859,0.182602218615463,-0.0173895977134365,0.0533649925097756,3.84003760764638,2.32908443876132,-0.984922422308939,564.753509252463,600.692160851101,560.786096966608
0.34,1.39285278097,0.0344414861134865,6.53998202842474,-1.34819341807965,-0.403198121782902,-1.33366276097532,-0.437508048514884,-6.66315069108875,2.87272747081304,477.775624524101,608.626985423933,560.786096966608
0.35,0.385363589751586,-0.0435477173399461,5.36936717114215,-0.526195147303848,-0.3710426142898,0.112822331002065,-5.13788419814891,1.64594383804456,1.16308438809279,550.670607104185,616.894462255469,560.786096966608
0.36,-0.170683211606695,-0.0339529543955646,4.48709496536283,-0.408062252982184,-0.122912248162403,-0.123199598571696,2.14893926100187,3.96012576606073,-0.587870057771656,577.87648835183,618.771353452183,560.786096966608
0.37,-0.522777791341661,-0.0143530618738295,3.49244185634977,0.061651044589528,-0.347452562523221,0.390869986442124,2.34612681010234,-2.58778669178931,-2.38748385943484,598.934292022907,611.784130045593,560.786096966608
0.38,-0.552148318235533,-0.0243581914585667,3.14087028336924,0.297212263333705,0.518940334255443,0.19016313077016,-3.01306793618555,-0.935319666402067,1.96613249793691,600.765405385609,587.993389679948,560.786096966608
0.39,-0.522308800902231,0.0631671511383938,3.49033031541384,0.0644693243215643,-0.0454814382348477,-0.524145028841214,0.780135273633365,3.40263882292969,-0.206909643035135,592.830580813899,556.850729164484,560.786096966608
0.4,-0.0245340628810719,-0.023830577193186,2.84830454994384,0.529250632279866,0.00660566041384429,0.0335586337819309,1.10887749085011,-2.67644087386315,-2.56509357532645,571.772777142822,527.871834272532,560.786096966608
0.41,-0.0334253401486039,-0.0141185666526023,4.60369895059773,0.295098553505091,0.0307582749236245,-0.0192487872889846,-4.49837236420177,1.02263055743568,1.41127471395249,558.954983603906,511.956407294545,560.786096966608
0.42,0.220259410346269,-0.0532011040749298,4.89837622497082,0.53065977219865,0.138165049836801,0.1795967269314,4.14770287184132,2.65937028676125,-0.892742703722072,548.883860109043,522.851531801736,560.786096966608
0.43,0.513378441093023,0.0341483670865105,5.367607553695,-0.289929358651976,-0.209023454228322,-0.47014118128094,-1.57812376725658,-5.13855964825863,2.78965987607894,530.87791204247,530.832134208659,560.786096966608
0.44,0.444925376783144,-0.00475829893561412,5.66122905761008,-0.289929358624527,-0.248354042634178,0.369190332784655,-3.3517424391334,4.57158573116958,0.581473162736269,532.709025405172,545.832004504538,560.786096966608
0.45,0.376706807686602,-0.0140599428452529,5.66017328714355,-0.175319314014577,0.376682922822195,-0.0146859321927659,5.65707600954442,-0.256494687268654,-1.64707009669667,537.897179932828,564.707731418708,560.786096966608
0.46,0.317789882508123,0.0534551405596449,5.25065164499748,-0.522672297507647,-0.216755814311844,-0.238463369176038,-2.39854969139975,-4.69994557474689,2.57049335240373,545.832004504538,577.87648835183,560.786096966608
0.47,0.0148415935908643,-0.0339529543955646,4.84042615589272,-0.172501034254771,-0.0365785311174675,-0.00592343429035302,-2.76776964959855,3.97478718225649,0.572637163867276,564.753509252463,582.713679485337,560.786096966608
0.48,-0.0438994601781032,0.0343828623054522,4.13693108635222,-0.289929358620258,-0.0412609230836124,-0.0375083997330301,4.1045478001028,0.592406281945571,-1.49742570413112,569.94166378012,579.707601714532,560.786096966608
0.49,-0.171093578249233,-0.0725665013818801,3.72740944421361,0.411822307937251,0.124940821235205,0.137581615159895,-1.61826999860377,-3.38295447645199,2.80544502015433,577.87648835183,569.969130480306,560.786096966608
0.5,-0.0828061261877426,0.0146657221637663,3.90196349849494,-0.0550727098322656,0.0522065306490501,-0.0659273547049701,-1.90024103932482,3.40843602542586,0.49447845742478,569.94166378012,558.954983603906,560.786096966608
0.51,-0.0638510955316675,-0.0540804611732319,4.13939455081317,0.299325973157402,-0.0622444031956454,0.0559222044640722,4.12888677513399,-0.420091994248885,-1.60000612980428,566.889808175616,548.911326809196,560.786096966608
0.52,0.00559857350530083,-0.0141185666367408,4.48920650638849,0.294393983455566,0.0074840373858965,-0.013216169398765,-3.04514684984478,-3.31160437512938,2.46357162852199,556.822932524409,545.799960020575,560.786096966608
0.53,0.151923593639746,-0.0142944380661765,4.78353185729119,0.178374799034815,-0.0272652427443974,0.150138988281297,-0.232342923819569,4.78121442359589,0.0858288442576657,548.885748040573,545.877782339439,560.786096966608
0.54,0.161283861360697,-0.0144703094828431,5.25029972153521,-0.0557772798034009,0.14237888014158,-0.0771370746241732,4.40522610732389,-2.85705113959253,-2.15678144829952,553.766829076249,543.695705581385,560.786096966608
0.55,0.171523486163764,-0.0723906299585175,5.30824979059868,0.292984843626484,-0.135532197941671,-0.127639072907404,-5.0774492227668,-1.5757110611437,1.92684605081208,550.714973471745,556.772906845908,560.786096966608
0.56,0.27859009746572,-0.140374703860426,5.25170741547544,0.409004028297023,-0.042041611583215,0.309111634826882,2.09627845100849,4.832528502633,-0.3315647260566,545.832004504972,556.818684680753,560.786096966608
0.57,0.161576980386378,0.0246122279484376,5.13299188933092,-0.290633928589255,0.0769630086021394,-0.144185913536215,3.3042899891865,-3.93874872056421,-2.50012750640815,553.766829076249,561.701653647959,560.786096966608
0.58,0.102601431404511,0.0144312269605653,5.01779559810142,-0.171091894416542,-0.103537413095594,0.00391383792641864,-4.97432626093203,-0.680898928228658,1.67274971880186,556.818684680753,569.94166378012,560.786096966608
0.59,0.0246708517550509,-0.0143530618719014,4.89908007198009,0.0609464746354844,-0.00371313451533315,0.0282997163146448,1.94799852940882,4.49555355366433,-0.396454093739069,561.701653647959,564.785553736777,560.786096966608
0.6,-0.189227875646221,0.131502967846317,5.65665405228769,-0.522672297660178,-0.208531137713021,0.0980560252003127,3.28250088331813,-4.63638968908135,-2.6176647012323,561.701653647959,566.935586009649,560.786096966608
0.61,0.179769901543694,0.0923031827735158,3.61467661758246,-0.638691482030948,-0.182378310561779,0.0870358942493368,-3.59457256066105,-0.743546881547458,1.5998834075727,564.753509252463,558.922939119631,560.786096966608
0.62,0.00501233542845557,-0.0336012115663922,4.43020066676998,0.176965659189844,-0.0248863976693816,0.0231264380356812,2.64995043234878,3.55468106846116,-0.60067918837565,564.753509252463,558.922939120122,560.786096966608
0.63,0.0250812184050724,0.0150760888180531,4.95703014106245,-0.173910174154646,-0.00489041556954551,-0.0288520329663252,1.96979074953434,-4.55217716824873,-2.76827553019934,556.818684680986,550.760751306368,560.786096966608
0.64,0.14144947361596,-0.00469967512529589,4.95738206457759,-0.0550727098703918,-0.13590837738697,0.0394835850519758,-4.72911721983678,1.48799202236145,1.25484991929827,558.954983603906,550.687506771392,560.786096966608
0.65,0.0254915850575845,-0.12089205889698,5.07398604973147,0.526432352438035,-0.0559751846924293,0.110143041140815,4.28194277908831,2.77262177210965,-0.892788724558006,553.76682907672,556.772906846186,560.786096966608
0.66,0.141801216445844,0.0149002173966153,5.01568405717295,-0.0557772798034009,-0.0170579051881885,-0.141557865675413,-0.0206103840275855,-5.01595184171374,3.12636359459098,556.818684680753,556.850729164459,560.786096966608
0.67,0.0931239160716019,-0.0534942231124358,4.89872814847545,0.296507693375386,-0.107393022856819,-0.00065900879249578,-4.11654455294047,2.67198713106045,1.0555183725264,558.954983603906,558.877161285236,560.786096966608
0.68,0.122435819144803,0.0048364640112009,5.19234965241689,-0.172501034259041,0.118375099407913,0.0316426458115806,4.90830210399222,1.70259272162187,-1.27011349389148,553.766829076748,556.818684680753,560.786096966608
0.69,0.142035711671639,-0.0437822125616798,4.83972230888132,0.179079368982457,0.0120750528241594,-0.14813918666632,-1.22003878425632,-4.68684188045522,2.92391797178514,556.818684680753,561.660453596948,560.786096966608
0.7,0.151454603192421,0.0149002173966153,4.72417409419718,-0.173205604196326,-0.0843022590879741,0.126702969260015,-3.12355217256057,3.54841413576557,0.685158088501917,556.818684680753,561.701653647959,560.786096966608
0.71,0.248516084881225,0.12167370964513,4.19980808451969,-0.639396051933742,0.265100338529129,-0.0792877454291715,4.03817320646768,1.3192317509035,-1.40612038123191,556.818684680753,556.850729164834,560.786096966608
0.72,-0.00440655609725407,0.179945772986514,4.89802430149772,-0.989567315414434,-0.162961793700364,0.0764418258959871,-1.06497998370064,-4.8821822133259,2.72747039708537,561.701653647959,564.707731418763,560.786096966608
0.73,0.131913334465705,-0.0531424802642297,4.48955842989205,0.294393983468394,-0.11022782634226,0.0898614339878657,-1.90982015167533,4.07374394153241,0.503866706347561,558.954983603906,558.954983603906,560.786096966608
0.74,-0.0240064486193438,-0.121595544591843,4.83901846191196,0.530659772217553,-0.0303459321475553,0.120170339277195,4.86017904796559,-0.276331486246295,-1.51836518078724,564.753509252463,556.772906847109,560.786096966608
0.75,0.0930652922641002,-0.0137668237883569,4.78317993384096,-0.0585955596879419,-0.051810480098664,-0.078526098931298,-3.14640314304762,-3.60310851634169,2.4115067316795,556.818684680753,556.818684680753,560.786096966608
0.76,0.151278731772158,0.00483646400778162,4.95843783505964,-0.171796464305318,-0.022945308356781,0.149606680649974,-1.07681034401362,4.84314972639955,0.184144673490791,556.818684680753,553.812606909837,560.786096966608
0.77,0.0446811109390433,0.0149002173966153,5.24854010393447,-0.0557772798034009,0.0367789956327483,-0.0294231819057656,4.94444555538619,-1.76146032523372,-1.92365527352307,556.818684680753,556.772906846519,560.786096966608
0.78,0.132499572535388,0.0634602701575058,4.84183384988139,-0.28922478869397,-0.145728032895338,-0.0186194263869593,-3.90954941065427,-2.87096315091384,2.14453990808454,550.714973471745,558.996183654086,560.786096966608
0.79,0.0637533891887934,0.150809741352443,5.1909419584788,-0.873548131019906,0.152874146022996,0.0586307785858935,-0.697976935544641,5.21745080963413,-0.0337332669980462,558.954983603906,558.922939119981,560.786096966608
0.8,0.131444344020618,-0.0338357067826937,4.66798364261298,0.061651044589528,0.126799356698673,-0.0484189401918049,3.77241327957487,-2.75004912448641,-2.1875080210851,558.954983603323,561.660453597829,560.786096966608
0.81,0.112372065763654,-0.00581352740684465,4.95914168200981,-0.166864474876099,-0.103575678075607,-0.0439699576538271,-4.60168164902618,-1.85619394898229,1.92057187801194,556.818684681186,558.954983603906,560.786096966608
0.82,0.0540413786369711,0.0438603776322423,4.95773398806745,-0.2885202187335,0.0570210935110929,0.039909876294303,1.08481578516443,4.8461887009603,-0.278349308433988,558.954983603284,558.954983603906,560.786096966608
0.83,0.141625345033743,0.0441534966674148,4.66622402506394,-0.290633928589255,0.04998311660956,-0.139674470386973,3.04065518560994,-3.55141250416711,-2.49572484709701,556.818684680909,558.996183654567,560.786096966608
0.84,0.180356139615331,0.033738000432005,4.19804846693466,-0.169682754426108,-0.183483159372801,-0.000721107946222585,-4.09155017743065,-0.954788098715786,1.75965238261245,561.701653647959,556.818684680753,560.786096966608
0.85,0.0832360341009804,0.0927721732406795,4.89943199546781,-0.289224788731789,0.122074080169528,0.0251561613013961,2.21871779777173,4.37782779360741,-0.528042981394809,556.818684680753,561.701653647959,560.786096966608
0.86,0.0539827548303577,0.0244949803341468,5.07468989674074,-0.173205604196326,0.00234420393036602,-0.0592338297645662,2.43277302185459,-4.45691520600786,-2.67606513195631,558.954983603906,553.766829076249,560.786096966608
0.87,0.13179608686867,0.0245536041453268,4.37295444463778,-0.172501034265455,-0.128739829641259,0.0374051367376067,-4.36870241988218,0.258701272156753,1.47222163059632,561.701653647959,556.818684680753,560.786096966608
0.88,0.0836464007485402,0.0536896357946281,5.0163879041548,-0.406653113065544,0.0973032035785278,0.0202826014924313,3.29493900187932,3.80432534534193,-0.794656978637581,553.766829076249,553.812606909504,560.786096966608
0.89,0.248633332533552,-0.0918732748856988,4.54926811639506,0.410413168103266,0.15664313929608,-0.213827406092933,0.855157050961744,-4.48697958337138,-2.86329320129912,556.818684680753,556.818684680753,560.786096966608
