t,iq,id,vq,vd,ia,ib,va,vb,theta_e,omega,omega_obs,r
0,0,0,0,0,0,0,0,0,0,-0.144963141214248,0,0
0.01,0.0149588412026948,0.0147243459783767,-0.145508635029099,-0.172501034250823,0.00531345713188456,0.0203061682236212,-0.077066570207604,-0.212108730235395,0.52156938491557,-0.144963141214248,378.895502938174,-0.144963141214248
0.02,-0.140785070446067,0.0149002173966153,0.614176886012993,-0.173205604196326,0.0830640195175246,-0.114642144085684,-0.456184288351587,0.446216677970229,0.52156938491557,-0.144963141214248,378.895502938174,-0.144963141214248
0.03,-0.0630889860520997,0.0149002173966153,0.206062937996839,-0.173205604196326,0.0443526083933948,-0.0472766619829551,-0.252844995897206,0.0923662481139354,0.52156938491557,-0.144963141214248,378.895502938174,-0.144963141214248
0.04,-0.0625027480169059,0.0146070983758593,0.203247550145952,-0.171796464351671,0.04380637487243,-0.0469144151957902,-0.250220474685546,0.090627290879769,0.52156938491557,-0.144963141214248,375.84364733367,-0.144963141214248
0.05,0.00489508781243965,-0.0142358142593865,-0.0854470249509488,-0.0564818497531763,-0.0147819321457816,-0.00284864430155067,-0.00639867672025505,-0.102227444263946,0.52156938491557,-0.144963141214248,378.895502938174,-0.144963141214248
0.06,0.0147243459836286,0.0146070983749708,-0.144452864561825,-0.1717964643474,0.00532863420949773,0.0200444342659763,-0.0769817097328547,-0.210842290845529,0.52156938491557,-0.144963141214248,378.895502938174,-0.144963141214248
0.07,-0.0337184591691135,0.014724345976777,0.0884031823185475,-0.172501034244414,0.0295665067121331,-0.0218989162751125,-0.193611137393135,-0.00929822223737237,0.52156938491557,-0.144963141214248,378.895502938174,-0.144963141214248
0.08,-0.0628544908393248,0.0147243459830953,0.20500716755789,-0.172501034269726,0.0440832859003574,-0.0471609720799732,-0.251708078162107,0.091801900645755,0.52156938491557,-0.144963141214248,378.895502938174,-0.144963141214248
0.09,0.0244363565278893,-0.0142358142583204,-0.202754857119269,-0.0564818497574477,-0.0245182025506488,0.0140943844009192,0.0520489497500067,-0.203937829417201,0.52156938491557,-0.144963141214248,378.895502938174,-0.144963141214248
0.1,-0.0627372432287116,0.014724345982562,0.262605313176746,-0.17250103426759,0.0440248682782971,-0.0470593139094835,-0.280405862771034,0.141741699777014,0.52156938491557,-0.144963141214248,378.895502938174,-0.144963141214248
0.11,-0.0339529543955646,0.0149002173966153,0.0894589528164431,-0.173205604196326,0.0298358292174629,-0.0220146061868041,-0.194748055179551,-0.00873387473069411,0.52156938491557,-0.144963141214248,378.895502938174,-0.144963141214248
0.12,-0.024240943841991,-0.0142358142641054,0.0311569602178699,-0.0557772798034009,-0.000265152974989614,-0.0281107000982281,-0.0638847282900195,-0.000776275463470002,0.52156938491557,-0.144963141214248,378.895502938174,-0.144963141214248
0.13,-0.0144116856786916,0.0146070983608856,-0.027848879358281,-0.0550727098450811,0.0198454133760997,-0.00521762154220833,-0.0338746830263332,-0.0515855532204321,0.52156938491557,-0.144963141214248,378.895502938174,-0.144963141214248
0.14,-0.0239478248169691,-0.0145289332887715,0.0297492662595108,-0.0550727098703918,-0.000665342453501496,-0.0280025987257144,-0.062572467658528,-0.00164575410377059,0.52156938491557,-0.144963141214248,378.895502938174,-0.144963141214248
0.15,0.0921273113469233,-0.0336598353589468,-0.492857126014388,0.0602419046686188,-0.0750860137582219,0.0631071830325555,0.297793897361252,-0.397310997123993,0.52156938491557,-0.144963141214248,378.895502938174,-0.144963141214248
0.16,0.179711277775236,-0.101643909242003,-0.959976913919447,0.410413168092591,-0.177668774612858,0.105173352961526,0.834144248320795,-0.627851906738714,0.52156938491557,-0.144963141214248,378.895502938174,-0.144963141214248
0.17,-0.0341288258180689,0.0149002173966153,0.148464792408439,-0.173205604196326,0.0299234556531405,-0.0221670934486463,-0.224147211301601,0.0424264490101467,0.52156938491557,-0.144963141214248,378.895502938174,-0.144963141214248
0.18,-0.0825130071607666,0.0149002173966153,0.380968915793303,-0.173205604196326,0.0540304611794969,-0.0641180325174594,-0.339990406986579,0.244016432403311,0.52156938491557,-0.144963141214248,380.699149600602,-0.144963141214248
0.19,0.0050123354228215,-0.0145289332940497,-0.0857989484342436,-0.0550727098386734,-0.0150944952012021,-0.0028930301890415,-0.00500155555020573,-0.101830483468728,0.52156938491557,-0.144963141214248,378.895502938174,-0.144963141214248
0.2,0.00501233542703345,-0.0142358142619722,-0.0861508719525856,-0.0564818497428177,-0.0148403497716047,-0.00274698612863218,-0.00604799094813165,-0.102837706577171,0.52156938491557,-0.144963141214248,378.895502938174,-0.144963141214248
0.21,-0.0345978162819884,0.0149002173966153,0.0926262643773374,-0.173205604196326,0.0301571261502279,-0.0225737261502805,-0.196326141140361,-0.00598769425154297,0.52156938491557,-0.144963141214248,378.895502938174,-0.144963141214248
0.22,-0.0341288258128168,0.0149002173966153,0.0901627998046905,-0.173205604196326,0.0299234556505237,-0.0221670934440925,-0.195098740936022,-0.00812361242391663,0.52156938491557,-0.144963141214248,378.895502938174,-0.144963141214248
0.23,4.37236864602681,-0.0530838564561935,3.84788458800942,0.177670229044456,-2.22452110904655,3.76456256528974,-1.76312876869237,3.42478604557109,0.52156938491557,-0.144963141214248,401.514330749317,1562.71029192525
0.24,4.60745010869697,0.00518820684410804,4.83866653841677,-0.526195147318796,-2.29112433045861,3.99742075893977,-2.86705567182695,3.93313704028996,0.52156938491557,-0.144963141214248,402.173531557753,1562.71029192525
0.25,4.54865043113543,-0.199291628982213,6.07180647021841,-0.0585955596879419,-2.58836442559973,-3.74570520707926,-3.62042652865847,-4.87470809402854,2.49313234044267,108.806281939576,227.183183056187,1562.71029192525
0.26,4.57772783898002,0.132089205891763,7.07033073770075,-1.93533504003575,4.55077949511943,0.513269629810987,6.72772191980075,2.91081710650098,-1.42963702429695,271.775371240437,182.723750611111,1562.71029192525
0.27,4.52887466718553,0.0545103691058691,8.6543383956111,-1.70400124114403,-4.1373579310156,-1.84280939928068,-7.15065981404917,-5.16422864707898,2.00186000066919,516.839376261752,454.479284765639,1562.71029192525
0.28,4.52934365763772,-0.0533769754999208,10.0005630775919,-1.46562174246617,-2.29442476840318,3.90556245022847,-6.23601134503462,7.95433664521956,0.519375725540958,684.996620069918,723.439319195738,1562.71029192525
0.29,4.60768460390291,0.269816067778208,10.8199582854429,-3.46965352626621,1.9464766379291,4.18506712221817,0.755481283155316,11.337514759499,-0.376849220891151,404.836275579986,872.867325155078,1562.71029192525
0.3,4.53788319206227,-0.013766823807908,12.0004270005296,-4.640413920776,-0.228355928198736,4.53215478114941,-5.20274322727247,11.7675465778658,0.0473094113690301,765.870793599347,985.666960156573,1562.71029192525
0.31,4.51916265663548,-0.0535528469167647,13.4046017516187,-4.63407279127866,-4.11877149680258,-1.86048928555588,-10.4231582401847,-9.61851085430787,1.98322156529629,974.922902497791,1136.77959041022,1562.71029192525
0.32,4.44123207699445,0.0232638803963444,14.987201715507,-5.56927196665571,4.43062288963955,-0.307675770345374,15.3131389203776,4.59791060212014,-1.63488991735905,1152.84608424268,1288.76199951753,1562.71029192525
0.33,3.64981069395273,-0.277163584875334,15.3956675872112,-3.46683524661112,-2.31322858133401,-2.83670782509798,-8.09205639205292,-13.5485848128462,2.38170057538888,1317.95147244614,1453.48895762346,1562.71029192525
0.34,1.42935587090496,-0.0939837319091543,13.7579329421739,-2.983030550178,-1.22409529911228,0.74396360545745,-12.9759101053565,5.4593907207999,0.959028036629868,1476.95314944699,1560.80593402916,1562.71029192525
0.35,-0.0252961723261381,-0.0830406214064814,12.6431566129504,-0.992385595231863,-0.0834420601820968,-0.023938749559983,-0.786094461680028,12.6576575165601,-0.016306713393087,1552.94435399136,1578.93090446313,1562.71029192525
0.36,-0.181684945911459,0.0236742470365944,10.9428968934883,-0.519149447769474,-0.156799258892509,-0.0947833421776192,9.80890939976184,4.87870935370203,-1.15665681212628,1568.81400313096,1552.99013182415,1562.71029192525
0.37,-0.00546178458832466,0.0250812183890853,12.1124559802592,-0.0585955595268848,-0.0207951869720425,-0.0150485482877268,9.06534040446004,-8.03334467482736,-2.30074993898148,1550.80805506735,1542.87323049597,1562.71029192525
0.38,0.0436845062076088,-0.0347150638884616,12.4601563947122,-0.168273614488088,0.00783353355134939,-0.0552458821586049,-6.16068005021797,-10.8318897108892,2.61096100093698,1552.9443539863,1529.78229587988,1562.71029192525
0.39,0.14162534503108,0.00518820684321963,12.9322031115196,-0.290633928589255,-0.133970357323996,0.0462233621007964,-12.4558954890779,3.48955770309275,1.27517578507441,1539.82137489019,1534.98418375816,1562.71029192525
0.4,0.0933584113007194,-0.111707662611783,12.3505908796,-0.173910174156784,-0.115064227406278,0.0891886675434642,-0.627829434078551,12.3358489787139,0.0367706414351653,1534.93840592498,1531.85450583556,1562.71029192525
0.41,0.19071301204324,0.0931825398745359,12.9346665759486,-0.996613014817115,0.202299054814535,-0.0642614279425868,12.6494440921412,2.87930566145018,-1.42388442075069,1531.8865503202,1534.98418375813,1562.71029192525
0.42,0.112782432403475,-0.208182906237374,11.8255210228582,0.406890318142417,0.230267382544331,0.0551083663745047,7.59549386402755,-9.07287055757876,-2.41020280751999,1534.93840592519,1537.94448369425,1562.71029192525
0.43,0.0937687779288427,-0.120481692292,12.2919369634316,0.172033669609669,0.0322864388671737,-0.149217987377826,-8.01632244171009,-9.31986504231631,2.44523999879564,1531.88655031976,1538.01772822905,1562.71029192525
0.44,0.0924790541873093,-0.0540218373815476,12.6993470645878,-0.170387324337416,-0.106861720726273,-0.00716289193535854,-11.4452766401894,5.50527840682768,1.10904059549907,1544.70434385831,1534.89262808981,1562.71029192525
0.45,0.13191333447555,-0.0242995676482752,12.9332588819764,-0.525490577375109,0.00959058298838035,0.133789452193715,2.73776935859397,12.6510847200655,-0.253728165366096,1539.82137489236,1529.87385154774,1562.71029192525
0.46,0.123080681033691,0.0623464178002257,12.5837988499447,-0.636577772066247,0.125684372880667,-0.0569154484286211,12.5440271461838,1.18516147067114,-1.52713981886289,1529.75025139691,1539.79390819083,1562.71029192525
0.47,0.229619678059197,0.102718679011034,12.6431566129824,-0.87848012049545,-0.0117149817656429,-0.251274914728891,5.43743984014748,-11.4479423673988,-2.76753919865795,1531.88655032397,1537.94448369507,1562.71029192525
0.48,0.0254915850675317,-0.0335425877393241,12.4682506353124,-0.175319314103318,0.00225923806489361,-0.0420692517745633,-9.39460316930865,-8.19935619778047,2.27430330281801,1531.88655031999,1542.82745266163,1562.71029192525
0.49,0.14121497838514,0.00471921639668108,12.5247930103275,-0.758233516329907,-0.108512929588296,0.0904924595526036,-10.3474262577509,7.09761423699827,0.909110778345132,1544.70434385654,1531.88655031976,1562.71029192525
0.5,0.171171743323375,-0.04319597448009,13.1671706992447,-0.176023884080867,0.011566251355382,0.176158677768743,3.88383745697597,12.5825742691472,-0.312757547725418,1534.93840592426,1539.82137489147,1562.71029192525
0.51,0.160345880457639,0.120735728769178,13.1028860072965,-1.1041773599937,0.14375309189725,-0.140081997955271,13.1371766517352,-0.565171640861021,-1.69786175048716,1555.99620959036,1531.97810598693,1562.71029192525
0.52,0.161166613731201,0.0243777327131002,12.9325550348888,-0.406653113035637,0.0280665137819373,-0.160565320159559,4.4926430818764,-12.1339401936732,-2.81842289331648,1539.82137489143,1542.90069719651,1562.71029192525
0.53,-0.0130047143285113,-0.208945015753545,12.8155991262881,0.527841492423028,0.122410957930184,-0.169831385737825,-11.1233178017566,-6.3867048380181,2.13317276315769,1534.93840592622,1537.89870585897,1562.71029192525
0.54,0.113368670434941,0.0347346051342442,13.1085167833036,-0.645737181457364,-0.0497119341280226,0.107646048860464,-9.22226430858007,9.33809561893417,0.729936354144445,1531.88655032016,1534.98418375846,1562.71029192525
0.55,0.0250812184000988,-0.188583013743909,11.9442365489299,0.523614072713655,-0.168485458529582,0.0883474439542269,4.59552151665517,11.0372161537181,-0.350724731132539,1534.93840592754,1537.94448369392,1562.71029192525
0.56,0.0639878844061111,-0.023654705798164,12.8760126598612,-0.293452208287134,0.0671546663087575,0.0120102144080343,12.7262736814072,-1.97984201424727,-1.74791707136549,1537.99026152832,1539.86715272561,1562.71029192525
0.57,0.199662913107694,-0.0823371357348361,12.407485178161,-0.29274763844501,0.122543935476704,-0.177841689908606,2.89949836696104,-12.0674893348239,-2.92937910888375,1544.70434385758,1539.74813035581,1562.71029192525
0.58,0.248340213517959,0.160052761465001,12.4654352472497,-1.45857604317918,-0.286590977276835,0.0718008345789014,-11.3363378623796,-5.38534714267249,1.89780690838782,1544.70434385867,1531.97810598793,1562.71029192525
0.59,0.113016927628502,0.0341483670795359,12.7028662996021,-0.40735768302814,-0.0450497550519083,0.109130456218912,-8.35153631908283,9.58021887111815,0.684927984114009,1529.7502513978,1537.94448369403,1562.71029192525
0.6,0.113368670441865,0.00542270206160043,12.8767165068367,-0.410880532697115,0.067602446979956,0.0911689108069599,6.82539367043497,10.9266944705696,-0.590247800675631,1529.75025139871,1537.99026152877,1562.71029192525
0.61,0.024788099368987,0.0045433449684994,12.6449162305261,-0.640100621943311,0.0224915422066644,-0.0113676023415404,12.3098037403021,-2.96181821833826,-1.85749266321891,1537.99026152962,1542.82745266129,1562.71029192525
0.62,0.102601431403088,-0.0829233737974667,12.4074851781399,-0.289224788727513,0.0953375302612504,-0.0911816591843011,1.87006288654022,-12.2691566223829,-3.01364324646771,1544.70434385814,1531.88655031976,1562.71029192525
0.63,0.200190527364018,-0.0240650724228371,13.1661149287756,-0.291338498547575,-0.182173836476904,-0.0864179857453659,-12.3914576514546,-4.45906242506997,1.89409456138709,1539.82137489037,1542.82745266135,1562.71029192525
0.64,0.237924717294478,0.023322504239132,12.8728453484525,-0.753301526830876,-0.107356149184028,0.213604231081732,-7.51214081249206,10.4807132853062,0.563432998245371,1552.94435398955,1538.01772822912,1562.71029192525
0.65,0.122553066761379,-0.0921077700875876,12.8742530423434,0.0588327647476966,0.000140842228363178,0.153307128492427,7.79136883858287,10.2491182212743,-0.645426773736778,1539.8213748913,1539.89461942678,1562.71029192525
0.66,-0.0235374581797326,0.0428637729519115,13.9243927561243,-0.871434421137571,-0.0386206984313752,-0.0299959434242107,13.1259216869189,-4.72845550322966,-1.97906435044187,1542.87323049624,1539.74813035728,1562.71029192525
0.67,0.054568992905375,0.0638706368037968,12.8187664377924,-0.761051796123563,-0.0654101340762703,-0.052713827337367,0.392918250423734,-12.8353257875108,3.11289483205218,1534.93840592484,1542.87323049597,1562.71029192525
0.68,0.0346173575296738,-0.130662693288193,11.7668671065813,0.0581281949031017,0.0187205082648743,-0.13386800749233,-10.8699955790397,-4.50618868919661,1.96872500457665,1542.87323049382,1539.79390819118,1562.71029192525
0.69,0.0932997874948187,-0.023537458152653,12.8760126598612,-0.294156778412925,-0.0739809342298382,0.0615279095479977,-7.8226806592901,10.2315149186209,0.629917754345775,1537.99026152887,1542.87323049597,1562.71029192525
0.7,0.092772173236232,-0.150262585807613,12.7000509115992,0.17555651928534,-0.0742311712140345,0.160234996304667,7.14726370586715,10.4994635466517,-0.583850905452968,1544.70434385745,1539.82137489147,1562.71029192525
0.71,0.0439776252404964,0.0140208602787686,12.932555034908,-0.755415236392953,0.0366920627140637,-0.0280055097889239,12.4321907635538,-3.64173924504596,-1.91409828166734,1547.756199463,1535.0116504593,1562.71029192525
0.72,0.122963433396912,-0.0043479322915036,12.4696583291792,-0.2927476384139,-0.00499984894168494,-0.122938651279931,-0.654778403632231,-12.4558960042384,3.06560076133968,1529.75025139825,1542.79998596205,1562.71029192525
0.73,0.103187669470742,0.0249053469871883,13.1095725536872,-0.645032611675029,-0.106124357938415,0.00236476035034452,-12.6716642923705,-3.42138622081374,1.78534734474741,1537.99026152877,1542.87323049597,1562.71029192525
0.74,0.0352622193964837,0.0151933364262571,12.7587048276865,-0.410175962813243,-0.00636859700476913,0.0378642649567904,-7.26674831543783,10.4951018156368,0.573465538858915,1537.99026153023,1539.82137489147,1562.71029192525
0.75,0.0164244364101337,-0.0626199955805367,12.3505908796373,-0.176728454052002,-0.0407129212690172,0.0503337262642034,7.17544140594922,10.0539230478675,-0.634167011038053,1531.88655031976,1539.79390819089,1562.71029192525
0.76,0.11278243239921,0.0634602701583953,12.9346665759486,-0.877070980608391,0.0788210098396608,-0.102636890805962,12.2408234341489,-4.27049114154076,-1.97417080228227,1537.99026152992,1542.87323049597,1562.71029192525
0.77,-0.0434304697120494,-0.0733872346796479,12.5212737752573,-0.052254429937034,0.0648461014909158,0.0553793737303412,2.20010546699492,-12.3265795504874,-2.9691411052936,1552.94435399051,1539.79390819093,1562.71029192525
0.78,0.151220107964656,-0.0242409438433865,12.8746049658726,-0.290633928589255,-0.138953058797868,-0.0643986945673315,-12.3117810196922,-3.77623744365555,1.84583405340853,1544.70434385619,1542.82745266244,1562.71029192525
0.79,0.200073279773681,0.121615085885437,13.1092206302726,-0.992385595257494,0.00795371818504083,0.234000608463638,-7.28977054782833,10.9405548334101,0.512196476225539,1539.82137489176,1534.89262809008,1562.71029192525
0.8,0.151161484156797,-0.0628544908258235,12.9929685685377,-0.292747638438596,0.0495525027615225,0.156028942121417,8.16230453136401,10.1133435687756,-0.70157218359136,1542.8732304973,1535.01165045783,1562.71029192525
0.81,0.132616820132478,0.0731722807212524,12.8194702846874,-0.758938086312027,0.0927873950908059,-0.119715926092824,12.0715912264286,-4.38080936139094,-1.97805189230983,1531.88655032009,1542.82745266185,1562.71029192525
0.82,0.122728938179087,-0.072097510923494,12.4689544822427,-0.178137593859756,0.069577265311579,-0.1241750679472,-0.076423979361573,-12.4699927128273,3.12117858151291,1534.93840593119,1547.71042162976,1562.71029192525
0.83,0.0536896358078211,-0.0533769755034211,12.9318511880553,-0.408062252982184,-0.0371005246826352,-0.0659941631914706,-12.3305434766924,-3.9187992448857,1.84696923364228,1550.80805506675,1542.87323049597,1562.71029192525
0.84,0.0343828623066964,0.0532792691488762,13.1081648597082,-0.99097645522256,0.0260307219008073,0.0578209586461732,-7.95708139809909,10.4637887950837,0.57469276106382,1547.75619946073,1537.99026152877,1562.71029192525
0.85,0.15104423656319,0.0545103690725151,13.1699860872735,-0.645737181482969,0.13448915400795,0.0877405789222108,7.41696265507139,10.9020261887322,-0.646393210925562,1539.8213748913,1542.94647503039,1562.71029192525
0.86,0.14103910695176,0.0147243459757112,13.277791984937,-0.640805191899493,0.127323327844858,-0.0624308116291392,12.6851481483226,-3.97459529314994,-1.92265815527165,1558.7428796332,1542.90069719596,1562.71029192525
0.87,0.0155450792500979,-0.0048169227348421,12.4664910177161,-0.524081437513367,0.00686472070218594,-0.0147556037899586,2.19668952876286,-12.2826143292935,-3.00663274036003,1542.87323049564,1542.82745266202,1562.71029192525
0.88,0.132147829697843,0.00548132588105524,12.2350426649303,-0.761756366077606,-0.126470909333352,-0.0387066263016992,-11.2880104031623,-4.78093745117249,1.90925075462168,1539.82137489147,1537.99026152877,1562.71029192525
0.89,0.200600894011934,0.044329368082002,12.6421008424915,-0.761756366026985,-0.0704145742708422,0.192996371165866,-7.43605345618745,10.252223927989,0.567329428360668,1537.99026153001,1542.90069719631,1562.71029192525
