t,iq,id,vq,vd,omega,r
0,0,0,0,0,1123.85345599758,0
0.01,-0.00464105132025594,-0.00464105132025594,-0.027848879358281,-0.0557772798034009,1108.89918024075,-0.144963141214248
0.02,-0.00464105132025594,-0.00464105132025594,-0.027848879358281,-0.0557772798034009,1105.84798449559,-0.144963141214248
0.03,-0.00464105132025594,-0.00464105132025594,-0.027848879358281,-0.0557772798034009,1102.79548736164,-0.144963141214248
0.04,-0.00464105132025594,-0.00464105132025594,-0.027848879358281,-0.0557772798034009,1092.72419890232,-0.144963141214248
0.05,-0.00464105132025594,-0.00464105132025594,-0.027848879358281,-0.0557772798034009,1087.84275127678,-0.144963141214248
0.06,-0.00464105132025594,-0.00464105132025594,-0.027848879358281,-0.0557772798034009,1081.73894841984,-0.144963141214248
0.07,-0.00464105132025594,-0.00464105132025594,-0.027848879358281,-0.0557772798034009,1084.78970425993,-0.144963141214248
0.08,-0.00464105132025594,-0.00464105132025594,-0.027848879358281,-0.0557772798034009,1079.90600211645,-0.144963141214248
0.09,-0.00464105132025594,-0.00464105132025594,-0.027848879358281,-0.0557772798034009,1071.97191072102,-0.144963141214248
0.1,-0.00464105132025594,-0.00464105132025594,-0.027848879358281,-0.0557772798034009,1074.71858076507,-0.144963141214248
0.11,-0.00464105132025594,-0.00464105132025594,-0.027848879358281,-0.0557772798034009,1076.84993991138,-0.144963141214248
0.12,-0.00464105132025594,-0.00464105132025594,-0.027848879358281,-0.0557772798034009,1055.80103516902,-0.144963141214248
0.13,-0.00464105132025594,-0.00464105132025594,-0.027848879358281,-0.0557772798034009,1066.78375619336,-0.144963141214248
0.14,-0.00464105132025594,-0.00464105132025594,-0.027848879358281,-0.0557772798034009,1050.91410704994,-0.144963141214248
0.15,-0.00464105132025594,-0.00464105132025594,-0.027848879358281,-0.0557772798034009,1047.86720038653,-0.144963141214248
0.16,-0.00464105132025594,-0.00464105132025594,-0.027848879358281,-0.0557772798034009,1029.85630337886,-0.144963141214248
0.17,-0.00464105132025594,-0.00464105132025594,-0.027848879358281,-0.0557772798034009,1019.78782848387,-0.144963141214248
0.18,-0.00464105132025594,-0.00464105132025594,-0.027848879358281,-0.0557772798034009,1040.84133390846,-0.144963141214248
0.19,-0.00464105132025594,-0.00464105132025594,-0.027848879358281,-0.0557772798034009,1024.97786177604,-0.144963141214248
0.2,-0.00464105132025594,-0.00464105132025594,-0.027848879358281,-0.0557772798034009,1032.90504298421,-0.144963141214248
0.21,-0.00464105132025594,-0.00464105132025594,-0.027848879358281,-0.0557772798034009,1016.73332427949,-0.144963141214248
0.22,-0.00464105132025594,-0.00464105132025594,-0.027848879358281,-0.0557772798034009,1021.92147880715,-0.144963141214248
0.23,-0.00464105132025594,-0.00464105132025594,-0.027848879358281,-0.0557772798034009,1016.72784378595,-0.144963141214248
0.24,-0.00464105132025594,-0.00464105132025594,-0.027848879358281,-0.0557772798034009,1006.9744248373,-0.144963141214248
0.25,-0.00464105132025594,-0.00464105132025594,-0.027848879358281,-0.0557772798034009,979.805871464997,499.748984876529
0.26,-2.60443076478484,0.011687850179204,2.65901141904183,0.197330338779506,786.830186675095,499.748984876529
0.27,-1.43993153103745,0.19036284780081,3.42887590287838,-0.0550754201915681,574.824632747326,499.748984876529
0.28,-1.41178756866667,-0.0633232473814286,2.37661116082136,0.649494425427406,590.999467451197,499.748984876529
0.29,-0.434315436985838,-0.0437235887540002,3.02145381904176,0.414637675876564,522.94308747076,499.748984876529
0.3,-1.24556998798382,-0.0241823200371289,1.79042251934992,1.00177919707607,574.824632747326,499.748984876529
0.31,-0.541967576273961,0.0925983741820092,2.37661131180064,0.416040387581875,527.826056437965,499.748984876529
0.32,-0.0142366165503845,0.0147251482683082,3.31542433762132,0.532065698000784,493.950459227972,499.748984876529
0.33,0.493719648954104,0.0730572395941219,4.48815239159407,-0.17110183889348,464.957830985185,499.748984876529
0.34,0.699719716636806,0.179600850850518,5.18954791286733,-0.988192331587103,446.953714032028,499.748984876529
0.35,0.953114440718507,0.00483792689810275,5.19164931816473,-0.406660145787432,438.711872786451,499.748984876529
0.36,0.845170846488228,-0.0533192545808684,5.2524040356854,-0.290633928589255,446.951882918612,499.748984876529
0.37,0.697911591132179,0.0533996102335226,5.25310396729075,-0.993101318745052,461.900787226142,499.748984876529
0.38,0.268178731705589,0.00442991010554505,5.0156878718612,-0.639415145124735,490.890668798953,499.748984876529
0.39,-0.13160100028636,-0.0437235887540002,3.72530181860083,-0.0557772798034009,509.820108371392,499.748984876529
0.4,-0.531497545625031,0.102311322818167,3.66349876366314,-0.288532279113991,524.774200833462,499.748984876529
0.41,-0.512655757031478,-0.033894673468127,3.07905934743386,0.179079368982457,530.87486018697,499.748984876529
0.42,-0.5412101253976,-0.189292470857495,3.54584222377093,1.23103185026824,522.94308747076,499.748984876529
0.43,-0.219361950560587,-0.0242405841984429,2.90379763145221,0.532064589717771,511.956407294545,499.748984876529
0.44,-0.0529699211181607,0.0830033790199562,3.31892147950456,-0.053676839429215,490.909590302967,499.748984876529
0.45,0.308077495544865,-0.043548846568467,4.48850265936856,0.295107601269786,477.775624524101,499.748984876529
0.46,0.405376157667931,0.0353150712787667,4.9011777532196,-0.178105221211084,469.840799952391,499.748984876529
0.47,0.464640551029931,0.0435715835523201,5.01394096159868,-0.405262874785275,469.838663653657,499.748984876529
0.48,0.376180799679156,-0.0633230797157665,4.90012861065462,-0.0550775360191575,475.944511161399,499.748984876529
0.49,0.327676944592421,0.0244962101662573,4.95563721262407,-0.524790934329461,480.824428272634,499.748984876529
0.5,0.181001001490023,0.00542061043204034,4.60581049154328,-0.292033013150596,488.762304700315,499.748984876529
0.51,-0.00469924841706413,-0.0240659258435126,4.25214018539166,0.0609516030474526,501.882231943767,499.748984876529
0.52,-0.180279714921555,-0.0437817774666361,3.37268100733022,0.297207034152325,511.956407294545,499.748984876529
0.53,-0.180047027144284,0.0147838567396616,3.37337973118104,-0.0557772798034009,506.771304622749,499.748984876529
0.54,-0.112176201209562,0.0439794326858705,3.49173529682962,-0.17250646492296,503.716397162384,499.748984876529
0.55,-0.044130733690477,-0.0243568107241905,3.78500482693564,0.297206731883775,501.882231943877,499.748984876529
0.56,-0.00458289613986603,-0.0429094162285415,3.84296047210977,0.410441328919342,498.833428195178,499.748984876529
0.57,0.249046561221687,0.121621286988406,3.90405785829703,-0.63872587973914,488.762304700315,499.748984876529
0.58,0.220374230995094,0.00495516779538219,4.43124478187877,-0.0550785435371928,480.83236309776,499.748984876529
0.59,0.278881735164699,-0.00464105132025594,4.72242040508079,-0.0557772798034009,480.827480128605,499.748984876529
0.6,0.248058644142579,0.0246127301091164,4.96017635098157,-0.408062252982184,488.754369875583,499.748984876529
0.61,0.210196678037388,0.0149002173966153,4.72346718238811,-0.291332362586754,485.710449095811,499.748984876529
0.62,0.0943435996199523,-0.0136563222411426,4.42531423486995,-0.0592689459660082,490.901655479079,499.748984876529
0.63,0.00512958303817967,-0.0142373961851489,4.42949998525948,-0.0564755122973273,496.697129272025,499.748984876529
0.64,-0.00487340377500977,-0.053145694430305,3.60939133343997,0.177683105524559,503.716397162384,499.748984876529
0.65,-0.0436655090222756,0.0535181169765614,3.78430700894691,-0.288539835618194,501.885283799682,499.748984876529
0.66,0.00460694091009058,-0.0237758206041708,3.43691545430622,0.176985578306328,498.836480050678,499.748984876529
0.67,-0.0527974675517179,-0.00458298835686278,4.36805781678904,0.061651044589528,496.697129272025,499.748984876529
0.68,0.0730015323143657,0.033860940299194,4.54541404348577,-0.287145284981031,498.825493371024,499.748984876529
0.69,-0.0234277194726169,-0.102115210115533,5.13021117569715,0.413238389811644,490.898603623468,499.748984876529
0.7,0.122319157524101,-0.0254011141585603,4.48850265936856,0.0672312623341051,490.898603623468,499.748984876529
0.71,0.181407207508045,0.0137976582048399,4.66272263055651,-0.0508952946318316,485.710449095811,499.748984876529
0.72,0.18146516988348,0.0535766074860825,4.7796824092221,-0.52339860023165,485.710449095811,499.748984876529
0.73,0.229738147952154,0.00518759570320275,4.48676138553646,-0.173205604196326,490.89341546827,499.748984876529
0.74,-0.0522761332145694,-0.00475705988195751,5.1277762609252,-0.172508480011954,493.950459227972,499.748984876529
0.75,0.12231919944052,0.0246708517550509,4.19558123304969,-0.173902627642104,493.950459227972,499.748984876529
0.76,0.131509967035837,0.0827147827583868,3.7877886004045,-0.522702886651911,496.697129272025,499.748984876529
0.77,0.0340356321841393,-0.0819944183290482,4.43089290368978,0.292326761722157,496.694382601726,499.748984876529
0.78,0.0244969395092366,-0.0140058904384581,4.01996733694713,0.0602576022350742,498.833428195178,499.748984876529
0.79,0.00541939487138412,0.00518754540482056,4.07931705804152,-0.0557772798034009,493.955342197304,499.748984876529
0.8,0.142092326003725,0.00559321489803388,4.25319119003845,-0.0585633584980176,490.898603623468,499.748984876529
0.81,0.102777981024226,-0.00458310572194646,4.7213790629207,-0.0557772798034009,493.945271073151,499.748984876529
0.82,0.063811326405139,-0.053320411463399,4.54680877361407,0.178383050812534,493.950459227972,499.748984876529
0.83,0.0741033118690938,-0.0140641126855727,4.4881549078575,0.0602586097796377,488.767492855042,499.748984876529
0.84,0.161459732773151,0.0827154534034494,4.54715657545592,-0.523402227376097,488.762304700315,499.748984876529
0.85,0.220025626857703,-0.053088838649999,4.25458229674439,0.176991321278379,488.762304700315,499.748984876529
0.86,0.103125445043028,-0.033895050711466,4.07653484457691,-0.0557772798034009,496.697129272025,499.748984876529
0.87,0.0828893908060888,0.0244971658552327,4.08001054804244,-0.172509789798539,496.697129272025,499.748984876529
0.88,0.102314944360756,-0.0146432333505937,4.31497341038282,-0.0543858524850164,493.950459227972,499.748984876529
0.89,0.073524023547229,-0.0530311948420099,4.31288836067222,0.176992530300289,493.950459227972,499.748984876529
0.9,0.092949551964812,-0.0343001752934292,4.01961872990462,0.0637375809767609,496.697129272025,499.748984876529
0.91,0.0151316644673362,0.00507172127049944,4.36980543152445,0.061651044589528,496.697129272025,499.748984876529
0.92,0.151746951798237,0.0342679259629232,4.31219361251991,-0.173205604196326,490.898603623468,499.748984876529
0.93,0.132494899707186,0.00512958303817967,4.66272816628594,-0.0557772798034009,488.762304700315,499.748984876529
0.94,0.151284242092929,0.00507174642078158,4.13831515253512,-0.172510495074394,493.950459227972,499.748984876529
0.95,0.0834681426119673,-0.0334903285120906,4.48780836412749,0.176994343832443,493.950459227972,499.748984876529
0.96,0.14191846405628,0.00559214184837177,4.48850265936856,-0.175290327051366,490.898603623468,499.748984876529
0.97,0.132147829697843,-0.0238932627016203,4.43019579024006,0.0602614308831077,490.898603623468,499.748984876529
0.98,0.0636377830185176,0.0827166270542859,4.54611558553216,-0.522711752916646,496.694382602251,499.748984876529
0.99,0.112433176878035,-0.00475664072221339,3.96165825351368,-0.0550826744537634,496.697129272025,499.748984876529
1,0.0834680168627092,-0.00458326500124107,4.4291549512955,-0.0564717844144441,493.950459227972,499.748984876529
1.01,0.112548783046116,0.0148424394617596,4.13727285416849,-0.172511200350261,493.950459227972,499.748984876529
1.02,0.0443276595777059,-0.0241823200371289,4.31184732041759,0.061651044589528,496.697129272025,499.748984876529
1.03,0.0927187252517039,-0.0824017980066136,4.0210050557379,0.411853410740835,496.697129272025,499.748984876529
1.04,0.132205582482403,0.0244975934013696,4.13623246816161,-0.0557772798034009,493.950459227972,499.748984876529
1.05,0.102893671025132,0.00512958303817967,4.54715657545592,-0.0557772798034009,490.898603623468,499.748984876529
1.06,0.0634647090966063,0.0147847453597404,4.60685027364639,-0.173205604196326,493.950459227972,499.748984876529
1.07,0.0734662959107554,-0.0144116856786916,4.19557962264851,0.061651044589528,496.697129272025,499.748984876529
1.08,0.0739280583134299,-0.0433772732401136,4.78003977287554,0.0602636474491073,490.898603623468,499.748984876529
1.09,0.190598503237406,-0.0625723270266643,4.37223415639889,0.293039704217304,488.762304700315,499.748984876529
1.1,0.0834677653642388,0.0246131492688595,4.48746348115588,-0.289940431522617,493.950459227972,499.748984876529
1.11,0.0542135312384343,0.03421070970541,4.60303975228978,-0.172512207894825,496.694382601951,499.748984876529
1.12,0.092834549383879,0.0150155888367259,4.43088761954841,-0.173898899759234,493.950459227972,499.748984876529
1.13,0.181577774848984,0.0641571305400662,3.89953980618696,-0.41014183737597,493.950459227972,499.748984876529
1.14,0.0833523268595969,-0.0338952854416323,4.19488688749108,0.061651044589528,496.697129272025,499.748984876529
1.15,0.0150731991059347,-0.0342989178142033,4.42915646106144,0.0637300244725957,496.697129272025,499.748984876529
1.16,0.132032525322228,-0.159933461674699,4.19592526051625,0.878106174894134,493.950459227972,499.748984876529
1.17,0.122723058161295,-0.0436659449503522,4.19523307893175,0.1783865771917,490.90165547894,499.748984876529
1.18,0.0927194797472462,-0.00458341590078028,4.25492496541087,-0.173205604196326,496.697129272025,499.748984876529
1.19,0.151343336189645,-0.0240094389245934,4.19523307893175,0.060958454302501,496.69438260215,499.748984876529
1.2,0.0155340225834945,0.00547529495829563,4.8373131505531,-0.0578547483695451,493.950459227972,499.748984876529
1.21,0.151573877871938,0.0924315792788228,4.13900003699635,-0.405292697848366,490.901655478829,499.748984876529
1.22,0.0250164630784289,-0.023836708713751,4.54542763128704,-0.0578541438588271,496.697129272025,499.748984876529
1.23,0.160941391225759,-0.0532062555861065,4.13727063987671,0.295123318815622,496.694382602251,499.748984876529
1.24,0.0836401686323045,0.00530233840149965,4.48677421844171,-0.0571614528332063,493.950459227972,499.748984876529
1.25,0.0834673881230932,0.0245556982767652,4.07896216036029,-0.0550852940270918,493.953205897697,499.748984876529
1.26,0.0638109575437639,-0.0337802493306529,4.37084923965695,0.0609591595783552,496.697129272025,499.748984876529
1.27,0.0732362236931722,-0.024354999949563,4.25492360663738,0.0623428288357216,496.697129272025,499.748984876529
1.28,-4.44096946276085,0.00599285687089322,-1.61081363994008,1.34782914485093,485.718689106632,127.7277866875
1.29,-4.55735385991848,-0.17016640336678,-2.61173011622136,2.17397771817699,464.957830985185,127.7277866875
1.3,-4.5773554658909,-0.0537818972260587,-3.89900734112414,1.47355686532077,422.842223643031,127.7277866875
1.31,-4.09813416243487,-0.0729779653907417,-3.66646369223037,1.2373170509969,375.84364733367,127.7277866875
1.32,-3.30820830754696,0.858215793958138,-4.00733774791551,-4.95320287928363,318.773947529447,127.7277866875
1.33,-3.0921039989135,-0.0437235887540002,-3.90004304690676,1.11919714386136,318.773947529447,127.7277866875
1.34,-2.39861897300182,0.00518708432644974,-2.49062298516745,0.413936017768311,268.723515615582,127.7277866875
1.35,-2.36901958024909,0.0151876819281467,-3.07923305435064,0.646719731858931,268.723515615582,127.7277866875
1.36,-1.8106563255329,-0.0140092940236621,-1.56044255182483,0.295125938441853,226.913093833879,127.7277866875
1.37,-1.73404333276338,-0.00418124219878963,-2.257042724642,0.52929201197672,226.913093833879,127.7277866875
1.38,-1.14826501330543,-0.00538813214856878,-1.49212687974317,0.182532748798426,189.985641019381,127.7277866875
1.39,-1.10895257131973,-0.0529770887458932,-1.90373939420711,0.528602041262838,189.985641019381,127.7277866875
1.4,-1.1670592850246,-0.00452614934045381,-1.90615372609299,0.061651044589528,189.985641019381,127.7277866875
1.41,-1.14780527125724,0.0440972352604689,-2.25669769067802,-0.407371879287725,189.985641019381,127.7277866875
1.42,-0.503230574719292,0.00524445148570534,-0.6716628269741,0.061651044589528,148.785590358578,127.7277866875
1.43,-0.4448938558459,-0.014354259839088,-1.13951542897418,0.413936017768311,148.785590358578,127.7277866875
1.44,-0.22884888444552,-0.0243545724100485,-0.440839063784995,0.297197764827678,132.915941215158,127.7277866875
1.45,-0.229021187123395,-0.0142394584582498,-0.557457280929985,0.295817722688072,132.915941215158,127.7277866875
1.46,-0.200053738488972,-0.0531498189633348,-0.966311536756063,0.529984602263799,132.915941215158,127.7277866875
1.47,0.0543845009818609,-0.0142969010639764,0.556967627971911,0.178389599798716,111.85813754408,127.7277866875
1.48,0.112778712750527,0.01484283347343,0.44034900820717,0.0623407130081322,111.85813754408,127.7277866875
1.49,0.112778687604636,0.00495745641451501,0.264731840958124,0.179768936662468,111.85813754408,127.7277866875
1.5,0.132377298326092,0.043810550372486,0.088425813628219,-0.171137203451231,111.85813754408,127.7277866875
1.51,0.0445562731225135,-0.0338382368453674,0.498659047780794,0.061651044589528,111.85813754408,127.7277866875
1.52,0.102893277013475,-0.120913706975517,0.323730338084885,0.409800425299558,111.85813754408,127.7277866875
1.53,0.123352009491992,-0.0636662515337003,0.319255414478438,0.297886022721117,111.85813754408,127.7277866875
1.54,0.0348428214872006,-0.0144116856786916,0.673933043094478,0.061651044589528,111.85813754408,127.7277866875
1.55,1.93954321028652,0.00512958303817967,2.20237644436836,-0.173205604196326,-0.144963141214248,127.7277866875
1.56,2.01633270569157,0.0530656850914735,2.32622155317077,-0.638785727343097,-0.144963141214248,127.7277866875
1.57,1.85275372084939,-0.101717001684883,3.01699434538472,-0.294077736785141,-0.144963141214248,127.7277866875
1.58,0.464463998069772,0.0147283171189435,2.02469420656367,-0.406684931181015,90.8003338730032,127.7277866875
1.59,0.00639000062293579,-0.111315945345477,2.60538666208454,0.293064892697363,108.806281939576,127.7277866875
1.6,-0.141487215664791,0.0734667402207947,0.792962069377479,-0.524802117978097,129.864085610653,127.7277866875
1.61,-0.346899628576881,-0.0436663138117252,-0.261089239081693,0.296507693375386,145.733734754073,127.7277866875
1.62,0.190886168969081,0.0343842195531752,1.26322482624146,-0.0550890219099619,101.787014049217,127.7277866875
1.63,0.308019248149687,-0.0142971693264136,1.61446077108784,0.0609628874612253,101.787014049217,127.7277866875
1.64,0.239453058264697,-0.0432655904181625,1.49818396444481,0.176327143529166,106.975168576873,127.7277866875
1.65,0.200485028796878,0.00507234162816369,1.49749656377274,-0.172517648571596,108.806281939576,127.7277866875
1.66,0.190256538615748,0.0343270200617731,0.913018799741283,-0.289946073729505,114.909993148584,127.7277866875
1.67,-0.00481272525192841,-0.0252123636271637,1.08691905051279,0.0664653234374469,121.929261038943,127.7277866875
1.68,-0.0339529543955646,-0.00464105132025594,0.79330594586478,-0.0557772798034009,124.981116643447,127.7277866875
1.69,-0.112118029263049,0.0241559808551405,1.02757818665143,-0.0530270693331663,124.981116643447,127.7277866875
1.7,0.220312336898199,0.00518678253178821,1.61343065139184,-0.0564647316559794,106.975168576873,127.7277866875
1.71,0.0931796744829727,-0.11166050038756,1.14454279658669,0.529302288898913,116.741106511286,127.7277866875
1.72,0.151574732959771,-0.0144688684061641,0.793649218448297,0.061651044589528,116.741106511286,127.7277866875
1.73,0.0149573917399285,-0.00475540000688244,1.49680971666039,-0.0550901302195314,116.741106511286,127.7277866875
1.74,0.0734096916245299,0.00507241707683014,1.14694530206451,-0.0557772798034009,114.911824262167,127.7277866875
1.75,0.0929509771097197,-0.0631505423164909,1.38018822834272,0.295820745295089,114.909993148584,127.7277866875
