t,iq,id,vq,vd,omega,r
0,0,0,0,0,1191.90983597802,0
0.01,-0.00464105132025594,-0.00464105132025594,-0.027848879358281,-0.0557772798034009,1183.97480061813,-0.144963141214248
0.02,-0.00464105132025594,-0.00464105132025594,-0.027848879358281,-0.0557772798034009,1181.83871248316,-0.144963141214248
0.03,-0.00464105132025594,-0.00464105132025594,-0.027848879358281,-0.0557772798034009,1181.83827257739,-0.144963141214248
0.04,-0.00464105132025594,-0.00464105132025594,-0.027848879358281,-0.0557772798034009,1181.83713615417,-0.144963141214248
0.05,-0.00464105132025594,-0.00464105132025594,-0.027848879358281,-0.0557772798034009,1168.71500020752,-0.144963141214248
0.06,-0.00464105132025594,-0.00464105132025594,-0.027848879358281,-0.0557772798034009,1155.8988196564,-0.144963141214248
0.07,-0.00464105132025594,-0.00464105132025594,-0.027848879358281,-0.0557772798034009,1155.90005689136,-0.144963141214248
0.08,-0.00464105132025594,-0.00464105132025594,-0.027848879358281,-0.0557772798034009,1152.84681741664,-0.144963141214248
0.09,-0.00464105132025594,-0.00464105132025594,-0.027848879358281,-0.0557772798034009,1147.96361016715,-0.144963141214248
0.1,-0.00464105132025594,-0.00464105132025594,-0.027848879358281,-0.0557772798034009,1149.79422863587,-0.144963141214248
0.11,-0.00464105132025594,-0.00464105132025594,-0.027848879358281,-0.0557772798034009,1152.84608424037,-0.144963141214248
0.12,-0.00464105132025594,-0.00464105132025594,-0.027848879358281,-0.0557772798034009,1136.97643509695,-0.144963141214248
0.13,-0.00464105132025594,-0.00464105132025594,-0.027848879358281,-0.0557772798034009,1097.9126833593,-0.144963141214248
0.14,-4.64516582130766,-0.0241238144516219,1.72895889279581,1.47079093730466,752.747814489905,-0.144963141214248
0.15,-4.57700544566411,0.180240539439448,0.380270393975427,0.651604854148057,582.759457319036,-0.144963141214248
0.16,-4.55758119662294,0.112021675219769,-1.08502381572921,0.768329825001662,488.742215668059,-0.144963141214248
0.17,-4.60625895371492,-0.0728600516150262,-2.0831933669326,1.23523144604757,333.728039991515,-0.144963141214248
0.18,-4.41207422047577,-0.0584117174319984,-5.12793150223178,2.49391432447537,490.936875428944,-0.144963141214248
0.19,-4.51855719879348,-0.00446566213413549,-5.54307178425276,1.82167063439545,490.898603623468,-0.144963141214248
0.2,-4.52821094104662,-0.0283997714479257,-4.89822935950195,1.78584151147525,360.005708067057,-0.144963141214248
0.21,-4.53821539363443,-0.0728017076187069,-4.89717648389251,1.47079093730466,359.973998190249,-0.144963141214248
0.22,-4.69401960543779,-0.190166229034623,-3.95941528407837,1.11920829552899,297.716143858369,-0.144963141214248
0.23,-4.56559913828204,0.000208559270615919,-4.83676848988391,1.20152505823385,255.934600059495,-0.144963141214248
0.24,-4.24497952180422,0.00512958303817967,-4.25163224417758,0.648792666554169,255.905722076665,-0.144963141214248
0.25,-4.26440398346272,0.0152506895998756,-5.01518500783534,0.529258267874485,255.905722076665,-0.144963141214248
0.26,-3.46332880714814,0.0636949856596099,-3.25451546647496,0.530662419612605,205.855290162801,-0.144963141214248
0.27,-3.35754530192494,-0.111300498920187,-4.36087711769089,1.11499686245079,205.855290162801,-0.144963141214248
0.28,-3.00428418587982,-0.101821916226441,-3.13615593294128,0.529960905918439,174.726362996861,-0.144963141214248
0.29,-3.00463444546574,0.0053047170834891,-3.36936985637393,0.177676137166904,174.726362996861,-0.144963141214248
0.3,-2.99457190402241,0.063928497720023,-3.78169950894942,-0.0564787934975604,174.726362996861,-0.144963141214248
0.31,-2.60415503971561,-0.819363153840044,-3.24715769236613,5.43108903855926,137.798910182363,-0.144963141214248
0.32,-2.4180460903549,0.0343831336124632,-2.49131335502746,0.061651044589528,137.798910182363,-0.144963141214248
0.33,-2.31068579190008,0.00518792703450978,-2.842536364001,0.0609498375362197,129.864085610653,-0.144963141214248
0.34,1.1090362590665,0.0149585528882521,1.38229645578504,-0.173906709036017,-91.0902601554308,-0.144963141214248
0.35,1.26519145335472,-0.0044077433724816,1.73351931159547,0.0602490393373798,-91.0902601554308,-0.144963141214248
0.36,-0.874577420114535,-0.160038105339231,-1.20302774477877,0.644587264079465,61.8077056302154,-0.144963141214248
0.37,-1.04166942279824,0.111731911317624,-2.60232047516104,-0.756142436967966,61.8077056302154,-0.144963141214248
0.38,1.11845718664408,-0.0238908126728126,0.620844082637429,0.0595489566338789,-81.0191366605686,-0.144963141214248
0.39,1.0608244374946,0.0244959728505409,1.7883228946553,-0.0550766860318016,-81.0191366605686,-0.144963141214248
0.4,1.10926955000489,-0.0142368322882613,1.73106883047309,-0.291334420147237,-81.0191366605686,-0.144963141214248
0.41,-1.0599278379901,-0.00475760323782292,-1.61150461371704,-0.172505214851961,53.8728810585053,-0.144963141214248
0.42,-1.08863876009118,-0.0145282205868709,-1.71132323159193,-0.0550769926726594,-75.0915175182062,-0.144963141214248
0.43,1.099149336436,-0.0340694722943574,0.854058261341913,0.0623512295066524,-75.2206110120105,-0.144963141214248
0.44,1.01167967329117,0.0242630986421288,1.67241532282068,-0.171805438789311,-75.2206110120105,-0.144963141214248
0.45,-0.650551273897192,-0.00458280938024604,-2.19454746336174,-0.173205604196326,48.9899120912987,-0.144963141214248
0.46,-0.913775914132895,0.0244961514507572,-2.01998454593732,-0.289934050319617,48.9899120912987,-0.144963141214248
0.47,0.855524121802515,0.0441538955418508,1.49680340990228,-0.290633928589255,-75.2206110120105,-0.144963141214248
0.48,0.99213830251632,-0.00475748417101094,1.67241573126226,-0.0543779321186064,-75.2206110120105,-0.144963141214248
0.49,1.06006705414582,-0.0330216276646168,1.55685513570678,-0.0606742812048618,-75.2206110120105,-0.144963141214248
0.5,-1.03020846246006,-0.00469925073624691,-1.43763912054135,-0.172506134781163,51.7365821353524,-0.144963141214248
0.51,-0.933433224484627,0.0827127487926875,-2.2539030923311,-0.522693108568925,51.7365821353524,-0.144963141214248
0.52,1.04040954818613,-0.0338947719889601,1.0300172526482,0.0609517796015991,-73.0843120888576,-0.144963141214248
0.53,1.04075865113045,-0.0241823200371289,1.43884824551038,0.061651044589528,-73.0843120888576,-0.144963141214248
0.54,-0.796469592134075,0.00512958303817967,-1.20127637273577,-0.173205604196326,51.7365821353524,-0.144963141214248
0.55,-0.894350346863154,0.06346260472617,-2.25425384664678,-0.524092660680954,51.7365821353524,-0.144963141214248
0.56,0.893326935450527,-0.0530290360097845,1.09285877768901,0.176283944448615,-75.2206110120105,-0.144963141214248
0.57,1.04052612561667,-0.0142954059124153,1.49889803124889,0.0609522906696846,-75.2206110120105,-0.144963141214248
0.58,1.07984123108767,0.0142607722337698,1.55615582241324,-0.287839321764561,-75.2206110120105,-0.144963141214248
0.59,-1.0202057958601,-0.0142373170574498,-1.26307028077679,-0.0564758292959573,51.7365821353524,-0.144963141214248
0.6,-0.99170757899848,0.0245546230169429,-1.78676863137108,-0.289935481310316,51.7365821353524,-0.144963141214248
0.61,0.855174772222087,0.0537503313729149,1.38054273523771,-0.406665562851539,-68.2013431216519,-0.144963141214248
0.62,0.894373504375164,0.0147259253176129,1.67241716078463,-0.0550790369516956,-68.2013431216519,-0.144963141214248
0.63,0.962651750164881,-0.0142955079687431,1.49715293891312,-0.173903744834414,-68.2013431216519,-0.144963141214248
0.64,-0.864573035563162,0.0147840566960534,-1.55250203654313,-0.173205604196326,46.8536131681467,-0.144963141214248
0.65,-0.961814787373431,-0.0337206670132138,-1.49593983170323,-0.0564752160142548,46.8536131681467,-0.144963141214248
0.66,0.777358077399967,0.0246127884141565,1.43745334589231,-0.290633928589255,-65.1494875171475,-0.144963141214248
0.67,0.836039887358624,0.0244966872464474,1.61271823147061,-0.171810140629086,-65.1494875171475,-0.144963141214248
0.68,0.875064318928006,0.111910005002877,1.67137240282982,-0.757556707880956,-65.1494875171475,-0.144963141214248
0.69,-0.786581989129187,0.0148421795698006,-1.37619213773817,-0.173205604196326,43.8017575636422,-0.144963141214248
0.7,-0.796468639608399,0.0534604909312653,-1.90303242035214,-0.405969977553878,43.8017575636422,-0.144963141214248
0.71,0.7966089868889,-0.0143536648612645,1.08727213371352,-0.0564746027325393,-65.1494875171475,-0.144963141214248
0.72,0.855580858411224,-0.00481508825845729,1.55406559174249,-0.0550800590878795,-65.1494875171475,-0.144963141214248
0.73,0.884950705761718,0.0143201793162101,1.67067727599459,-0.287148336079734,-65.1494875171475,-0.144963141214248
0.74,-0.874285504524384,-0.0141797044653025,-1.31893133436595,-0.0571713123799753,48.9899120912987,-0.144963141214248
0.75,-0.893826764736562,0.00518756983683368,-1.84612027806649,-0.173902518270996,48.9899120912987,-0.144963141214248
0.76,0.816672017727952,0.00518756133214042,1.5533705159616,-0.173205604196326,-68.2013431216519,-0.144963141214248
0.77,0.971958626209176,-0.0140058971538192,1.38228108839669,0.0595609156472201,-68.2013431216519,-0.144963141214248
0.78,1.02092778860805,-0.0724558789835648,1.38158483836534,0.175596331813362,-68.2013431216519,-0.144963141214248
0.79,-0.84613261452323,0.0244390406355271,-2.07516961807961,-0.289937423369053,51.7365821353524,-0.144963141214248
0.8,-0.972049741355768,0.0147843288462399,-1.78711851776247,-0.173205604196326,51.7365821353524,-0.144963141214248
0.81,0.972422384523316,0.00547719766114632,1.32153898381332,-0.174598205782261,-70.032456484354,-0.144963141214248
0.82,0.972422384523316,0.0149002173966153,1.67346242928312,-0.0557772798034009,-70.032456484354,-0.144963141214248
0.83,-0.678756903291214,-0.13084843532441,-0.970136138345081,0.410455535939644,51.7365821353524,-0.144963141214248
0.84,-0.816356536403797,0.0732923825215747,-2.31187520677366,-0.524098589070902,51.7365821353524,-0.144963141214248
0.85,-0.962959081374319,-0.0146432926833644,-1.77008691490464,-0.0543854959396993,-65.0326014451337,-0.144963141214248
0.86,0.787590837163685,0.0438647609930724,1.90390743476631,-0.405974883827483,-65.1494875171475,-0.144963141214248
0.87,0.904317367723174,0.00472438984570782,1.61341831058958,-0.053690217289551,-65.1494875171475,-0.144963141214248
0.88,0.924426906577953,0.0238605844358128,1.48186576466418,-0.403888741236187,46.7416100682514,-0.144963141214248
0.89,-0.941696066011763,-0.00435171265828008,-1.14678928643036,-0.174596570351091,46.8536131681467,-0.144963141214248
0.9,-0.942274794363874,-0.00464105132025594,-1.37862561771584,-0.173205604196326,46.8536131681467,-0.144963141214248
0.91,0.816323637680379,0.00507173231517102,1.32084390803576,-0.172510325546178,-62.0976319126439,-0.144963141214248
0.92,0.787416596114505,0.102141820002751,1.90460526747644,-0.522014695192453,-62.0976319126439,-0.144963141214248
0.93,0.904374946295998,-0.00550855702458791,1.49506985587386,-0.169730233081756,-62.0976319126439,-0.144963141214248
0.94,-0.873649257131748,-0.00440975048454046,-1.32135919834981,-0.173900576205623,46.8536131681467,-0.144963141214248
0.95,-0.796467151283199,0.0827743075675441,-2.01999955594173,-0.522711098192389,46.8536131681467,-0.144963141214248
0.96,0.972827041920082,-0.024124511837591,1.14418836035871,-0.0557772798034009,-68.2013431216519,-0.144963141214248
0.97,0.943457279617076,0.0147268183120811,1.7886876379047,-0.0550826144350077,-68.2013431216519,-0.144963141214248
0.98,-0.708820219409447,-0.024066737656826,-1.72811859542241,0.0609564814347519,56.9247366630098,-0.144963141214248
0.99,-1.04015494525807,-0.00464105132025594,-1.61254523625796,-0.173205604196326,56.9247366630098,-0.144963141214248
1,0.864829858218993,0.0149002173966153,1.14731038114459,-0.173205604196326,-70.032456484354,-0.144963141214248
1.01,1.04122118476487,-0.0632648574708714,1.31945733029318,0.179773625496382,-70.032456484354,-0.144963141214248
1.02,0.982193018881752,0.180423429776238,1.90773035152465,-1.10985558213852,-70.032456484354,-0.144963141214248
1.03,-0.768078750612001,0.0438656284718112,-2.42676604957191,-0.406674148808802,53.8728810585053,-0.144963141214248
1.04,-1.117973706724,-0.101827733446687,-1.08639232019852,0.411160218276016,53.8728810585053,-0.144963141214248
1.05,1.0211600930009,-0.00452558800565866,1.26357697812597,-0.173205604196326,-70.032456484354,-0.144963141214248
1.06,1.0213332794681,-0.0140653467630593,1.67276817037547,0.0595698082520096,-70.032456484354,-0.144963141214248
1.07,-0.864572304158425,-0.00481419526399231,-1.31927443051632,-0.0550836365711785,56.9247366630098,-0.144963141214248
1.08,-1.03049995281279,-0.0241823200371289,-1.6701585298044,-0.0557772798034009,56.9247366630098,-0.144963141214248
1.09,0.738388741029063,-0.0142962904016404,1.14557580602557,-0.056470718608389,-68.2013431216519,-0.144963141214248
1.1,0.972537762790981,-0.0045833621864236,1.49680662633086,-0.056470616394772,-68.2013431216519,-0.144963141214248
1.11,1.07938023680386,-0.120850412296982,1.32361502134625,0.525818467139208,-68.2013431216519,-0.144963141214248
1.12,-0.708645774247642,-0.0144116856786916,-1.08258073751023,-0.0557772798034009,46.8536131681467,-0.144963141214248
1.13,-0.883709825480709,-0.0240093291778712,-1.31961967095684,-0.0564703097539207,46.8536131681467,-0.144963141214248
1.14,-0.835087316672235,0.0150155276267339,-1.78781247034391,-0.173898531933229,46.8536131681467,-0.144963141214248
1.15,0.923857445782967,-0.0438388819747323,0.205728613059922,0.0623438701128137,-54.1628073409338,-0.144963141214248
1.16,0.777067335460271,-0.0144693237843622,1.26219126830764,-0.0550845564937583,-54.1628073409338,-0.144963141214248
1.17,0.874485522535049,-0.131255890773079,1.02895947581922,0.529286478873163,-54.1628073409338,-0.144963141214248
1.18,-0.443685765390739,-0.0726897652516025,-0.62026841073595,0.177001812335232,35.8669329919321,-0.144963141214248
1.19,-0.64996381970974,0.0144969292554794,-1.31615991472266,-0.171820770858744,35.8669329919321,-0.144963141214248
1.2,-0.63944426418409,-0.00446823905956322,-1.55423390578392,-0.1738979186515,35.8669329919321,-0.144963141214248
1.21,0.660050062964395,0.014842621814411,0.910268027055312,-0.173205604196326,-52.0265084177809,-0.144963141214248
1.22,0.845116202476096,-0.0145844469112247,0.677726613339178,-0.0550851697754608,-52.0265084177809,-0.144963141214248
1.23,0.738330209926717,-0.00498652275384998,1.49507904568027,-0.053701256380339,-52.0265084177809,-0.144963141214248
1.24,0.738157440191147,0.0530616337491992,1.55477006154716,-0.521339143810688,-52.0265084177809,-0.144963141214248
1.25,-0.601455609065144,0.0246132901921718,-1.72501143149431,-0.290633928589255,38.9187885964366,-0.144963141214248
1.26,-0.795544456829877,-0.0822881486640696,-1.02772941851572,0.293740888708042,38.9187885964366,-0.144963141214248
1.27,0.591655367311785,0.00512958303817967,1.02826705486889,-0.173205604196326,-52.0265084177809,-0.144963141214248
1.28,0.767411671142563,0.0146700732014178,1.08588473910099,-0.172514107456724,-52.0265084177809,-0.144963141214248
1.29,0.845058972599015,-0.0922315952815416,0.971339749402458,0.411861834190357,-52.0265084177809,-0.144963141214248
1.3,0.757525947677142,0.083122100787426,1.49680764742155,-0.642918901768038,-52.0265084177809,-0.144963141214248
1.31,-0.737783691411253,0.0049570514340209,-1.19954623935673,-0.172514414097576,40.7499019591387,-0.144963141214248
1.32,-0.737668636323041,0.00507208100815335,-1.49316121339384,-0.172514516311193,40.7499019591387,-0.144963141214248
1.33,0.591540125120321,0.0343839925881535,1.26322755122059,-0.289942942917739,-54.1628073409338,-0.144963141214248
1.34,0.903395608787263,-0.0825187010845599,0.679103899156694,0.295125926459666,-54.1628073409338,-0.144963141214248
1.35,0.825805392630837,-0.0433212531423972,1.26322734700308,0.177007025249728,-54.1628073409338,-0.144963141214248
1.36,0.809196073438342,-0.00492839137650606,1.42228472005504,-0.288561891497377,40.6549892487958,-0.144963141214248
1.37,-0.630651164338824,0.0148427578900585,-1.72570803889307,-0.289943351772246,40.7499019591387,-0.144963141214248
1.38,-0.737093922191755,-0.0238950650278114,-1.49592119682531,0.0595796207793529,40.7499019591387,-0.144963141214248
1.39,0.611253568244215,-0.0142968006843511,1.26184761055921,-0.0564676521931754,-52.0265084177809,-0.144963141214248
1.4,0.757583296622683,-0.00469848531273292,1.26219249361581,-0.172515334020169,-52.0265084177809,-0.144963141214248
1.41,0.767296488483946,0.0343266351379234,1.43849902282576,-0.289943760626741,-52.0265084177809,-0.144963141214248
1.42,-0.396040595488569,-0.0726909899307772,-1.0839640477699,0.177009171735765,40.7499019591387,-0.144963141214248
1.43,-0.737496036681331,-0.0144116856786916,-1.20092720110551,-0.0557772798034009,40.7499019591387,-0.144963141214248
1.44,-0.795775434485041,-0.0724614920922893,-1.20230550802701,0.176319923695804,40.7499019591387,-0.144963141214248
1.45,0.650163625101963,0.0247282432240594,1.26253727456367,-0.290633928589255,-52.0265084177809,-0.144963141214248
1.46,0.757525811602044,0.0243265539691594,1.26253727456367,-0.171826290407468,-52.0265084177809,-0.144963141214248
1.47,0.767296437455787,0.0632943935118174,1.49715293891312,-0.405993588939748,-52.0265084177809,-0.144963141214248
1.48,-0.464147695941379,-0.0337808565307783,-1.20161594613132,0.0602721396551384,40.7499019591387,-0.144963141214248
1.49,-0.717667929685123,0.00512958303817967,-1.31961231911437,-0.173205604196326,40.7499019591387,-0.144963141214248
1.5,-0.7562917095733,-0.0139528941143538,-1.37998738300508,-0.0578450239232827,40.7499019591387,-0.144963141214248
1.51,0.806321600429909,-0.0238382773920352,0.911302216739099,-0.0571555714560879,-54.1628073409338,-0.144963141214248
1.52,0.767525722676943,0.0146708896519925,1.55443018181876,-0.171827516970873,-54.1628073409338,-0.144963141214248
1.53,0.816493498808582,0.00484296588086749,1.55374215155412,-0.171827721398107,-54.1628073409338,-0.144963141214248
1.54,-0.717668099778988,-0.00464105132025594,-1.08568376605094,-0.0564661189888931,43.8017575636422,-0.144963141214248
1.55,-0.796406272886005,0.0144990724420839,-1.25820505666358,-0.288567717673629,43.8017575636422,-0.144963141214248
1.56,-0.796119732270932,-0.0241823200371289,-1.49350885338641,-0.0557772798034009,43.8017575636422,-0.144963141214248
1.57,0.79683741313492,0.0244989835169827,1.20250770638196,-0.289945396044614,-54.1628073409338,-0.144963141214248
1.58,0.670449213939747,0.150772603886777,2.13787581027425,-0.756216644174823,-54.1628073409338,-0.144963141214248
1.59,0.913283126742975,-0.130571122317166,1.08898220270554,0.408429392829056,-54.1628073409338,-0.144963141214248
1.6,-0.717840095587455,-0.0142398939828627,-0.850034984162791,-0.0564655057071906,40.7499019591387,-0.144963141214248
1.61,-0.737438628202936,-0.0240678092504005,-1.25992482599567,-0.0564654034869376,40.7499019591387,-0.144963141214248
1.62,-0.669502162803252,0.0146712298419315,-1.72675049940117,-0.172517582726406,40.7499019591387,-0.144963141214248
1.63,0.689360180048568,0.0148429790126376,1.20285253839412,-0.289946009332952,-49.2798383737272,-0.144963141214248
1.64,0.776609088199609,-0.0240106303992756,1.08863686013976,0.0609632275468424,-49.2798383737272,-0.144963141214248
1.65,0.79689429431902,-0.0149838994246033,1.20216583554968,-0.0530264204871271,-49.2798383737272,-0.144963141214248
1.66,-0.638874091570109,-0.0337241029159729,-0.444265001996107,-0.0564648924188522,38.9187885964366,-0.144963141214248
1.67,-0.688356638949948,0.00507237867297719,-1.20230081101182,-0.173205604196326,38.9187885964366,-0.144963141214248
1.68,-0.717782967765046,0.024442068313014,-1.25992446861508,-0.289259112212873,38.9187885964366,-0.144963141214248
1.69,0.776609385863889,-0.0335526429048528,0.97132749633391,0.059589126665806,-52.0265084177809,-0.144963141214248
1.7,0.825805690295658,-0.00464105132025594,1.14557269170242,-0.0557772798034009,-52.0265084177809,-0.144963141214248
1.71,0.796665306764332,0.0243850000229037,1.55512045848227,-0.172518502648986,-52.0265084177809,-0.144963141214248
1.72,-0.70841253433631,0.0244993662298424,-1.43519971825022,-0.289259929921809,46.8536131681467,-0.144963141214248
