t,iq,id,vq,vd,omega,r
0,0,0,0,0,893.743543417986,0
0.01,-0.00464105132025594,-0.00464105132025594,-0.027848879358281,-0.0557772798034009,896.795399022491,4999.71007371757
0.02,-0.00464105132025594,-0.00464105132025594,-0.027848879358281,-0.0557772798034009,888.861179321206,4999.71007371757
0.03,-0.00464105132025594,-0.00464105132025594,-0.027848879358281,-0.0557772798034009,880.926657184708,4999.71007371757
0.04,-0.00464105132025594,-0.00464105132025594,-0.027848879358281,-0.0557772798034009,877.873894274566,4999.71007371757
0.05,-0.00464105132025594,-0.00464105132025594,-0.027848879358281,-0.0557772798034009,880.92574987907,4999.71007371757
0.06,-0.00464105132025594,-0.00464105132025594,-0.027848879358281,-0.0557772798034009,872.991420201344,4999.71007371757
0.07,-0.00464105132025594,-0.00464105132025594,-0.027848879358281,-0.0557772798034009,867.803412308942,4999.71007371757
0.08,-0.00464105132025594,-0.00464105132025594,-0.027848879358281,-0.0557772798034009,864.752381527745,4999.71007371757
0.09,-0.00464105132025594,-0.00464105132025594,-0.027848879358281,-0.0557772798034009,856.817740250103,4999.71007371757
0.1,-0.00464105132025594,-0.00464105132025594,-0.027848879358281,-0.0557772798034009,856.815540721284,4999.71007371757
0.11,-0.00464105132025594,-0.00464105132025594,-0.027848879358281,-0.0557772798034009,862.915466907783,4999.71007371757
0.12,-0.00464105132025594,-0.00464105132025594,-0.027848879358281,-0.0557772798034009,854.983877476377,4999.71007371757
0.13,-0.00464105132025594,-0.00464105132025594,-0.027848879358281,-0.0557772798034009,843.999369334872,4999.71007371757
0.14,-0.00464105132025594,-0.00464105132025594,-0.027848879358281,-0.0557772798034009,841.861998141419,4999.71007371757
0.15,-0.00464105132025594,-0.00464105132025594,-0.027848879358281,-0.0557772798034009,841.861998141419,4999.71007371757
0.16,-0.00464105132025594,-0.00464105132025594,-0.027848879358281,-0.0557772798034009,833.927173569709,4999.71007371757
0.17,-0.00464105132025594,-0.00464105132025594,-0.027848879358281,-0.0557772798034009,817.756545464705,4999.71007371757
0.18,-0.00464105132025594,-0.00464105132025594,-0.027848879358281,-0.0557772798034009,812.871019545247,4999.71007371757
0.19,-0.00464105132025594,-0.00464105132025594,-0.027848879358281,-0.0557772798034009,820.804194470343,4999.71007371757
0.2,-0.00464105132025594,-0.00464105132025594,-0.027848879358281,-0.0557772798034009,817.752338865838,4999.71007371757
0.21,-0.00464105132025594,-0.00464105132025594,-0.027848879358281,-0.0557772798034009,809.821363469561,4999.71007371757
0.22,-0.00464105132025594,-0.00464105132025594,-0.027848879358281,-0.0557772798034009,799.746390799265,-0.144963141214248
0.23,-4.53821539363443,-0.249023773932893,0.030103494682623,0.300019006536644,527.903415699469,-0.144963141214248
0.24,-4.55804877956535,-0.0240654731515092,-1.20022575970746,1.23452996475788,414.90739907132,-0.144963141214248
0.25,-4.52838634421625,-0.102230564785117,-2.55101928223929,1.58751720056892,359.973998190249,-0.144963141214248
0.26,-3.49217345052605,0.0239699716481383,-2.72873397972851,0.182589170800153,210.738259130007,-0.144963141214248
0.27,-3.44413793865969,-0.0142364908011479,-3.60538719096758,0.647388947330663,210.738259130007,-0.144963141214248
0.28,-3.49246556773454,0.0240869526605204,-4.01806777027658,0.299314728815252,210.738259130007,-0.144963141214248
0.29,-1.19554919404799,-0.11159259552553,-0.385029411952529,0.411831043443789,56.9247366630098,-0.144963141214248
0.3,-0.991533494665593,0.00559656818481577,-1.61150461371704,0.0595463725203655,56.9247366630098,-0.144963141214248
0.31,-1.06934837258841,-0.14979981245036,-1.49559825523405,0.523648319510627,56.9247366630098,-0.144963141214248
0.32,-1.04050336244606,-0.0139448346610395,-1.55179974333349,-0.292737996147699,56.9247366630098,-0.144963141214248
0.33,0.278590649088297,-0.0241239720440881,0.149864207743299,-0.173205604196326,-28.2220347026505,-0.144963141214248
0.34,0.356639061501974,-0.0142366668487734,0.559740933846304,-0.0571795884751851,-28.2220347026505,-0.144963141214248
0.35,0.347510104171808,-0.0434902638463553,0.732901194180153,0.0602489374213164,-28.2220347026505,-0.144963141214248
0.36,0.386126000173323,-0.0142950399909932,0.676348230485303,-0.0564782326357138,-28.2220347026505,-0.144963141214248
0.37,0.298715129477551,0.0731741367825029,1.26008680926636,-0.523388021133529,-28.2220347026505,-0.144963141214248
0.38,0.395605120909251,0.00530450127135822,0.853709942686349,-0.173906355525066,-28.2220347026505,-0.144963141214248
0.39,0.366468161216307,-0.0238325338691409,1.0286215418595,-0.0578792315342627,-28.2220347026505,-0.144963141214248
0.4,0.386242612327671,0.0147253494651182,0.851609946460335,-0.289933378777358,-28.2220347026505,-0.144963141214248
0.41,-0.288572256989201,-0.00458277039282505,-1.02286626183804,-0.0564777288634321,17.8609849253589,-0.144963141214248
0.42,-0.298051444795172,0.00518785558254852,-1.37548968999416,-0.173205604196326,17.8609849253589,-0.144963141214248
0.43,0.748047379247138,0.0343249577908718,1.3798451067384,-0.289933681032803,-62.0976319126439,-0.144963141214248
0.44,1.00138475292915,-0.0823983357400217,1.03001989538394,0.294407252961388,-62.0976319126439,-0.144963141214248
0.45,0.972014652757026,-0.0724530178774635,1.3819430899629,0.293007463110989,-62.0976319126439,-0.144963141214248
0.46,-0.942621949730086,-0.014236968642323,-1.43624209254805,-0.057177170405587,53.8728810585053,-0.144963141214248
0.47,0.895363691607995,-0.0627407818093193,1.37809729062668,0.176979835334537,-83.1554355837206,-0.144963141214248
0.48,1.29473687386192,-0.0534360008675473,1.49785196469606,0.179079368982457,-83.1554355837206,-0.144963141214248
0.49,1.28508268399326,0.121795056721137,1.84942589800455,-0.757548654031457,-83.1554355837206,-0.144963141214248
0.5,-0.942330922336258,0.0150166283541463,-1.4962932550007,-0.290633928589255,56.9247366630098,-0.144963141214248
0.51,-1.03003388509467,-0.0140625031044675,-1.55564559298057,-0.0578756043898154,56.9247366630098,-0.144963141214248
0.52,1.23593856863787,-0.0630321026203013,1.26428383253696,0.17768068742842,-78.272466616515,-0.144963141214248
0.53,1.23564770890527,-0.0912386129658149,1.67590877733885,0.406943617515989,-78.272466616515,-0.144963141214248
0.54,-0.708301240967188,-0.00458287937373642,-1.31928266611899,-0.173205604196326,51.7365821353524,-0.144963141214248
0.55,-0.845322751082206,0.00507141947582584,-1.78572055890202,-0.173205604196326,51.7365821353524,-0.144963141214248
0.56,1.00208321867434,0.0051877382174654,1.55510863441812,-0.056476217559924,-75.2206110120105,-0.144963141214248
0.57,1.23524101666527,-0.120667580900776,1.26742411410133,0.642503133511537,-75.2206110120105,-0.144963141214248
0.58,1.20674319388629,0.0148420789834536,1.61515879037337,-0.290633928589255,-75.2206110120105,-0.144963141214248
0.59,-0.806472499043087,0.0438052102612211,-1.6090618984871,-0.40596634647873,51.7365821353524,-0.144963141214248
0.6,-0.91284507347847,-0.052971128289088,-1.5552930605902,0.0595554403414336,51.7365821353524,-0.144963141214248
0.61,1.04070059850441,0.0344995993774637,1.79112023669024,-0.290633928589255,-73.0843120888576,-0.144963141214248
0.62,1.12898495378195,0.0246127468741353,1.78937609431206,-0.0557772798034009,-73.0843120888576,-0.144963141214248
0.63,-0.4843316788315,-0.10176642993718,-1.37584267532234,0.293714763452763,51.7365821353524,-0.144963141214248
0.64,-0.883881967352108,-0.00469913943393779,-1.49489419692408,-0.172507472467457,51.7365821353524,-0.144963141214248
0.65,0.923453053269896,0.00518766276880003,1.14801870132237,-0.0564753107804839,-73.0843120888576,-0.144963141214248
0.66,1.14858415971295,-0.0242984627322467,1.49575851074322,0.0623489748148247,-73.0843120888576,-0.144963141214248
0.67,1.12904284908077,0.0146099025741285,1.90633612465156,-0.172507774722816,-73.0843120888576,-0.144963141214248
0.68,-0.835261080950165,-0.0240662108742572,-1.25992962358694,-0.0564750085251249,51.7365821353524,-0.144963141214248
0.69,-0.864572967259349,-0.00446691272513288,-1.66981007373453,-0.0571725357432764,51.7365821353524,-0.144963141214248
0.7,1.13840709298831,0.0246708517550509,1.49819815613022,-0.290633928589255,-75.2206110120105,-0.144963141214248
0.71,1.16783507169203,0.0536926076746604,1.84942479085207,-0.172508177743324,-75.2206110120105,-0.144963141214248
0.72,-0.844857585097651,-0.0142376225344576,-0.96840136729956,-0.0564746055046165,56.9247366630098,-0.144963141214248
0.73,-0.952160533428455,-0.0139475843585597,-1.61254937801618,-0.057868954651689,56.9247366630098,-0.144963141214248
0.74,1.17835976171588,-0.0145276942426015,1.61167513555043,-0.0550801556057578,-81.0191366605686,-0.144963141214248
0.75,1.27566002502818,-0.0144116856786916,1.84803197308336,0.061651044589528,-81.0191366605686,-0.144963141214248
0.76,-0.72795793142366,-0.0144696731945235,-1.26097353236796,-0.0557772798034009,59.9765922675133,-0.144963141214248
0.77,-1.04021233505111,-0.0242982783004615,-1.37758505629347,-0.0550804578743876,59.9765922675133,-0.144963141214248
0.78,0.992427419228973,-0.00446713907446138,1.26218927142498,-0.0564740009805485,-73.0843120888576,-0.144963141214248
0.79,1.14823584060962,-0.0142377985820815,1.61515667671683,0.0609544241641666,-73.0843120888576,-0.144963141214248
0.8,1.22605319996532,-0.100840591360259,1.49958825634516,0.288845976966061,-73.0843120888576,-0.144963141214248
0.81,-0.765939292886451,-0.033489389600255,-1.20544927926466,-0.0578665365687669,48.9899120912987,-0.144963141214248
0.82,-0.796294183218958,0.00507164582182749,-1.55180729210402,-0.172509286026324,48.9899120912987,-0.144963141214248
0.83,1.04070096736578,0.0344994149467772,1.14696819997736,-0.290633928589255,-68.2013431216519,-0.144963141214248
0.84,1.13800188456467,-0.0917079537927567,1.38227901509271,0.409759317769811,-68.2013431216519,-0.144963141214248
0.85,1.11880816370168,-0.0044673151220885,1.61515607281305,-0.174597635998887,-68.2013431216519,-0.144963141214248
0.86,-0.912615202458847,-0.0141800709467143,-1.20440320648951,-0.0571691101023887,53.8728810585053,-0.144963141214248
0.87,-0.903236264466469,-0.0340108496954974,-1.47681927083248,0.0623468589872356,-72.9573548954499,-0.144963141214248
0.88,1.16783507169203,-0.00452527748651331,1.55580685500048,-0.0564729934493221,-73.0843120888576,-0.144963141214248
0.89,1.16789295022584,0.092833778128861,1.84907643543729,-0.524794964480974,-73.0843120888576,-0.144963141214248
0.9,-0.913483657107024,-0.00469892147100425,-1.49384938230073,-0.172510092053978,59.9765922675133,-0.144963141214248
0.91,-0.952797616462329,0.0145530467904944,-1.84403618456218,-0.171814781415202,59.9765922675133,-0.144963141214248
0.92,1.19760980183551,-0.0147588059798182,1.4950691473938,-0.053691347926886,-75.2206110120105,-0.144963141214248
0.93,1.28461992398964,-0.0724570418247768,1.4995836767493,0.293726853880827,-75.2206110120105,-0.144963141214248
0.94,-0.854454894034599,-0.00464105132025594,-1.02739583841018,-0.173205604196326,56.9247366630098,-0.144963141214248
0.95,-0.855264522847465,0.0436916663629519,-1.90234416085651,-0.405282219501916,56.9247366630098,-0.144963141214248
0.96,0.895529346383713,0.0440964807693873,2.43040913696546,-0.290633928589255,-73.0843120888576,-0.144963141214248
0.97,1.23594045486005,-0.0337217085227408,1.44023425765322,0.178384562115976,-73.0843120888576,-0.144963141214248
0.98,1.20570565730676,0.00455155218673527,1.71719474432837,-0.403894016294014,56.7947276122159,-0.144963141214248
0.99,-0.942564155029107,-0.0338951596945858,-1.31858197959069,-0.0557772798034009,56.9247366630098,-0.144963141214248
1,-0.913257006968404,0.00484065144862642,-1.65281373049358,-0.17112209040301,-68.0762170421802,-0.144963141214248
1.01,1.05087634906505,0.0340948185043916,1.67207415018916,-0.289245120897283,-68.2013431216519,-0.144963141214248
1.02,1.14788941611265,-0.0427992759253978,1.55823442236515,0.17421924732306,-68.2013431216519,-0.144963141214248
1.03,-0.580935194961786,-0.0436080664165479,-0.910431580777562,-0.0557772798034009,48.9899120912987,-0.144963141214248
1.04,-0.77715644627899,0.0144959478969627,-1.37411539185236,-0.171817401015072,48.9899120912987,-0.144963141214248
1.05,-0.807173020290361,0.0145537509809964,-1.41925058029047,-0.171123601679805,-60.1572621121385,-0.144963141214248
1.06,1.00167655157908,-0.0242977920762122,1.20457654655831,-0.0550833797163466,-60.2665185499418,-0.144963141214248
1.07,0.942821843271161,0.073697206453337,1.79215523790056,-0.408756052304102,-60.2665185499418,-0.144963141214248
1.08,1.02209970656621,-0.0148157204448466,1.48467917701981,-0.287859134308729,46.74649303232,-0.144963141214248
1.09,-0.737265495595197,-0.0240668982986362,-1.26062044637804,-0.056470877621746,46.8536131681467,-0.144963141214248
1.1,-0.718358979375544,0.0146694074518758,-1.60942625729193,-0.172512107129767,46.8536131681467,-0.144963141214248
1.11,0.992252123755804,-0.0241823200371289,1.37915242191176,-0.0557772798034009,-62.0976319126439,-0.144963141214248
1.12,1.01162029339718,0.0147271602364297,1.67276839508609,-0.0550839842404147,-62.0976319126439,-0.144963141214248
1.13,1.08061465491549,-0.0632648574708714,1.36599543614197,-0.055084084992201,48.8788245480906,-0.144963141214248
1.14,-0.805717730806316,0.00512958303817967,-1.08431175179894,-0.173205604196326,48.9899120912987,-0.144963141214248
1.15,-0.688989080399124,0.112145276422839,-1.90304348860466,-0.640839921885206,48.9899120912987,-0.144963141214248
1.16,1.06041574593594,0.0342685295533778,1.3798451067384,-0.28994103604679,-65.1494875171475,-0.144963141214248
1.17,1.04110504405057,0.0635228139742278,1.84803831405303,-0.289248345007898,-65.1494875171475,-0.144963141214248
1.18,-0.250059618692748,-0.0337224127132449,-1.84369834710598,-0.0564699708422929,48.9899120912987,-0.144963141214248
1.19,-0.786291799995114,-0.00452579724521914,-1.14261922483116,-0.173205604196326,48.9899120912987,-0.144963141214248
1.2,-0.766750531278243,0.00512958303817967,-1.49454267103113,-0.173205604196326,48.9899120912987,-0.144963141214248
1.21,0.982423459967333,0.0245556312122601,1.4964612605839,-0.289941539805722,-62.0976319126439,-0.144963141214248
1.22,1.03116139444838,0.0440393148102528,1.61411498225411,-0.172513316177929,-62.0976319126439,-0.144963141214248
1.23,1.04154527923743,0.0434058114136596,1.65928514679391,-0.520645266508836,48.87882454555,-0.144963141214248
1.24,-0.728128674813301,-0.00475622156245617,-1.37516050844095,-0.0557772798034009,48.9899120912987,-0.144963141214248
1.25,-0.795889704139434,0.00512958303817967,-1.31927194686361,-0.173205604196326,48.9899120912987,-0.144963141214248
1.26,1.0409895300973,0.034153644338601,1.49680735137619,-0.289250158566752,-65.1494875171475,-0.144963141214248
1.27,1.07978424252228,-0.0432631089786753,1.73245967768801,0.177004016204062,-65.1494875171475,-0.144963141214248
1.28,-0.601052608306814,-0.0143541340898374,-1.0839648558193,-0.0557772798034009,53.8728810585053,-0.144963141214248
1.29,-0.873939793197595,-0.0241247768324406,-1.20265438389394,-0.0557772798034009,53.8728810585053,-0.144963141214248
1.3,0.718788634955329,-0.0626895092546682,1.32257273558481,0.293050283421606,-65.1494875171475,-0.144963141214248
1.31,1.09990084269145,-0.0146993178714857,1.43642700737031,-0.0543945173254615,-65.1494875171475,-0.144963141214248
1.32,1.05087504966829,0.0538102006638658,1.96500312527186,-0.289942648102072,-65.1494875171475,-0.144963141214248
1.33,-0.746634165837013,0.00530211205548714,-1.26337870506206,-0.173896783931723,53.8728810585053,-0.144963141214248
1.34,-0.816293718542913,0.0143827057922464,-1.60805276435072,-0.170441288261883,53.8728810585053,-0.144963141214248
1.35,1.02150552794075,0.0245558659424253,1.38019024135083,-0.173205604196326,-68.2013431216519,-0.144963141214248
1.36,1.13835071505028,-0.0143542011565445,1.67414994002,0.0609601671227614,-68.2013431216519,-0.144963141214248
1.37,1.17749075377231,-0.00475600359841401,1.73211363721992,-0.173205604196326,-68.2013431216519,-0.144963141214248
1.38,-0.776176359100573,-0.0140094113865688,-1.49626668334123,-0.0578493076927468,53.8728810585053,-0.144963141214248
1.39,-0.864054659251908,-0.0140669294409554,-1.37895854922129,-0.0571584302260588,53.8728810585053,-0.144963141214248
1.4,1.01127511799748,0.00530193600786327,1.38156952166213,-0.173896078655869,-62.0976319126439,-0.144963141214248
1.41,1.06024320853558,-0.0338380691819028,1.55649652032154,0.178388995274727,-62.0976319126439,-0.144963141214248
1.42,1.07030103077898,-0.0145265541262303,1.67242512250255,-0.173205604196326,-62.0976319126439,-0.144963141214248
1.43,-0.698643219972733,-0.0046984771609638,-1.37585475333122,-0.172515431992169,48.9899120912987,-0.144963141214248
1.44,-0.727725411301036,-0.0142968507656204,-1.55285069762968,-0.0564673512424221,48.9899120912987,-0.144963141214248
1.45,1.09840726786045,-0.0237804565228104,0.681856846759931,-0.0578471918651055,-60.2665185499418,-0.144963141214248
1.46,1.0597266861547,-0.0140098808458036,1.38294633603403,0.0595814347831823,-60.2665185499418,-0.144963141214248
1.47,1.079555008622,-0.0434366272172448,1.49887559245635,0.0595817370385413,-60.2665185499418,-0.144963141214248
1.48,-0.737381244278646,0.0050721991138901,-1.08430832969967,-0.173205604196326,48.9899120912987,-0.144963141214248
1.49,-0.678814822052322,0.0538680037479016,-1.67050295986464,-0.407372685302094,48.9899120912987,-0.144963141214248
1.5,0.913798578372701,0.0342120174808202,1.26391479350782,-0.289254994732648,-60.2665185499418,-0.144963141214248
1.51,1.07007136933367,-0.092060531580171,1.26322593337408,0.29443959488565,-60.2665185499418,-0.144963141214248
1.52,1.06024339296737,0.063581338015995,1.61514932924977,-0.407372987570803,-60.2665185499418,-0.144963141214248
1.53,-0.708642803198471,-0.0048130773438698,-1.02290008030286,-0.0550881151438066,48.9899120912987,-0.144963141214248
1.54,-0.72783999471893,0.00484291491413075,-1.43485450858984,-0.17182747638071,48.9899120912987,-0.144963141214248
1.55,0.855461398430828,0.0149002173966153,0.969955950343576,-0.173205604196326,-60.2665185499418,-0.144963141214248
1.56,0.973339454262305,-0.00492763561368987,1.7272955920686,-0.0543995549949304,-60.2665185499418,-0.144963141214248
1.57,1.04104605893487,0.0147856004453647,1.67208260479536,-0.172516842543877,-60.2665185499418,-0.144963141214248
1.58,-0.542713542131736,0.0149002173966153,-1.43347900268026,-0.173205604196326,48.9899120912987,-0.144963141214248
1.59,-0.669445229652625,-0.0144116856786916,-1.60978497969267,-0.0557772798034009,48.9899120912987,-0.144963141214248
1.6,-0.796896869960506,-0.0632075741455414,-1.13092536115598,0.0623395039732678,-57.1084583682729,-0.144963141214248
1.61,0.953110215575519,0.0147856675120783,1.43781137051282,-0.173205604196326,-57.2146629454373,-0.144963141214248
1.62,0.972651450760144,0.00495778336055869,1.67208335967841,-0.0544007640430665,-57.2146629454373,-0.144963141214248
1.63,0.993546368409817,0.0629517747227565,1.65902194134461,-0.521361634604824,46.7495448927787,-0.144963141214248
1.64,-0.63990403399783,0.0245563521688829,-1.43485551508723,-0.28994587221266,46.8536131681467,-0.144963141214248
1.65,-0.659101829105382,0.0442121204719221,-1.61253548829601,-0.291321884214063,46.8536131681467,-0.144963141214248
1.66,0.864888173554672,0.00518681606402988,1.20491408206267,-0.173205604196326,-54.1628073409338,-0.144963141214248
1.67,1.00121926581354,-0.043494690182854,1.14763411182094,0.0609632904816685,-54.1628073409338,-0.144963141214248
1.68,0.943110481448008,0.0923786971473998,1.6731146871752,-0.522739963950817,-54.1628073409338,-0.144963141214248
1.69,-0.562082080641065,0.00507237516151614,-0.847286586800519,-0.173205604196326,43.8017575636422,-0.144963141214248
1.7,-0.659044755361041,-0.0044122533458478,-1.143646777946,-0.0571521835084017,43.8017575636422,-0.144963141214248
1.71,-0.707726387353845,-0.0336098077323213,-1.08567930637734,0.0595889912873857,43.8017575636422,-0.144963141214248
1.72,0.914141674737575,0.043983389562006,1.31981810031681,-0.406687752284328,-54.1628073409338,-0.144963141214248
