timestamp,iq,id,iq_ref,id_ref,vq,vd,omega,omega_ref,r
0.0,0.0,0.0,0.0,0.0,0.0,0.0,0.0,54.971258932434544,0.0
0.001,0.0,0.0,10.0,0.0,0.0,1.0999999999999999,6.115472199294103,54.971258932434544,0.0
0.002,0.5307369851907212,-0.2913212625381807,10.0,0.0,0.14204533887919985,1.9316189316290207,13.317801563642547,54.971258932434544,0.0
0.003,1.0842913387634832,-0.6024330830807904,10.0,0.0,0.384357124667687,2.6386968949419622,20.697939467553027,54.971258932434544,0.0
0.004,1.5590443546685477,-0.8700465084428163,10.0,0.0,0.6994718867930164,3.2526109522886295,28.232747544420146,54.971258932434544,0.0
0.005,1.9399447555359186,-1.0838738622210777,10.0,0.0,1.065311453102468,3.7994935661768023,35.92944872443006,54.971258932434544,0.0
0.006,2.239750732602683,-1.2510087368845633,10.0,0.0,1.4655018868449925,4.299102221838433,43.75633668444442,54.971258932434544,0.0
0.007,2.4770151619816017,-1.382020589851471,6.818762890930987,0.0,1.8883740978591526,4.415731945849548,49.639487958151015,54.971258932434544,0.0
0.008,2.5003437622507394,-1.3944121670074328,3.9305049638205247,0.0,2.2806750151304955,4.276896415933691,53.34002410114579,54.971258932434544,0.0
0.009000000000000001,2.3318033859428082,-1.2978761920947588,2.0965492406360267,0.0,2.609119414671164,4.037094707853927,55.583577805107694,54.971258932434544,0.0
0.01,2.0632078006968415,-1.1422925749795172,0.9686491999283411,0.0,2.8645903653162397,3.7762482739041836,56.96173508683838,54.971258932434544,0.0
0.011,1.768765901166237,-0.9697731454119128,0.25966579751895935,0.0,3.0510082764205495,3.5300270576518726,57.73304667129099,54.971258932434544,0.0
0.012,1.4883609588500217,-0.8107357186884424,-0.15360787209591087,0.0,3.1783933521452905,3.3165996091611616,56.91539253916661,54.971258932434544,0.0
0.013000000000000001,1.2465928683543779,-0.672847410763285,0.23577785789895933,0.0,3.2581198358439556,3.2080090206189364,56.35297671962982,54.971258932434544,0.0
0.014,1.0847208790278708,-0.5745971883232494,0.5031685897954008,0.0,3.3095859709293785,3.1591575004304215,57.060819468370404,54.971258932434544,0.0
0.015,0.9879932438619875,-0.5126552115592544,0.12835161006575135,0.0,3.345189225267767,3.085455290655056,57.60448444880325,54.971258932434544,0.0
0.016,0.9046870111112981,-0.4654735558146788,-0.1698131353143577,0.0,3.365291370830518,3.0018300843474677,56.67587545070818,54.971258932434544,0.0
0.017,0.8270520052513933,-0.42185382705615837,0.2774451985504385,0.0,3.370694427600243,2.9884644657229233,55.97235233465705,54.971258932434544,0.0
0.018000000000000002,0.791238000350403,-0.3971516554166466,0.6191958225537784,0.0,3.3719395752377808,3.0132588904200373,56.47599613459991,54.971258932434544,0.0
0.019,0.7905187570156341,-0.38968439552061485,0.3523265505606963,0.0,3.3749652737091087,3.002646237969734,57.12010364963954,54.971258932434544,0.0
0.02,0.7821237913631349,-0.3843504778595601,0.008784345868831922,0.0,3.3761150787445158,2.9591927246038483,56.29728423898825,54.971258932434544,0.0
0.021,0.7561180722428625,-0.3709340950206753,0.4069337981289405,0.0,3.3713820890041273,2.9702080843203253,55.55619417693797,54.971258932434544,0.0
0.022,0.7541612460737351,-0.3651008081261299,0.7716294767090441,0.0,3.3677164364794154,3.015738832899729,56.20696283738818,54.971258932434544,0.0
0.023,0.7773563425732377,-0.37077567964071306,0.4338881074344021,0.0,3.3696529928006633,3.012980405086073,56.89355863390909,54.971258932434544,0.0
0.024,0.7818814126635781,-0.3726476431411502,0.07136721215920439,0.0,3.3712692179783246,2.973925784153438,55.9706334696963,54.971258932434544,0.0
0.025,0.7630462169575228,-0.3624875702409297,0.5228360488929791,0.0,3.367682030890926,2.994342151053871,55.26226752789619,54.971258932434544,0.0
0.026000000000000002,0.7686447525082613,-0.3591081171755157,0.8741089338384178,0.0,3.3662250600941177,3.0456793006645384,56.17715879706106,54.971258932434544,0.0
0.027,0.7963889715118545,-0.36767907999120525,0.4046043006097182,0.0,3.3710241017784384,3.03358292099496,56.75539168856132,54.971258932434544,0.0
0.028,0.7971772527117468,-0.36818127389143607,0.09764652729832213,0.0,3.374103133028236,2.9942965059868527,55.59526930297109,54.971258932434544,0.0
0.029,0.7777640344751742,-0.35529628418759,0.6714676163880705,0.0,3.371523248845818,3.0275798699555434,55.121222456804105,54.971258932434544,0.0
0.03,0.7899266676479991,-0.35282045463551137,0.9069914042278673,0.0,3.372386198124821,3.075914293049228,56.217781228559865,54.971258932434544,0.0
0.031,0.8168415063790583,-0.3627037111652635,0.34624679538873426,0.0,3.3791082112990853,3.052625417982052,56.297681197045655,54.971258932434544,0.0
0.032,0.8115196635003391,-0.36060128207873543,0.293032588499728,0.0,3.3824990358843903,3.0329460661735914,55.17100413788707,54.971258932434544,0.0
0.033,0.8007955591321347,-0.3493622511315174,0.8543736660244969,0.0,3.38236757371699,3.0789798256528367,55.50918334847446,54.971258932434544,0.0
0.034,0.8219453801367821,-0.3500029740057131,0.6799048165704021,0.0,3.387035503539888,3.0931583573980275,56.577388324760896,54.971258932434544,0.0
0.035,0.8339633848898209,-0.3531316819651762,0.1297410345039196,0.0,3.3929922442018134,3.0465020191054286,55.43778668954701,54.971258932434544,0.0
0.036000000000000004,0.8129975422441549,-0.34164672552226255,0.6948765745397378,0.0,3.392393044679973,3.0751999586714396,54.7108299518851,54.971258932434544,0.0
0.037,0.8231741895042659,-0.336484260883677,1.0609592331761863,0.0,3.3942705375211006,3.134256831753248,55.988952528657634,54.971258932434544,0.0
0.038,0.8548851234292439,-0.347308065714503,0.41172100882768947,0.0,3.4031082115640747,3.1091322992871424,55.93694879885865,54.971258932434544,0.0
0.039,0.8500366844693978,-0.34498383293134527,0.42806597506294,0.0,3.4081857613016844,3.0965447536261403,54.63984444129109,54.971258932434544,0.0
0.04,0.8436874350125131,-0.33369119851677975,1.0799322987581559,0.0,3.410277854041662,3.15791549649978,55.656967130053246,54.971258932434544,0.0
0.041,0.873304740639267,-0.338182677701874,0.5645138724008901,0.0,3.418904800849512,3.1468222881102905,56.21446382791465,54.971258932434544,0.0
0.042,0.8740655061396083,-0.33806743293230374,0.2733334745153876,0.0,3.4255021404211243,3.1110379245879325,54.801944013370786,54.971258932434544,0.0
0.043000000000000003,0.8578539968062329,-0.3223214705149774,0.9812865309779568,0.0,3.426130406265129,3.162069245246384,55.286259505543065,54.971258932434544,0.0
0.044,0.8798799959840069,-0.32210715088161007,0.7359787791607324,0.0,3.4319328620550813,3.1714119021559806,56.140846837096596,54.971258932434544,0.0
0.045,0.8891286612923226,-0.32510965852895,0.2969892343373459,0.0,3.4384217569945403,3.1337676733490762,54.59156610715016,54.971258932434544,0.0
0.046,0.8745009372529994,-0.31149223662044956,1.0754265275634092,0.0,3.438969398072954,3.1922562909173178,55.119936653328615,54.971258932434544,0.0
0.047,0.9015750006144632,-0.3128422053807002,0.8097544772652396,0.0,3.4455958075830626,3.204818088161362,55.90949327392464,54.971258932434544,0.0
0.048,0.913711706983936,-0.31785666049365235,0.40559382355232687,0.0,3.4533538462413875,3.173921098159548,54.454200392951826,54.971258932434544,0.0
0.049,0.9039283446463583,-0.30530370753324354,1.1384108494335605,0.0,3.4558154126569236,3.2327386273286405,55.214451601865655,54.971258932434544,0.0
0.05,0.9318637238830687,-0.30798836684358594,0.7558533182823352,0.0,3.4643334174015568,3.2333403361975144,55.57139663361043,54.971258932434544,0.0
0.051000000000000004,0.9380919032128163,-0.3103738064841872,0.5713794253981868,0.0,3.4722953443259774,3.2178613758143166,54.23179938428883,54.971258932434544,0.0
0.052000000000000005,0.9353053514531671,-0.2980358407206485,1.2485726455404471,0.0,3.4765321518892414,3.2814312997932302,55.40112519832317,54.971258932434544,0.0
0.053,0.9662788053277369,-0.30417693226661224,0.6596110758643885,0.0,3.4875011708217607,3.2640752618209907,54.88910933544821,54.971258932434544,0.0
0.054,0.9652877061100521,-0.3015924663314201,0.9164405032717323,0.0,3.495291981895474,3.284111337703484,54.453099969838554,54.971258932434544,0.0
0.055,0.978976855182939,-0.2934153739174751,1.1396267757025207,0.0,3.503433683943884,3.323389365408222,55.561066571656255,54.971258932434544,0.0
0.056,0.9999610689960295,-0.30001592132567534,0.579745398401453,0.0,3.5154968496969667,3.2935635742911886,54.380266651825906,54.971258932434544,0.0
0.057,0.9926300783661228,-0.28863252472307344,1.1760552811227138,0.0,3.5220529406626695,3.3401358308409366,55.18914599392782,54.971258932434544,0.0
0.058,1.0150059798127382,-0.2878980496400511,0.7694367394568222,0.0,3.5326436898936704,3.329480673356392,54.765569552779915,54.971258932434544,0.0
0.059000000000000004,1.0143142131904388,-0.2848994259787878,0.9832818538273226,0.0,3.5407873446012097,3.3488391078837365,54.474724416783694,54.971258932434544,0.0
0.06,1.028278073263186,-0.2759603780964171,1.1336697669819418,0.0,3.5490991682602804,3.37993734145818,55.36098716507887,54.971258932434544,0.0
0.061,1.0451799085990916,-0.28114294285481156,0.6866411105079117,0.0,3.5603491055131355,3.35636033941117,54.11410407123291,54.971258932434544,0.0
0.062,1.0414852615815238,-0.26841771641548273,1.3186542060429076,0.0,3.5666647482800933,3.4108331878930316,55.22235365062051,54.971258932434544,0.0
0.063,1.0677507290125923,-0.2720196050912778,0.7620184691672461,0.0,3.5783195716372727,3.390014105904136,54.171409028773276,54.971258932434544,0.0
0.064,1.065844018697613,-0.264307067302,1.295489279127477,0.0,3.585842606416266,3.437162953723188,55.06808563704642,54.971258932434544,0.0
0.065,1.0910388957463153,-0.2644515744290744,0.8461827079447848,0.0,3.5974212436611372,3.4228002857300286,54.192335180032565,54.971258932434544,0.0
0.066,1.0907518860417234,-0.25919917568765066,1.2918471739757336,0.0,3.605826541449377,3.4648314250738954,54.95475870566539,54.971258932434544,0.0
0.067,1.1150703641968578,-0.2570317583161445,0.9108004134270118,0.0,3.6174085314697275,3.4544502892474203,54.17674709758182,54.971258932434544,0.0
0.068,1.1157310655470543,-0.2532616762417455,1.307751335817326,0.0,3.626401174050928,3.493911042707078,54.882364734479765,54.971258932434544,0.0
0.069,1.1397620336670802,-0.24989796765654804,0.9558314593478999,0.0,3.6381083205963454,3.485007489963651,54.07940277813017,54.971258932434544,0.0
0.07,1.1409612117939603,-0.2463624076888853,1.3662309990657429,0.0,3.647399122702288,3.526936555370008,54.92492030745759,54.971258932434544,0.0
0.07100000000000001,1.1663990035419958,-0.24376306863179326,0.9439356206518005,0.0,3.659703179441669,3.5122591421125957,53.8390009827769,54.971258932434544,0.0
0.07200000000000001,1.165807765800425,-0.2381646257251721,1.498217862488721,0.0,3.6687192538522133,3.5657932903101184,55.06535727202628,54.971258932434544,0.0
0.073,1.1955198756504855,-0.23928881814171804,0.8840987344681132,0.0,3.6823667812363405,3.538505460167383,53.538819446683796,54.971258932434544,0.0
0.074,1.1916648266912353,-0.22924076969125085,1.6616920419968642,0.0,3.690804245614064,3.607708797369722,55.08679406705582,54.971258932434544,0.0
0.075,1.2262208918454518,-0.23585845176218745,0.8865493804646395,0.0,3.7061467227865594,3.573954203789211,53.55473554813479,54.971258932434544,0.0
0.076,1.2229563141214381,-0.2221925433793891,1.6667438737681501,0.0,3.715010066140935,3.639386802363892,54.94514294696606,54.971258932434544,0.0
0.077,1.2538952093733702,-0.22992701030028867,0.9718013342072027,0.0,3.730517785462469,3.611480926876851,53.70780380611203,54.971258932434544,0.0
0.078,1.2540541726288252,-0.21509823122337757,1.603105455897441,0.0,3.739975634935475,3.6646011926466215,54.62996902588203,54.971258932434544,0.0
0.079,1.2788870085440793,-0.22161952153118475,1.1454357450779653,0.0,3.7546653557627865,3.653968485061548,53.94017645741456,54.971258932434544,0.0
0.08,1.2869147514213248,-0.20853394594374347,1.5006428540619026,0.0,3.7653182075311635,3.688882776056797,54.211136199486944,54.971258932434544,0.0
0.081,1.3043204981024106,-0.21323226092280084,1.3727642103551858,0.0,3.7790448736257964,3.701917846525633,54.49704691263991,54.971258932434544,0.0
0.082,1.3223903716874676,-0.20411135140118808,1.2345509739766496,0.0,3.791652096960683,3.699283778364931,53.3720791513021,54.971258932434544,0.0
0.083,1.3256289529108685,-0.19937145031459547,1.8130266524568772,0.0,3.8023050111217023,3.7630127511516753,54.76106362890457,54.971258932434544,0.0
0.084,1.3608744775693433,-0.20544007775302675,1.120636366690942,0.0,3.8189804791743858,3.7356418079565943,53.641180977988945,54.971258932434544,0.0
0.085,1.3627699696989475,-0.19050955786356305,1.6938784716932118,0.0,3.8295482626400688,3.782799991406526,54.08641333690144,54.971258932434544,0.0
0.08600000000000001,1.3852358015353288,-0.1962082805724913,1.480110748192297,0.0,3.8445512508010533,3.794599977642207,54.50794149821621,54.971258932434544,0.0
0.08700000000000001,1.404113284815591,-0.1878368681082716,1.273979841877093,0.0,3.8582560961713535,3.784331676768285,53.16727115794288,54.971258932434544,0.0
0.088,1.405453638090377,-0.17899530295908417,1.9623548897586767,0.0,3.8686747688754624,3.8542845908214893,54.35982284838005,54.971258932434544,0.0
0.089,1.4414933305066717,-0.18874892341315053,1.3721934053806364,0.0,3.8862081796159202,3.8425316043463393,54.10317584716098,54.971258932434544,0.0
0.09,1.4532804090900893,-0.17586179358255294,1.5091977368429044,0.0,3.8992978301489125,3.8537431671773685,53.15663591509829,54.971258932434544,0.0
0.091,1.4617765567736165,-0.1727951511942627,2.000613933047613,0.0,3.9119912125473015,3.9170115715871336,54.385503916167885,54.971258932434544,0.0
0.092,1.4983709617441083,-0.1801310018668436,1.3920374826754829,0.0,3.9305797071446946,3.899424479222863,54.02590024506343,54.971258932434544,0.0
0.093,1.5068649438518187,-0.16576683344604826,1.58129290510142,0.0,3.943897226012908,3.911790412543187,53.03351071929155,54.971258932434544,0.0
0.094,1.515413476152511,-0.16163050239133314,2.0968651501187923,0.0,3.9568082315945223,3.9782164984139543,54.18532182857175,54.971258932434544,0.0
0.095,1.5532950723077246,-0.17027536970528911,1.5288189665173184,0.0,3.976063043920135,3.967568783355403,54.84856092036277,54.971258932434544,0.0
0.096,1.5607166691150636,-0.1666013990165972,1.1984264007425263,0.0,3.9918370180584346,3.9288110409488013,53.97389582742815,54.971258932434544,0.0
0.097,1.5392569975299057,-0.16021768345076748,1.6457325782599002,0.0,4.001492351536889,3.9504488552237897,54.85312830303044,54.971258932434544,0.0
0.098,1.5374994831649085,-0.1704765809630483,1.207297646752798,0.0,4.013538248977006,3.918166247042466,55.61014179944297,54.971258932434544,0.0
0.099,1.5214293720451426,-0.1633999190328541,0.8224020698764472,0.0,4.020270274067536,3.854112462361485,54.555818213051225,54.971258932434544,0.0
0.1,1.4806360281475395,-0.15196024814708253,1.3537182702661534,0.0,4.018736121002781,3.863757563186824,55.33297779000728,54.971258932434544,0.0
0.101,1.4686935524691949,-0.15935094356987622,0.9615212932124,0.0,4.0192472665324,3.824735648028986,55.58077864714514,54.971258932434544,0.0
0.10200000000000001,1.448217993053156,-0.15183275065200563,0.8315256674963636,0.0,4.014904197818082,3.7814223766606494,54.79828299126549,54.971258932434544,0.0
0.10300000000000001,1.4176339533922406,-0.14913387441881398,1.2245032548478791,0.0,4.006442414381887,3.78969310519208,55.86941511558906,54.971258932434544,0.0
0.10400000000000001,1.41159676194401,-0.15848741757874962,0.6799556308545496,0.0,4.000709760652381,3.7328188186766633,55.25226109794219,54.971258932434544,0.0
0.105,1.3848991020152104,-0.15001171207017017,0.9857226180229073,0.0,3.988837080606741,3.7230149109459774,55.12639902302171,54.971258932434544,0.0
0.106,1.3694806717001664,-0.15792846744415134,1.0471022545772741,0.0,3.978126877938819,3.718127266868458,56.03790873128759,54.971258932434544,0.0
0.107,1.3660579578249532,-0.16268964784907025,0.5806809024558062,0.0,3.968443493420739,3.660959536056116,54.96329652624747,54.971258932434544,0.0
0.108,1.337252333673043,-0.15953106807370043,1.1180666290377361,0.0,3.9536166186938937,3.675451274836387,55.91493479773396,54.971258932434544,0.0
0.109,1.3356318361089676,-0.17229396933225705,0.6328107346414946,0.0,3.9431571102539533,3.6281493451070683,55.22471510234451,54.971258932434544,0.0
0.11,1.315820364774106,-0.16855424215059756,0.9753860206371208,0.0,3.9284743606825088,3.629230554781364,55.553548874085386,54.971258932434544,0.0
0.111,1.3089108418740207,-0.1808414670294779,0.8051462353501748,0.0,3.91675699904413,3.607145172095226,55.57420754715798,54.971258932434544,0.0
0.112,1.300690529080912,-0.18169840170588802,0.7887874126666423,0.0,3.9039742258665933,3.586834658049784,55.26525466162,54.971258932434544,0.0
0.113,1.2866031190687028,-0.19038337937979322,0.9403238981437798,0.0,3.891385456799631,3.585576931693867,55.99446517101954,54.971258932434544,0.0
0.114,1.2856971806429423,-0.19588671878183672,0.5654865810581584,0.0,3.880448309561258,3.5403974104593647,55.123037158804756,54.971258932434544,0.0
0.115,1.2624787962362432,-0.1977613724324292,0.9996828049018489,0.0,3.866238103430818,3.55269704731862,56.19477396366804,54.971258932434544,0.0
0.116,1.2636608806721417,-0.20705630711391843,0.45157925215787165,0.0,3.8556825778778046,3.497350133706613,55.08500023606893,54.971258932434544,0.0
0.117,1.2373476698751402,-0.20514464393087506,1.0053287029210838,0.0,3.8403446812219433,3.5157821080439295,56.20416577636847,54.971258932434544,0.0
0.11800000000000001,1.2396254356902605,-0.21638672394268554,0.43341686433197424,0.0,3.8296395170985287,3.4618756121818604,55.09226486681965,54.971258932434544,0.0
0.11900000000000001,1.2149293370768866,-0.21441029372486853,0.9881572597625343,0.0,3.81428439167717,3.481769159882531,56.209726529705755,54.971258932434544,0.0
0.12,1.2183210962661857,-0.22605178097717604,0.41704175234676844,0.0,3.803754461467947,3.4291476760040025,55.10815348923446,54.971258932434544,0.0
0.121,1.1942833184566082,-0.22478841647351644,0.9664593270144164,0.0,3.7887599909238667,3.4495605089309485,56.21651938650881,54.971258932434544,0.0
0.122,1.1985170108747858,-0.23566989185460835,0.3998237738365005,0.0,3.778515846663847,3.397902440970452,55.14900577297994,54.971258932434544,0.0
0.123,1.1743604144792694,-0.23548007881444122,0.93180311219548,0.0,3.7640006158455495,3.4172694106589567,56.158620718195195,54.971258932434544,0.0
0.124,1.1787674262821788,-0.24456986526979652,0.41512202173024626,0.0,3.7538753797184237,3.3703671096997416,55.26118127825574,54.971258932434544,0.0
0.125,1.1558054514568314,-0.246709642943309,0.8609425182417612,0.0,3.740216914787621,3.3839194680934703,55.98640706866716,54.971258932434544,0.0
0.126,1.15833813617146,-0.25335146703302575,0.4881781416737243,0.0,3.729988735062407,3.348780242700286,55.49478790525281,54.971258932434544,0.0
0.127,1.1399044227836894,-0.25837328621386324,0.7287524336527196,0.0,3.717755432639389,3.3483759730770686,55.68040257975336,54.971258932434544,0.0
0.128,1.1370152688421362,-0.26171080255721346,0.6288536599292534,0.0,3.7070219421023114,3.3335276619441934,55.933247627434284,54.971258932434544,0.0
0.129,1.1265690247651576,-0.270728223058903,0.49281124913879537,0.0,3.6968355105974062,3.3062453507302325,55.39344292662494,54.971258932434544,0.0
0.13,1.1119545679758738,-0.26967551835181475,0.7584917596015621,0.0,3.6847335193987996,3.3127610355520405,56.34848173905564,54.971258932434544,0.0
0.131,1.1106161245770345,-0.2778750513167072,0.2672001253200008,0.0,3.6754057714754427,3.2607171521021856,55.325830209569304,54.971258932434544,0.0
0.132,1.0833529714507169,-0.2762311457748983,0.7749801772918227,0.0,3.661543585060189,3.2766991666746037,55.8873686508639,54.971258932434544,0.0
0.133,1.0852761824012107,-0.2816299432220659,0.48504985946023194,0.0,3.6512761255183093,3.252242440931243,55.82088016313382,54.971258932434544,0.0
0.134,1.0715013237923674,-0.2886365973222931,0.5097978910182774,0.0,3.6403064833328336,3.2363606950142088,55.41161963605416,54.971258932434544,0.0
