timestamp,iq,id,iq_ref,id_ref,vq,vd,omega,omega_ref,r
0.0,0.0,0.0,0.0,0.0,0.0,0.0,0.0,233.17155424649715,0.0
0.001,0.0,0.0,10.0,0.0,0.0,1.0999999999999999,6.115472199294103,233.17155424649715,0.0
0.002,0.5307369851907212,-0.2913212625381807,10.0,0.0,0.14204533887919985,1.9316189316290207,13.317801563642547,233.17155424649715,0.0
0.003,1.0842913387634832,-0.6024330830807904,10.0,0.0,0.384357124667687,2.6386968949419622,20.697939467553027,233.17155424649715,0.0
0.004,1.5590443546685477,-0.8700465084428163,10.0,0.0,0.6994718867930164,3.2526109522886295,28.232747544420146,233.17155424649715,0.0
0.005,1.9399447555359186,-1.0838738622210777,10.0,0.0,1.065311453102468,3.7994935661768023,35.92944872443006,233.17155424649715,0.0
0.006,2.239750732602683,-1.2510087368845633,10.0,0.0,1.4655018868449925,4.299102221838433,43.75633668444442,233.17155424649715,0.0
0.007,2.4770151619816017,-1.382020589851471,10.0,0.0,1.8883740978591532,4.765668027847139,51.58766747378032,233.17155424649715,0.0
0.008,2.6680767290418097,-1.4872241871505252,10.0,0.0,2.325877945545995,5.209220346273558,59.45942083902103,233.17155424649715,0.0
0.009000000000000001,2.8266491704841292,-1.5730794701170803,10.0,0.0,2.772378685460125,5.636635464737965,67.35059094018146,233.17155424649715,0.0
0.01,2.962077666392183,-1.645500646948331,10.0,0.0,3.224078639851053,6.052647735211881,75.20908322432116,233.17155424649715,0.0
0.011,3.0811061533574158,-1.7084279320504514,10.0,0.0,3.678407615443203,6.460489925470405,83.0265951655913,233.17155424649715,0.0
0.012,3.188848746459569,-1.7638278597420747,10.0,0.0,4.133552631697047,6.862319393890706,90.74118064793086,233.17155424649715,0.0
0.013000000000000001,3.288205119878689,-1.8140726097274587,10.0,0.0,4.588339016389012,7.259628641949282,98.35820682563939,233.17155424649715,0.0
0.014,3.3820602099432007,-1.8592355758795645,10.0,0.0,5.041843166194517,7.653355107498287,105.90865295623543,233.17155424649715,0.0
0.015,3.4721069852858886,-1.899829032412081,10.0,0.0,5.493383198131427,8.044092747085895,113.37727610343421,233.17155424649715,0.0
0.016,3.5596145800153947,-1.9360338400176071,10.0,0.0,5.94241958510469,8.43218525824161,120.68508583176356,233.17155424649715,0.0
0.017,3.645144415105338,-1.9685384477868613,10.0,0.0,6.388575043274759,8.817838951066484,127.83962377537456,233.17155424649715,0.0
0.018000000000000002,3.730251927866576,-1.9959253041084188,10.0,0.0,6.83136783302799,9.201036292373047,134.85405702603322,233.17155424649715,0.0
0.019,3.81544967906247,-2.018253592643655,10.0,0.0,7.270383321112213,9.581672501020332,141.68976328564074,233.17155424649715,0.0
0.02,3.9014648862453374,-2.0350875541282063,10.0,0.0,7.705189334130692,9.959536942333155,148.3432823300447,233.17155424649715,0.0
0.021,3.9891051824829464,-2.0457889559126508,10.0,0.0,8.135310004560049,10.334315260302239,154.92060212100432,233.17155424649715,0.0
0.022,4.079618141396171,-2.0489696811670974,10.0,0.0,8.560139305503519,10.705547790999272,161.01925282597162,233.17155424649715,0.0
0.023,4.171109372430197,-2.048468292080302,10.0,0.0,8.979521969370257,11.072981092896333,166.534238406907,233.17155424649715,0.0
0.024,4.266936196769627,-2.039517194249811,10.0,0.0,9.392730090169543,11.435983292623375,171.8647834235234,233.17155424649715,0.0
0.025,4.367255527950721,-2.0225841458509217,10.0,0.0,9.79914449451603,11.793929226271104,177.02637022703064,233.17155424649715,0.0
0.026000000000000002,4.4734353073349595,-1.9962166741499119,10.0,0.0,10.197980960389518,12.146045424568259,181.63161391243256,233.17155424649715,0.0
0.027,4.582366840795821,-1.966358349113627,10.0,0.0,10.589124658468391,12.491912978736195,185.74793639675826,233.17155424649715,0.0
0.028,4.700058850757774,-1.9240450691803936,10.0,0.0,10.971384864613876,12.830451341534015,189.43662766964098,233.17155424649715,0.0
0.029,4.820934284790598,-1.879137197786803,10.0,0.0,11.344756153370636,13.161242511022618,192.73598774770625,233.17155424649715,0.0
0.03,4.952016225740939,-1.821000614527957,10.0,0.0,11.707923484756042,13.483081433273819,195.59831968863915,233.17155424649715,0.0
0.031,5.086039273572549,-1.7621311371320891,10.0,0.0,12.061063698547066,13.79562148058647,197.80891551030922,233.17155424649715,0.0
0.032,5.230431844273564,-1.6911110488141978,10.0,0.0,12.40292038074925,14.097678592248165,200.4421589734679,233.17155424649715,0.0
0.033,5.380124186618445,-1.6166151787533525,10.0,0.0,12.733312761073865,14.38869342901298,201.91742172589852,233.17155424649715,0.0
0.034,5.537594793894332,-1.535029134414507,10.0,0.0,13.051537880865839,14.667821176756876,203.18880493813168,233.17155424649715,0.0
0.035,5.698947813469154,-1.4530296333491768,10.0,0.0,13.357649178779205,14.934684535625108,203.60405746232266,233.17155424649715,0.0
0.036000000000000004,5.870474243492053,-1.3603000477825025,10.0,0.0,13.65045542338638,15.188218311291084,204.28541056101804,233.17155424649715,0.0
0.037,6.041188711220851,-1.275010780747051,10.0,0.0,13.930879897581198,15.42861600670124,205.2233356988433,233.17155424649715,0.0
0.038,6.228175208801664,-1.168399557236846,10.0,0.0,14.196427351981786,15.654155009933262,200.35169734043586,233.17155424649715,0.0
0.039,6.404895489618571,-1.0845312562500289,10.0,0.0,14.449814560392067,15.86612549236809,209.64773540576442,233.17155424649715,0.0
0.04,6.534612624563911,-1.0851225869390002,10.0,0.0,14.699963825590459,16.069735965364643,218.170241886545,233.17155424649715,0.0
0.041,6.621487035821765,-1.1484636683301073,10.0,0.0,14.952420817214799,16.26974130369247,220.68166573712315,233.17155424649715,0.0
0.042,6.6704785161669795,-1.2647840534085386,10.0,0.0,15.211794475054209,16.47047148862455,233.10654395573727,233.17155424649715,0.0
0.043000000000000003,6.709376245503157,-1.3867642159960276,5.272861937876021,0.0,15.477558399636717,16.153291998590202,232.54675492877604,233.17155424649715,0.0
0.044,6.4874343778588806,-1.381400798031672,5.559004444533845,0.0,15.683218205155587,15.997956489105372,242.00137412388887,233.17155424649715,0.0
0.045,6.243605553540025,-1.4086522462488529,0.7433966482035146,0.0,15.855829772657621,15.370743980456627,239.46838227894835,233.17155424649715,0.0
0.046,5.780361193883524,-1.311420016717861,1.9469242903492585,0.0,15.937490872814001,15.052576589341323,247.74383225855198,233.17155424649715,0.0
0.047,5.398698287095133,-1.2728156152408565,-2.336523479573101,0.0,15.97589496197605,14.328527992390427,243.16762818098664,233.17155424649715,0.0
0.048,4.85194538064569,-1.1682703755458508,-0.14838218013532778,0.0,15.926939850175117,14.02058087532976,244.95411048012073,233.17155424649715,0.0
0.049,4.4805230042164865,-1.1304637148731727,-1.1594488920386103,0.0,15.84897225757117,13.640823139834042,246.17459932901923,233.17155424649715,0.0
0.05,4.132328370261374,-1.1185889048840592,-1.8997237673130796,0.0,15.739897488185976,13.254512035437118,245.6796867766988,233.17155424649715,0.0
0.051000000000000004,3.8033892858051708,-1.1008619218752103,-1.7773488164548743,0.0,15.601267865268513,12.949489910839135,245.60225896374382,233.17155424649715,0.0
0.052000000000000005,3.526677449270799,-1.1015537752683517,-1.8629419571498582,0.0,15.446252365886343,12.677616952598404,245.1574097384352,233.17155424649715,0.0
0.053,3.2898619366634803,-1.1118787436542346,-1.7603758994149308,0.0,15.280679948606837,12.452850526022784,244.45251418109274,233.17155424649715,0.0
0.054,3.0944930805317217,-1.130507686064452,-1.5207377200896524,0.0,15.111134064378978,12.27846045857362,243.63503541845895,233.17155424649715,0.0
0.055,2.9412998113322915,-1.156966195992117,-1.2166331504923793,0.0,14.943827908496926,12.150507501359652,242.7932728683285,233.17155424649715,0.0
0.056,2.8274938970078427,-1.1890232315954297,-0.8919690616454661,0.0,14.783718761298775,12.062277946239762,242.04162397673923,233.17155424649715,0.0
0.057,2.748159592224929,-1.2230100923382667,-0.6048453131532519,0.0,14.634215557634132,12.002786117740598,241.27528463759,233.17155424649715,0.0
0.058,2.6948682196152776,-1.2558440189915667,-0.30271294748956734,0.0,14.49698535481047,11.969725182402204,240.10575583787823,233.17155424649715,0.0
0.059000000000000004,2.662307806175444,-1.2876387715574018,0.21270943645250684,0.0,14.373341162251034,11.98297119064455,238.89069097325563,233.17155424649715,0.0
0.06,2.6604101892347023,-1.3194649998472143,0.7630505014962239,0.0,14.266568927358009,12.037794605851195,237.5788313525224,233.17155424649715,0.0
0.061,2.688473683283202,-1.352632329223816,1.374907540802587,0.0,14.179286401423472,12.135153359206395,236.23801730054439,233.17155424649715,0.0
0.062,2.748748397664363,-1.3833334149826462,2.014649936251122,0.0,14.113513449557619,12.271951494097454,235.6377831599549,233.17155424649715,0.0
0.063,2.839078571328676,-1.4112308150791841,2.2901047174112907,0.0,14.070759309520485,12.403061550326688,236.63965789177118,233.17155424649715,0.0
0.064,2.936799266069416,-1.4251530505539851,1.754486315050407,0.0,14.046644061011248,12.445266640173152,237.43390531970456,233.17155424649715,0.0
0.065,2.9812354888329136,-1.4254787020176942,1.3147390903516403,0.0,14.029057445643849,12.43391290793421,232.61825826193123,233.17155424649715,0.0
0.066,2.9966109655581703,-1.3811525804020803,3.7280955790839663,0.0,14.00721498869693,12.690555633177823,230.19423611722098,233.17155424649715,0.0
0.067,3.1426348889716396,-1.3717274124106948,4.969879832731852,0.0,14.012627542706179,13.0159036664081,234.08367918053972,233.17155424649715,0.0
0.068,3.3559211359180416,-1.4011106487508338,3.0160370517320585,0.0,14.053360052314856,13.059916355339851,232.87032369340076,233.17155424649715,0.0
0.069,3.4451382090615454,-1.3825900853314883,3.6257271008324996,0.0,14.092089485516311,13.182524343974013,226.21331644768887,233.17155424649715,0.0
0.07,3.554948361797123,-1.3271425542834796,7.02381310167653,0.0,14.133292751479946,13.65325009059727,231.1466473404322,233.17155424649715,0.0
0.07100000000000001,3.840896773578817,-1.3436358487694873,4.577396724365515,0.0,14.219817003213487,13.747580703873282,230.26482666524348,233.17155424649715,0.0
0.07200000000000001,3.980814613105097,-1.3233512243367418,5.047374337772412,0.0,14.304725649468814,13.904760904012837,223.77292240018178,233.17155424649715,0.0
0.073,4.137789078679709,-1.2483174329911872,8.387312788766412,0.0,14.388810580308883,14.401539389421298,230.34998678501776,233.17155424649715,0.0
0.074,4.448277368341964,-1.26804128880306,5.126996270963216,0.0,14.517084828658547,14.432430350697528,223.41413897402853,233.17155424649715,0.0
0.075,4.585605560771846,-1.2012565100173958,8.692494329182518,0.0,14.62807718407633,14.885866373992593,227.89771932547774,233.17155424649715,0.0
0.076,4.889428843821818,-1.1799968189878245,6.503442502668109,0.0,14.771643188056446,14.996560069789952,221.38310125710936,233.17155424649715,0.0
0.077,5.065356303281332,-1.1210245690626839,9.878636066746175,0.0,14.905647610636814,15.487389019009271,226.34782237977328,233.17155424649715,0.0
0.078,5.405876677197724,-1.1088904841538876,7.4645128240814556,0.0,15.074589459040354,15.60753205669459,219.58192753032972,233.17155424649715,0.0
0.079,5.61636642411698,-1.0314948005376896,10.0,0.0,15.230259242023392,16.01585112880746,223.26677692569334,233.17155424649715,0.0
0.08,5.921275658013506,-1.0134736164950926,9.22031246117184,0.0,15.409985580510877,16.256349652717635,221.5158009242027,233.17155424649715,0.0
0.081,6.20427029509895,-0.9309547825129465,10.0,0.0,15.586892277643026,16.5562531450045,216.1177075293126,233.17155424649715,0.0
0.082,6.480848339189521,-0.8965249803685935,10.0,0.0,15.77313656439459,16.80846644390849,228.54011296109542,233.17155424649715,0.0
0.083,6.681582053555392,-0.9568359007732795,6.85125377681972,0.0,15.972956251627357,16.688405828908074,230.45064789645565,233.17155424649715,0.0
0.084,6.6445344321653765,-0.9940752409042467,5.92319537264002,0.0,16.144281126847165,16.535816857399563,234.43102583785617,233.17155424649715,0.0
0.085,6.487030416895276,-1.0581062130956134,3.9204116860261697,0.0,16.28988563093388,16.221548614543984,240.69111338313323,233.17155424649715,0.0
0.08600000000000001,6.24073188051443,-1.0426129786038025,0.7151723220212789,0.0,16.38715829481035,15.646236952057412,239.70883059882667,233.17155424649715,0.0
0.08700000000000001,5.808119251483544,-1.0009634445609246,1.1409409506512649,0.0,16.412746009650718,15.262195068826086,242.31191629498568,233.17155424649715,0.0
0.088,5.436611189775785,-0.9697475306463378,-0.2520055179131262,0.0,16.39435350949375,14.798174108071093,244.19354211618912,233.17155424649715,0.0
0.089,5.041750059041355,-0.9514103856978887,-1.303038307211768,0.0,16.32969323647179,14.316751495002407,244.36993795256618,233.17155424649715,0.0
0.09,4.647419836105365,-0.9213676276193953,-1.5032200624609855,0.0,16.220235397506,13.90492316396958,245.2033292759542,233.17155424649715,0.0
0.091,4.29058171870202,-0.9158778196041982,-2.040233474449562,0.0,16.08023705803263,13.501571115062212,245.22169608609303,233.17155424649715,0.0
0.092,3.9601421223565856,-0.9156022453669144,-2.169918297914943,0.0,15.913927932529901,13.148439215060897,244.99144397358188,233.17155424649715,0.0
0.093,3.6685201819137605,-0.9283412928406682,-2.1729911389302146,0.0,15.7303405805418,12.843722445717676,244.58169357532975,233.17155424649715,0.0
0.094,3.4192030342009776,-0.9518665291168034,-2.0822173330924763,0.0,15.537100672333835,12.585643132006247,243.9564116786573,233.17155424649715,0.0
0.095,3.210226776131007,-0.9850390867382208,-1.877424959077854,0.0,15.340790552551116,12.376161398838967,243.18350246305073,233.17155424649715,0.0
0.096,3.041015075347651,-1.0260438798672058,-1.591089833440103,0.0,15.14734207309791,12.213969291595618,242.30406088478549,233.17155424649715,0.0
0.097,2.909421090431295,-1.0732505772520946,-1.2426941106903646,0.0,14.961801919646742,12.096894946710341,241.46966481650765,233.17155424649715,0.0
0.098,2.8132203460484417,-1.1238128647439278,-0.9084771822515494,0.0,14.78819813170241,12.015520067902198,240.72408651516477,233.17155424649715,0.0
0.099,2.7458903019235055,-1.1745844795416231,-0.6112133542667886,0.0,14.628896489424536,11.960723447384293,240.10893826551697,233.17155424649715,0.0
0.1,2.700971453444945,-1.2208867994666899,-0.3730130696330858,0.0,14.484630888366425,11.922973490611632,239.32707029436037,233.17155424649715,0.0
0.101,2.6702861551935797,-1.2611634904821107,-0.04363424453341791,0.0,14.354984264549312,11.911347831647921,238.2382353542873,233.17155424649715,0.0
0.10200000000000001,2.6560647622302347,-1.2968893773779224,0.4501164144252159,0.0,14.240666817865922,11.940196360676781,237.10611738728616,233.17155424649715,0.0
0.10300000000000001,2.666403846599102,-1.3319302491351148,0.976829766517894,0.0,14.144163205778092,12.006449741064811,235.67826646217134,233.17155424649715,0.0
0.10400000000000001,2.7041853840034227,-1.3636463368965976,1.665688106918565,0.0,14.067073653874042,12.122882127857622,234.67694027654375,233.17155424649715,0.0
0.105,2.7762727895611294,-1.394340961566418,2.1512973394318946,0.0,14.012395543675733,12.258938953715894,234.46942169205067,233.17155424649715,0.0
0.106,2.8691424087799997,-1.418326869474971,2.2420779572228953,0.0,13.979122430706333,12.37155727754189,236.34530964560582,233.17155424649715,0.0
0.107,2.9548492884965514,-1.4282587419710362,1.2723964264542333,0.0,13.96129110831195,12.353514622549245,234.3725742358491,233.17155424649715,0.0
0.108,2.96654254607746,-1.4090799702231935,2.246753931439075,0.0,13.94122966904052,12.451940052135718,229.83526008696313,233.17155424649715,0.0
0.109,3.0265798464978806,-1.3811731777316956,4.5487739474774,0.0,13.930138957198297,12.775508251080332,230.74617584081287,233.17155424649715,0.0
0.11,3.2203599063068213,-1.3897845074705162,4.117569854609375,0.0,13.95374045063094,12.974442474995616,234.25097145233192,233.17155424649715,0.0
0.111,3.3823329496502628,-1.3985180621709539,2.3543778767914985,0.0,13.995749794831509,12.950325115061657,228.9609949419266,233.17155424649715,0.0
0.112,3.425775284387912,-1.3479397308931111,5.041471725039866,0.0,14.025495516631056,13.242873742238945,226.10487886933396,233.17155424649715,0.0
0.113,3.6105238886474162,-1.312569051767306,6.540196515107819,0.0,14.078136537577315,13.62724294418228,230.63162004151346,233.17155424649715,0.0
0.114,3.864889003517603,-1.3389560641182647,4.302225271067907,0.0,14.16720665477315,13.691142566687715,226.1534456038592,233.17155424649715,0.0
0.115,3.990521530337486,-1.296518312878291,6.6114935763214095,0.0,14.248827699740037,14.022682537878987,226.27521485947517,233.17155424649715,0.0
0.116,4.227654007885388,-1.256107284870564,6.61957234238365,0.0,14.351419801760906,14.282198350400057,227.93548111105642,233.17155424649715,0.0
0.117,4.43739113755462,-1.2484020559464513,5.841799947947433,0.0,14.469260809930226,14.41968628133437,221.15420346386261,233.17155424649715,0.0
0.11800000000000001,4.611676936879601,-1.1689835723543163,9.35261227937068,0.0,14.580407529470152,14.932102533764049,227.21051359803417,233.17155424649715,0.0
0.11900000000000001,4.940556335773682,-1.18615781043506,6.384067618769533,0.0,14.734364553323859,15.008309921039292,220.11110684260402,233.17155424649715,0.0
0.12,5.122117466226979,-1.1071994623733001,10.0,0.0,14.871689452852115,15.503047350152821,225.1899071289129,233.17155424649715,0.0
0.121,5.453759515795907,-1.109199503956451,7.603504289134475,0.0,15.045765193393663,15.627604660152262,219.282201731519,233.17155424649715,0.0
0.122,5.673057615987341,-1.0203638772552637,10.0,0.0,15.205097171528035,16.02388692798441,221.04387570282827,233.17155424649715,0.0
0.123,5.968239795896645,-1.0062832675166342,9.922765302503631,0.0,15.387463667827951,16.333736334225414,222.22453797097666,233.17155424649715,0.0
0.124,6.279517066785678,-0.9451218443847575,9.441904331184643,0.0,15.575991504674855,16.54742641160348,215.16248834474624,233.17155424649715,0.0
0.125,6.535799550217114,-0.8731192719403915,10.0,0.0,15.759726896837313,16.79972109774275,226.93763028687547,233.17155424649715,0.0
0.126,6.6870156253977004,-0.9906112738160195,7.264727675782613,0.0,15.963962364328216,16.724627998696718,234.02109427646778,233.17155424649715,0.0
0.127,6.667719443820497,-1.0326512900532394,3.714500280686755,0.0,16.143714456932763,16.317930206811305,233.15439865711284,233.17155424649715,0.0
0.128,6.3933483378620055,-1.0282622522622094,4.14801964625807,0.0,16.263918366768927,16.083054667378356,242.14830693915482,233.17155424649715,0.0
0.129,6.130460496988629,-1.0427199782103151,-0.4387020216895001,0.0,16.35024857191038,15.400986447178855,238.4898491580633,233.17155424649715,0.0
0.13,5.660292896401064,-0.9551234686612542,1.3373439197406025,0.0,16.34995874120786,15.08607989740614,242.94092986953203,233.17155424649715,0.0
0.131,5.299717795635653,-0.9536601509088242,-0.9858901922241134,0.0,16.318922238741045,14.564280392888339,242.21957850030046,233.17155424649715,0.0
0.132,4.897095798101267,-0.9091670459643089,-0.7156947501463611,0.0,16.233929827702763,14.185193697044971,243.91481239515332,233.17155424649715,0.0
0.133,4.546256108474708,-0.9116504894253542,-1.6707442790593543,0.0,16.120246098014135,13.762325172964477,243.90303751998607,233.17155424649715,0.0
0.134,4.205330720977857,-0.9068131090937932,-1.7721716742106195,0.0,15.975086942615224,13.40276200587405,244.21390420987564,233.17155424649715,0.0
0.135,3.90202914231367,-0.9191226108198383,-2.038028518789187,0.0,15.809889805040353,13.066363180778737,243.94645996649194,233.17155424649715,0.0
0.136,3.6286005465246065,-0.9381857949913153,-2.0120554542972884,0.0,15.629546353955035,12.77964425972552,243.50101455852712,233.17155424649715,0.0
0.137,3.3936126796040105,-0.9669907168581964,-1.892627353435175,0.0,15.441543265436575,12.539554625522378,242.92768996317787,233.17155424649715,0.0
0.138,3.1978692718861104,-1.0033951992510675,-1.7035264129273582,0.0,15.252047966194194,12.34346236451471,242.2860377660665,233.17155424649715,0.0
0.139,3.0384387088152236,-1.0462934987027,-1.4738451495673663,0.0,15.066247738891029,12.186983657108708,241.53780227888734,233.17155424649715,0.0
