timestamp,iq,id,iq_ref,id_ref,vq,vd,omega,omega_ref,r
0.0,0.0,0.0,0.0,0.0,0.0,0.0,0.0,463.9272800093591,0.0
0.001,0.0,0.0,10.0,0.0,0.0,1.0999999999999999,6.115472199294103,463.9272800093591,0.0
0.002,0.5307369851907212,-0.2913212625381807,10.0,0.0,0.14204533887919985,1.9316189316290207,13.317801563642547,463.9272800093591,0.0
0.003,1.0842913387634832,-0.6024330830807904,10.0,0.0,0.384357124667687,2.6386968949419622,20.697939467553027,463.9272800093591,0.0
0.004,1.5590443546685477,-0.8700465084428163,10.0,0.0,0.6994718867930164,3.2526109522886295,28.232747544420146,463.9272800093591,0.0
0.005,1.9399447555359186,-1.0838738622210777,10.0,0.0,1.065311453102468,3.7994935661768023,35.92944872443006,463.9272800093591,0.0
0.006,2.239750732602683,-1.2510087368845633,10.0,0.0,1.4655018868449925,4.299102221838433,43.75633668444442,463.9272800093591,0.0
0.007,2.4770151619816017,-1.382020589851471,10.0,0.0,1.8883740978591532,4.765668027847139,51.58766747378032,463.9272800093591,0.0
0.008,2.6680767290418097,-1.4872241871505252,10.0,0.0,2.325877945545995,5.209220346273558,59.45942083902103,463.9272800093591,0.0
0.009000000000000001,2.8266491704841292,-1.5730794701170803,10.0,0.0,2.772378685460125,5.636635464737965,67.35059094018146,463.9272800093591,0.0
0.01,2.962077666392183,-1.645500646948331,10.0,0.0,3.224078639851053,6.052647735211881,75.20908322432116,463.9272800093591,0.0
0.011,3.0811061533574158,-1.7084279320504514,10.0,0.0,3.678407615443203,6.460489925470405,83.0265951655913,463.9272800093591,0.0
0.012,3.188848746459569,-1.7638278597420747,10.0,0.0,4.133552631697047,6.862319393890706,90.74118064793086,463.9272800093591,0.0
0.013000000000000001,3.288205119878689,-1.8140726097274587,10.0,0.0,4.588339016389012,7.259628641949282,98.35820682563939,463.9272800093591,0.0
0.014,3.3820602099432007,-1.8592355758795645,10.0,0.0,5.041843166194517,7.653355107498287,105.90865295623543,463.9272800093591,0.0
0.015,3.4721069852858886,-1.899829032412081,10.0,0.0,5.493383198131427,8.044092747085895,113.37727610343421,463.9272800093591,0.0
0.016,3.5596145800153947,-1.9360338400176071,10.0,0.0,5.94241958510469,8.43218525824161,120.68508583176356,463.9272800093591,0.0
0.017,3.645144415105338,-1.9685384477868613,10.0,0.0,6.388575043274759,8.817838951066484,127.83962377537456,463.9272800093591,0.0
0.018000000000000002,3.730251927866576,-1.9959253041084188,10.0,0.0,6.83136783302799,9.201036292373047,134.85405702603322,463.9272800093591,0.0
0.019,3.81544967906247,-2.018253592643655,10.0,0.0,7.270383321112213,9.581672501020332,141.68976328564074,463.9272800093591,0.0
0.02,3.9014648862453374,-2.0350875541282063,10.0,0.0,7.705189334130692,9.959536942333155,148.3432823300447,463.9272800093591,0.0
0.021,3.9891051824829464,-2.0457889559126508,10.0,0.0,8.135310004560049,10.334315260302239,154.92060212100432,463.9272800093591,0.0
0.022,4.079618141396171,-2.0489696811670974,10.0,0.0,8.560139305503519,10.705547790999272,161.01925282597162,463.9272800093591,0.0
0.023,4.171109372430197,-2.048468292080302,10.0,0.0,8.979521969370257,11.072981092896333,166.534238406907,463.9272800093591,0.0
0.024,4.266936196769627,-2.039517194249811,10.0,0.0,9.392730090169543,11.435983292623375,171.8647834235234,463.9272800093591,0.0
0.025,4.367255527950721,-2.0225841458509217,10.0,0.0,9.79914449451603,11.793929226271104,177.02637022703064,463.9272800093591,0.0
0.026000000000000002,4.4734353073349595,-1.9962166741499119,10.0,0.0,10.197980960389518,12.146045424568259,181.63161391243256,463.9272800093591,0.0
0.027,4.582366840795821,-1.966358349113627,10.0,0.0,10.589124658468391,12.491912978736195,185.74793639675826,463.9272800093591,0.0
0.028,4.700058850757774,-1.9240450691803936,10.0,0.0,10.971384864613876,12.830451341534015,189.43662766964098,463.9272800093591,0.0
0.029,4.820934284790598,-1.879137197786803,10.0,0.0,11.344756153370636,13.161242511022618,192.73598774770625,463.9272800093591,0.0
0.03,4.952016225740939,-1.821000614527957,10.0,0.0,11.707923484756042,13.483081433273819,195.59831968863915,463.9272800093591,0.0
0.031,5.086039273572549,-1.7621311371320891,10.0,0.0,12.061063698547066,13.79562148058647,197.80891551030922,463.9272800093591,0.0
0.032,5.230431844273564,-1.6911110488141978,10.0,0.0,12.40292038074925,14.097678592248165,200.4421589734679,463.9272800093591,0.0
0.033,5.380124186618445,-1.6166151787533525,10.0,0.0,12.733312761073865,14.38869342901298,201.91742172589852,463.9272800093591,0.0
0.034,5.537594793894332,-1.535029134414507,10.0,0.0,13.051537880865839,14.667821176756876,203.18880493813168,463.9272800093591,0.0
0.035,5.698947813469154,-1.4530296333491768,10.0,0.0,13.357649178779205,14.934684535625108,203.60405746232266,463.9272800093591,0.0
0.036000000000000004,5.870474243492053,-1.3603000477825025,10.0,0.0,13.65045542338638,15.188218311291084,204.28541056101804,463.9272800093591,0.0
0.037,6.041188711220851,-1.275010780747051,10.0,0.0,13.930879897581198,15.42861600670124,205.2233356988433,463.9272800093591,0.0
0.038,6.228175208801664,-1.168399557236846,10.0,0.0,14.196427351981786,15.654155009933262,200.35169734043586,463.9272800093591,0.0
0.039,6.404895489618571,-1.0845312562500289,10.0,0.0,14.449814560392067,15.86612549236809,209.64773540576442,463.9272800093591,0.0
0.04,6.534612624563911,-1.0851225869390002,10.0,0.0,14.699963825590459,16.069735965364643,218.170241886545,463.9272800093591,0.0
0.041,6.621487035821765,-1.1484636683301073,10.0,0.0,14.952420817214799,16.26974130369247,220.68166573712315,463.9272800093591,0.0
0.042,6.6704785161669795,-1.2647840534085386,10.0,0.0,15.211794475054209,16.47047148862455,233.10654395573727,463.9272800093591,0.0
0.043000000000000003,6.709376245503157,-1.3867642159960276,10.0,0.0,15.477558399636717,16.673277185423842,235.10815372853793,463.9272800093591,0.0
0.044,6.744196093263161,-1.5028656568708394,10.0,0.0,15.74857785831126,16.87893749904121,248.8181267625822,463.9272800093591,0.0
0.045,6.750563942850831,-1.6564343609015326,10.0,0.0,16.02879294551472,17.090781462187255,251.61117095327992,463.9272800093591,0.0
0.046,6.764566527560506,-1.7840489455190416,10.0,0.0,16.314672837580048,17.307985931916857,266.60539535969383,463.9272800093591,0.0
0.047,6.752169677737121,-1.9446655565152717,10.0,0.0,16.610076868775216,17.533561623207692,270.0627790167984,463.9272800093591,0.0
0.048,6.7291903821171735,-2.110358990489937,10.0,0.0,16.91511817760721,17.768523902508925,283.13731951482634,463.9272800093591,0.0
0.049,6.714097190323873,-2.246352557911731,10.0,0.0,17.22645394156277,18.011924542904307,294.70561782835244,463.9272800093591,0.0
0.05,6.666841209228205,-2.4219663531358275,10.0,0.0,17.548953774962747,18.267165921658286,300.1294548425776,463.9272800093591,0.0
0.051000000000000004,6.612335516543512,-2.59336894353628,10.0,0.0,17.88182590988993,18.53465621226123,310.75154600411304,463.9272800093591,0.0
0.052000000000000005,6.568447424188529,-2.726701034625408,10.0,0.0,18.22111236450049,18.81296732052879,322.35703405819294,463.9272800093591,0.0
0.053,6.5036136539679195,-2.8764091099274185,10.0,0.0,18.569435851849082,19.104068797231378,330.9557012510771,463.9272800093591,0.0
0.054,6.434362099984388,-3.0149932598739144,10.0,0.0,18.925784313874168,19.407861808234543,339.4707232587175,463.9272800093591,0.0
0.055,6.370891759459199,-3.1253006473392393,10.0,0.0,19.28762520191878,19.723199586257838,348.00092263299223,463.9272800093591,0.0
0.056,6.314459991163816,-3.2071523724558277,10.0,0.0,19.65271639484943,20.048760466390505,356.29964302226927,463.9272800093591,0.0
0.057,6.266092078485367,-3.262894600420583,10.0,0.0,20.01916768432525,20.383030530514645,362.98468703488817,463.9272800093591,0.0
0.058,6.234656406121481,-3.2830044001420036,10.0,0.0,20.38405550695561,20.723492962007192,368.0316803659419,463.9272800093591,0.0
0.059000000000000004,6.228510489334133,-3.2600491726267444,10.0,0.0,20.743774617448285,21.0667596267365,372.35801287012686,463.9272800093591,0.0
0.06,6.247959954981508,-3.201438289803519,10.0,0.0,21.095630838529225,21.40947063565305,373.88739853789605,463.9272800093591,0.0
0.061,6.298571070969623,-3.1064761741463998,10.0,0.0,21.436712814499675,21.747723437683817,371.47602194372377,463.9272800093591,0.0
0.062,6.38094735961424,-2.982369480030801,10.0,0.0,21.76480975788002,22.077703876517536,366.2922057853833,463.9272800093591,0.0
0.063,6.53566146196873,-2.7695519558602215,10.0,0.0,22.070926190088084,22.39130117743337,372.07145994459506,463.9272800093591,0.0
0.064,6.708566607552835,-2.560747003310555,10.0,0.0,22.35695033962817,22.686677966487718,365.1882535794375,463.9272800093591,0.0
0.065,6.897199383751794,-2.3667028673086685,10.0,0.0,22.62465294768497,22.962098937664592,356.7297130485294,463.9272800093591,0.0
0.066,7.167218997264825,-2.0824440278168583,10.0,0.0,22.863799361069702,23.20893224280502,357.7888817172531,463.9272800093591,0.0
0.067,7.423387055578651,-1.859201647307153,10.0,0.0,23.082000390168847,23.42951856849048,345.1266644280509,463.9272800093591,0.0
0.068,7.736929428236853,-1.5824320316278497,10.0,0.0,23.27222771500701,23.617938384108047,342.9584987314189,463.9272800093591,0.0
0.069,8.04132723792414,-1.3546495884062866,10.0,0.0,23.43998591632552,23.77619061530866,334.2677598047511,463.9272800093591,0.0
0.07,8.395997401416553,-1.0747195592463576,10.0,0.0,23.578279041856877,23.89942370363377,322.7417355360636,463.9272800093591,0.0
0.07100000000000001,8.726669482066718,-0.8579631993863083,10.0,0.0,23.694022264374595,23.99133556844291,337.9106389559309,463.9272800093591,0.0
0.07200000000000001,8.91385728821635,-0.8925675486457335,10.0,0.0,23.81335639313859,24.06834663115294,344.8606079910171,463.9272800093591,0.0
0.073,8.941721008651788,-1.1508071676799903,10.0,0.0,23.95651852989837,24.148396869281978,362.43451347602996,463.9272800093591,0.0
0.074,8.927907180207171,-1.4305443375681337,10.0,0.0,24.121558169292424,24.236556455607346,368.59250641149885,463.9272800093591,0.0
0.075,8.859340450140312,-1.7499202918046703,10.0,0.0,24.31124378664675,24.33980824926249,387.10067316750514,463.9272800093591,0.0
0.076,8.767176841935807,-2.0562826706616475,10.0,0.0,24.52279212376306,24.461155754889383,396.7190369145668,463.9272800093591,0.0
0.077,8.62162972262067,-2.4016532593838043,10.0,0.0,24.76024751870129,24.606611890707832,408.83095327273656,463.9272800093591,0.0
0.078,8.47560200325128,-2.694417929744825,10.0,0.0,25.017253395580042,24.77587553037574,428.2762610097064,463.9272800093591,0.0
0.079,8.289593068490031,-3.001970310780605,10.0,0.0,25.296388163948027,24.972914099394785,438.0404594767293,463.9272800093591,0.0
0.08,8.078425759776728,-3.30171273584331,10.0,0.0,25.597209455327665,25.19953060295957,447.87571303424875,463.9272800093591,0.0
0.081,7.882675762310951,-3.525181384717318,10.0,0.0,25.912194395051316,25.45298841193994,460.26934286159303,463.9272800093591,0.0
0.082,7.687097883672571,-3.703693402600396,8.487356164821263,0.0,26.238428257179052,25.565764178800542,470.68270385019935,463.9272800093591,0.0
0.083,7.430676104760911,-3.7786857195676546,3.213121432109702,0.0,26.549780344467635,25.16109698983527,468.97195922392734,463.9272800093591,0.0
0.084,6.935289312300025,-3.6317992344507166,4.018046953100022,0.0,26.772623067598303,25.02124421251301,464.63469561990377,463.9272800093591,0.0
0.085,6.550797961309371,-3.4044899117425764,6.179604599006364,0.0,26.935661080036947,25.184723251760214,459.87547991294275,463.9272800093591,0.0
0.08600000000000001,6.40915415038652,-3.176080506589721,8.599730453451034,0.0,27.075891253816724,25.60449236154802,460.207868099928,463.9272800093591,0.0
0.08700000000000001,6.525491065177031,-2.971327740082349,8.47073047905271,0.0,27.223836610933013,25.94370282327057,460.84296021986046,463.9272800093591,0.0
0.088,6.712577100206643,-2.767237844357502,8.184027616981478,0.0,27.370506117645267,26.214123364743287,444.1875407600722,463.9272800093591,0.0
0.089,6.959867442055723,-2.491992780112612,10.0,0.0,27.501314669723875,26.649461716239603,437.0361605572854,463.9272800093591,0.0
0.09,7.377624494641223,-2.1810775113262597,10.0,0.0,27.63112797282021,26.992706991598055,432.3260312115894,463.9272800093591,0.0
0.091,7.793408827154492,-1.9287910243636444,10.0,0.0,27.75764211226474,27.27305036367969,414.7367797764429,463.9272800093591,0.0
0.092,8.28101823918117,-1.583827267507032,10.0,0.0,27.864116026588363,27.48853162049981,408.505251817112,463.9272800093591,0.0
0.093,8.741562531001946,-1.2951063527184985,10.0,0.0,27.953181012103467,27.64732836509026,395.0529750460103,463.9272800093591,0.0
0.094,9.2505597837604,-0.941729456514139,10.0,0.0,28.013234924091517,27.747767678887953,379.5445776714905,463.9272800093591,0.0
0.095,9.727266574093644,-0.6518291136086622,10.0,0.0,28.048972107502976,27.79682067809562,403.7978748500208,463.9272800093591,0.0
0.096,9.910116807854031,-0.8369761206078499,10.0,0.0,28.10930604669301,27.829195637913344,412.17011015143805,463.9272800093591,0.0
0.097,9.947630033703772,-1.1760200014311417,10.0,0.0,28.202287444766387,27.86206854316243,428.16599099016537,463.9272800093591,0.0
0.098,9.868308872526608,-1.6185588528886719,10.0,0.0,28.33454682840944,27.91005275768194,442.3649102177084,463.9272800093591,0.0
0.099,9.749925303360962,-2.0319841961276515,10.0,0.0,28.49943009438184,27.978693470110237,462.9377946588949,463.9272800093591,0.0
0.1,9.54916777132495,-2.4919768847201507,7.7236294803649,0.0,28.70115404731262,27.82745717356541,472.4915012210853,463.9272800093591,0.0
0.101,9.201086531559874,-2.8467622852622982,2.861133987152453,0.0,28.90200844246955,27.235687463964922,483.9096720369752,463.9272800093591,0.0
0.10200000000000001,8.553537142506137,-3.046629444119088,-3.047775341068677,0.0,29.042037960619552,26.18957471406622,488.59189224151226,463.9272800093591,0.0
0.10300000000000001,7.597676333615415,-3.0248216502965084,-5.635531565658724,0.0,29.059055723055643,25.135181294637135,489.16252245797233,463.9272800093591,0.0
0.10400000000000001,6.570923886574427,-2.8724953872466013,-6.173199098374893,0.0,28.95239455630797,24.258047288127308,486.5522630405269,463.9272800093591,0.0
0.105,5.662860045135792,-2.6613410780948006,-5.094319219963854,0.0,28.746982394207862,23.671633525633904,480.9692781728878,463.9272800093591,0.0
0.106,4.990490170324382,-2.4574141322518814,-2.4732467677795986,0.0,28.483149651117216,23.46572914195086,473.80348680529886,463.9272800093591,0.0
0.107,4.636487345177217,-2.3011152194946987,1.0108868480554793,0.0,28.209956133022484,23.643292507565143,466.48179016675584,463.9272800093591,0.0
0.108,4.620363886270011,-2.2086897660790887,4.646190065753021,0.0,27.97323449255051,24.139055754825222,458.52737352144595,463.9272800093591,0.0
0.109,4.907186632015128,-2.1693425215842406,8.677397453287096,0.0,27.806357398491453,24.936938557142845,456.43159467479023,463.9272800093591,0.0
0.11,5.476177646866964,-2.1627904490023138,9.800243729960645,0.0,27.735629038531002,25.661825602205287,457.7127401080557,463.9272800093591,0.0
0.111,6.101021937926368,-2.1521584035538304,9.221816412340946,0.0,27.74335821479933,26.16925267719252,440.5485927528329,463.9272800093591,0.0
0.112,6.675482766124643,-2.040519859741457,10.0,0.0,27.788883261574664,26.661152181935343,432.89536855394965,463.9272800093591,0.0
0.113,7.28905006238555,-1.8160145403870045,10.0,0.0,27.855466554455887,27.03888461069812,424.9297631238264,463.9272800093591,0.0
0.114,7.831823346875706,-1.6183256247213098,10.0,0.0,27.933664033395587,27.331932737541425,410.64589328299246,463.9272800093591,0.0
0.115,8.406338751346503,-1.306986122682983,10.0,0.0,28.001076121058084,27.545726837947484,398.7196507704724,463.9272800093591,0.0
0.116,8.919670079477866,-1.0525968910238435,10.0,0.0,28.058256989532808,27.694161445029437,391.902465300693,463.9272800093591,0.0
0.117,9.461796014983126,-0.7288155366223252,10.0,0.0,28.091491175200694,27.778970138626413,395.42187910169815,463.9272800093591,0.0
0.11800000000000001,9.83462664458899,-0.6678749876568153,10.0,0.0,28.126417164819294,27.82303127152889,405.5761370194018,463.9272800093591,0.0
0.11900000000000001,9.916720095965903,-1.0052663439185245,10.0,0.0,28.199979123444727,27.86087691674757,420.784189426248,463.9272800093591,0.0
0.12,9.899774886683902,-1.4079997532030388,10.0,0.0,28.31089621218815,27.904979100841707,438.52985027356016,463.9272800093591,0.0
0.121,9.792172331436978,-1.8610978537986602,10.0,0.0,28.46094526743934,27.96742960438514,451.67312769064733,463.9272800093591,0.0
0.122,9.644836781995544,-2.280689340832378,10.0,0.0,28.64385855008749,28.0537708479854,474.288416162262,463.9272800093591,0.0
0.123,9.42539389300919,-2.7265841240182263,1.5158239118920331,0.0,28.86196714011097,27.23917528809268,478.1796707721216,463.9272800093591,0.0
0.124,8.722592268634294,-2.916505026024016,-0.5723273006653784,0.0,28.993237666531595,26.45810902048272,485.19606858407076,463.9272800093591,0.0
0.125,7.882864653606569,-2.9719256645359002,-4.2932140923870765,0.0,29.037471574765416,25.465202418721304,488.26720935338153,463.9272800093591,0.0
0.126,6.910934972130251,-2.8946526944831343,-6.072183770482687,0.0,28.968937198908794,24.516047060098227,486.8046107365747,463.9272800093591,0.0
0.127,5.966660563033152,-2.719382649381186,-5.569657769351436,0.0,28.79383374951483,23.822172244843106,482.5533990306131,463.9272800093591,0.0
0.128,5.210293308692987,-2.521700350183895,-3.6303131065831646,0.0,28.546860811074083,23.462234872953758,476.0375768555047,463.9272800093591,0.0
0.129,4.731362649123553,-2.353545577750713,-0.4935049874904296,0.0,28.272071227312786,23.48436809089101,468.8786933982787,463.9272800093591,0.0
0.13,4.581266330835863,-2.237971391222226,3.03642260723338,0.0,28.015942310927542,23.845454271303055,461.140676896498,463.9272800093591,0.0
0.131,4.74091719048773,-2.1829319249779693,6.933296889252337,0.0,27.816636304800454,24.519113279365637,454.7664287545138,463.9272800093591,0.0
0.132,5.197171184089528,-2.158934606843869,10.0,0.0,27.70253748976001,25.355252954671613,457.0876689233352,463.9272800093591,0.0
0.133,5.8391837720500614,-2.1666640842566194,9.115564909786588,0.0,27.68455273945096,25.902355045172367,447.70355235369937,463.9272800093591,0.0
0.134,6.405636706723532,-2.1161448851191205,10.0,0.0,27.717442266543642,26.443190965483282,432.48306955735325,463.9272800093591,0.0
0.135,7.026833949225432,-1.9288185222691603,10.0,0.0,27.78102572503602,26.861720728241757,431.82571098714254,463.9272800093591,0.0
0.136,7.596563851552455,-1.7207023609975707,10.0,0.0,27.85908429984364,27.18829754374266,413.12351886372,463.9272800093591,0.0
0.137,8.151837906459134,-1.4583085210938838,10.0,0.0,27.9352125379439,27.434639688157773,409.9049846921709,463.9272800093591,0.0
0.138,8.68954032317755,-1.1740075744097953,10.0,0.0,27.999713000939423,27.61036591665146,391.1551107934357,463.9272800093591,0.0
0.139,9.222441533515942,-0.8674586168597824,10.0,0.0,28.044458664621104,27.721727459625278,384.0194221827873,463.9272800093591,0.0
0.14,9.716008517663246,-0.6098909769554058,10.0,0.0,28.070598965418025,27.77746405851706,402.24351841532217,463.9272800093591,0.0
0.14100000000000001,9.879094886800798,-0.8576091024708519,10.0,0.0,28.12952356623015,27.817237196835702,415.07306705829825,463.9272800093591,0.0
0.14200000000000002,9.923046323530205,-1.2026417565073957,10.0,0.0,28.22200943148182,27.855721687054828,428.7291651568923,463.9272800093591,0.0
0.14300000000000002,9.841250402166967,-1.656272997619648,10.0,0.0,28.355544269212203,27.909043380494463,444.2449323737025,463.9272800093591,0.0
0.14400000000000002,9.723014675553188,-2.070837792769689,10.0,0.0,28.522123607568897,27.982574359077056,464.53769365516365,463.9272800093591,0.0
0.145,9.518697200637117,-2.5347235970640165,6.150672683275543,0.0,28.72627990046906,27.66327673377199,473.064654300342,463.9272800093591,0.0
0.146,9.085214281533496,-2.847387044756852,1.795818617776539,0.0,28.907844922751973,27.001423772602056,483.4938096780455,463.9272800093591,0.0
0.147,8.37972216234186,-3.0090455233749767,-3.614424367762087,0.0,29.019723944860655,25.945603725943183,487.5447294811067,463.9272800093591,0.0
