timestamp,iq,id,iq_ref,id_ref,vq,vd,omega,omega_ref,r
0.0,0.0,0.0,0.0,0.0,0.0,0.0,0.0,124.86031465208607,0.0
0.001,0.0,0.0,10.0,0.0,0.0,1.0999999999999999,6.115472199294103,124.86031465208607,0.0
0.002,0.5307369851907212,-0.2913212625381807,10.0,0.0,0.14204533887919985,1.9316189316290207,13.317801563642547,124.86031465208607,0.0
0.003,1.0842913387634832,-0.6024330830807904,10.0,0.0,0.384357124667687,2.6386968949419622,20.697939467553027,124.86031465208607,0.0
0.004,1.5590443546685477,-0.8700465084428163,10.0,0.0,0.6994718867930164,3.2526109522886295,28.232747544420146,124.86031465208607,0.0
0.005,1.9399447555359186,-1.0838738622210777,10.0,0.0,1.065311453102468,3.7994935661768023,35.92944872443006,124.86031465208607,0.0
0.006,2.239750732602683,-1.2510087368845633,10.0,0.0,1.4655018868449925,4.299102221838433,43.75633668444442,124.86031465208607,0.0
0.007,2.4770151619816017,-1.382020589851471,10.0,0.0,1.8883740978591532,4.765668027847139,51.58766747378032,124.86031465208607,0.0
0.008,2.6680767290418097,-1.4872241871505252,10.0,0.0,2.325877945545995,5.209220346273558,59.45942083902103,124.86031465208607,0.0
0.009000000000000001,2.8266491704841292,-1.5730794701170803,10.0,0.0,2.772378685460125,5.636635464737965,67.35059094018146,124.86031465208607,0.0
0.01,2.962077666392183,-1.645500646948331,10.0,0.0,3.224078639851053,6.052647735211881,75.20908322432116,124.86031465208607,0.0
0.011,3.0811061533574158,-1.7084279320504514,10.0,0.0,3.678407615443203,6.460489925470405,83.0265951655913,124.86031465208607,0.0
0.012,3.188848746459569,-1.7638278597420747,10.0,0.0,4.133552631697047,6.862319393890706,90.74118064793086,124.86031465208607,0.0
0.013000000000000001,3.288205119878689,-1.8140726097274587,10.0,0.0,4.588339016389012,7.259628641949282,98.35820682563939,124.86031465208607,0.0
0.014,3.3820602099432007,-1.8592355758795645,10.0,0.0,5.041843166194517,7.653355107498287,105.90865295623543,124.86031465208607,0.0
0.015,3.4721069852858886,-1.899829032412081,10.0,0.0,5.493383198131427,8.044092747085895,113.37727610343421,124.86031465208607,0.0
0.016,3.5596145800153947,-1.9360338400176071,8.287690294158573,0.0,5.942419585104689,8.243831190599053,119.61426878483647,124.86031465208607,0.0
0.017,3.5559270684288253,-1.9187767201931736,5.221654412129939,0.0,6.364265846475199,8.14963928071531,123.69089846013075,124.86031465208607,0.0
0.018000000000000002,3.3897355399406432,-1.8029615686565763,3.1950337364023498,0.0,6.7219411952495,7.9330274654650745,126.65971580131695,124.86031465208607,0.0
0.019,3.1244052365827257,-1.6284097811256972,1.6926310543169434,0.0,7.004145282508319,7.656370696429665,127.15016722884235,124.86031465208607,0.0
0.02,2.8112152181041115,-1.437069838584237,1.4245068147866804,0.0,7.211161408333462,7.452927972495271,124.23192705385537,124.86031465208607,0.0
0.021,2.5445316713855965,-1.2590409319992797,2.8899107782624758,0.0,7.359461868883722,7.480610101868721,126.40708048969896,124.86031465208607,0.0
0.022,2.429553419226777,-1.1430187946186934,1.7868664019645553,0.0,7.4847183502702865,7.39434591560261,128.93682169095004,124.86031465208607,0.0
0.023,2.30950010201206,-1.0470696360170155,0.48123073095037316,0.0,7.579428578819202,7.208700398425216,126.1142776706667,124.86031465208607,0.0
0.024,2.1501908662174043,-0.9377439117247738,1.8799631109062398,0.0,7.6350368947093585,7.234330857091002,124.35930951378676,124.86031465208607,0.0
0.025,2.102198515036742,-0.862342604103504,2.762457240729203,0.0,7.680446538281663,7.349732198232118,127.32230972645918,124.86031465208607,0.0
0.026000000000000002,2.1305764806030973,-0.8418007700245689,1.2563371836492587,0.0,7.731349762938374,7.280034722315225,126.20039210719655,124.86031465208607,0.0
0.027,2.094078088436082,-0.8000193726636168,1.80389521872947,0.0,7.765802382168812,7.301988503679352,123.51555921266355,124.86031465208607,0.0
0.028,2.097535899023142,-0.7524800516504235,3.1597592203901965,0.0,7.794193606274776,7.468116285575739,126.82070806879308,124.86031465208607,0.0
0.029,2.1778599120412,-0.7550038972718169,1.4875808581583594,0.0,7.837111502388268,7.41417108850486,124.9371609379272,124.86031465208607,0.0
0.03,2.1728120675861438,-0.726618299954835,2.428585960732887,0.0,7.867195435022241,7.4915030486781715,123.8244693234197,124.86031465208607,0.0
0.031,2.220786466904405,-0.6938970049898782,2.9952902212732995,0.0,7.898688683937172,7.61170996136169,126.11698611794006,124.86031465208607,0.0
0.032,2.2918365265393237,-0.6982951825200829,1.8364651093545836,0.0,7.939864311706936,7.58257194018523,123.1882413709104,124.86031465208607,0.0
0.033,2.3058773210467334,-0.6646171353717618,3.317558215681167,0.0,7.970260007620456,7.734139789919033,125.06316964527196,124.86031465208607,0.0
0.034,2.3932218715763924,-0.6575818297525459,2.3780655285685333,0.0,8.012335815769376,7.745967805011968,123.41096318331401,124.86031465208607,0.0
0.035,2.426738283572133,-0.642129124518102,3.218662274235226,0.0,8.049757400093101,7.859867808490727,123.90499966996347,124.86031465208607,0.0
0.036000000000000004,2.5089864342254176,-0.6213868516111036,2.9811971807317206,0.0,8.092699703364902,7.922880709860025,123.84231813280222,124.86031465208607,0.0
0.037,2.563697787505257,-0.6184535529352827,3.022717914505186,0.0,8.137533826321187,7.985632715715443,122.58883779185945,124.86031465208607,0.0
0.038,2.6304442005380606,-0.585840006978232,3.6721728535788385,0.0,8.180601580498863,8.110822777340504,123.76283501712024,124.86031465208607,0.0
0.039,2.7120453837878395,-0.5925906074762245,3.0961490372981006,0.0,8.232950266935632,8.149634773012064,121.90169175597242,124.86031465208607,0.0
0.04,2.7760990141524284,-0.5576401719219304,4.056306896833146,0.0,8.280033230379923,8.294948152964196,123.22971548937808,124.86031465208607,0.0
0.041,2.8679360138996164,-0.5667971587150424,3.4086010217573963,0.0,8.338296008377785,8.340127732743314,122.15443117975175,124.86031465208607,0.0
0.042,2.9396651815348873,-0.5323309674525356,3.973302011293902,0.0,8.391367615646965,8.448237961501674,121.95048098330565,124.86031465208607,0.0
0.043000000000000003,3.0155327080619356,-0.5335816855825344,4.104375446204758,0.0,8.450425325971993,8.551987259814325,123.17252234199744,124.86031465208607,0.0
0.044,3.1114210801179576,-0.5106819629269839,3.5102326899597522,0.0,8.511420718422364,8.574811916131257,119.71003944461712,124.86031465208607,0.0
0.045,3.1612597304160444,-0.4829534738602179,5.2929768907245975,0.0,8.56577790068861,8.798973567895892,122.83993471809438,124.86031465208607,0.0
0.046,3.2981530401316967,-0.49868829874831144,3.748233053325885,0.0,8.639123645533052,8.803845631023442,121.61923672513149,124.86031465208607,0.0
0.047,3.366274749806591,-0.4564655443053729,4.390992829076879,0.0,8.700820170968196,8.89559162106219,119.60892299715813,124.86031465208607,0.0
0.048,3.438171284596544,-0.4457383355871707,5.4486636096128365,0.0,8.76476387744913,9.087021451011879,122.19705547787571,124.86031465208607,0.0
0.049,3.5727557822505895,-0.4502915741234681,4.181229960996152,0.0,8.842064324603115,9.101622930067455,124.45443152763387,124.86031465208607,0.0
0.05,3.6195631676311493,-0.4515053362233252,3.0566007673615916,0.0,8.91318285639288,9.007656463703912,123.30709548377583,124.86031465208607,0.0
0.051000000000000004,3.566466083133711,-0.4526249203145958,3.6458009809737177,0.0,8.967903904996355,9.012565565737905,126.87933434863471,124.86031465208607,0.0
0.052000000000000005,3.5318208771755715,-0.4762673580721173,1.8394913515787863,0.0,9.020233231255295,8.821149802869702,127.03850301302745,124.86031465208607,0.0
0.053,3.417660561575522,-0.44312936962705596,1.738125135773004,0.0,9.044306445494993,8.673232544125952,126.47494625887722,124.86031465208607,0.0
0.054,3.2871129369529104,-0.4309255103052714,2.003757196780206,0.0,9.050169567795397,8.585966157101884,129.59831320847562,124.86031465208607,0.0
0.055,3.194721871917602,-0.42644296824257033,0.3946937364171146,0.0,9.046348698129675,8.337216960667906,127.28222372944543,124.86031465208607,0.0
0.056,3.033915201733598,-0.3948066576455387,1.5285193851586123,0.0,9.014599827042082,8.27053687594584,129.56327475311716,124.86031465208607,0.0
0.057,2.9412706878564334,-0.407395709636438,0.3409642723124402,0.0,8.98105899341601,8.073963423511376,127.9762211180391,124.86031465208607,0.0
0.058,2.8178924912487,-0.38919881393329714,1.1033320251919347,0.0,8.929087348861843,8.002074393391036,128.8505772757594,124.86031465208607,0.0
0.059000000000000004,2.7386778716773406,-0.41060908184190725,0.6262513200950512,0.0,8.87766106417804,7.879554372924632,128.31053412630376,124.86031465208607,0.0
0.06,2.659177083746807,-0.41702916336749585,0.8617707000806951,0.0,8.819617512204706,7.802774605362524,129.11081230916525,124.86031465208607,0.0
0.061,2.594359741951517,-0.4452353953044965,0.41912663207915823,0.0,8.762738823370308,7.683157317797446,128.40540757727152,124.86031465208607,0.0
0.062,2.5212369309229485,-0.45513129689159526,0.7363780687741719,0.0,8.700392761518051,7.61653332461709,129.2566336646294,124.86031465208607,0.0
0.063,2.463946702248185,-0.48588774237343735,0.26680183496980225,0.0,8.640903156520118,7.501081921528049,128.42497727668552,124.86031465208607,0.0
0.064,2.3956266793626035,-0.4957532013134627,0.6469834026957408,0.0,8.576595007741656,7.444684733266686,129.3391367798499,124.86031465208607,0.0
0.065,2.344625229602701,-0.5276750528281474,0.14511542983591763,0.0,8.516490704092119,7.333416115506504,128.34840304769457,124.86031465208607,0.0
0.066,2.2798499740286813,-0.5374082240285606,0.6056014119574926,0.0,8.45202139934842,7.289551330534904,129.1709147529369,124.86031465208607,0.0
0.067,2.2366889828728262,-0.5685181585496015,0.15123955832781721,0.0,8.392937307667237,7.193141386337016,128.37769189384514,124.86031465208607,0.0
0.068,2.179824224810227,-0.5818691663358677,0.5126772154561117,0.0,8.331278142245665,7.150589301686535,128.6805458296275,124.86031465208607,0.0
0.069,2.1404103423203105,-0.6094169901766101,0.3230479357895142,0.0,8.274426435445818,7.0854197911176,128.4198041519515,124.86031465208607,0.0
0.07,2.0979584596974057,-0.6290464665745246,0.4178238796288647,0.0,8.218626712434432,7.037679275808192,128.578061936785,124.86031465208607,0.0
0.07100000000000001,2.0603238113245084,-0.6527548136870428,0.30151751436512786,0.0,8.166044533611634,6.979106672605969,128.43392384428856,124.86031465208607,0.0
0.07200000000000001,2.019547345341551,-0.6711639351595593,0.33785046869131996,0.0,8.114651232241748,6.9304018652446056,128.4527562423344,124.86031465208607,0.0
0.073,1.9815203044090604,-0.6897656034353936,0.2925098537659139,0.0,8.065388872568333,6.879852621140076,128.4107264511423,124.86031465208607,0.0
0.074,1.943002965950164,-0.7065187828101008,0.27802063137140554,0.0,8.017654657500264,6.83214829398567,128.32120583580752,124.86031465208607,0.0
0.075,1.9056928974290486,-0.7212582631403383,0.28817202720157953,0.0,7.971377242266138,6.789421457957893,128.28489512777423,124.86031465208607,0.0
0.076,1.870724246219303,-0.7355296158931974,0.27208157646133957,0.0,7.926877338952163,6.7479415514176155,128.2112375258352,124.86031465208607,0.0
0.077,1.8369082853851884,-0.7484483209908634,0.27540114869336474,0.0,7.883957779348773,6.71005577183255,128.11257869157183,124.86031465208607,0.0
0.078,1.8051562056792991,-0.7601280692786203,0.2922079254301948,0.0,7.842697183007889,6.676636733123686,128.0339672952171,124.86031465208607,0.0
0.079,1.7760202835602552,-0.7712259715321853,0.29977709717624257,0.0,7.803324714195223,6.645985510412359,128.11765225040395,124.86031465208607,0.0
0.08,1.750165768485544,-0.7791956378918161,0.22536124359964393,0.0,7.765590054269714,6.608753364917035,128.12625960185,124.86031465208607,0.0
0.081,1.7208691501945965,-0.785229590488512,0.18839811837898224,0.0,7.728489683909263,6.571113265601445,127.85825664958789,124.86031465208607,0.0
0.082,1.6904197593602706,-0.7890372240289598,0.29242017453501834,0.0,7.691693840816782,6.5483956634196065,127.54839219668224,124.86031465208607,0.0
0.083,1.6672022873829175,-0.7945246076659024,0.4204716255418781,0.0,7.656871357680025,6.539565104205061,127.2890704945808,124.86031465208607,0.0
0.084,1.6526747532607577,-0.8037938422055921,0.5258449181676537,0.0,7.625612808898486,6.539811754310728,126.81027419472433,124.86031465208607,0.0
0.085,1.6464043185489805,-0.8130288290185904,0.745743472669506,0.0,7.598427936209697,6.560587465073692,126.65037831681273,124.86031465208607,0.0
0.08600000000000001,1.6532990761807442,-0.8242446606575893,0.8077907749780366,0.0,7.577180513478248,6.580372207513789,126.81915957074519,124.86031465208607,0.0
0.08700000000000001,1.6626311430509497,-0.835206700400774,0.7038116988252199,0.0,7.561129973319308,6.58303798225743,127.91995899229623,124.86031465208607,0.0
0.088,1.6634514528440125,-0.8401995212031319,0.12281554464759581,0.0,7.547390654541458,6.520965425904271,127.07458837340212,124.86031465208607,0.0
0.089,1.62610604126299,-0.8315921623447071,0.5233581168814894,0.0,7.52782127432363,6.517712036167989,125.80263041235318,124.86031465208607,0.0
0.09,1.610725475664861,-0.8239085896485425,1.1499139398032887,0.0,7.509124373745955,6.579061170282593,125.46864538073804,124.86031465208607,0.0
0.091,1.6362257653709695,-0.8296363739628115,1.3108231483243404,0.0,7.499138968639043,6.640881318112417,126.84194989784477,124.86031465208607,0.0
0.092,1.6728788810581612,-0.841857945878821,0.6043545373133874,0.0,7.497621213893423,6.61242343152362,127.2246332782727,124.86031465208607,0.0
0.093,1.662819800570919,-0.8408592265054925,0.38936966083755387,0.0,7.493177371113258,6.571548937827378,125.37388722510991,124.86031465208607,0.0
0.094,1.6373536112864113,-0.8211807076138744,1.3096069616887125,0.0,7.482935813357139,6.640394151097553,124.41698028734018,124.86031465208607,0.0
0.095,1.663826484375549,-0.8183693732088488,1.7924937742210365,0.0,7.480490471108016,6.742079185702491,126.04221279694383,124.86031465208607,0.0
0.096,1.7209829248809858,-0.8324131942831401,0.9680585379706348,0.0,7.490031100206519,6.73181195878445,127.00384172265291,124.86031465208607,0.0
0.097,1.7276973800450706,-0.8304785628409347,0.46580880441042716,0.0,7.497237696033984,6.67635537347595,124.58720864538327,124.86031465208607,0.0
0.098,1.7008450301042028,-0.8023887202352925,1.6768564031122737,0.0,7.495107437375653,6.768423742518988,123.44933878510017,124.86031465208607,0.0
0.099,1.7403866195884952,-0.7952971661073831,2.259901091923685,0.0,7.501897868959444,6.898478590231445,125.79707269216154,124.86031465208607,0.0
0.1,1.8154098093612197,-0.8121791711166051,1.076666557992246,0.0,7.522942678248401,6.872363615730307,126.06656743521808,124.86031465208607,0.0
0.101,1.8196968936567515,-0.8049835928443347,0.9298566586326558,0.0,7.5383111754983005,6.846926528643154,123.3099521479115,124.86031465208607,0.0
0.10200000000000001,1.8102596905850998,-0.7739544462828536,2.323667927327688,0.0,7.546257863975458,6.981438301720596,123.90951348955124,124.86031465208607,0.0
0.10300000000000001,1.8778104642485163,-0.7709230243339568,2.033395268133165,0.0,7.566837895963875,7.049900504005966,126.1838508976544,124.86031465208607,0.0
0.10400000000000001,1.9293385442566995,-0.7752453654353254,0.8829912016259067,0.0,7.59271191672263,6.984940187473525,123.25055480555329,124.86031465208607,0.0
0.105,1.911537282492204,-0.745856916494652,2.3657368461417856,0.0,7.606226550957779,7.106142785826195,122.52494239054242,124.86031465208607,0.0
0.106,1.9740923538131008,-0.7322047601840866,2.751896776262658,0.0,7.6293021288999245,7.23716765317231,124.97769848454342,124.86031465208607,0.0
0.107,2.0550277259646266,-0.7475874068786339,1.524344890937583,0.0,7.665001248481972,7.2102279446676025,122.95591723780716,124.86031465208607,0.0
0.108,2.0668108251621296,-0.7278001212034173,2.554279488448506,0.0,7.692106057364126,7.31463365636081,122.56831155192516,124.86031465208607,0.0
0.109,2.1314056913557335,-0.7093404003543017,2.771002362391112,0.0,7.725108260090732,7.417861843642169,124.81678418515104,124.86031465208607,0.0
0.11,2.198033512590457,-0.7159390560277628,1.6472013504475256,0.0,7.766043510605386,7.381598980740948,121.71241970702447,124.86031465208607,0.0
0.111,2.2052816450268233,-0.682383582270148,3.2308625389614267,0.0,7.795501861108382,7.538365653681627,123.47193272046832,124.86031465208607,0.0
0.112,2.291936188381166,-0.6763591934946152,2.364989851555679,0.0,7.837363915827412,7.5618593684341535,122.89408654164245,124.86031465208607,0.0
0.113,2.3273196526370734,-0.6678354694773535,2.6735752220730475,0.0,7.876511770795652,7.626767399179692,121.32915231121736,124.86031465208607,0.0
0.114,2.385251054744792,-0.6365816955661403,3.4913539606942825,0.0,7.914882965451554,7.769950600301372,123.56978433871515,124.86031465208607,0.0
0.115,2.4715591086184325,-0.646790819066332,2.383943250079094,0.0,7.9651709020781745,7.763745063317566,120.66959508406076,124.86031465208607,0.0
0.116,2.5059450447527936,-0.6138184153317847,3.8759450730865432,0.0,8.006080435697944,7.935463808895733,123.52623443753819,124.86031465208607,0.0
0.117,2.6061160887821626,-0.6174410248004172,2.4609661984933053,0.0,8.060799101592453,7.9128589833608425,120.12319821842833,124.86031465208607,0.0
0.11800000000000001,2.634380986665663,-0.5834703564167457,4.209855472384815,0.0,8.104012418727129,8.102406687515998,123.24783096059573,124.86031465208607,0.0
0.11900000000000001,2.743524966084493,-0.5885123487448527,2.6636639382160148,0.0,8.162753500403783,8.078027802714386,119.52599213588931,124.86031465208607,0.0
0.12,2.776400589839432,-0.5514938138792915,4.577926575731194,0.0,8.209060126674116,8.285466841210104,122.80840672483147,124.86031465208607,0.0
0.121,2.894289783417558,-0.5637920792887896,2.9572383605326604,0.0,8.273202988710686,8.266735253380249,119.8147753762524,124.86031465208607,0.0
0.122,2.937972426838165,-0.5224677081201771,4.504509427580533,0.0,8.324389742277976,8.439071611223802,121.66620185333336,124.86031465208607,0.0
0.123,3.0394433933260565,-0.5305758373374431,3.6107373170275787,0.0,8.388996594198478,8.474780385928964,120.74062835210339,124.86031465208607,0.0
0.124,3.1098861344842446,-0.493312806121647,4.1147209306423935,0.0,8.446533623671531,8.571020895096296,119.45655280290244,124.86031465208607,0.0
0.125,3.1810626197347514,-0.4891724415745201,4.810796323734705,0.0,8.507858191325989,8.72779452743223,121.78641569572335,124.86031465208607,0.0
0.126,3.2991957557202367,-0.4826761978115538,3.6766038668878758,0.0,8.578054482280137,8.731018449010046,119.40446788582256,124.86031465208607,0.0
0.127,3.354681994344722,-0.44225914144763917,4.922136239500908,0.0,8.637172622534251,8.884367938192561,119.53444136919381,124.86031465208607,0.0
0.128,3.4545174453227045,-0.4448930770657886,4.910408230644201,0.0,8.70640780116284,9.004121850560535,122.56024718048455,124.86031465208607,0.0
0.129,3.558000220220857,-0.4445815582756337,3.4205059997148473,0.0,8.780634246742276,8.944667173511887,122.46878522661974,124.86031465208607,0.0
0.13,3.551308583042579,-0.4368519629919081,3.490152270901915,0.0,8.84064543976559,8.922911628704513,122.61975862026685,124.86031465208607,0.0
0.131,3.51470046263642,-0.4573957582031236,3.437071134396554,0.0,8.894817072431906,8.906757346825641,127.10346142264589,124.86031465208607,0.0
0.132,3.482071269909414,-0.47170093654871625,1.1727882655014348,0.0,8.943324245309606,8.652318482183787,125.04216832027876,124.86031465208607,0.0
0.133,3.333992621605352,-0.42751916916751387,2.201616280003073,0.0,8.956533768239964,8.579950490964203,126.23722133460372,124.86031465208607,0.0
0.134,3.2297138435075277,-0.4330114076298602,1.5903207060154192,0.0,8.962231503659995,8.448599336983667,127.68497725920642,124.86031465208607,0.0
0.135,3.1306188237358334,-0.4140739756916383,0.8381961176428647,0.0,8.952086310242144,8.264189987355993,126.42477076773574,124.86031465208607,0.0
0.136,2.994200178034626,-0.4043507623629458,1.4526548022217094,0.0,8.923634522056538,8.186333855366119,127.86933443073517,124.86031465208607,0.0
0.137,2.9126766339512575,-0.40579844713343427,0.7002827729355041,0.0,8.890498776948547,8.032116051081557,127.20027340345743,124.86031465208607,0.0
