timestamp,iq,id,iq_ref,id_ref,vq,vd,omega,omega_ref,r
0.0,0.0,0.0,0.0,0.0,0.0,0.0,0.0,470.52645628047674,0.0
0.001,0.0,0.0,10.0,0.0,0.0,1.0999999999999999,6.115472199294103,470.52645628047674,0.0
0.002,0.5307369851907212,-0.2913212625381807,10.0,0.0,0.14204533887919985,1.9316189316290207,13.317801563642547,470.52645628047674,0.0
0.003,1.0842913387634832,-0.6024330830807904,10.0,0.0,0.384357124667687,2.6386968949419622,20.697939467553027,470.52645628047674,0.0
0.004,1.5590443546685477,-0.8700465084428163,10.0,0.0,0.6994718867930164,3.2526109522886295,28.232747544420146,470.52645628047674,0.0
0.005,1.9399447555359186,-1.0838738622210777,10.0,0.0,1.065311453102468,3.7994935661768023,35.92944872443006,470.52645628047674,0.0
0.006,2.239750732602683,-1.2510087368845633,10.0,0.0,1.4655018868449925,4.299102221838433,43.75633668444442,470.52645628047674,0.0
0.007,2.4770151619816017,-1.382020589851471,10.0,0.0,1.8883740978591532,4.765668027847139,51.58766747378032,470.52645628047674,0.0
0.008,2.6680767290418097,-1.4872241871505252,10.0,0.0,2.325877945545995,5.209220346273558,59.45942083902103,470.52645628047674,0.0
0.009000000000000001,2.8266491704841292,-1.5730794701170803,10.0,0.0,2.772378685460125,5.636635464737965,67.35059094018146,470.52645628047674,0.0
0.01,2.962077666392183,-1.645500646948331,10.0,0.0,3.224078639851053,6.052647735211881,75.20908322432116,470.52645628047674,0.0
0.011,3.0811061533574158,-1.7084279320504514,10.0,0.0,3.678407615443203,6.460489925470405,83.0265951655913,470.52645628047674,0.0
0.012,3.188848746459569,-1.7638278597420747,10.0,0.0,4.133552631697047,6.862319393890706,90.74118064793086,470.52645628047674,0.0
0.013000000000000001,3.288205119878689,-1.8140726097274587,10.0,0.0,4.588339016389012,7.259628641949282,98.35820682563939,470.52645628047674,0.0
0.014,3.3820602099432007,-1.8592355758795645,10.0,0.0,5.041843166194517,7.653355107498287,105.90865295623543,470.52645628047674,0.0
0.015,3.4721069852858886,-1.899829032412081,10.0,0.0,5.493383198131427,8.044092747085895,113.37727610343421,470.52645628047674,0.0
0.016,3.5596145800153947,-1.9360338400176071,10.0,0.0,5.94241958510469,8.43218525824161,120.68508583176356,470.52645628047674,0.0
0.017,3.645144415105338,-1.9685384477868613,10.0,0.0,6.388575043274759,8.817838951066484,127.83962377537456,470.52645628047674,0.0
0.018000000000000002,3.730251927866576,-1.9959253041084188,10.0,0.0,6.83136783302799,9.201036292373047,134.85405702603322,470.52645628047674,0.0
0.019,3.81544967906247,-2.018253592643655,10.0,0.0,7.270383321112213,9.581672501020332,141.68976328564074,470.52645628047674,0.0
0.02,3.9014648862453374,-2.0350875541282063,10.0,0.0,7.705189334130692,9.959536942333155,148.3432823300447,470.52645628047674,0.0
0.021,3.9891051824829464,-2.0457889559126508,10.0,0.0,8.135310004560049,10.334315260302239,154.92060212100432,470.52645628047674,0.0
0.022,4.079618141396171,-2.0489696811670974,10.0,0.0,8.560139305503519,10.705547790999272,161.01925282597162,470.52645628047674,0.0
0.023,4.171109372430197,-2.048468292080302,10.0,0.0,8.979521969370257,11.072981092896333,166.534238406907,470.52645628047674,0.0
0.024,4.266936196769627,-2.039517194249811,10.0,0.0,9.392730090169543,11.435983292623375,171.8647834235234,470.52645628047674,0.0
0.025,4.367255527950721,-2.0225841458509217,10.0,0.0,9.79914449451603,11.793929226271104,177.02637022703064,470.52645628047674,0.0
0.026000000000000002,4.4734353073349595,-1.9962166741499119,10.0,0.0,10.197980960389518,12.146045424568259,181.63161391243256,470.52645628047674,0.0
0.027,4.582366840795821,-1.966358349113627,10.0,0.0,10.589124658468391,12.491912978736195,185.74793639675826,470.52645628047674,0.0
0.028,4.700058850757774,-1.9240450691803936,10.0,0.0,10.971384864613876,12.830451341534015,189.43662766964098,470.52645628047674,0.0
0.029,4.820934284790598,-1.879137197786803,10.0,0.0,11.344756153370636,13.161242511022618,192.73598774770625,470.52645628047674,0.0
0.03,4.952016225740939,-1.821000614527957,10.0,0.0,11.707923484756042,13.483081433273819,195.59831968863915,470.52645628047674,0.0
0.031,5.086039273572549,-1.7621311371320891,10.0,0.0,12.061063698547066,13.79562148058647,197.80891551030922,470.52645628047674,0.0
0.032,5.230431844273564,-1.6911110488141978,10.0,0.0,12.40292038074925,14.097678592248165,200.4421589734679,470.52645628047674,0.0
0.033,5.380124186618445,-1.6166151787533525,10.0,0.0,12.733312761073865,14.38869342901298,201.91742172589852,470.52645628047674,0.0
0.034,5.537594793894332,-1.535029134414507,10.0,0.0,13.051537880865839,14.667821176756876,203.18880493813168,470.52645628047674,0.0
0.035,5.698947813469154,-1.4530296333491768,10.0,0.0,13.357649178779205,14.934684535625108,203.60405746232266,470.52645628047674,0.0
0.036000000000000004,5.870474243492053,-1.3603000477825025,10.0,0.0,13.65045542338638,15.188218311291084,204.28541056101804,470.52645628047674,0.0
0.037,6.041188711220851,-1.275010780747051,10.0,0.0,13.930879897581198,15.42861600670124,205.2233356988433,470.52645628047674,0.0
0.038,6.228175208801664,-1.168399557236846,10.0,0.0,14.196427351981786,15.654155009933262,200.35169734043586,470.52645628047674,0.0
0.039,6.404895489618571,-1.0845312562500289,10.0,0.0,14.449814560392067,15.86612549236809,209.64773540576442,470.52645628047674,0.0
0.04,6.534612624563911,-1.0851225869390002,10.0,0.0,14.699963825590459,16.069735965364643,218.170241886545,470.52645628047674,0.0
0.041,6.621487035821765,-1.1484636683301073,10.0,0.0,14.952420817214799,16.26974130369247,220.68166573712315,470.52645628047674,0.0
0.042,6.6704785161669795,-1.2647840534085386,10.0,0.0,15.211794475054209,16.47047148862455,233.10654395573727,470.52645628047674,0.0
0.043000000000000003,6.709376245503157,-1.3867642159960276,10.0,0.0,15.477558399636717,16.673277185423842,235.10815372853793,470.52645628047674,0.0
0.044,6.744196093263161,-1.5028656568708394,10.0,0.0,15.74857785831126,16.87893749904121,248.8181267625822,470.52645628047674,0.0
0.045,6.750563942850831,-1.6564343609015326,10.0,0.0,16.02879294551472,17.090781462187255,251.61117095327992,470.52645628047674,0.0
0.046,6.764566527560506,-1.7840489455190416,10.0,0.0,16.314672837580048,17.307985931916857,266.60539535969383,470.52645628047674,0.0
0.047,6.752169677737121,-1.9446655565152717,10.0,0.0,16.610076868775216,17.533561623207692,270.0627790167984,470.52645628047674,0.0
0.048,6.7291903821171735,-2.110358990489937,10.0,0.0,16.91511817760721,17.768523902508925,283.13731951482634,470.52645628047674,0.0
0.049,6.714097190323873,-2.246352557911731,10.0,0.0,17.22645394156277,18.011924542904307,294.70561782835244,470.52645628047674,0.0
0.05,6.666841209228205,-2.4219663531358275,10.0,0.0,17.548953774962747,18.267165921658286,300.1294548425776,470.52645628047674,0.0
0.051000000000000004,6.612335516543512,-2.59336894353628,10.0,0.0,17.88182590988993,18.53465621226123,310.75154600411304,470.52645628047674,0.0
0.052000000000000005,6.568447424188529,-2.726701034625408,10.0,0.0,18.22111236450049,18.81296732052879,322.35703405819294,470.52645628047674,0.0
0.053,6.5036136539679195,-2.8764091099274185,10.0,0.0,18.569435851849082,19.104068797231378,330.9557012510771,470.52645628047674,0.0
0.054,6.434362099984388,-3.0149932598739144,10.0,0.0,18.925784313874168,19.407861808234543,339.4707232587175,470.52645628047674,0.0
0.055,6.370891759459199,-3.1253006473392393,10.0,0.0,19.28762520191878,19.723199586257838,348.00092263299223,470.52645628047674,0.0
0.056,6.314459991163816,-3.2071523724558277,10.0,0.0,19.65271639484943,20.048760466390505,356.29964302226927,470.52645628047674,0.0
0.057,6.266092078485367,-3.262894600420583,10.0,0.0,20.01916768432525,20.383030530514645,362.98468703488817,470.52645628047674,0.0
0.058,6.234656406121481,-3.2830044001420036,10.0,0.0,20.38405550695561,20.723492962007192,368.0316803659419,470.52645628047674,0.0
0.059000000000000004,6.228510489334133,-3.2600491726267444,10.0,0.0,20.743774617448285,21.0667596267365,372.35801287012686,470.52645628047674,0.0
0.06,6.247959954981508,-3.201438289803519,10.0,0.0,21.095630838529225,21.40947063565305,373.88739853789605,470.52645628047674,0.0
0.061,6.298571070969623,-3.1064761741463998,10.0,0.0,21.436712814499675,21.747723437683817,371.47602194372377,470.52645628047674,0.0
0.062,6.38094735961424,-2.982369480030801,10.0,0.0,21.76480975788002,22.077703876517536,366.2922057853833,470.52645628047674,0.0
0.063,6.53566146196873,-2.7695519558602215,10.0,0.0,22.070926190088084,22.39130117743337,372.07145994459506,470.52645628047674,0.0
0.064,6.708566607552835,-2.560747003310555,10.0,0.0,22.35695033962817,22.686677966487718,365.1882535794375,470.52645628047674,0.0
0.065,6.897199383751794,-2.3667028673086685,10.0,0.0,22.62465294768497,22.962098937664592,356.7297130485294,470.52645628047674,0.0
0.066,7.167218997264825,-2.0824440278168583,10.0,0.0,22.863799361069702,23.20893224280502,357.7888817172531,470.52645628047674,0.0
0.067,7.423387055578651,-1.859201647307153,10.0,0.0,23.082000390168847,23.42951856849048,345.1266644280509,470.52645628047674,0.0
0.068,7.736929428236853,-1.5824320316278497,10.0,0.0,23.27222771500701,23.617938384108047,342.9584987314189,470.52645628047674,0.0
0.069,8.04132723792414,-1.3546495884062866,10.0,0.0,23.43998591632552,23.77619061530866,334.2677598047511,470.52645628047674,0.0
0.07,8.395997401416553,-1.0747195592463576,10.0,0.0,23.578279041856877,23.89942370363377,322.7417355360636,470.52645628047674,0.0
0.07100000000000001,8.726669482066718,-0.8579631993863083,10.0,0.0,23.694022264374595,23.99133556844291,337.9106389559309,470.52645628047674,0.0
0.07200000000000001,8.91385728821635,-0.8925675486457335,10.0,0.0,23.81335639313859,24.06834663115294,344.8606079910171,470.52645628047674,0.0
0.073,8.941721008651788,-1.1508071676799903,10.0,0.0,23.95651852989837,24.148396869281978,362.43451347602996,470.52645628047674,0.0
0.074,8.927907180207171,-1.4305443375681337,10.0,0.0,24.121558169292424,24.236556455607346,368.59250641149885,470.52645628047674,0.0
0.075,8.859340450140312,-1.7499202918046703,10.0,0.0,24.31124378664675,24.33980824926249,387.10067316750514,470.52645628047674,0.0
0.076,8.767176841935807,-2.0562826706616475,10.0,0.0,24.52279212376306,24.461155754889383,396.7190369145668,470.52645628047674,0.0
0.077,8.62162972262067,-2.4016532593838043,10.0,0.0,24.76024751870129,24.606611890707832,408.83095327273656,470.52645628047674,0.0
0.078,8.47560200325128,-2.694417929744825,10.0,0.0,25.017253395580042,24.77587553037574,428.2762610097064,470.52645628047674,0.0
0.079,8.289593068490031,-3.001970310780605,10.0,0.0,25.296388163948027,24.972914099394785,438.0404594767293,470.52645628047674,0.0
0.08,8.078425759776728,-3.30171273584331,10.0,0.0,25.597209455327665,25.19953060295957,447.87571303424875,470.52645628047674,0.0
0.081,7.882675762310951,-3.525181384717318,10.0,0.0,25.912194395051316,25.45298841193994,460.26934286159303,470.52645628047674,0.0
0.082,7.687097883672571,-3.703693402600396,10.0,0.0,26.238428257179056,25.732155000670204,470.03446400235384,470.52645628047674,0.0
0.083,7.512516260295773,-3.813976142857688,6.88615483071478,0.0,26.57030137321651,25.6907535479039,474.7692751416533,470.52645628047674,0.0
0.084,7.203181060740792,-3.7791930438456776,4.476321072453295,0.0,26.859918064079693,25.48501734601935,469.9348947098631,470.52645628047674,0.0
0.085,6.832924311823753,-3.5662302319939925,6.899426904054522,0.0,27.07692138735455,25.65709130285365,464.49049118158763,470.52645628047674,0.0
0.08600000000000001,6.684327477503137,-3.331925723111682,9.68198831918115,0.0,27.265787906126803,26.128151977966013,465.3565001036639,470.52645628047674,0.0
0.08700000000000001,6.8106345556072405,-3.120204668628896,9.30068341991114,0.0,27.461927569628777,26.485844337438724,466.56583646331353,470.52645628047674,0.0
0.088,7.001003942469067,-2.8980348763725887,8.73562143825796,0.0,27.651901036124467,26.749360096551484,450.2392288126387,470.52645628047674,0.0
0.089,7.234058864720069,-2.605356209246276,10.0,0.0,27.819255776420533,27.12652154043168,441.0445924474914,470.52645628047674,0.0
0.09,7.6191548959159885,-2.253174415725628,10.0,0.0,27.97177797645901,27.430028514127006,437.59209529412686,470.52645628047674,0.0
0.091,8.00600662911948,-1.963952299976035,10.0,0.0,28.111106039065916,27.679734280116218,418.80694194059305,470.52645628047674,0.0
0.092,8.471665822022604,-1.5928486469968295,10.0,0.0,28.22354269134084,27.871048281879897,412.4956856996792,470.52645628047674,0.0
0.093,8.922085773921097,-1.2801136421944714,10.0,0.0,28.313177264566175,28.009584945914895,398.42713443866023,470.52645628047674,0.0
0.094,9.426630004330296,-0.9098610138890977,10.0,0.0,28.370101607806905,28.092235735042905,391.0641311696137,470.52645628047674,0.0
0.095,9.89012497360379,-0.6301393943137312,10.0,0.0,28.40253174376612,28.126374875266194,404.8996302312322,470.52645628047674,0.0
0.096,10.018296982259692,-0.8867572358622642,10.0,0.0,28.46615795891784,28.15087914380365,421.4092552477124,470.52645628047674,0.0
0.097,10.036942009501745,-1.2407581421250624,10.0,0.0,28.562245900681557,28.178526374092478,434.76448826056736,470.52645628047674,0.0
0.098,9.93725586921222,-1.6994644281505926,10.0,0.0,28.698407453697964,28.224169601233058,450.88840301754897,470.52645628047674,0.0
0.099,9.80277926932688,-2.1207732078115056,10.0,0.0,28.867274077029226,28.29266022554571,471.46477039099165,470.52645628047674,0.0
0.1,9.583258982674064,-2.5915967447089017,6.829821813266427,0.0,29.073680601720753,28.04527131475249,480.8671801526514,470.52645628047674,0.0
0.101,9.171530211978482,-2.9279566433603907,2.0252096937148165,0.0,29.266998936346475,27.389551358134398,491.55065279321116,470.52645628047674,0.0
0.10200000000000001,8.466839976993848,-3.0997556066559158,-3.52676859169242,0.0,29.39094772882381,26.329462378582743,495.6199230936958,470.52645628047674,0.0
0.10300000000000001,7.483546639989859,-3.0584934778804698,-5.8123384100669195,0.0,29.390235920300004,25.292999643787468,495.48579103588384,470.52645628047674,0.0
0.10400000000000001,6.4614506127883375,-2.8902945516727145,-5.994865728715021,0.0,29.26785975855394,24.46548732437392,492.2058353445556,470.52645628047674,0.0
0.105,5.5862408373347705,-2.6716112770652507,-4.571681673691704,0.0,29.052596810096393,23.95291625499404,486.06585639060324,470.52645628047674,0.0
0.106,4.968731035519142,-2.468749696535539,-1.6570861978167795,0.0,28.78747510843441,23.8356236399476,478.4616037793827,470.52645628047674,0.0
0.107,4.687589551174968,-2.3136384298560633,2.0656886328044326,0.0,28.52210269190454,24.10865785810887,470.76208799129324,470.52645628047674,0.0
0.108,4.750510286036786,-2.2280868844168484,5.913090209740996,0.0,28.302711381512264,24.70410514227961,463.0397972689711,470.52645628047674,0.0
0.109,5.125695749329439,-2.1881976528127525,9.84910216101713,0.0,28.16127163055424,25.571914672251484,463.0193677673799,470.52645628047674,0.0
0.11,5.760971452604612,-2.1889248681309876,9.934387796943698,0.0,28.121235693690235,26.24269210184218,460.15184751790076,470.52645628047674,0.0
0.111,6.385145404697466,-2.162235358694555,10.0,0.0,28.149337975280524,26.786446303066867,442.22020703424954,470.52645628047674,0.0
0.112,7.01131920946992,-2.0035732728280835,10.0,0.0,28.211819514483302,27.215341811293527,438.85013105638745,470.52645628047674,0.0
0.113,7.61106180129444,-1.7627082574839457,10.0,0.0,28.286033919759284,27.547885975564814,422.25869895425035,470.52645628047674,0.0
0.114,8.158187613871906,-1.5202324044134063,10.0,0.0,28.361817607250458,27.80041075047128,415.2733213590185,470.52645628047674,0.0
0.115,8.725128739864516,-1.1951147273186584,10.0,0.0,28.421937217533465,27.978369150902836,397.1968022523997,470.52645628047674,0.0
0.116,9.25085586794522,-0.9071835490296283,10.0,0.0,28.46541945399047,28.09238309949056,392.1656030748171,470.52645628047674,0.0
0.117,9.77229237669263,-0.6138367436754999,10.0,0.0,28.486566024854486,28.147243132183824,408.3101325794248,470.52645628047674,0.0
0.11800000000000001,9.988601366730096,-0.790329552262385,10.0,0.0,28.533431618899534,28.180152194877508,417.6373967498233,470.52645628047674,0.0
0.11900000000000001,10.013816428391301,-1.1821892741709368,10.0,0.0,28.620241201133517,28.213846343823963,437.7457136915114,470.52645628047674,0.0
0.12,9.948439290879593,-1.6219075252442723,10.0,0.0,28.746189650437714,28.260295671842066,448.86908608239065,470.52645628047674,0.0
0.121,9.81671815697905,-2.0682171562209097,10.0,0.0,28.90888506451002,28.32853046534274,470.64568734093,470.52645628047674,0.0
0.122,9.631019442498184,-2.5036970203403692,6.790759732115818,0.0,29.105574105268506,28.072304538687195,481.86386704052944,470.52645628047674,0.0
0.123,9.20268732416791,-2.8822460021527787,1.0682957747155761,0.0,29.29425723864378,27.30925102200939,489.2921427800774,470.52645628047674,0.0
0.124,8.458115344027146,-3.0266033080392107,-2.833498960054423,0.0,29.399860520843127,26.34701798571838,494.7907354523904,470.52645628047674,0.0
0.125,7.510352678887213,-3.0130242850848026,-5.825438087930036,0.0,29.395742905609584,25.298281397921766,494.9109802341244,470.52645628047674,0.0
0.126,6.493077761445758,-2.864369301828829,-6.12940571833352,0.0,29.27094713519113,24.452912273583003,491.8622422387575,470.52645628047674,0.0
0.127,5.609710877904705,-2.6566119021861336,-4.818394580232889,0.0,29.052727265252507,23.91384899414648,485.97866367804244,470.52645628047674,0.0
0.128,4.974168558142119,-2.4591065180634986,-2.0311273738510067,0.0,28.78277503610702,23.76143532331921,478.5621880188438,470.52645628047674,0.0
0.129,4.665145192654656,-2.308013296736379,1.5967531383646358,0.0,28.509931462288602,23.996099127946017,470.97512307028137,470.52645628047674,0.0
0.13,4.697172134401854,-2.2217095971484584,5.385798944747811,0.0,28.279856151573313,24.553915231061232,462.9509164394754,470.52645628047674,0.0
0.131,5.0383470774374075,-2.1839069184482924,9.473657658560807,0.0,28.12527472457993,25.40750721893255,462.00050665954313,470.52645628047674,0.0
0.132,5.656356066777836,-2.182303191525791,10.0,0.0,28.071712255898547,26.112731696340497,461.7869711625582,470.52645628047674,0.0
0.133,6.289976689766123,-2.165098645003983,10.0,0.0,28.092152018977917,26.6732958770898,443.57940568528323,470.52645628047674,0.0
0.134,6.913097021669622,-2.0336163336077515,10.0,0.0,28.152313215035914,27.117640585792614,438.1972577536774,470.52645628047674,0.0
0.135,7.521715961007902,-1.7949610802787908,10.0,0.0,28.225955507606173,27.46285006322277,424.8085264052671,470.52645628047674,0.0
0.136,8.065011445615054,-1.568127918615644,10.0,0.0,28.304189423412776,27.727226508253537,414.8573398325675,470.52645628047674,0.0
0.137,8.638064881856716,-1.2379434230341753,10.0,0.0,28.366985629244454,27.91538577722137,398.69888934959505,470.52645628047674,0.0
0.138,9.157486175156775,-0.9617728988208852,10.0,0.0,28.4152412286821,28.039602931975008,393.4526965556936,470.52645628047674,0.0
0.139,9.690942673762581,-0.6484453835992143,10.0,0.0,28.439388662219088,28.102737929283393,401.5453112950216,470.52645628047674,0.0
0.14,9.964955213385696,-0.7402695520457248,10.0,0.0,28.480668785814558,28.137167355842166,415.67345221215385,470.52645628047674,0.0
0.14100000000000001,9.999815016867904,-1.1300615719589477,10.0,0.0,28.563222720212348,28.171187399117795,432.0383333875996,470.52645628047674,0.0
0.14200000000000002,9.964921251086642,-1.5328582730852585,10.0,0.0,28.68133298242268,28.2142477437764,447.78869228216024,470.52645628047674,0.0
0.14300000000000002,9.824307892123958,-2.009947217081508,10.0,0.0,28.840390069706178,28.279931612018267,462.16103513714296,470.52645628047674,0.0
0.14400000000000002,9.651201998556322,-2.4409900016145087,10.0,0.0,29.03275365194415,28.372588316867102,485.27076262342433,470.52645628047674,0.0
0.145,9.4129860622236,-2.8839897919187494,-0.9304542662061737,0.0,29.259566095531362,27.2973384342331,488.0847045949804,470.52645628047674,0.0
0.146,8.559970852108897,-3.0097983704388143,-2.513007735129241,0.0,29.36558125223062,26.37896795905102,492.3057373287258,470.52645628047674,0.0
