timestamp,iq,id,iq_ref,id_ref,vq,vd,omega,omega_ref,r
0.0,0.0,0.0,0.0,0.0,0.0,0.0,0.0,176.65049217596683,0.0
0.001,0.0,0.0,10.0,0.0,0.0,1.0999999999999999,6.115472199294103,176.65049217596683,0.0
0.002,0.5307369851907212,-0.2913212625381807,10.0,0.0,0.14204533887919985,1.9316189316290207,13.317801563642547,176.65049217596683,0.0
0.003,1.0842913387634832,-0.6024330830807904,10.0,0.0,0.384357124667687,2.6386968949419622,20.697939467553027,176.65049217596683,0.0
0.004,1.5590443546685477,-0.8700465084428163,10.0,0.0,0.6994718867930164,3.2526109522886295,28.232747544420146,176.65049217596683,0.0
0.005,1.9399447555359186,-1.0838738622210777,10.0,0.0,1.065311453102468,3.7994935661768023,35.92944872443006,176.65049217596683,0.0
0.006,2.239750732602683,-1.2510087368845633,10.0,0.0,1.4655018868449925,4.299102221838433,43.75633668444442,176.65049217596683,0.0
0.007,2.4770151619816017,-1.382020589851471,10.0,0.0,1.8883740978591532,4.765668027847139,51.58766747378032,176.65049217596683,0.0
0.008,2.6680767290418097,-1.4872241871505252,10.0,0.0,2.325877945545995,5.209220346273558,59.45942083902103,176.65049217596683,0.0
0.009000000000000001,2.8266491704841292,-1.5730794701170803,10.0,0.0,2.772378685460125,5.636635464737965,67.35059094018146,176.65049217596683,0.0
0.01,2.962077666392183,-1.645500646948331,10.0,0.0,3.224078639851053,6.052647735211881,75.20908322432116,176.65049217596683,0.0
0.011,3.0811061533574158,-1.7084279320504514,10.0,0.0,3.678407615443203,6.460489925470405,83.0265951655913,176.65049217596683,0.0
0.012,3.188848746459569,-1.7638278597420747,10.0,0.0,4.133552631697047,6.862319393890706,90.74118064793086,176.65049217596683,0.0
0.013000000000000001,3.288205119878689,-1.8140726097274587,10.0,0.0,4.588339016389012,7.259628641949282,98.35820682563939,176.65049217596683,0.0
0.014,3.3820602099432007,-1.8592355758795645,10.0,0.0,5.041843166194517,7.653355107498287,105.90865295623543,176.65049217596683,0.0
0.015,3.4721069852858886,-1.899829032412081,10.0,0.0,5.493383198131427,8.044092747085895,113.37727610343421,176.65049217596683,0.0
0.016,3.5596145800153947,-1.9360338400176071,10.0,0.0,5.94241958510469,8.43218525824161,120.68508583176356,176.65049217596683,0.0
0.017,3.645144415105338,-1.9685384477868613,10.0,0.0,6.388575043274759,8.817838951066484,127.83962377537456,176.65049217596683,0.0
0.018000000000000002,3.730251927866576,-1.9959253041084188,10.0,0.0,6.83136783302799,9.201036292373047,134.85405702603322,176.65049217596683,0.0
0.019,3.81544967906247,-2.018253592643655,10.0,0.0,7.270383321112213,9.581672501020332,141.68976328564074,176.65049217596683,0.0
0.02,3.9014648862453374,-2.0350875541282063,10.0,0.0,7.705189334130692,9.959536942333155,148.3432823300447,176.65049217596683,0.0
0.021,3.9891051824829464,-2.0457889559126508,10.0,0.0,8.135310004560049,10.334315260302239,154.92060212100432,176.65049217596683,0.0
0.022,4.079618141396171,-2.0489696811670974,10.0,0.0,8.560139305503519,10.705547790999272,161.01925282597162,176.65049217596683,0.0
0.023,4.171109372430197,-2.048468292080302,10.0,0.0,8.979521969370257,11.072981092896333,166.534238406907,176.65049217596683,0.0
0.024,4.266936196769627,-2.039517194249811,8.548125193080946,0.0,9.392730090169543,11.276277063862278,171.1125794956683,176.65049217596683,0.0
0.025,4.293542988752661,-1.978667911289072,6.314333775503278,0.0,9.778343085838115,11.267397463072456,175.53615635864296,176.65049217596683,0.0
0.026000000000000002,4.203606933161791,-1.8487950079097077,4.113688702189196,0.0,10.110829295318725,11.088393112074531,171.9499815080059,176.65049217596683,0.0
0.027,4.001943910161973,-1.6685459024138047,5.953781234187338,0.0,10.373637776180729,11.206238018351465,173.77133776938996,176.65049217596683,0.0
0.028,3.9466799351142843,-1.5170511688807617,5.0718946475610736,0.0,10.607087969950546,11.227233239263285,177.29445238504914,176.65049217596683,0.0
0.029,3.882193469761967,-1.4017665102515986,3.303897737640659,0.0,10.80812630132069,11.090354034674201,171.6935298759012,176.65049217596683,0.0
0.03,3.767355557078323,-1.2398177557297274,6.15392861521529,0.0,10.958711362683793,11.33043725505513,176.24159965609633,176.65049217596683,0.0
0.031,3.832223603645372,-1.1608241843135574,3.883982650316428,0.0,11.111176434638121,11.275092430370442,172.11048378925037,176.65049217596683,0.0
0.032,3.8072900747888045,-1.0663641902635,5.994940667606572,0.0,11.233259853297204,11.498824805540455,174.87754929121274,176.65049217596683,0.0
0.033,3.9202074561329088,-0.9982509704401297,4.629137345472925,0.0,11.358960313367309,11.528374092215351,171.63316535171802,176.65049217596683,0.0
0.034,3.9635150878491796,-0.9384738129327084,6.301502583462775,0.0,11.469151300970308,11.761522039954645,174.24007345884655,176.65049217596683,0.0
0.035,4.114768314774808,-0.8879315227187066,5.022152717069712,0.0,11.586676104238471,11.808717375352515,169.78629381544923,176.65049217596683,0.0
0.036000000000000004,4.192999181492634,-0.8330758315310691,7.3176845223735505,0.0,11.691639257591103,12.12115479171506,173.9441246693396,176.65049217596683,0.0
0.037,4.394174698973559,-0.8184540811695298,5.265832770494636,0.0,11.816290001616837,12.14283877276117,169.34831291339893,176.65049217596683,0.0
0.038,4.496156992817126,-0.7461345038343405,7.636760441090652,0.0,11.922835133341355,12.44693369424162,171.43589965032433,176.65049217596683,0.0
0.039,4.692668727492387,-0.7475533861238604,6.645112997884375,0.0,12.05001451686666,12.577886673411973,172.0338468218602,176.65049217596683,0.0
0.04,4.860303410965244,-0.6919444039544136,6.3923058656575025,0.0,12.171440083094943,12.674095285069672,166.46541624856178,176.65049217596683,0.0
0.041,4.986876564220952,-0.6378524188771759,9.278371911580766,0.0,12.284949925329357,13.080574228534854,175.74598438405104,176.65049217596683,0.0
0.042,5.204950804149478,-0.7448364775443186,4.647132921755294,0.0,12.440065843991011,12.896736877677345,178.39899609330752,176.65049217596683,0.0
0.043000000000000003,5.165570616060951,-0.7433866910363975,3.3031420279536503,0.0,12.560057118598202,12.651780808440853,177.79346219509102,176.65049217596683,0.0
0.044,4.986736011110834,-0.7325244164418154,3.594479276870654,0.0,12.642373306480701,12.508084484571242,183.68975689007692,176.65049217596683,0.0
0.045,4.824074108120064,-0.7331931622006116,0.5759392822366047,0.0,12.702270427967404,12.068141103257407,181.36296005531315,176.65049217596683,0.0
0.046,4.528990197722977,-0.6639757522697305,1.692213020825026,0.0,12.70456289662407,11.861989894528467,183.83929058445312,176.65049217596683,0.0
0.047,4.299235173361864,-0.6593580687765246,0.38215977217017727,0.0,12.686195226457226,11.543736672375918,183.6419447097216,176.65049217596683,0.0
0.048,4.058234890281725,-0.6248652082011497,0.4109181841983922,0.0,12.634090963263462,11.295948444126802,184.46106314772783,176.65049217596683,0.0
0.049,3.838592293570718,-0.628853196727339,-0.07674674452233221,0.0,12.56320191090779,11.035548568911064,184.31187018766403,176.65049217596683,0.0
0.05,3.6356404312367907,-0.6244157769574863,-0.07876404460740405,0.0,12.472833780206168,10.818882801148805,184.95795153497582,176.65049217596683,0.0
0.051000000000000004,3.455358302304184,-0.6434923083174264,-0.48487931185339006,0.0,12.371978678445773,10.58799580625565,184.67460991370075,176.65049217596683,0.0
0.052000000000000005,3.283637324835147,-0.6566584457093116,-0.42344967859319427,0.0,12.259377897171612,10.398016899239122,184.83862498510945,176.65049217596683,0.0
0.053,3.1336288077855485,-0.6829583158060597,-0.5873385423889692,0.0,12.141800627659933,10.211917460547454,184.62327263661797,176.65049217596683,0.0
0.054,2.995522202351799,-0.7099882473092693,-0.5593901727497417,0.0,12.020081434994646,10.05107508949928,184.4673203549981,176.65049217596683,0.0
0.055,2.8739999157965723,-0.742030503240469,-0.5595823137301168,0.0,11.897704273328468,9.905830802551897,184.22943606431386,176.65049217596683,0.0
0.056,2.7660610995392814,-0.7762992010495232,-0.5164296072714696,0.0,11.776489533333855,9.778279994175637,184.0168904445814,176.65049217596683,0.0
0.057,2.671242594546552,-0.81208152001663,-0.48382078009138896,0.0,11.658234554609365,9.66386888394939,183.76360247166664,176.65049217596683,0.0
0.058,2.586665615352426,-0.8479725949194052,-0.4283078965910061,0.0,11.543954157784334,9.563208998447989,183.4634114198308,176.65049217596683,0.0
0.059000000000000004,2.5116509228387254,-0.8831218151624646,-0.34634156311172637,0.0,11.43454331556938,9.477054076046507,183.14371812710314,176.65049217596683,0.0
0.06,2.4462108917552374,-0.9173165712116109,-0.2514271762592579,0.0,11.330867996298743,9.404642737376705,182.82039521462303,176.65049217596683,0.0
0.061,2.3899636069221932,-0.9500556786129395,-0.1514647504057658,0.0,11.233578429341843,9.344684524642977,182.52228298993776,176.65049217596683,0.0
0.062,2.3421847762017363,-0.9806294335946047,-0.061126546202840526,0.0,11.143057719781241,9.294623953221643,182.30603928816166,176.65049217596683,0.0
0.063,2.3019553529744328,-1.0071432712651363,-0.009560166436735074,0.0,11.059193808628494,9.24923373596642,182.14513787935084,176.65049217596683,0.0
0.064,2.265348949711349,-1.0298157621587791,0.015944080934832794,0.0,10.9814061024871,9.20591036286132,181.73080406031218,176.65049217596683,0.0
0.065,2.230165680622613,-1.0479379959924282,0.17230787161070937,0.0,10.908831550462104,9.179589626520356,181.14158129483687,176.65049217596683,0.0
0.066,2.203480573899052,-1.0647732868714104,0.42200836315966583,0.0,10.842553039663859,9.177130453823317,180.56175097235229,176.65049217596683,0.0
0.067,2.190661816010875,-1.0837570846308633,0.6728109364381023,0.0,10.784576327520487,9.19452383776176,179.74947773363783,176.65049217596683,0.0
0.068,2.193137947768198,-1.1016466861084615,1.0479577002186193,0.0,10.735914643170233,9.242737768302907,179.29038648553026,176.65049217596683,0.0
0.069,2.216007513363582,-1.120736074004823,1.25110438117677,0.0,10.698861456962947,9.297367913724585,178.9856121185649,176.65049217596683,0.0
0.07,2.2471054177280845,-1.1383614017919346,1.3801403652334772,0.0,10.672724496096178,9.351800143595888,179.75003688081787,176.65049217596683,0.0
0.07100000000000001,2.2821802923764065,-1.146799176736986,0.9669325370584736,0.0,10.655396356269295,9.347884976285885,180.90751346667875,176.65049217596683,0.0
0.07200000000000001,2.281366659329913,-1.1479542597490058,0.345624031220916,0.0,10.63945219507597,9.278856902745417,178.0418777931618,176.65049217596683,0.0
0.073,2.244283326114713,-1.1167833340075606,1.7645280118074402,0.0,10.61475928998626,9.381500773685763,176.0904040240373,176.65049217596683,0.0
0.074,2.2847950211789083,-1.109413537976224,2.745865777888988,0.0,10.602301094193518,9.560341961696995,177.8779981916619,176.65049217596683,0.0
0.075,2.3879636005824643,-1.127095323895718,1.8397936339197352,0.0,10.610991531192631,9.599628471046646,179.4437765222595,176.65049217596683,0.0
0.076,2.434628910133551,-1.1281232808382249,1.028971625158011,0.0,10.622677832831284,9.55162417538056,175.93780163690852,176.65049217596683,0.0
0.077,2.4253689297897587,-1.0906976083077926,2.789085973224084,0.0,10.624267971191683,9.712794988753163,173.87095778447429,176.65049217596683,0.0
0.078,2.5102064937102577,-1.075910656937386,3.8503032433561253,0.0,10.640563869127863,9.947715759023719,177.44938509703948,176.65049217596683,0.0
0.079,2.6534256638829636,-1.0991795939220492,2.0531006578628004,0.0,10.6814297068795,9.937563851875456,176.84333753145214,176.65049217596683,0.0
0.08,2.6884336235188053,-1.0829877731553055,2.3541959871016207,0.0,10.715179980486962,9.98118754743017,172.04828354902622,176.65049217596683,0.0
0.081,2.731009351613985,-1.0378752012021868,4.797745064583983,0.0,10.745117131581967,10.285270095526721,175.71724971472514,176.65049217596683,0.0
0.082,2.903117361806988,-1.0479075434319995,2.9725944063469405,0.0,10.804023505741943,10.31822991690194,175.9096253609576,176.65049217596683,0.0
0.083,2.9691564583639267,-1.0349790963701486,2.8838152513808084,0.0,10.858812772024338,10.3567269725724,170.83590179243055,176.65049217596683,0.0
0.084,3.024839126674117,-0.978984937892956,5.478822939479693,0.0,10.905942744283667,10.67772718399604,175.47953668974804,176.65049217596683,0.0
0.085,3.2100501132064085,-0.9876570083320693,3.1687150456831317,0.0,10.981973609792503,10.671462044469187,172.0925115318809,176.65049217596683,0.0
0.08600000000000001,3.26682398961981,-0.9564840615205746,4.90780743105757,0.0,11.046259129944115,10.883434730234903,172.5414775603051,176.65049217596683,0.0
0.08700000000000001,3.4141263899608862,-0.9215851992156849,4.7244145630020755,0.0,11.121786221271714,11.027439034825976,173.26494169613395,176.65049217596683,0.0
0.088,3.5313925902149257,-0.9151871588715088,4.396537999885988,0.0,11.203806238110849,11.118936866803958,169.52417856796794,176.65049217596683,0.0
0.089,3.6426745564232834,-0.8571806491762219,6.33818270004898,0.0,11.280457300800826,11.41527824563676,173.10406397687046,176.65049217596683,0.0
0.09,3.828719267719866,-0.8726854293710672,4.583704277588681,0.0,11.381362986023474,11.457889420802477,168.82819133641502,176.65049217596683,0.0
0.091,3.9372277974815155,-0.8144048215147113,6.799863606211923,0.0,11.469873305574286,11.757576866186238,172.05735600337837,176.65049217596683,0.0
0.092,4.129532086283745,-0.822815806066955,5.231212634456129,0.0,11.581009352087698,11.821365012336699,168.61437349891824,176.65049217596683,0.0
0.093,4.255999446773542,-0.7601084056686995,7.033065073456681,0.0,11.680428684675485,12.091789859765221,169.81556012419665,176.65049217596683,0.0
0.094,4.4391933483753,-0.764903897242396,6.500821081335177,0.0,11.798103146824435,12.249662136615,170.97197967964058,176.65049217596683,0.0
0.095,4.613215188624147,-0.7198823370719368,5.979396428576473,0.0,11.914797063908983,12.3341698967011,165.35325326451118,176.65049217596683,0.0
0.096,4.732511149142403,-0.6699633906238397,8.90173202525573,0.0,12.023231496786092,12.737185097394834,169.33030569388126,176.65049217596683,0.0
0.097,4.993082719730126,-0.695367058098372,6.986407675391549,0.0,12.16441759933155,12.84336327369558,174.5513403641553,176.65049217596683,0.0
0.098,5.134420041538692,-0.7053278019818439,4.396881858372646,0.0,12.302944554404975,12.674406256554303,173.14053763964205,176.65049217596683,0.0
0.099,5.061763134688917,-0.7023935780540905,5.137382765992517,0.0,12.410300740186035,12.652953627614423,177.99462532607873,176.65049217596683,0.0
0.1,4.984873625718721,-0.7450083753886447,2.6968975912730553,0.0,12.509493014441086,12.376254778769527,179.88652639777115,176.65049217596683,0.0
0.101,4.803209697028409,-0.706898462421909,1.7185867132088042,0.0,12.566477937986454,12.073149834460981,179.4703784037485,176.65049217596683,0.0
0.10200000000000001,4.553846883535159,-0.6834973578274006,1.8984618479423134,0.0,12.585260852370702,11.861236520736513,181.98294337397746,176.65049217596683,0.0
0.10300000000000001,4.351672172243145,-0.6603897063070479,0.5888548508477247,0.0,12.578666313322787,11.54628289890236,181.99660368996604,176.65049217596683,0.0
0.10400000000000001,4.102028261419038,-0.6485193992519769,0.5285635777134456,0.0,12.54016120873539,11.294068298350743,182.8357318480439,176.65049217596683,0.0
0.105,3.8883973996665704,-0.631964946818756,0.047147101953739945,0.0,12.478582867854467,11.031874703477857,183.16561136000087,176.65049217596683,0.0
0.106,3.6748862321314615,-0.6351696448266172,-0.1829438458650805,0.0,12.39746106287955,10.790596714313024,183.12403106681978,176.65049217596683,0.0
0.107,3.483858709328511,-0.6368797501005914,-0.22688908818306786,0.0,12.300479704085692,10.581679192223367,183.52654081284567,176.65049217596683,0.0
0.108,3.3140074130839845,-0.6563267822047291,-0.49690444756479835,0.0,12.194426801440972,10.371466416713348,183.2807417047087,176.65049217596683,0.0
0.109,3.156088215559586,-0.674515986734319,-0.4403073887837352,0.0,12.079764253686937,10.196268057314835,183.34390653328444,176.65049217596683,0.0
0.11,3.019184086722666,-0.7026930437635797,-0.5388239466447797,0.0,11.96196570899638,10.029200749325058,183.13794790784056,176.65049217596683,0.0
0.111,2.894783832276589,-0.7327501040469846,-0.5007191912415747,0.0,11.84226479403678,9.884551993038865,182.97425511239723,176.65049217596683,0.0
0.112,2.7858082168042557,-0.7663800269063087,-0.4821104228842161,0.0,11.72346781585621,9.75480725300811,182.78360700764838,176.65049217596683,0.0
0.113,2.6892058536779126,-0.8015975313256489,-0.4481175188266091,0.0,11.607113687748159,9.639246924714309,182.5541049105205,176.65049217596683,0.0
0.114,2.603269159767468,-0.837202234002287,-0.3924025976081995,0.0,11.494403281871772,9.537882941431413,182.2922435266389,176.65049217596683,0.0
0.115,2.527243077778116,-0.8725089951329692,-0.31788941917413016,0.0,11.386355214952339,9.450527118384462,182.00798519101804,176.65049217596683,0.0
0.116,2.4606707922453355,-0.907007752023235,-0.22933518151420396,0.0,11.283818168066777,9.37666059589722,181.7164950277616,176.65049217596683,0.0
0.117,2.40309262342686,-0.9401910127980653,-0.13425012840393125,0.0,11.187453344737374,9.315168710150385,181.44143711193462,176.65049217596683,0.0
0.11800000000000001,2.3538315259082996,-0.971391275948722,-0.04463061985012029,0.0,11.097676011505055,9.263939765093962,181.26293985620663,176.65049217596683,0.0
0.11900000000000001,2.312245107223869,-0.9987301876881175,-0.0015064687885235628,0.0,11.014448794750152,9.216785337831292,181.11006109681102,176.65049217596683,0.0
0.12,2.2738994463208346,-1.0223811963401355,0.03033722170083708,0.0,10.937157078778798,9.172897354575106,180.80474424655253,176.65049217596683,0.0
0.121,2.2378915252659484,-1.041005626391402,0.14145312612422645,0.0,10.865017913298086,9.141150725336084,180.2627619352776,176.65049217596683,0.0
0.122,2.2075186415389245,-1.0583502861979655,0.3763215841685792,0.0,10.798639669719744,9.133070151812966,179.69479476905119,176.65049217596683,0.0
0.123,2.190890088948672,-1.0762934687034877,0.629862141350948,0.0,10.739891496624473,9.146225999941596,179.00594943001568,176.65049217596683,0.0
0.124,2.1889700461161796,-1.0953499450797861,0.9507302383282141,0.0,10.690250506227926,9.184996450229184,178.39844633655187,176.65049217596683,0.0
0.125,2.2055912441528847,-1.1136792697650009,1.237002243454266,0.0,10.651276320851402,9.24135946383009,177.9804981515675,176.65049217596683,0.0
0.126,2.235336801735608,-1.1328236539575225,1.4326762761904437,0.0,10.62375844438695,9.303744381729238,178.94388746572596,176.65049217596683,0.0
0.127,2.2732064388145927,-1.1457934046356495,0.928047666213621,0.0,10.606466076091525,9.295804928264353,180.135545089619,176.65049217596683,0.0
0.128,2.2713341685668977,-1.1478399694763342,0.2973683251305812,0.0,10.590204423904847,9.223186387995087,177.3775372155618,176.65049217596683,0.0
0.129,2.231313979287954,-1.117497704252372,1.6691018117632312,0.0,10.56494896808687,9.317784511592707,175.47682462061277,176.65049217596683,0.0
0.13,2.2659405685450933,-1.1101293926811326,2.6311947847912855,0.0,10.551171778589854,9.488301042704451,177.06498849307422,176.65049217596683,0.0
0.131,2.3629526054983216,-1.1262784739410392,1.8329678853894862,0.0,10.557674043208015,9.532637254918559,178.8138522156021,176.65049217596683,0.0
0.132,2.4097862018626834,-1.128916366469805,0.9369024237291903,0.0,10.568088379951337,9.478423565353907,175.48233184451928,176.65049217596683,0.0
0.133,2.396059143471887,-1.09328077893512,2.614344212585082,0.0,10.568093620509762,9.626130242197435,173.02804293918916,176.65049217596683,0.0
0.134,2.471598147947896,-1.0781562895183292,3.877713157617917,0.0,10.581561666736192,9.872816380401236,176.53992823604847,176.65049217596683,0.0
0.135,2.6173331439034335,-1.1047953280220808,2.1228761485874483,0.0,10.621433061289942,9.875239489453275,176.81171754943026,176.65049217596683,0.0
0.136,2.6595847235040773,-1.092072310207607,1.9853692381619203,0.0,10.655893704948893,9.880639713202463,172.25126166986178,176.65049217596683,0.0
0.137,2.6835695484368713,-1.0420306741001726,4.30958948300721,0.0,10.682070956823193,10.143769460033266,174.40552983378097,176.65049217596683,0.0
