timestamp,iq,id,iq_ref,id_ref,vq,vd,omega,omega_ref,r
0.0,0.0,0.0,0.0,0.0,0.0,0.0,0.0,462.9692104274556,0.0
0.001,0.0,0.0,10.0,0.0,0.0,1.0999999999999999,6.115472199294103,462.9692104274556,0.0
0.002,0.5307369851907212,-0.2913212625381807,10.0,0.0,0.14204533887919985,1.9316189316290207,13.317801563642547,462.9692104274556,0.0
0.003,1.0842913387634832,-0.6024330830807904,10.0,0.0,0.384357124667687,2.6386968949419622,20.697939467553027,462.9692104274556,0.0
0.004,1.5590443546685477,-0.8700465084428163,10.0,0.0,0.6994718867930164,3.2526109522886295,28.232747544420146,462.9692104274556,0.0
0.005,1.9399447555359186,-1.0838738622210777,10.0,0.0,1.065311453102468,3.7994935661768023,35.92944872443006,462.9692104274556,0.0
0.006,2.239750732602683,-1.2510087368845633,10.0,0.0,1.4655018868449925,4.299102221838433,43.75633668444442,462.9692104274556,0.0
0.007,2.4770151619816017,-1.382020589851471,10.0,0.0,1.8883740978591532,4.765668027847139,51.58766747378032,462.9692104274556,0.0
0.008,2.6680767290418097,-1.4872241871505252,10.0,0.0,2.325877945545995,5.209220346273558,59.45942083902103,462.9692104274556,0.0
0.009000000000000001,2.8266491704841292,-1.5730794701170803,10.0,0.0,2.772378685460125,5.636635464737965,67.35059094018146,462.9692104274556,0.0
0.01,2.962077666392183,-1.645500646948331,10.0,0.0,3.224078639851053,6.052647735211881,75.20908322432116,462.9692104274556,0.0
0.011,3.0811061533574158,-1.7084279320504514,10.0,0.0,3.678407615443203,6.460489925470405,83.0265951655913,462.9692104274556,0.0
0.012,3.188848746459569,-1.7638278597420747,10.0,0.0,4.133552631697047,6.862319393890706,90.74118064793086,462.9692104274556,0.0
0.013000000000000001,3.288205119878689,-1.8140726097274587,10.0,0.0,4.588339016389012,7.259628641949282,98.35820682563939,462.9692104274556,0.0
0.014,3.3820602099432007,-1.8592355758795645,10.0,0.0,5.041843166194517,7.653355107498287,105.90865295623543,462.9692104274556,0.0
0.015,3.4721069852858886,-1.899829032412081,10.0,0.0,5.493383198131427,8.044092747085895,113.37727610343421,462.9692104274556,0.0
0.016,3.5596145800153947,-1.9360338400176071,10.0,0.0,5.94241958510469,8.43218525824161,120.68508583176356,462.9692104274556,0.0
0.017,3.645144415105338,-1.9685384477868613,10.0,0.0,6.388575043274759,8.817838951066484,127.83962377537456,462.9692104274556,0.0
0.018000000000000002,3.730251927866576,-1.9959253041084188,10.0,0.0,6.83136783302799,9.201036292373047,134.85405702603322,462.9692104274556,0.0
0.019,3.81544967906247,-2.018253592643655,10.0,0.0,7.270383321112213,9.581672501020332,141.68976328564074,462.9692104274556,0.0
0.02,3.9014648862453374,-2.0350875541282063,10.0,0.0,7.705189334130692,9.959536942333155,148.3432823300447,462.9692104274556,0.0
0.021,3.9891051824829464,-2.0457889559126508,10.0,0.0,8.135310004560049,10.334315260302239,154.92060212100432,462.9692104274556,0.0
0.022,4.079618141396171,-2.0489696811670974,10.0,0.0,8.560139305503519,10.705547790999272,161.01925282597162,462.9692104274556,0.0
0.023,4.171109372430197,-2.048468292080302,10.0,0.0,8.979521969370257,11.072981092896333,166.534238406907,462.9692104274556,0.0
0.024,4.266936196769627,-2.039517194249811,10.0,0.0,9.392730090169543,11.435983292623375,171.8647834235234,462.9692104274556,0.0
0.025,4.367255527950721,-2.0225841458509217,10.0,0.0,9.79914449451603,11.793929226271104,177.02637022703064,462.9692104274556,0.0
0.026000000000000002,4.4734353073349595,-1.9962166741499119,10.0,0.0,10.197980960389518,12.146045424568259,181.63161391243256,462.9692104274556,0.0
0.027,4.582366840795821,-1.966358349113627,10.0,0.0,10.589124658468391,12.491912978736195,185.74793639675826,462.9692104274556,0.0
0.028,4.700058850757774,-1.9240450691803936,10.0,0.0,10.971384864613876,12.830451341534015,189.43662766964098,462.9692104274556,0.0
0.029,4.820934284790598,-1.879137197786803,10.0,0.0,11.344756153370636,13.161242511022618,192.73598774770625,462.9692104274556,0.0
0.03,4.952016225740939,-1.821000614527957,10.0,0.0,11.707923484756042,13.483081433273819,195.59831968863915,462.9692104274556,0.0
0.031,5.086039273572549,-1.7621311371320891,10.0,0.0,12.061063698547066,13.79562148058647,197.80891551030922,462.9692104274556,0.0
0.032,5.230431844273564,-1.6911110488141978,10.0,0.0,12.40292038074925,14.097678592248165,200.4421589734679,462.9692104274556,0.0
0.033,5.380124186618445,-1.6166151787533525,10.0,0.0,12.733312761073865,14.38869342901298,201.91742172589852,462.9692104274556,0.0
0.034,5.537594793894332,-1.535029134414507,10.0,0.0,13.051537880865839,14.667821176756876,203.18880493813168,462.9692104274556,0.0
0.035,5.698947813469154,-1.4530296333491768,10.0,0.0,13.357649178779205,14.934684535625108,203.60405746232266,462.9692104274556,0.0
0.036000000000000004,5.870474243492053,-1.3603000477825025,10.0,0.0,13.65045542338638,15.188218311291084,204.28541056101804,462.9692104274556,0.0
0.037,6.041188711220851,-1.275010780747051,10.0,0.0,13.930879897581198,15.42861600670124,205.2233356988433,462.9692104274556,0.0
0.038,6.228175208801664,-1.168399557236846,10.0,0.0,14.196427351981786,15.654155009933262,200.35169734043586,462.9692104274556,0.0
0.039,6.404895489618571,-1.0845312562500289,10.0,0.0,14.449814560392067,15.86612549236809,209.64773540576442,462.9692104274556,0.0
0.04,6.534612624563911,-1.0851225869390002,10.0,0.0,14.699963825590459,16.069735965364643,218.170241886545,462.9692104274556,0.0
0.041,6.621487035821765,-1.1484636683301073,10.0,0.0,14.952420817214799,16.26974130369247,220.68166573712315,462.9692104274556,0.0
0.042,6.6704785161669795,-1.2647840534085386,10.0,0.0,15.211794475054209,16.47047148862455,233.10654395573727,462.9692104274556,0.0
0.043000000000000003,6.709376245503157,-1.3867642159960276,10.0,0.0,15.477558399636717,16.673277185423842,235.10815372853793,462.9692104274556,0.0
0.044,6.744196093263161,-1.5028656568708394,10.0,0.0,15.74857785831126,16.87893749904121,248.8181267625822,462.9692104274556,0.0
0.045,6.750563942850831,-1.6564343609015326,10.0,0.0,16.02879294551472,17.090781462187255,251.61117095327992,462.9692104274556,0.0
0.046,6.764566527560506,-1.7840489455190416,10.0,0.0,16.314672837580048,17.307985931916857,266.60539535969383,462.9692104274556,0.0
0.047,6.752169677737121,-1.9446655565152717,10.0,0.0,16.610076868775216,17.533561623207692,270.0627790167984,462.9692104274556,0.0
0.048,6.7291903821171735,-2.110358990489937,10.0,0.0,16.91511817760721,17.768523902508925,283.13731951482634,462.9692104274556,0.0
0.049,6.714097190323873,-2.246352557911731,10.0,0.0,17.22645394156277,18.011924542904307,294.70561782835244,462.9692104274556,0.0
0.05,6.666841209228205,-2.4219663531358275,10.0,0.0,17.548953774962747,18.267165921658286,300.1294548425776,462.9692104274556,0.0
0.051000000000000004,6.612335516543512,-2.59336894353628,10.0,0.0,17.88182590988993,18.53465621226123,310.75154600411304,462.9692104274556,0.0
0.052000000000000005,6.568447424188529,-2.726701034625408,10.0,0.0,18.22111236450049,18.81296732052879,322.35703405819294,462.9692104274556,0.0
0.053,6.5036136539679195,-2.8764091099274185,10.0,0.0,18.569435851849082,19.104068797231378,330.9557012510771,462.9692104274556,0.0
0.054,6.434362099984388,-3.0149932598739144,10.0,0.0,18.925784313874168,19.407861808234543,339.4707232587175,462.9692104274556,0.0
0.055,6.370891759459199,-3.1253006473392393,10.0,0.0,19.28762520191878,19.723199586257838,348.00092263299223,462.9692104274556,0.0
0.056,6.314459991163816,-3.2071523724558277,10.0,0.0,19.65271639484943,20.048760466390505,356.29964302226927,462.9692104274556,0.0
0.057,6.266092078485367,-3.262894600420583,10.0,0.0,20.01916768432525,20.383030530514645,362.98468703488817,462.9692104274556,0.0
0.058,6.234656406121481,-3.2830044001420036,10.0,0.0,20.38405550695561,20.723492962007192,368.0316803659419,462.9692104274556,0.0
0.059000000000000004,6.228510489334133,-3.2600491726267444,10.0,0.0,20.743774617448285,21.0667596267365,372.35801287012686,462.9692104274556,0.0
0.06,6.247959954981508,-3.201438289803519,10.0,0.0,21.095630838529225,21.40947063565305,373.88739853789605,462.9692104274556,0.0
0.061,6.298571070969623,-3.1064761741463998,10.0,0.0,21.436712814499675,21.747723437683817,371.47602194372377,462.9692104274556,0.0
0.062,6.38094735961424,-2.982369480030801,10.0,0.0,21.76480975788002,22.077703876517536,366.2922057853833,462.9692104274556,0.0
0.063,6.53566146196873,-2.7695519558602215,10.0,0.0,22.070926190088084,22.39130117743337,372.07145994459506,462.9692104274556,0.0
0.064,6.708566607552835,-2.560747003310555,10.0,0.0,22.35695033962817,22.686677966487718,365.1882535794375,462.9692104274556,0.0
0.065,6.897199383751794,-2.3667028673086685,10.0,0.0,22.62465294768497,22.962098937664592,356.7297130485294,462.9692104274556,0.0
0.066,7.167218997264825,-2.0824440278168583,10.0,0.0,22.863799361069702,23.20893224280502,357.7888817172531,462.9692104274556,0.0
0.067,7.423387055578651,-1.859201647307153,10.0,0.0,23.082000390168847,23.42951856849048,345.1266644280509,462.9692104274556,0.0
0.068,7.736929428236853,-1.5824320316278497,10.0,0.0,23.27222771500701,23.617938384108047,342.9584987314189,462.9692104274556,0.0
0.069,8.04132723792414,-1.3546495884062866,10.0,0.0,23.43998591632552,23.77619061530866,334.2677598047511,462.9692104274556,0.0
0.07,8.395997401416553,-1.0747195592463576,10.0,0.0,23.578279041856877,23.89942370363377,322.7417355360636,462.9692104274556,0.0
0.07100000000000001,8.726669482066718,-0.8579631993863083,10.0,0.0,23.694022264374595,23.99133556844291,337.9106389559309,462.9692104274556,0.0
0.07200000000000001,8.91385728821635,-0.8925675486457335,10.0,0.0,23.81335639313859,24.06834663115294,344.8606079910171,462.9692104274556,0.0
0.073,8.941721008651788,-1.1508071676799903,10.0,0.0,23.95651852989837,24.148396869281978,362.43451347602996,462.9692104274556,0.0
0.074,8.927907180207171,-1.4305443375681337,10.0,0.0,24.121558169292424,24.236556455607346,368.59250641149885,462.9692104274556,0.0
0.075,8.859340450140312,-1.7499202918046703,10.0,0.0,24.31124378664675,24.33980824926249,387.10067316750514,462.9692104274556,0.0
0.076,8.767176841935807,-2.0562826706616475,10.0,0.0,24.52279212376306,24.461155754889383,396.7190369145668,462.9692104274556,0.0
0.077,8.62162972262067,-2.4016532593838043,10.0,0.0,24.76024751870129,24.606611890707832,408.83095327273656,462.9692104274556,0.0
0.078,8.47560200325128,-2.694417929744825,10.0,0.0,25.017253395580042,24.77587553037574,428.2762610097064,462.9692104274556,0.0
0.079,8.289593068490031,-3.001970310780605,10.0,0.0,25.296388163948027,24.972914099394785,438.0404594767293,462.9692104274556,0.0
0.08,8.078425759776728,-3.30171273584331,10.0,0.0,25.597209455327665,25.19953060295957,447.87571303424875,462.9692104274556,0.0
0.081,7.882675762310951,-3.525181384717318,10.0,0.0,25.912194395051316,25.45298841193994,460.26934286159303,462.9692104274556,0.0
0.082,7.687097883672571,-3.703693402600396,8.006456243546232,0.0,26.238428257179052,25.51286518746029,470.70170525265326,462.9692104274556,0.0
0.083,7.404403778626341,-3.767918551720802,2.712950099764143,0.0,26.543306056870463,25.066168006158584,467.96216834894034,462.9692104274556,0.0
0.084,6.8844319703211845,-3.603425513646097,4.032788972405754,0.0,26.754289872783133,24.9471156182477,463.71866522784484,462.9692104274556,0.0
0.085,6.504130992749124,-3.377671688781663,6.147045984949612,0.0,26.90908207795912,25.117070122822454,459.1716045199791,462.9692104274556,0.0
0.08600000000000001,6.369674310061026,-3.1532496112561095,8.458552397957247,0.0,27.0429616227958,25.529618758082698,459.55556631889,462.9692104274556,0.0
0.08700000000000001,6.486251554094358,-2.951333844201682,8.300707939587458,0.0,27.184741563074116,25.85965446607929,460.0199947655084,462.9692104274556,0.0
0.088,6.669692442739111,-2.749638812190924,8.09798587289773,0.0,27.325179784273622,26.13113088924129,443.15764941790434,462.9692104274556,0.0
0.089,6.918819338629871,-2.475341594621604,10.0,0.0,27.450566082056856,26.57518271719365,436.57475770455005,462.9692104274556,0.0
0.09,7.340653796666654,-2.17099960012077,10.0,0.0,27.577084285637604,26.92443732943294,431.3924417059595,462.9692104274556,0.0
0.091,7.760435506312644,-1.924398958154343,10.0,0.0,27.70179347941291,27.20946065732569,414.14034808934196,462.9692104274556,0.0
0.092,8.251772544302767,-1.5824294976282611,10.0,0.0,27.80738345236175,27.42860331472423,407.76094557174434,462.9692104274556,0.0
0.093,8.713249373501563,-1.2980792148419553,10.0,0.0,27.89646985725434,27.590541622845837,394.61633858984146,462.9692104274556,0.0
0.094,9.223026152382097,-0.9469627073439413,10.0,0.0,27.957062139472896,27.69373406325967,379.0880847699122,462.9692104274556,0.0
0.095,9.699609966798025,-0.6589852710053425,10.0,0.0,27.993748084588724,27.745340036057026,403.1365962278248,462.9692104274556,0.0
0.096,9.897968775034084,-0.8208055630056004,10.0,0.0,28.052606038956114,27.77840037532442,410.3496632493941,462.9692104274556,0.0
0.097,9.931571022075712,-1.1687815508647859,10.0,0.0,28.145543387558014,27.812327817009603,427.7645898018081,462.9692104274556,0.0
0.098,9.856564548860856,-1.6072858933319378,10.0,0.0,28.277335463261046,27.860742983910512,441.0525663569762,462.9692104274556,0.0
0.099,9.74145481561543,-2.018132523291205,10.0,0.0,28.441597933954704,27.929407847616478,461.5823353271546,462.9692104274556,0.0
0.1,9.543686572781853,-2.4762416138213417,7.911784163908761,0.0,28.64258417760832,27.798532139430414,471.203901309395,462.9692104274556,0.0
0.101,9.208241353363533,-2.8349329095972267,3.018654263969175,0.0,28.84525917770802,27.218401787503545,482.7721428716623,462.9692104274556,0.0
0.10200000000000001,8.571068603362795,-3.0400956454420944,-2.9634958416065436,0.0,28.98863463059022,26.17418130847132,487.5286294212354,462.9692104274556,0.0
0.10300000000000001,7.619742377769747,-3.0212915792763066,-5.5873333063308825,0.0,29.009130415644304,25.11819395988183,488.22834405843815,462.9692104274556,0.0
0.10400000000000001,6.592754988010049,-2.8715578808126496,-6.189781961242088,0.0,28.905695221164688,24.233279297881353,485.71661288844007,462.9692104274556,0.0
0.105,5.679417081625438,-2.661634171834508,-5.1613904008528895,0.0,28.702517808930022,23.635857436629593,480.21868181560654,462.9692104274556,0.0
0.106,4.99821754727569,-2.458028082389064,-2.5849195783176375,0.0,28.43961851904443,23.416786464869155,473.10783163529135,462.9692104274556,0.0
0.107,4.633262594794404,-2.301083963866646,0.8691192997616035,0.0,28.165874268828347,23.580845279089,465.8635331873888,462.9692104274556,0.0
0.108,4.605485583655726,-2.2075139097355807,4.462325296113555,0.0,27.92718706028666,24.061241979383627,457.912159889187,462.9692104274556,0.0
0.109,4.8784670477815855,-2.168436933472125,8.48858245059712,0.0,27.757045475780927,24.84638078465906,455.4056099087663,462.9692104274556,0.0
0.11,5.436272089552957,-2.1599512707760478,9.817493445994383,0.0,27.681889277119385,25.583280448951655,457.2949693792643,462.9692104274556,0.0
0.111,6.063387953322197,-2.150987160318114,8.929556121227302,0.0,27.687037469229846,26.06460761667357,440.3792835626388,462.9692104274556,0.0
0.112,6.6199826930817975,-2.0428638523840887,10.0,0.0,27.72799963613329,26.569990824011146,431.7099686024012,462.9692104274556,0.0
0.113,7.234330891774925,-1.8211769505651239,10.0,0.0,27.7920995809594,26.95621513405893,425.42429635187204,462.9692104274556,0.0
0.114,7.779164553456551,-1.627791085593436,10.0,0.0,27.869356386178964,27.256438786786504,409.90649806857283,462.9692104274556,0.0
0.115,8.353229682466038,-1.3236595151303443,10.0,0.0,27.937389262048132,27.47666692718906,399.493806369431,462.9692104274556,0.0
0.116,8.868347982491038,-1.0707557691072829,10.0,0.0,27.995863568012716,27.630753179425614,391.20042563223654,462.9692104274556,0.0
0.117,9.412145158282776,-0.7464236735589389,10.0,0.0,28.03075157555442,27.72061173069813,390.17962289920143,462.9692104274556,0.0
0.11800000000000001,9.807271530703275,-0.650604271100752,10.0,0.0,28.06383982415427,27.766947298389216,404.6704708297156,462.9692104274556,0.0
0.11900000000000001,9.89407210902772,-0.9878884994036206,10.0,0.0,28.136312263801166,27.80636133427971,420.84383672220906,462.9692104274556,0.0
0.12,9.897559352945574,-1.3631866131036263,10.0,0.0,28.243388813296377,27.849565619498126,434.4833616032713,462.9692104274556,0.0
0.121,9.789605214360762,-1.823468206915381,10.0,0.0,28.390956130546208,27.911066958827714,449.49793183935526,462.9692104274556,0.0
0.122,9.64794858133521,-2.2411920573087056,10.0,0.0,28.57126365760917,27.995677584196304,471.601712331946,462.9692104274556,0.0
0.123,9.429068498316068,-2.6942878761975595,2.3790180897225355,0.0,28.787664796076523,27.27421013240566,476.2505875556613,462.9692104274556,0.0
0.124,8.778548104905035,-2.903601443660446,-0.0782332934171821,0.0,28.928772609750112,26.521810149043244,484.1195612081048,462.9692104274556,0.0
0.125,7.967361747998045,-2.9790978289677432,-4.224223627445431,0.0,28.986741110429275,25.509999817798363,487.3818035094253,462.9692104274556,0.0
0.126,6.992823249480892,-2.9069734014528406,-6.099470708925378,0.0,28.929043077036315,24.5394374653912,486.04653710017215,462.9692104274556,0.0
0.127,6.032288439587795,-2.7333348110553732,-5.66261077102596,0.0,28.76167961107336,23.82288205297226,482.0489111305652,462.9692104274556,0.0
0.128,5.256161716372569,-2.5328178468841136,-3.854594793253592,0.0,28.519076470309955,23.431527584829634,475.7716515947634,462.9692104274556,0.0
0.129,4.750584170076054,-2.3613451192582584,-0.843989437025761,0.0,28.244741366411493,23.415986941692726,468.61306807256466,462.9692104274556,0.0
0.13,4.569899437641804,-2.2397040757810274,2.6788637476225183,0.0,27.98461992108293,23.74679419433349,461.0520475219109,462.9692104274556,0.0
0.131,4.701776680465178,-2.1799931380791167,6.478545652004856,0.0,27.778239552838894,24.384931710777998,454.3456941108172,462.9692104274556,0.0
0.132,5.127200312779421,-2.154347211977873,9.917957520718083,0.0,27.65408703056957,25.233478098141944,455.8390544842761,462.9692104274556,0.0
0.133,5.767216874372248,-2.161868030777117,9.242578893420415,0.0,27.62828814859251,25.80992124140063,449.2919452139243,462.9692104274556,0.0
0.134,6.341350770039942,-2.1269272518153275,10.0,0.0,27.658794775265243,26.35945572722494,432.54009571455424,462.9692104274556,0.0
0.135,6.960590671270295,-1.9576574776760869,10.0,0.0,27.72293392048742,26.78713816588963,431.98878681067083,462.9692104274556,0.0
0.136,7.5397724957761545,-1.7423998549634898,10.0,0.0,27.80144175429687,27.12094867352674,413.9019488371315,462.9692104274556,0.0
0.137,8.086904484821265,-1.4960085556231606,10.0,0.0,27.880529388788776,27.374836213231184,409.560613482993,462.9692104274556,0.0
0.138,8.631621301229071,-1.200917501720118,10.0,0.0,27.947100910866002,27.556796232499956,391.05224802012617,462.9692104274556,0.0
0.139,9.156240087083997,-0.9065929484854289,10.0,0.0,27.995786492345594,27.674956503769614,381.2778793938417,462.9692104274556,0.0
0.14,9.65493467695361,-0.6392300547914676,10.0,0.0,28.024952870030194,27.73655908903315,403.38884783383253,462.9692104274556,0.0
0.14100000000000001,9.871808469921561,-0.8054727645738056,10.0,0.0,28.0783231954857,27.776048882211022,410.70593829113005,462.9692104274556,0.0
0.14200000000000002,9.911077400270946,-1.1663539390867381,10.0,0.0,28.16833996981204,27.814775884207897,428.7657948602611,462.9692104274556,0.0
0.14300000000000002,9.842057746355028,-1.6093378282554553,10.0,0.0,28.29834718296885,27.86661671467197,441.51887508529757,462.9692104274556,0.0
0.14400000000000002,9.730286515392413,-2.0234882252971276,10.0,0.0,28.461664462639305,27.937878822272044,462.4182697024313,462.9692104274556,0.0
0.145,9.534920372052019,-2.482749633789456,6.7289377886122965,0.0,28.662153476066443,27.678902167284313,470.8398672009087,462.9692104274556,0.0
0.146,9.137222809368824,-2.812410483772513,2.4394324716390603,0.0,28.848366002065312,27.068530186846665,481.83596712429505,462.9692104274556,0.0
0.147,8.469825051046476,-2.997240214446481,-3.247285057022504,0.0,28.971954739294837,26.024609559858227,486.50003546044974,462.9692104274556,0.0
