timestamp,iq,id,iq_ref,id_ref,vq,vd,omega,omega_ref,r
0.0,0.0,0.0,0.0,0.0,0.0,0.0,0.0,359.96708295551423,0.0
0.001,0.0,0.0,10.0,0.0,0.0,1.0999999999999999,6.115472199294103,359.96708295551423,0.0
0.002,0.5307369851907212,-0.2913212625381807,10.0,0.0,0.14204533887919985,1.9316189316290207,13.317801563642547,359.96708295551423,0.0
0.003,1.0842913387634832,-0.6024330830807904,10.0,0.0,0.384357124667687,2.6386968949419622,20.697939467553027,359.96708295551423,0.0
0.004,1.5590443546685477,-0.8700465084428163,10.0,0.0,0.6994718867930164,3.2526109522886295,28.232747544420146,359.96708295551423,0.0
0.005,1.9399447555359186,-1.0838738622210777,10.0,0.0,1.065311453102468,3.7994935661768023,35.92944872443006,359.96708295551423,0.0
0.006,2.239750732602683,-1.2510087368845633,10.0,0.0,1.4655018868449925,4.299102221838433,43.75633668444442,359.96708295551423,0.0
0.007,2.4770151619816017,-1.382020589851471,10.0,0.0,1.8883740978591532,4.765668027847139,51.58766747378032,359.96708295551423,0.0
0.008,2.6680767290418097,-1.4872241871505252,10.0,0.0,2.325877945545995,5.209220346273558,59.45942083902103,359.96708295551423,0.0
0.009000000000000001,2.8266491704841292,-1.5730794701170803,10.0,0.0,2.772378685460125,5.636635464737965,67.35059094018146,359.96708295551423,0.0
0.01,2.962077666392183,-1.645500646948331,10.0,0.0,3.224078639851053,6.052647735211881,75.20908322432116,359.96708295551423,0.0
0.011,3.0811061533574158,-1.7084279320504514,10.0,0.0,3.678407615443203,6.460489925470405,83.0265951655913,359.96708295551423,0.0
0.012,3.188848746459569,-1.7638278597420747,10.0,0.0,4.133552631697047,6.862319393890706,90.74118064793086,359.96708295551423,0.0
0.013000000000000001,3.288205119878689,-1.8140726097274587,10.0,0.0,4.588339016389012,7.259628641949282,98.35820682563939,359.96708295551423,0.0
0.014,3.3820602099432007,-1.8592355758795645,10.0,0.0,5.041843166194517,7.653355107498287,105.90865295623543,359.96708295551423,0.0
0.015,3.4721069852858886,-1.899829032412081,10.0,0.0,5.493383198131427,8.044092747085895,113.37727610343421,359.96708295551423,0.0
0.016,3.5596145800153947,-1.9360338400176071,10.0,0.0,5.94241958510469,8.43218525824161,120.68508583176356,359.96708295551423,0.0
0.017,3.645144415105338,-1.9685384477868613,10.0,0.0,6.388575043274759,8.817838951066484,127.83962377537456,359.96708295551423,0.0
0.018000000000000002,3.730251927866576,-1.9959253041084188,10.0,0.0,6.83136783302799,9.201036292373047,134.85405702603322,359.96708295551423,0.0
0.019,3.81544967906247,-2.018253592643655,10.0,0.0,7.270383321112213,9.581672501020332,141.68976328564074,359.96708295551423,0.0
0.02,3.9014648862453374,-2.0350875541282063,10.0,0.0,7.705189334130692,9.959536942333155,148.3432823300447,359.96708295551423,0.0
0.021,3.9891051824829464,-2.0457889559126508,10.0,0.0,8.135310004560049,10.334315260302239,154.92060212100432,359.96708295551423,0.0
0.022,4.079618141396171,-2.0489696811670974,10.0,0.0,8.560139305503519,10.705547790999272,161.01925282597162,359.96708295551423,0.0
0.023,4.171109372430197,-2.048468292080302,10.0,0.0,8.979521969370257,11.072981092896333,166.534238406907,359.96708295551423,0.0
0.024,4.266936196769627,-2.039517194249811,10.0,0.0,9.392730090169543,11.435983292623375,171.8647834235234,359.96708295551423,0.0
0.025,4.367255527950721,-2.0225841458509217,10.0,0.0,9.79914449451603,11.793929226271104,177.02637022703064,359.96708295551423,0.0
0.026000000000000002,4.4734353073349595,-1.9962166741499119,10.0,0.0,10.197980960389518,12.146045424568259,181.63161391243256,359.96708295551423,0.0
0.027,4.582366840795821,-1.966358349113627,10.0,0.0,10.589124658468391,12.491912978736195,185.74793639675826,359.96708295551423,0.0
0.028,4.700058850757774,-1.9240450691803936,10.0,0.0,10.971384864613876,12.830451341534015,189.43662766964098,359.96708295551423,0.0
0.029,4.820934284790598,-1.879137197786803,10.0,0.0,11.344756153370636,13.161242511022618,192.73598774770625,359.96708295551423,0.0
0.03,4.952016225740939,-1.821000614527957,10.0,0.0,11.707923484756042,13.483081433273819,195.59831968863915,359.96708295551423,0.0
0.031,5.086039273572549,-1.7621311371320891,10.0,0.0,12.061063698547066,13.79562148058647,197.80891551030922,359.96708295551423,0.0
0.032,5.230431844273564,-1.6911110488141978,10.0,0.0,12.40292038074925,14.097678592248165,200.4421589734679,359.96708295551423,0.0
0.033,5.380124186618445,-1.6166151787533525,10.0,0.0,12.733312761073865,14.38869342901298,201.91742172589852,359.96708295551423,0.0
0.034,5.537594793894332,-1.535029134414507,10.0,0.0,13.051537880865839,14.667821176756876,203.18880493813168,359.96708295551423,0.0
0.035,5.698947813469154,-1.4530296333491768,10.0,0.0,13.357649178779205,14.934684535625108,203.60405746232266,359.96708295551423,0.0
0.036000000000000004,5.870474243492053,-1.3603000477825025,10.0,0.0,13.65045542338638,15.188218311291084,204.28541056101804,359.96708295551423,0.0
0.037,6.041188711220851,-1.275010780747051,10.0,0.0,13.930879897581198,15.42861600670124,205.2233356988433,359.96708295551423,0.0
0.038,6.228175208801664,-1.168399557236846,10.0,0.0,14.196427351981786,15.654155009933262,200.35169734043586,359.96708295551423,0.0
0.039,6.404895489618571,-1.0845312562500289,10.0,0.0,14.449814560392067,15.86612549236809,209.64773540576442,359.96708295551423,0.0
0.04,6.534612624563911,-1.0851225869390002,10.0,0.0,14.699963825590459,16.069735965364643,218.170241886545,359.96708295551423,0.0
0.041,6.621487035821765,-1.1484636683301073,10.0,0.0,14.952420817214799,16.26974130369247,220.68166573712315,359.96708295551423,0.0
0.042,6.6704785161669795,-1.2647840534085386,10.0,0.0,15.211794475054209,16.47047148862455,233.10654395573727,359.96708295551423,0.0
0.043000000000000003,6.709376245503157,-1.3867642159960276,10.0,0.0,15.477558399636717,16.673277185423842,235.10815372853793,359.96708295551423,0.0
0.044,6.744196093263161,-1.5028656568708394,10.0,0.0,15.74857785831126,16.87893749904121,248.8181267625822,359.96708295551423,0.0
0.045,6.750563942850831,-1.6564343609015326,10.0,0.0,16.02879294551472,17.090781462187255,251.61117095327992,359.96708295551423,0.0
0.046,6.764566527560506,-1.7840489455190416,10.0,0.0,16.314672837580048,17.307985931916857,266.60539535969383,359.96708295551423,0.0
0.047,6.752169677737121,-1.9446655565152717,10.0,0.0,16.610076868775216,17.533561623207692,270.0627790167984,359.96708295551423,0.0
0.048,6.7291903821171735,-2.110358990489937,10.0,0.0,16.91511817760721,17.768523902508925,283.13731951482634,359.96708295551423,0.0
0.049,6.714097190323873,-2.246352557911731,10.0,0.0,17.22645394156277,18.011924542904307,294.70561782835244,359.96708295551423,0.0
0.05,6.666841209228205,-2.4219663531358275,10.0,0.0,17.548953774962747,18.267165921658286,300.1294548425776,359.96708295551423,0.0
0.051000000000000004,6.612335516543512,-2.59336894353628,10.0,0.0,17.88182590988993,18.53465621226123,310.75154600411304,359.96708295551423,0.0
0.052000000000000005,6.568447424188529,-2.726701034625408,10.0,0.0,18.22111236450049,18.81296732052879,322.35703405819294,359.96708295551423,0.0
0.053,6.5036136539679195,-2.8764091099274185,10.0,0.0,18.569435851849082,19.104068797231378,330.9557012510771,359.96708295551423,0.0
0.054,6.434362099984388,-3.0149932598739144,10.0,0.0,18.925784313874168,19.407861808234543,339.4707232587175,359.96708295551423,0.0
0.055,6.370891759459199,-3.1253006473392393,10.0,0.0,19.28762520191878,19.723199586257838,348.00092263299223,359.96708295551423,0.0
0.056,6.314459991163816,-3.2071523724558277,10.0,0.0,19.65271639484943,20.048760466390505,356.29964302226927,359.96708295551423,0.0
0.057,6.266092078485367,-3.262894600420583,7.566950693240793,0.0,20.019167684325254,20.11539510677113,361.7856466664765,359.96708295551423,0.0
0.058,6.105064003579533,-3.2211328484942983,4.805763234027549,0.0,20.35048609390001,19.949840693728262,360.94167685067583,359.96708295551423,0.0
0.059000000000000004,5.818166032877421,-3.06435530281255,5.218002202976271,0.0,20.615289308707272,19.93688022015184,356.39152359224687,359.96708295551423,0.0
0.06,5.6092107994157105,-2.8658223352262833,7.528834425823426,0.0,20.832045303698496,20.221881366211242,358.55088586152306,359.96708295551423,0.0
0.061,5.608254533399022,-2.7028168705295657,6.463315262125245,0.0,21.039680542355757,20.357758203855774,362.5012441919978,359.96708295551423,0.0
0.062,5.615996168726794,-2.532308255440349,4.462794484523045,0.0,21.223014047898904,20.290547645156103,353.6242927799886,359.96708295551423,0.0
0.063,5.555027924028485,-2.308684731640045,8.964698092282898,0.0,21.358399645550623,20.770390020780404,347.368963530215,359.96708295551423,0.0
0.064,5.800106897064098,-2.1360217769323793,10.0,0.0,21.51147423121976,21.25708252289783,352.1689818219568,359.96708295551423,0.0
0.065,6.137721237962779,-2.0336403770581004,9.851948898658918,0.0,21.688375284094636,21.649087805377235,343.5553543800514,359.96708295551423,0.0
0.066,6.483589914920564,-1.9181652404212466,10.0,0.0,21.875108308898653,22.002679386000764,341.11781779774867,359.96708295551423,0.0
0.067,6.86691402297048,-1.7270863666506195,10.0,0.0,22.05866326453621,22.299397634913003,335.8205430181779,359.96708295551423,0.0
0.068,7.2012369440076345,-1.5848089643643113,10.0,0.0,22.239794823987463,22.551857274264187,330.35857168021613,359.96708295551423,0.0
0.069,7.578300003802934,-1.3512022564178563,10.0,0.0,22.40378522757746,22.75905039825827,320.74874777591396,359.96708295551423,0.0
0.07,7.908333321084492,-1.1795742358676682,10.0,0.0,22.5555528880268,22.92939021590892,321.0935740131176,359.96708295551423,0.0
0.07100000000000001,8.266926838414758,-0.9561253560135556,10.0,0.0,22.68631466761783,23.06172786410593,316.5565096390319,359.96708295551423,0.0
0.07200000000000001,8.56605717611254,-0.8293747661482626,10.0,0.0,22.805525957982812,23.16458952346889,330.4599273451662,359.96708295551423,0.0
0.073,8.658248159948078,-1.0190029287923617,10.0,0.0,22.945228889037093,23.261936441087116,338.6998923366013,359.96708295551423,0.0
0.074,8.70006971488633,-1.2413031676746573,10.0,0.0,23.10325296339839,23.359840498844104,348.9813904220639,359.96708295551423,0.0
0.075,8.658552136965708,-1.552233117777114,10.0,0.0,23.287244328221696,23.468741707382165,362.03834208738806,359.96708295551423,0.0
0.076,8.613409144508804,-1.8174856262240096,5.587033112341949,0.0,23.48979515384461,23.104276127297418,370.07825605424205,359.96708295551423,0.0
0.077,8.266358707540128,-2.0299072320655203,1.465964397927678,0.0,23.65635819045486,22.42504841621644,375.0965309165387,359.96708295551423,0.0
0.078,7.68897434202255,-2.0794000743225687,-1.194467512830899,0.0,23.741662148885844,21.63900473270253,380.8974182662416,359.96708295551423,0.0
0.079,6.963882469629205,-2.0793646515831368,-4.304214540789602,0.0,23.739332518198427,20.69861422172333,381.96775660748966,359.96708295551423,0.0
0.08,6.1387633483077035,-1.997507333007385,-5.059390447933401,0.0,23.634192848665904,19.883570103888502,382.45344913707146,359.96708295551423,0.0
0.081,5.364623264779157,-1.9060506306175897,-5.527100374539872,0.0,23.448821070226025,19.172524316003564,381.3154537866321,359.96708295551423,0.0
0.082,4.685159887158379,-1.8193587184148832,-5.171586407631359,0.0,23.202260347523236,18.62482913539212,378.9427378908033,359.96708295551423,0.0
0.083,4.144916809644915,-1.7509736967789842,-4.174985009069863,0.0,22.918930745771668,18.26595051949451,376.1245752293366,359.96708295551423,0.0
0.084,3.769430480960417,-1.707245521890948,-2.9274786010747285,0.0,22.623919993584163,18.077787561285504,372.8070865842752,359.96708295551423,0.0
0.085,3.5493339457720743,-1.6925630166429944,-1.3971343148316588,0.0,22.338416226966118,18.055258386669315,368.8338657778031,359.96708295551423,0.0
0.08600000000000001,3.4761432837063904,-1.7033280506032724,0.5008082601815094,0.0,22.080540898336366,18.20575200071729,364.921986619944,359.96708295551423,0.0
0.08700000000000001,3.548308741570488,-1.7358986709090698,2.4071988024667714,0.0,21.866977581868422,18.49746214741304,360.5139556578663,359.96708295551423,0.0
0.088,3.744890553865183,-1.7827940645212612,4.605745556482103,0.0,21.70877439881113,18.940518840537475,357.8199763211216,359.96708295551423,0.0
0.089,4.07008449000395,-1.8280821717664053,5.9742062911983735,0.0,21.615209941232855,19.418189244470064,360.38598268051044,359.96708295551423,0.0
0.09,4.450098575249296,-1.867761700159297,4.687014114253993,0.0,21.58268083685644,19.644910805424914,355.57390885467447,359.96708295551423,0.0
0.091,4.714767318052049,-1.851833807486016,7.136982768180374,0.0,21.573927935535153,20.102762352692135,344.96842107115503,359.96708295551423,0.0
0.092,5.096732285966893,-1.798044780082027,10.0,0.0,21.606077964985015,20.765016205018792,349.9427391179115,359.96708295551423,0.0
0.093,5.615120652078206,-1.781296096297801,10.0,0.0,21.699933911780334,21.282426432146487,346.74938414071863,359.96708295551423,0.0
0.094,6.089560660825888,-1.7717551404015017,10.0,0.0,21.83526326829814,21.710476713939805,336.9200590168523,359.96708295551423,0.0
0.095,6.5672950490914745,-1.6467025718856014,10.0,0.0,21.986204344365706,22.061448520583834,338.0271983716556,359.96708295551423,0.0
0.096,6.975445588747329,-1.534484402257216,10.0,0.0,22.146055020516958,22.352298038690734,327.21239040672384,359.96708295551423,0.0
0.097,7.384297913448863,-1.349656921764213,10.0,0.0,22.299796739705826,22.58915542228145,324.65686116170997,359.96708295551423,0.0
0.098,7.746099262816274,-1.1934924607619943,10.0,0.0,22.446520209429565,22.781991614248582,318.861481507725,359.96708295551423,0.0
0.099,8.132040463340626,-0.9681929173273169,10.0,0.0,22.574633646209847,22.931381015427377,309.72393521261927,359.96708295551423,0.0
0.1,8.477876588456185,-0.7903884900190765,10.0,0.0,22.68756918786043,23.044460258408847,324.5702525156094,359.96708295551423,0.0
0.101,8.601355884640512,-0.9582074201814983,10.0,0.0,22.82075722623504,23.14740076992811,336.3074999265127,359.96708295551423,0.0
0.10200000000000001,8.664798389453377,-1.1692329614005175,10.0,0.0,22.97245513215659,23.247622151565338,343.2506206641746,359.96708295551423,0.0
0.10300000000000001,8.6392761971013,-1.4736318998255564,10.0,0.0,23.150379013464278,23.356433051837858,359.58718738677,359.96708295551423,0.0
0.10400000000000001,8.602052924227804,-1.7436152782248229,6.1654088584952085,0.0,23.34804577890811,23.05418956274093,364.472090083336,359.96708295551423,0.0
0.105,8.300183638666999,-1.962937940802787,3.6779074389339756,0.0,23.517147177997444,22.599491243044334,372.26543505480953,359.96708295551423,0.0
0.106,7.851809262423157,-2.069930891965866,-0.3417485677957357,0.0,23.633444603210354,21.836188237212898,379.38934648609575,359.96708295551423,0.0
0.107,7.175043192207697,-2.102771557116257,-4.097926918744659,0.0,23.66432452897374,20.857822739910077,380.01154053490285,359.96708295551423,0.0
0.108,6.344060308251876,-2.0199744338796966,-4.609468518942098,0.0,23.584843822222975,20.04631444893463,381.1834313208433,359.96708295551423,0.0
0.109,5.562465185352554,-1.9322237521760464,-5.407577395565605,0.0,23.423335753294708,19.302997990634406,380.5465216301947,359.96708295551423,0.0
0.11,4.856786069230247,-1.8436661969593504,-5.294916936988127,0.0,23.194783021172448,18.70804486202559,378.45361539669705,359.96708295551423,0.0
0.111,4.277059941745158,-1.768667720327871,-4.433329144651119,0.0,22.922225992524236,18.300092908498872,375.7510476564204,359.96708295551423,0.0
0.112,3.857527639948229,-1.7173724062142681,-3.239884921521849,0.0,22.631236971601986,18.068694726003656,372.69015511766503,359.96708295551423,0.0
0.113,3.596943972892685,-1.694977152772606,-1.8366693737656803,0.0,22.344256509785,17.998225608045775,368.8804853968711,359.96708295551423,0.0
0.114,3.4819248845120923,-1.6996719089526793,-0.0209685377822888,0.0,22.079667558068138,18.101846555233895,364.96767222333597,359.96708295551423,0.0
0.115,3.514587828630486,-1.7253811812832418,1.8854321563070648,0.0,21.854680668636345,18.355450465784685,360.89286420844104,359.96708295551423,0.0
0.116,3.6763530601862167,-1.7697525733591857,3.9135783512252598,0.0,21.682176619607855,18.747759824807382,357.2807859497423,359.96708295551423,0.0
0.117,3.9601449097651495,-1.8157347218295499,5.746480450632337,0.0,21.57076823379547,19.23532616087243,358.07810105585725,359.96708295551423,0.0
0.11800000000000001,4.334382535329859,-1.8579439209971946,5.366712716571445,0.0,21.52344051059457,19.56456333269264,358.52761845991466,359.96708295551423,0.0
0.11900000000000001,4.645695114892139,-1.8709461831264953,5.1563486594987324,0.0,21.51477743373831,19.806299638577137,347.46272330662146,359.96708295551423,0.0
0.12,4.925247385455357,-1.7965412347283574,10.0,0.0,21.522839728211054,20.5302636702471,347.5647287902828,359.96708295551423,0.0
0.121,5.44657108933784,-1.777627284480936,10.0,0.0,21.601155711360278,21.07965093007089,349.06400859900026,359.96708295551423,0.0
0.122,5.93617096546788,-1.7777554378877596,10.0,0.0,21.72678205855418,21.533288312891738,337.20990310219054,359.96708295551423,0.0
0.123,6.409628004066365,-1.6950243208648543,10.0,0.0,21.87610780490419,21.906940316665356,338.7274243403114,359.96708295551423,0.0
0.124,6.843192743314728,-1.5693807066239969,10.0,0.0,22.034872690600302,22.21520214376529,327.60006727142627,359.96708295551423,0.0
0.125,7.240677234198986,-1.4210050411025814,10.0,0.0,22.193522383371842,22.46912663012005,327.8844109492901,359.96708295551423,0.0
0.126,7.6243881900558526,-1.2404238236819105,10.0,0.0,22.343319378240643,22.675290276881068,316.364106114268,359.96708295551423,0.0
0.127,7.9997597506180185,-1.0379580497278278,10.0,0.0,22.478287615337933,22.838363496349604,310.60809169808994,359.96708295551423,0.0
0.128,8.3417817212891,-0.870459874023692,10.0,0.0,22.59966620908443,22.964757516412817,322.377321573144,359.96708295551423,0.0
0.129,8.569246663252237,-0.8785608512998988,10.0,0.0,22.724112434720013,23.069049069935126,327.8060457937243,359.96708295551423,0.0
0.13,8.63816139058945,-1.0957653696279044,10.0,0.0,22.870354680387596,23.1700501200813,343.4515199501181,359.96708295551423,0.0
0.131,8.635431740283,-1.379434480182978,10.0,0.0,23.041104363480812,23.276564698586682,351.08143493900326,359.96708295551423,0.0
0.132,8.610161914409751,-1.6459700260576842,10.0,0.0,23.23191275505592,23.39225517189386,367.6650921760823,359.96708295551423,0.0
0.133,8.524760944557602,-1.9634354310415403,1.735950204302326,0.0,23.447465193893702,22.615553367926083,368.0018907341764,359.96708295551423,0.0
0.134,7.98641008795137,-2.0327018711427236,1.4872028474686392,0.0,23.56823686281222,22.051719861472293,375.7671096813864,359.96708295551423,0.0
0.135,7.38465432742428,-2.089511200586457,-2.553406893395069,0.0,23.626104376031318,21.17517689972099,379.1552747730369,359.96708295551423,0.0
0.136,6.622236250112641,-2.0477666195425015,-4.439371357395564,0.0,23.58537084454409,20.302873422734315,380.6967344642895,359.96708295551423,0.0
0.137,5.824085263849449,-1.9664192383031225,-5.417397718109594,0.0,23.452949552381032,19.505176112974876,380.3200707129042,359.96708295551423,0.0
0.138,5.077837342503233,-1.8707558293570872,-5.432595719990868,0.0,23.24429115728666,18.856220649860735,378.62229157813897,359.96708295551423,0.0
0.139,4.449127194022549,-1.7874390210843325,-4.770258238834488,0.0,22.983394840569773,18.385999633613988,376.0941354386677,359.96708295551423,0.0
0.14,3.9743485800107097,-1.7274765490579842,-3.667450693930391,0.0,22.695803350059723,18.097335088504614,373.2786484338988,359.96708295551423,0.0
0.14100000000000001,3.6620976730745363,-1.695115858280501,-2.3928228463297883,0.0,22.405144502824502,17.96755865026507,369.66732369573333,359.96708295551423,0.0
0.14200000000000002,3.496456205360017,-1.6904876288844413,-0.6841628846492398,0.0,22.13038839816304,18.011998340814035,365.71531434254143,359.96708295551423,0.0
0.14300000000000002,3.479513438728189,-1.7089558407270868,1.2343594780764375,0.0,21.889629658619263,18.218676601777332,361.82752676938384,359.96708295551423,0.0
