timestamp,iq,id,iq_ref,id_ref,vq,vd,omega,omega_ref,r
0.0,0.0,0.0,0.0,0.0,0.0,0.0,0.0,342.18023243522015,0.0
0.001,0.0,0.0,10.0,0.0,0.0,1.0999999999999999,6.115472199294103,342.18023243522015,0.0
0.002,0.5307369851907212,-0.2913212625381807,10.0,0.0,0.14204533887919985,1.9316189316290207,13.317801563642547,342.18023243522015,0.0
0.003,1.0842913387634832,-0.6024330830807904,10.0,0.0,0.384357124667687,2.6386968949419622,20.697939467553027,342.18023243522015,0.0
0.004,1.5590443546685477,-0.8700465084428163,10.0,0.0,0.6994718867930164,3.2526109522886295,28.232747544420146,342.18023243522015,0.0
0.005,1.9399447555359186,-1.0838738622210777,10.0,0.0,1.065311453102468,3.7994935661768023,35.92944872443006,342.18023243522015,0.0
0.006,2.239750732602683,-1.2510087368845633,10.0,0.0,1.4655018868449925,4.299102221838433,43.75633668444442,342.18023243522015,0.0
0.007,2.4770151619816017,-1.382020589851471,10.0,0.0,1.8883740978591532,4.765668027847139,51.58766747378032,342.18023243522015,0.0
0.008,2.6680767290418097,-1.4872241871505252,10.0,0.0,2.325877945545995,5.209220346273558,59.45942083902103,342.18023243522015,0.0
0.009000000000000001,2.8266491704841292,-1.5730794701170803,10.0,0.0,2.772378685460125,5.636635464737965,67.35059094018146,342.18023243522015,0.0
0.01,2.962077666392183,-1.645500646948331,10.0,0.0,3.224078639851053,6.052647735211881,75.20908322432116,342.18023243522015,0.0
0.011,3.0811061533574158,-1.7084279320504514,10.0,0.0,3.678407615443203,6.460489925470405,83.0265951655913,342.18023243522015,0.0
0.012,3.188848746459569,-1.7638278597420747,10.0,0.0,4.133552631697047,6.862319393890706,90.74118064793086,342.18023243522015,0.0
0.013000000000000001,3.288205119878689,-1.8140726097274587,10.0,0.0,4.588339016389012,7.259628641949282,98.35820682563939,342.18023243522015,0.0
0.014,3.3820602099432007,-1.8592355758795645,10.0,0.0,5.041843166194517,7.653355107498287,105.90865295623543,342.18023243522015,0.0
0.015,3.4721069852858886,-1.899829032412081,10.0,0.0,5.493383198131427,8.044092747085895,113.37727610343421,342.18023243522015,0.0
0.016,3.5596145800153947,-1.9360338400176071,10.0,0.0,5.94241958510469,8.43218525824161,120.68508583176356,342.18023243522015,0.0
0.017,3.645144415105338,-1.9685384477868613,10.0,0.0,6.388575043274759,8.817838951066484,127.83962377537456,342.18023243522015,0.0
0.018000000000000002,3.730251927866576,-1.9959253041084188,10.0,0.0,6.83136783302799,9.201036292373047,134.85405702603322,342.18023243522015,0.0
0.019,3.81544967906247,-2.018253592643655,10.0,0.0,7.270383321112213,9.581672501020332,141.68976328564074,342.18023243522015,0.0
0.02,3.9014648862453374,-2.0350875541282063,10.0,0.0,7.705189334130692,9.959536942333155,148.3432823300447,342.18023243522015,0.0
0.021,3.9891051824829464,-2.0457889559126508,10.0,0.0,8.135310004560049,10.334315260302239,154.92060212100432,342.18023243522015,0.0
0.022,4.079618141396171,-2.0489696811670974,10.0,0.0,8.560139305503519,10.705547790999272,161.01925282597162,342.18023243522015,0.0
0.023,4.171109372430197,-2.048468292080302,10.0,0.0,8.979521969370257,11.072981092896333,166.534238406907,342.18023243522015,0.0
0.024,4.266936196769627,-2.039517194249811,10.0,0.0,9.392730090169543,11.435983292623375,171.8647834235234,342.18023243522015,0.0
0.025,4.367255527950721,-2.0225841458509217,10.0,0.0,9.79914449451603,11.793929226271104,177.02637022703064,342.18023243522015,0.0
0.026000000000000002,4.4734353073349595,-1.9962166741499119,10.0,0.0,10.197980960389518,12.146045424568259,181.63161391243256,342.18023243522015,0.0
0.027,4.582366840795821,-1.966358349113627,10.0,0.0,10.589124658468391,12.491912978736195,185.74793639675826,342.18023243522015,0.0
0.028,4.700058850757774,-1.9240450691803936,10.0,0.0,10.971384864613876,12.830451341534015,189.43662766964098,342.18023243522015,0.0
0.029,4.820934284790598,-1.879137197786803,10.0,0.0,11.344756153370636,13.161242511022618,192.73598774770625,342.18023243522015,0.0
0.03,4.952016225740939,-1.821000614527957,10.0,0.0,11.707923484756042,13.483081433273819,195.59831968863915,342.18023243522015,0.0
0.031,5.086039273572549,-1.7621311371320891,10.0,0.0,12.061063698547066,13.79562148058647,197.80891551030922,342.18023243522015,0.0
0.032,5.230431844273564,-1.6911110488141978,10.0,0.0,12.40292038074925,14.097678592248165,200.4421589734679,342.18023243522015,0.0
0.033,5.380124186618445,-1.6166151787533525,10.0,0.0,12.733312761073865,14.38869342901298,201.91742172589852,342.18023243522015,0.0
0.034,5.537594793894332,-1.535029134414507,10.0,0.0,13.051537880865839,14.667821176756876,203.18880493813168,342.18023243522015,0.0
0.035,5.698947813469154,-1.4530296333491768,10.0,0.0,13.357649178779205,14.934684535625108,203.60405746232266,342.18023243522015,0.0
0.036000000000000004,5.870474243492053,-1.3603000477825025,10.0,0.0,13.65045542338638,15.188218311291084,204.28541056101804,342.18023243522015,0.0
0.037,6.041188711220851,-1.275010780747051,10.0,0.0,13.930879897581198,15.42861600670124,205.2233356988433,342.18023243522015,0.0
0.038,6.228175208801664,-1.168399557236846,10.0,0.0,14.196427351981786,15.654155009933262,200.35169734043586,342.18023243522015,0.0
0.039,6.404895489618571,-1.0845312562500289,10.0,0.0,14.449814560392067,15.86612549236809,209.64773540576442,342.18023243522015,0.0
0.04,6.534612624563911,-1.0851225869390002,10.0,0.0,14.699963825590459,16.069735965364643,218.170241886545,342.18023243522015,0.0
0.041,6.621487035821765,-1.1484636683301073,10.0,0.0,14.952420817214799,16.26974130369247,220.68166573712315,342.18023243522015,0.0
0.042,6.6704785161669795,-1.2647840534085386,10.0,0.0,15.211794475054209,16.47047148862455,233.10654395573727,342.18023243522015,0.0
0.043000000000000003,6.709376245503157,-1.3867642159960276,10.0,0.0,15.477558399636717,16.673277185423842,235.10815372853793,342.18023243522015,0.0
0.044,6.744196093263161,-1.5028656568708394,10.0,0.0,15.74857785831126,16.87893749904121,248.8181267625822,342.18023243522015,0.0
0.045,6.750563942850831,-1.6564343609015326,10.0,0.0,16.02879294551472,17.090781462187255,251.61117095327992,342.18023243522015,0.0
0.046,6.764566527560506,-1.7840489455190416,10.0,0.0,16.314672837580048,17.307985931916857,266.60539535969383,342.18023243522015,0.0
0.047,6.752169677737121,-1.9446655565152717,10.0,0.0,16.610076868775216,17.533561623207692,270.0627790167984,342.18023243522015,0.0
0.048,6.7291903821171735,-2.110358990489937,10.0,0.0,16.91511817760721,17.768523902508925,283.13731951482634,342.18023243522015,0.0
0.049,6.714097190323873,-2.246352557911731,10.0,0.0,17.22645394156277,18.011924542904307,294.70561782835244,342.18023243522015,0.0
0.05,6.666841209228205,-2.4219663531358275,10.0,0.0,17.548953774962747,18.267165921658286,300.1294548425776,342.18023243522015,0.0
0.051000000000000004,6.612335516543512,-2.59336894353628,10.0,0.0,17.88182590988993,18.53465621226123,310.75154600411304,342.18023243522015,0.0
0.052000000000000005,6.568447424188529,-2.726701034625408,10.0,0.0,18.22111236450049,18.81296732052879,322.35703405819294,342.18023243522015,0.0
0.053,6.5036136539679195,-2.8764091099274185,10.0,0.0,18.569435851849082,19.104068797231378,330.9557012510771,342.18023243522015,0.0
0.054,6.434362099984388,-3.0149932598739144,10.0,0.0,18.925784313874168,19.407861808234543,339.4707232587175,342.18023243522015,0.0
0.055,6.370891759459199,-3.1253006473392393,7.0257604707066825,0.0,19.287625201918782,19.39603323803557,346.4254125905097,342.18023243522015,0.0
0.056,6.157784086349977,-3.12661007163002,3.5059640032576738,0.0,19.61114010693638,19.08694353817126,349.2408157851179,342.18023243522015,0.0
0.057,5.760452433298342,-3.006839090126552,2.027656572454614,0.0,19.858206649257482,18.75527385118589,346.75482540888373,342.18023243522015,0.0
0.058,5.332474794566867,-2.802810177200468,3.2249058308350556,0.0,20.026154098041104,18.67106250359099,344.5611291684881,342.18023243522015,0.0
0.059000000000000004,5.049052400482426,-2.618129720612229,4.297944983700196,0.0,20.150611106091443,18.745025536827274,344.8177233320725,342.18023243522015,0.0
0.06,4.924874424747294,-2.4615852254848667,4.143272992939474,0.0,20.254645626762233,18.807119010422646,347.35626623772083,342.18023243522015,0.0
0.061,4.865039514222759,-2.316594685380717,2.8222412020902965,0.0,20.340102528265305,18.734979872040117,341.09270107802996,342.18023243522015,0.0
0.062,4.780953405886408,-2.144891231780457,5.964899095507634,0.0,20.392362351284827,19.046154146642294,332.6667028093462,342.18023243522015,0.0
0.063,4.921813198833018,-2.011333150350771,10.0,0.0,20.457539265041355,19.727536058338703,338.67212768861333,342.18023243522015,0.0
0.064,5.325092117613135,-1.9835510989372316,7.299941463418592,0.0,20.582616233750677,19.9669879390359,336.74074382741264,342.18023243522015,0.0
0.065,5.588932771986031,-1.91350587322421,8.32002828009701,0.0,20.711703539344494,20.30922278094153,325.2428265331085,342.18023243522015,0.0
0.066,5.912568925628124,-1.7749215808635868,10.0,0.0,20.847561778666947,20.77177731988162,330.55865351247036,342.18023243522015,0.0
0.067,6.305677227046495,-1.6749355628718627,10.0,0.0,21.00647702889568,21.144856960041317,320.4232599380238,342.18023243522015,0.0
0.068,6.689762119696419,-1.5672595078220666,10.0,0.0,21.17596421224196,21.458201906030617,321.04558765678473,342.18023243522015,0.0
0.069,7.074461969692631,-1.4105348047720079,10.0,0.0,21.343674215067526,21.71868494118253,310.43641756711224,342.18023243522015,0.0
0.07,7.43240576492951,-1.2531611620589531,10.0,0.0,21.50491766745779,21.934363854125706,310.3308704918004,342.18023243522015,0.0
0.07100000000000001,7.777793325412594,-1.0855841791365015,10.0,0.0,21.654744934209013,22.110186027312825,302.1057751053423,342.18023243522015,0.0
0.07200000000000001,8.131879306204835,-0.8821244787214765,10.0,0.0,21.786466894387384,22.247913127574037,307.08608138267795,342.18023243522015,0.0
0.073,8.348424651150781,-0.8943037404737274,10.0,0.0,21.92216368437094,22.36476058569083,320.9822017422862,342.18023243522015,0.0
0.074,8.440605418076988,-1.0672616726652944,10.0,0.0,22.074879121091374,22.475518546081883,324.82055365902374,342.18023243522015,0.0
0.075,8.453349998208356,-1.3224146834593618,10.0,0.0,22.24973606204431,22.589992157960683,341.850021564552,342.18023243522015,0.0
0.076,8.428820041805503,-1.5916855737190367,6.527670194310831,0.0,22.445622937910443,22.331373565126718,344.73203692257164,342.18023243522015,0.0
0.077,8.188140737460593,-1.7733579402066213,5.061144470427488,0.0,22.613350518317613,22.017840411506395,358.60649135815606,342.18023243522015,0.0
0.078,7.837169796604694,-1.9062124351187582,-2.0403453365940845,0.0,22.745749296097483,21.02213472020598,357.94164625119384,342.18023243522015,0.0
0.079,7.090717130494735,-1.8901851211374037,-1.865536921272712,0.0,22.762246077482253,20.308083383432695,360.77738126739143,342.18023243522015,0.0
0.08,6.38614252278159,-1.8456500853076563,-3.4693759176932204,0.0,22.70094946624977,19.558955164903097,363.3007571738737,342.18023243522015,0.0
0.081,5.680761583299674,-1.8011198089096612,-4.942269118320891,0.0,22.566416714242084,18.803176402264263,363.08612983966924,342.18023243522015,0.0
0.082,4.997649538279723,-1.7323061436813565,-5.04401442526315,0.0,22.362635160760156,18.181147704488524,361.8716513436949,342.18023243522015,0.0
0.083,4.409370635343549,-1.6724540357926552,-4.633689366360731,0.0,22.111133297633376,17.70497648956365,359.8112813870485,342.18023243522015,0.0
0.084,3.9458662100735262,-1.6319175805264579,-3.7798148775558085,0.0,21.833304010326387,17.386197850748438,357.36655554238024,342.18023243522015,0.0
0.085,3.6213774196430015,-1.6121042949749402,-2.7093151862932814,0.0,21.54960569101057,17.21178909092953,354.63604701894644,342.18023243522015,0.0
0.08600000000000001,3.427200851303973,-1.614753682326921,-1.468619070413646,0.0,21.277325893108674,17.170337485608066,351.25948868915566,342.18023243522015,0.0
0.08700000000000001,3.3516054303492515,-1.636122376357823,0.1288675319423902,0.0,21.03045297693471,17.275493356750548,347.86659130967246,342.18023243522015,0.0
0.088,3.3968591602086153,-1.6727333040571655,1.7684526329394679,0.0,20.822596454599,17.504091979753422,344.2451172101155,342.18023243522015,0.0
0.089,3.5472871690610708,-1.7211027285165026,3.558540834968996,0.0,20.663339974210686,17.85346439576054,341.0879391578758,342.18023243522015,0.0
0.09,3.8004857430750896,-1.7682114345446414,5.1480527938622975,0.0,20.559644646880418,18.28257179253307,341.76197351526304,342.18023243522015,0.0
0.091,4.129030848427238,-1.809124212157267,4.81521820436824,0.0,20.51325891043754,18.57228401661344,342.83581114367047,342.18023243522015,0.0
0.092,4.399870969314252,-1.8226939123331967,4.27174360308002,0.0,20.5015665092902,18.745425622150673,332.5943018031575,342.18023243522015,0.0
0.093,4.620677134646742,-1.7514884684306553,9.488357579657121,0.0,20.500389212980288,19.457765833478106,332.3423635953051,342.18023243522015,0.0
0.094,5.105869276466803,-1.7477678853191476,9.712705371982496,0.0,20.570866457730872,20.02010333748495,335.24299897230065,342.18023243522015,0.0
0.095,5.578505148980145,-1.7690981838265725,8.3317600181139,0.0,20.692913267074008,20.331969324159097,324.3310271214683,342.18023243522015,0.0
0.096,5.9546366206914,-1.687920013348546,10.0,0.0,20.824799092412594,20.785521141483194,325.73405159238365,342.18023243522015,0.0
0.097,6.384389218316369,-1.586189353866247,10.0,0.0,20.978472926111454,21.146712488768244,317.9774524302478,342.18023243522015,0.0
0.098,6.774700147005143,-1.491379164454198,10.0,0.0,21.143486696928434,21.448515408515167,317.06340172964644,342.18023243522015,0.0
0.099,7.172775500169455,-1.3227294629783928,10.0,0.0,21.30457601737019,21.69675423380791,305.9644984705917,342.18023243522015,0.0
0.1,7.522478431450937,-1.183583051087452,10.0,0.0,21.4607606800038,21.901791539706224,307.880126754158,342.18023243522015,0.0
0.101,7.8756109568451045,-1.006291781308588,10.0,0.0,21.603720031407114,22.066596032797534,297.8893193688291,342.18023243522015,0.0
0.10200000000000001,8.22619579430449,-0.8096961975680559,10.0,0.0,21.729011295465554,22.194183004853446,309.64746290943174,342.18023243522015,0.0
0.10300000000000001,8.354903597707132,-0.9583661951638844,10.0,0.0,21.872851785896692,22.310888396109917,322.7056536447696,342.18023243522015,0.0
0.10400000000000001,8.42503558493932,-1.1522236924345974,10.0,0.0,22.033816391134177,22.42387985672234,327.3733367887216,342.18023243522015,0.0
0.105,8.417143241626121,-1.4252658311575725,10.0,0.0,22.218079742195986,22.543238109434043,344.4273524540253,342.18023243522015,0.0
0.106,8.388903831803825,-1.6838059867683917,4.608116791026514,0.0,22.421561579152737,22.079007130640996,346.21482882104465,342.18023243522015,0.0
0.107,8.029183983700486,-1.826829685369795,3.6740326436586006,0.0,22.57141933982456,21.672003798495332,353.8318153239291,342.18023243522015,0.0
0.108,7.590340009071912,-1.9217678258227764,-0.2509764366707179,0.0,22.674603949678446,20.942952056996994,360.0863032557295,342.18023243522015,0.0
0.109,6.9547392492917695,-1.9400064512308224,-3.557281110776003,0.0,22.695621791787456,20.0382081711151,361.2941702417712,342.18023243522015,0.0
0.11,6.186701083113089,-1.867398940045349,-4.352353981862374,0.0,22.615894248612907,19.249773679635716,362.51552121261415,342.18023243522015,0.0
0.111,5.448717801794632,-1.7884928997132672,-5.166382355057781,0.0,22.457342421283197,18.52411526992942,362.0397676127214,342.18023243522015,0.0
0.112,4.77492619055566,-1.7101593457267847,-5.127100906886416,0.0,22.234252305180622,17.934366005914693,360.3332272261978,342.18023243522015,0.0
0.113,4.213384837571724,-1.6477361813007187,-4.455360661534386,0.0,21.968413061739845,17.50981290191404,358.01990393357113,342.18023243522015,0.0
0.114,3.7928546287918143,-1.609686751916686,-3.4570957302045713,0.0,21.68314122665509,17.24486583339808,355.51089951708275,342.18023243522015,0.0
0.115,3.515277198956717,-1.597351174388124,-2.3359001927790066,0.0,21.39892544899292,17.117563363222818,352.4902075979077,342.18023243522015,0.0
0.116,3.364867850117281,-1.607181903777942,-0.9286539848183715,0.0,21.1316057380876,17.131923943874263,349.0852625317714,342.18023243522015,0.0
0.117,3.3357929007407177,-1.6360267124769565,0.7047682472842904,0.0,20.89552867800095,17.28541462976474,345.7374528624905,342.18023243522015,0.0
0.11800000000000001,3.421833573105805,-1.6810441470113253,2.3431008776520263,0.0,20.703071862223805,17.554075684623008,341.83951065386117,342.18023243522015,0.0
0.11900000000000001,3.6081219060532193,-1.7322470783443518,4.2954791997802815,0.0,20.561908981611488,17.9553719316476,339.83191754767245,342.18023243522015,0.0
0.12,3.9021678854140216,-1.7800783988314022,5.322758901750119,0.0,20.47974142970311,18.365417075503693,342.2323293632212,342.18023243522015,0.0
0.121,4.230338293168946,-1.8176365022608971,4.122032024695733,0.0,20.450448225543557,18.550729911228224,337.9694252461744,342.18023243522015,0.0
0.122,4.449788453985655,-1.8027314940109258,6.295592155109585,0.0,20.440600493430615,18.94482321246812,328.17380708282855,342.18023243522015,0.0
0.123,4.771732683054506,-1.75535934660381,10.0,0.0,20.466084978520673,19.65105230841713,333.6364293083939,342.18023243522015,0.0
0.124,5.279691573670505,-1.7663672641549497,8.660923098985904,0.0,20.561328517101323,20.052208370042724,331.60471036998064,342.18023243522015,0.0
0.125,5.678006790343531,-1.7562861285762241,9.782537788844916,0.0,20.6859443038973,20.520806479330574,321.938953333971,342.18023243522015,0.0
0.126,6.1277950473371305,-1.6645573293622082,10.0,0.0,20.834968966384707,20.92221749659516,325.438927364945,342.18023243522015,0.0
0.127,6.534603065841627,-1.5834217883818917,10.0,0.0,21.00122464283413,21.2559642568049,314.9571608857171,342.18023243522015,0.0
0.128,6.930208633070889,-1.4468749345771603,10.0,0.0,21.170020629150887,21.533513376428445,315.54205133269693,342.18023243522015,0.0
0.129,7.292207943009643,-1.305458366796619,10.0,0.0,21.33550157488049,21.764323314300334,306.4546374985379,342.18023243522015,0.0
0.13,7.658817530447811,-1.1146666893792023,10.0,0.0,21.48794250098622,21.951893291439188,300.04335895063224,342.18023243522015,0.0
0.131,7.982615639076171,-0.967707482258318,10.0,0.0,21.62963873618614,22.103998667399992,306.44259333298356,342.18023243522015,0.0
0.132,8.275903804875131,-0.857689934835745,10.0,0.0,21.761743547316875,22.226039412133105,313.43195817367337,342.18023243522015,0.0
0.133,8.396426274838952,-0.9973486882481235,10.0,0.0,21.90930459015743,22.33876197346795,321.02428919709905,342.18023243522015,0.0
0.134,8.416666202743418,-1.255255228958387,10.0,0.0,22.080354916791425,22.45394721558351,336.5054300851538,342.18023243522015,0.0
0.135,8.418794259114769,-1.4935809727940987,8.256939446472192,0.0,22.2694555013884,22.382950618341045,340.8104368113079,342.18023243522015,0.0
0.136,8.26988874699231,-1.7364488972029553,6.118134039634269,0.0,22.456878582048045,22.136526636962827,352.4516295155334,342.18023243522015,0.0
0.137,7.996712885383998,-1.8846218115127296,0.19482371671839172,0.0,22.61478729783389,21.33187156999171,356.51300775572264,342.18023243522015,0.0
0.138,7.363103757490483,-1.9279914297289134,-1.9791931565812542,0.0,22.679728564204737,20.510529373914693,358.3334554381147,342.18023243522015,0.0
0.139,6.638374433092732,-1.8740519205405275,-3.0509492278062282,0.0,22.64967444213789,19.75504665938553,361.7613891406765,342.18023243522015,0.0
0.14,5.91652464681185,-1.8239920690508722,-4.960727646141693,0.0,22.54211027225285,18.944904922044866,361.7681989359061,342.18023243522015,0.0
0.14100000000000001,5.192979936381886,-1.744847577312376,-5.1600122087633675,0.0,22.356083050045896,18.27456884402922,360.76241236817583,342.18023243522015,0.0
0.14200000000000002,4.561351641030269,-1.6742391100493257,-4.842940724227775,0.0,22.114649455776533,17.751778025903956,358.92983748978344,342.18023243522015,0.0
0.14300000000000002,4.054891279695455,-1.6257274153476793,-4.094149335577212,0.0,21.840449937377034,17.3857136248638,356.6059178963069,342.18023243522015,0.0
