timestamp,iq,id,iq_ref,id_ref,vq,vd,omega,omega_ref,r
0.0,0.0,0.0,0.0,0.0,0.0,0.0,0.0,193.9480449426308,0.0
0.001,0.0,0.0,10.0,0.0,0.0,1.0999999999999999,6.115472199294103,193.9480449426308,0.0
0.002,0.5307369851907212,-0.2913212625381807,10.0,0.0,0.14204533887919985,1.9316189316290207,13.317801563642547,193.9480449426308,0.0
0.003,1.0842913387634832,-0.6024330830807904,10.0,0.0,0.384357124667687,2.6386968949419622,20.697939467553027,193.9480449426308,0.0
0.004,1.5590443546685477,-0.8700465084428163,10.0,0.0,0.6994718867930164,3.2526109522886295,28.232747544420146,193.9480449426308,0.0
0.005,1.9399447555359186,-1.0838738622210777,10.0,0.0,1.065311453102468,3.7994935661768023,35.92944872443006,193.9480449426308,0.0
0.006,2.239750732602683,-1.2510087368845633,10.0,0.0,1.4655018868449925,4.299102221838433,43.75633668444442,193.9480449426308,0.0
0.007,2.4770151619816017,-1.382020589851471,10.0,0.0,1.8883740978591532,4.765668027847139,51.58766747378032,193.9480449426308,0.0
0.008,2.6680767290418097,-1.4872241871505252,10.0,0.0,2.325877945545995,5.209220346273558,59.45942083902103,193.9480449426308,0.0
0.009000000000000001,2.8266491704841292,-1.5730794701170803,10.0,0.0,2.772378685460125,5.636635464737965,67.35059094018146,193.9480449426308,0.0
0.01,2.962077666392183,-1.645500646948331,10.0,0.0,3.224078639851053,6.052647735211881,75.20908322432116,193.9480449426308,0.0
0.011,3.0811061533574158,-1.7084279320504514,10.0,0.0,3.678407615443203,6.460489925470405,83.0265951655913,193.9480449426308,0.0
0.012,3.188848746459569,-1.7638278597420747,10.0,0.0,4.133552631697047,6.862319393890706,90.74118064793086,193.9480449426308,0.0
0.013000000000000001,3.288205119878689,-1.8140726097274587,10.0,0.0,4.588339016389012,7.259628641949282,98.35820682563939,193.9480449426308,0.0
0.014,3.3820602099432007,-1.8592355758795645,10.0,0.0,5.041843166194517,7.653355107498287,105.90865295623543,193.9480449426308,0.0
0.015,3.4721069852858886,-1.899829032412081,10.0,0.0,5.493383198131427,8.044092747085895,113.37727610343421,193.9480449426308,0.0
0.016,3.5596145800153947,-1.9360338400176071,10.0,0.0,5.94241958510469,8.43218525824161,120.68508583176356,193.9480449426308,0.0
0.017,3.645144415105338,-1.9685384477868613,10.0,0.0,6.388575043274759,8.817838951066484,127.83962377537456,193.9480449426308,0.0
0.018000000000000002,3.730251927866576,-1.9959253041084188,10.0,0.0,6.83136783302799,9.201036292373047,134.85405702603322,193.9480449426308,0.0
0.019,3.81544967906247,-2.018253592643655,10.0,0.0,7.270383321112213,9.581672501020332,141.68976328564074,193.9480449426308,0.0
0.02,3.9014648862453374,-2.0350875541282063,10.0,0.0,7.705189334130692,9.959536942333155,148.3432823300447,193.9480449426308,0.0
0.021,3.9891051824829464,-2.0457889559126508,10.0,0.0,8.135310004560049,10.334315260302239,154.92060212100432,193.9480449426308,0.0
0.022,4.079618141396171,-2.0489696811670974,10.0,0.0,8.560139305503519,10.705547790999272,161.01925282597162,193.9480449426308,0.0
0.023,4.171109372430197,-2.048468292080302,10.0,0.0,8.979521969370257,11.072981092896333,166.534238406907,193.9480449426308,0.0
0.024,4.266936196769627,-2.039517194249811,10.0,0.0,9.392730090169543,11.435983292623375,171.8647834235234,193.9480449426308,0.0
0.025,4.367255527950721,-2.0225841458509217,10.0,0.0,9.79914449451603,11.793929226271104,177.02637022703064,193.9480449426308,0.0
0.026000000000000002,4.4734353073349595,-1.9962166741499119,10.0,0.0,10.197980960389518,12.146045424568259,181.63161391243256,193.9480449426308,0.0
0.027,4.582366840795821,-1.966358349113627,9.985520398713383,0.0,10.589124658468391,12.490320222594667,185.73834852366988,193.9480449426308,0.0
0.028,4.699307067223154,-1.9236378612885066,8.014250057284329,0.0,10.971180796131616,12.610812859509593,188.56917864087774,193.9480449426308,0.0
0.029,4.716764351669429,-1.8233960889889678,6.652623661697932,0.0,11.316481193645318,12.626644747374318,188.7554847448378,193.9480449426308,0.0
0.03,4.670181126817841,-1.6680322243475945,6.611396211695838,0.0,11.612747132806565,12.68980345823771,192.37074847814807,193.9480449426308,0.0
0.031,4.6296901075862635,-1.529649672923981,4.819537309685522,0.0,11.87203390712784,12.583568867076732,184.41271624406806,193.9480449426308,0.0
0.032,4.534916688810622,-1.3457186379563446,8.893906713711154,0.0,12.075919956568685,12.99000580179991,191.2303752581665,193.9480449426308,0.0
0.033,4.681852414802364,-1.2858305391030853,5.512253903506577,0.0,12.295312714013583,12.946351480785248,186.24166635498395,193.9480449426308,0.0
0.034,4.697994635319229,-1.163868010624536,8.083672140974322,0.0,12.475583766468418,13.2453681148431,191.23273523466517,193.9480449426308,0.0
0.035,4.850404080616571,-1.1020216399547678,5.615290798213368,0.0,12.662145901594661,13.218670443884728,185.36833263796555,193.9480449426308,0.0
0.036000000000000004,4.8996151173472136,-0.979316721597064,8.63328921960983,0.0,12.814502978799798,13.566073273728644,189.23591861849957,193.9480449426308,0.0
0.037,5.0917309473066785,-0.9532761279559963,6.746617492584134,0.0,12.984727215151867,13.635617023193651,187.3487179273161,193.9480449426308,0.0
0.038,5.227084450799797,-0.8488594621317931,7.756211108329014,0.0,13.133657975510985,13.832183109264916,183.874296328013,193.9480449426308,0.0
0.039,5.379119034134155,-0.8064715446301518,9.594159394126741,0.0,13.283733764174379,14.200693768913414,188.5435481642754,193.9480449426308,0.0
0.04,5.646502699117929,-0.7923902046014528,7.3135784437791,0.0,13.454527971708142,14.25022569675231,193.08890987182158,193.9480449426308,0.0
0.041,5.731238637707063,-0.8186898801176397,5.049488940714097,0.0,13.61622972897948,14.078992700132053,193.30532499653077,193.9480449426308,0.0
0.042,5.6223521559430285,-0.840905432819504,4.947708577820503,0.0,13.746818724903711,13.965323106393253,200.7724401649834,193.9480449426308,0.0
0.043000000000000003,5.488885928404215,-0.8609380667654123,1.1459070413706591,0.0,13.854963296068663,13.472491426451832,198.67176376617869,193.9480449426308,0.0
0.044,5.168058392831553,-0.7847014488681383,2.1490080525375417,0.0,13.894423887814822,13.222072864851507,201.63256215606273,193.9480449426308,0.0
0.045,4.893707670047336,-0.7760781159602184,0.5917636854611983,0.0,13.904710363785432,12.846284632246302,202.0878895921341,193.9480449426308,0.0
0.046,4.6011598576877955,-0.7287055399836053,0.2827015209304795,0.0,13.871264618870114,12.520116228202774,202.93847431855838,193.9480449426308,0.0
0.047,4.314411948737439,-0.7210285098365279,-0.2324951360409333,0.0,13.808175860485562,12.19825587131146,203.11914285238484,193.9480449426308,0.0
0.048,4.052662343431473,-0.7050097893049712,-0.4145403820517046,0.0,13.717524653293335,11.913324641273508,203.90755163462526,193.9480449426308,0.0
0.049,3.8125824454196175,-0.7155388381370311,-0.9083398400918616,0.0,13.608763826393378,11.619115218324056,203.669169178344,193.9480449426308,0.0
0.05,3.5856363960736797,-0.7214432170627367,-0.8863598543083575,0.0,13.482002331081976,11.373369714444078,203.8081792989732,193.9480449426308,0.0
0.051000000000000004,3.3871322010484786,-0.7428192645124927,-1.054466258186379,0.0,13.345634756343932,11.140377108095853,203.59045768264403,193.9480449426308,0.0
0.052000000000000005,3.2080875718097692,-0.7682065257239157,-1.0420295774219328,0.0,13.202183516703627,10.937805971097523,203.32781122464837,193.9480449426308,0.0
0.053,3.0518497890747733,-0.799995132483913,-1.00450401124428,0.0,13.056063161459006,10.760545979115353,202.9752435390795,193.9480449426308,0.0
0.054,2.916679509101227,-0.8362146692289636,-0.9184921544243241,0.0,12.910495105514991,10.6087923523651,202.5763607160857,193.9480449426308,0.0
0.055,2.801378113561507,-0.8756965182248799,-0.8053339006619811,0.0,12.76828930051245,10.480576022750762,202.14280001396475,193.9480449426308,0.0
0.056,2.7040116731763155,-0.9170852065887101,-0.670501100314842,0.0,12.63164038027879,10.374218065585136,201.75883801991182,193.9480449426308,0.0
0.057,2.622903975964344,-0.9587388686973758,-0.5566280340611902,0.0,12.502188572300252,10.283956903686605,201.36051853786597,193.9480449426308,0.0
0.058,2.5540834969188713,-0.9989617347896651,-0.43159302899061736,0.0,12.380663807578774,10.20915097279818,200.92054127355593,193.9480449426308,0.0
0.059000000000000004,2.4961984184611494,-1.036216106228657,-0.2813293601448459,0.0,12.267506678437972,10.150630965888675,200.51779644014152,193.9480449426308,0.0
0.06,2.4495449996513896,-1.069613557936199,-0.1456544584127517,0.0,12.163114437493737,10.104621874542609,200.25460581333863,193.9480449426308,0.0
0.061,2.4119883327796985,-1.0987882698239542,-0.07712475371838279,0.0,12.067435755299899,10.062620685903578,199.70954548880997,193.9480449426308,0.0
0.062,2.378025551611585,-1.123047993300126,0.13779040308415702,0.0,11.979501644925042,10.041567457370173,198.99860365969906,193.9480449426308,0.0
0.063,2.3550945662841754,-1.1453210750189067,0.442755730468928,0.0,11.900463064488632,10.047405955671255,198.24792986749154,193.9480449426308,0.0
0.064,2.3482765142847617,-1.1687045808343661,0.7750937773240811,0.0,11.832261646748485,10.07878495384547,197.26020680154454,193.9480449426308,0.0
0.065,2.3604275713503364,-1.1902326145494107,1.2358336917084412,0.0,11.776152519250273,10.14615912374477,196.69980732460587,193.9480449426308,0.0
0.066,2.396527374997827,-1.2127545588483453,1.4885158063580248,0.0,11.734653855027547,10.22052312954136,196.04745334551416,193.9480449426308,0.0
0.067,2.442680862791713,-1.2317690948666502,1.7936987118750483,0.0,11.706607837325778,10.309628281175545,197.66403383171973,193.9480449426308,0.0
0.068,2.4994812275927787,-1.2453369074243903,0.9482485798813696,0.0,11.691579250578771,10.285180467051479,197.8734959513523,193.9480449426308,0.0
0.069,2.4952019093902917,-1.2390655614633184,0.8042630099778663,0.0,11.67478321491276,10.255329392945955,194.59684235492915,193.9480449426308,0.0
0.07,2.47945123150998,-1.204781130754295,2.4361018340664624,0.0,11.652973101484418,10.409415730417974,192.84332021592527,193.9480449426308,0.0
0.07100000000000001,2.5556391831651752,-1.1978516408176034,3.3239101508354563,0.0,11.64833323356017,10.61871476794278,195.56290751493898,193.9480449426308,0.0
0.07200000000000001,2.6841623679556843,-1.2186778981080706,1.947967875605519,0.0,11.667447439382139,10.6330125106693,195.97817435648687,193.9480449426308,0.0
0.073,2.726256655507465,-1.2091314099533301,1.720033160693013,0.0,11.684821622624643,10.633133364034496,191.4335361359454,193.9480449426308,0.0
0.074,2.746860785879497,-1.1614415256931416,4.01749735903061,0.0,11.695320050492338,10.888134447888277,191.8773449874306,193.9480449426308,0.0
0.075,2.891070335306605,-1.1543816512735625,3.8162999328400047,0.0,11.72996905661509,11.057921898145842,195.08344643448066,193.9480449426308,0.0
0.076,3.020426679949134,-1.1609388847432562,2.201895194396476,0.0,11.778923801577193,11.025835854606648,190.09228074751474,193.9480449426308,0.0
0.077,3.0501490341051625,-1.114138290813023,4.736035679830601,0.0,11.814560830022138,11.294777495189026,189.93997267567408,193.9480449426308,0.0
0.078,3.2126795516915974,-1.0927551422906874,4.8522704384204935,0.0,11.871644179282674,11.51025195975526,192.91821481521987,193.9480449426308,0.0
0.079,3.3707524719984474,-1.1028037171253047,3.37344766992171,0.0,11.945885814790804,11.53029174461227,187.69817909678036,193.9480449426308,0.0
0.08,3.445317830173949,-1.05164213083386,6.045964187599967,0.0,12.008979004993426,11.857895298967753,190.61835447274456,193.9480449426308,0.0
0.081,3.6491062033417903,-1.044229246357653,4.619173404316733,0.0,12.098219430181864,11.953704598103304,188.55167997235583,193.9480449426308,0.0
0.082,3.765041843109512,-1.024035373320577,5.706474304213847,0.0,12.185969545575693,12.17201298002289,187.98570770389432,193.9480449426308,0.0
0.083,3.9425932138144586,-0.9779861521060623,6.049083810831966,0.0,12.281912012018875,12.385708277639052,188.82764324933277,193.9480449426308,0.0
0.084,4.107873973916209,-0.9744589004138708,5.679320055045723,0.0,12.389702256105357,12.527122814031104,185.87831885196243,193.9480449426308,0.0
0.085,4.268005863235689,-0.9115092938696543,7.234679514637573,0.0,12.493965745219453,12.824000399081443,187.51535173939178,193.9480449426308,0.0
0.08600000000000001,4.4728555925758045,-0.918415146765615,6.4804900029552925,0.0,12.618879783811174,12.98216998232297,186.3861546698077,193.9480449426308,0.0
0.08700000000000001,4.657969179600057,-0.8598622547046504,7.120707440475563,0.0,12.740609500212205,13.196665827064297,184.34978379906033,193.9480449426308,0.0
0.088,4.8338375276369945,-0.8469428024656636,8.234875487284949,0.0,12.870780218621592,13.500546987331607,187.23991032218,193.9480449426308,0.0
0.089,5.081933254049339,-0.8200364310942752,6.856893571929619,0.0,13.015491474888304,13.598805565830954,182.70144605489247,193.9480449426308,0.0
0.09,5.2451687728537655,-0.7539442298563416,9.23859169445077,0.0,13.148556384955823,13.962001074933557,184.03479420226594,193.9480449426308,0.0
0.091,5.500847779616006,-0.760567379690483,8.671050128167684,0.0,13.306023823420984,14.189444635060498,192.16180392009184,193.9480449426308,0.0
0.092,5.682758490830121,-0.8211546530931305,4.625407679480123,0.0,13.477087242628278,13.953091941162535,191.49191442538637,193.9480449426308,0.0
0.093,5.587880609000939,-0.81597296369767,4.984913732005303,0.0,13.606233191957516,13.84973862295309,196.15385022779742,193.9480449426308,0.0
0.094,5.451079901894089,-0.8520386015905694,2.631887777948112,0.0,13.71614825159506,13.52130661498943,198.95367481114485,193.9480449426308,0.0
0.095,5.219870855472605,-0.8027962725632507,1.1819191875892567,0.0,13.77645129190055,13.124808016422287,198.27392062937338,193.9480449426308,0.0
0.096,4.900255479710131,-0.7667535388172684,1.4785375216075662,0.0,13.787601890896989,12.853962885257664,199.98467348167577,193.9480449426308,0.0
0.097,4.639671410779057,-0.7399229093759055,0.5627948100659212,0.0,13.767961974976233,12.533087539324178,201.6728007946688,193.9480449426308,0.0
0.098,4.366872992663161,-0.7337891605709446,-0.35851640495097525,0.0,13.717792109980076,12.177550915158958,201.43559667507736,193.9480449426308,0.0
0.099,4.090418531227877,-0.7085207787156227,-0.3147898624797216,0.0,13.634367384550972,11.894256005309375,202.3184829746291,193.9480449426308,0.0
0.1,3.844817878881602,-0.7141190010308823,-0.8399373925755689,0.0,13.531824128953051,11.596996147310316,202.0799540838297,193.9480449426308,0.0
0.101,3.6135262654777103,-0.7161025760284131,-0.8019920385878647,0.0,13.409971424141593,11.351619484741953,202.28018802237938,193.9480449426308,0.0
0.10200000000000001,3.4128199244399338,-0.735649412815147,-0.9854304386601873,0.0,13.277896639851011,11.11780232178156,202.11160411020472,193.9480449426308,0.0
0.10300000000000001,3.232170802785185,-0.7594414685038483,-0.9827740742485997,0.0,13.13806927545134,10.914150320745788,201.90199715481236,193.9480449426308,0.0
0.10400000000000001,3.074345569177794,-0.7902551944980933,-0.9575101186742359,0.0,12.995011036690533,10.735187539322958,201.5872158905181,193.9480449426308,0.0
0.105,2.937444993595624,-0.8256773196425029,-0.8765111960059819,0.0,12.851950640169472,10.58195326508206,201.22947663924342,193.9480449426308,0.0
0.106,2.8205269058383404,-0.8647312120264727,-0.7704558873347609,0.0,12.711814562787215,10.452084457237776,200.83638653149043,193.9480449426308,0.0
0.107,2.72153763979616,-0.9059800024529961,-0.6427942493468661,0.0,12.576852040381837,10.343890787918715,200.49314198290023,193.9480449426308,0.0
0.108,2.638728817648274,-0.9477371336613548,-0.5366229454544573,0.0,12.448747199813745,10.25154153811516,200.13227496019417,193.9480449426308,0.0
0.109,2.5680473405960895,-0.9882662759229679,-0.418031734277061,0.0,12.328258552658799,10.174546923679998,199.72491083443208,193.9480449426308,0.0
0.11,2.50815317296219,-1.0260757267801206,-0.2721183303140311,0.0,12.215873056947503,10.113949011966225,199.36157511109582,193.9480449426308,0.0
0.111,2.4595395790527816,-1.0601426150676718,-0.14458577033054976,0.0,12.11203558283902,10.06549034306495,199.08566262459632,193.9480449426308,0.0
0.112,2.4195219658365676,-1.0905670559211704,-0.05800570390045845,0.0,12.016742008862263,10.023658076865118,198.68278038049874,193.9480449426308,0.0
0.113,2.384901365227957,-1.1156824141373916,0.09608806376965351,0.0,11.929253010658448,9.995972283601791,198.00550172832553,193.9480449426308,0.0
0.114,2.357852488741153,-1.138219117111255,0.39415282199931356,0.0,11.849972216693645,9.996181525980434,197.31722256973083,193.9480449426308,0.0
0.115,2.3466965503811354,-1.1612670787258437,0.7046006250256611,0.0,11.780950335111058,10.020567039930073,196.4160693338235,193.9480449426308,0.0
0.116,2.35303356836656,-1.183420134256139,1.130496999067406,0.0,11.723475549573877,10.078547306078821,195.73040746177048,193.9480449426308,0.0
0.117,2.382223215290944,-1.2055480455793262,1.4555043099025111,0.0,11.679758808895535,10.153326416528591,195.24933235015286,193.9480449426308,0.0
0.11800000000000001,2.4260334797390364,-1.2262357468551093,1.6830289916361045,0.0,11.649946021357106,10.233506351127845,196.37759879657082,193.9480449426308,0.0
0.11900000000000001,2.47785274496083,-1.2391473358997482,1.0946002298877202,0.0,11.632345903814606,10.23042258637376,197.32047509174654,193.9480449426308,0.0
0.12,2.4824639661893686,-1.2387344189796763,0.5894377808087019,0.0,11.616022884799285,10.176214562876702,194.03175032362998,193.9480449426308,0.0
0.121,2.4558384955548784,-1.203982567994137,2.2329631110569927,0.0,11.592092790896587,10.314609364627998,191.98838160878395,193.9480449426308,0.0
0.122,2.5192984737926136,-1.1960384277635976,3.274244101818474,0.0,11.583868849643785,10.527630480182681,194.32904222989296,193.9480449426308,0.0
0.123,2.6463451413006354,-1.21690334167194,2.1001038183913474,0.0,11.60014399600395,10.56561831532851,195.6229799826678,193.9480449426308,0.0
0.124,2.7001410453672765,-1.2127619714422035,1.4363855916035586,0.0,11.617926211378327,10.53552019671114,191.13217578984361,193.9480449426308,0.0
0.125,2.7065009886985463,-1.165027443689352,3.709946379543523,0.0,11.625711009003018,10.76677734570844,190.3537097949317,193.9480449426308,0.0
0.126,2.83444460266486,-1.1523576922806122,4.135122728476476,0.0,11.654926714387532,10.985710851968728,193.55801929964332,193.9480449426308,0.0
0.127,2.982253006341966,-1.1697746553135686,2.5368682325505363,0.0,11.705156763307336,10.990633331835436,190.4717148762743,193.9480449426308,0.0
0.128,3.033076218049439,-1.1392592981169205,4.114783744898616,0.0,11.747325196399872,11.185527350673949,188.2557788439199,193.9480449426308,0.0
0.129,3.164475736947769,-1.1055405668001264,5.279674422062921,0.0,11.801362281194127,11.463561915340717,192.1992811532178,193.9480449426308,0.0
0.13,3.3428486570795517,-1.1236919899024793,3.325410905308094,0.0,11.880132957830057,11.474271812380046,188.10883677004009,193.9480449426308,0.0
0.131,3.413156274880501,-1.0802047952362985,5.429025178622863,0.0,11.947132450862021,11.736777883854419,189.42938528449582,193.9480449426308,0.0
0.132,3.5866338139605425,-1.051294929077234,4.8139375179763455,0.0,12.030937388407397,11.872658058959496,189.80799384425953,193.9480449426308,0.0
0.133,3.7084688378234953,-1.037815005456318,4.6660337490782045,0.0,12.118756156772024,11.981545095102145,185.24132545266107,193.9480449426308,0.0
0.134,3.8318409030147116,-0.9717299812341138,7.036435139777129,0.0,12.201547198486224,12.33819591820045,189.86565829584592,193.9480449426308,0.0
0.135,4.053653332763976,-0.9889937534890278,4.765092584652555,0.0,12.314284083529103,12.370743421569152,184.42037886785775,193.9480449426308,0.0
0.136,4.168415917428063,-0.9242818872140941,7.58300895939437,0.0,12.411711087391769,12.733588329862553,188.75301118691658,193.9480449426308,0.0
0.137,4.399703341947681,-0.929874135569565,5.468643137422097,0.0,12.536942147679358,12.784838052697998,183.62843662455734,193.9480449426308,0.0
0.138,4.5319348772926995,-0.860128850845371,8.134126501782452,0.0,12.647047170418519,13.145600142935262,186.7692193774457,193.9480449426308,0.0
