timestamp,iq,id,iq_ref,id_ref,vq,vd,omega,omega_ref,r
0.0,0.0,0.0,0.0,0.0,0.0,0.0,0.0,154.74658607857666,0.0
0.001,0.0,0.0,10.0,0.0,0.0,1.0999999999999999,6.115472199294103,154.74658607857666,0.0
0.002,0.5307369851907212,-0.2913212625381807,10.0,0.0,0.14204533887919985,1.9316189316290207,13.317801563642547,154.74658607857666,0.0
0.003,1.0842913387634832,-0.6024330830807904,10.0,0.0,0.384357124667687,2.6386968949419622,20.697939467553027,154.74658607857666,0.0
0.004,1.5590443546685477,-0.8700465084428163,10.0,0.0,0.6994718867930164,3.2526109522886295,28.232747544420146,154.74658607857666,0.0
0.005,1.9399447555359186,-1.0838738622210777,10.0,0.0,1.065311453102468,3.7994935661768023,35.92944872443006,154.74658607857666,0.0
0.006,2.239750732602683,-1.2510087368845633,10.0,0.0,1.4655018868449925,4.299102221838433,43.75633668444442,154.74658607857666,0.0
0.007,2.4770151619816017,-1.382020589851471,10.0,0.0,1.8883740978591532,4.765668027847139,51.58766747378032,154.74658607857666,0.0
0.008,2.6680767290418097,-1.4872241871505252,10.0,0.0,2.325877945545995,5.209220346273558,59.45942083902103,154.74658607857666,0.0
0.009000000000000001,2.8266491704841292,-1.5730794701170803,10.0,0.0,2.772378685460125,5.636635464737965,67.35059094018146,154.74658607857666,0.0
0.01,2.962077666392183,-1.645500646948331,10.0,0.0,3.224078639851053,6.052647735211881,75.20908322432116,154.74658607857666,0.0
0.011,3.0811061533574158,-1.7084279320504514,10.0,0.0,3.678407615443203,6.460489925470405,83.0265951655913,154.74658607857666,0.0
0.012,3.188848746459569,-1.7638278597420747,10.0,0.0,4.133552631697047,6.862319393890706,90.74118064793086,154.74658607857666,0.0
0.013000000000000001,3.288205119878689,-1.8140726097274587,10.0,0.0,4.588339016389012,7.259628641949282,98.35820682563939,154.74658607857666,0.0
0.014,3.3820602099432007,-1.8592355758795645,10.0,0.0,5.041843166194517,7.653355107498287,105.90865295623543,154.74658607857666,0.0
0.015,3.4721069852858886,-1.899829032412081,10.0,0.0,5.493383198131427,8.044092747085895,113.37727610343421,154.74658607857666,0.0
0.016,3.5596145800153947,-1.9360338400176071,10.0,0.0,5.94241958510469,8.43218525824161,120.68508583176356,154.74658607857666,0.0
0.017,3.645144415105338,-1.9685384477868613,10.0,0.0,6.388575043274759,8.817838951066484,127.83962377537456,154.74658607857666,0.0
0.018000000000000002,3.730251927866576,-1.9959253041084188,10.0,0.0,6.83136783302799,9.201036292373047,134.85405702603322,154.74658607857666,0.0
0.019,3.81544967906247,-2.018253592643655,10.0,0.0,7.270383321112213,9.581672501020332,141.68976328564074,154.74658607857666,0.0
0.02,3.9014648862453374,-2.0350875541282063,9.582240694801225,0.0,7.70518933413069,9.913583418761293,148.23415564213406,154.74658607857666,0.0
0.021,3.9683413160315544,-2.0322096351389813,6.375168820918994,0.0,8.129220926917759,9.900687277750292,152.226754594836,154.74658607857666,0.0
0.022,3.8674111406782976,-1.9346940237472032,4.40406765940543,0.0,8.498861808261815,9.758504584678148,154.83461522068072,154.74658607857666,0.0
0.023,3.6689792651738653,-1.762653251483335,3.0992570550620284,0.0,8.799371003329144,9.564504298736942,154.7897106958745,154.74658607857666,0.0
0.024,3.4176718659494925,-1.5836313494611916,3.121278071292157,0.0,9.03245724879582,9.461084873884973,151.9837215810533,154.74658607857666,0.0
0.025,3.227941287807461,-1.4082606869603604,4.5519012736779985,0.0,9.214392373375759,9.56682164776839,156.3318116763317,154.74658607857666,0.0
0.026000000000000002,3.171680785142332,-1.3033479400149428,2.362003970061237,0.0,9.378920967347067,9.429274670811504,156.27121795627264,154.74658607857666,0.0
0.027,3.041816445641613,-1.1878745104029198,2.3770545113138146,0.0,9.501589054437682,9.359212255839811,151.56051351430972,154.74658607857666,0.0
0.028,2.9513302469399143,-1.0591397674845566,4.764267457937943,0.0,9.591978003897168,9.579520648252661,156.5110889884974,154.74658607857666,0.0
0.029,3.016908064568331,-1.0161148795077852,2.271334691744899,0.0,9.691913507403726,9.48062394069655,153.49924488006286,154.74658607857666,0.0
0.03,2.97348839728751,-0.9445182106660371,3.789730157947302,0.0,9.764520405111195,9.59899522476808,153.27699889679675,154.74658607857666,0.0
0.031,3.029068420984811,-0.8793377374114928,3.9155490213981543,0.0,9.835249856085486,9.704898191241261,154.97977746500223,154.74658607857666,0.0
0.032,3.0902797769644916,-0.8576424269806595,3.0618278234311616,0.0,9.907761979194822,9.705938836832884,150.82758486562906,154.74658607857666,0.0
0.033,3.125555677749455,-0.7916884436740284,5.17711413524722,0.0,9.966088969492963,9.952077100929165,154.60605877536085,154.74658607857666,0.0
0.034,3.2630149290044415,-0.791203567415935,3.2892824534134846,0.0,10.043803290615596,9.93585213089556,150.01683192708293,154.74658607857666,0.0
0.035,3.3129510932120576,-0.7393706390413544,5.6311934190673805,0.0,10.106426909263982,10.201391227467562,153.8714619629889,154.74658607857666,0.0
0.036000000000000004,3.4710206627923466,-0.7426524012978921,3.7126296422702803,0.0,10.190221398836693,10.19528936013122,149.17613669327133,154.74658607857666,0.0
0.037,3.536937500893659,-0.6908345024166835,6.115996770982112,0.0,10.259293466219003,10.476062993916717,152.90785436504189,154.74658607857666,0.0
0.038,3.7064629365397046,-0.703085120084884,4.268525252232183,0.0,10.351401437173944,10.490422303172233,149.56901149151452,154.74658607857666,0.0
0.039,3.794399730318344,-0.6472728046180889,5.989722434866489,0.0,10.429472681080911,10.712385090915774,150.68807585020838,154.74658607857666,0.0
0.04,3.9397615176730856,-0.6509680215960609,5.470775357803241,0.0,10.522897676393788,10.830552145301127,151.6474227400816,154.74658607857666,0.0
0.041,4.075474464597871,-0.6123380617628957,5.022093546251583,0.0,10.614510629862478,10.888604658990996,146.90707675463466,154.74658607857666,0.0
0.042,4.164024615729275,-0.5717995246852625,7.470661632214471,0.0,10.698694599873077,11.215459137074975,150.28270381439734,154.74658607857666,0.0
0.043000000000000003,4.371840008134755,-0.5949000368620541,5.8274869249749255,0.0,10.810092062401242,11.290837474042359,153.06474399384217,154.74658607857666,0.0
0.044,4.49150631552633,-0.582469875462909,4.4532852560998535,0.0,10.916289289497655,11.224002147172932,152.0617413305806,154.74658607857666,0.0
0.045,4.468204229037935,-0.5942159299000518,4.981635035210605,0.0,11.006599628799558,11.250090460678658,157.15887644829974,154.74658607857666,0.0
0.046,4.441779932076098,-0.6399154091880854,2.408944572653801,0.0,11.095397247699157,10.996995179892572,158.08133341299268,154.74658607857666,0.0
0.047,4.292677251813206,-0.6027732596194737,1.91436861696317,0.0,11.145462945384757,10.765549790433948,157.59536361604893,154.74658607857666,0.0
0.048,4.097373209257298,-0.5825411602201898,2.1288657400603217,0.0,11.165523424917703,10.610788370665862,161.48183010121141,154.74658607857666,0.0
0.049,3.943826002351569,-0.5669703237638133,0.11828005725273094,0.0,11.166591243504339,10.265136896822144,158.95975760948073,154.74658607857666,0.0
0.05,3.7043893990640075,-0.528242343871759,1.3371845878090318,0.0,11.128882763424375,10.133145261703305,161.9836333133019,154.74658607857666,0.0
0.051000000000000004,3.549718295347884,-0.5349637905224947,-0.2471237364488088,0.0,11.082872606771025,9.838738436490326,159.82839955767471,154.74658607857666,0.0
0.052000000000000005,3.353152384120726,-0.5081878081211042,0.7796750065738074,0.0,11.00901021073105,9.718037762306201,160.94000666059895,154.74658607857666,0.0
0.053,3.223205516237498,-0.531972580617665,0.1619372492914648,0.0,10.933348071675296,9.536130271560088,160.50854241022105,154.74658607857666,0.0
0.054,3.0962525698691596,-0.5417198528394189,0.3200498111639707,0.0,10.847895749669938,9.4010824307835,161.01238083141806,154.74658607857666,0.0
0.055,2.9866320008997396,-0.5726431800278817,0.005472653037055242,0.0,10.760787969055967,9.245598261994301,160.64404129483134,154.74658607857666,0.0
0.056,2.87951450384619,-0.5930449679964966,0.13066786916786732,0.0,10.668777513029132,9.124555696364476,160.94360961091692,154.74658607857666,0.0
0.057,2.7857886557816065,-0.6258193127067673,-0.08108652419832696,0.0,10.577265006080447,8.991110074579934,160.72637176742558,154.74658607857666,0.0
0.058,2.6938270903234445,-0.651385038578904,-0.03226545934114311,0.0,10.484043674047008,8.878524139066679,160.77746971252895,154.74658607857666,0.0
0.059000000000000004,2.6100500282119246,-0.6823503259241955,-0.11812326823235564,0.0,10.392036406014846,8.766237955452485,160.58853389010432,154.74658607857666,0.0
0.06,2.530429529262146,-0.7099748266900253,-0.08207483513531244,0.0,10.300730288635272,8.668724053389449,160.498972388216,154.74658607857666,0.0
0.061,2.458078523746427,-0.7395728680825172,-0.09481794728755011,0.0,10.211782932332865,8.577231108744265,160.31261756124215,154.74658607857666,0.0
0.062,2.3911651368758067,-0.7677024969588925,-0.05730084862727791,0.0,10.125379295958655,8.496883997408125,160.15131414093713,154.74658607857666,0.0
0.063,2.3306571511917107,-0.7959639558769569,-0.030696419098373617,0.0,10.04240877628048,8.424469294386299,159.95630018054456,154.74658607857666,0.0
0.064,2.2757239980659376,-0.8230613924370946,0.014713420078233064,0.0,9.96319194170037,8.361165614699972,159.770342216566,154.74658607857666,0.0
0.065,2.2263844834921573,-0.8492226823574467,0.05745484068761586,0.0,9.888173190135277,8.305396092471389,159.58510598762007,154.74658607857666,0.0
0.066,2.182018765301183,-0.8737696708215141,0.10168775607015146,0.0,9.817517917335682,8.25652668765041,159.43023771807697,154.74658607857666,0.0
0.067,2.1421057516142508,-0.8963313549759346,0.13228537444669852,0.0,9.751277546706293,8.212348879222814,159.40880545823507,154.74658607857666,0.0
0.068,2.1061636544342743,-0.914967740451377,0.09637931057106552,0.0,9.689067817857838,8.165263671917886,159.35802430652961,154.74658607857666,0.0
0.069,2.0689944131211964,-0.92982362495785,0.07565550414426081,0.0,9.629818324604692,8.118474649963046,159.11070963860547,154.74658607857666,0.0
0.07,2.0315669121663547,-0.94038379787586,0.1556716025060445,0.0,9.572827938657293,8.083193922454349,158.70934892544435,154.74658607857666,0.0
0.07100000000000001,1.9988935243450208,-0.9513232444112576,0.31672433061793015,0.0,9.519106255943477,8.065877665861265,158.1679557285619,154.74658607857666,0.0
0.07200000000000001,1.9777450780558268,-0.9623699950877069,0.5532072325592972,0.0,9.470130863950791,8.071323053802141,157.69866212002484,154.74658607857666,0.0
0.073,1.9703621097608732,-0.9782448267507302,0.7583332764133512,0.0,9.428233313927633,8.092126041603745,157.12592855973944,154.74658607857666,0.0
0.074,1.9767683858211316,-0.9925921672679158,1.0209066317444235,0.0,9.394025276827204,8.13271226422117,156.8586014631353,154.74658607857666,0.0
0.075,1.996027050726889,-1.009178917120007,1.133450026200904,0.0,9.368977734777125,8.173518710324682,157.49379158172806,154.74658607857666,0.0
0.076,2.02010967011078,-1.0206199678982995,0.7883829118730099,0.0,9.351608239629492,8.166200439609032,158.72890116337823,154.74658607857666,0.0
0.077,2.0156345623643723,-1.0253833745076641,0.1310049701999123,0.0,9.335653431144307,8.089749232055365,156.68604073545833,154.74658607857666,0.0
0.078,1.9716380062664365,-1.0027191078355955,1.1330406375910407,0.0,9.311108279352252,8.140940237331609,155.00570026867382,154.74658607857666,0.0
0.079,1.981618114052408,-0.996359426941114,1.9706197290823262,0.0,9.293663821035352,8.26513319287372,155.83372392369165,154.74658607857666,0.0
0.08,2.047754255372319,-1.0081877523921494,1.5457365231222613,0.0,9.291747816712917,8.312874288992077,157.66596287299265,154.74658607857666,0.0
0.081,2.0880322436277043,-1.014511529091453,0.6004232805276009,0.0,9.295374854616966,8.25214483314565,155.89999020350788,154.74658607857666,0.0
0.082,2.064262454199651,-0.9934126106855402,1.4718755740206726,0.0,9.290182124354335,8.30618136810409,153.20624430924406,154.74658607857666,0.0
0.083,2.084709332505443,-0.9768804036788377,2.834151938845912,0.0,9.289304767027126,8.492943999228357,154.80908695075527,154.74658607857666,0.0
0.084,2.1876363965931587,-0.9891113957525091,2.0321056093685175,0.0,9.308702139743234,8.547977263350118,157.18030757754534,154.74658607857666,0.0
0.085,2.2431671116318714,-0.9912400086136974,0.8221580809837996,0.0,9.331774939093906,8.469294065490388,153.85855326256822,154.74658607857666,0.0
0.08600000000000001,2.218382533620446,-0.9538958858017278,2.4919155666324406,0.0,9.340542999085608,8.59984087678854,151.65763716458204,154.74658607857666,0.0
0.08700000000000001,2.283185586663386,-0.9339990211887023,3.623263104765477,0.0,9.359673720328642,8.81858428567936,155.11630279269835,154.74658607857666,0.0
0.088,2.410895181186202,-0.9573503862369358,1.890233123566106,0.0,9.401533329137887,8.802019627625052,154.48118302223665,154.74658607857666,0.0
0.089,2.4385866501659272,-0.9427279573830093,2.210447039360356,0.0,9.435708530436367,8.842082261163926,150.4405593934834,154.74658607857666,0.0
0.09,2.476531822277586,-0.9026854851770076,4.273819120587914,0.0,9.466214027304764,9.101427887013358,154.41585555416157,154.74658607857666,0.0
0.091,2.6209585427248183,-0.9154710961805124,2.289478345492981,0.0,9.521410379003711,9.083470806363895,153.2210306004997,154.74658607857666,0.0
0.092,2.652774128975858,-0.8965097599426193,2.90214637710469,0.0,9.567077784371609,9.15801051289437,150.10540174817572,154.74658607857666,0.0
0.093,2.7155088154731293,-0.8516099362931269,4.506372646570682,0.0,9.610883052616703,9.393418538981534,154.1516073144903,154.74658607857666,0.0
0.094,2.85156231894858,-0.864847493314942,2.489219651054261,0.0,9.675753726154898,9.3573986585657,150.28584839605642,154.74658607857666,0.0
0.095,2.882893895055936,-0.8243602800395243,4.466706487096397,0.0,9.725949375267176,9.567076977128016,152.49247140982075,154.74658607857666,0.0
0.096,3.010362545808171,-0.8091280577488755,3.3859361269017922,0.0,9.790822619005242,9.608439184941822,150.59462921467752,154.74658607857666,0.0
0.097,3.0710107651414384,-0.7899420120747309,4.376376793112398,0.0,9.851386616349634,9.766512055614037,151.0271353673254,154.74658607857666,0.0
0.098,3.191214899097442,-0.7576740690246206,4.1973182239009725,0.0,9.918343887748032,9.872617217136279,150.57639458548442,154.74658607857666,0.0
0.099,3.2810975705939307,-0.7510075342986344,4.464390529752383,0.0,9.988805308769459,9.99729107645684,150.12206741661598,154.74658607857666,0.0
0.1,3.3975090993520087,-0.7119740332985522,4.737799300806213,0.0,10.060460953858053,10.132041492256484,149.63883641585724,154.74658607857666,0.0
0.101,3.502385794992183,-0.7085261193077292,5.030492297812774,0.0,10.13843714048876,10.279572251712366,150.4226145040382,154.74658607857666,0.0
0.10200000000000001,3.6366568506474835,-0.6751802974334247,4.681842969467683,0.0,10.219735223135716,10.365148148632022,147.23024061254642,154.74658607857666,0.0
0.10300000000000001,3.7282042201663597,-0.6554550703539455,6.35319336987387,0.0,10.299624770449949,10.628903801362014,150.6825152356117,154.74658607857666,0.0
0.10400000000000001,3.9101144553577165,-0.6557239658120756,4.667696766770881,0.0,10.398127759076944,10.653060061029183,147.32766023205357,154.74658607857666,0.0
0.105,4.003556910219063,-0.6051238926018038,6.419313527015175,0.0,10.483627377800245,10.885724235567398,148.31905391073346,154.74658607857666,0.0
0.106,4.158800577006242,-0.6100316625797625,5.987892009353665,0.0,10.58488930753472,11.022557041180939,149.89531960843783,154.74658607857666,0.0
0.107,4.30557580902422,-0.5796087204325204,5.248271825202868,0.0,10.68631272352112,11.064195915272492,147.4823416121384,154.74658607857666,0.0
0.108,4.384486633378854,-0.5471413562136487,6.527403268016959,0.0,10.77849050467543,11.25270146574576,152.86305231047172,154.74658607857666,0.0
0.109,4.471476684180785,-0.6216933340471336,3.8558832565313574,0.0,10.888826453965516,11.116135926250907,155.66700538582958,154.74658607857666,0.0
0.11,4.419253369748389,-0.6148060155817551,2.444702525779894,0.0,10.972969129567575,10.882360320462329,154.31211135003042,154.74658607857666,0.0
0.111,4.252917011674899,-0.5951404056194645,3.126494290964938,0.0,11.023225633119372,10.787260210534443,158.78946549953318,154.74658607857666,0.0
0.112,4.1268160646372785,-0.599676309690836,0.8473884220039931,0.0,11.059642080870674,10.461383939310375,157.0841492659722,154.74658607857666,0.0
0.113,3.910793158192057,-0.5477140109788163,1.6766709069105268,0.0,11.054068044825408,10.308250582251768,158.6200558060238,154.74658607857666,0.0
0.114,3.7416247504247018,-0.5494345531107573,0.8699829396102565,0.0,11.034446959300437,10.089292951832356,158.82104707224036,154.74658607857666,0.0
0.115,3.575633432419662,-0.5285118836361906,0.7287426965653383,0.0,10.992573520222502,9.899366789743333,159.2267899443708,154.74658607857666,0.0
0.116,3.4135700849502535,-0.5373034145481939,0.4810692218421737,0.0,10.937071103938525,9.714581275207905,159.37828342405288,154.74658607857666,0.0
0.117,3.2710289554461527,-0.5362685873352184,0.35900550854637414,0.0,10.868438631526857,9.545832687553071,159.79475704851498,154.74658607857666,0.0
0.11800000000000001,3.1354567585806765,-0.5546778384019858,0.10028698661594104,0.0,10.791829913480342,9.373344841503329,159.4774438969475,154.74658607857666,0.0
0.11900000000000001,3.0094155776392593,-0.5654826683691233,0.21163498421597016,0.0,10.706637721419227,9.237789181144118,159.81789382383857,154.74658607857666,0.0
0.12,2.9005702523544303,-0.5926239817359933,-0.009303056682183009,0.0,10.619286678698984,9.092565777111833,159.61396363356164,154.74658607857666,0.0
0.121,2.797759312106381,-0.6136014612192376,0.04398826290643454,0.0,10.528184509457022,8.971421784948918,159.75406286910808,154.74658607857666,0.0
0.122,2.7056560641694563,-0.6434668187669907,-0.07613612277210136,0.0,10.43715357245839,8.848638627328159,159.56808008694148,154.74658607857666,0.0
0.123,2.6187430033730985,-0.6695127331693911,-0.031359671772447584,0.0,10.345513810406331,8.743796749444588,159.55487430211073,154.74658607857666,0.0
0.124,2.5405304199613123,-0.6997283515072382,-0.07283966159241562,0.0,10.25561709564426,8.64299877332131,159.39195406685596,154.74658607857666,0.0
0.125,2.467831072275696,-0.7281004892208034,-0.03783322384782162,0.0,10.16744903371118,8.554771233795554,159.28731439999973,154.74658607857666,0.0
0.126,2.4019941845172386,-0.7576483283352469,-0.03092067363393758,0.0,10.082241564944285,8.473475022351723,159.1200393542597,154.74658607857666,0.0
0.127,2.341593829645199,-0.7859616212001003,0.008982316479252628,0.0,10.000244205733686,8.402093558744236,158.97044200586313,154.74658607857666,0.0
0.128,2.2869933757444785,-0.8139151690086417,0.04154243140466507,0.0,9.92210019341369,8.338235134697461,158.80098623236316,154.74658607857666,0.0
0.129,2.2374451273300577,-0.8404746133431035,0.08572631661678809,0.0,9.848026743319723,8.282387080834024,158.64597602115614,154.74658607857666,0.0
0.13,2.1927600800582816,-0.865675575315392,0.12423752279450007,0.0,9.778282344222418,8.232930753890708,158.50417535683087,154.74658607857666,0.0
0.131,2.152232993814043,-0.8888545283484053,0.15756196217459495,0.0,9.712864427554418,8.188737325016177,158.41608358537,154.74658607857666,0.0
0.132,2.115232679711036,-0.9093407193975328,0.16491287283710232,0.0,9.651590651150837,8.146561566830261,158.450611581636,154.74658607857666,0.0
0.133,2.0806689753331935,-0.9250908229278239,0.11060861967350522,0.0,9.593754326046867,8.099861034208493,158.38163994951464,154.74658607857666,0.0
0.134,2.0435147929271023,-0.9369067645664435,0.1087438970248058,0.0,9.538173832736057,8.056126168399674,158.00237906058757,154.74658607857666,0.0
0.135,2.0066127582678077,-0.9461574807172835,0.26581641166822845,0.0,9.484677321535656,8.032191045666382,157.51996022188467,154.74658607857666,0.0
0.136,1.9802339834840261,-0.9560319928983328,0.4792920895865973,0.0,9.43513063836037,8.029744028390585,157.10771215802097,154.74658607857666,0.0
0.137,1.9668981213612389,-0.9706397354068258,0.6618048607240041,0.0,9.391802028329156,8.041731849656445,156.46959246922123,154.74658607857666,0.0
