timestamp,iq,id,iq_ref,id_ref,vq,vd,omega,omega_ref,r
0.0,0.0,0.0,0.0,0.0,0.0,0.0,0.0,114.88226353301711,0.0
0.001,0.0,0.0,10.0,0.0,0.0,1.0999999999999999,6.115472199294103,114.88226353301711,0.0
0.002,0.5307369851907212,-0.2913212625381807,10.0,0.0,0.14204533887919985,1.9316189316290207,13.317801563642547,114.88226353301711,0.0
0.003,1.0842913387634832,-0.6024330830807904,10.0,0.0,0.384357124667687,2.6386968949419622,20.697939467553027,114.88226353301711,0.0
0.004,1.5590443546685477,-0.8700465084428163,10.0,0.0,0.6994718867930164,3.2526109522886295,28.232747544420146,114.88226353301711,0.0
0.005,1.9399447555359186,-1.0838738622210777,10.0,0.0,1.065311453102468,3.7994935661768023,35.92944872443006,114.88226353301711,0.0
0.006,2.239750732602683,-1.2510087368845633,10.0,0.0,1.4655018868449925,4.299102221838433,43.75633668444442,114.88226353301711,0.0
0.007,2.4770151619816017,-1.382020589851471,10.0,0.0,1.8883740978591532,4.765668027847139,51.58766747378032,114.88226353301711,0.0
0.008,2.6680767290418097,-1.4872241871505252,10.0,0.0,2.325877945545995,5.209220346273558,59.45942083902103,114.88226353301711,0.0
0.009000000000000001,2.8266491704841292,-1.5730794701170803,10.0,0.0,2.772378685460125,5.636635464737965,67.35059094018146,114.88226353301711,0.0
0.01,2.962077666392183,-1.645500646948331,10.0,0.0,3.224078639851053,6.052647735211881,75.20908322432116,114.88226353301711,0.0
0.011,3.0811061533574158,-1.7084279320504514,10.0,0.0,3.678407615443203,6.460489925470405,83.0265951655913,114.88226353301711,0.0
0.012,3.188848746459569,-1.7638278597420747,10.0,0.0,4.133552631697047,6.862319393890706,90.74118064793086,114.88226353301711,0.0
0.013000000000000001,3.288205119878689,-1.8140726097274587,10.0,0.0,4.588339016389012,7.259628641949282,98.35820682563939,114.88226353301711,0.0
0.014,3.3820602099432007,-1.8592355758795645,10.0,0.0,5.041843166194517,7.653355107498287,105.90865295623543,114.88226353301711,0.0
0.015,3.4721069852858886,-1.899829032412081,6.881869011546984,0.0,5.493383198131427,7.701098338356064,111.51194912216563,114.88226353301711,0.0
0.016,3.3974271686347826,-1.844486724251972,4.113924072690397,0.0,5.8980499614974855,7.525043863517104,114.84748711328866,114.88226353301711,0.0
0.017,3.1692420622790447,-1.7013180743497256,2.446502841326165,0.0,6.229449472635397,7.275678189969771,117.00834204649017,114.88226353301711,0.0
0.018000000000000002,2.8743586704356603,-1.512155887909079,1.3448145895906811,0.0,6.483396311295336,7.010032861552914,117.80248596290471,114.88226353301711,0.0
0.019,2.562995383380225,-1.325523350375988,0.9185404070845347,0.0,6.6667459759833605,6.7917745999430785,115.58381369588673,114.88226353301711,0.0
0.02,2.2956695746188496,-1.1522376656754365,2.020861038964828,0.0,6.792739748099871,6.765487348388122,116.0729025234778,114.88226353301711,0.0
0.021,2.157425661179436,-1.0351520228167432,1.7644102352646907,0.0,6.892358853981783,6.7277289768652135,118.38981534159512,114.88226353301711,0.0
0.022,2.059488533906324,-0.9561386922669228,0.5708783081202453,0.0,6.970719602191322,6.584374993999552,117.0783085630467,114.88226353301711,0.0
0.023,1.9303216742018754,-0.8715862774444523,1.2046712470941592,0.0,7.0183982449683615,6.558074010094739,114.4614554542523,114.88226353301711,0.0
0.024,1.865189542360955,-0.8029942014144886,2.517305882279008,0.0,7.051979320862149,6.683095735244166,117.03812925541557,114.88226353301711,0.0
0.025,1.8986372648475855,-0.7838464923306749,1.2074103244733903,0.0,7.093284134442582,6.637427966965621,117.7783883787118,114.88226353301711,0.0
0.026000000000000002,1.874618567751426,-0.7555723962797651,0.8083195143683302,0.0,7.1229730163623515,6.5726329572449185,114.72102417510386,114.88226353301711,0.0
0.027,1.8351287186481882,-0.7032832851878906,2.3386140097514283,0.0,7.137744447858476,6.6937133357118475,115.73470387843408,114.88226353301711,0.0
0.028,1.885025314517672,-0.6891912163655212,1.8232497546321529,0.0,7.162119537592144,6.72628628242807,117.22600584177418,114.88226353301711,0.0
0.029,1.912005388828205,-0.6837163772073105,1.054161349874529,0.0,7.186853101404888,6.6761245192584315,113.75001618583826,114.88226353301711,0.0
0.03,1.9003662708788558,-0.6461028839964689,2.8034786513142773,0.0,7.200014396657779,6.8351181797105065,115.3377376795765,114.88226353301711,0.0
0.031,1.981618909503993,-0.6459459775934333,2.0050631629795617,0.0,7.228117803658365,6.8651555454831925,115.84967242996039,114.88226353301711,0.0
0.032,2.0184054266647564,-0.6463458916016567,1.7394216988181856,0.0,7.256460166141096,6.87052911870283,112.83010800274592,114.88226353301711,0.0
0.033,2.0425755995765567,-0.6162994800531141,3.2697254677281355,0.0,7.279196545287095,7.046898546221797,115.77230853486918,114.88226353301711,0.0
0.034,2.1400624687879626,-0.6287498529686442,1.7897247516479817,0.0,7.318966234406585,7.019319698561414,113.45556896653062,114.88226353301711,0.0
0.035,2.157858562004802,-0.6107629062387738,2.9623614814821275,0.0,7.349898001978646,7.141283050459835,114.5940579495671,114.88226353301711,0.0
0.036000000000000004,2.2343401663046203,-0.5989621925814558,2.395999045798387,0.0,7.388814718948337,7.171881993161257,114.23296413328092,114.88226353301711,0.0
0.037,2.2697322473226302,-0.593535565859241,2.583038947938842,0.0,7.426420736688328,7.226422414012809,113.04758938368853,114.88226353301711,0.0
0.038,2.322482481987307,-0.564073816426216,3.1940730642283195,0.0,7.46253366856907,7.339164143320714,114.5781539745632,114.88226353301711,0.0
0.039,2.3920716162724878,-0.5710215835286577,2.4318318643755283,0.0,7.507368352068125,7.347158817314476,112.05701058497293,114.88226353301711,0.0
0.04,2.430879164128412,-0.5391064782652745,3.720656088651102,0.0,7.544938895366654,7.504657630006304,114.71697047723646,114.88226353301711,0.0
0.041,2.521778789910194,-0.5498283735993259,2.3923290730771436,0.0,7.596000825143891,7.481548518445475,111.76901213055336,114.88226353301711,0.0
0.042,2.5513445194245437,-0.513466823423805,3.8974407604433283,0.0,7.635538661314675,7.642358832795716,114.24766524979655,114.88226353301711,0.0
0.043000000000000003,2.6421957742105824,-0.5219218762713085,2.6644601836539383,0.0,7.688497416618386,7.63066493827619,111.73736368546408,114.88226353301711,0.0
0.044,2.67966457859936,-0.4848125377688819,3.9510599642957085,0.0,7.73082432917603,7.776079034442574,113.30989488715862,114.88226353301711,0.0
0.045,2.764778411975959,-0.4921911521839891,3.180518049907021,0.0,7.784642701065233,7.804570970231373,112.34145692692526,114.88226353301711,0.0
0.046,2.8240011688858173,-0.4592495601470563,3.690145096084619,0.0,7.832231068076184,7.893696578927316,111.60939904534816,114.88226353301711,0.0
0.047,2.886910267697674,-0.4587076327244355,4.088902681749861,0.0,7.884242963159514,8.011107754115955,113.44532878170983,114.88226353301711,0.0
0.048,2.981893839113624,-0.4473511677627635,3.185307161082095,0.0,7.941550994381817,8.008776816296319,110.73764306928713,114.88226353301711,0.0
0.049,3.023018644655965,-0.41287709684910756,4.580596221930746,0.0,7.989216545549042,8.17135363438541,111.93538985563669,114.88226353301711,0.0
0.05,3.1216064508873167,-0.4231920153297737,4.0111915655297725,0.0,8.049852605150463,8.235418512339695,112.96092105801797,114.88226353301711,0.0
0.051000000000000004,3.203814213022674,-0.4013321294608405,3.517639389089121,0.0,8.108323809956783,8.242486839841657,110.80762332308574,114.88226353301711,0.0
0.052000000000000005,3.245482612123244,-0.36759835141599595,4.635034658654553,0.0,8.15816261030642,8.378783010210949,113.36106592040301,114.88226353301711,0.0
0.053,3.3065161812717223,-0.4168233868471909,3.3735253361220585,0.0,8.222399239335903,8.35019645678872,116.73786532289509,114.88226353301711,0.0
0.054,3.305330738261251,-0.427009173043706,1.6665696169772373,0.0,8.277981736247519,8.156482920153692,114.76798914190077,114.88226353301711,0.0
0.055,3.1946205389113445,-0.39671555819355997,2.6526504513855604,0.0,8.305200474308997,8.12540370334808,116.56937763829637,114.88226353301711,0.0
0.056,3.123929199552073,-0.40778728683164456,1.7350850621349663,0.0,8.328110243182445,7.996030226203545,117.77692797600928,114.88226353301711,0.0
0.057,3.035116527904341,-0.38479629603900567,1.1023632488485928,0.0,8.333151961180532,7.830523808579473,116.48412364672257,114.88226353301711,0.0
0.058,2.910468387875541,-0.37024581547993485,1.7327468123548937,0.0,8.319768222662828,7.770564783322866,119.2761767924246,114.88226353301711,0.0
0.059000000000000004,2.83735418843442,-0.3729153826038798,0.2927811069098052,0.0,8.302166112660458,7.557359304044362,116.85270695518538,114.88226353301711,0.0
0.06,2.705185803848332,-0.34993228999840276,1.4848115913077278,0.0,8.262448829872636,7.52304455234175,118.90672797722455,114.88226353301711,0.0
0.061,2.6424098072314033,-0.3688919696943975,0.4175564358460706,0.0,8.225587195885947,7.364454851367857,117.37137118625407,114.88226353301711,0.0
0.062,2.5489225473896573,-0.3605077496804405,1.1603437547989421,0.0,8.175440894202042,7.320072952348542,118.381437918703,114.88226353301711,0.0
0.063,2.495352958571265,-0.3861307767995015,0.6203186447176163,0.0,8.12877340796783,7.213241759935897,117.65452418591458,114.88226353301711,0.0
0.064,2.4325807453087895,-0.39292969612943374,0.9560529045828505,0.0,8.07658120197088,7.161127205397774,118.53798241229345,114.88226353301711,0.0
0.065,2.3859427075552535,-0.4215883711215884,0.4777666026006555,0.0,8.02748122617565,7.05753851191734,117.70732335572193,114.88226353301711,0.0
0.066,2.326580359043487,-0.43018901006932664,0.8648455326593671,0.0,7.973591862146227,7.012823713490459,118.89483283509608,114.88226353301711,0.0
0.067,2.2846325773108935,-0.459965235719216,0.23096509995149894,0.0,7.923809333109073,6.897614454110347,117.66938048435024,114.88226353301711,0.0
0.068,2.220554597772434,-0.46492899092243456,0.8158201058110879,0.0,7.867732381853475,6.866249822668065,119.00685847913736,114.88226353301711,0.0
0.069,2.184279477161767,-0.49386515533372555,0.10583515895632445,0.0,7.81726000311242,6.751816548503621,117.59452840135529,114.88226353301711,0.0
0.07,2.1207743389167097,-0.49983476038800967,0.784877549163979,0.0,7.760758829740885,6.732196690273756,118.09883938122566,114.88226353301711,0.0
0.07100000000000001,2.091949426424825,-0.5271607331351731,0.5005563007467098,0.0,7.710891948835161,6.6733586282934025,117.85582291760623,114.88226353301711,0.0
0.07200000000000001,2.0562139364055536,-0.5477115593613842,0.5923289387105313,0.0,7.662115280979384,6.631998541857906,117.99752099034943,114.88226353301711,0.0
0.073,2.0253017482692024,-0.5704488855901765,0.49032732776560994,0.0,7.616375868888544,6.580801879491609,118.02587334338631,114.88226353301711,0.0
0.074,1.9903891481986733,-0.5901084594562197,0.44471505314347803,0.0,7.5720259116331325,6.529684872180268,118.01440858092535,114.88226353301711,0.0
0.075,1.9539258749311006,-0.6068698874313702,0.419125983894876,0.0,7.5286464107107305,6.48054772906212,118.07156054046516,114.88226353301711,0.0
0.076,1.9168991871543106,-0.6231175679198879,0.3586570340504911,0.0,7.486310776142745,6.429298959295924,117.98096164000685,114.88226353301711,0.0
0.077,1.878955617033578,-0.6363968811213747,0.37296950320974553,0.0,7.444382075702216,6.384924089991022,118.00669413284407,114.88226353301711,0.0
0.078,1.8434740337864743,-0.6501318400366456,0.3288589507928652,0.0,7.4035868107239144,6.339322090571083,117.94281284933457,114.88226353301711,0.0
0.079,1.808035947128093,-0.6625804449908526,0.33019409938444166,0.0,7.363542869257261,6.2983321101645,117.86585597686046,114.88226353301711,0.0
0.08,1.7750962372596,-0.6740068845452767,0.33883661118306474,0.0,7.324536746198053,6.261643045682792,117.88918338201125,114.88226353301711,0.0
0.081,1.744592045418478,-0.6857446604577899,0.29710371011772585,0.0,7.2869392199514325,6.2230712951120015,117.80193410413652,114.88226353301711,0.0
0.082,1.713678788622843,-0.696185093210315,0.31153164334389816,0.0,7.250275341116044,6.189696784968268,117.67786451752751,114.88226353301711,0.0
0.083,1.6857303697051962,-0.7051820933191643,0.34561042680329956,0.0,7.2148256648342715,6.162362918316625,117.68743223741282,114.88226353301711,0.0
0.084,1.6611632981780624,-0.7149501349354548,0.31277487981668695,0.0,7.181172084092214,6.132687666377659,117.67266071642952,114.88226353301711,0.0
0.085,1.6363765119679374,-0.7232757254522242,0.2922566684742143,0.0,7.148734470771151,6.103166809548419,117.67740588937794,114.88226353301711,0.0
0.08600000000000001,1.6125415661860005,-0.7281483820538793,0.2619326584363968,0.0,7.117041269420281,6.072597794253171,117.60299574014346,114.88226353301711,0.0
0.08700000000000001,1.587507662654046,-0.7324031513690272,0.2719304109823739,0.0,7.0858797847336215,6.045834733163495,117.38353821619356,114.88226353301711,0.0
0.088,1.5637676023895015,-0.736934108723351,0.35664642612555886,0.0,7.055614000022488,6.030211681448191,117.06960634461787,114.88226353301711,0.0
0.089,1.5467746442820343,-0.7420341021979409,0.4917389337973961,0.0,7.027328178319597,6.028769196914949,116.83012664653687,114.88226353301711,0.0
0.09,1.5377868498673424,-0.7517908970271447,0.5920001517026976,0.0,7.00274893783014,6.035138915362149,116.50681541357719,114.88226353301711,0.0
0.091,1.5373967858660202,-0.7593773741766214,0.7374102493769379,0.0,6.982001537772499,6.0533592655767965,116.35116417618632,114.88226353301711,0.0
0.092,1.5433389725570674,-0.7709444147715299,0.800546861640681,0.0,6.96634742243603,6.072516225960454,116.70010773895393,114.88226353301711,0.0
0.093,1.5530145510419358,-0.7791151716387835,0.6078966381975048,0.0,6.9549575275210245,6.065364296304289,117.72489170893043,114.88226353301711,0.0
0.094,1.5470878917250526,-0.7837961362769906,0.06707837145012308,0.0,6.94442462767343,6.000973751324164,116.70545440838477,114.88226353301711,0.0
0.095,1.5080480853511444,-0.7716533885004464,0.558565112969277,0.0,6.927123451410783,6.005675807199834,115.63778873824157,114.88226353301711,0.0
0.096,1.4960651462124075,-0.7653666986337923,1.0848426959886321,0.0,6.911452489954399,6.062080931820132,115.63085410056088,114.88226353301711,0.0
0.097,1.5203010016911083,-0.7710898947823034,1.0808241091535375,0.0,6.903681555580688,6.102787853956663,116.99995147924719,114.88226353301711,0.0
0.098,1.545238868470586,-0.7807911665411161,0.375098540348084,0.0,6.901768314789985,6.058556556950967,116.77844974687753,114.88226353301711,0.0
0.099,1.5245053442981722,-0.7753361587091457,0.4668875443943099,0.0,6.8949262047986775,6.038241178026667,115.23186590557425,114.88226353301711,0.0
0.1,1.5063467464509814,-0.7606397060944582,1.2366834413203753,0.0,6.885174708204776,6.1048228951385415,114.66427202633935,114.88226353301711,0.0
0.101,1.5344378099124387,-0.7608053191129408,1.5226602960046058,0.0,6.883221714939631,6.184259182966608,116.2780964302287,114.88226353301711,0.0
0.10200000000000001,1.5805096172105932,-0.7736610074463769,0.7017897650878133,0.0,6.8908201193703,6.157614027569483,116.71729237907431,114.88226353301711,0.0
0.10300000000000001,1.5754028174051695,-0.7699675438109468,0.4638415022044371,0.0,6.89445932993496,6.117450090598712,114.6958902040774,114.88226353301711,0.0
0.10400000000000001,1.552877698382157,-0.7466460365695768,1.476406322992288,0.0,6.891189794585879,6.197854776391459,113.95674567083846,114.88226353301711,0.0
0.105,1.5873824751577956,-0.7422167502644401,1.8552337682335456,0.0,6.89603367492983,6.297416634203133,115.88548679948516,114.88226353301711,0.0
0.106,1.6449551713300108,-0.756583655987096,0.8808309712455118,0.0,6.911974005513094,6.27054616333575,116.04518005841105,114.88226353301711,0.0
0.107,1.6441340250125438,-0.7497306237236667,0.7893551765286304,0.0,6.9227357533450915,6.248304516221097,113.7042990732816,114.88226353301711,0.0
0.108,1.633564035194792,-0.7245006845238183,1.971575313690708,0.0,6.927490398693078,6.361476669052889,114.11509821322907,114.88226353301711,0.0
0.109,1.6895023023872568,-0.7224554665290921,1.7738473969148527,0.0,6.9431141202020195,6.423975889629983,116.24092766322293,114.88226353301711,0.0
0.11,1.7346858760269528,-0.7278275041868724,0.6973460306158652,0.0,6.964036767940081,6.360938878746691,114.09806086676976,114.88226353301711,0.0
0.111,1.713899619832286,-0.7048840102671923,1.7766214555049271,0.0,6.973985945108264,6.438521468044129,112.44806796485062,114.88226353301711,0.0
0.112,1.7517518324754835,-0.6891095293102744,2.625959862146159,0.0,6.989192705523311,6.587603580657592,115.18097472544322,114.88226353301711,0.0
0.113,1.8355033348801146,-0.7074615328508156,1.2565193699255985,0.0,7.019963466357224,6.555332176702459,114.4553374460286,114.88226353301711,0.0
0.114,1.8417061767226075,-0.6961973070889524,1.6236072705027975,0.0,7.043007425843023,6.583594265633301,111.90643190889962,114.88226353301711,0.0
0.115,1.8640186412217101,-0.6693918743935434,2.9278183553084594,0.0,7.063737242934452,6.748734539266014,115.01948049379502,114.88226353301711,0.0
0.116,1.9521864066529593,-0.6825930415354104,1.3699218932529826,0.0,7.100628288392567,6.705547716017993,113.72703552716362,114.88226353301711,0.0
0.117,1.9544033237989988,-0.6660265643276098,2.0276966566272145,0.0,7.127557222815791,6.758940685000555,112.16661699023759,114.88226353301711,0.0
0.11800000000000001,1.9910503535473032,-0.6376389796454487,2.835062390518028,0.0,7.154175591151992,6.887910729520575,114.70183093451357,114.88226353301711,0.0
0.11900000000000001,2.063093626326086,-0.646896440359098,1.5692597443650729,0.0,7.192331323631896,6.851775368298299,112.27304213034604,114.88226353301711,0.0
0.12,2.070210844324368,-0.6206143160387725,2.8097463604755455,0.0,7.22007433845921,6.972118209427897,113.58659823069583,114.88226353301711,0.0
0.121,2.139461826856748,-0.609929218926388,2.1659249633238655,0.0,7.256164796477593,6.9924294121809005,113.21749045981727,114.88226353301711,0.0
0.122,2.167400171411497,-0.602285497315258,2.3671265794951424,0.0,7.289943370563339,7.0405082241351,111.68044223959838,114.88226353301711,0.0
0.123,2.213511066598292,-0.5724460898949604,3.167668902538776,0.0,7.321946070835811,7.16841183665054,113.75750702582,114.88226353301711,0.0
0.124,2.2887337653897304,-0.5825070459077448,2.140384074499934,0.0,7.364943961568185,7.157905215711783,111.11261648422716,114.88226353301711,0.0
0.125,2.3169442674317327,-0.5526866898452751,3.500525815784255,0.0,7.3992105524064495,7.310286557525101,113.72306173873696,114.88226353301711,0.0
0.126,2.404591000260603,-0.5579081755684223,2.2068952064721574,0.0,7.446161185332385,7.28559660421298,110.6141488473876,114.88226353301711,0.0
0.127,2.4276346591614844,-0.5272811715040366,3.8040327990031337,0.0,7.482526574330205,7.455033815645388,113.5005322598291,114.88226353301711,0.0
0.128,2.5235918907946786,-0.5343204641202022,2.374658405514262,0.0,7.533279737799905,7.427636426734605,110.15577913187711,114.88226353301711,0.0
0.129,2.5500340954760903,-0.5008940179622035,4.094299813501657,0.0,7.572470544028017,7.609559321676752,113.1107172496043,114.88226353301711,0.0
0.13,2.651743513516319,-0.51332192113086,2.6345462174721868,0.0,7.6276358929376595,7.588516084166767,110.43845962215254,114.88226353301711,0.0
0.131,2.687301544353763,-0.4765601939895482,4.015113070306718,0.0,7.671012314188112,7.738659305859122,112.10801601413496,114.88226353301711,0.0
0.132,2.774098136953254,-0.4847870816067845,3.2080773495043267,0.0,7.726337990392064,7.76635420481311,111.22900618914316,114.88226353301711,0.0
0.133,2.833097201791194,-0.4520297109721728,3.684114835438965,0.0,7.77521500922504,7.8516247309467495,110.27274671508405,114.88226353301711,0.0
0.134,2.8938838033575482,-0.4503785537003916,4.20833974064785,0.0,7.827877325194531,7.980063735540034,112.30754635220697,114.88226353301711,0.0
0.135,2.9925394433646173,-0.44269839722089827,3.216687093894494,0.0,7.887289004386377,7.976356776690867,109.87759772411533,114.88226353301711,0.0
0.136,3.0348480654403294,-0.4072564335066874,4.48170806602933,0.0,7.936567005330351,8.124363123019908,110.54200741911642,114.88226353301711,0.0
