timestamp,iq,id,iq_ref,id_ref,vq,vd,omega,omega_ref,r
0.0,0.0,0.0,0.0,0.0,0.0,0.0,0.0,97.91239223552778,0.0
0.001,0.0,0.0,10.0,0.0,0.0,1.0999999999999999,6.115472199294103,97.91239223552778,0.0
0.002,0.5307369851907212,-0.2913212625381807,10.0,0.0,0.14204533887919985,1.9316189316290207,13.317801563642547,97.91239223552778,0.0
0.003,1.0842913387634832,-0.6024330830807904,10.0,0.0,0.384357124667687,2.6386968949419622,20.697939467553027,97.91239223552778,0.0
0.004,1.5590443546685477,-0.8700465084428163,10.0,0.0,0.6994718867930164,3.2526109522886295,28.232747544420146,97.91239223552778,0.0
0.005,1.9399447555359186,-1.0838738622210777,10.0,0.0,1.065311453102468,3.7994935661768023,35.92944872443006,97.91239223552778,0.0
0.006,2.239750732602683,-1.2510087368845633,10.0,0.0,1.4655018868449925,4.299102221838433,43.75633668444442,97.91239223552778,0.0
0.007,2.4770151619816017,-1.382020589851471,10.0,0.0,1.8883740978591532,4.765668027847139,51.58766747378032,97.91239223552778,0.0
0.008,2.6680767290418097,-1.4872241871505252,10.0,0.0,2.325877945545995,5.209220346273558,59.45942083902103,97.91239223552778,0.0
0.009000000000000001,2.8266491704841292,-1.5730794701170803,10.0,0.0,2.772378685460125,5.636635464737965,67.35059094018146,97.91239223552778,0.0
0.01,2.962077666392183,-1.645500646948331,10.0,0.0,3.224078639851053,6.052647735211881,75.20908322432116,97.91239223552778,0.0
0.011,3.0811061533574158,-1.7084279320504514,10.0,0.0,3.678407615443203,6.460489925470405,83.0265951655913,97.91239223552778,0.0
0.012,3.188848746459569,-1.7638278597420747,9.465157385940032,0.0,4.133552631697046,6.80348670634411,90.38862160234937,97.91239223552778,0.0
0.013000000000000001,3.2601160020983633,-1.7986095813394525,5.859381873892779,0.0,4.58075481451167,6.759649458381985,95.36976647456618,97.91239223552778,0.0
0.014,3.1362510997552735,-1.722125565647891,3.394235695393994,0.0,4.970091995306576,6.544145640797269,98.37728261969164,97.91239223552778,0.0
0.015,2.8769598357999073,-1.5648255351444185,1.8858287189896235,0.0,5.282406913065053,6.275136007442681,100.47276635779963,97.91239223552778,0.0
0.016,2.564908415938936,-1.374735556390034,0.8124831087129114,0.0,5.5172524783542745,5.993007625378157,100.93349215644139,97.91239223552778,0.0
0.017,2.244704592742079,-1.1895452137877327,0.5519092101828948,0.0,5.681930611009412,5.776748871666521,99.16507966584155,97.91239223552778,0.0
0.018000000000000002,1.9786101463732186,-1.0256239112622152,1.4235885811796787,0.0,5.79233561517609,5.723142627255111,99.44305763838787,97.91239223552778,0.0
0.019,1.8296321578076513,-0.9140401803680308,1.2692929408779157,0.0,5.875704497111854,5.673974827836874,101.27678853877595,97.91239223552778,0.0
0.02,1.7261272877301186,-0.8400512522250029,0.3187835276513957,0.0,5.938796766125425,5.54494337332501,100.78645471594812,97.91239223552778,0.0
0.021,1.604663503352485,-0.7671106870555287,0.535209814261103,0.0,5.975393089899241,5.480762244405787,98.67833270943885,97.91239223552778,0.0
0.022,1.5223555073309216,-0.7041940460110855,1.5816114127766305,0.0,5.9957202435405605,5.547438015445072,99.44046333896905,97.91239223552778,0.0
0.023,1.5243537705466998,-0.6770508862094146,1.1852653869771155,0.0,6.018325677753937,5.554373957007511,101.24682309101438,97.91239223552778,0.0
0.024,1.520182873703968,-0.6610286637467073,0.2487412023995872,0.0,6.037873149829337,5.464301429074369,99.0868948432031,97.91239223552778,0.0
0.025,1.4686606871184669,-0.6248015928775449,1.316960300228474,0.0,6.042633866332904,5.51768597530501,97.64940123275315,97.91239223552778,0.0
0.026000000000000002,1.4821345978890568,-0.6048401353478547,2.0383370154811944,0.0,6.050423476189602,5.632880034211833,99.8936751608907,97.91239223552778,0.0
0.027,1.541840041677738,-0.6169360881512154,0.8963872221587925,0.0,6.070483700334981,5.598072544086606,99.60786363264954,97.91239223552778,0.0
0.028,1.5394104201074574,-0.607651083618535,1.0223382723081524,0.0,6.08391484302667,5.594890251648707,97.12915248855114,97.91239223552778,0.0
0.029,1.5411639693354662,-0.5837392283044608,2.2695262418271174,0.0,6.093147188166179,5.729083282238578,99.31643946426092,97.91239223552778,0.0
0.03,1.610434068812348,-0.5918895809973236,1.1618422816848955,0.0,6.1160112592000795,5.708860953522403,99.49035162347614,97.91239223552778,0.0
0.031,1.617500469273884,-0.5862755736291461,1.0591066081978018,0.0,6.133867645921546,5.692638577243075,96.93745515329009,97.91239223552778,0.0
0.032,1.6170985642942226,-0.5583256370998466,2.3453042141132068,0.0,6.145297803398391,5.822448044201773,98.9849523824773,97.91239223552778,0.0
0.033,1.6835828360962934,-0.5639972746380033,1.310829998050104,0.0,6.16946927131791,5.806448151438164,98.52866572400379,97.91239223552778,0.0
0.034,1.6929870185483282,-0.557300758678493,1.5328105924021018,0.0,6.18883027003819,5.828858384930516,96.5996509119401,97.91239223552778,0.0
0.035,1.7156744789184308,-0.5334113804379133,2.5104454116698207,0.0,6.205935325788807,5.953882140305398,99.13442405452604,97.91239223552778,0.0
0.036000000000000004,1.7836299148671602,-0.5453443463933872,1.230838522186871,0.0,6.23538377153936,5.910332696331394,97.01355348983422,97.91239223552778,0.0
0.037,1.7846010350811916,-0.5256752821239019,2.300262191989713,0.0,6.255249501588256,6.005088445038929,98.01446223583528,97.91239223552778,0.0
0.038,1.8389102326686726,-0.5166906351391993,1.7987871189861084,0.0,6.281812612977398,6.020534396619695,97.89654538741152,97.91239223552778,0.0
0.039,1.8597258873772677,-0.5128910523911512,1.8579040116791514,0.0,6.3069359007532615,6.046863043065498,96.33652478101234,97.91239223552778,0.0
0.04,1.8902632486347586,-0.48778384257626006,2.6536729894238946,0.0,6.329455927143961,6.15686361907806,98.3858989676576,97.91239223552778,0.0
0.041,1.9521318355963453,-0.49843777698355973,1.6242508287799704,0.0,6.362147013379802,6.130421841726957,96.01000770886395,97.91239223552778,0.0
0.042,1.9654634333560983,-0.47348662651195994,2.8312203034434305,0.0,6.3860736473609965,6.252106424670012,98.1735335460475,97.91239223552778,0.0
0.043000000000000003,2.0328728321478167,-0.4774867035078765,1.7468459717464624,0.0,6.420465596212646,6.225382623594087,95.69633619712086,97.91239223552778,0.0
0.044,2.0455548725217483,-0.4545439317236537,3.0076052065938503,0.0,6.446182264405313,6.35357672620789,98.07715108467244,97.91239223552778,0.0
0.045,2.117586444546472,-0.4585086609540999,1.8155501743266136,0.0,6.4828122239732835,6.3199927869627235,95.16843212153972,97.91239223552778,0.0
0.046,2.129294412126048,-0.4328661924768562,3.2973492570328506,0.0,6.509560474835142,6.467781126305728,97.84974332205365,97.91239223552778,0.0
0.047,2.209752226500489,-0.442796066260406,1.9573201459106264,0.0,6.549761445346077,6.4325109838447165,95.09245682282602,97.91239223552778,0.0
0.048,2.226393225681123,-0.41380031325815203,3.3641627496514603,0.0,6.579126472991733,6.571914998437487,97.39064558946056,97.91239223552778,0.0
0.049,2.301977911894802,-0.4248400092504726,2.220285832794863,0.0,6.62099972342128,6.552272321952216,95.42959188200896,97.91239223552778,0.0
0.05,2.3281414635629476,-0.3943888481692579,3.2256406900558496,0.0,6.653261356480485,6.658686897804338,96.40865622782285,97.91239223552778,0.0
0.051000000000000004,2.388883450070499,-0.4006143663495376,2.751145877225958,0.0,6.69392760242963,6.689018218394128,96.32586288834341,97.91239223552778,0.0
0.052000000000000005,2.4372828301574305,-0.3773265456487722,2.8084078404375203,0.0,6.730936440383945,6.72671028365693,94.60592619613685,97.91239223552778,0.0
0.053,2.471700864739809,-0.36993117506532136,3.7014408469347093,0.0,6.767432988511941,6.858693047268271,96.8860188603022,97.91239223552778,0.0
0.054,2.558153273257468,-0.37391708781320376,2.571658248604289,0.0,6.8139905622963735,6.83875518885884,95.12098668856628,97.91239223552778,0.0
0.055,2.587320145359393,-0.34320371397058147,3.4820883899418664,0.0,6.850480262611251,6.934568183353195,95.13367098708166,97.91239223552778,0.0
0.056,2.6457238510610455,-0.3458716418450003,3.503533453168637,0.0,6.89350289814869,7.011570765065012,96.57485585503515,97.91239223552778,0.0
0.057,2.7152175920467703,-0.33694552213780193,2.796316382996815,0.0,6.93891497585703,7.000106749356809,94.74165159025465,97.91239223552778,0.0
0.058,2.7431567153752483,-0.30531179593059266,3.744625921839799,0.0,6.975248995537996,7.103338196808432,95.69472724698048,97.91239223552778,0.0
0.059000000000000004,2.7935679190600435,-0.3315175625632514,3.290264743362357,0.0,7.02147172958769,7.135151235289997,98.87789883746734,97.91239223552778,0.0
0.06,2.818117281796023,-0.35343827693969265,1.6890238820995296,0.0,7.0684027149956545,6.994616042510128,97.91596015129991,97.91239223552778,0.0
0.061,2.749790695685002,-0.32854797728173346,2.1699575460255223,0.0,7.093629942478698,6.949503997293103,98.05099560602011,97.91239223552778,0.0
0.062,2.6890666838142425,-0.33190396928999766,2.101053784960501,0.0,7.11244130480922,6.905033504434348,100.82821808461372,97.91239223552778,0.0
0.063,2.6434341024656907,-0.3285966977472179,0.683284287172834,0.0,7.124527121831027,6.716037933778159,98.65260826269424,97.91239223552778,0.0
0.064,2.5289754697925817,-0.29649139617445663,1.763687037860909,0.0,7.11300628962746,6.692306623223889,99.9597198231457,97.91239223552778,0.0
0.065,2.4715946228230825,-0.3068076701199334,1.0896579817589997,0.0,7.101720252738549,6.590016443666514,99.97730586824481,97.91239223552778,0.0
0.066,2.406857760927958,-0.2943104466412707,1.0602158228822751,0.0,7.079855944260685,6.506875577799334,99.47257272341552,97.91239223552778,0.0
0.067,2.339384707201172,-0.3004997101720288,1.2969805904180416,0.0,7.05266977126706,6.462975580979781,100.66398954840707,97.91239223552778,0.0
0.068,2.3012233136899463,-0.3064469520200336,0.6737562047934742,0.0,7.024404519858816,6.353347659197729,99.60672006597166,97.91239223552778,0.0
0.069,2.232493848803238,-0.3115882457501795,1.1854476677067431,0.0,6.9885090713050255,6.321552936432187,100.4375985374642,97.91239223552778,0.0
0.07,2.2009480003142565,-0.32182597446373395,0.7447563689411094,0.0,6.954098432551249,6.238537932279389,99.99741282764123,97.91239223552778,0.0
0.07100000000000001,2.1478481537650413,-0.337049844782626,0.9439990179314595,0.0,6.916399605705517,6.192232493678611,100.33373946753706,97.91239223552778,0.0
0.07200000000000001,2.114871280187484,-0.3467344210363832,0.7516222256634515,0.0,6.8787531823690005,6.126730300241995,100.27435384251363,97.91239223552778,0.0
0.073,2.0711085689415754,-0.3641176028956502,0.7576954221053049,0.0,6.840136486264459,6.071089632847945,100.11370986620122,97.91239223552778,0.0
0.074,2.035518640371568,-0.37356837964590683,0.8160042339547777,0.0,6.800683146654902,6.0269818649521145,100.67872739476067,97.91239223552778,0.0
0.075,2.001692108825843,-0.3949460624601361,0.5058321180827232,0.0,6.763021401558776,5.952002538204815,99.9405475888869,97.91239223552778,0.0
0.076,1.9596120197866802,-0.3997156130007816,0.8546404674860171,0.0,6.7219387720288655,5.92651615369457,101.25062308024103,97.91239223552778,0.0
0.077,1.9330565307101506,-0.4224709626246681,0.16622041336182125,0.0,6.684871159954145,5.822756158142692,99.71366746979605,97.91239223552778,0.0
0.078,1.8773188592483858,-0.4222970216561932,0.9166854662416273,0.0,6.640887622528931,5.820966346266577,100.2535188754766,97.91239223552778,0.0
0.079,1.862203247603273,-0.44077680760862126,0.6233484970018637,0.0,6.603157973523082,5.776290785256722,100.71316861635503,97.91239223552778,0.0
0.08,1.8339296557821654,-0.4631239151070371,0.3655158627543744,0.0,6.567007117282134,5.7098405343563154,99.87098910477815,97.91239223552778,0.0
0.081,1.7957650188342649,-0.4695029075038861,0.7670196498503143,0.0,6.5283045396639094,5.6970793399909425,100.26609821539967,97.91239223552778,0.0
0.082,1.7777199735938458,-0.48912538583024345,0.545928034740836,0.0,6.494290783062899,5.654992200374247,100.09132203383008,97.91239223552778,0.0
0.083,1.7514681088078166,-0.5046473651116258,0.6115268275426049,0.0,6.460980881098012,5.625846437092468,100.05197491915328,97.91239223552778,0.0
0.084,1.7304148329828728,-0.517421642666731,0.60980455804475,0.0,6.429337343739678,5.597492164062479,101.43948467079211,97.91239223552778,0.0
0.085,1.7089576545404745,-0.5324650158392001,-0.11922124212730867,0.0,6.399549761087605,5.490783106146127,99.99676523220536,97.91239223552778,0.0
0.08600000000000001,1.6468207231729834,-0.5303918031110605,0.5812947471992902,0.0,6.36169154377728,5.482733703249844,99.84532231179136,97.91239223552778,0.0
0.08700000000000001,1.6252634984964562,-0.5388797144700641,0.6376869066436539,0.0,6.327768610285134,5.472651321958517,101.05664974447281,97.91239223552778,0.0
0.088,1.6133626537278742,-0.5551909792695269,0.0005806152134817388,0.0,6.297939092027417,5.390632792473123,100.0751212266079,97.91239223552778,0.0
0.089,1.5661656287811128,-0.5593784472406579,0.46971758423513155,0.0,6.263188181475768,5.376881957913638,99.610224370642,97.91239223552778,0.0
0.09,1.5456885264002205,-0.5679755176548615,0.685187690866941,0.0,6.231441081589183,5.381821968806649,99.75545204978681,97.91239223552778,0.0
0.091,1.5414064982994151,-0.5854056882062273,0.5941432531519457,0.0,6.205194040837064,5.371189931474015,100.36062324063373,97.91239223552778,0.0
0.092,1.5351474602093758,-0.5986281644118054,0.26707534767742747,0.0,6.181788671103997,5.3245750424832785,100.59789712676502,97.91239223552778,0.0
0.093,1.5050127235234219,-0.6087476006122152,0.12158335569940926,0.0,6.157043262665151,5.270799896010031,99.7785348273195,97.91239223552778,0.0
0.094,1.467829290722212,-0.607106120922775,0.5126030795042498,0.0,6.129113123295021,5.268183643119807,99.68641439447201,97.91239223552778,0.0
0.095,1.4536080408517433,-0.6148005130387778,0.5409230743385545,0.0,6.104577170502537,5.2634335069330564,99.95304960619664,97.91239223552778,0.0
0.096,1.4446276472288122,-0.6266469219762065,0.3871988947695493,0.0,6.083245960432586,5.240357560184618,99.95465816475,97.91239223552778,0.0
0.097,1.428391788024299,-0.6333741823723398,0.3659719562006485,0.0,6.062361811248982,5.218354506233405,99.92457571215559,97.91239223552778,0.0
0.098,1.4102877380737495,-0.6374018654709809,0.36089134773157694,0.0,6.041741544125509,5.197945832115561,99.88585205282284,97.91239223552778,0.0
0.099,1.3921452303147133,-0.6406221895838312,0.3605185792249992,0.0,6.0214563951240265,5.17934043560011,99.77050901341086,97.91239223552778,0.0
0.1,1.3745506908752634,-0.6441114257273297,0.39960893115215956,0.0,6.001690834105803,5.166624704493858,99.59850304783335,97.91239223552778,0.0
0.101,1.36067128588432,-0.6475245393917105,0.46875080581785955,0.0,5.982970806220424,5.161769482244971,99.49158240756967,97.91239223552778,0.0
0.10200000000000001,1.3508001739735789,-0.6541196021146969,0.5064192242292811,0.0,5.966328584661578,5.159926914971307,99.19373982319654,97.91239223552778,0.0
0.10300000000000001,1.3454184880445537,-0.658434527062833,0.6425270405391579,0.0,5.951575019648315,5.171692832212185,98.9670232047379,97.91239223552778,0.0
0.10400000000000001,1.347030528985434,-0.6661932234416146,0.745339040076376,0.0,5.9402837102126504,5.190523901650856,99.54693088283608,97.91239223552778,0.0
0.105,1.3553923432583286,-0.6733342063620766,0.4390398145542025,0.0,5.932712559821885,5.170718019238673,100.29327131789938,97.91239223552778,0.0
0.106,1.342685794547935,-0.6762279272441473,0.04206080619883501,0.0,5.9241648356968,5.113012249865633,99.280581345689,97.91239223552778,0.0
0.107,1.306397378144688,-0.664172809388088,0.5347239012024134,0.0,5.90934630687393,5.12224967586859,98.54610874431216,97.91239223552778,0.0
0.108,1.2977502860460441,-0.6610232153614822,0.895623036802988,0.0,5.896707469369278,5.164442076321812,98.75057267970236,97.91239223552778,0.0
0.109,1.3157147699594787,-0.6672289551064488,0.7850092646661451,0.0,5.890265882972628,5.183312282536722,99.8605356903395,97.91239223552778,0.0
0.11,1.3275926527073374,-0.6748003568811466,0.21054632479945523,0.0,5.887126272634898,5.136439601563379,99.4101756558527,97.91239223552778,0.0
0.111,1.3028658391689716,-0.6685529935196663,0.42074850783960915,0.0,5.878850431246098,5.12564582550338,98.2858698706178,97.91239223552778,0.0
0.112,1.2881484523176232,-0.6595593711600739,0.9791666241061567,0.0,5.869395971564236,5.175799458287683,98.04807413900947,97.91239223552778,0.0
0.113,1.3087971078470737,-0.6620086307251466,1.0967076708755046,0.0,5.866261675904746,5.224919089830578,99.29560717361633,97.91239223552778,0.0
0.114,1.337570726707778,-0.6718344746662526,0.45910900419118894,0.0,5.869409123203366,5.194543453330887,99.5436885494449,97.91239223552778,0.0
0.115,1.3258201600521808,-0.6690914970261415,0.31875535313773673,0.0,5.86880427614233,5.160037508782712,98.08697712543656,97.91239223552778,0.0
0.116,1.3034555327630493,-0.6527512718858536,1.045365216242815,0.0,5.86303932434355,5.212594898770592,97.41436283321332,97.91239223552778,0.0
0.117,1.3229901333455723,-0.6504787281195902,1.3866526563775818,0.0,5.86302002916055,5.28722312202661,98.84588714475842,97.91239223552778,0.0
0.11800000000000001,1.364815761279727,-0.6617266226809687,0.6615555515127234,0.0,5.871725479660868,5.2668075644353145,99.51354441347458,97.91239223552778,0.0
0.11900000000000001,1.3623160000717416,-0.6599002871335236,0.3117153953751777,0.0,5.877205453496191,5.218765891538918,97.71013197988907,97.91239223552778,0.0
0.12,1.3364329964005157,-0.6383212428364324,1.215444214724318,0.0,5.874977831141135,5.28180708779723,96.877088028905,97.91239223552778,0.0
0.121,1.3609549147546125,-0.6334686884249112,1.6423192322825775,0.0,5.878959100105122,5.373284124876459,98.65775381799494,97.91239223552778,0.0
0.122,1.412002966278443,-0.6476788851058558,0.744532721912937,0.0,5.893301593059649,5.347616252343839,99.046141602502,97.91239223552778,0.0
0.123,1.4103979901462012,-0.6432038648911909,0.5390013359896646,0.0,5.903008695275042,5.313005856901857,97.02871321988785,97.91239223552778,0.0
0.124,1.3930779053753017,-0.6198144837969138,1.5565523174531422,0.0,5.905755966006471,5.398702292609302,97.12544389936953,97.91239223552778,0.0
0.125,1.4324966609699146,-0.6167250960150524,1.5160564610738843,0.0,5.916692214390441,5.456964493839677,98.92912604589513,97.91239223552778,0.0
0.126,1.470930042850226,-0.6236618011023718,0.6040480497074094,0.0,5.933154989496475,5.406744648648004,97.52069448142466,97.91239223552778,0.0
0.127,1.454228514940979,-0.6084230985023247,1.3121808094836784,0.0,5.941203878235859,5.452429255063977,95.7801090595442,97.91239223552778,0.0
0.128,1.4755017635385455,-0.5948348055547223,2.203796352183741,0.0,5.951674013544667,5.582839599186709,98.2102897914933,97.91239223552778,0.0
0.129,1.545790388654717,-0.6111838950168302,0.9857270106495393,0.0,5.976072452505173,5.550833123155483,98.1870616875809,97.91239223552778,0.0
0.13,1.547136396179428,-0.6042316333127923,0.994594368085209,0.0,5.993902160284446,5.538178066780141,95.6982949274286,97.91239223552778,0.0
0.131,1.5446082397840444,-0.5782721506208897,2.2611187212423447,0.0,6.005897371169185,5.668092049371927,97.72180876990845,97.91239223552778,0.0
0.132,1.6097483910371626,-0.5840748432091721,1.251267634658616,0.0,6.0305823502362585,5.655274593535429,98.0301503518718,97.91239223552778,0.0
0.133,1.6185885334820194,-0.5791157421138308,1.0959192625135021,0.0,6.050913557766605,5.638896556962759,95.50558410343076,97.91239223552778,0.0
0.134,1.6181398645369347,-0.5511908867081555,2.3822704680549887,0.0,6.064551697802978,5.769379316139818,97.57757881020461,97.91239223552778,0.0
0.135,1.6842298490679433,-0.5571533320611034,1.3496212489212953,0.0,6.090809417296304,5.75444830225482,97.03251629497016,97.91239223552778,0.0
0.136,1.6936839638844725,-0.5503698829664172,1.6309512659440957,0.0,6.112142459597848,5.784529902986993,95.3744916742833,97.91239223552778,0.0
0.137,1.7199271606947448,-0.5276655262112788,2.48534258189997,0.0,6.13192071299034,5.9021141819600595,97.80376074738815,97.91239223552778,0.0
0.138,1.7840240301020949,-0.5394102968725012,1.2717943602289423,0.0,6.162998537281172,5.861095417164986,95.63523535025794,97.91239223552778,0.0
