timestamp,iq,id,iq_ref,id_ref,vq,vd,omega,omega_ref,r
0.0,0.0,0.0,0.0,0.0,0.0,0.0,0.0,464.94712217125027,0.0
0.001,0.0,0.0,10.0,0.0,0.0,1.0999999999999999,6.115472199294103,464.94712217125027,0.0
0.002,0.5307369851907212,-0.2913212625381807,10.0,0.0,0.14204533887919985,1.9316189316290207,13.317801563642547,464.94712217125027,0.0
0.003,1.0842913387634832,-0.6024330830807904,10.0,0.0,0.384357124667687,2.6386968949419622,20.697939467553027,464.94712217125027,0.0
0.004,1.5590443546685477,-0.8700465084428163,10.0,0.0,0.6994718867930164,3.2526109522886295,28.232747544420146,464.94712217125027,0.0
0.005,1.9399447555359186,-1.0838738622210777,10.0,0.0,1.065311453102468,3.7994935661768023,35.92944872443006,464.94712217125027,0.0
0.006,2.239750732602683,-1.2510087368845633,10.0,0.0,1.4655018868449925,4.299102221838433,43.75633668444442,464.94712217125027,0.0
0.007,2.4770151619816017,-1.382020589851471,10.0,0.0,1.8883740978591532,4.765668027847139,51.58766747378032,464.94712217125027,0.0
0.008,2.6680767290418097,-1.4872241871505252,10.0,0.0,2.325877945545995,5.209220346273558,59.45942083902103,464.94712217125027,0.0
0.009000000000000001,2.8266491704841292,-1.5730794701170803,10.0,0.0,2.772378685460125,5.636635464737965,67.35059094018146,464.94712217125027,0.0
0.01,2.962077666392183,-1.645500646948331,10.0,0.0,3.224078639851053,6.052647735211881,75.20908322432116,464.94712217125027,0.0
0.011,3.0811061533574158,-1.7084279320504514,10.0,0.0,3.678407615443203,6.460489925470405,83.0265951655913,464.94712217125027,0.0
0.012,3.188848746459569,-1.7638278597420747,10.0,0.0,4.133552631697047,6.862319393890706,90.74118064793086,464.94712217125027,0.0
0.013000000000000001,3.288205119878689,-1.8140726097274587,10.0,0.0,4.588339016389012,7.259628641949282,98.35820682563939,464.94712217125027,0.0
0.014,3.3820602099432007,-1.8592355758795645,10.0,0.0,5.041843166194517,7.653355107498287,105.90865295623543,464.94712217125027,0.0
0.015,3.4721069852858886,-1.899829032412081,10.0,0.0,5.493383198131427,8.044092747085895,113.37727610343421,464.94712217125027,0.0
0.016,3.5596145800153947,-1.9360338400176071,10.0,0.0,5.94241958510469,8.43218525824161,120.68508583176356,464.94712217125027,0.0
0.017,3.645144415105338,-1.9685384477868613,10.0,0.0,6.388575043274759,8.817838951066484,127.83962377537456,464.94712217125027,0.0
0.018000000000000002,3.730251927866576,-1.9959253041084188,10.0,0.0,6.83136783302799,9.201036292373047,134.85405702603322,464.94712217125027,0.0
0.019,3.81544967906247,-2.018253592643655,10.0,0.0,7.270383321112213,9.581672501020332,141.68976328564074,464.94712217125027,0.0
0.02,3.9014648862453374,-2.0350875541282063,10.0,0.0,7.705189334130692,9.959536942333155,148.3432823300447,464.94712217125027,0.0
0.021,3.9891051824829464,-2.0457889559126508,10.0,0.0,8.135310004560049,10.334315260302239,154.92060212100432,464.94712217125027,0.0
0.022,4.079618141396171,-2.0489696811670974,10.0,0.0,8.560139305503519,10.705547790999272,161.01925282597162,464.94712217125027,0.0
0.023,4.171109372430197,-2.048468292080302,10.0,0.0,8.979521969370257,11.072981092896333,166.534238406907,464.94712217125027,0.0
0.024,4.266936196769627,-2.039517194249811,10.0,0.0,9.392730090169543,11.435983292623375,171.8647834235234,464.94712217125027,0.0
0.025,4.367255527950721,-2.0225841458509217,10.0,0.0,9.79914449451603,11.793929226271104,177.02637022703064,464.94712217125027,0.0
0.026000000000000002,4.4734353073349595,-1.9962166741499119,10.0,0.0,10.197980960389518,12.146045424568259,181.63161391243256,464.94712217125027,0.0
0.027,4.582366840795821,-1.966358349113627,10.0,0.0,10.589124658468391,12.491912978736195,185.74793639675826,464.94712217125027,0.0
0.028,4.700058850757774,-1.9240450691803936,10.0,0.0,10.971384864613876,12.830451341534015,189.43662766964098,464.94712217125027,0.0
0.029,4.820934284790598,-1.879137197786803,10.0,0.0,11.344756153370636,13.161242511022618,192.73598774770625,464.94712217125027,0.0
0.03,4.952016225740939,-1.821000614527957,10.0,0.0,11.707923484756042,13.483081433273819,195.59831968863915,464.94712217125027,0.0
0.031,5.086039273572549,-1.7621311371320891,10.0,0.0,12.061063698547066,13.79562148058647,197.80891551030922,464.94712217125027,0.0
0.032,5.230431844273564,-1.6911110488141978,10.0,0.0,12.40292038074925,14.097678592248165,200.4421589734679,464.94712217125027,0.0
0.033,5.380124186618445,-1.6166151787533525,10.0,0.0,12.733312761073865,14.38869342901298,201.91742172589852,464.94712217125027,0.0
0.034,5.537594793894332,-1.535029134414507,10.0,0.0,13.051537880865839,14.667821176756876,203.18880493813168,464.94712217125027,0.0
0.035,5.698947813469154,-1.4530296333491768,10.0,0.0,13.357649178779205,14.934684535625108,203.60405746232266,464.94712217125027,0.0
0.036000000000000004,5.870474243492053,-1.3603000477825025,10.0,0.0,13.65045542338638,15.188218311291084,204.28541056101804,464.94712217125027,0.0
0.037,6.041188711220851,-1.275010780747051,10.0,0.0,13.930879897581198,15.42861600670124,205.2233356988433,464.94712217125027,0.0
0.038,6.228175208801664,-1.168399557236846,10.0,0.0,14.196427351981786,15.654155009933262,200.35169734043586,464.94712217125027,0.0
0.039,6.404895489618571,-1.0845312562500289,10.0,0.0,14.449814560392067,15.86612549236809,209.64773540576442,464.94712217125027,0.0
0.04,6.534612624563911,-1.0851225869390002,10.0,0.0,14.699963825590459,16.069735965364643,218.170241886545,464.94712217125027,0.0
0.041,6.621487035821765,-1.1484636683301073,10.0,0.0,14.952420817214799,16.26974130369247,220.68166573712315,464.94712217125027,0.0
0.042,6.6704785161669795,-1.2647840534085386,10.0,0.0,15.211794475054209,16.47047148862455,233.10654395573727,464.94712217125027,0.0
0.043000000000000003,6.709376245503157,-1.3867642159960276,10.0,0.0,15.477558399636717,16.673277185423842,235.10815372853793,464.94712217125027,0.0
0.044,6.744196093263161,-1.5028656568708394,10.0,0.0,15.74857785831126,16.87893749904121,248.8181267625822,464.94712217125027,0.0
0.045,6.750563942850831,-1.6564343609015326,10.0,0.0,16.02879294551472,17.090781462187255,251.61117095327992,464.94712217125027,0.0
0.046,6.764566527560506,-1.7840489455190416,10.0,0.0,16.314672837580048,17.307985931916857,266.60539535969383,464.94712217125027,0.0
0.047,6.752169677737121,-1.9446655565152717,10.0,0.0,16.610076868775216,17.533561623207692,270.0627790167984,464.94712217125027,0.0
0.048,6.7291903821171735,-2.110358990489937,10.0,0.0,16.91511817760721,17.768523902508925,283.13731951482634,464.94712217125027,0.0
0.049,6.714097190323873,-2.246352557911731,10.0,0.0,17.22645394156277,18.011924542904307,294.70561782835244,464.94712217125027,0.0
0.05,6.666841209228205,-2.4219663531358275,10.0,0.0,17.548953774962747,18.267165921658286,300.1294548425776,464.94712217125027,0.0
0.051000000000000004,6.612335516543512,-2.59336894353628,10.0,0.0,17.88182590988993,18.53465621226123,310.75154600411304,464.94712217125027,0.0
0.052000000000000005,6.568447424188529,-2.726701034625408,10.0,0.0,18.22111236450049,18.81296732052879,322.35703405819294,464.94712217125027,0.0
0.053,6.5036136539679195,-2.8764091099274185,10.0,0.0,18.569435851849082,19.104068797231378,330.9557012510771,464.94712217125027,0.0
0.054,6.434362099984388,-3.0149932598739144,10.0,0.0,18.925784313874168,19.407861808234543,339.4707232587175,464.94712217125027,0.0
0.055,6.370891759459199,-3.1253006473392393,10.0,0.0,19.28762520191878,19.723199586257838,348.00092263299223,464.94712217125027,0.0
0.056,6.314459991163816,-3.2071523724558277,10.0,0.0,19.65271639484943,20.048760466390505,356.29964302226927,464.94712217125027,0.0
0.057,6.266092078485367,-3.262894600420583,10.0,0.0,20.01916768432525,20.383030530514645,362.98468703488817,464.94712217125027,0.0
0.058,6.234656406121481,-3.2830044001420036,10.0,0.0,20.38405550695561,20.723492962007192,368.0316803659419,464.94712217125027,0.0
0.059000000000000004,6.228510489334133,-3.2600491726267444,10.0,0.0,20.743774617448285,21.0667596267365,372.35801287012686,464.94712217125027,0.0
0.06,6.247959954981508,-3.201438289803519,10.0,0.0,21.095630838529225,21.40947063565305,373.88739853789605,464.94712217125027,0.0
0.061,6.298571070969623,-3.1064761741463998,10.0,0.0,21.436712814499675,21.747723437683817,371.47602194372377,464.94712217125027,0.0
0.062,6.38094735961424,-2.982369480030801,10.0,0.0,21.76480975788002,22.077703876517536,366.2922057853833,464.94712217125027,0.0
0.063,6.53566146196873,-2.7695519558602215,10.0,0.0,22.070926190088084,22.39130117743337,372.07145994459506,464.94712217125027,0.0
0.064,6.708566607552835,-2.560747003310555,10.0,0.0,22.35695033962817,22.686677966487718,365.1882535794375,464.94712217125027,0.0
0.065,6.897199383751794,-2.3667028673086685,10.0,0.0,22.62465294768497,22.962098937664592,356.7297130485294,464.94712217125027,0.0
0.066,7.167218997264825,-2.0824440278168583,10.0,0.0,22.863799361069702,23.20893224280502,357.7888817172531,464.94712217125027,0.0
0.067,7.423387055578651,-1.859201647307153,10.0,0.0,23.082000390168847,23.42951856849048,345.1266644280509,464.94712217125027,0.0
0.068,7.736929428236853,-1.5824320316278497,10.0,0.0,23.27222771500701,23.617938384108047,342.9584987314189,464.94712217125027,0.0
0.069,8.04132723792414,-1.3546495884062866,10.0,0.0,23.43998591632552,23.77619061530866,334.2677598047511,464.94712217125027,0.0
0.07,8.395997401416553,-1.0747195592463576,10.0,0.0,23.578279041856877,23.89942370363377,322.7417355360636,464.94712217125027,0.0
0.07100000000000001,8.726669482066718,-0.8579631993863083,10.0,0.0,23.694022264374595,23.99133556844291,337.9106389559309,464.94712217125027,0.0
0.07200000000000001,8.91385728821635,-0.8925675486457335,10.0,0.0,23.81335639313859,24.06834663115294,344.8606079910171,464.94712217125027,0.0
0.073,8.941721008651788,-1.1508071676799903,10.0,0.0,23.95651852989837,24.148396869281978,362.43451347602996,464.94712217125027,0.0
0.074,8.927907180207171,-1.4305443375681337,10.0,0.0,24.121558169292424,24.236556455607346,368.59250641149885,464.94712217125027,0.0
0.075,8.859340450140312,-1.7499202918046703,10.0,0.0,24.31124378664675,24.33980824926249,387.10067316750514,464.94712217125027,0.0
0.076,8.767176841935807,-2.0562826706616475,10.0,0.0,24.52279212376306,24.461155754889383,396.7190369145668,464.94712217125027,0.0
0.077,8.62162972262067,-2.4016532593838043,10.0,0.0,24.76024751870129,24.606611890707832,408.83095327273656,464.94712217125027,0.0
0.078,8.47560200325128,-2.694417929744825,10.0,0.0,25.017253395580042,24.77587553037574,428.2762610097064,464.94712217125027,0.0
0.079,8.289593068490031,-3.001970310780605,10.0,0.0,25.296388163948027,24.972914099394785,438.0404594767293,464.94712217125027,0.0
0.08,8.078425759776728,-3.30171273584331,10.0,0.0,25.597209455327665,25.19953060295957,447.87571303424875,464.94712217125027,0.0
0.081,7.882675762310951,-3.525181384717318,10.0,0.0,25.912194395051316,25.45298841193994,460.26934286159303,464.94712217125027,0.0
0.082,7.687097883672571,-3.703693402600396,8.999262632399553,0.0,26.238428257179052,25.62207389023416,470.6239303230429,464.94712217125027,0.0
0.083,7.4595314156391375,-3.7886033806930883,3.7652008201567018,0.0,26.556502258334795,25.264211313938304,470.26225959590755,464.94712217125027,0.0
0.084,6.990453883890661,-3.66241687585567,3.8928848094777955,0.0,26.792252986432345,25.08965111614736,465.6519625698258,464.94712217125027,0.0
0.085,6.595931398884663,-3.4304875308682687,6.190984918532916,0.0,26.9627222590408,25.2463428810813,460.5438592940594,464.94712217125027,0.0
0.08600000000000001,6.444700711141197,-3.197686811901428,8.789069185188016,0.0,27.108524995245318,25.679910815825913,460.7459739684367,464.94712217125027,0.0
0.08700000000000001,6.563612093243069,-2.9911222425562487,8.730023330027503,0.0,27.26271015586556,26.037633785073677,461.6459686343594,464.94712217125027,0.0
0.088,6.760481391132823,-2.7859662462778427,8.313037532435064,0.0,27.41674758345136,26.30925848532826,445.42614597308534,464.94712217125027,0.0
0.089,7.007575297093143,-2.5126637931073548,10.0,0.0,27.554532028418084,26.733648551047306,437.2642294514753,464.94712217125027,0.0
0.09,7.421108693594466,-2.194256346945707,10.0,0.0,27.68868524091397,27.069490695459923,433.5388248285402,464.94712217125027,0.0
0.091,7.832305205205882,-1.9347392021917447,10.0,0.0,27.817644535140197,27.344067664368627,415.3270428127082,464.94712217125027,0.0
0.092,8.314341954901023,-1.5873968591225562,10.0,0.0,27.925553110544605,27.55517078845873,409.52864083729565,464.94712217125027,0.0
0.093,8.774032532451045,-1.2924040931339427,10.0,0.0,28.01480535998952,27.710208861646716,395.3924976188841,464.94712217125027,0.0
0.094,9.281361270513363,-0.9368808194671785,10.0,0.0,28.074478559365296,27.807459097049033,380.03008126362096,464.94712217125027,0.0
0.095,9.75772676725241,-0.645003778575497,10.0,0.0,28.1093582205823,27.853624711588033,403.9925780961671,464.94712217125027,0.0
0.096,9.926577568168037,-0.8500161997762858,10.0,0.0,28.170836613872503,27.88485179766149,414.0383139113396,464.94712217125027,0.0
0.097,9.96452346015095,-1.1853906822461289,10.0,0.0,28.26413094530072,27.916618474347672,428.988855570431,464.94712217125027,0.0
0.098,9.880685855686894,-1.632083851047065,10.0,0.0,28.397055014998124,27.964139511918923,443.86231088380094,464.94712217125027,0.0
0.099,9.759721059656371,-2.046467622911466,10.0,0.0,28.562554064700006,28.032668604221517,464.3029794358641,464.94712217125027,0.0
0.1,9.555254979158075,-2.509138343712797,7.563699808089903,0.0,28.765106060231446,27.864183292048423,473.9241057878047,464.94712217125027,0.0
0.101,9.19596744017064,-2.860504472351041,2.663366795954043,0.0,28.96457789193463,27.255605049713576,485.1992025939939,464.94712217125027,0.0
0.10200000000000001,8.53563936461793,-3.054250073485653,-3.176702411367992,0.0,29.10104307107244,26.20347074501941,489.7159206907032,464.94712217125027,0.0
0.10300000000000001,7.57249063830977,-3.027917846073926,-5.682749444917155,0.0,29.11381430080041,25.1522749862296,490.1547463218942,464.94712217125027,0.0
0.10400000000000001,6.546085772121672,-2.872572408964687,-6.154238502019113,0.0,29.00336415586871,24.28394564836346,487.40205083877817,464.94712217125027,0.0
0.105,5.6438712738756776,-2.6604601841075106,-5.00244004713637,0.0,28.79534720128036,23.711796496544064,481.7634581869563,464.94712217125027,0.0
0.106,4.982297944411573,-2.456940920892373,-2.3513070813825045,0.0,28.530651030263808,23.519918127390472,474.54040486243315,464.94712217125027,0.0
0.107,4.640611753547963,-2.30129126471209,1.1642867539672483,0.0,28.25815036988589,23.711931717981873,467.14403484339886,464.94712217125027,0.0
0.108,4.63717451977417,-2.2100219920467117,4.840502636762909,0.0,28.0236180111735,24.22368292603684,459.1519566418461,464.94712217125027,0.0
0.109,4.938230302882868,-2.170947041451514,8.894493392833336,0.0,27.860328457299033,25.03683209327517,457.22127892792776,464.94712217125027,0.0
0.11,5.520871232651195,-2.165254585530839,9.937090682225726,0.0,27.794447354890522,25.765403238231244,458.7215991202571,464.94712217125027,0.0
0.111,6.152370772109247,-2.155052918069202,9.249185816570979,0.0,27.806946218356895,26.264795110292223,440.79766111141174,464.94712217125027,0.0
0.112,6.72901663670192,-2.03600636223156,10.0,0.0,27.855141278215207,26.74785024061686,433.6871577549278,464.94712217125027,0.0
0.113,7.340797677999592,-1.8060552939389636,10.0,0.0,27.922718193166347,27.118381766163754,424.59741500467584,464.94712217125027,0.0
0.114,7.882445542096306,-1.6035151627034683,10.0,0.0,28.000610665424077,27.405154376013414,411.2234089751757,464.94712217125027,0.0
0.115,8.457397088670428,-1.2873624505890158,10.0,0.0,28.066639754420773,27.6132107806217,398.23455661757254,464.94712217125027,0.0
0.116,8.97170422282216,-1.0293708334974139,10.0,0.0,28.121654024219694,27.756240184377877,392.2028475832971,464.94712217125027,0.0
0.117,9.512350367844055,-0.707613388245691,10.0,0.0,28.152656404607555,27.836140070127428,394.8010960929834,464.94712217125027,0.0
0.11800000000000001,9.854260020070965,-0.6970073027046011,10.0,0.0,28.190599440574594,27.878946605046078,408.2229808186028,464.94712217125027,0.0
0.11900000000000001,9.93106087877589,-1.0370470280110151,10.0,0.0,28.266539257075912,27.91623779213429,422.88161645172784,464.94712217125027,0.0
0.12,9.914722882048315,-1.4305572192273122,10.0,0.0,28.378499934416645,27.95995903039089,440.5491505525261,464.94712217125027,0.0
0.121,9.795407660533055,-1.895525439156443,10.0,0.0,28.530848070129007,28.02346550695532,453.8116455777925,464.94712217125027,0.0
0.122,9.641515406144642,-2.3190511659238946,10.0,0.0,28.716250187671683,28.111591145202095,476.54216332614584,464.94712217125027,0.0
0.123,9.420017400619656,-2.7604805513197044,0.9038132929946094,0.0,28.93624663241065,27.231689751671748,480.34729851433264,464.94712217125027,0.0
0.124,8.678413521758563,-2.9372479541760885,-1.152756064529611,0.0,29.061283413782935,26.405878826330195,486.42761136088444,464.94712217125027,0.0
0.125,7.805582918621696,-2.971292573623006,-4.407717379701856,0.0,29.09321265859444,25.42626794812275,489.24216438324214,464.94712217125027,0.0
0.126,6.832133654990337,-2.8854210001300618,-6.0579443130006245,0.0,29.01420157182534,24.497186845674157,487.6185849892091,464.94712217125027,0.0
0.127,5.901667853147627,-2.706996138260547,-5.4728692441637055,0.0,28.83141546441758,23.826590017264934,483.1170542326104,464.94712217125027,0.0
0.128,5.165376901065022,-2.510017755237521,-3.4038031864779583,0.0,28.579964911395834,23.498208123323582,476.4065333799461,464.94712217125027,0.0
0.129,4.712828634365678,-2.34523914535008,-0.16313687223275153,0.0,28.304665361024743,23.555719397280413,469.15589677006585,464.94712217125027,0.0
0.13,4.592687571258361,-2.2344961999932056,3.4200936867192144,0.0,28.052112955196062,23.95038832142152,461.17711496812734,464.94712217125027,0.0
0.131,4.781897480163659,-2.1842252710968415,7.447184659719699,0.0,27.85986030963933,24.66546831339553,455.96367665173756,464.94712217125027,0.0
0.132,5.272242447896361,-2.163960968024664,10.0,0.0,27.7566145637867,25.478307971955758,458.17055046913265,464.94712217125027,0.0
0.133,5.91275567477573,-2.1692481416934406,9.105192315971154,0.0,27.745761590509623,26.01002908614931,446.2427659694043,464.94712217125027,0.0
0.134,6.479652000681718,-2.1018051583186557,10.0,0.0,27.781694426071716,26.538916250098396,432.90003685533935,464.94712217125027,0.0
0.135,7.100785678491703,-1.9006640092768954,10.0,0.0,27.845471597911654,26.946904163068453,431.50226579313636,464.94712217125027,0.0
0.136,7.661822375371025,-1.6977016590713847,10.0,0.0,27.92335539683241,27.26496830204689,412.44928819850423,464.94712217125027,0.0
0.137,8.224223652305044,-1.4196446017626172,10.0,0.0,27.99670057695704,27.502760633525597,407.8518774790668,464.94712217125027,0.0
0.138,8.752971336756389,-1.1483346994806585,10.0,0.0,28.059426953539145,27.67157001734859,392.0343192568186,464.94712217125027,0.0
0.139,9.295511742092353,-0.826709056999066,10.0,0.0,28.10009590919518,27.775379132705044,391.59306701208357,464.94712217125027,0.0
0.14,9.755108788340095,-0.6272352755845189,10.0,0.0,28.128353021290476,27.82774396105758,402.51487118396403,464.94712217125027,0.0
0.14100000000000001,9.915294891077803,-0.868822637067154,10.0,0.0,28.18759025258872,27.8646735169457,415.9481449346099,464.94712217125027,0.0
0.14200000000000002,9.91504152678226,-1.2777502998727952,10.0,0.0,28.287162885639752,27.905463571474733,432.0381829285309,464.94712217125027,0.0
0.14300000000000002,9.855262162596349,-1.682940071733422,10.0,0.0,28.421338859115203,27.95870508027346,449.19695123457404,464.94712217125027,0.0
0.14400000000000002,9.697073236089107,-2.1540579784054414,10.0,0.0,28.595192458138296,28.036843023813805,462.4228287071825,464.94712217125027,0.0
0.145,9.511235643243893,-2.575063636559236,7.766983419077569,0.0,28.801073934943304,27.89778095494885,482.56634633808966,464.94712217125027,0.0
0.146,9.144803345984208,-2.9493022075026833,-2.480967638044416,0.0,29.009417243403565,26.7267179669468,484.3057914249882,464.94712217125027,0.0
