timestamp,iq,id,iq_ref,id_ref,vq,vd,omega,omega_ref,r
0.0,0.0,0.0,0.0,0.0,0.0,0.0,0.0,228.9467247498425,0.0
0.001,0.0,0.0,10.0,0.0,0.0,1.0999999999999999,6.115472199294103,228.9467247498425,0.0
0.002,0.5307369851907212,-0.2913212625381807,10.0,0.0,0.14204533887919985,1.9316189316290207,13.317801563642547,228.9467247498425,0.0
0.003,1.0842913387634832,-0.6024330830807904,10.0,0.0,0.384357124667687,2.6386968949419622,20.697939467553027,228.9467247498425,0.0
0.004,1.5590443546685477,-0.8700465084428163,10.0,0.0,0.6994718867930164,3.2526109522886295,28.232747544420146,228.9467247498425,0.0
0.005,1.9399447555359186,-1.0838738622210777,10.0,0.0,1.065311453102468,3.7994935661768023,35.92944872443006,228.9467247498425,0.0
0.006,2.239750732602683,-1.2510087368845633,10.0,0.0,1.4655018868449925,4.299102221838433,43.75633668444442,228.9467247498425,0.0
0.007,2.4770151619816017,-1.382020589851471,10.0,0.0,1.8883740978591532,4.765668027847139,51.58766747378032,228.9467247498425,0.0
0.008,2.6680767290418097,-1.4872241871505252,10.0,0.0,2.325877945545995,5.209220346273558,59.45942083902103,228.9467247498425,0.0
0.009000000000000001,2.8266491704841292,-1.5730794701170803,10.0,0.0,2.772378685460125,5.636635464737965,67.35059094018146,228.9467247498425,0.0
0.01,2.962077666392183,-1.645500646948331,10.0,0.0,3.224078639851053,6.052647735211881,75.20908322432116,228.9467247498425,0.0
0.011,3.0811061533574158,-1.7084279320504514,10.0,0.0,3.678407615443203,6.460489925470405,83.0265951655913,228.9467247498425,0.0
0.012,3.188848746459569,-1.7638278597420747,10.0,0.0,4.133552631697047,6.862319393890706,90.74118064793086,228.9467247498425,0.0
0.013000000000000001,3.288205119878689,-1.8140726097274587,10.0,0.0,4.588339016389012,7.259628641949282,98.35820682563939,228.9467247498425,0.0
0.014,3.3820602099432007,-1.8592355758795645,10.0,0.0,5.041843166194517,7.653355107498287,105.90865295623543,228.9467247498425,0.0
0.015,3.4721069852858886,-1.899829032412081,10.0,0.0,5.493383198131427,8.044092747085895,113.37727610343421,228.9467247498425,0.0
0.016,3.5596145800153947,-1.9360338400176071,10.0,0.0,5.94241958510469,8.43218525824161,120.68508583176356,228.9467247498425,0.0
0.017,3.645144415105338,-1.9685384477868613,10.0,0.0,6.388575043274759,8.817838951066484,127.83962377537456,228.9467247498425,0.0
0.018000000000000002,3.730251927866576,-1.9959253041084188,10.0,0.0,6.83136783302799,9.201036292373047,134.85405702603322,228.9467247498425,0.0
0.019,3.81544967906247,-2.018253592643655,10.0,0.0,7.270383321112213,9.581672501020332,141.68976328564074,228.9467247498425,0.0
0.02,3.9014648862453374,-2.0350875541282063,10.0,0.0,7.705189334130692,9.959536942333155,148.3432823300447,228.9467247498425,0.0
0.021,3.9891051824829464,-2.0457889559126508,10.0,0.0,8.135310004560049,10.334315260302239,154.92060212100432,228.9467247498425,0.0
0.022,4.079618141396171,-2.0489696811670974,10.0,0.0,8.560139305503519,10.705547790999272,161.01925282597162,228.9467247498425,0.0
0.023,4.171109372430197,-2.048468292080302,10.0,0.0,8.979521969370257,11.072981092896333,166.534238406907,228.9467247498425,0.0
0.024,4.266936196769627,-2.039517194249811,10.0,0.0,9.392730090169543,11.435983292623375,171.8647834235234,228.9467247498425,0.0
0.025,4.367255527950721,-2.0225841458509217,10.0,0.0,9.79914449451603,11.793929226271104,177.02637022703064,228.9467247498425,0.0
0.026000000000000002,4.4734353073349595,-1.9962166741499119,10.0,0.0,10.197980960389518,12.146045424568259,181.63161391243256,228.9467247498425,0.0
0.027,4.582366840795821,-1.966358349113627,10.0,0.0,10.589124658468391,12.491912978736195,185.74793639675826,228.9467247498425,0.0
0.028,4.700058850757774,-1.9240450691803936,10.0,0.0,10.971384864613876,12.830451341534015,189.43662766964098,228.9467247498425,0.0
0.029,4.820934284790598,-1.879137197786803,10.0,0.0,11.344756153370636,13.161242511022618,192.73598774770625,228.9467247498425,0.0
0.03,4.952016225740939,-1.821000614527957,10.0,0.0,11.707923484756042,13.483081433273819,195.59831968863915,228.9467247498425,0.0
0.031,5.086039273572549,-1.7621311371320891,10.0,0.0,12.061063698547066,13.79562148058647,197.80891551030922,228.9467247498425,0.0
0.032,5.230431844273564,-1.6911110488141978,10.0,0.0,12.40292038074925,14.097678592248165,200.4421589734679,228.9467247498425,0.0
0.033,5.380124186618445,-1.6166151787533525,10.0,0.0,12.733312761073865,14.38869342901298,201.91742172589852,228.9467247498425,0.0
0.034,5.537594793894332,-1.535029134414507,10.0,0.0,13.051537880865839,14.667821176756876,203.18880493813168,228.9467247498425,0.0
0.035,5.698947813469154,-1.4530296333491768,10.0,0.0,13.357649178779205,14.934684535625108,203.60405746232266,228.9467247498425,0.0
0.036000000000000004,5.870474243492053,-1.3603000477825025,10.0,0.0,13.65045542338638,15.188218311291084,204.28541056101804,228.9467247498425,0.0
0.037,6.041188711220851,-1.275010780747051,10.0,0.0,13.930879897581198,15.42861600670124,205.2233356988433,228.9467247498425,0.0
0.038,6.228175208801664,-1.168399557236846,10.0,0.0,14.196427351981786,15.654155009933262,200.35169734043586,228.9467247498425,0.0
0.039,6.404895489618571,-1.0845312562500289,10.0,0.0,14.449814560392067,15.86612549236809,209.64773540576442,228.9467247498425,0.0
0.04,6.534612624563911,-1.0851225869390002,10.0,0.0,14.699963825590459,16.069735965364643,218.170241886545,228.9467247498425,0.0
0.041,6.621487035821765,-1.1484636683301073,10.0,0.0,14.952420817214799,16.26974130369247,220.68166573712315,228.9467247498425,0.0
0.042,6.6704785161669795,-1.2647840534085386,9.384081714320747,0.0,15.211794475054209,16.40272047719984,232.75139628364175,228.9467247498425,0.0
0.043000000000000003,6.676365196541632,-1.3702143445065396,3.3111697257234542,0.0,15.468962812630402,15.886320343213736,230.53238640107207,228.9467247498425,0.0
0.044,6.346282984377902,-1.3135577535129106,4.404818050495998,0.0,15.641487775130091,15.664675402136574,239.63534307661968,228.9467247498425,0.0
0.045,6.040305192078027,-1.309609521148925,-0.2535464705455741,0.0,15.774728007621995,14.989447605886152,236.38653397486502,228.9467247498425,0.0
0.046,5.541177350054818,-1.196165784715431,1.29645998808153,0.0,15.814682108555617,14.663995252868908,242.6218175055052,228.9467247498425,0.0
0.047,5.150894240727111,-1.1627999408575511,-1.9579327047951836,0.0,15.815559758634123,14.03954014804986,239.4649031679459,228.9467247498425,0.0
0.048,4.669345184802673,-1.0744515796055871,-0.4846573201965674,0.0,15.744519471923732,13.721290103013589,241.10095439896702,228.9467247498425,0.0
0.049,4.317492283043018,-1.0536110570648138,-1.4242252321983768,0.0,15.647349235513792,13.343564138278042,241.56648744812574,228.9467247498425,0.0
0.05,3.9884948143083028,-1.0425334430000173,-1.7831893837605701,0.0,15.52111329394957,12.996474561366458,241.5142812952017,228.9467247498425,0.0
0.051000000000000004,3.690295568040774,-1.0391029193247745,-1.8827618727521402,0.0,15.372525407386984,12.69361895811824,241.22168661012657,228.9467247498425,0.0
0.052000000000000005,3.4303309665159674,-1.0459667714722143,-1.8592141488174159,0.0,15.209300078128805,12.435390214766374,240.67007334544306,228.9467247498425,0.0
0.053,3.210218117787193,-1.0623635593688892,-1.7006410024316656,0.0,15.038309415608417,12.22548214903187,239.95838169188295,228.9467247498425,0.0
0.054,3.031117816554829,-1.0875360068156814,-1.4549117450720157,0.0,14.866032014106798,12.062410215112763,239.16339030851134,228.9467247498425,0.0
0.055,2.8913807772940676,-1.1199039686227508,-1.159582708972899,0.0,14.697983910687736,11.942026707139066,238.3485672107117,228.9467247498425,0.0
0.056,2.7873941370967836,-1.1568936937677734,-0.8461895846817753,0.0,14.5384474569611,11.85843785296096,237.62290859533724,228.9467247498425,0.0
0.057,2.71451997954777,-1.1949579434156894,-0.5701221154494873,0.0,14.390322933399133,11.801464020129064,236.9959475814706,228.9467247498425,0.0
0.058,2.6655148484321067,-1.2302958353072242,-0.3371338368324519,0.0,14.254820004521765,11.762904977026942,236.0006319796253,228.9467247498425,0.0
0.059000000000000004,2.6315855621493145,-1.2633745966461432,0.08998489179237357,0.0,14.132296749050283,11.762546892889805,234.76676472186327,228.9467247498425,0.0
0.06,2.6225485885275157,-1.293931422391295,0.6487181209531805,0.0,14.025020473930816,11.807816533776247,233.5643558443223,228.9467247498425,0.0
0.061,2.642967058255709,-1.3273830008570486,1.2037462487788626,0.0,13.936372895785722,11.890960943424991,232.10850515301814,228.9467247498425,0.0
0.062,2.6931329977867824,-1.3582155727301732,1.900053790399188,0.0,13.867961583541398,12.022655633943197,231.5299501134254,228.9467247498425,0.0
0.063,2.777694758809452,-1.3875112629926567,2.1634990565597305,0.0,13.82247507178347,12.147555493729426,232.2238457836567,228.9467247498425,0.0
0.064,2.8698899960027258,-1.4040673360775826,1.7837800111059314,0.0,13.79555540831667,12.20171731021868,233.709632304098,228.9467247498425,0.0
0.065,2.9186058461369053,-1.4098065327128693,0.9932576753427362,0.0,13.777209643744513,12.160173921090085,229.05615695618758,228.9467247498425,0.0
0.066,2.9174898361491017,-1.366534563598552,3.318901027234493,0.0,13.75172680814778,12.385286206082863,225.9496180743032,228.9467247498425,0.0
0.067,3.040208279022463,-1.3555621820851207,4.902141534932074,0.0,13.750529242334666,12.72272881252856,229.63729838596043,228.9467247498425,0.0
0.068,3.251695183008383,-1.3894450733642165,3.0513956427422793,0.0,13.787032535603268,12.784856573520802,230.07109392742714,228.9467247498425,0.0
0.069,3.349065586228111,-1.377979279775619,2.823254180233079,0.0,13.8244982094367,12.829237910472258,223.89803760040846,228.9467247498425,0.0
0.07,3.418400625222597,-1.314722949325064,5.960269215236762,0.0,13.85581191116825,13.213627599330213,225.91287852171348,228.9467247498425,0.0
0.07100000000000001,3.6495837140686778,-1.3093326066823,4.98318721686554,0.0,13.922472837226248,13.399123729921529,227.9037856801331,228.9467247498425,0.0
0.07200000000000001,3.8181439551033516,-1.3044895838648665,3.998163028352826,0.0,14.000538454654095,13.457924703681474,220.9304277944255,228.9467247498425,0.0
0.073,3.925918567969663,-1.2325884932726523,7.5650049407607955,0.0,14.068816917978177,13.910685389053267,224.78889031391375,228.9467247498425,0.0
0.074,4.207490951160683,-1.2324569451032485,5.6773520253759555,0.0,14.17624814411431,14.051792396381526,221.72069524815532,228.9467247498425,0.0
0.075,4.378203785047404,-1.207558932096616,7.283709853272042,0.0,14.28430948242063,14.36914502791736,221.4191382324558,228.9467247498425,0.0
0.076,4.633804519002853,-1.1573667926053983,7.509764226295674,0.0,14.408027794835931,14.64796198048765,221.70754920590912,228.9467247498425,0.0
0.077,4.863438259939965,-1.1496483875420997,7.437950495008346,0.0,14.54690886810468,14.878405310707075,218.92482776747468,228.9467247498425,0.0
0.078,5.1030946239851795,-1.0758056435314112,8.929530184049243,0.0,14.686900649277952,15.240418455703193,219.42883883508267,228.9467247498425,0.0
0.079,5.374572058472475,-1.0750222301209318,8.772703509392846,0.0,14.849746818798463,15.520596779061272,219.9093895271831,228.9467247498425,0.0
0.08,5.658095540001963,-1.011506894767404,8.622801515569229,0.0,15.017347350947949,15.745648125838187,213.79918002703647,228.9467247498425,0.0
0.081,5.888653669028555,-0.9686387902537333,10.0,0.0,15.186612626417212,16.09541908500035,218.068360060661,228.9467247498425,0.0
0.082,6.188119481603248,-0.9266908146728083,9.766987708692735,0.0,15.369742873986992,16.357100480812164,219.5066273260672,228.9467247498425,0.0
0.083,6.474064483885554,-0.8575565886020783,9.142255050227398,0.0,15.553542951269012,16.516077000156354,221.15395452238877,228.9467247498425,0.0
0.084,6.58418644195984,-0.960855607604356,8.396519154341144,0.0,15.746914907108206,16.59249828796615,231.80028748907085,228.9467247498425,0.0
0.085,6.608433566834227,-1.0653236142095723,3.044817043607819,0.0,15.93905028668101,16.097818805201634,231.32440317647178,228.9467247498425,0.0
0.08600000000000001,6.326891952707188,-1.0186702605124802,3.258982415641065,0.0,16.056327631047346,15.780108069504559,234.91942414414896,228.9467247498425,0.0
0.08700000000000001,6.005994051013395,-1.0224750011278685,1.4017449378594078,0.0,16.130991222412007,15.331941718582565,237.49995803926436,228.9467247498425,0.0
0.088,5.643675946200668,-0.9677766433498431,0.025945657407492106,0.0,16.147316952786266,14.839938828329801,238.40388224073158,228.9467247498425,0.0
0.089,5.226621020664384,-0.939323964818817,-0.5205880182350082,0.0,16.110227010037192,14.394660949384445,239.3355046694926,228.9467247498425,0.0
0.09,4.84341132326913,-0.9017640490557912,-1.090287031812018,0.0,16.02847120971987,13.970982826779785,240.3819209885129,228.9467247498425,0.0
0.091,4.477820567819738,-0.8932524359014355,-1.7278471537088693,0.0,15.91196249888446,13.553445199256457,240.39829233759622,228.9467247498425,0.0
0.092,4.136214204860286,-0.8834851775158928,-1.8505485041280711,0.0,15.764361614089395,13.19280970844583,240.59174344905122,228.9467247498425,0.0
0.093,3.833825149010864,-0.8924627918279701,-2.0637242468476606,0.0,15.596542478850957,12.861102092555633,240.21587200643185,228.9467247498425,0.0
0.094,3.5649793380457537,-0.9102592230315439,-1.9884799981038688,0.0,15.414202326836616,12.58274109816729,239.82082447882505,228.9467247498425,0.0
0.095,3.3382077651954813,-0.9385310287294226,-1.8996972315902911,0.0,15.225192024899602,12.345252264749288,239.24365188326925,228.9467247498425,0.0
0.096,3.1478335155853054,-0.9753563891304274,-1.7140802051466615,0.0,15.03510194140162,12.150814781451658,238.4431234496007,228.9467247498425,0.0
0.097,2.992378246752751,-1.0186585401215311,-1.4087799753099706,0.0,14.848972100928687,12.003735230227074,237.68010965538892,228.9467247498425,0.0
0.098,2.8732153742708455,-1.0666213544215513,-1.1146069272595414,0.0,14.671590177443683,11.893610046349522,236.95003538902975,228.9467247498425,0.0
0.099,2.7838674614072487,-1.1170773942847299,-0.8296029004718299,0.0,14.506004464161371,11.81380454266754,236.24641719195563,228.9467247498425,0.0
0.1,2.7190442609721392,-1.165919437604072,-0.5507907263559009,0.0,14.353864836205585,11.75947738982963,235.68161053924194,228.9467247498425,0.0
0.101,2.6745764805555416,-1.2099760180030663,-0.33573625789305295,0.0,14.215864259172289,11.720480083111159,234.95129316623357,228.9467247498425,0.0
0.10200000000000001,2.6428856124509466,-1.2479569810041884,-0.030623255552775674,0.0,14.091501349296607,11.706035652621345,233.9096612018762,228.9467247498425,0.0
0.10300000000000001,2.626301308910029,-1.2817999352326475,0.4405633621055767,0.0,13.98147320269463,11.730886136820423,232.81384574709165,228.9467247498425,0.0
0.10400000000000001,2.63345134816291,-1.315071342669057,0.949799879525357,0.0,13.88825434444848,11.792600561325761,231.44527073623883,228.9467247498425,0.0
0.105,2.667446896442703,-1.3455899999874434,1.609101925087805,0.0,13.813553152708131,11.902584507475364,230.4947305363217,228.9467247498425,0.0
0.106,2.734576034287282,-1.3753806376147408,2.0688919671815773,0.0,13.760292258322604,12.031039574330563,230.17660053768307,228.9467247498425,0.0
0.107,2.821461067199416,-1.3988399807789396,2.215658208622484,0.0,13.727485581432939,12.143983368957365,232.13790105846553,228.9467247498425,0.0
0.108,2.904743884625869,-1.4105043751799466,1.2030961851450246,0.0,13.71030244164739,12.121210371847798,230.35175356392762,228.9467247498425,0.0
0.109,2.91274933746476,-1.39237003991718,2.0821196442731305,0.0,13.690448895306517,12.205766789571484,226.02395529043233,228.9467247498425,0.0
0.11,2.9636067095471654,-1.3640573566334424,4.275246475614877,0.0,13.678103293563517,12.50682167134435,226.60427040815188,228.9467247498425,0.0
0.111,3.142215898695392,-1.3700924274165653,4.008513460172008,0.0,13.69804472479109,12.706126167668023,230.0546376933181,228.9467247498425,0.0
0.112,3.2991237147913877,-1.3799890284375356,2.2722506881541333,0.0,13.736950737932746,12.683699014835463,225.42899153079327,228.9467247498425,0.0
0.113,3.3396556101750816,-1.3348785410280846,4.620251101607049,0.0,13.764662314851732,12.94015842146908,221.80531672940484,228.9467247498425,0.0
0.114,3.5035969040544885,-1.2973727573661291,6.503502582505641,0.0,13.811574143413463,13.339792480522656,226.7536391721895,228.9467247498425,0.0
0.115,3.7594112372601307,-1.3263339219596737,4.051272216889835,0.0,13.897318980966284,13.38907629778649,222.93950475207689,228.9467247498425,0.0
0.116,3.873893151461182,-1.2891870595940438,6.018411626923803,0.0,13.97504194998405,13.672878988609058,221.53699894404244,228.9467247498425,0.0
0.117,4.083797942565742,-1.239963610594163,6.793761788999028,0.0,14.068329780415969,13.979746123099595,224.37227000664367,228.9467247498425,0.0
0.11800000000000001,4.307440370830135,-1.2415798024278601,5.421870805130398,0.0,14.183645556845454,14.084092198139924,218.21177875978066,228.9467247498425,0.0
0.11900000000000001,4.461272096938903,-1.171579016863221,8.609465888462525,0.0,14.290148114805575,14.539204546735073,223.43908386362656,228.9467247498425,0.0
0.12,4.760198339574909,-1.1693751548900335,6.05088974540173,0.0,14.431969234867797,14.614793020267838,216.51995181201343,228.9467247498425,0.0
0.121,4.9223655217968725,-1.0995489043595164,9.634723500586588,0.0,14.559508241338454,15.101963105336438,221.75563016458486,228.9467247498425,0.0
0.122,5.247231578099494,-1.0978147597548091,7.088795270153451,0.0,14.723517862267686,15.203166045274674,215.09513422908333,228.9467247498425,0.0
0.123,5.444511385712082,-1.016301728901403,10.0,0.0,14.872297723149996,15.637889337625108,218.70258236302334,228.9467247498425,0.0
0.124,5.751854870670204,-1.0118667924803975,8.845125317147758,0.0,15.049999214481335,15.856035039147251,217.290465553548,228.9467247498425,0.0
0.125,6.021058342169045,-0.9316238327450894,9.667746313848378,0.0,15.222962750625083,16.14563442910061,212.01376027595498,228.9467247498425,0.0
0.126,6.283487955583791,-0.8990434019707076,10.0,0.0,15.404808454361959,16.425716706422044,222.2253174452248,228.9467247498425,0.0
0.127,6.520774658238642,-0.9178432683371618,7.387355513847355,0.0,15.59887160506535,16.381784654888833,224.70051489303708,228.9467247498425,0.0
0.128,6.535442659200562,-0.9582876484217797,6.192218888509264,0.0,15.773396118690721,16.25707292657435,227.58572391587137,228.9467247498425,0.0
0.129,6.412341030468834,-1.0238840984316686,4.763224385431831,0.0,15.924808173822349,16.030734652538833,235.96464462998452,228.9467247498425,0.0
0.13,6.21942302478754,-1.0303603505946464,0.5035848295738354,0.0,16.038501619275088,15.407890969644042,233.16726576131552,228.9467247498425,0.0
0.131,5.787015962106818,-0.9689163098844042,1.8600688537936056,0.0,16.071717744893327,15.09614623464483,238.50557235258265,228.9467247498425,0.0
0.132,5.442509535525613,-0.9596230080860879,-0.9046729178673596,0.0,16.070029961659102,14.534782786879589,237.01676320306157,228.9467247498425,0.0
0.133,5.02081474069554,-0.8983341002661192,-0.24096872763901356,0.0,16.00572576512957,14.17298314737467,239.09480582690617,228.9467247498425,0.0
0.134,4.6688997783874875,-0.8954690938884377,-1.3814708503319477,0.0,15.91196976267914,13.743334474674365,239.0735499296882,228.9467247498425,0.0
0.135,4.322886896286677,-0.8824428815691965,-1.47211115352142,0.0,15.783220259912392,13.383251924283147,239.66310073621347,228.9467247498425,0.0
0.136,4.015011165500803,-0.8914651719160879,-1.8740503166477636,0.0,15.632460166444549,13.033401975307815,239.53778326621344,228.9467247498425,0.0
0.137,3.7320802839958067,-0.9051470561004894,-1.9173021668114592,0.0,15.463205871782767,12.73076633965417,239.2445391574162,228.9467247498425,0.0
0.138,3.484836441023168,-0.9288575843495951,-1.8736582564885769,0.0,15.283084782287355,12.471069700648815,238.75827432135165,228.9467247498425,0.0
0.139,3.273944527885297,-0.9614909393397886,-1.7286413341713933,0.0,15.098358701607378,12.255571710961547,238.1626044866485,228.9467247498425,0.0
0.14,3.099745155243468,-1.0006146860731986,-1.5229652141878738,0.0,14.91453270861745,12.081378128009247,237.52673466193158,228.9467247498425,0.0
