timestamp,iq,id,iq_ref,id_ref,vq,vd,omega,omega_ref,r
0.0,0.0,0.0,0.0,0.0,0.0,0.0,0.0,353.5450314249556,0.0
0.001,0.0,0.0,10.0,0.0,0.0,1.0999999999999999,6.115472199294103,353.5450314249556,0.0
0.002,0.5307369851907212,-0.2913212625381807,10.0,0.0,0.14204533887919985,1.9316189316290207,13.317801563642547,353.5450314249556,0.0
0.003,1.0842913387634832,-0.6024330830807904,10.0,0.0,0.384357124667687,2.6386968949419622,20.697939467553027,353.5450314249556,0.0
0.004,1.5590443546685477,-0.8700465084428163,10.0,0.0,0.6994718867930164,3.2526109522886295,28.232747544420146,353.5450314249556,0.0
0.005,1.9399447555359186,-1.0838738622210777,10.0,0.0,1.065311453102468,3.7994935661768023,35.92944872443006,353.5450314249556,0.0
0.006,2.239750732602683,-1.2510087368845633,10.0,0.0,1.4655018868449925,4.299102221838433,43.75633668444442,353.5450314249556,0.0
0.007,2.4770151619816017,-1.382020589851471,10.0,0.0,1.8883740978591532,4.765668027847139,51.58766747378032,353.5450314249556,0.0
0.008,2.6680767290418097,-1.4872241871505252,10.0,0.0,2.325877945545995,5.209220346273558,59.45942083902103,353.5450314249556,0.0
0.009000000000000001,2.8266491704841292,-1.5730794701170803,10.0,0.0,2.772378685460125,5.636635464737965,67.35059094018146,353.5450314249556,0.0
0.01,2.962077666392183,-1.645500646948331,10.0,0.0,3.224078639851053,6.052647735211881,75.20908322432116,353.5450314249556,0.0
0.011,3.0811061533574158,-1.7084279320504514,10.0,0.0,3.678407615443203,6.460489925470405,83.0265951655913,353.5450314249556,0.0
0.012,3.188848746459569,-1.7638278597420747,10.0,0.0,4.133552631697047,6.862319393890706,90.74118064793086,353.5450314249556,0.0
0.013000000000000001,3.288205119878689,-1.8140726097274587,10.0,0.0,4.588339016389012,7.259628641949282,98.35820682563939,353.5450314249556,0.0
0.014,3.3820602099432007,-1.8592355758795645,10.0,0.0,5.041843166194517,7.653355107498287,105.90865295623543,353.5450314249556,0.0
0.015,3.4721069852858886,-1.899829032412081,10.0,0.0,5.493383198131427,8.044092747085895,113.37727610343421,353.5450314249556,0.0
0.016,3.5596145800153947,-1.9360338400176071,10.0,0.0,5.94241958510469,8.43218525824161,120.68508583176356,353.5450314249556,0.0
0.017,3.645144415105338,-1.9685384477868613,10.0,0.0,6.388575043274759,8.817838951066484,127.83962377537456,353.5450314249556,0.0
0.018000000000000002,3.730251927866576,-1.9959253041084188,10.0,0.0,6.83136783302799,9.201036292373047,134.85405702603322,353.5450314249556,0.0
0.019,3.81544967906247,-2.018253592643655,10.0,0.0,7.270383321112213,9.581672501020332,141.68976328564074,353.5450314249556,0.0
0.02,3.9014648862453374,-2.0350875541282063,10.0,0.0,7.705189334130692,9.959536942333155,148.3432823300447,353.5450314249556,0.0
0.021,3.9891051824829464,-2.0457889559126508,10.0,0.0,8.135310004560049,10.334315260302239,154.92060212100432,353.5450314249556,0.0
0.022,4.079618141396171,-2.0489696811670974,10.0,0.0,8.560139305503519,10.705547790999272,161.01925282597162,353.5450314249556,0.0
0.023,4.171109372430197,-2.048468292080302,10.0,0.0,8.979521969370257,11.072981092896333,166.534238406907,353.5450314249556,0.0
0.024,4.266936196769627,-2.039517194249811,10.0,0.0,9.392730090169543,11.435983292623375,171.8647834235234,353.5450314249556,0.0
0.025,4.367255527950721,-2.0225841458509217,10.0,0.0,9.79914449451603,11.793929226271104,177.02637022703064,353.5450314249556,0.0
0.026000000000000002,4.4734353073349595,-1.9962166741499119,10.0,0.0,10.197980960389518,12.146045424568259,181.63161391243256,353.5450314249556,0.0
0.027,4.582366840795821,-1.966358349113627,10.0,0.0,10.589124658468391,12.491912978736195,185.74793639675826,353.5450314249556,0.0
0.028,4.700058850757774,-1.9240450691803936,10.0,0.0,10.971384864613876,12.830451341534015,189.43662766964098,353.5450314249556,0.0
0.029,4.820934284790598,-1.879137197786803,10.0,0.0,11.344756153370636,13.161242511022618,192.73598774770625,353.5450314249556,0.0
0.03,4.952016225740939,-1.821000614527957,10.0,0.0,11.707923484756042,13.483081433273819,195.59831968863915,353.5450314249556,0.0
0.031,5.086039273572549,-1.7621311371320891,10.0,0.0,12.061063698547066,13.79562148058647,197.80891551030922,353.5450314249556,0.0
0.032,5.230431844273564,-1.6911110488141978,10.0,0.0,12.40292038074925,14.097678592248165,200.4421589734679,353.5450314249556,0.0
0.033,5.380124186618445,-1.6166151787533525,10.0,0.0,12.733312761073865,14.38869342901298,201.91742172589852,353.5450314249556,0.0
0.034,5.537594793894332,-1.535029134414507,10.0,0.0,13.051537880865839,14.667821176756876,203.18880493813168,353.5450314249556,0.0
0.035,5.698947813469154,-1.4530296333491768,10.0,0.0,13.357649178779205,14.934684535625108,203.60405746232266,353.5450314249556,0.0
0.036000000000000004,5.870474243492053,-1.3603000477825025,10.0,0.0,13.65045542338638,15.188218311291084,204.28541056101804,353.5450314249556,0.0
0.037,6.041188711220851,-1.275010780747051,10.0,0.0,13.930879897581198,15.42861600670124,205.2233356988433,353.5450314249556,0.0
0.038,6.228175208801664,-1.168399557236846,10.0,0.0,14.196427351981786,15.654155009933262,200.35169734043586,353.5450314249556,0.0
0.039,6.404895489618571,-1.0845312562500289,10.0,0.0,14.449814560392067,15.86612549236809,209.64773540576442,353.5450314249556,0.0
0.04,6.534612624563911,-1.0851225869390002,10.0,0.0,14.699963825590459,16.069735965364643,218.170241886545,353.5450314249556,0.0
0.041,6.621487035821765,-1.1484636683301073,10.0,0.0,14.952420817214799,16.26974130369247,220.68166573712315,353.5450314249556,0.0
0.042,6.6704785161669795,-1.2647840534085386,10.0,0.0,15.211794475054209,16.47047148862455,233.10654395573727,353.5450314249556,0.0
0.043000000000000003,6.709376245503157,-1.3867642159960276,10.0,0.0,15.477558399636717,16.673277185423842,235.10815372853793,353.5450314249556,0.0
0.044,6.744196093263161,-1.5028656568708394,10.0,0.0,15.74857785831126,16.87893749904121,248.8181267625822,353.5450314249556,0.0
0.045,6.750563942850831,-1.6564343609015326,10.0,0.0,16.02879294551472,17.090781462187255,251.61117095327992,353.5450314249556,0.0
0.046,6.764566527560506,-1.7840489455190416,10.0,0.0,16.314672837580048,17.307985931916857,266.60539535969383,353.5450314249556,0.0
0.047,6.752169677737121,-1.9446655565152717,10.0,0.0,16.610076868775216,17.533561623207692,270.0627790167984,353.5450314249556,0.0
0.048,6.7291903821171735,-2.110358990489937,10.0,0.0,16.91511817760721,17.768523902508925,283.13731951482634,353.5450314249556,0.0
0.049,6.714097190323873,-2.246352557911731,10.0,0.0,17.22645394156277,18.011924542904307,294.70561782835244,353.5450314249556,0.0
0.05,6.666841209228205,-2.4219663531358275,10.0,0.0,17.548953774962747,18.267165921658286,300.1294548425776,353.5450314249556,0.0
0.051000000000000004,6.612335516543512,-2.59336894353628,10.0,0.0,17.88182590988993,18.53465621226123,310.75154600411304,353.5450314249556,0.0
0.052000000000000005,6.568447424188529,-2.726701034625408,10.0,0.0,18.22111236450049,18.81296732052879,322.35703405819294,353.5450314249556,0.0
0.053,6.5036136539679195,-2.8764091099274185,10.0,0.0,18.569435851849082,19.104068797231378,330.9557012510771,353.5450314249556,0.0
0.054,6.434362099984388,-3.0149932598739144,10.0,0.0,18.925784313874168,19.407861808234543,339.4707232587175,353.5450314249556,0.0
0.055,6.370891759459199,-3.1253006473392393,10.0,0.0,19.28762520191878,19.723199586257838,348.00092263299223,353.5450314249556,0.0
0.056,6.314459991163816,-3.2071523724558277,8.481748874569911,0.0,19.65271639484944,19.881752842593194,355.71953741461084,353.5450314249556,0.0
0.057,6.186973307467781,-3.2207883611620374,4.600696423864052,0.0,19.997835235627075,19.662685851788346,357.8064342568846,353.5450314249556,0.0
0.058,5.865287475799285,-3.1014012475232993,3.5146339744078894,0.0,20.27326655085915,19.453491673855204,354.3970182520399,353.5450314249556,0.0
0.059000000000000004,5.526918408881158,-2.8982495183300414,5.210822108559382,0.0,20.479082497699824,19.52420510353412,351.8170653406088,353.5450314249556,0.0
0.06,5.359991944269,-2.709609626377433,6.518078225118411,0.0,20.65266932200148,19.750243296847344,355.4383907731185,353.5450314249556,0.0
0.061,5.348441647559885,-2.563951196456178,4.688481915381928,0.0,20.81736525483247,19.756309466014688,355.8932392307325,353.5450314249556,0.0
0.062,5.295190239818378,-2.3929226660396288,4.437575608517164,0.0,20.948841657250483,19.77467703277511,345.5676547453706,353.5450314249556,0.0
0.063,5.2840261119683785,-2.1744210167046316,9.680141617993964,0.0,21.04668227998006,20.38424234719847,345.4000137794814,353.5450314249556,0.0
0.064,5.607232562996829,-2.0613959764466485,9.845412277393294,0.0,21.185447633943987,20.872724953999985,348.7524122866042,353.5450314249556,0.0
0.065,5.967216192786513,-2.0010723931625582,8.2171392152154,0.0,21.353679369432996,21.109106957317604,336.6160896820964,353.5450314249556,0.0
0.066,6.256410167880787,-1.8522789318665165,10.0,0.0,21.512962086795156,21.52285984983797,337.5074071827253,353.5450314249556,0.0
0.067,6.635889641338553,-1.6951864488921797,10.0,0.0,21.68189958315891,21.854486314665248,329.4309819442344,353.5450314249556,0.0
0.068,6.99301868546596,-1.5648473717326903,10.0,0.0,21.85433960271122,22.134354482526746,327.3590611530984,353.5450314249556,0.0
0.069,7.3792979873070825,-1.3594347177014519,10.0,0.0,22.016230435922605,22.364560402796073,315.99497525552874,353.5450314249556,0.0
0.07,7.721105841465531,-1.2001689698610247,10.0,0.0,22.169487672117647,22.55419874342059,317.48687913059604,353.5450314249556,0.0
0.07100000000000001,8.079510083267147,-0.9973787739248631,10.0,0.0,22.30566875468107,22.704192585545563,308.8005692332347,353.5450314249556,0.0
0.07200000000000001,8.43316389532403,-0.7897397902123827,10.0,0.0,22.422418726951623,22.817487274806144,318.78855232356585,353.5450314249556,0.0
0.073,8.54487795001795,-0.9635564878593545,10.0,0.0,22.560019397499484,22.922375484471967,334.07623716928043,353.5450314249556,0.0
0.074,8.599594439604727,-1.1813070931181486,10.0,0.0,22.716563221561138,23.02563326691837,338.5385123034522,353.5450314249556,0.0
0.075,8.586587911209536,-1.4589405036835439,10.0,0.0,22.89614061057087,23.136197536545644,356.28466296526784,353.5450314249556,0.0
0.076,8.53940486134187,-1.7434984741966504,5.138367521380958,0.0,23.097341730293138,22.72394361566456,358.71813958670907,353.5450314249556,0.0
0.077,8.196795910514613,-1.911149039243698,3.8698981290428085,0.0,23.252793328405122,22.319335044565133,367.0684558283841,353.5450314249556,0.0
0.078,7.750420362641564,-2.0336802199463815,-0.44049423582900005,0.0,23.36404083382279,21.55494924493209,372.7564183791734,353.5450314249556,0.0
0.079,7.091102214868992,-2.0476206247135025,-3.4765893807658177,0.0,23.38803314145274,20.65532147428603,375.29294810980235,353.5450314249556,0.0
0.08,6.303795426176041,-1.9854928658820319,-4.962333412928763,0.0,23.31268998373596,19.794995384657526,375.9693853637072,353.5450314249556,0.0
0.081,5.5163880373338845,-1.891636242984375,-5.524795579268705,0.0,23.149145581897578,19.04489593513013,375.1446000456898,353.5450314249556,0.0
0.082,4.808923971677908,-1.7988134587619236,-5.328398606467345,0.0,22.9176737352548,18.450627252376933,373.0991872468693,353.5450314249556,0.0
0.083,4.231460772944486,-1.7247292970057087,-4.501233765276227,0.0,22.64270117505002,18.03810872724189,370.4604377786423,353.5450314249556,0.0
0.084,3.8122000681070585,-1.6763427651090559,-3.3510130946995993,0.0,22.34939234146114,17.797941469496173,367.535037704426,353.5450314249556,0.0
0.085,3.5487813434854787,-1.6568617627071278,-2.02821312038614,0.0,22.05973862051134,17.711249297294856,363.9537807271887,353.5450314249556,0.0
0.08600000000000001,3.424903160603024,-1.6645844647342267,-0.34167212478983444,0.0,21.791425361683388,17.787544892862005,359.99941505142965,353.5450314249556,0.0
0.08700000000000001,3.4415476700907615,-1.6900333750586105,1.5709668768249507,0.0,21.560295141410354,18.01983480533884,356.1989525810476,353.5450314249556,0.0
0.088,3.5863041732895824,-1.737132808399073,3.4446589004550594,0.0,21.380433382976513,18.37700566686685,352.3822173942432,353.5450314249556,0.0
0.089,3.844223334837385,-1.7865255694341389,5.3646546341643875,0.0,21.259237095919314,18.84601233413213,352.29319819602,353.5450314249556,0.0
0.09,4.200239885258844,-1.8317231682839454,5.421682565565336,0.0,21.201538912557485,19.20648919215129,354.04135300642025,353.5450314249556,0.0
0.091,4.522103417261729,-1.8541027804550199,4.542641944550563,0.0,21.18766801468408,19.396038975390624,343.96328380754403,353.5450314249556,0.0
0.092,4.7678142876575365,-1.79100892939067,9.67749402016279,0.0,21.18697506518316,20.115061264622664,342.21358627662875,353.5450314249556,0.0
0.093,5.273784790044181,-1.776872012144823,10.0,0.0,21.257329517169133,20.693039520448796,345.0673327446154,353.5450314249556,0.0
0.094,5.767906921951058,-1.789047232921676,9.310247845171709,0.0,21.37992699299704,21.09186386957554,334.3350539694056,353.5450314249556,0.0
0.095,6.200777363422619,-1.7169471303192037,10.0,0.0,21.522094392660776,21.503161262708996,335.1020942450026,353.5450314249556,0.0
0.096,6.6392004881650735,-1.595805194080683,10.0,0.0,21.678570179711283,21.83675029564024,326.09775322978476,353.5450314249556,0.0
0.097,7.031673882769741,-1.4753399934804055,10.0,0.0,21.84071753864622,22.113840161824328,325.4126707568012,353.5450314249556,0.0
0.098,7.428433535665105,-1.2895351598883158,10.0,0.0,21.99512526861694,22.339716949411056,312.51804249685597,353.5450314249556,0.0
0.099,7.7880073741334375,-1.1227309497756854,10.0,0.0,22.14018948957279,22.52286130553361,313.1359416405258,353.5450314249556,0.0
0.1,8.140124674766883,-0.9434067616746855,10.0,0.0,22.27100410545534,22.667060483454513,310.8942058468236,353.5450314249556,0.0
0.101,8.446094050379859,-0.8252756579129352,10.0,0.0,22.391955998008935,22.779785746860483,321.8969654256147,353.5450314249556,0.0
0.10200000000000001,8.536719375947795,-1.0260311843310284,10.0,0.0,22.535349646591364,22.88642458112486,335.16632448310986,353.5450314249556,0.0
0.10300000000000001,8.583878300415462,-1.2445654711425918,10.0,0.0,22.697099030027083,22.99245766838529,341.1266103943599,353.5450314249556,0.0
0.10400000000000001,8.551040378466718,-1.5441868515993682,10.0,0.0,22.884049792827412,23.108146145922284,357.7997774759641,353.5450314249556,0.0
0.105,8.507490712080578,-1.8106175461434768,3.7518973477114734,0.0,23.090185489696687,22.54813164431686,360.6983268521469,353.5450314249556,0.0
0.106,8.075472868084518,-1.9563788861575255,2.231089705348152,0.0,23.233075607174605,22.00701081459753,367.52802962361693,353.5450314249556,0.0
0.107,7.541811240734191,-2.0165912541216553,-1.3235916623734658,0.0,23.312730377008705,21.212866806140763,373.07911194987463,353.5450314249556,0.0
0.108,6.833871979843648,-2.0156541907155425,-4.294473630751506,0.0,23.3043000683594,20.28738917509316,373.80276041510234,353.5450314249556,0.0
0.109,6.02938847867317,-1.9324943577763385,-4.858875153266829,0.0,23.195026816481025,19.50265472101234,374.3527973143292,353.5450314249556,0.0
0.11,5.2825853703753065,-1.8469210826456635,-5.341971261774006,0.0,23.009625982447407,18.812073337342188,373.32906776428064,353.5450314249556,0.0
0.111,4.62634292920468,-1.7677902629519189,-5.027946850142963,0.0,22.76585843603514,18.27610229244596,371.1270426568666,353.5450314249556,0.0
0.112,4.101926543406748,-1.7069646664338394,-4.102754408755051,0.0,22.486971032354436,17.919105899860558,368.46252720346934,353.5450314249556,0.0
0.113,3.733050208364438,-1.6703583261359087,-2.9196716398415603,0.0,22.196854288315652,17.7261398193289,365.5285479597794,353.5450314249556,0.0
0.114,3.5128061504003276,-1.66052812852604,-1.5725171833448393,0.0,21.915737352293483,17.680352917997666,361.84965497716547,353.5450314249556,0.0
0.115,3.4256424266078764,-1.6745500078627003,0.1838830724400351,0.0,21.659794128443533,17.79815106580624,358.1139748789064,353.5450314249556,0.0
0.116,3.474998874836115,-1.7068381929233654,2.006033687030067,0.0,21.44463652332275,18.055146794952975,354.146486906171,353.5450314249556,0.0
0.117,3.6434767228223923,-1.754463054421662,3.983763118585612,0.0,21.281610104542914,18.446216923201977,350.98404928465783,353.5450314249556,0.0
0.11800000000000001,3.9279062995432437,-1.80145419174259,5.590591750745172,0.0,21.178686116956296,18.909248777010642,352.2626751812426,353.5450314249556,0.0
0.11900000000000001,4.286519051502731,-1.8430736020570029,4.964102364889902,0.0,21.13646593727057,19.194099820965782,351.4826460697066,353.5450314249556,0.0
0.12,4.567647503100806,-1.8501587338007108,5.374740774210397,0.0,21.1273160503376,19.47034085928444,341.0211234258346,353.5450314249556,0.0
0.121,4.852922798180226,-1.7829536262180605,10.0,0.0,21.139241842778265,20.194145937878844,342.41786994777283,353.5450314249556,0.0
0.122,5.369703767710747,-1.774772339273127,10.0,0.0,21.222127673346186,20.7465173419024,343.86293215865584,353.5450314249556,0.0
0.123,5.854288819160118,-1.7829464270579067,9.50073409951072,0.0,21.352943023785443,21.148884393562454,332.16193180214964,353.5450314249556,0.0
0.124,6.295026621799064,-1.6951763303570393,10.0,0.0,21.501177092831842,21.540372875383348,333.8970677969613,353.5450314249556,0.0
0.125,6.720142452266298,-1.576204487680335,10.0,0.0,21.661527401428263,21.860187893596898,323.43196341286784,353.5450314249556,0.0
0.126,7.111582270976946,-1.4398787293583992,10.0,0.0,21.82401806599774,22.12524921909523,323.88439163789724,353.5450314249556,0.0
0.127,7.493256435670548,-1.2651707585533059,10.0,0.0,21.97891117745477,22.34198371857149,312.2928289115521,353.5450314249556,0.0
0.128,7.861263887287511,-1.0750871705459821,10.0,0.0,22.12082631274097,22.515870001214896,308.39584145851416,353.5450314249556,0.0
0.129,8.199819823564503,-0.9112221558210156,10.0,0.0,22.249814247023217,22.65299809064829,318.24486042228483,353.5450314249556,0.0
0.13,8.46610797399105,-0.8538612971983475,10.0,0.0,22.374945152519327,22.763406027382402,321.35648357014657,353.5450314249556,0.0
0.131,8.550602790351329,-1.0505605096968313,10.0,0.0,22.520814283100307,22.86865471269736,335.8931763679644,353.5450314249556,0.0
0.132,8.557353942508968,-1.325792746798467,10.0,0.0,22.690929923110875,22.978067763965182,344.50508400752943,353.5450314249556,0.0
0.133,8.546510412932703,-1.5766745595032545,10.0,0.0,22.879819981273673,23.094811373882237,358.8276383284186,353.5450314249556,0.0
0.134,8.468648928090104,-1.8915798164015407,2.8911698301593356,0.0,23.093626154743667,22.44525463797833,360.99667104687137,353.5450314249556,0.0
0.135,8.007534800503715,-1.9762432532057876,1.7321370747137799,0.0,23.227259962755756,21.875572830797275,370.4157813630444,353.5450314249556,0.0
0.136,7.426022048527255,-2.0462833644122305,-3.1461255827536245,0.0,23.297419987113198,20.910559281810126,371.1219213243586,353.5450314249556,0.0
0.137,6.634809118948441,-1.9780522789549693,-3.674964462404751,0.0,23.25585683362381,20.12089173470439,373.6295587897089,353.5450314249556,0.0
0.138,5.870530973793642,-1.9100181068385695,-5.129628468727427,0.0,23.132681792694562,19.327468441732556,373.7705580791832,353.5450314249556,0.0
0.139,5.137737636698759,-1.8262225478834153,-5.402383380006871,0.0,22.93394475679715,18.65857805941634,372.31925988222685,353.5450314249556,0.0
0.14,4.502898402275,-1.748179464073436,-4.864476566101398,0.0,22.680445602628307,18.16110469280007,369.9866254069391,353.5450314249556,0.0
0.14100000000000001,4.009683206688627,-1.6927517973044544,-3.862575268277351,0.0,22.397232414708242,17.840764101220405,367.343784511586,353.5450314249556,0.0
0.14200000000000002,3.6734292049397568,-1.6623936210218742,-2.6791423514671253,0.0,22.107521363698815,17.676350646114088,364.2639329723758,353.5450314249556,0.0
0.14300000000000002,3.4805106687941394,-1.6583217934567396,-1.2464055973362225,0.0,21.830195753010365,17.663032644162286,360.554123980143,353.5450314249556,0.0
0.14400000000000002,3.4210953679635225,-1.67668375493408,0.538407973228308,0.0,21.581331437233743,17.809922504287528,356.8900453927517,353.5450314249556,0.0
