timestamp,iq,id,iq_ref,id_ref,vq,vd,omega,omega_ref,r
0.0,0.0,0.0,0.0,0.0,0.0,0.0,0.0,431.5853937281949,0.0
0.001,0.0,0.0,10.0,0.0,0.0,1.0999999999999999,6.115472199294103,431.5853937281949,0.0
0.002,0.5307369851907212,-0.2913212625381807,10.0,0.0,0.14204533887919985,1.9316189316290207,13.317801563642547,431.5853937281949,0.0
0.003,1.0842913387634832,-0.6024330830807904,10.0,0.0,0.384357124667687,2.6386968949419622,20.697939467553027,431.5853937281949,0.0
0.004,1.5590443546685477,-0.8700465084428163,10.0,0.0,0.6994718867930164,3.2526109522886295,28.232747544420146,431.5853937281949,0.0
0.005,1.9399447555359186,-1.0838738622210777,10.0,0.0,1.065311453102468,3.7994935661768023,35.92944872443006,431.5853937281949,0.0
0.006,2.239750732602683,-1.2510087368845633,10.0,0.0,1.4655018868449925,4.299102221838433,43.75633668444442,431.5853937281949,0.0
0.007,2.4770151619816017,-1.382020589851471,10.0,0.0,1.8883740978591532,4.765668027847139,51.58766747378032,431.5853937281949,0.0
0.008,2.6680767290418097,-1.4872241871505252,10.0,0.0,2.325877945545995,5.209220346273558,59.45942083902103,431.5853937281949,0.0
0.009000000000000001,2.8266491704841292,-1.5730794701170803,10.0,0.0,2.772378685460125,5.636635464737965,67.35059094018146,431.5853937281949,0.0
0.01,2.962077666392183,-1.645500646948331,10.0,0.0,3.224078639851053,6.052647735211881,75.20908322432116,431.5853937281949,0.0
0.011,3.0811061533574158,-1.7084279320504514,10.0,0.0,3.678407615443203,6.460489925470405,83.0265951655913,431.5853937281949,0.0
0.012,3.188848746459569,-1.7638278597420747,10.0,0.0,4.133552631697047,6.862319393890706,90.74118064793086,431.5853937281949,0.0
0.013000000000000001,3.288205119878689,-1.8140726097274587,10.0,0.0,4.588339016389012,7.259628641949282,98.35820682563939,431.5853937281949,0.0
0.014,3.3820602099432007,-1.8592355758795645,10.0,0.0,5.041843166194517,7.653355107498287,105.90865295623543,431.5853937281949,0.0
0.015,3.4721069852858886,-1.899829032412081,10.0,0.0,5.493383198131427,8.044092747085895,113.37727610343421,431.5853937281949,0.0
0.016,3.5596145800153947,-1.9360338400176071,10.0,0.0,5.94241958510469,8.43218525824161,120.68508583176356,431.5853937281949,0.0
0.017,3.645144415105338,-1.9685384477868613,10.0,0.0,6.388575043274759,8.817838951066484,127.83962377537456,431.5853937281949,0.0
0.018000000000000002,3.730251927866576,-1.9959253041084188,10.0,0.0,6.83136783302799,9.201036292373047,134.85405702603322,431.5853937281949,0.0
0.019,3.81544967906247,-2.018253592643655,10.0,0.0,7.270383321112213,9.581672501020332,141.68976328564074,431.5853937281949,0.0
0.02,3.9014648862453374,-2.0350875541282063,10.0,0.0,7.705189334130692,9.959536942333155,148.3432823300447,431.5853937281949,0.0
0.021,3.9891051824829464,-2.0457889559126508,10.0,0.0,8.135310004560049,10.334315260302239,154.92060212100432,431.5853937281949,0.0
0.022,4.079618141396171,-2.0489696811670974,10.0,0.0,8.560139305503519,10.705547790999272,161.01925282597162,431.5853937281949,0.0
0.023,4.171109372430197,-2.048468292080302,10.0,0.0,8.979521969370257,11.072981092896333,166.534238406907,431.5853937281949,0.0
0.024,4.266936196769627,-2.039517194249811,10.0,0.0,9.392730090169543,11.435983292623375,171.8647834235234,431.5853937281949,0.0
0.025,4.367255527950721,-2.0225841458509217,10.0,0.0,9.79914449451603,11.793929226271104,177.02637022703064,431.5853937281949,0.0
0.026000000000000002,4.4734353073349595,-1.9962166741499119,10.0,0.0,10.197980960389518,12.146045424568259,181.63161391243256,431.5853937281949,0.0
0.027,4.582366840795821,-1.966358349113627,10.0,0.0,10.589124658468391,12.491912978736195,185.74793639675826,431.5853937281949,0.0
0.028,4.700058850757774,-1.9240450691803936,10.0,0.0,10.971384864613876,12.830451341534015,189.43662766964098,431.5853937281949,0.0
0.029,4.820934284790598,-1.879137197786803,10.0,0.0,11.344756153370636,13.161242511022618,192.73598774770625,431.5853937281949,0.0
0.03,4.952016225740939,-1.821000614527957,10.0,0.0,11.707923484756042,13.483081433273819,195.59831968863915,431.5853937281949,0.0
0.031,5.086039273572549,-1.7621311371320891,10.0,0.0,12.061063698547066,13.79562148058647,197.80891551030922,431.5853937281949,0.0
0.032,5.230431844273564,-1.6911110488141978,10.0,0.0,12.40292038074925,14.097678592248165,200.4421589734679,431.5853937281949,0.0
0.033,5.380124186618445,-1.6166151787533525,10.0,0.0,12.733312761073865,14.38869342901298,201.91742172589852,431.5853937281949,0.0
0.034,5.537594793894332,-1.535029134414507,10.0,0.0,13.051537880865839,14.667821176756876,203.18880493813168,431.5853937281949,0.0
0.035,5.698947813469154,-1.4530296333491768,10.0,0.0,13.357649178779205,14.934684535625108,203.60405746232266,431.5853937281949,0.0
0.036000000000000004,5.870474243492053,-1.3603000477825025,10.0,0.0,13.65045542338638,15.188218311291084,204.28541056101804,431.5853937281949,0.0
0.037,6.041188711220851,-1.275010780747051,10.0,0.0,13.930879897581198,15.42861600670124,205.2233356988433,431.5853937281949,0.0
0.038,6.228175208801664,-1.168399557236846,10.0,0.0,14.196427351981786,15.654155009933262,200.35169734043586,431.5853937281949,0.0
0.039,6.404895489618571,-1.0845312562500289,10.0,0.0,14.449814560392067,15.86612549236809,209.64773540576442,431.5853937281949,0.0
0.04,6.534612624563911,-1.0851225869390002,10.0,0.0,14.699963825590459,16.069735965364643,218.170241886545,431.5853937281949,0.0
0.041,6.621487035821765,-1.1484636683301073,10.0,0.0,14.952420817214799,16.26974130369247,220.68166573712315,431.5853937281949,0.0
0.042,6.6704785161669795,-1.2647840534085386,10.0,0.0,15.211794475054209,16.47047148862455,233.10654395573727,431.5853937281949,0.0
0.043000000000000003,6.709376245503157,-1.3867642159960276,10.0,0.0,15.477558399636717,16.673277185423842,235.10815372853793,431.5853937281949,0.0
0.044,6.744196093263161,-1.5028656568708394,10.0,0.0,15.74857785831126,16.87893749904121,248.8181267625822,431.5853937281949,0.0
0.045,6.750563942850831,-1.6564343609015326,10.0,0.0,16.02879294551472,17.090781462187255,251.61117095327992,431.5853937281949,0.0
0.046,6.764566527560506,-1.7840489455190416,10.0,0.0,16.314672837580048,17.307985931916857,266.60539535969383,431.5853937281949,0.0
0.047,6.752169677737121,-1.9446655565152717,10.0,0.0,16.610076868775216,17.533561623207692,270.0627790167984,431.5853937281949,0.0
0.048,6.7291903821171735,-2.110358990489937,10.0,0.0,16.91511817760721,17.768523902508925,283.13731951482634,431.5853937281949,0.0
0.049,6.714097190323873,-2.246352557911731,10.0,0.0,17.22645394156277,18.011924542904307,294.70561782835244,431.5853937281949,0.0
0.05,6.666841209228205,-2.4219663531358275,10.0,0.0,17.548953774962747,18.267165921658286,300.1294548425776,431.5853937281949,0.0
0.051000000000000004,6.612335516543512,-2.59336894353628,10.0,0.0,17.88182590988993,18.53465621226123,310.75154600411304,431.5853937281949,0.0
0.052000000000000005,6.568447424188529,-2.726701034625408,10.0,0.0,18.22111236450049,18.81296732052879,322.35703405819294,431.5853937281949,0.0
0.053,6.5036136539679195,-2.8764091099274185,10.0,0.0,18.569435851849082,19.104068797231378,330.9557012510771,431.5853937281949,0.0
0.054,6.434362099984388,-3.0149932598739144,10.0,0.0,18.925784313874168,19.407861808234543,339.4707232587175,431.5853937281949,0.0
0.055,6.370891759459199,-3.1253006473392393,10.0,0.0,19.28762520191878,19.723199586257838,348.00092263299223,431.5853937281949,0.0
0.056,6.314459991163816,-3.2071523724558277,10.0,0.0,19.65271639484943,20.048760466390505,356.29964302226927,431.5853937281949,0.0
0.057,6.266092078485367,-3.262894600420583,10.0,0.0,20.01916768432525,20.383030530514645,362.98468703488817,431.5853937281949,0.0
0.058,6.234656406121481,-3.2830044001420036,10.0,0.0,20.38405550695561,20.723492962007192,368.0316803659419,431.5853937281949,0.0
0.059000000000000004,6.228510489334133,-3.2600491726267444,10.0,0.0,20.743774617448285,21.0667596267365,372.35801287012686,431.5853937281949,0.0
0.06,6.247959954981508,-3.201438289803519,10.0,0.0,21.095630838529225,21.40947063565305,373.88739853789605,431.5853937281949,0.0
0.061,6.298571070969623,-3.1064761741463998,10.0,0.0,21.436712814499675,21.747723437683817,371.47602194372377,431.5853937281949,0.0
0.062,6.38094735961424,-2.982369480030801,10.0,0.0,21.76480975788002,22.077703876517536,366.2922057853833,431.5853937281949,0.0
0.063,6.53566146196873,-2.7695519558602215,10.0,0.0,22.070926190088084,22.39130117743337,372.07145994459506,431.5853937281949,0.0
0.064,6.708566607552835,-2.560747003310555,10.0,0.0,22.35695033962817,22.686677966487718,365.1882535794375,431.5853937281949,0.0
0.065,6.897199383751794,-2.3667028673086685,10.0,0.0,22.62465294768497,22.962098937664592,356.7297130485294,431.5853937281949,0.0
0.066,7.167218997264825,-2.0824440278168583,10.0,0.0,22.863799361069702,23.20893224280502,357.7888817172531,431.5853937281949,0.0
0.067,7.423387055578651,-1.859201647307153,10.0,0.0,23.082000390168847,23.42951856849048,345.1266644280509,431.5853937281949,0.0
0.068,7.736929428236853,-1.5824320316278497,10.0,0.0,23.27222771500701,23.617938384108047,342.9584987314189,431.5853937281949,0.0
0.069,8.04132723792414,-1.3546495884062866,10.0,0.0,23.43998591632552,23.77619061530866,334.2677598047511,431.5853937281949,0.0
0.07,8.395997401416553,-1.0747195592463576,10.0,0.0,23.578279041856877,23.89942370363377,322.7417355360636,431.5853937281949,0.0
0.07100000000000001,8.726669482066718,-0.8579631993863083,10.0,0.0,23.694022264374595,23.99133556844291,337.9106389559309,431.5853937281949,0.0
0.07200000000000001,8.91385728821635,-0.8925675486457335,10.0,0.0,23.81335639313859,24.06834663115294,344.8606079910171,431.5853937281949,0.0
0.073,8.941721008651788,-1.1508071676799903,10.0,0.0,23.95651852989837,24.148396869281978,362.43451347602996,431.5853937281949,0.0
0.074,8.927907180207171,-1.4305443375681337,10.0,0.0,24.121558169292424,24.236556455607346,368.59250641149885,431.5853937281949,0.0
0.075,8.859340450140312,-1.7499202918046703,10.0,0.0,24.31124378664675,24.33980824926249,387.10067316750514,431.5853937281949,0.0
0.076,8.767176841935807,-2.0562826706616475,10.0,0.0,24.52279212376306,24.461155754889383,396.7190369145668,431.5853937281949,0.0
0.077,8.62162972262067,-2.4016532593838043,10.0,0.0,24.76024751870129,24.606611890707832,408.83095327273656,431.5853937281949,0.0
0.078,8.47560200325128,-2.694417929744825,10.0,0.0,25.017253395580042,24.77587553037574,428.2762610097064,431.5853937281949,0.0
0.079,8.289593068490031,-3.001970310780605,8.37098860535783,0.0,25.296388163948027,24.793722845984146,436.5924897391504,431.5853937281949,0.0
0.08,7.99417099913024,-3.2549873868089425,4.162803280526278,0.0,25.574150541592818,24.421724973365418,442.352937003167,431.5853937281949,0.0
0.081,7.487070860226635,-3.322161026530426,1.1749042157682332,0.0,25.79179582382033,23.880942876483775,447.1808967152074,431.5853937281949,0.0
0.082,6.842649570404984,-3.2464580974876536,-1.3950306701220683,0.0,25.924599309545016,23.229005011204038,447.0352030779391,431.5853937281949,0.0
0.083,6.131364885547457,-3.061957751630814,-1.4766819449853772,0.0,25.959390651415426,22.744056092084794,443.1251755567914,431.5853937281949,0.0
0.084,5.535456739065577,-2.8319739815548495,0.3629339973025063,0.0,25.918754755937083,22.57269251472924,438.3896001902649,431.5853937281949,0.0
0.085,5.179046722020395,-2.632974717343755,2.6626796159450654,0.0,25.845456010908567,22.682223584599374,432.27873558661815,431.5853937281949,0.0
0.08600000000000001,5.083212085146771,-2.482084839263528,5.711178499184205,0.0,25.77583235342319,23.092786803835168,427.2866648878893,431.5853937281949,0.0
0.08700000000000001,5.2673884006838225,-2.370939629635001,8.250201136951695,0.0,25.743510309331604,23.68292109564306,429.4661952342002,431.5853937281949,0.0
0.088,5.65002183117789,-2.3035622871916623,7.181627948736185,0.0,25.767133843257483,24.02762856258064,423.1596788881518,431.5853937281949,0.0
0.089,5.9840221273634935,-2.2040305990702747,10.0,0.0,25.81259105821562,24.628020595462765,408.9411546359156,431.5853937281949,0.0
0.09,6.498984825264726,-2.0575975643611426,10.0,0.0,25.89842943802936,25.091429532232567,410.83426406466134,431.5853937281949,0.0
0.091,7.010646486277572,-1.8873023226726424,10.0,0.0,26.004756727300048,25.46594825757435,396.6249042267469,431.5853937281949,0.0
0.092,7.498103467589833,-1.6938595585049372,10.0,0.0,26.1183274085363,25.76514418797482,392.1198531896418,431.5853937281949,0.0
0.093,7.998209448772501,-1.4269189421907247,10.0,0.0,26.22303157453608,25.99564050534189,376.2888052801171,431.5853937281949,0.0
0.094,8.457374363844792,-1.1898725208139163,10.0,0.0,26.316909255484283,26.168050526726105,374.2587363111728,431.5853937281949,0.0
0.095,8.926922798897015,-0.9168633814973064,10.0,0.0,26.39097962936503,26.2855486353617,365.37613559836126,431.5853937281949,0.0
0.096,9.384126626308374,-0.6514628291272087,10.0,0.0,26.44292880735372,26.35310703385708,375.63423986980195,431.5853937281949,0.0
0.097,9.514442401010408,-0.8929351591773433,10.0,0.0,26.525654869222294,26.409341813358687,393.6192533242363,431.5853937281949,0.0
0.098,9.553076734058571,-1.2063538948936432,10.0,0.0,26.637793140482465,26.465279102208704,401.81875554247057,431.5853937281949,0.0
0.099,9.492128354820252,-1.6015104796333839,10.0,0.0,26.784644350465822,26.53392715434645,420.54073010405295,431.5853937281949,0.0
0.1,9.396975515202039,-1.9707989725953632,10.0,0.0,26.96034541304304,26.620252850834362,433.9345394477934,431.5853937281949,0.0
0.101,9.222695651406493,-2.394912016011345,5.679273625338493,0.0,27.17006848885746,26.258455439339766,443.4525388509303,431.5853937281949,0.0
0.10200000000000001,8.805496135973941,-2.650836689816086,0.801602472542684,0.0,27.34655009962534,25.50462266157477,452.8996893297596,431.5853937281949,0.0
0.10300000000000001,8.082259549893331,-2.7628032438509473,-4.135115722887621,0.0,27.439757345745736,24.42494306200824,455.60961060391264,431.5853937281949,0.0
0.10400000000000001,7.118379756419856,-2.6976775094541603,-5.730318528721314,0.0,27.407392410973433,23.435241431744277,456.02120733300563,431.5853937281949,0.0
0.105,6.151525859971528,-2.556660731345949,-6.180475029315917,0.0,27.264433218404022,22.60442341469698,453.8986785440522,431.5853937281949,0.0
0.106,5.306389699096724,-2.388017617561368,-5.342343482997768,0.0,27.03554756865162,22.022383753930164,449.8603735484088,431.5853937281949,0.0
0.107,4.670796225424053,-2.2296527358999736,-3.505940783378213,0.0,26.755612811952854,21.730746396255004,444.13727898182196,431.5853937281949,0.0
0.108,4.286072509891448,-2.113199990868729,-0.7699123526210645,0.0,26.463281642019627,21.758842073036437,437.86867728536083,431.5853937281949,0.0
0.109,4.1803344480562075,-2.0442226332515627,2.3015556600378435,0.0,26.196570174870292,22.073180211877858,431.48753818283814,431.5853937281949,0.0
0.11,4.331435246348362,-2.0276159154131395,5.493103766752759,0.0,25.98682670293398,22.63209053330177,425.636735114177,431.5853937281949,0.0
0.111,4.715819652560449,-2.0347222730910417,8.477991887223514,0.0,25.854896376856647,23.369786410873882,426.62232347580914,431.5853937281949,0.0
0.112,5.274979700478432,-2.0627502993065114,8.034828408931293,0.0,25.81294069045117,23.88425904305534,423.20253506621134,431.5853937281949,0.0
0.113,5.774988629724406,-2.0519161728322084,9.828551200350029,0.0,25.825155801730062,24.49542060347921,408.0180722153216,431.5853937281949,0.0
0.114,6.359129196613077,-1.9611848929840712,10.0,0.0,25.88739345840491,24.9883542859706,408.71990620956643,431.5853937281949,0.0
0.115,6.927432372337066,-1.809752134835048,10.0,0.0,25.976950427063493,25.37983193422309,395.73498520809216,431.5853937281949,0.0
0.116,7.442051532483758,-1.6434244404806555,10.0,0.0,26.07991774488397,25.690192438657288,389.848045311712,431.5853937281949,0.0
0.117,7.966936306522474,-1.3831803161541831,10.0,0.0,26.176660804633457,25.927222490887328,375.5603863877888,431.5853937281949,0.0
0.11800000000000001,8.434228114577529,-1.1636005917166208,10.0,0.0,26.26588123518613,26.104070592723627,373.0913649904879,431.5853937281949,0.0
0.11900000000000001,8.917738773859963,-0.8878295217986727,10.0,0.0,26.335725412420558,26.223642672991055,366.23395228148667,431.5853937281949,0.0
0.12,9.363042061135332,-0.655318613577911,10.0,0.0,26.387723890753193,26.294093707947724,375.3002032172514,431.5853937281949,0.0
0.121,9.495414560335412,-0.8984830154184555,10.0,0.0,26.470640818032898,26.352591545202724,393.5480435683432,431.5853937281949,0.0
0.122,9.530794784630547,-1.2191520593207779,10.0,0.0,26.58395778712098,26.41096319177973,401.3758159830859,431.5853937281949,0.0
0.123,9.470723223546912,-1.6131718794370031,10.0,0.0,26.731915713731716,26.481791044570002,420.27586688091185,431.5853937281949,0.0
0.124,9.375479880638565,-1.9820850117459385,10.0,0.0,26.90880087931323,26.570207956851405,433.49177188592535,431.5853937281949,0.0
0.125,9.201209765823886,-2.405393790204145,5.45460258779883,0.0,27.11971405387204,26.18569525832121,442.8139890228852,431.5853937281949,0.0
0.126,8.772639474041881,-2.653604372785365,0.6812080663719939,0.0,27.294154717421307,25.42650575481286,452.0903607378405,431.5853937281949,0.0
0.127,8.043765016066633,-2.7593343588857375,-4.162027461202115,0.0,27.38438055691004,24.351547792650845,454.7416411066159,431.5853937281949,0.0
0.128,7.081441748758098,-2.691625764185081,-5.719230119374004,0.0,27.349582770955614,23.36881508835491,455.0777270782546,431.5853937281949,0.0
0.129,6.120036031001386,-2.5497960968990743,-6.122196438693971,0.0,27.20506731571259,22.54825300362982,452.9317885989622,431.5853937281949,0.0
0.13,5.2832081496204095,-2.381941304893798,-5.2626911477554446,0.0,26.975901467073648,21.976307836823715,448.84841722996634,431.5853937281949,0.0
0.131,4.656178047027306,-2.2256918346574635,-3.393635698275224,0.0,26.696948792812034,21.696246680839188,443.1733831099823,431.5853937281949,0.0
0.132,4.280879834995667,-2.111526662928368,-0.6719985321010746,0.0,26.406889596190286,21.73199840910884,436.9922403862773,431.5853937281949,0.0
0.133,4.182052888413234,-2.044829161107976,2.3645043631706137,0.0,26.143216418574738,22.049085973711264,430.6172421962126,431.5853937281949,0.0
0.134,4.336715110614746,-2.0290578791543776,5.561684973522773,0.0,25.936551449184293,22.61142118836993,424.88425095151433,431.5853937281949,0.0
0.135,4.723975478893423,-2.036217984863753,8.495192023638712,0.0,25.807731822646325,23.346518335744268,426.0534029353215,431.5853937281949,0.0
0.136,5.282059149528773,-2.063879975528114,7.965935939663855,0.0,25.768275091415568,23.850153965901875,422.21839307125305,431.5853937281949,0.0
0.137,5.77552339217593,-2.0511490824282705,9.977110878267506,0.0,25.781450578176035,24.47730193402197,407.1529413088104,431.5853937281949,0.0
0.138,6.365956628068134,-1.9616415547494228,10.0,0.0,25.846304793958772,24.96544569448896,408.259592013113,431.5853937281949,0.0
0.139,6.9315649953785625,-1.8125466794961913,10.0,0.0,25.937982603208887,25.35471902122498,394.98128595058427,431.5853937281949,0.0
0.14,7.445055175486078,-1.6439778343567417,10.0,0.0,26.042368339994773,25.66340496007369,389.5629733440033,431.5853937281949,0.0
0.14100000000000001,7.966261020665171,-1.385517182876351,10.0,0.0,26.140439113775493,25.89946313754748,374.8298416397937,431.5853937281949,0.0
0.14200000000000002,8.432657887272033,-1.163850149817453,10.0,0.0,26.230509860803856,26.07563097777701,372.59438539030924,431.5853937281949,0.0
0.14300000000000002,8.912346229387287,-0.8913951785022581,10.0,0.0,26.301436940638236,26.19508735971982,366.06498790169195,431.5853937281949,0.0
0.14400000000000002,9.357283378313513,-0.6571394095210025,10.0,0.0,26.35417336580868,26.265544608491044,374.789737031744,431.5853937281949,0.0
0.145,9.488908737707598,-0.8994439911010477,10.0,0.0,26.437677935002817,26.324200356858118,393.35422708931543,431.5853937281949,0.0
0.146,9.524775431012632,-1.2177895155874754,10.0,0.0,26.551292583991962,26.382711904638263,400.9313826927873,431.5853937281949,0.0
