timestamp,iq,id,iq_ref,id_ref,vq,vd,omega,omega_ref,r
0.0,0.0,0.0,0.0,0.0,0.0,0.0,0.0,292.54670569757735,0.0
0.001,0.0,0.0,10.0,0.0,0.0,1.0999999999999999,6.115472199294103,292.54670569757735,0.0
0.002,0.5307369851907212,-0.2913212625381807,10.0,0.0,0.14204533887919985,1.9316189316290207,13.317801563642547,292.54670569757735,0.0
0.003,1.0842913387634832,-0.6024330830807904,10.0,0.0,0.384357124667687,2.6386968949419622,20.697939467553027,292.54670569757735,0.0
0.004,1.5590443546685477,-0.8700465084428163,10.0,0.0,0.6994718867930164,3.2526109522886295,28.232747544420146,292.54670569757735,0.0
0.005,1.9399447555359186,-1.0838738622210777,10.0,0.0,1.065311453102468,3.7994935661768023,35.92944872443006,292.54670569757735,0.0
0.006,2.239750732602683,-1.2510087368845633,10.0,0.0,1.4655018868449925,4.299102221838433,43.75633668444442,292.54670569757735,0.0
0.007,2.4770151619816017,-1.382020589851471,10.0,0.0,1.8883740978591532,4.765668027847139,51.58766747378032,292.54670569757735,0.0
0.008,2.6680767290418097,-1.4872241871505252,10.0,0.0,2.325877945545995,5.209220346273558,59.45942083902103,292.54670569757735,0.0
0.009000000000000001,2.8266491704841292,-1.5730794701170803,10.0,0.0,2.772378685460125,5.636635464737965,67.35059094018146,292.54670569757735,0.0
0.01,2.962077666392183,-1.645500646948331,10.0,0.0,3.224078639851053,6.052647735211881,75.20908322432116,292.54670569757735,0.0
0.011,3.0811061533574158,-1.7084279320504514,10.0,0.0,3.678407615443203,6.460489925470405,83.0265951655913,292.54670569757735,0.0
0.012,3.188848746459569,-1.7638278597420747,10.0,0.0,4.133552631697047,6.862319393890706,90.74118064793086,292.54670569757735,0.0
0.013000000000000001,3.288205119878689,-1.8140726097274587,10.0,0.0,4.588339016389012,7.259628641949282,98.35820682563939,292.54670569757735,0.0
0.014,3.3820602099432007,-1.8592355758795645,10.0,0.0,5.041843166194517,7.653355107498287,105.90865295623543,292.54670569757735,0.0
0.015,3.4721069852858886,-1.899829032412081,10.0,0.0,5.493383198131427,8.044092747085895,113.37727610343421,292.54670569757735,0.0
0.016,3.5596145800153947,-1.9360338400176071,10.0,0.0,5.94241958510469,8.43218525824161,120.68508583176356,292.54670569757735,0.0
0.017,3.645144415105338,-1.9685384477868613,10.0,0.0,6.388575043274759,8.817838951066484,127.83962377537456,292.54670569757735,0.0
0.018000000000000002,3.730251927866576,-1.9959253041084188,10.0,0.0,6.83136783302799,9.201036292373047,134.85405702603322,292.54670569757735,0.0
0.019,3.81544967906247,-2.018253592643655,10.0,0.0,7.270383321112213,9.581672501020332,141.68976328564074,292.54670569757735,0.0
0.02,3.9014648862453374,-2.0350875541282063,10.0,0.0,7.705189334130692,9.959536942333155,148.3432823300447,292.54670569757735,0.0
0.021,3.9891051824829464,-2.0457889559126508,10.0,0.0,8.135310004560049,10.334315260302239,154.92060212100432,292.54670569757735,0.0
0.022,4.079618141396171,-2.0489696811670974,10.0,0.0,8.560139305503519,10.705547790999272,161.01925282597162,292.54670569757735,0.0
0.023,4.171109372430197,-2.048468292080302,10.0,0.0,8.979521969370257,11.072981092896333,166.534238406907,292.54670569757735,0.0
0.024,4.266936196769627,-2.039517194249811,10.0,0.0,9.392730090169543,11.435983292623375,171.8647834235234,292.54670569757735,0.0
0.025,4.367255527950721,-2.0225841458509217,10.0,0.0,9.79914449451603,11.793929226271104,177.02637022703064,292.54670569757735,0.0
0.026000000000000002,4.4734353073349595,-1.9962166741499119,10.0,0.0,10.197980960389518,12.146045424568259,181.63161391243256,292.54670569757735,0.0
0.027,4.582366840795821,-1.966358349113627,10.0,0.0,10.589124658468391,12.491912978736195,185.74793639675826,292.54670569757735,0.0
0.028,4.700058850757774,-1.9240450691803936,10.0,0.0,10.971384864613876,12.830451341534015,189.43662766964098,292.54670569757735,0.0
0.029,4.820934284790598,-1.879137197786803,10.0,0.0,11.344756153370636,13.161242511022618,192.73598774770625,292.54670569757735,0.0
0.03,4.952016225740939,-1.821000614527957,10.0,0.0,11.707923484756042,13.483081433273819,195.59831968863915,292.54670569757735,0.0
0.031,5.086039273572549,-1.7621311371320891,10.0,0.0,12.061063698547066,13.79562148058647,197.80891551030922,292.54670569757735,0.0
0.032,5.230431844273564,-1.6911110488141978,10.0,0.0,12.40292038074925,14.097678592248165,200.4421589734679,292.54670569757735,0.0
0.033,5.380124186618445,-1.6166151787533525,10.0,0.0,12.733312761073865,14.38869342901298,201.91742172589852,292.54670569757735,0.0
0.034,5.537594793894332,-1.535029134414507,10.0,0.0,13.051537880865839,14.667821176756876,203.18880493813168,292.54670569757735,0.0
0.035,5.698947813469154,-1.4530296333491768,10.0,0.0,13.357649178779205,14.934684535625108,203.60405746232266,292.54670569757735,0.0
0.036000000000000004,5.870474243492053,-1.3603000477825025,10.0,0.0,13.65045542338638,15.188218311291084,204.28541056101804,292.54670569757735,0.0
0.037,6.041188711220851,-1.275010780747051,10.0,0.0,13.930879897581198,15.42861600670124,205.2233356988433,292.54670569757735,0.0
0.038,6.228175208801664,-1.168399557236846,10.0,0.0,14.196427351981786,15.654155009933262,200.35169734043586,292.54670569757735,0.0
0.039,6.404895489618571,-1.0845312562500289,10.0,0.0,14.449814560392067,15.86612549236809,209.64773540576442,292.54670569757735,0.0
0.04,6.534612624563911,-1.0851225869390002,10.0,0.0,14.699963825590459,16.069735965364643,218.170241886545,292.54670569757735,0.0
0.041,6.621487035821765,-1.1484636683301073,10.0,0.0,14.952420817214799,16.26974130369247,220.68166573712315,292.54670569757735,0.0
0.042,6.6704785161669795,-1.2647840534085386,10.0,0.0,15.211794475054209,16.47047148862455,233.10654395573727,292.54670569757735,0.0
0.043000000000000003,6.709376245503157,-1.3867642159960276,10.0,0.0,15.477558399636717,16.673277185423842,235.10815372853793,292.54670569757735,0.0
0.044,6.744196093263161,-1.5028656568708394,10.0,0.0,15.74857785831126,16.87893749904121,248.8181267625822,292.54670569757735,0.0
0.045,6.750563942850831,-1.6564343609015326,10.0,0.0,16.02879294551472,17.090781462187255,251.61117095327992,292.54670569757735,0.0
0.046,6.764566527560506,-1.7840489455190416,10.0,0.0,16.314672837580048,17.307985931916857,266.60539535969383,292.54670569757735,0.0
0.047,6.752169677737121,-1.9446655565152717,10.0,0.0,16.610076868775216,17.533561623207692,270.0627790167984,292.54670569757735,0.0
0.048,6.7291903821171735,-2.110358990489937,10.0,0.0,16.91511817760721,17.768523902508925,283.13731951482634,292.54670569757735,0.0
0.049,6.714097190323873,-2.246352557911731,10.0,0.0,17.22645394156277,18.011924542904307,294.70561782835244,292.54670569757735,0.0
0.05,6.666841209228205,-2.4219663531358275,4.423652029037628,0.0,17.548953774962747,17.653767644852426,296.40498636507607,292.54670569757735,0.0
0.051000000000000004,6.318259150419772,-2.4356127843883724,3.535384954000828,0.0,17.803132904703077,17.359601988059275,300.1752618074158,292.54670569757735,0.0
0.052000000000000005,5.914134327385,-2.3915654942856435,1.5739616717325884,0.0,17.997495889566235,16.95436482956608,307.15375537689323,292.54670569757735,0.0
0.053,5.440355031403005,-2.3147897943152653,-2.061355609799296,0.0,18.123894005998046,16.276891491590366,305.46188730630934,292.54670569757735,0.0
0.054,4.832767572851429,-2.1503519503114656,-1.3445733905946682,0.0,18.152584571148385,15.85710134346409,305.1005523797755,292.54670569757735,0.0
0.055,4.339264836491118,-2.0052380245022494,-1.2894443941497213,0.0,18.122108911572088,15.529265060496485,304.33219992644104,292.54670569757735,0.0
0.056,3.948219628900563,-1.893779806145035,-1.0231231097711362,0.0,18.051087924895462,15.297988836656572,302.60230939333667,292.54670569757735,0.0
0.057,3.660058324503081,-1.809095968857413,-0.2587338801765453,0.0,17.955840774584445,15.19194503035242,300.6928743344435,292.54670569757735,0.0
0.058,3.4850214534717288,-1.7536472873757971,0.6145219629013763,0.0,17.854261442084,15.191767582859676,298.51604569139647,292.54670569757735,0.0
0.059000000000000004,3.411651058959111,-1.7239721755959285,1.6432428844867006,0.0,17.76011252260336,15.292197064495848,296.0847298090578,292.54670569757735,0.0
0.06,3.4321553335747184,-1.7121707273374454,2.823520584541222,0.0,17.684420035043768,15.489722869657639,294.7363633511714,292.54670569757735,0.0
0.061,3.540692628414269,-1.7110340875658168,3.475807236948488,0.0,17.63604236086402,15.70814154062535,295.56527105593074,292.54670569757735,0.0
0.062,3.693500087620069,-1.7038533045106103,3.031167730985289,0.0,17.613565801460663,15.82872391733405,295.8167517339274,292.54670569757735,0.0
0.063,3.800548716851609,-1.6878353020331003,2.872726931623461,0.0,17.603704963226537,15.91177103293796,288.316370201677,292.54670569757735,0.0
0.064,3.9002018941061345,-1.6177238452319627,6.665221052707666,0.0,17.59558284015286,16.394394751265263,287.42215122066426,292.54670569757735,0.0
0.065,4.205887951551288,-1.604238764849831,7.16357608798316,0.0,17.635753056945262,16.812209063575516,291.1560259280737,292.54670569757735,0.0
0.066,4.5283144233695385,-1.6219790232616118,5.310545531973483,0.0,17.715773962518572,16.95103200349461,283.40349256164666,292.54670569757735,0.0
0.067,4.731238617035956,-1.5613523255733546,9.278244346546305,0.0,17.79482873219662,17.519854518557104,284.35733050955577,292.54670569757735,0.0
0.068,5.130683552467209,-1.5332353368825478,8.883219124471967,0.0,17.92037367463402,17.91466079554648,285.2625871876738,292.54670569757735,0.0
0.069,5.477711820702295,-1.5277053161713203,8.503431970512,0.0,18.072517618135286,18.21053594421425,276.3098555999212,292.54670569757735,0.0
0.07,5.804516348770094,-1.4324988870191224,10.0,0.0,18.228617275153574,18.62798011174355,280.89342097529095,292.54670569757735,0.0
0.07100000000000001,6.1600107299659514,-1.383197362113091,10.0,0.0,18.40638027977482,18.968487811275995,272.53068736783655,292.54670569757735,0.0
0.07200000000000001,6.521288240123148,-1.2846267069079689,10.0,0.0,18.590067997063684,19.256535459011985,273.9961696532456,292.54670569757735,0.0
0.073,6.839476391729337,-1.2024842920356265,10.0,0.0,18.77614174831335,19.502759192128163,270.78640665003877,292.54670569757735,0.0
0.074,7.169283579241459,-1.0547401097842535,10.0,0.0,18.952800061850752,19.709871017947417,262.4671031793037,292.54670569757735,0.0
0.075,7.455455115726315,-0.9444918763658772,10.0,0.0,19.12185386276282,19.885756695400275,274.2601714871569,292.54670569757735,0.0
0.076,7.660965810709698,-0.9467426893416606,10.0,0.0,19.292940923090484,20.041214724115726,280.74463601334,292.54670569757735,0.0
0.077,7.766554276254578,-1.0724360739780592,10.0,0.0,19.476268844437175,20.18867603173229,286.75186889241894,292.54670569757735,0.0
0.078,7.792706714459172,-1.2905108129056124,8.555869918295901,0.0,19.67874139184653,20.179048808187364,299.61230635417076,292.54670569757735,0.0
0.079,7.736557325691848,-1.4398075604350944,2.0549951808540596,0.0,19.874245856999412,19.496414598582756,298.7918324366422,292.54670569757735,0.0
0.08,7.280256540466812,-1.4612270265605416,2.4027808722276838,0.0,19.982799628475053,19.054491022366484,303.4920480835818,292.54670569757735,0.0
0.081,6.827748373673473,-1.4738081850631692,-0.05678037510214473,0.0,20.03747539795554,18.438798477294423,308.40519535048054,292.54670569757735,0.0
0.082,6.28582036791177,-1.465746192992068,-2.671938905080557,0.0,20.024101705267924,17.68215793681914,309.0404941799139,292.54670569757735,0.0
0.083,5.66396127796154,-1.4015128277178934,-3.1545262046205913,0.0,19.929416277542096,17.035896283309906,310.4407388329225,292.54670569757735,0.0
0.084,5.078211306271304,-1.3555200265431888,-4.033588862478342,0.0,19.775156352761446,16.411135138996478,310.31501922170094,292.54670569757735,0.0
0.085,4.532249760011507,-1.3134874298416814,-4.148412192108807,0.0,19.5696826484021,15.88378244732724,309.6469355132299,292.54670569757735,0.0
0.08600000000000001,4.062645512188174,-1.2881239042463444,-3.98537263602981,0.0,19.329651383463297,15.453897090651951,308.36935312035234,292.54670569757735,0.0
0.08700000000000001,3.678717940050272,-1.2828813893327353,-3.5048079138187855,0.0,19.070311667966298,15.131764857489665,306.7642300187912,292.54670569757735,0.0
0.088,3.3870769165196686,-1.2972928619733586,-2.844421606250343,0.0,18.80633038784238,14.911989959571319,304.9814503465564,292.54670569757735,0.0
0.089,3.1840794115300692,-1.3287280873849479,-2.0773792166227496,0.0,18.55008350600788,14.784978538529316,303.21058589122634,292.54670569757735,0.0
0.09,3.06201039999961,-1.371149902543035,-1.2985857908942045,0.0,18.311112217665908,14.734438040560379,301.4427386284634,292.54670569757735,0.0
0.091,3.0070020175161583,-1.419828327531775,-0.5036224888216019,0.0,18.09591441695842,14.749542724482712,299.2831537179267,292.54670569757735,0.0
0.092,3.0071122504303816,-1.4711719238762295,0.5088054862432512,0.0,17.908907876061917,14.844472394733078,297.1428538493903,292.54670569757735,0.0
0.093,3.065904749032721,-1.5245333609083027,1.5329939389933376,0.0,17.755451278390183,15.007278821403506,294.6527549674868,292.54670569757735,0.0
0.094,3.1786187892508426,-1.575504297032476,2.7569828872459747,0.0,17.638694171756008,15.251045225982027,292.83145881359195,292.54670569757735,0.0
0.095,3.3521049421208438,-1.6211942622623488,3.6647834330332674,0.0,17.56250560305714,15.528421113579846,293.348807104312,292.54670569757735,0.0
0.096,3.5618570553643494,-1.6553530872467164,3.398088273605888,0.0,17.524974051083923,15.710688211625019,295.0294280458791,292.54670569757735,0.0
0.097,3.7249126450929593,-1.6686350138067987,2.532950579339321,0.0,17.510541787784316,15.762638656155591,287.94486385117807,292.54670569757735,0.0
0.098,3.8229838920887764,-1.6144635678321737,6.121251095153836,0.0,17.49665611694492,16.20215798231316,285.0030979717363,292.54670569757735,0.0
0.099,4.1075495730738405,-1.597902625948393,7.667570112133141,0.0,17.526830956657733,16.700227383042204,289.46072510814884,292.54670569757735,0.0
0.1,4.462116992054108,-1.6346259997929038,5.469616349821149,0.0,17.60800043301392,16.85811246436754,284.05659392720696,292.54670569757735,0.0
0.101,4.6780188288677245,-1.5937402506346303,8.25658305799579,0.0,17.691976803721165,17.316668332858594,281.86468474749256,292.54670569757735,0.0
0.10200000000000001,5.028054276588356,-1.5416867221894373,9.459357857353838,0.0,17.808094093569405,17.805856931537775,284.86227613931663,292.54670569757735,0.0
0.10300000000000001,5.403357764345019,-1.5491039640676472,8.037406457024408,0.0,17.962854946191786,18.051512968128016,276.2941379085523,292.54670569757735,0.0
0.10400000000000001,5.700448142967742,-1.4661517501909507,10.0,0.0,18.117506401265736,18.489257383281146,281.39621006646496,292.54670569757735,0.0
0.105,6.066408802810227,-1.4030986573815372,9.994790102645684,0.0,18.294360834277335,18.841208709491184,272.93808541179254,292.54670569757735,0.0
0.106,6.4167914975070435,-1.3299479188206726,10.0,0.0,18.481308906295176,19.141393044245667,275.86963853652065,292.54670569757735,0.0
0.107,6.748412675800124,-1.2335732847229557,10.0,0.0,18.66971090222155,19.397227151087677,268.3256767682958,292.54670569757735,0.0
0.108,7.072474458842008,-1.1004678610729157,10.0,0.0,18.851178258978948,19.61398746248644,265.3096121060572,292.54670569757735,0.0
0.109,7.356669503181578,-0.9972859829968299,10.0,0.0,19.026155958848623,19.799197641374136,271.08304987497837,292.54670569757735,0.0
0.11,7.615284800776731,-0.9135006731001996,10.0,0.0,19.19397234131222,19.95777884006796,276.8734370373987,292.54670569757735,0.0
0.111,7.736297468110595,-1.0235228284311364,10.0,0.0,19.373805495584225,20.10655831670799,283.866608406542,292.54670569757735,0.0
0.112,7.7738368835267995,-1.23283593492072,9.459689705685292,0.0,19.572457502253574,20.196089819714153,297.10979182558805,292.54670569757735,0.0
0.113,7.7760073276948685,-1.399144043050854,2.7924671348821697,0.0,19.77639821938601,19.568678638537104,296.1767052842713,292.54670569757735,0.0
0.114,7.369152961825619,-1.437693020405724,3.2227104096736072,0.0,19.89978105311524,19.183177317813406,302.4345756002649,292.54670569757735,0.0
0.115,6.963221228309527,-1.4646287367007162,-0.005103447350075285,0.0,19.97485291041808,18.529786402542555,306.41526403988246,292.54670569757735,0.0
0.116,6.414993244483531,-1.454376660705426,-2.134133250581902,0.0,19.975681404941113,17.803572385629504,307.28996040546195,292.54670569757735,0.0
0.117,5.804446337777914,-1.3962033403702594,-2.7189139804504965,0.0,19.89750910384364,17.16870491750619,309.014875092416,292.54670569757735,0.0
0.11800000000000001,5.225533239499957,-1.3558356375279195,-3.7460530178759006,0.0,19.759808571934254,16.53994445101088,309.25803209692447,292.54670569757735,0.0
0.11900000000000001,4.676750337839358,-1.3160000754379508,-4.03474478412361,0.0,19.56902381176481,15.993382262261049,308.8420537084459,292.54670569757735,0.0
0.12,4.192723252884981,-1.2896672550454817,-3.9897090699930207,0.0,19.340163054115052,15.53799381291447,307.7465727805077,292.54670569757735,0.0
0.121,3.7879441383182146,-1.2808418818585816,-3.5939672768532036,0.0,19.087942064448992,15.188024804594452,306.2822209268349,292.54670569757735,0.0
0.122,3.472413581674278,-1.29125342467715,-2.9991465023093884,0.0,18.827179796359438,14.939964035493421,304.60005038345633,292.54670569757735,0.0
0.123,3.244908684177766,-1.3189916244765374,-2.278594677478898,0.0,18.57063476471848,14.785815842637623,302.85184655692177,292.54670569757735,0.0
0.124,3.098999919957011,-1.359086337080242,-1.5075441728050603,0.0,18.328462453344457,14.712812918258448,301.2019329235332,292.54670569757735,0.0
0.125,3.0239833003685304,-1.4059510078219377,-0.7691396283703367,0.0,18.107961247325466,14.70319979053339,299.1461727962585,292.54670569757735,0.0
0.126,3.0036307925717454,-1.4570722453451685,0.19274576428020662,0.0,17.913703538556003,14.77240981238792,297.00344010308237,292.54670569757735,0.0
0.127,3.0429465695104283,-1.508380509611664,1.2195447668132204,0.0,17.75092529954303,14.914073836990948,294.76212452910966,292.54670569757735,0.0
0.128,3.137111672461189,-1.5611941734193617,2.3180483654842536,0.0,17.62388770726783,15.125896037505667,292.5337022270197,292.54670569757735,0.0
0.129,3.2867519957240052,-1.6083915927342183,3.4323895512347997,0.0,17.53539967375819,15.399905968657837,291.8661491879043,292.54670569757735,0.0
0.13,3.4870331518021436,-1.647187349367626,3.772971635889247,0.0,17.486956995751243,15.643452196862345,294.2769055640087,292.54670569757735,0.0
0.131,3.683729532360128,-1.6683903801628235,2.5502914491727253,0.0,17.469657584186592,15.700265102759746,290.21526316571516,292.54670569757735,0.0
0.132,3.781359281073229,-1.6411633568085264,4.604427073638119,0.0,17.456562401491215,15.979076188916443,283.09363235719616,292.54670569757735,0.0
0.133,3.9802519293828174,-1.606304997902909,8.25977321130143,0.0,17.46909569643497,16.58934147325932,288.04152147638405,292.54670569757735,0.0
0.134,4.374514125545193,-1.641981338922427,5.830880493919418,0.0,17.545675171419845,16.79472198327886,288.42863367626654,292.54670569757735,0.0
0.135,4.615166250380397,-1.6294938133259775,5.678505114191279,0.0,17.633404358682384,16.97222091342841,279.1506896705117,292.54670569757735,0.0
0.136,4.8253569481404925,-1.5371651829169897,10.0,0.0,17.720079246144593,17.596916605020247,284.24654584431755,292.54670569757735,0.0
0.137,5.24239684601692,-1.5297862475636101,7.977482043422242,0.0,17.860667817434987,17.85834581032867,279.1611448397752,292.54670569757735,0.0
0.138,5.534349927005895,-1.4927027376756965,10.0,0.0,18.009335055393045,18.32244866709461,278.9038789436483,292.54670569757735,0.0
0.139,5.931808223717204,-1.4167763050015987,10.0,0.0,18.181564782736615,18.69398190058561,276.4838267770207,292.54670569757735,0.0
0.14,6.276398205588491,-1.3826346937679528,10.0,0.0,18.37072854778598,19.011654468423146,274.87768727361987,292.54670569757735,0.0
0.14100000000000001,6.6367027421212565,-1.2596907759616585,10.0,0.0,18.559560778267798,19.280288556781976,267.9246565895182,292.54670569757735,0.0
