timestamp,iq,id,iq_ref,id_ref,vq,vd,omega,omega_ref,r
0.0,0.0,0.0,0.0,0.0,0.0,0.0,0.0,332.57627324047337,0.0
0.001,0.0,0.0,10.0,0.0,0.0,1.0999999999999999,6.115472199294103,332.57627324047337,0.0
0.002,0.5307369851907212,-0.2913212625381807,10.0,0.0,0.14204533887919985,1.9316189316290207,13.317801563642547,332.57627324047337,0.0
0.003,1.0842913387634832,-0.6024330830807904,10.0,0.0,0.384357124667687,2.6386968949419622,20.697939467553027,332.57627324047337,0.0
0.004,1.5590443546685477,-0.8700465084428163,10.0,0.0,0.6994718867930164,3.2526109522886295,28.232747544420146,332.57627324047337,0.0
0.005,1.9399447555359186,-1.0838738622210777,10.0,0.0,1.065311453102468,3.7994935661768023,35.92944872443006,332.57627324047337,0.0
0.006,2.239750732602683,-1.2510087368845633,10.0,0.0,1.4655018868449925,4.299102221838433,43.75633668444442,332.57627324047337,0.0
0.007,2.4770151619816017,-1.382020589851471,10.0,0.0,1.8883740978591532,4.765668027847139,51.58766747378032,332.57627324047337,0.0
0.008,2.6680767290418097,-1.4872241871505252,10.0,0.0,2.325877945545995,5.209220346273558,59.45942083902103,332.57627324047337,0.0
0.009000000000000001,2.8266491704841292,-1.5730794701170803,10.0,0.0,2.772378685460125,5.636635464737965,67.35059094018146,332.57627324047337,0.0
0.01,2.962077666392183,-1.645500646948331,10.0,0.0,3.224078639851053,6.052647735211881,75.20908322432116,332.57627324047337,0.0
0.011,3.0811061533574158,-1.7084279320504514,10.0,0.0,3.678407615443203,6.460489925470405,83.0265951655913,332.57627324047337,0.0
0.012,3.188848746459569,-1.7638278597420747,10.0,0.0,4.133552631697047,6.862319393890706,90.74118064793086,332.57627324047337,0.0
0.013000000000000001,3.288205119878689,-1.8140726097274587,10.0,0.0,4.588339016389012,7.259628641949282,98.35820682563939,332.57627324047337,0.0
0.014,3.3820602099432007,-1.8592355758795645,10.0,0.0,5.041843166194517,7.653355107498287,105.90865295623543,332.57627324047337,0.0
0.015,3.4721069852858886,-1.899829032412081,10.0,0.0,5.493383198131427,8.044092747085895,113.37727610343421,332.57627324047337,0.0
0.016,3.5596145800153947,-1.9360338400176071,10.0,0.0,5.94241958510469,8.43218525824161,120.68508583176356,332.57627324047337,0.0
0.017,3.645144415105338,-1.9685384477868613,10.0,0.0,6.388575043274759,8.817838951066484,127.83962377537456,332.57627324047337,0.0
0.018000000000000002,3.730251927866576,-1.9959253041084188,10.0,0.0,6.83136783302799,9.201036292373047,134.85405702603322,332.57627324047337,0.0
0.019,3.81544967906247,-2.018253592643655,10.0,0.0,7.270383321112213,9.581672501020332,141.68976328564074,332.57627324047337,0.0
0.02,3.9014648862453374,-2.0350875541282063,10.0,0.0,7.705189334130692,9.959536942333155,148.3432823300447,332.57627324047337,0.0
0.021,3.9891051824829464,-2.0457889559126508,10.0,0.0,8.135310004560049,10.334315260302239,154.92060212100432,332.57627324047337,0.0
0.022,4.079618141396171,-2.0489696811670974,10.0,0.0,8.560139305503519,10.705547790999272,161.01925282597162,332.57627324047337,0.0
0.023,4.171109372430197,-2.048468292080302,10.0,0.0,8.979521969370257,11.072981092896333,166.534238406907,332.57627324047337,0.0
0.024,4.266936196769627,-2.039517194249811,10.0,0.0,9.392730090169543,11.435983292623375,171.8647834235234,332.57627324047337,0.0
0.025,4.367255527950721,-2.0225841458509217,10.0,0.0,9.79914449451603,11.793929226271104,177.02637022703064,332.57627324047337,0.0
0.026000000000000002,4.4734353073349595,-1.9962166741499119,10.0,0.0,10.197980960389518,12.146045424568259,181.63161391243256,332.57627324047337,0.0
0.027,4.582366840795821,-1.966358349113627,10.0,0.0,10.589124658468391,12.491912978736195,185.74793639675826,332.57627324047337,0.0
0.028,4.700058850757774,-1.9240450691803936,10.0,0.0,10.971384864613876,12.830451341534015,189.43662766964098,332.57627324047337,0.0
0.029,4.820934284790598,-1.879137197786803,10.0,0.0,11.344756153370636,13.161242511022618,192.73598774770625,332.57627324047337,0.0
0.03,4.952016225740939,-1.821000614527957,10.0,0.0,11.707923484756042,13.483081433273819,195.59831968863915,332.57627324047337,0.0
0.031,5.086039273572549,-1.7621311371320891,10.0,0.0,12.061063698547066,13.79562148058647,197.80891551030922,332.57627324047337,0.0
0.032,5.230431844273564,-1.6911110488141978,10.0,0.0,12.40292038074925,14.097678592248165,200.4421589734679,332.57627324047337,0.0
0.033,5.380124186618445,-1.6166151787533525,10.0,0.0,12.733312761073865,14.38869342901298,201.91742172589852,332.57627324047337,0.0
0.034,5.537594793894332,-1.535029134414507,10.0,0.0,13.051537880865839,14.667821176756876,203.18880493813168,332.57627324047337,0.0
0.035,5.698947813469154,-1.4530296333491768,10.0,0.0,13.357649178779205,14.934684535625108,203.60405746232266,332.57627324047337,0.0
0.036000000000000004,5.870474243492053,-1.3603000477825025,10.0,0.0,13.65045542338638,15.188218311291084,204.28541056101804,332.57627324047337,0.0
0.037,6.041188711220851,-1.275010780747051,10.0,0.0,13.930879897581198,15.42861600670124,205.2233356988433,332.57627324047337,0.0
0.038,6.228175208801664,-1.168399557236846,10.0,0.0,14.196427351981786,15.654155009933262,200.35169734043586,332.57627324047337,0.0
0.039,6.404895489618571,-1.0845312562500289,10.0,0.0,14.449814560392067,15.86612549236809,209.64773540576442,332.57627324047337,0.0
0.04,6.534612624563911,-1.0851225869390002,10.0,0.0,14.699963825590459,16.069735965364643,218.170241886545,332.57627324047337,0.0
0.041,6.621487035821765,-1.1484636683301073,10.0,0.0,14.952420817214799,16.26974130369247,220.68166573712315,332.57627324047337,0.0
0.042,6.6704785161669795,-1.2647840534085386,10.0,0.0,15.211794475054209,16.47047148862455,233.10654395573727,332.57627324047337,0.0
0.043000000000000003,6.709376245503157,-1.3867642159960276,10.0,0.0,15.477558399636717,16.673277185423842,235.10815372853793,332.57627324047337,0.0
0.044,6.744196093263161,-1.5028656568708394,10.0,0.0,15.74857785831126,16.87893749904121,248.8181267625822,332.57627324047337,0.0
0.045,6.750563942850831,-1.6564343609015326,10.0,0.0,16.02879294551472,17.090781462187255,251.61117095327992,332.57627324047337,0.0
0.046,6.764566527560506,-1.7840489455190416,10.0,0.0,16.314672837580048,17.307985931916857,266.60539535969383,332.57627324047337,0.0
0.047,6.752169677737121,-1.9446655565152717,10.0,0.0,16.610076868775216,17.533561623207692,270.0627790167984,332.57627324047337,0.0
0.048,6.7291903821171735,-2.110358990489937,10.0,0.0,16.91511817760721,17.768523902508925,283.13731951482634,332.57627324047337,0.0
0.049,6.714097190323873,-2.246352557911731,10.0,0.0,17.22645394156277,18.011924542904307,294.70561782835244,332.57627324047337,0.0
0.05,6.666841209228205,-2.4219663531358275,10.0,0.0,17.548953774962747,18.267165921658286,300.1294548425776,332.57627324047337,0.0
0.051000000000000004,6.612335516543512,-2.59336894353628,10.0,0.0,17.88182590988993,18.53465621226123,310.75154600411304,332.57627324047337,0.0
0.052000000000000005,6.568447424188529,-2.726701034625408,10.0,0.0,18.22111236450049,18.81296732052879,322.35703405819294,332.57627324047337,0.0
0.053,6.5036136539679195,-2.8764091099274185,10.0,0.0,18.569435851849082,19.104068797231378,330.9557012510771,332.57627324047337,0.0
0.054,6.434362099984388,-3.0149932598739144,6.446915123219903,0.0,18.925784313874164,19.01702247178873,337.6484103811502,332.57627324047337,0.0
0.055,6.184322632667743,-3.026892673095082,3.0498391867765724,0.0,19.237716391107345,18.662979946716888,340.34770674881617,332.57627324047337,0.0
0.056,5.751414843932536,-2.921667240689568,1.6224766678601625,0.0,19.471357216413203,18.29761522624689,339.3854940853359,332.57627324047337,0.0
0.057,5.288987018586317,-2.741000014505725,2.0354907911516724,0.0,19.626276346585307,18.098394222006434,338.2546440556687,332.57627324047337,0.0
0.058,4.927215413716064,-2.5678075496663815,2.5441320978333275,0.0,19.72853696444566,18.021578231991562,337.09495937136626,332.57627324047337,0.0
0.059000000000000004,4.6902027089065035,-2.413906839870928,3.078787578675608,0.0,19.79769276808939,18.0388492740704,335.23622874032276,332.57627324047337,0.0
0.06,4.567894989308242,-2.2771526428930025,3.9815533391988636,0.0,19.848156141007014,18.16635019326258,336.80214751015757,332.57627324047337,0.0
0.061,4.56314073630758,-2.1568539164034775,3.156335211584617,0.0,19.894457950608015,18.18564559681859,335.64411849250536,332.57627324047337,0.0
0.062,4.544942470903657,-2.040840373185805,3.7046712678904026,0.0,19.92650061711548,18.2781650551133,326.5863716505077,332.57627324047337,0.0
0.063,4.602323868770489,-1.895977160988644,8.293443704788881,0.0,19.949816144892154,18.857424505305673,326.4938375751385,332.57627324047337,0.0
0.064,4.943111616041036,-1.8404414979430976,8.400535099126829,0.0,20.024065774097366,19.310069054043574,329.9174050658824,332.57627324047337,0.0
0.065,5.298451985138157,-1.820390171538482,6.715340035500793,0.0,20.134504605981782,19.502752176757987,318.84521741641333,332.57627324047337,0.0
0.066,5.5587755789104545,-1.7131451089611553,10.0,0.0,20.241571423329745,20.04029322549659,320.17726410507674,332.57627324047337,0.0
0.067,5.982739649645218,-1.6251457866157517,10.0,0.0,20.38307818898455,20.457907439608032,316.8765777523404,332.57627324047337,0.0
0.068,6.374353578009248,-1.5739577926711523,10.0,0.0,20.54744501337457,20.809073017461124,310.814427791554,332.57627324047337,0.0
0.069,6.788215803289066,-1.4248286948751585,10.0,0.0,20.714599392292783,21.09995001447076,307.3849185791083,332.57627324047337,0.0
0.07,7.136138339714993,-1.3208926016351388,10.0,0.0,20.884184353741688,21.344321892917204,304.3497534673494,332.57627324047337,0.0
0.07100000000000001,7.508018268117304,-1.1317777136116094,10.0,0.0,21.04148473014017,21.543787512903904,293.41919222772015,332.57627324047337,0.0
0.07200000000000001,7.834457586366199,-0.9841398255200281,10.0,0.0,21.188652612087626,21.706847082808416,300.7577816270837,332.57627324047337,0.0
0.073,8.14303111570752,-0.8477982948393719,10.0,0.0,21.323888473336837,21.837638788872177,305.09462870991416,332.57627324047337,0.0
0.074,8.277303322023965,-0.9698306033257568,10.0,0.0,21.47346688830781,21.95719070305308,314.04504367398994,332.57627324047337,0.0
0.075,8.308057563607425,-1.2161608897797294,10.0,0.0,21.64591866162485,22.07770502280198,328.195963098597,332.57627324047337,0.0
0.076,8.32433471893421,-1.4372682214070538,8.420590191916967,0.0,21.835035193199538,22.028195064348438,332.6983008437779,332.57627324047337,0.0
0.077,8.192369505215902,-1.6785775755199586,6.168201043293495,0.0,22.024622031407553,21.78525799169225,344.07057995407786,332.57627324047337,0.0
0.078,7.934742883053388,-1.8165585694106043,0.36711842100745784,0.0,22.183721294315994,20.996997389457963,347.6748393886865,332.57627324047337,0.0
0.079,7.320241016098637,-1.8556992975700903,-1.585996957778999,0.0,22.251010240868794,20.211659847437684,349.85150887489874,332.57627324047337,0.0
0.08,6.6256415513306255,-1.8050918587446803,-2.8470840572293694,0.0,22.227078313011894,19.462657449577968,353.24592157312344,332.57627324047337,0.0
0.081,5.920493321786341,-1.758377838339489,-4.750986889668219,0.0,22.126006870298394,18.659963968746965,353.28509103228185,332.57627324047337,0.0
0.082,5.209803587539895,-1.6822995873269329,-4.977659797165511,0.0,21.946871756365827,17.99266208869906,352.5740378277988,332.57627324047337,0.0
0.083,4.585492644841799,-1.6170169141098192,-4.82211084079724,0.0,21.712499654277956,17.455121305892497,350.9922239223004,332.57627324047337,0.0
0.084,4.074326272793663,-1.5724517312183042,-4.215363394866314,0.0,21.44356134073233,17.063069312144833,348.7606801403464,332.57627324047337,0.0
0.085,3.6913709436164597,-1.5510055380670698,-3.261435572888028,0.0,21.160398229748772,16.819206694864693,346.40750260375273,332.57627324047337,0.0
0.08600000000000001,3.440393496213945,-1.550341467343706,-2.2231590982239977,0.0,20.8813065822875,16.699863128129966,343.76120583695973,332.57627324047337,0.0
0.08700000000000001,3.303046967459342,-1.5701994723182484,-1.011860040792361,0.0,20.620380764153317,16.70000322858241,340.4811780446686,332.57627324047337,0.0
0.088,3.2710887701683466,-1.6023948114074575,0.5491048073112621,0.0,20.388904445127867,16.83577181630774,337.41640033581825,332.57627324047337,0.0
0.089,3.3459668423839943,-1.6491594743649107,2.0330923907829774,0.0,20.198974776311918,17.07388872914221,333.87468560180224,332.57627324047337,0.0
0.09,3.51050165814538,-1.7011549982277245,3.7909656341776943,0.0,20.057101626656355,17.43037711573875,331.620772087798,332.57627324047337,0.0
0.091,3.771193472131624,-1.7484415497520418,4.927477402706567,0.0,19.969746196055038,17.81743615943343,333.2619521454342,332.57627324047337,0.0
0.092,4.075968371048768,-1.7853055654754388,4.100030584838871,0.0,19.933414389097653,18.023751167306752,331.6099073018542,332.57627324047337,0.0
0.093,4.293001215844182,-1.7849738265436055,4.935716666015049,0.0,19.920942132183605,18.285175566866734,322.21012671203,332.57627324047337,0.0
0.094,4.539649172935825,-1.7283226285304132,9.739268426211591,0.0,19.92963122652483,19.014283186757048,324.9112682522011,332.57627324047337,0.0
0.095,5.032618708710597,-1.745074242797577,8.465347706008746,0.0,20.01277136297048,19.431421987903864,326.0771348133783,332.57627324047337,0.0
0.096,5.429256424086019,-1.7473333748639657,7.947405809691119,0.0,20.129392354270877,19.732226067854107,315.168128864448,332.57627324047337,0.0
0.097,5.775904810917882,-1.6525177210876154,10.0,0.0,20.253979341200193,20.211411673438764,318.128642441254,332.57627324047337,0.0
0.098,6.195366792454832,-1.5715193806450705,10.0,0.0,20.406064529084137,20.59193714115406,310.0766620415065,332.57627324047337,0.0
0.099,6.588047597889727,-1.48926686679463,10.0,0.0,20.57275595183209,20.910618312103747,310.4389496474486,332.57627324047337,0.0
0.1,6.979933681806907,-1.344883828484897,10.0,0.0,20.739586740324643,21.174919847056707,300.02608821204086,332.57627324047337,0.0
0.101,7.330889847861261,-1.2120962539529891,10.0,0.0,20.90300180064783,21.394787989936834,301.4020879212237,332.57627324047337,0.0
0.10200000000000001,7.674100697915117,-1.0535153369133603,10.0,0.0,21.055946144097668,21.574767192715885,292.68718637569276,332.57627324047337,0.0
0.10300000000000001,8.018305892639088,-0.8656965891317125,10.0,0.0,21.192519720394845,21.71761244664292,297.6700115370343,332.57627324047337,0.0
0.10400000000000001,8.207746394492988,-0.9160272654447876,10.0,0.0,21.337135026327264,21.84243412955027,313.2821223915664,332.57627324047337,0.0
0.105,8.279442719848936,-1.1141772161736996,10.0,0.0,21.50106415777423,21.963242983989517,319.1008716976989,332.57627324047337,0.0
0.106,8.309066709650727,-1.33236288284452,10.0,0.0,21.682700185346913,22.085822190504892,332.26918459534085,332.57627324047337,0.0
0.107,8.273919793514391,-1.6139066277722192,5.778846478938144,0.0,21.88721848608921,21.754142592482218,336.71624226578297,332.57627324047337,0.0
0.108,8.01131070544307,-1.7418228302647107,3.513917953463988,0.0,22.049372341779907,21.297687712270978,346.25512034206713,332.57627324047337,0.0
0.109,7.565717538256827,-1.850682267907381,-1.3923095556940313,0.0,22.160360699996176,20.432447122407066,346.81797497670044,332.57627324047337,0.0
0.11,6.883678844210293,-1.8081976529250885,-1.8161538903729575,0.0,22.167964261379954,19.737837150301328,351.121640992738,332.57627324047337,0.0
0.111,6.205386014582646,-1.7764685927953627,-4.153440575914372,0.0,22.102281118950327,18.92837726380035,351.94782745347334,332.57627324047337,0.0
0.112,5.4920142573915,-1.7083117749054526,-4.760249348412051,0.0,21.955040342746987,18.221606918581926,351.81556838135134,332.57627324047337,0.0
0.113,4.838399810222876,-1.6412442486806267,-4.886512763759832,0.0,21.74515074993629,17.62773251391837,350.63152273629106,332.57627324047337,0.0
0.114,4.280783114857796,-1.589030956638714,-4.475042436187869,0.0,21.491789889077953,17.17358265264497,348.6634864195748,332.57627324047337,0.0
0.115,3.843736370244962,-1.5579535710496364,-3.6518964096207434,0.0,21.21545374868372,16.868442026013494,346.40887813031856,332.57627324047337,0.0
0.116,3.537811748371791,-1.5484227480632078,-2.6629183138910824,0.0,20.93549954299315,16.69601921923026,344.0300327165432,332.57627324047337,0.0
0.117,3.3526417130959545,-1.5589877686086742,-1.5880332017640972,0.0,20.667555937683186,16.638500311594573,341.1004185925453,332.57627324047337,0.0
0.11800000000000001,3.2710082856591898,-1.5868488194951427,-0.20846759328586195,0.0,20.423613867532705,16.708070276668078,337.80144705145926,332.57627324047337,0.0
0.11900000000000001,3.295579209830743,-1.6242661017698288,1.3887664391472878,0.0,20.214860291445977,16.904669989768813,334.6239236933249,332.57627324047337,0.0
0.12,3.4201559917401183,-1.6759409375456769,2.957051613685948,0.0,20.051952103390587,17.2038156660574,331.3598748511535,332.57627324047337,0.0
0.121,3.634615784992658,-1.7268676097177027,4.601240018664849,0.0,19.940334487350757,17.599589019275204,330.93723974343277,332.57627324047337,0.0
0.122,3.9310206021224685,-1.7712638952766964,4.828947907495624,0.0,19.88383029292647,17.922769327337083,333.2102764545549,332.57627324047337,0.0
0.123,4.208037162190581,-1.7959733645362224,3.686089519793743,0.0,19.86756862751374,18.05248191017864,325.37145391370814,332.57627324047337,0.0
0.124,4.3911025905790275,-1.7483025277380286,7.677548983484777,0.0,19.86041350018605,18.60071916155575,320.7254879411993,332.57627324047337,0.0
0.125,4.778737576816411,-1.721029900707049,10.0,0.0,19.90627433012342,19.26816299803992,326.4055893057615,332.57627324047337,0.0
0.126,5.2680797595762865,-1.7614574496064006,7.338315183343312,0.0,20.0190132173647,19.507487403630805,318.09902411513355,332.57627324047337,0.0
0.127,5.588942584049632,-1.7066476971174287,10.0,0.0,20.137977308178158,20.023153946521056,316.93797497089054,332.57627324047337,0.0
0.128,6.030814123285634,-1.618423748604262,10.0,0.0,20.28745510738775,20.427136154965844,315.5741401447459,332.57627324047337,0.0
0.129,6.419483956760815,-1.5660582084695365,10.0,0.0,20.45750537759116,20.767332956197208,308.0252740276137,332.57627324047337,0.0
0.13,6.824153882734177,-1.4172405217401027,10.0,0.0,20.628724010758482,21.04988811080344,305.93702707800884,332.57627324047337,0.0
0.131,7.16539430802646,-1.309932620055239,10.0,0.0,20.80076060375165,21.28781986574338,302.21239644663905,332.57627324047337,0.0
0.132,7.531217767414646,-1.1188034748918678,10.0,0.0,20.95943558598838,21.482333928208867,291.72747661345284,332.57627324047337,0.0
0.133,7.8514626690741265,-0.9722610547266335,10.0,0.0,21.107486101481435,21.641695378062806,299.05779085659134,332.57627324047337,0.0
0.134,8.133567281017656,-0.8738147708836608,10.0,0.0,21.247304043389512,21.772096676183477,306.7338508499629,332.57627324047337,0.0
0.135,8.264351505318224,-0.9925567796043064,10.0,0.0,21.40022640471654,21.89187442012925,312.14636348222245,332.57627324047337,0.0
0.136,8.292741266424736,-1.234282553620742,10.0,0.0,21.575236719360056,22.01315159433444,328.7485395732683,332.57627324047337,0.0
0.137,8.296727356416312,-1.4699801683925493,7.210332305006911,0.0,21.768383199844465,21.83278406384621,331.06520400753317,332.57627324047337,0.0
0.138,8.107938946361132,-1.6603907504094901,6.067110780203887,0.0,21.942766467105756,21.612716829682828,345.41624365955994,332.57627324047337,0.0
0.139,7.834504278472441,-1.8024785049052952,-1.236808750000364,0.0,22.09143023139895,20.668285641954682,344.5875945893247,332.57627324047337,0.0
0.14,7.145047529278145,-1.7980955673218721,-0.9425974283712479,0.0,22.128881499810877,20.011672285842415,348.1136734494697,332.57627324047337,0.0
0.14100000000000001,6.493960916480121,-1.765333047934735,-2.861010860533707,0.0,22.09336625801363,19.275222761344224,351.02526823060873,332.57627324047337,0.0
0.14200000000000002,5.813731469094427,-1.729305935835852,-4.501298201004589,0.0,21.984122230809284,18.51593356507042,351.09253072209765,332.57627324047337,0.0
0.14300000000000002,5.137331024160767,-1.6650385157033203,-4.720092021565291,0.0,21.803164541604403,17.881586193315428,350.50811228362073,332.57627324047337,0.0
