timestamp,iq,id,iq_ref,id_ref,vq,vd,omega,omega_ref,r
0.0,0.0,0.0,0.0,0.0,0.0,0.0,0.0,64.03600067399606,0.0
0.001,0.0,0.0,10.0,0.0,0.0,1.0999999999999999,6.115472199294103,64.03600067399606,0.0
0.002,0.5307369851907212,-0.2913212625381807,10.0,0.0,0.14204533887919985,1.9316189316290207,13.317801563642547,64.03600067399606,0.0
0.003,1.0842913387634832,-0.6024330830807904,10.0,0.0,0.384357124667687,2.6386968949419622,20.697939467553027,64.03600067399606,0.0
0.004,1.5590443546685477,-0.8700465084428163,10.0,0.0,0.6994718867930164,3.2526109522886295,28.232747544420146,64.03600067399606,0.0
0.005,1.9399447555359186,-1.0838738622210777,10.0,0.0,1.065311453102468,3.7994935661768023,35.92944872443006,64.03600067399606,0.0
0.006,2.239750732602683,-1.2510087368845633,10.0,0.0,1.4655018868449925,4.299102221838433,43.75633668444442,64.03600067399606,0.0
0.007,2.4770151619816017,-1.382020589851471,10.0,0.0,1.8883740978591532,4.765668027847139,51.58766747378032,64.03600067399606,0.0
0.008,2.6680767290418097,-1.4872241871505252,7.611622361393083,0.0,2.3258779455459946,4.9464988060267965,57.98649022141037,64.03600067399606,0.0
0.009000000000000001,2.7007970646467836,-1.5035403317933793,4.472706092103916,0.0,2.7384572262198406,4.829911256675487,62.101882056741864,64.03600067399606,0.0
0.01,2.539826254218604,-1.4109771867864391,2.4343513606107114,0.0,3.08777471649398,4.591444525058483,64.5854439832656,64.03600067399606,0.0
0.011,2.2683205095080456,-1.2532290081557265,1.1870759642561453,0.0,3.3618871163796964,4.3231953931604,66.14332478446683,64.03600067399606,0.0
0.012,1.9639690352294932,-1.0737349632062831,0.38706232255082673,0.0,3.5635964999288996,4.064417272540197,67.00828389178172,64.03600067399606,0.0
0.013000000000000001,1.669010630483474,-0.9061535081527405,-0.07514006328447431,0.0,3.702618113454769,3.8382476860913797,66.06425439393963,64.03600067399606,0.0
0.014,1.4124615809102177,-0.7588760671474236,0.3765921484371304,0.0,3.7905959030231196,3.728180598193359,65.45399083982669,64.03600067399606,0.0
0.015,1.242473212642312,-0.6537408915322674,0.6675440238352977,0.0,3.8486771099372192,3.6815386122322957,66.37042719720479,64.03600067399606,0.0
0.016,1.1417337655280813,-0.5880258498586755,0.18598157991415887,0.0,3.8901086947358583,3.598869013473326,66.96673567058471,64.03600067399606,0.0
0.017,1.0505597976353682,-0.5359084909057394,-0.14148000674168815,0.0,3.91405440211065,3.5064261249742414,65.81414540166983,64.03600067399606,0.0
0.018000000000000002,0.9649307841520586,-0.48628301691407644,0.4170336804390131,0.0,3.9214236213485,3.4988406693232186,65.04076852465363,64.03600067399606,0.0
0.019,0.9288874267152116,-0.4587808312015246,0.7936744404405398,0.0,3.9247683874089985,3.5317045070726625,65.78846626918255,64.03600067399606,0.0
0.02,0.931277032985587,-0.4512150842464585,0.4023009122242145,0.0,3.9305078503304602,3.5141756516852922,66.50690307867222,64.03600067399606,0.0
0.021,0.9193163850840027,-0.44378236879823785,0.01837348343261569,0.0,3.9331785401912853,3.46199491357577,65.31163116665313,64.03600067399606,0.0
0.022,0.8879771404523852,-0.42533224319413965,0.6032531345155925,0.0,3.928408900593106,3.4868030646007875,64.50897168265429,64.03600067399606,0.0
0.023,0.8915768997734947,-0.41893374307226205,0.9998531664284289,0.0,3.9260777062998824,3.545721277591431,65.56298585110524,64.03600067399606,0.0
0.024,0.9223617169911719,-0.4276531948980425,0.45757623043186335,0.0,3.9308945774370985,3.531547754274201,66.20335017082729,64.03600067399606,0.0
0.025,0.9228120546593476,-0.42748745421550466,0.11572057560252413,0.0,3.9337069831355347,3.487350228759835,64.82005111668055,64.03600067399606,0.0
0.026000000000000002,0.9011101775566186,-0.4120740394309582,0.7995295982490527,0.0,3.9301245774932156,3.5288829552641396,64.28315311221982,64.03600067399606,0.0
0.027,0.9170875997625686,-0.40938070900818047,1.065507076097177,0.0,3.9309115528668976,3.5863490656769303,65.54051775331828,64.03600067399606,0.0
0.028,0.9497100364686292,-0.42083333401502754,0.42177958475472366,0.0,3.938653163799472,3.5612487699440516,65.59542712488108,64.03600067399606,0.0
0.029,0.9450567283547096,-0.4183594105152723,0.3787306344644732,0.0,3.9427239262304594,3.5419726435188075,64.26365694206282,64.03600067399606,0.0
0.03,0.934982377401666,-0.4055948723336662,1.0423391631929357,0.0,3.9430806398108444,3.599520279165914,64.72222435561615,64.03600067399606,0.0
0.031,0.9624222788905201,-0.4067016010764125,0.8061932196000723,0.0,3.9494058311414197,3.615617550850544,65.93989279424684,64.03600067399606,0.0
0.032,0.9769623319547738,-0.40994427404108424,0.17832007908221637,0.0,3.9570538572460867,3.5627080216565545,64.52318894393024,64.03600067399606,0.0
0.033,0.9537631083795788,-0.3955452218697057,0.8818001215411786,0.0,3.957029805352392,3.60221309919201,63.801812230656964,64.03600067399606,0.0
0.034,0.9692243645842529,-0.38961969555151077,1.244830362611206,0.0,3.9604508490283226,3.6687310594593963,65.2617065117303,64.03600067399606,0.0
0.035,1.0057577021179904,-0.4016847869354118,0.5026261636971976,0.0,3.9715679996788107,3.639802509209732,64.94367636495228,64.03600067399606,0.0
0.036000000000000004,1.0005398565897246,-0.39750406921384607,0.6525644801766424,0.0,3.9781000503760726,3.6397330822354097,63.49099305436983,64.03600067399606,0.0
0.037,1.0010129026354508,-0.38584745079519156,1.3843562116641301,0.0,3.982731532457338,3.719217296806762,65.08245476988728,64.03600067399606,0.0
0.038,1.041070880431036,-0.39405269452172453,0.5781608129464944,0.0,3.9958674307817175,3.690815179858232,65.15603781304765,64.03600067399606,0.0
0.039,1.0358486483402876,-0.39027859757692995,0.530168919975794,0.0,4.0043523244776145,3.670324735505331,63.576358050027864,64.03600067399606,0.0
0.04,1.026430388748165,-0.3729683464327187,1.3246052277253675,0.0,4.008073297712215,3.7415835239736968,64.7912253872346,64.03600067399606,0.0
0.041,1.0598574261600944,-0.37645865177469384,0.7096193119896117,0.0,4.019105088569253,3.726724560399023,64.96746160524245,64.03600067399606,0.0
0.042,1.0596944276134839,-0.37455344336559326,0.6121865936732256,0.0,4.027303328004699,3.7102391326243227,63.375183364819186,64.03600067399606,0.0
0.043000000000000003,1.0548301095237476,-0.3583583176418005,1.4149338869766255,0.0,4.031270788973604,3.78603204602158,64.73761890877373,64.03600067399606,0.0
0.044,1.0917569563078036,-0.3643108757680366,0.7266999326515788,0.0,4.043237527836467,3.766798609940067,64.41131462203566,64.03600067399606,0.0
0.045,1.0911362666051874,-0.36153598100985374,0.8860989365402152,0.0,4.05171948520023,3.7755389656591234,63.26287389649012,64.03600067399606,0.0
0.046,1.1000384119183704,-0.34871211527081325,1.468050567088045,0.0,4.05884440611581,3.845688727982548,64.90771909698323,64.03600067399606,0.0
0.047,1.1362187124515093,-0.358077339046751,0.6369107826116192,0.0,4.07343022444492,3.8084003019617905,63.6944849163267,64.03600067399606,0.0
0.048,1.1286460766862625,-0.34759213981572923,1.2469430305165765,0.0,4.081581594185869,3.8529090384298366,64.05598884619582,64.03600067399606,0.0
0.049,1.1523817957616709,-0.34132675338748986,1.0659911838600211,0.0,4.092784360084732,3.865090357157954,64.61973191010446,64.03600067399606,0.0
0.05,1.1622031031290734,-0.34300057220096325,0.7782823395446141,0.0,4.104331755200285,3.8464923795753574,63.09877078967135,64.03600067399606,0.0
0.051000000000000004,1.1602849978287426,-0.32640854267369807,1.548135198604418,0.0,4.11102275160989,3.9187790468590213,64.50089109513543,64.03600067399606,0.0
0.052000000000000005,1.1958097162476917,-0.3323595599318127,0.8424261416609842,0.0,4.1250938473005645,3.895252722121811,63.33852043324425,64.03600067399606,0.0
0.053,1.195275914454573,-0.32424214691230285,1.4305862750140927,0.0,4.134452775343725,3.947654810047101,64.09738841764141,64.03600067399606,0.0
0.054,1.2249987782288134,-0.32167672214043086,1.0505384053790576,0.0,4.147914996780386,3.944790861957695,63.70932287725021,64.03600067399606,0.0
0.055,1.2300718189449227,-0.3200067896379262,1.2478379535421176,0.0,4.159586562936884,3.9688021539741536,63.40377745677095,64.03600067399606,0.0
0.056,1.2498029348740447,-0.3089739633616783,1.4069328959539962,0.0,4.171295190114017,4.0049872292432465,64.21083778732529,64.03600067399606,0.0
0.057,1.2707719329207599,-0.3142166896810556,1.001654359543536,0.0,4.186138490258239,3.990443792648032,62.867744059400216,64.03600067399606,0.0
0.058,1.2749457212605746,-0.2991383518813497,1.6848837896520308,0.0,4.1963320723073565,4.057797625665884,64.3292858406072,64.03600067399606,0.0
0.059000000000000004,1.3090968894437827,-0.30568135927165635,0.9511800473824283,0.0,4.213112193644278,4.028180837019368,62.71161115016009,64.03600067399606,0.0
0.06,1.3078598870538338,-0.29141386360393456,1.773261287844343,0.0,4.223617769385504,4.10144729518943,64.31511297404668,64.03600067399606,0.0
0.061,1.3448858757586204,-0.2966680917545166,0.9687192529005388,0.0,4.241120073422854,4.067632000086743,62.49605354357989,64.03600067399606,0.0
0.062,1.3418895328065545,-0.2821300063976675,1.8936484394380975,0.0,4.25183888587544,4.149435953378403,64.26253272807719,64.03600067399606,0.0
0.063,1.3827683144592628,-0.28912221542720556,1.0081435266486365,0.0,4.2705807362587525,4.112949930902623,62.391955428102875,64.03600067399606,0.0
0.064,1.3803364612446607,-0.2734600994953811,1.9598726290947255,0.0,4.282007044513359,4.1962082377798495,64.16706609826163,64.03600067399606,0.0
0.065,1.4213626411951474,-0.28169753301629935,1.0710066397726934,0.0,4.301679291476848,4.160453596618231,62.408037137107364,64.03600067399606,0.0
0.066,1.4206138382824502,-0.26439062953962894,1.9668007557187126,0.0,4.313822715910183,4.238160287036305,63.975799280152195,64.03600067399606,0.0
0.067,1.458315520357148,-0.2727705989768161,1.1835216981347354,0.0,4.33361733261485,4.210037340304865,62.555570252752474,64.03600067399606,0.0
0.068,1.4617212221929279,-0.25496762721527655,1.9084405160470317,0.0,4.346578066387764,4.274282400082039,63.59559422805821,64.03600067399606,0.0
0.069,1.4931790005744596,-0.26189120149482736,1.3928325928535419,0.0,4.365606855649467,4.266006668924769,62.800394479367085,64.03600067399606,0.0
0.07,1.505845435473614,-0.24617514633584614,1.8027885291453942,0.0,4.380107191058994,4.309633891978345,63.08665838262673,64.03600067399606,0.0
0.07100000000000001,1.5290277185966943,-0.2510977427244304,1.6691500004292652,0.0,4.398218861387257,4.329125241951273,63.46590261632304,64.03600067399606,0.0
0.07200000000000001,1.5535621733826188,-0.2401799047832549,1.4852288641578393,0.0,4.4152183115425725,4.327116717061822,62.05598092111949,64.03600067399606,0.0
0.073,1.5596813342807252,-0.23321158515873552,2.20998990928838,0.0,4.429659627414125,4.408144152852985,63.695155446735505,64.03600067399606,0.0
0.074,1.6049861439621607,-0.24083595342123065,1.3938110987529788,0.0,4.451667918982759,4.380563359586012,62.50770593020726,64.03600067399606,0.0
0.075,1.6115655944773208,-0.22280011177642667,2.00281880445499,0.0,4.46665711580428,4.432823419075323,62.78831552514606,64.03600067399606,0.0
0.076,1.638163119003723,-0.22760756917586655,1.8749908584740889,0.0,4.486082577622965,4.458345307990181,63.52412658219084,64.03600067399606,0.0
0.077,1.666218800259927,-0.21962809222830015,1.5122040708697524,0.0,4.505191865113042,4.441809137325838,61.896407793992324,64.03600067399606,0.0
0.078,1.669580911713884,-0.20490926772793006,2.3474593937690464,0.0,4.51919733086211,4.524254190424527,62.9434257749313,64.03600067399606,0.0
0.079,1.7119239618995619,-0.2161830288714066,1.8348761522902068,0.0,4.541434057316928,4.530494460590704,63.28546100042031,64.03600067399606,0.0
0.08,1.7363859065076666,-0.20470564570671468,1.6713639362814576,0.0,4.5606958883833295,4.5232064816345385,61.735330408326426,64.03600067399606,0.0
0.081,1.7426396509830104,-0.1921400610208699,2.469435934985097,0.0,4.576035297963679,4.607553233251908,62.735385002766115,64.03600067399606,0.0
0.082,1.787471098922966,-0.20390619429783208,1.9824147944775519,0.0,4.599695372255055,4.618577283394068,63.66466705373292,64.03600067399606,0.0
0.083,1.8137787211469543,-0.19606060699119698,1.521487105196781,0.0,4.62111116819501,4.582587577570103,62.728912066616644,64.03600067399606,0.0
0.084,1.7998988050674822,-0.18854590183630504,2.0024354848287134,0.0,4.6360382522645995,4.611641887565831,63.465370017306824,64.03600067399606,0.0
0.085,1.8021061770029472,-0.20306683771808798,1.639912816050515,0.0,4.654050508925349,4.594214887533327,64.92246152938948,64.03600067399606,0.0
0.08600000000000001,1.793133590433964,-0.20231049036909132,0.9025024514552529,0.0,4.668290432349565,4.503850957994395,63.646620990165204,64.03600067399606,0.0
0.08700000000000001,1.7417179565755636,-0.1844132102066005,1.5443165179056997,0.0,4.670108833133084,4.507487058566014,64.20099353442414,64.03600067399606,0.0
0.088,1.7205031022288004,-0.19184068024683176,1.2654803171719493,0.0,4.6731049984014605,4.475670744053165,65.17776114242628,64.03600067399606,0.0
0.089,1.7000287853106302,-0.18660379436074725,0.7656789084865796,0.0,4.671969583543844,4.397185910887918,63.9384545044462,64.03600067399606,0.0
0.09,1.65169288447726,-0.17652276047905824,1.3863076891721173,0.0,4.662042681987343,4.404815405438187,64.98262802960616,64.03600067399606,0.0
0.091,1.6376993572968526,-0.18752097470529128,0.8547546530360353,0.0,4.655182033945216,4.347068067577462,64.68149483706766,64.03600067399606,0.0
0.092,1.6088818885796141,-0.17957921144417133,0.9988663076745694,0.0,4.642249140820248,4.318607197357291,64.27562637502183,64.03600067399606,0.0
0.093,1.583099453073984,-0.1859073120139716,1.199404281687227,0.0,4.628538958681048,4.314865078660095,65.47807950811969,64.03600067399606,0.0
0.094,1.576380973442788,-0.1937584638355846,0.5837569267970597,0.0,4.616625928580728,4.240880773245027,64.24552955776602,64.03600067399606,0.0
0.095,1.5388957546601358,-0.18885111365536666,1.197936613136196,0.0,4.597887450910893,4.250876023677422,65.2870576534466,64.03600067399606,0.0
0.096,1.531958975765634,-0.20338272760436582,0.6646619955014026,0.0,4.583669897087471,4.193584089986941,64.5006363737931,64.03600067399606,0.0
0.097,1.5061034125126578,-0.19984143180260094,1.05322627833018,0.0,4.564610046599661,4.191449155739564,64.97745989321149,64.03600067399606,0.0
0.098,1.4957493667296209,-0.21456654944084086,0.8053999264288314,0.0,4.548897863634117,4.157355577734313,64.76462288149824,64.03600067399606,0.0
0.099,1.4811118794838913,-0.21542511641981832,0.9045322102104332,0.0,4.531294732355907,4.13998953710722,64.82359548741942,64.03600067399606,0.0
0.1,1.4664227173706221,-0.2282151686173436,0.8671699591156075,0.0,4.515113630214748,4.118968049916773,64.96364270909847,64.03600067399606,0.0
0.101,1.4565071250509791,-0.23160561101742694,0.7878699279250632,0.0,4.498693537710695,4.091025043845269,64.80036388085458,64.03600067399606,0.0
0.10200000000000001,1.438055760720817,-0.2419219985871025,0.8618657099784228,0.0,4.482222052058558,4.075097359621407,65.03357538405902,64.03600067399606,0.0
0.10300000000000001,1.4289967907000158,-0.2458081965165142,0.7352842112755711,0.0,4.466129264445789,4.045263345635858,64.8935028877915,64.03600067399606,0.0
0.10400000000000001,1.409674691297063,-0.2555716834601097,0.7967454372713774,0.0,4.449697475780242,4.026864845368269,64.91426323476433,64.03600067399606,0.0
0.105,1.3988231077298696,-0.25854098593520614,0.7775826381772768,0.0,4.433298004357316,4.006940949298938,65.19364836981443,64.03600067399606,0.0
0.106,1.3837143670865375,-0.2701835657540409,0.6263135936940474,0.0,4.417797081225072,3.972474974427127,64.76455895674599,64.03600067399606,0.0
0.107,1.3656571195351548,-0.2701918472256454,0.8335727174007677,0.0,4.400284138082558,3.9660519086060644,65.60907524037488,64.03600067399606,0.0
0.108,1.3556170506117566,-0.2824643699906628,0.3955838299225336,0.0,4.385230077361624,3.909192321299243,64.50707804532934,64.03600067399606,0.0
0.109,1.3269025851362182,-0.2789244993254958,0.9418716537319716,0.0,4.365483352981284,3.9240430266579063,65.72973186375086,64.03600067399606,0.0
0.11,1.3262976736456618,-0.29106027925295463,0.31360743262366353,0.0,4.350566706073517,3.8606414420918664,64.52650209366395,64.03600067399606,0.0
0.111,1.2945329645569683,-0.2911587969716172,0.9103173034704379,0.0,4.3306910445497016,3.8774971481807343,65.34178858683832,64.03600067399606,0.0
0.112,1.2963309063069133,-0.3002199138937819,0.4896161777548307,0.0,4.315484257471403,3.837920074287766,64.90961688654602,64.03600067399606,0.0
0.113,1.2753672151430915,-0.30820735527274773,0.6969658657754814,0.0,4.298628449094104,3.8301194914612138,64.78207893302802,64.03600067399606,0.0
0.114,1.2683575056361698,-0.3127002393015258,0.7532740599441623,0.0,4.283092506101255,3.8260952216920567,65.7049116461407,64.03600067399606,0.0
0.115,1.262843728423809,-0.3256663892317744,0.27516859366637414,0.0,4.270089078082815,3.7683015197665797,64.5405325958097,64.03600067399606,0.0
0.116,1.2332694359495209,-0.3229269197199166,0.8523127996137414,0.0,4.252175619528065,3.7864517969488416,65.381481739439,64.03600067399606,0.0
0.117,1.2351055841559062,-0.3314357625599972,0.41838341714466076,0.0,4.238831901954543,3.7469943071988845,65.08835462939146,64.03600067399606,0.0
0.11800000000000001,1.2134490595702423,-0.3383617517439809,0.5544234326144746,0.0,4.223553577545215,3.7318524693794286,64.70554668903655,64.03600067399606,0.0
0.11900000000000001,1.2014056415868315,-0.3406322471306191,0.7391319426415239,0.0,4.208469396395565,3.7367627295815815,65.7234306277042,64.03600067399606,0.0
0.12,1.2003723368010975,-0.3502351034589777,0.21331567377061678,0.0,4.196418268623347,3.67997990031908,64.86015630748585,64.03600067399606,0.0
0.121,1.1696070380048231,-0.35088985146408747,0.6367112775448946,0.0,4.179869964419381,3.682875770129219,64.78853427484522,64.03600067399606,0.0
0.122,1.163694283127608,-0.3545767972933789,0.6649969578567196,0.0,4.165665094177996,3.6830474413830383,65.7480895407319,64.03600067399606,0.0
0.123,1.1608021970437372,-0.3655738668033938,0.16809843624602228,0.0,4.154070686273938,3.6270987662274927,64.75703002309118,64.03600067399606,0.0
0.124,1.1310714817374694,-0.36376601711798356,0.6564179015754317,0.0,4.13773201748424,3.6375111020222906,64.81466652246816,64.03600067399606,0.0
0.125,1.128698989569533,-0.3687416391117175,0.6198129934022194,0.0,4.124633846069153,3.6363022697917016,65.7132132369454,64.03600067399606,0.0
0.126,1.125841381711384,-0.37967953764552403,0.15376751053410154,0.0,4.113878021191298,3.5832961615516186,64.79731086475509,64.03600067399606,0.0
0.127,1.097520403045686,-0.37765076797057673,0.6041055947216696,0.0,4.098564624327638,3.591799457311717,64.74601307604989,64.03600067399606,0.0
0.128,1.0941243259974,-0.3819866243859759,0.6226543650537307,0.0,4.086130128628797,3.5955484263927455,65.65996316247006,64.03600067399606,0.0
0.129,1.0940632417512006,-0.39170499656301,0.14943969695890458,0.0,4.076339641783263,3.545412706298635,64.96249659167786,64.03600067399606,0.0
0.13,1.0669125582560617,-0.3911525324640238,0.48890802317818727,0.0,4.062356676840214,3.544371136436455,64.65729324125051,64.03600067399606,0.0
0.131,1.0586489100530516,-0.3933938916902206,0.6352967727193167,0.0,4.049919925561121,3.555381000720899,65.25046448517668,64.03600067399606,0.0
0.132,1.0617565618366882,-0.40124111830330933,0.32656651264442826,0.0,4.0406686171735595,3.528197509167108,65.34275007335022,64.03600067399606,0.0
0.133,1.0461120155903478,-0.4067375922320365,0.26735622456411734,0.0,4.030150230335406,3.5011333834467924,64.74620381836067,64.03600067399606,0.0
0.134,1.0274416873067154,-0.4052856878324856,0.558527320615245,0.0,4.017762595385798,3.5102420457098544,64.75790639507699,64.03600067399606,0.0
0.135,1.026404587340991,-0.40975733065309694,0.5454569750462773,0.0,4.0080309899117195,3.512779006991946,65.51617338232849,64.03600067399606,0.0
0.136,1.0259614190609478,-0.41765887545493724,0.1515217543372016,0.0,4.000350694613252,3.4709253182872564,65.07858272210235,64.03600067399606,0.0
