timestamp,iq,id,iq_ref,id_ref,vq,vd,omega,omega_ref,r
0.0,0.0,0.0,0.0,0.0,0.0,0.0,0.0,201.37283163985975,0.0
0.001,0.0,0.0,10.0,0.0,0.0,1.0999999999999999,6.115472199294103,201.37283163985975,0.0
0.002,0.5307369851907212,-0.2913212625381807,10.0,0.0,0.14204533887919985,1.9316189316290207,13.317801563642547,201.37283163985975,0.0
0.003,1.0842913387634832,-0.6024330830807904,10.0,0.0,0.384357124667687,2.6386968949419622,20.697939467553027,201.37283163985975,0.0
0.004,1.5590443546685477,-0.8700465084428163,10.0,0.0,0.6994718867930164,3.2526109522886295,28.232747544420146,201.37283163985975,0.0
0.005,1.9399447555359186,-1.0838738622210777,10.0,0.0,1.065311453102468,3.7994935661768023,35.92944872443006,201.37283163985975,0.0
0.006,2.239750732602683,-1.2510087368845633,10.0,0.0,1.4655018868449925,4.299102221838433,43.75633668444442,201.37283163985975,0.0
0.007,2.4770151619816017,-1.382020589851471,10.0,0.0,1.8883740978591532,4.765668027847139,51.58766747378032,201.37283163985975,0.0
0.008,2.6680767290418097,-1.4872241871505252,10.0,0.0,2.325877945545995,5.209220346273558,59.45942083902103,201.37283163985975,0.0
0.009000000000000001,2.8266491704841292,-1.5730794701170803,10.0,0.0,2.772378685460125,5.636635464737965,67.35059094018146,201.37283163985975,0.0
0.01,2.962077666392183,-1.645500646948331,10.0,0.0,3.224078639851053,6.052647735211881,75.20908322432116,201.37283163985975,0.0
0.011,3.0811061533574158,-1.7084279320504514,10.0,0.0,3.678407615443203,6.460489925470405,83.0265951655913,201.37283163985975,0.0
0.012,3.188848746459569,-1.7638278597420747,10.0,0.0,4.133552631697047,6.862319393890706,90.74118064793086,201.37283163985975,0.0
0.013000000000000001,3.288205119878689,-1.8140726097274587,10.0,0.0,4.588339016389012,7.259628641949282,98.35820682563939,201.37283163985975,0.0
0.014,3.3820602099432007,-1.8592355758795645,10.0,0.0,5.041843166194517,7.653355107498287,105.90865295623543,201.37283163985975,0.0
0.015,3.4721069852858886,-1.899829032412081,10.0,0.0,5.493383198131427,8.044092747085895,113.37727610343421,201.37283163985975,0.0
0.016,3.5596145800153947,-1.9360338400176071,10.0,0.0,5.94241958510469,8.43218525824161,120.68508583176356,201.37283163985975,0.0
0.017,3.645144415105338,-1.9685384477868613,10.0,0.0,6.388575043274759,8.817838951066484,127.83962377537456,201.37283163985975,0.0
0.018000000000000002,3.730251927866576,-1.9959253041084188,10.0,0.0,6.83136783302799,9.201036292373047,134.85405702603322,201.37283163985975,0.0
0.019,3.81544967906247,-2.018253592643655,10.0,0.0,7.270383321112213,9.581672501020332,141.68976328564074,201.37283163985975,0.0
0.02,3.9014648862453374,-2.0350875541282063,10.0,0.0,7.705189334130692,9.959536942333155,148.3432823300447,201.37283163985975,0.0
0.021,3.9891051824829464,-2.0457889559126508,10.0,0.0,8.135310004560049,10.334315260302239,154.92060212100432,201.37283163985975,0.0
0.022,4.079618141396171,-2.0489696811670974,10.0,0.0,8.560139305503519,10.705547790999272,161.01925282597162,201.37283163985975,0.0
0.023,4.171109372430197,-2.048468292080302,10.0,0.0,8.979521969370257,11.072981092896333,166.534238406907,201.37283163985975,0.0
0.024,4.266936196769627,-2.039517194249811,10.0,0.0,9.392730090169543,11.435983292623375,171.8647834235234,201.37283163985975,0.0
0.025,4.367255527950721,-2.0225841458509217,10.0,0.0,9.79914449451603,11.793929226271104,177.02637022703064,201.37283163985975,0.0
0.026000000000000002,4.4734353073349595,-1.9962166741499119,10.0,0.0,10.197980960389518,12.146045424568259,181.63161391243256,201.37283163985975,0.0
0.027,4.582366840795821,-1.966358349113627,10.0,0.0,10.589124658468391,12.491912978736195,185.74793639675826,201.37283163985975,0.0
0.028,4.700058850757774,-1.9240450691803936,10.0,0.0,10.971384864613876,12.830451341534015,189.43662766964098,201.37283163985975,0.0
0.029,4.820934284790598,-1.879137197786803,10.0,0.0,11.344756153370636,13.161242511022618,192.73598774770625,201.37283163985975,0.0
0.03,4.952016225740939,-1.821000614527957,8.441382346865328,0.0,11.707923484756044,13.31163349142901,194.8759792319568,201.37283163985975,0.0
0.031,5.004517363853248,-1.7193471872416812,7.436355128819087,0.0,12.039212669874644,13.383870983696706,193.30246495723327,201.37283163985975,0.0
0.032,5.013706876637181,-1.5718498836297394,8.303815933007112,0.0,12.329388516583705,13.586998770865538,196.6574879432734,201.37283163985975,0.0
0.033,5.07204768008555,-1.4688528584272398,6.673457876952913,0.0,12.601004857602586,13.604491776529061,191.0577887621977,201.37283163985975,0.0
0.034,5.087701775384455,-1.3096090410462269,9.57645789626738,0.0,12.830722015426048,13.981892155964868,197.99534233162063,201.37283163985975,0.0
0.035,5.254653717919423,-1.2613200823942718,6.1414560046383055,0.0,13.071488148132836,13.919435832241227,193.0588113730551,201.37283163985975,0.0
0.036000000000000004,5.29314318414356,-1.1018295496554058,8.692861686589115,0.0,13.264870966181826,14.199742076232207,194.92785369347493,201.37283163985975,0.0
0.037,5.4369441408181105,-1.043505932180871,7.822790305843053,0.0,13.462125434230206,14.33470085835546,196.06320115485119,201.37283163985975,0.0
0.038,5.584054988701265,-0.9347179043669103,7.30821288000501,0.0,13.641766886801285,14.413242222336097,189.11711454491595,201.37283163985975,0.0
0.039,5.690758891538992,-0.8355802644039247,10.0,0.0,13.801481070395528,14.792869631800285,195.905225739642,201.37283163985975,0.0
0.04,5.914448917786276,-0.8588785432904449,7.546357550442782,0.0,13.986740763653911,14.830148314167419,203.5534523255017,201.37283163985975,0.0
0.041,5.971683699173916,-0.8990987483333375,3.70043805065651,0.0,14.161393595589022,14.479651451452582,201.89158485682592,201.37283163985975,0.0
0.042,5.7701588088113915,-0.868838094970704,4.526184252824739,0.0,14.279800584138824,14.33370092119287,207.69727628084536,201.37283163985975,0.0
0.043000000000000003,5.575425904047089,-0.8909883906723421,1.5600940944051613,0.0,14.374510959868482,13.899064133986725,208.28478199505827,201.37283163985975,0.0
0.044,5.269567512437769,-0.8238497219271421,1.197221733746721,0.0,14.408679862785563,13.538804099015302,209.07573539221465,201.37283163985975,0.0
0.045,4.943599853630076,-0.8009157659864412,0.7247159976449797,0.0,14.401554523447775,13.202437909020876,210.77976955749327,201.37283163985975,0.0
0.046,4.650969028534105,-0.7690946007690167,-0.22137046417066308,0.0,14.358234110429812,12.828581064825892,211.26554692497103,201.37283163985975,0.0
0.047,4.342241954527305,-0.7577401383512494,-0.5631863007606581,0.0,14.280929275080366,12.49067265623166,211.4791736428525,201.37283163985975,0.0
0.048,4.063356344705235,-0.7452574707073334,-0.771063079731312,0.0,14.17630453358979,12.186966463981388,212.08343547690546,201.37283163985975,0.0
0.049,3.809772651164106,-0.754849765424465,-1.1803000351282575,0.0,14.052951626118569,11.885336469694435,211.9459871657338,201.37283163985975,0.0
0.05,3.573868893511646,-0.7648744715319054,-1.2173074348011719,0.0,13.912777804690418,11.624969316085359,211.8921590158225,201.37283163985975,0.0
0.051000000000000004,3.365975630856842,-0.7866787927766126,-1.2955866336051436,0.0,13.76288287832002,11.388890079138175,211.57009321598102,201.37283163985975,0.0
0.052000000000000005,3.1824691853814997,-0.8146144961689417,-1.2365263494456151,0.0,13.607224405052653,11.186815472869998,211.18824215251468,201.37283163985975,0.0
0.053,3.025495376583943,-0.849154444431971,-1.1437549228389932,0.0,13.450444355760213,11.014428788500013,210.74699434548702,201.37283163985975,0.0
0.054,2.8928163804156637,-0.8885302582853991,-1.016872646381441,0.0,13.296089583001269,10.869657055272581,210.26012394860217,201.37283163985975,0.0
0.055,2.781971520191006,-0.9309058277296094,-0.8623103710264384,0.0,13.146960668695797,10.750526190279501,209.74106299788644,201.37283163985975,0.0
0.056,2.6905867653757127,-0.9747143116390622,-0.6864622092488419,0.0,13.005226736857171,10.655137069824603,209.2956631938536,201.37283163985975,0.0
0.057,2.616823753883104,-1.0180813775309656,-0.5429906227723649,0.0,12.87245957856593,10.576336944842005,208.8335261730709,201.37283163985975,0.0
0.058,2.5559694377873914,-1.0590071471060636,-0.3865290577131235,0.0,12.749157287599894,10.513872517475896,208.36622619221058,201.37283163985975,0.0
0.059000000000000004,2.5070265386206647,-1.0953985890420925,-0.2228130128064656,0.0,12.635532583911061,10.466543628786315,208.04329296986418,201.37283163985975,0.0
0.06,2.4687675830805946,-1.127049539092565,-0.1280510149333134,0.0,12.531655151808351,10.425090874031532,207.41558387896558,201.37283163985975,0.0
0.061,2.4352471777464837,-1.153851950603949,0.1253760081249311,0.0,12.436651943206178,10.407629659130983,206.60566403097494,201.37283163985975,0.0
0.062,2.414901593923769,-1.1782198502337462,0.47800760820910027,0.0,12.35181537881833,10.420572260806104,205.78181075864023,201.37283163985975,0.0
0.063,2.412872332383947,-1.204045062608014,0.8458444531886466,0.0,12.279353825401651,10.460692445752992,204.71154525804153,201.37283163985975,0.0
0.064,2.431495483670429,-1.2274515976100902,1.3475900673061831,0.0,12.220466912547812,10.538999266709741,204.12112218036162,201.37283163985975,0.0
0.065,2.475542130240717,-1.2516470468312462,1.6153187007411152,0.0,12.177726807139345,10.623360508212237,203.86106810148462,201.37283163985975,0.0
0.066,2.5303440488533244,-1.2701492436964161,1.7204633755633685,0.0,12.149490123584927,10.698312498338048,205.578394954857,201.37283163985975,0.0
0.067,2.5826123442724542,-1.2790679028656382,0.819744315727204,0.0,12.132368337938493,10.657613584455657,204.48900433691674,201.37283163985975,0.0
0.068,2.569722198746329,-1.2649747647160048,1.3332778977267679,0.0,12.111249407680313,10.686708866977241,201.1491782461853,201.37283163985975,0.0
0.069,2.5823740281226537,-1.2382038831805056,3.00542747702923,0.0,12.092348033112701,10.888063243437468,200.56671492660305,201.37283163985975,0.0
0.07,2.6938374844166475,-1.238728560604888,3.30472030395292,0.0,12.09579765697991,11.071458298064915,203.4179252485008,201.37283163985975,0.0
0.07100000000000001,2.819222865963614,-1.255639487623432,1.8586642069176325,0.0,12.119096779120943,11.062121953265997,201.76727139280425,201.37283163985975,0.0
0.07200000000000001,2.84994598363072,-1.2341234575624433,2.6800467372364682,0.0,12.136596481991077,11.158736105338582,196.7860734099915,201.37283163985975,0.0
0.073,2.917412891423165,-1.198081217274101,5.216513310941523,0.0,12.158258143650354,11.511122181614795,200.57227551460906,201.37283163985975,0.0
0.074,3.1238147899247983,-1.2151431926309728,3.331417819885251,0.0,12.215229486463468,11.575681106918815,201.86061090090658,201.37283163985975,0.0
0.075,3.217378553716313,-1.2051743081409723,2.6823723341260237,0.0,12.271692390478197,11.578709230418742,196.1209158947337,201.37283163985975,0.0
0.076,3.263354893057459,-1.1377102799659058,5.604738994663717,0.0,12.315490462187093,11.910909859797282,198.63623943363382,201.37283163985975,0.0
0.077,3.4571225233591254,-1.1294851158617802,4.374443147275924,0.0,12.38789866189325,12.028859347651048,198.95594468154763,201.37283163985975,0.0
0.078,3.5783549718868586,-1.116931506253074,4.238759392902137,0.0,12.463562344998248,12.128234559147781,193.23713028688343,201.37283163985975,0.0
0.079,3.6941577334288405,-1.0528233841768757,7.179523603764004,0.0,12.534670823610123,12.538553539259542,198.8960217569701,201.37283163985975,0.0
0.08,3.9447987163514164,-1.0731764048092476,4.374845967549565,0.0,12.642580265862318,12.550616806623044,192.93693605208213,201.37283163985975,0.0
0.081,4.048732676346059,-1.0188108806756508,7.438747775871325,0.0,12.73472135276462,12.928414340982773,197.40346843242295,201.37283163985975,0.0
0.082,4.293184206467988,-1.0111411866443858,5.245175217775281,0.0,12.855128073310556,12.979863902409502,191.55848179000634,201.37283163985975,0.0
0.083,4.416295561549386,-0.9556899880996189,8.265812037482123,0.0,12.962616143044967,13.381317221739137,196.33313059954875,201.37283163985975,0.0
0.084,4.6798867563401085,-0.9552277632611591,5.928884643114026,0.0,13.100004404992116,13.438341716655524,190.5524241389362,201.37283163985975,0.0
0.085,4.82566593294261,-0.8842843602460116,8.927441948429536,0.0,13.221557138152903,13.843213368325,194.2302420837661,201.37283163985975,0.0
0.08600000000000001,5.092310871998471,-0.8950333563905972,7.159958871575531,0.0,13.373333586770618,13.967471265106399,192.50694977246502,201.37283163985975,0.0
0.08700000000000001,5.289222313025942,-0.8196392256074634,8.110263845900011,0.0,13.513957335857112,14.197695585893197,188.7290616833309,201.37283163985975,0.0
0.088,5.486447511509237,-0.794517628120675,10.0,0.0,13.661531707697918,14.597602119294836,195.84272743589696,201.37283163985975,0.0
0.089,5.78375719270839,-0.8034614277407189,6.62160084398831,0.0,13.835574329627883,14.551022354891026,197.45672381923913,201.37283163985975,0.0
0.09,5.828631118559555,-0.8227402810250782,5.853763730523433,0.0,13.989585948789548,14.47386370316794,199.19644136456785,201.37283163985975,0.0
0.091,5.75076068256277,-0.8733592682552085,5.005668860611993,0.0,14.125855840925208,14.343224501195875,207.87230867492028,201.37283163985975,0.0
0.092,5.627028290644186,-0.8867806107122712,0.602740435085173,0.0,14.236404981448073,13.77626688927683,203.98242251629122,201.37283163985975,0.0
0.093,5.262277106832,-0.8096355273134143,2.5215876056353848,0.0,14.270583274128299,13.571047731917915,209.4310818745328,201.37283163985975,0.0
0.094,4.997491260386009,-0.8103136253477106,-0.2833245758321308,0.0,14.281667863422378,13.087518439166923,207.41194359536715,201.37283163985975,0.0
0.095,4.652672088116369,-0.7454056964575587,0.6658534441956179,0.0,14.236144411353685,12.821191489123366,209.57023197560468,201.37283163985975,0.0
0.096,4.378603497338312,-0.7492239261493269,-0.49526474928059994,0.0,14.169609694042503,12.466429460657526,209.20017145521803,201.37283163985975,0.0
0.097,4.103384583691221,-0.7345580627549138,-0.38850788724085294,0.0,14.072600818345553,12.191377994659684,210.09736239143322,201.37283163985975,0.0
0.098,3.8637342157197203,-0.7500939891962838,-0.9243486628641859,0.0,13.959643294161005,11.897730085093363,209.9873735377606,201.37283163985975,0.0
0.099,3.63555820074453,-0.7620354327794929,-0.9554996550068782,0.0,13.829774930968023,11.646785870653313,210.14086276223804,201.37283163985975,0.0
0.1,3.4330194590072565,-0.7861458590284829,-1.119924578469388,0.0,13.690331715101888,11.410171511119866,209.96143298515366,201.37283163985975,0.0
0.101,3.2492587956420786,-0.8137434124829784,-1.1160957033801373,0.0,13.54396601148653,11.203527977000391,209.7000728957218,201.37283163985975,0.0
0.10200000000000001,3.088014499841375,-0.8466519927618545,-1.0686880712228275,0.0,13.394916493116892,11.023988042622163,209.3468657613449,201.37283163985975,0.0
0.10300000000000001,2.9486563669551953,-0.8836449634839202,-0.9718248452492282,0.0,13.24655807412303,10.871394980039796,208.93463634974606,201.37283163985975,0.0
0.10400000000000001,2.8302553370659274,-0.9236397025338386,-0.8413281865486697,0.0,13.101805682358592,10.744241913972555,208.47994364093375,201.37283163985975,0.0
0.105,2.7312066376869715,-0.9654090234846694,-0.6850529521532582,0.0,12.963007901077965,10.640925571164878,208.09005269304276,201.37283163985975,0.0
0.106,2.650030290417632,-1.0072661617735075,-0.5572796887395932,0.0,12.831944855646894,10.554492302347294,207.66771074804035,201.37283163985975,0.0
0.107,2.5821590227135514,-1.047326059635898,-0.40905750732019186,0.0,12.709332805259148,10.485276839165115,207.20968267584962,201.37283163985975,0.0
0.108,2.5267036412192607,-1.0839357357920298,-0.23841198158472565,0.0,12.595686878990508,10.433431882566417,206.86828728846223,201.37283163985975,0.0
0.109,2.483638882647593,-1.1162879406566248,-0.12266884437705405,0.0,12.491413695462409,10.390614688464158,206.45031801367517,201.37283163985975,0.0
0.11,2.44792597834038,-1.1439785059536107,0.03554092927831887,0.0,12.396008551010913,10.3613953110374,205.69841416222195,201.37283163985975,0.0
0.111,2.420057678432077,-1.1686800582666739,0.3682370297813078,0.0,12.309662248363363,10.363280214173793,204.92088433799094,201.37283163985975,0.0
0.112,2.4100956252169325,-1.1932907184754922,0.7215214149155007,0.0,12.234599223394042,10.392693460946097,203.9686903784946,201.37283163985975,0.0
0.113,2.419610087441744,-1.217576812745024,1.1716598072773157,0.0,12.172409189366444,10.456495248475816,203.20473705326685,201.37283163985975,0.0
0.114,2.4533292898289636,-1.2410083727701906,1.5353174157571248,0.0,12.125152948154652,10.539584839218621,202.632421206507,201.37283163985975,0.0
0.115,2.503024474651543,-1.2632199771523163,1.8088794434705844,0.0,12.093140251020102,10.630965815423037,203.70345128844,201.37283163985975,0.0
0.116,2.563020549789348,-1.2770775555530771,1.2500582060182803,0.0,12.074769138799713,10.639698851479734,204.86647068134405,201.37283163985975,0.0
0.117,2.576540904592612,-1.277582551253338,0.6336121191514064,0.0,12.05902541515005,10.582613337250912,201.28991498984675,201.37283163985975,0.0
0.11800000000000001,2.551821818837979,-1.240022068616414,2.422719131400189,0.0,12.035010809395407,10.73548253727708,199.0029767781297,201.37283163985975,0.0
0.11900000000000001,2.624284276571993,-1.2306333475954951,3.589886785876018,0.0,12.028027429732916,10.972942667386734,201.57143751147606,201.37283163985975,0.0
0.12,2.7670493401537306,-1.253528738804373,2.3036703604866697,0.0,12.048100781290824,11.017823430764937,202.87817582009646,201.37283163985975,0.0
0.121,2.8300133075501703,-1.2482969129243848,1.6352477643741046,0.0,12.069850419271877,10.99406074586483,197.9667902155697,201.37283163985975,0.0
0.122,2.844351640352252,-1.1962861662538073,4.125000980880391,0.0,12.081379961089839,11.254458796095383,197.59501657812808,201.37283163985975,0.0
0.123,2.9910065627024442,-1.183801768063819,4.3486659502185105,0.0,12.116943177414884,11.47368695181632,200.89183108760048,201.37283163985975,0.0
0.124,3.1458388325613997,-1.1977856242184894,2.7050687010049046,0.0,12.17253595583842,11.475951266029803,196.72409111963114,201.37283163985975,0.0
0.125,3.2006426017351224,-1.1589417819187449,4.83542609019186,0.0,12.218383226626434,11.72984362005647,195.98754077769343,201.37283163985975,0.0
0.126,3.3651920253195713,-1.13047354097445,5.257554169782381,0.0,12.282291937657442,11.970509581719808,199.08619474092464,201.37283163985975,0.0
0.127,3.536367987375529,-1.1399499850570138,3.731093557156125,0.0,12.365203465010204,12.004184008544806,193.94153650391112,201.37283163985975,0.0
0.128,3.622948392367721,-1.0866858897724019,6.3777356270223695,0.0,12.437237467388064,12.341365294305556,196.9941656932427,201.37283163985975,0.0
0.129,3.836559561224875,-1.0756280206717814,4.8952076918227485,0.0,12.53510247345598,12.439855933633023,194.2674062766344,201.37283163985975,0.0
0.13,3.959156893268524,-1.0488936772412851,6.329641653759153,0.0,12.630199843763508,12.69954742996331,194.85533219304838,201.37283163985975,0.0
0.131,4.161036360287057,-1.0056308818386832,6.100853690020276,0.0,12.73726506261333,12.882287730009077,193.92478018162754,201.37283163985975,0.0
0.132,4.3204529076824665,-0.9921926147834248,6.640610210313021,0.0,12.850852208160696,13.10360459326153,193.6886987405728,201.37283163985975,0.0
0.133,4.522071318753173,-0.9372262409859216,6.835492259833266,0.0,12.969300407031398,13.309604085243954,191.6821251130306,201.37283163985975,0.0
0.134,4.6976341824267305,-0.922298640321626,7.935686138872656,0.0,13.09541136287817,13.608625223220946,193.99232507009873,201.37283163985975,0.0
0.135,4.9439814098198305,-0.8883374257426739,6.854391226036198,0.0,13.235226879340921,13.735068397406009,188.79969829438775,201.37283163985975,0.0
0.136,5.112985716956514,-0.8358972629741235,9.576435947346408,0.0,13.368276355817162,14.156959672780228,192.60554808504045,201.37283163985975,0.0
0.137,5.404396211668315,-0.8471510889388036,7.761183887568249,0.0,13.531972334666996,14.29270348312901,192.05727146279287,201.37283163985975,0.0
