timestamp,iq,id,iq_ref,id_ref,vq,vd,omega,omega_ref,r
0.0,0.0,0.0,0.0,0.0,0.0,0.0,0.0,440.9294906129412,0.0
0.001,0.0,0.0,10.0,0.0,0.0,1.0999999999999999,6.115472199294103,440.9294906129412,0.0
0.002,0.5307369851907212,-0.2913212625381807,10.0,0.0,0.14204533887919985,1.9316189316290207,13.317801563642547,440.9294906129412,0.0
0.003,1.0842913387634832,-0.6024330830807904,10.0,0.0,0.384357124667687,2.6386968949419622,20.697939467553027,440.9294906129412,0.0
0.004,1.5590443546685477,-0.8700465084428163,10.0,0.0,0.6994718867930164,3.2526109522886295,28.232747544420146,440.9294906129412,0.0
0.005,1.9399447555359186,-1.0838738622210777,10.0,0.0,1.065311453102468,3.7994935661768023,35.92944872443006,440.9294906129412,0.0
0.006,2.239750732602683,-1.2510087368845633,10.0,0.0,1.4655018868449925,4.299102221838433,43.75633668444442,440.9294906129412,0.0
0.007,2.4770151619816017,-1.382020589851471,10.0,0.0,1.8883740978591532,4.765668027847139,51.58766747378032,440.9294906129412,0.0
0.008,2.6680767290418097,-1.4872241871505252,10.0,0.0,2.325877945545995,5.209220346273558,59.45942083902103,440.9294906129412,0.0
0.009000000000000001,2.8266491704841292,-1.5730794701170803,10.0,0.0,2.772378685460125,5.636635464737965,67.35059094018146,440.9294906129412,0.0
0.01,2.962077666392183,-1.645500646948331,10.0,0.0,3.224078639851053,6.052647735211881,75.20908322432116,440.9294906129412,0.0
0.011,3.0811061533574158,-1.7084279320504514,10.0,0.0,3.678407615443203,6.460489925470405,83.0265951655913,440.9294906129412,0.0
0.012,3.188848746459569,-1.7638278597420747,10.0,0.0,4.133552631697047,6.862319393890706,90.74118064793086,440.9294906129412,0.0
0.013000000000000001,3.288205119878689,-1.8140726097274587,10.0,0.0,4.588339016389012,7.259628641949282,98.35820682563939,440.9294906129412,0.0
0.014,3.3820602099432007,-1.8592355758795645,10.0,0.0,5.041843166194517,7.653355107498287,105.90865295623543,440.9294906129412,0.0
0.015,3.4721069852858886,-1.899829032412081,10.0,0.0,5.493383198131427,8.044092747085895,113.37727610343421,440.9294906129412,0.0
0.016,3.5596145800153947,-1.9360338400176071,10.0,0.0,5.94241958510469,8.43218525824161,120.68508583176356,440.9294906129412,0.0
0.017,3.645144415105338,-1.9685384477868613,10.0,0.0,6.388575043274759,8.817838951066484,127.83962377537456,440.9294906129412,0.0
0.018000000000000002,3.730251927866576,-1.9959253041084188,10.0,0.0,6.83136783302799,9.201036292373047,134.85405702603322,440.9294906129412,0.0
0.019,3.81544967906247,-2.018253592643655,10.0,0.0,7.270383321112213,9.581672501020332,141.68976328564074,440.9294906129412,0.0
0.02,3.9014648862453374,-2.0350875541282063,10.0,0.0,7.705189334130692,9.959536942333155,148.3432823300447,440.9294906129412,0.0
0.021,3.9891051824829464,-2.0457889559126508,10.0,0.0,8.135310004560049,10.334315260302239,154.92060212100432,440.9294906129412,0.0
0.022,4.079618141396171,-2.0489696811670974,10.0,0.0,8.560139305503519,10.705547790999272,161.01925282597162,440.9294906129412,0.0
0.023,4.171109372430197,-2.048468292080302,10.0,0.0,8.979521969370257,11.072981092896333,166.534238406907,440.9294906129412,0.0
0.024,4.266936196769627,-2.039517194249811,10.0,0.0,9.392730090169543,11.435983292623375,171.8647834235234,440.9294906129412,0.0
0.025,4.367255527950721,-2.0225841458509217,10.0,0.0,9.79914449451603,11.793929226271104,177.02637022703064,440.9294906129412,0.0
0.026000000000000002,4.4734353073349595,-1.9962166741499119,10.0,0.0,10.197980960389518,12.146045424568259,181.63161391243256,440.9294906129412,0.0
0.027,4.582366840795821,-1.966358349113627,10.0,0.0,10.589124658468391,12.491912978736195,185.74793639675826,440.9294906129412,0.0
0.028,4.700058850757774,-1.9240450691803936,10.0,0.0,10.971384864613876,12.830451341534015,189.43662766964098,440.9294906129412,0.0
0.029,4.820934284790598,-1.879137197786803,10.0,0.0,11.344756153370636,13.161242511022618,192.73598774770625,440.9294906129412,0.0
0.03,4.952016225740939,-1.821000614527957,10.0,0.0,11.707923484756042,13.483081433273819,195.59831968863915,440.9294906129412,0.0
0.031,5.086039273572549,-1.7621311371320891,10.0,0.0,12.061063698547066,13.79562148058647,197.80891551030922,440.9294906129412,0.0
0.032,5.230431844273564,-1.6911110488141978,10.0,0.0,12.40292038074925,14.097678592248165,200.4421589734679,440.9294906129412,0.0
0.033,5.380124186618445,-1.6166151787533525,10.0,0.0,12.733312761073865,14.38869342901298,201.91742172589852,440.9294906129412,0.0
0.034,5.537594793894332,-1.535029134414507,10.0,0.0,13.051537880865839,14.667821176756876,203.18880493813168,440.9294906129412,0.0
0.035,5.698947813469154,-1.4530296333491768,10.0,0.0,13.357649178779205,14.934684535625108,203.60405746232266,440.9294906129412,0.0
0.036000000000000004,5.870474243492053,-1.3603000477825025,10.0,0.0,13.65045542338638,15.188218311291084,204.28541056101804,440.9294906129412,0.0
0.037,6.041188711220851,-1.275010780747051,10.0,0.0,13.930879897581198,15.42861600670124,205.2233356988433,440.9294906129412,0.0
0.038,6.228175208801664,-1.168399557236846,10.0,0.0,14.196427351981786,15.654155009933262,200.35169734043586,440.9294906129412,0.0
0.039,6.404895489618571,-1.0845312562500289,10.0,0.0,14.449814560392067,15.86612549236809,209.64773540576442,440.9294906129412,0.0
0.04,6.534612624563911,-1.0851225869390002,10.0,0.0,14.699963825590459,16.069735965364643,218.170241886545,440.9294906129412,0.0
0.041,6.621487035821765,-1.1484636683301073,10.0,0.0,14.952420817214799,16.26974130369247,220.68166573712315,440.9294906129412,0.0
0.042,6.6704785161669795,-1.2647840534085386,10.0,0.0,15.211794475054209,16.47047148862455,233.10654395573727,440.9294906129412,0.0
0.043000000000000003,6.709376245503157,-1.3867642159960276,10.0,0.0,15.477558399636717,16.673277185423842,235.10815372853793,440.9294906129412,0.0
0.044,6.744196093263161,-1.5028656568708394,10.0,0.0,15.74857785831126,16.87893749904121,248.8181267625822,440.9294906129412,0.0
0.045,6.750563942850831,-1.6564343609015326,10.0,0.0,16.02879294551472,17.090781462187255,251.61117095327992,440.9294906129412,0.0
0.046,6.764566527560506,-1.7840489455190416,10.0,0.0,16.314672837580048,17.307985931916857,266.60539535969383,440.9294906129412,0.0
0.047,6.752169677737121,-1.9446655565152717,10.0,0.0,16.610076868775216,17.533561623207692,270.0627790167984,440.9294906129412,0.0
0.048,6.7291903821171735,-2.110358990489937,10.0,0.0,16.91511817760721,17.768523902508925,283.13731951482634,440.9294906129412,0.0
0.049,6.714097190323873,-2.246352557911731,10.0,0.0,17.22645394156277,18.011924542904307,294.70561782835244,440.9294906129412,0.0
0.05,6.666841209228205,-2.4219663531358275,10.0,0.0,17.548953774962747,18.267165921658286,300.1294548425776,440.9294906129412,0.0
0.051000000000000004,6.612335516543512,-2.59336894353628,10.0,0.0,17.88182590988993,18.53465621226123,310.75154600411304,440.9294906129412,0.0
0.052000000000000005,6.568447424188529,-2.726701034625408,10.0,0.0,18.22111236450049,18.81296732052879,322.35703405819294,440.9294906129412,0.0
0.053,6.5036136539679195,-2.8764091099274185,10.0,0.0,18.569435851849082,19.104068797231378,330.9557012510771,440.9294906129412,0.0
0.054,6.434362099984388,-3.0149932598739144,10.0,0.0,18.925784313874168,19.407861808234543,339.4707232587175,440.9294906129412,0.0
0.055,6.370891759459199,-3.1253006473392393,10.0,0.0,19.28762520191878,19.723199586257838,348.00092263299223,440.9294906129412,0.0
0.056,6.314459991163816,-3.2071523724558277,10.0,0.0,19.65271639484943,20.048760466390505,356.29964302226927,440.9294906129412,0.0
0.057,6.266092078485367,-3.262894600420583,10.0,0.0,20.01916768432525,20.383030530514645,362.98468703488817,440.9294906129412,0.0
0.058,6.234656406121481,-3.2830044001420036,10.0,0.0,20.38405550695561,20.723492962007192,368.0316803659419,440.9294906129412,0.0
0.059000000000000004,6.228510489334133,-3.2600491726267444,10.0,0.0,20.743774617448285,21.0667596267365,372.35801287012686,440.9294906129412,0.0
0.06,6.247959954981508,-3.201438289803519,10.0,0.0,21.095630838529225,21.40947063565305,373.88739853789605,440.9294906129412,0.0
0.061,6.298571070969623,-3.1064761741463998,10.0,0.0,21.436712814499675,21.747723437683817,371.47602194372377,440.9294906129412,0.0
0.062,6.38094735961424,-2.982369480030801,10.0,0.0,21.76480975788002,22.077703876517536,366.2922057853833,440.9294906129412,0.0
0.063,6.53566146196873,-2.7695519558602215,10.0,0.0,22.070926190088084,22.39130117743337,372.07145994459506,440.9294906129412,0.0
0.064,6.708566607552835,-2.560747003310555,10.0,0.0,22.35695033962817,22.686677966487718,365.1882535794375,440.9294906129412,0.0
0.065,6.897199383751794,-2.3667028673086685,10.0,0.0,22.62465294768497,22.962098937664592,356.7297130485294,440.9294906129412,0.0
0.066,7.167218997264825,-2.0824440278168583,10.0,0.0,22.863799361069702,23.20893224280502,357.7888817172531,440.9294906129412,0.0
0.067,7.423387055578651,-1.859201647307153,10.0,0.0,23.082000390168847,23.42951856849048,345.1266644280509,440.9294906129412,0.0
0.068,7.736929428236853,-1.5824320316278497,10.0,0.0,23.27222771500701,23.617938384108047,342.9584987314189,440.9294906129412,0.0
0.069,8.04132723792414,-1.3546495884062866,10.0,0.0,23.43998591632552,23.77619061530866,334.2677598047511,440.9294906129412,0.0
0.07,8.395997401416553,-1.0747195592463576,10.0,0.0,23.578279041856877,23.89942370363377,322.7417355360636,440.9294906129412,0.0
0.07100000000000001,8.726669482066718,-0.8579631993863083,10.0,0.0,23.694022264374595,23.99133556844291,337.9106389559309,440.9294906129412,0.0
0.07200000000000001,8.91385728821635,-0.8925675486457335,10.0,0.0,23.81335639313859,24.06834663115294,344.8606079910171,440.9294906129412,0.0
0.073,8.941721008651788,-1.1508071676799903,10.0,0.0,23.95651852989837,24.148396869281978,362.43451347602996,440.9294906129412,0.0
0.074,8.927907180207171,-1.4305443375681337,10.0,0.0,24.121558169292424,24.236556455607346,368.59250641149885,440.9294906129412,0.0
0.075,8.859340450140312,-1.7499202918046703,10.0,0.0,24.31124378664675,24.33980824926249,387.10067316750514,440.9294906129412,0.0
0.076,8.767176841935807,-2.0562826706616475,10.0,0.0,24.52279212376306,24.461155754889383,396.7190369145668,440.9294906129412,0.0
0.077,8.62162972262067,-2.4016532593838043,10.0,0.0,24.76024751870129,24.606611890707832,408.83095327273656,440.9294906129412,0.0
0.078,8.47560200325128,-2.694417929744825,10.0,0.0,25.017253395580042,24.77587553037574,428.2762610097064,440.9294906129412,0.0
0.079,8.289593068490031,-3.001970310780605,10.0,0.0,25.296388163948027,24.972914099394785,438.0404594767293,440.9294906129412,0.0
0.08,8.078425759776728,-3.30171273584331,8.147908140761812,0.0,25.597209455327658,24.995800498443376,446.3457054209274,440.9294906129412,0.0
0.081,7.78460315436558,-3.476767330297884,3.9411230205829124,0.0,25.886495838613563,24.632463755605855,453.94591587907075,440.9294906129412,0.0
0.082,7.272079156020492,-3.4842676720579253,0.010853538849941557,0.0,26.109594400936174,23.997566947355683,454.80028363869013,440.9294906129412,0.0
0.083,6.586799120747623,-3.3191404858717686,-0.5550382712172368,0.0,26.228654432303447,23.495779835769305,451.7650676522973,440.9294906129412,0.0
0.084,5.963572860561886,-3.0765845080379934,0.8542139515856082,0.0,26.2605998636755,23.27845618935498,446.97911441535064,440.9294906129412,0.0
0.085,5.553788502698,-2.841632741974223,3.186694332034855,0.0,26.24419925278022,23.36738378710385,440.67875073366787,440.9294906129412,0.0
0.08600000000000001,5.414036423904103,-2.6521162426513527,6.339383571668972,0.0,26.219834165484496,23.780524461632258,436.1776500702869,440.9294906129412,0.0
0.08700000000000001,5.5754952024518385,-2.505380899408123,8.637452308785992,0.0,26.22497393160765,24.35201724223658,438.97462468111036,440.9294906129412,0.0
0.088,5.933018425354343,-2.4066287137693276,7.25851366269258,0.0,26.27735361219109,24.654497816217553,429.74405937515127,440.9294906129412,0.0
0.089,6.239211027773498,-2.266531119568563,10.0,0.0,26.34032016860859,25.217215230386437,416.33916796129193,440.9294906129412,0.0
0.09,6.737230850367221,-2.072572586192091,10.0,0.0,26.433327348071817,25.650822440945994,418.0844594478218,440.9294906129412,0.0
0.091,7.230910862146819,-1.8785552256328346,10.0,0.0,26.540992206316925,26.001045045326098,401.41532854278194,440.9294906129412,0.0
0.092,7.7205611281982165,-1.6501758171102314,10.0,0.0,26.64973127784364,26.278087145944845,397.9770117376468,440.9294906129412,0.0
0.093,8.216923221254834,-1.3740471866063801,10.0,0.0,26.74721029700936,26.488595616078673,380.6142233105664,440.9294906129412,0.0
0.094,8.694655078972296,-1.1032533650048544,10.0,0.0,26.82896622720075,26.64021425769733,375.8428287367334,440.9294906129412,0.0
0.095,9.159166468145317,-0.8425341312324335,10.0,0.0,26.891737251035934,26.738527693941418,374.48198817107357,440.9294906129412,0.0
0.096,9.554779551116651,-0.6901208113185193,10.0,0.0,26.9439042432592,26.794414563709495,386.96278599080495,440.9294906129412,0.0
0.097,9.646092171487151,-0.9815829461373271,10.0,0.0,27.030028191266148,26.84384118831204,403.50983943255665,440.9294906129412,0.0
0.098,9.658392830092172,-1.3194155148758386,10.0,0.0,27.146729368145706,26.896497599012182,414.47844180732795,440.9294906129412,0.0
0.099,9.567008168231723,-1.7437680278148755,10.0,0.0,27.30032651914323,26.96573380572096,430.9713215381187,440.9294906129412,0.0
0.1,9.451257463698353,-2.12260229172323,10.0,0.0,27.48291581961241,27.055224837738685,448.7719835580688,440.9294906129412,0.0
0.101,9.25423133943264,-2.5563892928931202,2.998997613929266,0.0,27.70012352072605,26.404430800757673,454.4085580228995,440.9294906129412,0.0
0.10200000000000001,8.670327024871854,-2.751892959279605,0.04591970741434004,0.0,27.847698581321026,25.64786760508921,462.8681401487875,440.9294906129412,0.0
0.10300000000000001,7.89039069850464,-2.826286060166034,-4.403257850888126,0.0,27.911088020723327,24.60179343545376,465.8719165590672,440.9294906129412,0.0
0.10400000000000001,6.922401779956498,-2.75014388640961,-6.154570315489221,0.0,27.85441152909976,23.61719244897562,465.1251024173286,440.9294906129412,0.0
0.105,5.963253165060044,-2.589356155051148,-6.023119362663804,0.0,27.68801735927887,22.853183099892867,462.16491317701184,440.9294906129412,0.0
0.106,5.165263213664907,-2.406579998707624,-4.755378968146128,0.0,27.4433641716476,22.365259611109497,456.9765321363979,440.9294906129412,0.0
0.107,4.6016015377727015,-2.247305769970179,-2.3216588630737283,0.0,27.15869155030343,22.210717844888304,450.54637445282935,440.9294906129412,0.0
0.108,4.322364277011484,-2.1366525358292474,0.7972511403116664,0.0,26.87645290100344,22.386985374401306,444.0550641511921,440.9294906129412,0.0
0.109,4.335187053353615,-2.0813895464229284,4.011650555747794,0.0,26.635092473091447,22.835594243691872,436.9712220094485,440.9294906129412,0.0
0.11,4.604962553323204,-2.070111187588322,7.5931543126545,0.0,26.462040985321977,23.547480525134326,434.51996569031854,440.9294906129412,0.0
0.111,5.117700029894115,-2.080515692195884,8.882877721445718,0.0,26.378740553568875,24.223224199630458,436.7554918674728,440.9294906129412,0.0
0.112,5.689467914994306,-2.0872279417792194,7.806854620323268,0.0,26.37197883484879,24.634036595694976,422.07140118032,440.9294906129412,0.0
0.113,6.172359731501779,-2.00101295653925,10.0,0.0,26.39742375673493,25.207697382091865,413.85916126042633,440.9294906129412,0.0
0.114,6.769969591698832,-1.832916619028638,10.0,0.0,26.460061817798387,25.643696961784315,411.3530331431087,440.9294906129412,0.0
0.115,7.306821915792392,-1.6878153993362117,10.0,0.0,26.545755859933674,25.989282732565545,395.08501556257295,440.9294906129412,0.0
0.116,7.857296750084728,-1.442099267089361,10.0,0.0,26.63186131258333,26.25369562195096,390.49089480341956,440.9294906129412,0.0
0.117,8.355872031946419,-1.2182355003426402,10.0,0.0,26.713629655886884,26.450939235000938,377.5584084206359,440.9294906129412,0.0
0.11800000000000001,8.872052423284797,-0.9253973557515716,10.0,0.0,26.776971967927537,26.58484123084767,363.81949500542873,440.9294906129412,0.0
0.11900000000000001,9.34228260216561,-0.6813496088885636,10.0,0.0,26.82345337763978,26.665123742550282,385.00095910083553,440.9294906129412,0.0
0.12,9.575139745351436,-0.801426665686753,10.0,0.0,26.88896385126748,26.721114160092228,391.43042585199845,440.9294906129412,0.0
0.121,9.627105304752568,-1.1297384756630446,10.0,0.0,26.98843584781602,26.774668943140487,410.05465632111196,440.9294906129412,0.0
0.122,9.57962222942969,-1.5346387140988114,10.0,0.0,27.124572031142705,26.8385582414183,419.72817455585977,440.9294906129412,0.0
0.123,9.493376769045547,-1.9137788944063612,10.0,0.0,27.291139943413977,26.918684398090033,441.41935659470494,440.9294906129412,0.0
0.124,9.331075782336342,-2.3355401490937244,6.23738955912743,0.0,27.491666016337835,26.6105582357599,447.2004883537391,440.9294906129412,0.0
0.125,8.935225991164844,-2.633544288972403,3.284113702202368,0.0,27.66988970857606,26.107983524263908,457.8183341555564,440.9294906129412,0.0
0.126,8.347251400354368,-2.8163357525205313,-2.193697634132425,0.0,27.797160580032376,25.16118087179119,464.1868236372924,440.9294906129412,0.0
0.127,7.476528843209662,-2.824203860197549,-5.610515705243933,0.0,27.816061676304784,24.09061343263029,464.8453678897063,440.9294906129412,0.0
0.128,6.4824795679132645,-2.6944743487799547,-6.178946604218558,0.0,27.711666991701154,23.201271823547767,462.8222661864263,440.9294906129412,0.0
0.129,5.582126020290196,-2.5158987746519683,-5.386323508313399,0.0,27.510431596609727,22.572396153938026,459.0037589918905,440.9294906129412,0.0
0.13,4.891213739679226,-2.3394910709506735,-3.6578125948349864,0.0,27.248813082400616,22.235491296694676,453.2914745245946,440.9294906129412,0.0
0.131,4.454593867129507,-2.202588456282675,-0.9252902003035768,0.0,26.9663707233116,22.230526491192766,446.7945900099068,440.9294906129412,0.0
0.132,4.308601731443296,-2.1129458501892575,2.2645010630706635,0.0,26.70318445905772,22.533058681557996,440.14799917945066,440.9294906129412,0.0
0.133,4.437452842814723,-2.079492639703394,5.595611392633643,0.0,26.493786613173217,23.097909706471768,433.9079332323107,440.9294906129412,0.0
0.134,4.81711133434091,-2.0747208466503895,8.785859940009924,0.0,26.361623289237592,23.86247815826732,434.7018104324189,440.9294906129412,0.0
0.135,5.3902376139815065,-2.096114983546607,8.451198141761061,0.0,26.321534215864176,24.409410843363403,431.3601183915203,440.9294906129412,0.0
0.136,5.9150762625448525,-2.080929121046947,10.0,0.0,26.338262932093798,25.019355186455755,415.64410572264416,440.9294906129412,0.0
0.137,6.513295203113023,-1.9781053276220004,10.0,0.0,26.403154452357942,25.493934251302566,415.590222955716,440.9294906129412,0.0
0.138,7.086618408635057,-1.8073311177504752,10.0,0.0,26.491257801928754,25.87046119848939,401.72121081907477,440.9294906129412,0.0
0.139,7.607024076764011,-1.6215084076212989,10.0,0.0,26.589470755245635,26.16663439447563,395.7576919373289,440.9294906129412,0.0
0.14,8.138375473455499,-1.3466510506679028,10.0,0.0,26.679103650665887,26.38976696924016,380.29290915414975,440.9294906129412,0.0
0.14100000000000001,8.617452966145072,-1.1098639820897735,10.0,0.0,26.75878851004651,26.55216456584133,377.2620822771117,440.9294906129412,0.0
0.14200000000000002,9.106841599678084,-0.8313042015718722,10.0,0.0,26.818470937978,26.65724891395872,371.53023963386755,440.9294906129412,0.0
0.14300000000000002,9.506433936349307,-0.6862227207852616,10.0,0.0,26.869520192846732,26.718731799359,387.4350696168134,440.9294906129412,0.0
0.14400000000000002,9.613854576993846,-0.9650541518948005,10.0,0.0,26.953735082998527,26.771350974601944,400.510743536149,440.9294906129412,0.0
0.145,9.63746118540121,-1.2940496314712258,10.0,0.0,27.06819159010176,26.82560720081741,413.39207040472616,440.9294906129412,0.0
0.146,9.5504887681924,-1.71944226661844,10.0,0.0,27.22013130418664,26.895686487098686,428.1684641413888,440.9294906129412,0.0
0.147,9.439919892905039,-2.097211972462519,10.0,0.0,27.401185716782543,26.985244668269853,447.3437265951403,440.9294906129412,0.0
