timestamp,iq,id,iq_ref,id_ref,vq,vd,omega,omega_ref,r
0.0,0.0,0.0,0.0,0.0,0.0,0.0,0.0,479.3594626731191,0.0
0.001,0.0,0.0,10.0,0.0,0.0,1.0999999999999999,6.115472199294103,479.3594626731191,0.0
0.002,0.5307369851907212,-0.2913212625381807,10.0,0.0,0.14204533887919985,1.9316189316290207,13.317801563642547,479.3594626731191,0.0
0.003,1.0842913387634832,-0.6024330830807904,10.0,0.0,0.384357124667687,2.6386968949419622,20.697939467553027,479.3594626731191,0.0
0.004,1.5590443546685477,-0.8700465084428163,10.0,0.0,0.6994718867930164,3.2526109522886295,28.232747544420146,479.3594626731191,0.0
0.005,1.9399447555359186,-1.0838738622210777,10.0,0.0,1.065311453102468,3.7994935661768023,35.92944872443006,479.3594626731191,0.0
0.006,2.239750732602683,-1.2510087368845633,10.0,0.0,1.4655018868449925,4.299102221838433,43.75633668444442,479.3594626731191,0.0
0.007,2.4770151619816017,-1.382020589851471,10.0,0.0,1.8883740978591532,4.765668027847139,51.58766747378032,479.3594626731191,0.0
0.008,2.6680767290418097,-1.4872241871505252,10.0,0.0,2.325877945545995,5.209220346273558,59.45942083902103,479.3594626731191,0.0
0.009000000000000001,2.8266491704841292,-1.5730794701170803,10.0,0.0,2.772378685460125,5.636635464737965,67.35059094018146,479.3594626731191,0.0
0.01,2.962077666392183,-1.645500646948331,10.0,0.0,3.224078639851053,6.052647735211881,75.20908322432116,479.3594626731191,0.0
0.011,3.0811061533574158,-1.7084279320504514,10.0,0.0,3.678407615443203,6.460489925470405,83.0265951655913,479.3594626731191,0.0
0.012,3.188848746459569,-1.7638278597420747,10.0,0.0,4.133552631697047,6.862319393890706,90.74118064793086,479.3594626731191,0.0
0.013000000000000001,3.288205119878689,-1.8140726097274587,10.0,0.0,4.588339016389012,7.259628641949282,98.35820682563939,479.3594626731191,0.0
0.014,3.3820602099432007,-1.8592355758795645,10.0,0.0,5.041843166194517,7.653355107498287,105.90865295623543,479.3594626731191,0.0
0.015,3.4721069852858886,-1.899829032412081,10.0,0.0,5.493383198131427,8.044092747085895,113.37727610343421,479.3594626731191,0.0
0.016,3.5596145800153947,-1.9360338400176071,10.0,0.0,5.94241958510469,8.43218525824161,120.68508583176356,479.3594626731191,0.0
0.017,3.645144415105338,-1.9685384477868613,10.0,0.0,6.388575043274759,8.817838951066484,127.83962377537456,479.3594626731191,0.0
0.018000000000000002,3.730251927866576,-1.9959253041084188,10.0,0.0,6.83136783302799,9.201036292373047,134.85405702603322,479.3594626731191,0.0
0.019,3.81544967906247,-2.018253592643655,10.0,0.0,7.270383321112213,9.581672501020332,141.68976328564074,479.3594626731191,0.0
0.02,3.9014648862453374,-2.0350875541282063,10.0,0.0,7.705189334130692,9.959536942333155,148.3432823300447,479.3594626731191,0.0
0.021,3.9891051824829464,-2.0457889559126508,10.0,0.0,8.135310004560049,10.334315260302239,154.92060212100432,479.3594626731191,0.0
0.022,4.079618141396171,-2.0489696811670974,10.0,0.0,8.560139305503519,10.705547790999272,161.01925282597162,479.3594626731191,0.0
0.023,4.171109372430197,-2.048468292080302,10.0,0.0,8.979521969370257,11.072981092896333,166.534238406907,479.3594626731191,0.0
0.024,4.266936196769627,-2.039517194249811,10.0,0.0,9.392730090169543,11.435983292623375,171.8647834235234,479.3594626731191,0.0
0.025,4.367255527950721,-2.0225841458509217,10.0,0.0,9.79914449451603,11.793929226271104,177.02637022703064,479.3594626731191,0.0
0.026000000000000002,4.4734353073349595,-1.9962166741499119,10.0,0.0,10.197980960389518,12.146045424568259,181.63161391243256,479.3594626731191,0.0
0.027,4.582366840795821,-1.966358349113627,10.0,0.0,10.589124658468391,12.491912978736195,185.74793639675826,479.3594626731191,0.0
0.028,4.700058850757774,-1.9240450691803936,10.0,0.0,10.971384864613876,12.830451341534015,189.43662766964098,479.3594626731191,0.0
0.029,4.820934284790598,-1.879137197786803,10.0,0.0,11.344756153370636,13.161242511022618,192.73598774770625,479.3594626731191,0.0
0.03,4.952016225740939,-1.821000614527957,10.0,0.0,11.707923484756042,13.483081433273819,195.59831968863915,479.3594626731191,0.0
0.031,5.086039273572549,-1.7621311371320891,10.0,0.0,12.061063698547066,13.79562148058647,197.80891551030922,479.3594626731191,0.0
0.032,5.230431844273564,-1.6911110488141978,10.0,0.0,12.40292038074925,14.097678592248165,200.4421589734679,479.3594626731191,0.0
0.033,5.380124186618445,-1.6166151787533525,10.0,0.0,12.733312761073865,14.38869342901298,201.91742172589852,479.3594626731191,0.0
0.034,5.537594793894332,-1.535029134414507,10.0,0.0,13.051537880865839,14.667821176756876,203.18880493813168,479.3594626731191,0.0
0.035,5.698947813469154,-1.4530296333491768,10.0,0.0,13.357649178779205,14.934684535625108,203.60405746232266,479.3594626731191,0.0
0.036000000000000004,5.870474243492053,-1.3603000477825025,10.0,0.0,13.65045542338638,15.188218311291084,204.28541056101804,479.3594626731191,0.0
0.037,6.041188711220851,-1.275010780747051,10.0,0.0,13.930879897581198,15.42861600670124,205.2233356988433,479.3594626731191,0.0
0.038,6.228175208801664,-1.168399557236846,10.0,0.0,14.196427351981786,15.654155009933262,200.35169734043586,479.3594626731191,0.0
0.039,6.404895489618571,-1.0845312562500289,10.0,0.0,14.449814560392067,15.86612549236809,209.64773540576442,479.3594626731191,0.0
0.04,6.534612624563911,-1.0851225869390002,10.0,0.0,14.699963825590459,16.069735965364643,218.170241886545,479.3594626731191,0.0
0.041,6.621487035821765,-1.1484636683301073,10.0,0.0,14.952420817214799,16.26974130369247,220.68166573712315,479.3594626731191,0.0
0.042,6.6704785161669795,-1.2647840534085386,10.0,0.0,15.211794475054209,16.47047148862455,233.10654395573727,479.3594626731191,0.0
0.043000000000000003,6.709376245503157,-1.3867642159960276,10.0,0.0,15.477558399636717,16.673277185423842,235.10815372853793,479.3594626731191,0.0
0.044,6.744196093263161,-1.5028656568708394,10.0,0.0,15.74857785831126,16.87893749904121,248.8181267625822,479.3594626731191,0.0
0.045,6.750563942850831,-1.6564343609015326,10.0,0.0,16.02879294551472,17.090781462187255,251.61117095327992,479.3594626731191,0.0
0.046,6.764566527560506,-1.7840489455190416,10.0,0.0,16.314672837580048,17.307985931916857,266.60539535969383,479.3594626731191,0.0
0.047,6.752169677737121,-1.9446655565152717,10.0,0.0,16.610076868775216,17.533561623207692,270.0627790167984,479.3594626731191,0.0
0.048,6.7291903821171735,-2.110358990489937,10.0,0.0,16.91511817760721,17.768523902508925,283.13731951482634,479.3594626731191,0.0
0.049,6.714097190323873,-2.246352557911731,10.0,0.0,17.22645394156277,18.011924542904307,294.70561782835244,479.3594626731191,0.0
0.05,6.666841209228205,-2.4219663531358275,10.0,0.0,17.548953774962747,18.267165921658286,300.1294548425776,479.3594626731191,0.0
0.051000000000000004,6.612335516543512,-2.59336894353628,10.0,0.0,17.88182590988993,18.53465621226123,310.75154600411304,479.3594626731191,0.0
0.052000000000000005,6.568447424188529,-2.726701034625408,10.0,0.0,18.22111236450049,18.81296732052879,322.35703405819294,479.3594626731191,0.0
0.053,6.5036136539679195,-2.8764091099274185,10.0,0.0,18.569435851849082,19.104068797231378,330.9557012510771,479.3594626731191,0.0
0.054,6.434362099984388,-3.0149932598739144,10.0,0.0,18.925784313874168,19.407861808234543,339.4707232587175,479.3594626731191,0.0
0.055,6.370891759459199,-3.1253006473392393,10.0,0.0,19.28762520191878,19.723199586257838,348.00092263299223,479.3594626731191,0.0
0.056,6.314459991163816,-3.2071523724558277,10.0,0.0,19.65271639484943,20.048760466390505,356.29964302226927,479.3594626731191,0.0
0.057,6.266092078485367,-3.262894600420583,10.0,0.0,20.01916768432525,20.383030530514645,362.98468703488817,479.3594626731191,0.0
0.058,6.234656406121481,-3.2830044001420036,10.0,0.0,20.38405550695561,20.723492962007192,368.0316803659419,479.3594626731191,0.0
0.059000000000000004,6.228510489334133,-3.2600491726267444,10.0,0.0,20.743774617448285,21.0667596267365,372.35801287012686,479.3594626731191,0.0
0.06,6.247959954981508,-3.201438289803519,10.0,0.0,21.095630838529225,21.40947063565305,373.88739853789605,479.3594626731191,0.0
0.061,6.298571070969623,-3.1064761741463998,10.0,0.0,21.436712814499675,21.747723437683817,371.47602194372377,479.3594626731191,0.0
0.062,6.38094735961424,-2.982369480030801,10.0,0.0,21.76480975788002,22.077703876517536,366.2922057853833,479.3594626731191,0.0
0.063,6.53566146196873,-2.7695519558602215,10.0,0.0,22.070926190088084,22.39130117743337,372.07145994459506,479.3594626731191,0.0
0.064,6.708566607552835,-2.560747003310555,10.0,0.0,22.35695033962817,22.686677966487718,365.1882535794375,479.3594626731191,0.0
0.065,6.897199383751794,-2.3667028673086685,10.0,0.0,22.62465294768497,22.962098937664592,356.7297130485294,479.3594626731191,0.0
0.066,7.167218997264825,-2.0824440278168583,10.0,0.0,22.863799361069702,23.20893224280502,357.7888817172531,479.3594626731191,0.0
0.067,7.423387055578651,-1.859201647307153,10.0,0.0,23.082000390168847,23.42951856849048,345.1266644280509,479.3594626731191,0.0
0.068,7.736929428236853,-1.5824320316278497,10.0,0.0,23.27222771500701,23.617938384108047,342.9584987314189,479.3594626731191,0.0
0.069,8.04132723792414,-1.3546495884062866,10.0,0.0,23.43998591632552,23.77619061530866,334.2677598047511,479.3594626731191,0.0
0.07,8.395997401416553,-1.0747195592463576,10.0,0.0,23.578279041856877,23.89942370363377,322.7417355360636,479.3594626731191,0.0
0.07100000000000001,8.726669482066718,-0.8579631993863083,10.0,0.0,23.694022264374595,23.99133556844291,337.9106389559309,479.3594626731191,0.0
0.07200000000000001,8.91385728821635,-0.8925675486457335,10.0,0.0,23.81335639313859,24.06834663115294,344.8606079910171,479.3594626731191,0.0
0.073,8.941721008651788,-1.1508071676799903,10.0,0.0,23.95651852989837,24.148396869281978,362.43451347602996,479.3594626731191,0.0
0.074,8.927907180207171,-1.4305443375681337,10.0,0.0,24.121558169292424,24.236556455607346,368.59250641149885,479.3594626731191,0.0
0.075,8.859340450140312,-1.7499202918046703,10.0,0.0,24.31124378664675,24.33980824926249,387.10067316750514,479.3594626731191,0.0
0.076,8.767176841935807,-2.0562826706616475,10.0,0.0,24.52279212376306,24.461155754889383,396.7190369145668,479.3594626731191,0.0
0.077,8.62162972262067,-2.4016532593838043,10.0,0.0,24.76024751870129,24.606611890707832,408.83095327273656,479.3594626731191,0.0
0.078,8.47560200325128,-2.694417929744825,10.0,0.0,25.017253395580042,24.77587553037574,428.2762610097064,479.3594626731191,0.0
0.079,8.289593068490031,-3.001970310780605,10.0,0.0,25.296388163948027,24.972914099394785,438.0404594767293,479.3594626731191,0.0
0.08,8.078425759776728,-3.30171273584331,10.0,0.0,25.597209455327665,25.19953060295957,447.87571303424875,479.3594626731191,0.0
0.081,7.882675762310951,-3.525181384717318,10.0,0.0,25.912194395051316,25.45298841193994,460.26934286159303,479.3594626731191,0.0
0.082,7.687097883672571,-3.703693402600396,10.0,0.0,26.238428257179056,25.732155000670204,470.03446400235384,479.3594626731191,0.0
0.083,7.512516260295773,-3.813976142857688,10.0,0.0,26.570301373216505,26.033276516525277,477.918982155292,479.3594626731191,0.0
0.084,7.3689562950047955,-3.855399170081403,7.365265376518917,0.0,26.90255303482777,26.06169816376391,476.2107759692666,479.3594626731191,0.0
0.085,7.141475049798052,-3.742388551845511,8.250855336570138,0.0,27.191576296723568,26.26785239160008,470.0346375928054,479.3594626731191,0.0
0.08600000000000001,7.0391552553503764,-3.5371373876942473,10.0,0.0,27.450865133339132,26.67482390115616,470.322857449753,479.3594626731191,0.0
0.08700000000000001,7.136776615429419,-3.2946639369917787,10.0,0.0,27.700302669312986,27.03777414923074,472.62606488739704,479.3594626731191,0.0
0.088,7.311061030683861,-3.0369888630727013,10.0,0.0,27.935171952872846,27.37117805401803,457.35546556276455,479.3594626731191,0.0
0.089,7.553536453259264,-2.74582206430018,10.0,0.0,28.15044310142966,27.66979904435183,444.61494976629547,479.3594626731191,0.0
0.09,7.9028490278559635,-2.350780840523612,10.0,0.0,28.333506367536472,27.924085421528055,443.50158797381425,479.3594626731191,0.0
0.091,8.258318851624999,-2.011730030159587,10.0,0.0,28.490346767847935,28.135640932728688,422.8862508818325,479.3594626731191,0.0
0.092,8.69151012119462,-1.6149401457768193,10.0,0.0,28.61240230006987,28.29762859142546,417.57870212081195,479.3594626731191,0.0
0.093,9.13017228376075,-1.268254625592978,10.0,0.0,28.704283536562905,28.41170211228816,401.5715795184058,479.3594626731191,0.0
0.094,9.62464976781404,-0.8810505548381862,10.0,0.0,28.759258408911695,28.473550503093698,399.7868751631798,479.3594626731191,0.0
0.095,10.026040123448086,-0.6883292247307957,10.0,0.0,28.79759332750189,28.495503377774348,417.1241393095777,479.3594626731191,0.0
0.096,10.154775717209276,-0.9190337705446474,10.0,0.0,28.861594755041747,28.508947445088566,426.9597633754983,479.3594626731191,0.0
0.097,10.122539271330538,-1.334801203713909,10.0,0.0,28.96396781874951,28.53228061340961,443.57773011599335,479.3594626731191,0.0
0.098,10.019689889773577,-1.7775402102161544,10.0,0.0,29.10298050930216,28.574508838781817,460.93775784166746,479.3594626731191,0.0
0.099,9.843813892273236,-2.247461274326352,10.0,0.0,29.279578680323866,28.644733376581534,476.01331365244005,479.3594626731191,0.0
0.1,9.631678498815333,-2.6812766316756345,9.100424356061104,0.0,29.488559966690687,28.648218090175526,498.8982995911564,479.3594626731191,0.0
0.101,9.3140677580328,-3.094160016353668,-2.537456982477438,0.0,29.718070614521316,27.433897097798457,500.569652838056,479.3594626731191,0.0
0.10200000000000001,8.352776253755998,-3.157185918978624,-3.5852355075766216,0.0,29.806002113773147,26.467648403129264,502.92466080420786,479.3594626731191,0.0
0.10300000000000001,7.337156342219657,-3.077217943662871,-4.998391471963433,0.0,29.779088857321888,25.56395363224683,503.14173540603343,479.3594626731191,0.0
0.10400000000000001,6.372690685795198,-2.9176865098764893,-5.344751500205362,0.0,29.647748671464168,24.8199039924361,499.44265047278685,479.3594626731191,0.0
0.105,5.562974238729108,-2.70776666342042,-3.6960409115787494,0.0,29.433641671438842,24.40137121566505,492.6758103663187,479.3594626731191,0.0
0.106,5.020444910712061,-2.5110191549651733,-0.4457843352766542,0.0,29.179549066273427,24.395903195686746,484.9008542052848,479.3594626731191,0.0
0.107,4.82693203399645,-2.3618973686565075,3.3862798299186165,0.0,28.935882998217323,24.770458332756746,476.4346754485841,479.3594626731191,0.0
0.108,4.976111349431824,-2.279299744222467,7.648617080514338,0.0,28.746444529849164,25.49538295176265,470.16349861165946,479.3594626731191,0.0
0.109,5.4583242647073975,-2.2341056189823965,10.0,0.0,28.644296992686353,26.293348383142664,471.99696686029847,479.3594626731191,0.0
0.11,6.0967002628780556,-2.2074400849064575,10.0,0.0,28.629679484881873,26.912389457827516,459.74454473595694,479.3594626731191,0.0
0.111,6.71401879775841,-2.1352091114559455,10.0,0.0,28.670749083587523,27.406543395408303,444.8916416268938,479.3594626731191,0.0
0.112,7.351338987749539,-1.9046162955567727,10.0,0.0,28.73248421616629,27.791456863551367,442.6745447068275,479.3594626731191,0.0
0.113,7.925806783856748,-1.66969983695191,10.0,0.0,28.80300230001394,28.08723424246611,422.5896175603255,479.3594626731191,0.0
0.114,8.505645462345532,-1.360317937501395,10.0,0.0,28.864363469014798,28.302448115201457,416.22914523419155,479.3594626731191,0.0
0.115,9.049872657404123,-1.0705312940141636,10.0,0.0,28.91232719660001,28.448210112891797,401.03328047406484,479.3594626731191,0.0
0.116,9.616075987400192,-0.7251370459542179,10.0,0.0,28.934975250344,28.527352189222633,403.3615057830291,479.3594626731191,0.0
0.117,10.021101616193446,-0.6344231719394289,10.0,0.0,28.95674812268566,28.561954077427487,417.8689429044852,479.3594626731191,0.0
0.11800000000000001,10.109125433981387,-0.9862020308034838,10.0,0.0,29.01940670982883,28.589640700377284,434.6021454835594,479.3594626731191,0.0
0.11900000000000001,10.101466690321043,-1.3896628441010517,10.0,0.0,29.11943100142675,28.622547219726943,449.79584745452394,479.3594626731191,0.0
0.12,9.978668071791791,-1.8765045202829578,10.0,0.0,29.262261492046882,28.675596776903035,465.1481786156364,479.3594626731191,0.0
0.121,9.815646063465824,-2.323487739402092,10.0,0.0,29.44041362666391,28.754328862154097,488.4598490685594,479.3594626731191,0.0
0.122,9.575953910629341,-2.795944505704048,2.3300764722624763,0.0,29.65612416844634,28.02404728101938,493.44498168339953,479.3594626731191,0.0
0.123,8.897987119423664,-3.023113678109657,-0.3033450252604055,0.0,29.797499539238665,27.24756720823049,501.1748682563256,479.3594626731191,0.0
0.124,8.053769416069644,-3.0996961982430906,-4.3864423675555155,0.0,29.85324175116349,26.226150466579387,504.1565198293635,479.3594626731191,0.0
0.125,7.054687036333303,-3.0189327042077503,-6.1252387256369,0.0,29.7916182581855,25.263469879057325,502.40135801301864,479.3594626731191,0.0
0.126,6.087673659772852,-2.827253356365669,-5.478076770863463,0.0,29.61961196243083,24.575851427219856,497.4340949558473,479.3594626731191,0.0
0.127,5.322112545510796,-2.6126745700309453,-3.1751915651050693,0.0,29.374357578049473,24.261181532879565,489.92518767626956,479.3594626731191,0.0
0.128,4.865943482589007,-2.426707662316116,0.4736048246522895,0.0,29.10385107068695,24.37431492612968,482.22289599420327,479.3594626731191,0.0
0.129,4.773713711767453,-2.3034870814382558,4.296116332474592,0.0,28.860013958566277,24.838656215442565,473.6522141703659,479.3594626731191,0.0
0.13,5.013302392154557,-2.2418126561181864,8.638529729420819,0.0,28.681442705612525,25.644342970647152,470.07597383488627,479.3594626731191,0.0
0.131,5.573277728859625,-2.2156254118359455,10.0,0.0,28.59903340085676,26.398740120596464,472.0982046575601,479.3594626731191,0.0
0.132,6.217794933291819,-2.1876951071444988,9.57059225865078,0.0,28.59749428049826,26.943309931700576,454.56982974640255,479.3594626731191,0.0
0.133,6.818330168280969,-2.077399319029283,10.0,0.0,28.638712819640272,27.42518407481584,444.03270070712415,479.3594626731191,0.0
0.134,7.45309064090187,-1.8288265936968584,10.0,0.0,28.697756877274195,27.7948802804819,437.45951426053773,479.3594626731191,0.0
0.135,8.015045989382394,-1.6070572255245792,10.0,0.0,28.765957246465693,28.078043787738075,420.77305786656945,479.3594626731191,0.0
0.136,8.608086558922318,-1.2767182546929048,10.0,0.0,28.821534336353913,28.28009607202321,408.68028946784074,479.3594626731191,0.0
0.137,9.145042604352634,-1.0002941380013228,10.0,0.0,28.864655682554062,28.414366077566708,400.4992133001197,479.3594626731191,0.0
0.138,9.71020351876153,-0.6594043351607936,10.0,0.0,28.882158257542994,28.482723077045204,404.4931541894893,479.3594626731191,0.0
0.139,10.027182501082084,-0.7100407160442348,10.0,0.0,28.913725174906478,28.51677855516357,423.82843359089316,479.3594626731191,0.0
0.14,10.113075325965482,-1.043143988635702,10.0,0.0,28.981675944521662,28.544306756292475,434.7741878627013,479.3594626731191,0.0
0.14100000000000001,10.057712597396504,-1.5039653082672353,10.0,0.0,29.09294376972179,28.58282604266144,451.08168576273613,479.3594626731191,0.0
0.14200000000000002,9.947506775904783,-1.9475918886230035,10.0,0.0,29.241127451681617,28.640189195991912,472.5538839386664,479.3594626731191,0.0
0.14300000000000002,9.747476384701983,-2.436679533091114,10.0,0.0,29.42959245586644,28.727535687002703,484.5406873852826,479.3594626731191,0.0
0.14400000000000002,9.514316069863451,-2.878874627275958,4.012823284884941,0.0,29.65169619264951,28.190051921388466,497.738574154212,479.3594626731191,0.0
0.145,8.917641249709549,-3.144217580922858,-2.7699112143907065,0.0,29.822606953152153,27.105600505313326,502.92846723627497,479.3594626731191,0.0
0.146,7.943641184094244,-3.1471931713756987,-5.600547801053741,0.0,29.86565538141037,26.00431588637194,504.1079818549738,479.3594626731191,0.0
0.147,6.869623567240485,-2.9997027189634684,-6.437790302221697,0.0,29.778016799278745,25.062076200086423,501.59614372560765,479.3594626731191,0.0
