timestamp,iq,id,iq_ref,id_ref,vq,vd,omega,omega_ref,r
0.0,0.0,0.0,0.0,0.0,0.0,0.0,0.0,471.68735815882,0.0
0.001,0.0,0.0,10.0,0.0,0.0,1.0999999999999999,6.115472199294103,471.68735815882,0.0
0.002,0.5307369851907212,-0.2913212625381807,10.0,0.0,0.14204533887919985,1.9316189316290207,13.317801563642547,471.68735815882,0.0
0.003,1.0842913387634832,-0.6024330830807904,10.0,0.0,0.384357124667687,2.6386968949419622,20.697939467553027,471.68735815882,0.0
0.004,1.5590443546685477,-0.8700465084428163,10.0,0.0,0.6994718867930164,3.2526109522886295,28.232747544420146,471.68735815882,0.0
0.005,1.9399447555359186,-1.0838738622210777,10.0,0.0,1.065311453102468,3.7994935661768023,35.92944872443006,471.68735815882,0.0
0.006,2.239750732602683,-1.2510087368845633,10.0,0.0,1.4655018868449925,4.299102221838433,43.75633668444442,471.68735815882,0.0
0.007,2.4770151619816017,-1.382020589851471,10.0,0.0,1.8883740978591532,4.765668027847139,51.58766747378032,471.68735815882,0.0
0.008,2.6680767290418097,-1.4872241871505252,10.0,0.0,2.325877945545995,5.209220346273558,59.45942083902103,471.68735815882,0.0
0.009000000000000001,2.8266491704841292,-1.5730794701170803,10.0,0.0,2.772378685460125,5.636635464737965,67.35059094018146,471.68735815882,0.0
0.01,2.962077666392183,-1.645500646948331,10.0,0.0,3.224078639851053,6.052647735211881,75.20908322432116,471.68735815882,0.0
0.011,3.0811061533574158,-1.7084279320504514,10.0,0.0,3.678407615443203,6.460489925470405,83.0265951655913,471.68735815882,0.0
0.012,3.188848746459569,-1.7638278597420747,10.0,0.0,4.133552631697047,6.862319393890706,90.74118064793086,471.68735815882,0.0
0.013000000000000001,3.288205119878689,-1.8140726097274587,10.0,0.0,4.588339016389012,7.259628641949282,98.35820682563939,471.68735815882,0.0
0.014,3.3820602099432007,-1.8592355758795645,10.0,0.0,5.041843166194517,7.653355107498287,105.90865295623543,471.68735815882,0.0
0.015,3.4721069852858886,-1.899829032412081,10.0,0.0,5.493383198131427,8.044092747085895,113.37727610343421,471.68735815882,0.0
0.016,3.5596145800153947,-1.9360338400176071,10.0,0.0,5.94241958510469,8.43218525824161,120.68508583176356,471.68735815882,0.0
0.017,3.645144415105338,-1.9685384477868613,10.0,0.0,6.388575043274759,8.817838951066484,127.83962377537456,471.68735815882,0.0
0.018000000000000002,3.730251927866576,-1.9959253041084188,10.0,0.0,6.83136783302799,9.201036292373047,134.85405702603322,471.68735815882,0.0
0.019,3.81544967906247,-2.018253592643655,10.0,0.0,7.270383321112213,9.581672501020332,141.68976328564074,471.68735815882,0.0
0.02,3.9014648862453374,-2.0350875541282063,10.0,0.0,7.705189334130692,9.959536942333155,148.3432823300447,471.68735815882,0.0
0.021,3.9891051824829464,-2.0457889559126508,10.0,0.0,8.135310004560049,10.334315260302239,154.92060212100432,471.68735815882,0.0
0.022,4.079618141396171,-2.0489696811670974,10.0,0.0,8.560139305503519,10.705547790999272,161.01925282597162,471.68735815882,0.0
0.023,4.171109372430197,-2.048468292080302,10.0,0.0,8.979521969370257,11.072981092896333,166.534238406907,471.68735815882,0.0
0.024,4.266936196769627,-2.039517194249811,10.0,0.0,9.392730090169543,11.435983292623375,171.8647834235234,471.68735815882,0.0
0.025,4.367255527950721,-2.0225841458509217,10.0,0.0,9.79914449451603,11.793929226271104,177.02637022703064,471.68735815882,0.0
0.026000000000000002,4.4734353073349595,-1.9962166741499119,10.0,0.0,10.197980960389518,12.146045424568259,181.63161391243256,471.68735815882,0.0
0.027,4.582366840795821,-1.966358349113627,10.0,0.0,10.589124658468391,12.491912978736195,185.74793639675826,471.68735815882,0.0
0.028,4.700058850757774,-1.9240450691803936,10.0,0.0,10.971384864613876,12.830451341534015,189.43662766964098,471.68735815882,0.0
0.029,4.820934284790598,-1.879137197786803,10.0,0.0,11.344756153370636,13.161242511022618,192.73598774770625,471.68735815882,0.0
0.03,4.952016225740939,-1.821000614527957,10.0,0.0,11.707923484756042,13.483081433273819,195.59831968863915,471.68735815882,0.0
0.031,5.086039273572549,-1.7621311371320891,10.0,0.0,12.061063698547066,13.79562148058647,197.80891551030922,471.68735815882,0.0
0.032,5.230431844273564,-1.6911110488141978,10.0,0.0,12.40292038074925,14.097678592248165,200.4421589734679,471.68735815882,0.0
0.033,5.380124186618445,-1.6166151787533525,10.0,0.0,12.733312761073865,14.38869342901298,201.91742172589852,471.68735815882,0.0
0.034,5.537594793894332,-1.535029134414507,10.0,0.0,13.051537880865839,14.667821176756876,203.18880493813168,471.68735815882,0.0
0.035,5.698947813469154,-1.4530296333491768,10.0,0.0,13.357649178779205,14.934684535625108,203.60405746232266,471.68735815882,0.0
0.036000000000000004,5.870474243492053,-1.3603000477825025,10.0,0.0,13.65045542338638,15.188218311291084,204.28541056101804,471.68735815882,0.0
0.037,6.041188711220851,-1.275010780747051,10.0,0.0,13.930879897581198,15.42861600670124,205.2233356988433,471.68735815882,0.0
0.038,6.228175208801664,-1.168399557236846,10.0,0.0,14.196427351981786,15.654155009933262,200.35169734043586,471.68735815882,0.0
0.039,6.404895489618571,-1.0845312562500289,10.0,0.0,14.449814560392067,15.86612549236809,209.64773540576442,471.68735815882,0.0
0.04,6.534612624563911,-1.0851225869390002,10.0,0.0,14.699963825590459,16.069735965364643,218.170241886545,471.68735815882,0.0
0.041,6.621487035821765,-1.1484636683301073,10.0,0.0,14.952420817214799,16.26974130369247,220.68166573712315,471.68735815882,0.0
0.042,6.6704785161669795,-1.2647840534085386,10.0,0.0,15.211794475054209,16.47047148862455,233.10654395573727,471.68735815882,0.0
0.043000000000000003,6.709376245503157,-1.3867642159960276,10.0,0.0,15.477558399636717,16.673277185423842,235.10815372853793,471.68735815882,0.0
0.044,6.744196093263161,-1.5028656568708394,10.0,0.0,15.74857785831126,16.87893749904121,248.8181267625822,471.68735815882,0.0
0.045,6.750563942850831,-1.6564343609015326,10.0,0.0,16.02879294551472,17.090781462187255,251.61117095327992,471.68735815882,0.0
0.046,6.764566527560506,-1.7840489455190416,10.0,0.0,16.314672837580048,17.307985931916857,266.60539535969383,471.68735815882,0.0
0.047,6.752169677737121,-1.9446655565152717,10.0,0.0,16.610076868775216,17.533561623207692,270.0627790167984,471.68735815882,0.0
0.048,6.7291903821171735,-2.110358990489937,10.0,0.0,16.91511817760721,17.768523902508925,283.13731951482634,471.68735815882,0.0
0.049,6.714097190323873,-2.246352557911731,10.0,0.0,17.22645394156277,18.011924542904307,294.70561782835244,471.68735815882,0.0
0.05,6.666841209228205,-2.4219663531358275,10.0,0.0,17.548953774962747,18.267165921658286,300.1294548425776,471.68735815882,0.0
0.051000000000000004,6.612335516543512,-2.59336894353628,10.0,0.0,17.88182590988993,18.53465621226123,310.75154600411304,471.68735815882,0.0
0.052000000000000005,6.568447424188529,-2.726701034625408,10.0,0.0,18.22111236450049,18.81296732052879,322.35703405819294,471.68735815882,0.0
0.053,6.5036136539679195,-2.8764091099274185,10.0,0.0,18.569435851849082,19.104068797231378,330.9557012510771,471.68735815882,0.0
0.054,6.434362099984388,-3.0149932598739144,10.0,0.0,18.925784313874168,19.407861808234543,339.4707232587175,471.68735815882,0.0
0.055,6.370891759459199,-3.1253006473392393,10.0,0.0,19.28762520191878,19.723199586257838,348.00092263299223,471.68735815882,0.0
0.056,6.314459991163816,-3.2071523724558277,10.0,0.0,19.65271639484943,20.048760466390505,356.29964302226927,471.68735815882,0.0
0.057,6.266092078485367,-3.262894600420583,10.0,0.0,20.01916768432525,20.383030530514645,362.98468703488817,471.68735815882,0.0
0.058,6.234656406121481,-3.2830044001420036,10.0,0.0,20.38405550695561,20.723492962007192,368.0316803659419,471.68735815882,0.0
0.059000000000000004,6.228510489334133,-3.2600491726267444,10.0,0.0,20.743774617448285,21.0667596267365,372.35801287012686,471.68735815882,0.0
0.06,6.247959954981508,-3.201438289803519,10.0,0.0,21.095630838529225,21.40947063565305,373.88739853789605,471.68735815882,0.0
0.061,6.298571070969623,-3.1064761741463998,10.0,0.0,21.436712814499675,21.747723437683817,371.47602194372377,471.68735815882,0.0
0.062,6.38094735961424,-2.982369480030801,10.0,0.0,21.76480975788002,22.077703876517536,366.2922057853833,471.68735815882,0.0
0.063,6.53566146196873,-2.7695519558602215,10.0,0.0,22.070926190088084,22.39130117743337,372.07145994459506,471.68735815882,0.0
0.064,6.708566607552835,-2.560747003310555,10.0,0.0,22.35695033962817,22.686677966487718,365.1882535794375,471.68735815882,0.0
0.065,6.897199383751794,-2.3667028673086685,10.0,0.0,22.62465294768497,22.962098937664592,356.7297130485294,471.68735815882,0.0
0.066,7.167218997264825,-2.0824440278168583,10.0,0.0,22.863799361069702,23.20893224280502,357.7888817172531,471.68735815882,0.0
0.067,7.423387055578651,-1.859201647307153,10.0,0.0,23.082000390168847,23.42951856849048,345.1266644280509,471.68735815882,0.0
0.068,7.736929428236853,-1.5824320316278497,10.0,0.0,23.27222771500701,23.617938384108047,342.9584987314189,471.68735815882,0.0
0.069,8.04132723792414,-1.3546495884062866,10.0,0.0,23.43998591632552,23.77619061530866,334.2677598047511,471.68735815882,0.0
0.07,8.395997401416553,-1.0747195592463576,10.0,0.0,23.578279041856877,23.89942370363377,322.7417355360636,471.68735815882,0.0
0.07100000000000001,8.726669482066718,-0.8579631993863083,10.0,0.0,23.694022264374595,23.99133556844291,337.9106389559309,471.68735815882,0.0
0.07200000000000001,8.91385728821635,-0.8925675486457335,10.0,0.0,23.81335639313859,24.06834663115294,344.8606079910171,471.68735815882,0.0
0.073,8.941721008651788,-1.1508071676799903,10.0,0.0,23.95651852989837,24.148396869281978,362.43451347602996,471.68735815882,0.0
0.074,8.927907180207171,-1.4305443375681337,10.0,0.0,24.121558169292424,24.236556455607346,368.59250641149885,471.68735815882,0.0
0.075,8.859340450140312,-1.7499202918046703,10.0,0.0,24.31124378664675,24.33980824926249,387.10067316750514,471.68735815882,0.0
0.076,8.767176841935807,-2.0562826706616475,10.0,0.0,24.52279212376306,24.461155754889383,396.7190369145668,471.68735815882,0.0
0.077,8.62162972262067,-2.4016532593838043,10.0,0.0,24.76024751870129,24.606611890707832,408.83095327273656,471.68735815882,0.0
0.078,8.47560200325128,-2.694417929744825,10.0,0.0,25.017253395580042,24.77587553037574,428.2762610097064,471.68735815882,0.0
0.079,8.289593068490031,-3.001970310780605,10.0,0.0,25.296388163948027,24.972914099394785,438.0404594767293,471.68735815882,0.0
0.08,8.078425759776728,-3.30171273584331,10.0,0.0,25.597209455327665,25.19953060295957,447.87571303424875,471.68735815882,0.0
0.081,7.882675762310951,-3.525181384717318,10.0,0.0,25.912194395051316,25.45298841193994,460.26934286159303,471.68735815882,0.0
0.082,7.687097883672571,-3.703693402600396,10.0,0.0,26.238428257179056,25.732155000670204,470.03446400235384,471.68735815882,0.0
0.083,7.512516260295773,-3.813976142857688,7.468820565836347,0.0,26.57030137321651,25.754846778767277,475.19138316350865,471.68735815882,0.0
0.084,7.233878793492764,-3.7940209119725714,4.855320735212059,0.0,26.86795845265999,25.575187808745913,470.8278190397603,471.68735815882,0.0
0.085,6.88249367225861,-3.5946180029138026,7.045698188276829,0.0,27.096149159469384,25.746202950482132,465.3093916923241,471.68735815882,0.0
0.08600000000000001,6.7372124270049,-3.3620162719775326,9.868691526659896,0.0,27.295030148459038,26.22402822718272,466.27944658660914,471.68735815882,0.0
0.08700000000000001,6.865360152088899,-3.149349996052854,9.437743195239477,0.0,27.50073829317745,26.58277576306037,467.6007011663022,471.68735815882,0.0
0.088,7.054862286594858,-2.923519788638349,8.817982475318125,0.0,27.69903571695543,26.842791406400128,451.2733881645619,471.68735815882,0.0
0.089,7.283718695388767,-2.626681041250821,10.0,0.0,27.873111002551106,27.20957557907566,441.75166296076713,471.68735815882,0.0
0.09,7.66216911233185,-2.2668988437763318,10.0,0.0,28.029849522606455,27.505927706020596,438.48707357540155,471.68735815882,0.0
0.091,8.043491067202584,-1.9708704639670436,10.0,0.0,28.171584103546476,27.75015756141021,419.51026074506996,471.68735815882,0.0
0.092,8.505015276889873,-1.5949880333151354,10.0,0.0,28.285181428357845,27.937183445837977,413.18590494599727,471.68735815882,0.0
0.093,8.95341118033644,-1.278023281917469,10.0,0.0,28.37501431078363,28.072158167021854,399.01843052059405,471.68735815882,0.0
0.094,9.457040184752378,-0.9047514912913717,10.0,0.0,28.431471127630324,28.151703472878623,393.5613924957914,471.68735815882,0.0
0.095,9.91226542044469,-0.6367468486743659,10.0,0.0,28.464489000596423,28.183901443952404,405.631410469651,471.68735815882,0.0
0.096,10.04004995282583,-0.8904222284446566,10.0,0.0,28.528009221574184,28.206677359010413,420.8905230794483,471.68735815882,0.0
0.097,10.048479088233046,-1.2583923950060805,10.0,0.0,28.625394976484035,28.233878345089416,437.7596110645345,471.68735815882,0.0
0.098,9.948497067287185,-1.7147477214087012,10.0,0.0,28.762281638749464,28.279180121709615,452.0041828504817,471.68735815882,0.0
0.099,9.809004562025185,-2.141256946634588,10.0,0.0,28.932362273961196,28.347984742263698,473.7128198803462,471.68735815882,0.0
0.1,9.589722549656505,-2.6079123556768598,6.290650792882822,0.0,29.139382310449555,28.041614647808586,481.8795103330104,471.68735815882,0.0
0.101,9.145436623314216,-2.9328175177480555,2.105384044808834,0.0,29.326136347580974,27.409976348004832,492.467783071925,471.68735815882,0.0
0.10200000000000001,8.443341764750434,-3.1029061996126828,-3.396556573779521,0.0,29.446511854403283,26.369604056509207,496.94605980647214,471.68735815882,0.0
0.10300000000000001,7.470186897719267,-3.065761213395607,-5.88828195752961,0.0,29.44502574609127,25.326262245606543,496.6372651536748,471.68735815882,0.0
0.10400000000000001,6.448337429984479,-2.89583111160684,-5.983383701079479,0.0,29.321033206185586,24.50423395979047,493.15860860523804,471.68735815882,0.0
0.105,5.577036959576294,-2.6750476788923665,-4.458767931325293,0.0,29.104650215108162,24.006292557741435,486.8541303767226,471.68735815882,0.0
0.106,4.968972266930875,-2.4727086063686694,-1.4581965392465932,0.0,28.840061919283126,23.90949780370761,479.2517361409003,471.68735815882,0.0
0.107,4.702988759799079,-2.318529619714819,2.267356798843762,0.0,28.577316679830517,24.198906387621847,471.51532562978645,471.68735815882,0.0
0.108,4.77994070891062,-2.2343961307121774,6.137282379691014,0.0,28.362073928790842,24.810411320238114,463.9406830018485,471.68735815882,0.0
0.109,5.169998699966971,-2.1934542335349185,10.0,0.0,28.22584367231728,25.683304307389204,464.24630388200967,471.68735815882,0.0
0.11,5.812673820942125,-2.1939336410648855,9.923629139012625,0.0,28.190987894006266,26.34146331586944,460.07176128844435,471.68735815882,0.0
0.111,6.43435664126521,-2.162345360339422,10.0,0.0,28.221954089419263,26.87752698996325,442.1938139210643,471.68735815882,0.0
0.112,7.06225658894143,-1.9916665361749788,10.0,0.0,28.28497124484951,27.299465041537943,439.68679524931355,471.68735815882,0.0
0.113,7.657657118573978,-1.7510813992656464,10.0,0.0,28.359122913075836,27.626295944715384,421.9843794324227,471.68735815882,0.0
0.114,8.210140050293695,-1.4965101109978813,10.0,0.0,28.432945514456893,27.87303980720485,416.0721115818219,471.68735815882,0.0
0.115,8.772775924734393,-1.1770640504445313,10.0,0.0,28.491466888170606,28.046126426712206,397.3170883585995,471.68735815882,0.0
0.116,9.305027568815833,-0.8790314652932927,10.0,0.0,28.53185566270259,28.154835199535658,392.2093005318384,471.68735815882,0.0
0.117,9.818366337468266,-0.6003787829697647,10.0,0.0,28.55140496785963,28.20556722441899,405.4074762158309,471.68735815882,0.0
0.11800000000000001,10.00342020350578,-0.8238280437224059,10.0,0.0,28.601438490495337,28.23795843975211,422.50491053570966,471.68735815882,0.0
0.11900000000000001,10.018243243087614,-1.22849912409474,10.0,0.0,28.69198710863421,28.27233389012185,436.5668757947279,471.68735815882,0.0
0.12,9.965418680475079,-1.6388408593789876,10.0,0.0,28.818009290073725,28.318285589551706,454.1165923223336,471.68735815882,0.0
0.121,9.808206131137982,-2.1207143983185075,10.0,0.0,28.98492709524276,28.389009471983474,467.7779853579943,471.68735815882,0.0
0.122,9.619398226833212,-2.554859879281767,8.862313015303087,0.0,29.185162775654636,28.363403922352465,489.5762588550049,471.68735815882,0.0
0.123,9.309008040112753,-2.964529883749863,-2.2157127401640615,0.0,29.403536578744095,27.185431373967536,491.80147840344847,471.68735815882,0.0
0.124,8.380562527200146,-3.0408967197078343,-3.52946371683214,0.0,29.486579398596803,26.212386215404404,494.9781781680699,471.68735815882,0.0
0.125,7.376955612915067,-2.981606023436096,-5.350721799235362,0.0,29.456727775658447,25.258861280827418,495.65206920279337,471.68735815882,0.0
0.126,6.392573670754191,-2.8381248394969933,-5.927314427036823,0.0,29.319318798285654,24.45073701367502,492.59442694600847,471.68735815882,0.0
0.127,5.5433782244670855,-2.639108105469406,-4.607563986516256,0.0,29.094381263031252,23.944190429905827,486.53871127738586,471.68735815882,0.0
0.128,4.940574859195269,-2.4476712556146882,-1.7282196833906092,0.0,28.822214936781634,23.82715153564375,479.0242555321034,471.68735815882,0.0
0.129,4.664542278405518,-2.3017576746208195,1.9556392155177953,0.0,28.551425228319985,24.095366484265753,471.29170017429243,471.68735815882,0.0
0.13,4.727655481244644,-2.2202601219134994,5.825873474268547,0.0,28.32703039057884,24.688865368532678,463.43139945792075,471.68735815882,0.0
0.131,5.101471394947769,-2.184393616948775,9.83858341946338,0.0,28.18129458501945,25.56278201350377,463.24344680315727,471.68735815882,0.0
0.132,5.740092069239864,-2.187849251396598,10.0,0.0,28.13826280935202,26.245852022793805,461.1396801711258,471.68735815882,0.0
0.133,6.371422574982992,-2.164970395950984,10.0,0.0,28.165289981736844,26.791637538893895,443.0611332111933,471.68735815882,0.0
0.134,6.997988476465962,-2.0121326761743057,10.0,0.0,28.227609627872205,27.222938276516764,438.96599892385626,471.68735815882,0.0
0.135,7.600846777514727,-1.7694435166952782,10.0,0.0,28.301659952811402,27.55729215089034,423.2898052649958,471.68735815882,0.0
0.136,8.146069840430528,-1.531398582625212,10.0,0.0,28.37798258154112,27.811669716410243,415.3515784695473,471.68735815882,0.0
0.137,8.715953328175878,-1.2022161096474075,10.0,0.0,28.438281081262996,27.99100683522829,397.80899881702464,471.68735815882,0.0
0.138,9.239759344409435,-0.9176800827897031,10.0,0.0,28.482476304669923,28.106520265228482,392.68134121989254,471.68735815882,0.0
0.139,9.766585477950022,-0.6156548459330767,10.0,0.0,28.503425932950513,28.162189060042213,407.90037920466733,471.68735815882,0.0
0.14,9.990754366463584,-0.7816053311505885,10.0,0.0,28.54912228362692,28.19499562180155,417.539852031981,471.68735815882,0.0
0.14100000000000001,10.01838288466533,-1.1721042419291274,10.0,0.0,28.634825030745088,28.228293714335535,438.6961667203344,471.68735815882,0.0
0.14200000000000002,9.956716561660695,-1.60815381218952,10.0,0.0,28.75934777602568,28.273891853040475,448.1902001999717,471.68735815882,0.0
0.14300000000000002,9.823245925160592,-2.060021024212957,10.0,0.0,28.921322958268703,28.34144755918794,468.57985167287956,471.68735815882,0.0
0.14400000000000002,9.638861843693798,-2.495937959033694,8.125562610831803,0.0,29.117288383612202,28.2312046427328,483.5242814573325,471.68735815882,0.0
0.145,9.283278918048692,-2.9079840993165718,0.5349784856202024,0.0,29.32359888085874,27.37263296158223,489.82545072144546,471.68735815882,0.0
0.146,8.510852418939315,-3.045657453442863,-2.79698707206253,0.0,29.434444767816643,26.411350213823965,495.27275060947034,471.68735815882,0.0
0.147,7.553763585423944,-3.0265103574752263,-5.756490940581469,0.0,29.434594877205225,25.36261006627266,495.7002603723191,471.68735815882,0.0
0.148,6.5303704548744665,-2.8776662731907194,-6.210374844140852,0.0,29.31367458258819,24.501429109734275,492.6631789627016,471.68735815882,0.0
0.149,5.635101044272611,-2.666824238825917,-4.901592347370897,0.0,29.097024038841745,23.95102483692904,486.75826763058984,471.68735815882,0.0
