timestamp,iq,id,iq_ref,id_ref,vq,vd,omega,omega_ref,r
0.0,0.0,0.0,0.0,0.0,0.0,0.0,0.0,328.10089763895604,0.0
0.001,0.0,0.0,10.0,0.0,0.0,1.0999999999999999,6.115472199294103,328.10089763895604,0.0
0.002,0.5307369851907212,-0.2913212625381807,10.0,0.0,0.14204533887919985,1.9316189316290207,13.317801563642547,328.10089763895604,0.0
0.003,1.0842913387634832,-0.6024330830807904,10.0,0.0,0.384357124667687,2.6386968949419622,20.697939467553027,328.10089763895604,0.0
0.004,1.5590443546685477,-0.8700465084428163,10.0,0.0,0.6994718867930164,3.2526109522886295,28.232747544420146,328.10089763895604,0.0
0.005,1.9399447555359186,-1.0838738622210777,10.0,0.0,1.065311453102468,3.7994935661768023,35.92944872443006,328.10089763895604,0.0
0.006,2.239750732602683,-1.2510087368845633,10.0,0.0,1.4655018868449925,4.299102221838433,43.75633668444442,328.10089763895604,0.0
0.007,2.4770151619816017,-1.382020589851471,10.0,0.0,1.8883740978591532,4.765668027847139,51.58766747378032,328.10089763895604,0.0
0.008,2.6680767290418097,-1.4872241871505252,10.0,0.0,2.325877945545995,5.209220346273558,59.45942083902103,328.10089763895604,0.0
0.009000000000000001,2.8266491704841292,-1.5730794701170803,10.0,0.0,2.772378685460125,5.636635464737965,67.35059094018146,328.10089763895604,0.0
0.01,2.962077666392183,-1.645500646948331,10.0,0.0,3.224078639851053,6.052647735211881,75.20908322432116,328.10089763895604,0.0
0.011,3.0811061533574158,-1.7084279320504514,10.0,0.0,3.678407615443203,6.460489925470405,83.0265951655913,328.10089763895604,0.0
0.012,3.188848746459569,-1.7638278597420747,10.0,0.0,4.133552631697047,6.862319393890706,90.74118064793086,328.10089763895604,0.0
0.013000000000000001,3.288205119878689,-1.8140726097274587,10.0,0.0,4.588339016389012,7.259628641949282,98.35820682563939,328.10089763895604,0.0
0.014,3.3820602099432007,-1.8592355758795645,10.0,0.0,5.041843166194517,7.653355107498287,105.90865295623543,328.10089763895604,0.0
0.015,3.4721069852858886,-1.899829032412081,10.0,0.0,5.493383198131427,8.044092747085895,113.37727610343421,328.10089763895604,0.0
0.016,3.5596145800153947,-1.9360338400176071,10.0,0.0,5.94241958510469,8.43218525824161,120.68508583176356,328.10089763895604,0.0
0.017,3.645144415105338,-1.9685384477868613,10.0,0.0,6.388575043274759,8.817838951066484,127.83962377537456,328.10089763895604,0.0
0.018000000000000002,3.730251927866576,-1.9959253041084188,10.0,0.0,6.83136783302799,9.201036292373047,134.85405702603322,328.10089763895604,0.0
0.019,3.81544967906247,-2.018253592643655,10.0,0.0,7.270383321112213,9.581672501020332,141.68976328564074,328.10089763895604,0.0
0.02,3.9014648862453374,-2.0350875541282063,10.0,0.0,7.705189334130692,9.959536942333155,148.3432823300447,328.10089763895604,0.0
0.021,3.9891051824829464,-2.0457889559126508,10.0,0.0,8.135310004560049,10.334315260302239,154.92060212100432,328.10089763895604,0.0
0.022,4.079618141396171,-2.0489696811670974,10.0,0.0,8.560139305503519,10.705547790999272,161.01925282597162,328.10089763895604,0.0
0.023,4.171109372430197,-2.048468292080302,10.0,0.0,8.979521969370257,11.072981092896333,166.534238406907,328.10089763895604,0.0
0.024,4.266936196769627,-2.039517194249811,10.0,0.0,9.392730090169543,11.435983292623375,171.8647834235234,328.10089763895604,0.0
0.025,4.367255527950721,-2.0225841458509217,10.0,0.0,9.79914449451603,11.793929226271104,177.02637022703064,328.10089763895604,0.0
0.026000000000000002,4.4734353073349595,-1.9962166741499119,10.0,0.0,10.197980960389518,12.146045424568259,181.63161391243256,328.10089763895604,0.0
0.027,4.582366840795821,-1.966358349113627,10.0,0.0,10.589124658468391,12.491912978736195,185.74793639675826,328.10089763895604,0.0
0.028,4.700058850757774,-1.9240450691803936,10.0,0.0,10.971384864613876,12.830451341534015,189.43662766964098,328.10089763895604,0.0
0.029,4.820934284790598,-1.879137197786803,10.0,0.0,11.344756153370636,13.161242511022618,192.73598774770625,328.10089763895604,0.0
0.03,4.952016225740939,-1.821000614527957,10.0,0.0,11.707923484756042,13.483081433273819,195.59831968863915,328.10089763895604,0.0
0.031,5.086039273572549,-1.7621311371320891,10.0,0.0,12.061063698547066,13.79562148058647,197.80891551030922,328.10089763895604,0.0
0.032,5.230431844273564,-1.6911110488141978,10.0,0.0,12.40292038074925,14.097678592248165,200.4421589734679,328.10089763895604,0.0
0.033,5.380124186618445,-1.6166151787533525,10.0,0.0,12.733312761073865,14.38869342901298,201.91742172589852,328.10089763895604,0.0
0.034,5.537594793894332,-1.535029134414507,10.0,0.0,13.051537880865839,14.667821176756876,203.18880493813168,328.10089763895604,0.0
0.035,5.698947813469154,-1.4530296333491768,10.0,0.0,13.357649178779205,14.934684535625108,203.60405746232266,328.10089763895604,0.0
0.036000000000000004,5.870474243492053,-1.3603000477825025,10.0,0.0,13.65045542338638,15.188218311291084,204.28541056101804,328.10089763895604,0.0
0.037,6.041188711220851,-1.275010780747051,10.0,0.0,13.930879897581198,15.42861600670124,205.2233356988433,328.10089763895604,0.0
0.038,6.228175208801664,-1.168399557236846,10.0,0.0,14.196427351981786,15.654155009933262,200.35169734043586,328.10089763895604,0.0
0.039,6.404895489618571,-1.0845312562500289,10.0,0.0,14.449814560392067,15.86612549236809,209.64773540576442,328.10089763895604,0.0
0.04,6.534612624563911,-1.0851225869390002,10.0,0.0,14.699963825590459,16.069735965364643,218.170241886545,328.10089763895604,0.0
0.041,6.621487035821765,-1.1484636683301073,10.0,0.0,14.952420817214799,16.26974130369247,220.68166573712315,328.10089763895604,0.0
0.042,6.6704785161669795,-1.2647840534085386,10.0,0.0,15.211794475054209,16.47047148862455,233.10654395573727,328.10089763895604,0.0
0.043000000000000003,6.709376245503157,-1.3867642159960276,10.0,0.0,15.477558399636717,16.673277185423842,235.10815372853793,328.10089763895604,0.0
0.044,6.744196093263161,-1.5028656568708394,10.0,0.0,15.74857785831126,16.87893749904121,248.8181267625822,328.10089763895604,0.0
0.045,6.750563942850831,-1.6564343609015326,10.0,0.0,16.02879294551472,17.090781462187255,251.61117095327992,328.10089763895604,0.0
0.046,6.764566527560506,-1.7840489455190416,10.0,0.0,16.314672837580048,17.307985931916857,266.60539535969383,328.10089763895604,0.0
0.047,6.752169677737121,-1.9446655565152717,10.0,0.0,16.610076868775216,17.533561623207692,270.0627790167984,328.10089763895604,0.0
0.048,6.7291903821171735,-2.110358990489937,10.0,0.0,16.91511817760721,17.768523902508925,283.13731951482634,328.10089763895604,0.0
0.049,6.714097190323873,-2.246352557911731,10.0,0.0,17.22645394156277,18.011924542904307,294.70561782835244,328.10089763895604,0.0
0.05,6.666841209228205,-2.4219663531358275,10.0,0.0,17.548953774962747,18.267165921658286,300.1294548425776,328.10089763895604,0.0
0.051000000000000004,6.612335516543512,-2.59336894353628,10.0,0.0,17.88182590988993,18.53465621226123,310.75154600411304,328.10089763895604,0.0
0.052000000000000005,6.568447424188529,-2.726701034625408,10.0,0.0,18.22111236450049,18.81296732052879,322.35703405819294,328.10089763895604,0.0
0.053,6.5036136539679195,-2.8764091099274185,8.491601473984584,0.0,18.569435851849082,18.938144959369684,330.11060672898503,328.10089763895604,0.0
0.054,6.354993796958134,-2.9730657497802078,4.594718047688247,0.0,18.90457990397769,18.687763837997764,334.459212988997,328.10089763895604,0.0
0.055,6.0028650766616165,-2.9347507501743086,2.356831764181843,0.0,19.175990222401076,18.325984537715684,336.1990792496036,328.10089763895604,0.0
0.056,5.5472850596595045,-2.8063081229852647,1.405916817772086,0.0,19.37033603995917,17.991894932701406,335.7676201579868,328.10089763895604,0.0
0.057,5.102575320527695,-2.63419354660244,1.5449791383901648,0.0,19.494190138129806,17.779817145810927,334.70468292666004,328.10089763895604,0.0
0.058,4.750670480420631,-2.468074345640228,2.0104099011765104,0.0,19.567899081452317,17.685401743147334,333.3034362069301,328.10089763895604,0.0
0.059000000000000004,4.516203225312356,-2.321851011082761,2.6590078753617465,0.0,19.61037221538452,17.69676259427571,331.1838875907565,328.10089763895604,0.0
0.06,4.398437979083024,-2.1961130621786147,3.68795228393053,0.0,19.637365180002462,17.828542083419322,330.511984402626,328.10089763895604,0.0
0.061,4.403869693461542,-2.088022374778209,3.99979301035908,0.0,19.664204200947957,17.97208081488789,331.9587637624594,328.10089763895604,0.0
0.062,4.464156954908758,-1.994663499843894,3.2378246692073533,0.0,19.693524623577,18.010437368897772,324.69172553763855,328.10089763895604,0.0
0.063,4.508001557794581,-1.8736877469208262,6.905435502630954,0.0,19.711374915271936,18.45472715115471,319.0867718925912,328.10089763895604,0.0
0.064,4.78307328841475,-1.7929245040827828,9.79805358261829,0.0,19.764194956840104,19.108065420480454,324.7361276713755,328.10089763895604,0.0
0.065,5.219014769322024,-1.8093911241671718,7.0070233929019174,0.0,19.879685781821703,19.320209519768177,317.8506009541419,328.10089763895604,0.0
0.066,5.501613109585731,-1.7407825653228035,10.0,0.0,19.997130326560185,19.8530996176833,315.80268240698626,328.10089763895604,0.0
0.067,5.932873259460037,-1.6537721375509407,10.0,0.0,20.147234365149867,20.26990276112624,315.9459845951856,328.10089763895604,0.0
0.068,6.319392404155425,-1.6044735298064847,10.0,0.0,20.319455571650707,20.6218314896661,306.74682810165257,328.10089763895604,0.0
0.069,6.719577146733205,-1.4658568763434492,10.0,0.0,20.49489268455197,20.91563433576547,307.10646858228137,328.10089763895604,0.0
0.07,7.063644314554625,-1.356118884560129,10.0,0.0,20.67148135821149,21.16375506751044,300.79242554229074,328.10089763895604,0.0
0.07100000000000001,7.426218843008504,-1.1707610019152508,10.0,0.0,20.835931250506466,21.36828006699516,293.24929533257256,328.10089763895604,0.0
0.07200000000000001,7.739490664440065,-1.0353261997835679,10.0,0.0,20.991344404112382,21.537963400687968,294.30617976897304,328.10089763895604,0.0
0.073,8.0686177621345,-0.8556000999166398,10.0,0.0,21.12976905276294,21.67314845384001,302.8823711875025,328.10089763895604,0.0
0.074,8.2254274092961,-0.9406530583226388,10.0,0.0,21.279022828286962,21.794699676331078,308.0698319910555,328.10089763895604,0.0
0.075,8.270964285996302,-1.1648660635883268,10.0,0.0,21.449319249502864,21.915580194160032,324.6617250322619,328.10089763895604,0.0
0.076,8.28420818044501,-1.3968132503913986,7.89333784254362,0.0,21.63794614087575,21.808668005385123,327.20870239964455,328.10089763895604,0.0
0.077,8.144959326348406,-1.594857137749037,6.628771111245423,0.0,21.816484479975166,21.628723818651874,342.9846989960936,328.10089763895604,0.0
0.078,7.904129611259209,-1.7633948370353563,-1.4080652005504692,0.0,21.975733274539234,20.638320337636173,339.9082465701835,328.10089763895604,0.0
0.079,7.2166541964237485,-1.7379049540495335,0.012087523092294106,0.0,22.015527577424024,20.072681245378114,344.9639887955679,328.10089763895604,0.0
0.08,6.608826489677481,-1.7295165540434794,-2.684414501166021,0.0,21.994110715623727,19.316755036323233,347.8591808301529,328.10089763895604,0.0
0.081,5.934381585619239,-1.6988555308544309,-4.329593350370501,0.0,21.895954090547225,18.548385771202845,348.19678686901204,328.10089763895604,0.0
0.082,5.254799974584804,-1.6374817616919743,-4.699355262100621,0.0,21.724331697090356,17.890825276461786,347.89488303050064,328.10089763895604,0.0
0.083,4.645819339510032,-1.584117453993891,-4.746343196760364,0.0,21.498859157349912,17.34057959190175,346.69084979238505,328.10089763895604,0.0
0.084,4.133264882431348,-1.5437061012038245,-4.330226099236862,0.0,21.236997697397577,16.919345165825767,344.70305180692384,328.10089763895604,0.0
0.085,3.733353407992632,-1.5225541042123867,-3.502348648185933,0.0,20.957276334691723,16.63981810261999,342.30561021131655,328.10089763895604,0.0
0.08600000000000001,3.4558728208455016,-1.5220265566425315,-2.4456749761058925,0.0,20.677727891673104,16.4947506887243,339.8508744490593,328.10089763895604,0.0
0.08700000000000001,3.29676342295787,-1.54000026736423,-1.3358068630782967,0.0,20.413609935221864,16.462481155524717,336.9045669311423,328.10089763895604,0.0
0.088,3.237917849149487,-1.5746805350634394,0.04931020295832944,0.0,20.176311913435484,16.553172895273764,333.85334567030804,328.10089763895604,0.0
0.089,3.280569762590126,-1.618641968060989,1.5173963530619439,0.0,19.97630182275539,16.753423798503743,330.7153150467129,328.10089763895604,0.0
0.09,3.412821483811681,-1.67173207341199,3.0602674907819605,0.0,19.821718128724935,17.054562395790924,327.6961458464468,328.10089763895604,0.0
0.091,3.63047353978634,-1.7217844932700186,4.573899608840077,0.0,19.717681528957115,17.43858037661054,327.7879460730039,328.10089763895604,0.0
0.092,3.920100195579538,-1.7644238310679732,4.53112901122105,0.0,19.66664019020723,17.724269400875215,329.38021512263674,328.10089763895604,0.0
0.093,4.173283480330419,-1.784031594589789,3.722201311567833,0.0,19.651002348368223,17.862777153088125,321.2136025783876,328.10089763895604,0.0
0.094,4.356287666392013,-1.7308301190142399,7.874380534298076,0.0,19.644730825985885,18.433100709773427,318.32189281874355,328.10089763895604,0.0
0.095,4.752058612201991,-1.7112511027986024,9.418025462322237,0.0,19.694497134482344,19.03233914622884,322.25288994784586,328.10089763895604,0.0
0.096,5.205805359691778,-1.7465734398835802,7.511006974682185,0.0,19.803291903016202,19.30546745420193,314.392320230848,328.10089763895604,0.0
0.097,5.535087500011767,-1.6921389774534046,10.0,0.0,19.92217901125581,19.823338257932154,314.33054728732714,328.10089763895604,0.0
0.098,5.9752757866256925,-1.6132075921435827,10.0,0.0,20.072826381284703,20.23129287173581,312.4150788245811,328.10089763895604,0.0
0.099,6.362991898250381,-1.5668529663721777,10.0,0.0,20.24489478070932,20.57526987174942,305.63053158794645,328.10089763895604,0.0
0.1,6.766495667069909,-1.4220091124295253,10.0,0.0,20.418684762516854,20.86154775825022,303.22459671393165,328.10089763895604,0.0
0.101,7.104686982161848,-1.3197617321191126,10.0,0.0,20.593924761499,21.10341084730978,299.94749789707373,328.10089763895604,0.0
0.10200000000000001,7.467084828247396,-1.1329244471914826,10.0,0.0,20.756297441949954,21.302129777443106,289.47580597492447,328.10089763895604,0.0
0.10300000000000001,7.784074373195053,-0.9893499677009268,10.0,0.0,20.908379927474453,21.465969211124815,297.7309342390025,328.10089763895604,0.0
0.10400000000000001,8.080497935016108,-0.8633167319774464,10.0,0.0,21.04921019668,21.599196253639953,301.7895455119459,328.10089763895604,0.0
0.105,8.21317802979919,-0.9789755599102001,10.0,0.0,21.203262946646333,21.721553044016204,309.7939159774987,328.10089763895604,0.0
0.106,8.242764025510578,-1.2205562762142326,10.0,0.0,21.379563391167792,21.845151771771043,324.6659906240112,328.10089763895604,0.0
0.107,8.259285120291342,-1.4370225473399751,7.286043167634775,0.0,21.57198914667337,21.673963959173605,327.60474624136685,328.10089763895604,0.0
0.108,8.071574164403078,-1.6376310667096494,5.821626872932848,0.0,21.747955819788054,21.42600469538842,339.13210832675776,328.10089763895604,0.0
0.109,7.793883266247976,-1.762477586706372,-0.052366276640621656,0.0,21.893256931218705,20.617611831025336,341.6821335108057,328.10089763895604,0.0
0.11,7.170467582629294,-1.7868149464278436,-1.4631912273831027,0.0,21.944617289439357,19.873936367372195,344.08240865186485,328.10089763895604,0.0
0.111,6.499780336492697,-1.7404335509346252,-2.823143908041753,0.0,21.911128738371175,19.14181938078025,347.17621957595026,328.10089763895604,0.0
0.112,5.817265234402748,-1.6982351652473056,-4.560802589454397,0.0,21.803599335279934,18.370392098360394,347.2372640590864,328.10089763895604,0.0
0.113,5.135117211243411,-1.6302185608322146,-4.782688495223765,0.0,21.62262030162706,17.72653487257953,346.625061120412,328.10089763895604,0.0
0.114,4.535631006921475,-1.5737364878757474,-4.661828660701132,0.0,21.38982058678031,17.20360090911047,345.2937586803057,328.10089763895604,0.0
0.115,4.043200210874621,-1.5350543944576787,-4.1681060510614785,0.0,21.124317237524913,16.81095378474071,343.2474179822955,328.10089763895604,0.0
0.116,3.6670304292755596,-1.5177479088074046,-3.29640090548976,0.0,20.844582618270728,16.558425745814308,340.8377389949993,328.10089763895604,0.0
0.117,3.413152869751448,-1.5210882159473629,-2.218929825402112,0.0,20.568109155691225,16.437146649940708,338.3663414594757,328.10089763895604,0.0
0.11800000000000001,3.274944732202285,-1.5427281031442033,-1.0858854958454902,0.0,20.30950211430256,16.426872402382042,335.39686531887173,328.10089763895604,0.0
0.11900000000000001,3.2348957291851965,-1.5799977805543526,0.325892897657325,0.0,20.079611617940042,16.53875336438651,332.40411363649423,328.10089763895604,0.0
0.12,3.294246576137549,-1.6267798540779586,1.7792365788706945,0.0,19.88867159872773,16.755278118357786,329.1754565310682,328.10089763895604,0.0
0.121,3.4404501050798757,-1.680252764419669,3.3828195426625776,0.0,19.743892256236112,17.077428204501544,326.5745595985302,328.10089763895604,0.0
0.122,3.6740616476401806,-1.7294727147407776,4.698531389335853,0.0,19.65068532203995,17.457342586885694,327.34607573374416,328.10089763895604,0.0
0.123,3.9654017536945187,-1.7693542101133506,4.320321540780986,0.0,19.608685284489585,17.705473339563675,328.49580652602685,328.10089763895604,0.0
0.124,4.1973191064851685,-1.7821978517110608,3.74150705576893,0.0,19.596712311584074,17.842106010606614,319.1431920008101,328.10089763895604,0.0
0.125,4.37865097505582,-1.71522004895293,8.507391374758779,0.0,19.59210390835404,18.476286205178845,318.3717247240741,328.10089763895604,0.0
0.126,4.803450592275543,-1.7087480208656014,8.99041674227558,0.0,19.651332219842203,19.007146847999348,321.78993343353267,328.10089763895604,0.0
0.127,5.2330703131881835,-1.7330618537526727,7.344422029600536,0.0,19.760463006362055,19.261944412488987,312.0729008487513,328.10089763895604,0.0
0.128,5.551332007364511,-1.66256813592792,10.0,0.0,19.876163023389292,19.780036233902074,313.5659433868529,328.10089763895604,0.0
0.129,5.984336467790222,-1.5881708617904575,10.0,0.0,20.024623457878235,20.186885221467524,309.8392079214423,328.10089763895604,0.0
0.13,6.37335975718842,-1.5406134796231672,10.0,0.0,20.194435408377814,20.52943283649576,305.09827940673,328.10089763895604,0.0
0.131,6.77927810236622,-1.3948430538824264,10.0,0.0,20.365961752320445,20.81394609999557,300.4687423359787,328.10089763895604,0.0
0.132,7.118073636964044,-1.294705745204317,10.0,0.0,20.539229388521605,21.053952346185675,299.09671197464667,328.10089763895604,0.0
0.133,7.478762000805702,-1.113355214157778,10.0,0.0,20.700223700393323,21.250996966700278,287.5954598581796,328.10089763895604,0.0
0.134,7.800944904375679,-0.962910751834205,10.0,0.0,20.850087657584208,21.41260332059632,293.7071633201365,328.10089763895604,0.0
0.135,8.06988103197962,-0.8841903525402004,10.0,0.0,20.993971055146492,21.5466742898211,304.6032786982156,328.10089763895604,0.0
0.136,8.198081278368873,-1.0038011609772464,10.0,0.0,21.15081760279605,21.67031383605286,308.318592102901,328.10089763895604,0.0
0.137,8.23180511070726,-1.2331779984324331,10.0,0.0,21.32837879433953,21.794846463333073,324.96143108197697,328.10089763895604,0.0
0.138,8.230075188642655,-1.476739420506688,6.807537945724524,0.0,21.525135117510295,21.574038650819798,327.225345675214,328.10089763895604,0.0
0.139,8.028906829397908,-1.640027152005021,5.684336168743435,0.0,21.69566106335673,21.325470897246035,342.72447365723656,328.10089763895604,0.0
0.14,7.727588129732823,-1.7831980694604606,-2.2114635824506568,0.0,21.83839356286626,20.29263993212346,338.5362700647028,328.10089763895604,0.0
0.14100000000000001,7.001609290347053,-1.7325703420763268,-0.22171551044125426,0.0,21.85656895672577,19.752040084232867,343.3415845251191,328.10089763895604,0.0
0.14200000000000002,6.396241084582714,-1.7191093780753386,-2.776779609511035,0.0,21.817892397644002,19.025693943139725,346.00757728995626,328.10089763895604,0.0
0.14300000000000002,5.741450736852607,-1.6899901038953602,-4.288842788439608,0.0,21.707380369841317,18.293311707748952,346.1430820705633,328.10089763895604,0.0
