timestamp,iq,id,iq_ref,id_ref,vq,vd,omega,omega_ref,r
0.0,0.0,0.0,0.0,0.0,0.0,0.0,0.0,373.00752300077653,0.0
0.001,0.0,0.0,10.0,0.0,0.0,1.0999999999999999,6.115472199294103,373.00752300077653,0.0
0.002,0.5307369851907212,-0.2913212625381807,10.0,0.0,0.14204533887919985,1.9316189316290207,13.317801563642547,373.00752300077653,0.0
0.003,1.0842913387634832,-0.6024330830807904,10.0,0.0,0.384357124667687,2.6386968949419622,20.697939467553027,373.00752300077653,0.0
0.004,1.5590443546685477,-0.8700465084428163,10.0,0.0,0.6994718867930164,3.2526109522886295,28.232747544420146,373.00752300077653,0.0
0.005,1.9399447555359186,-1.0838738622210777,10.0,0.0,1.065311453102468,3.7994935661768023,35.92944872443006,373.00752300077653,0.0
0.006,2.239750732602683,-1.2510087368845633,10.0,0.0,1.4655018868449925,4.299102221838433,43.75633668444442,373.00752300077653,0.0
0.007,2.4770151619816017,-1.382020589851471,10.0,0.0,1.8883740978591532,4.765668027847139,51.58766747378032,373.00752300077653,0.0
0.008,2.6680767290418097,-1.4872241871505252,10.0,0.0,2.325877945545995,5.209220346273558,59.45942083902103,373.00752300077653,0.0
0.009000000000000001,2.8266491704841292,-1.5730794701170803,10.0,0.0,2.772378685460125,5.636635464737965,67.35059094018146,373.00752300077653,0.0
0.01,2.962077666392183,-1.645500646948331,10.0,0.0,3.224078639851053,6.052647735211881,75.20908322432116,373.00752300077653,0.0
0.011,3.0811061533574158,-1.7084279320504514,10.0,0.0,3.678407615443203,6.460489925470405,83.0265951655913,373.00752300077653,0.0
0.012,3.188848746459569,-1.7638278597420747,10.0,0.0,4.133552631697047,6.862319393890706,90.74118064793086,373.00752300077653,0.0
0.013000000000000001,3.288205119878689,-1.8140726097274587,10.0,0.0,4.588339016389012,7.259628641949282,98.35820682563939,373.00752300077653,0.0
0.014,3.3820602099432007,-1.8592355758795645,10.0,0.0,5.041843166194517,7.653355107498287,105.90865295623543,373.00752300077653,0.0
0.015,3.4721069852858886,-1.899829032412081,10.0,0.0,5.493383198131427,8.044092747085895,113.37727610343421,373.00752300077653,0.0
0.016,3.5596145800153947,-1.9360338400176071,10.0,0.0,5.94241958510469,8.43218525824161,120.68508583176356,373.00752300077653,0.0
0.017,3.645144415105338,-1.9685384477868613,10.0,0.0,6.388575043274759,8.817838951066484,127.83962377537456,373.00752300077653,0.0
0.018000000000000002,3.730251927866576,-1.9959253041084188,10.0,0.0,6.83136783302799,9.201036292373047,134.85405702603322,373.00752300077653,0.0
0.019,3.81544967906247,-2.018253592643655,10.0,0.0,7.270383321112213,9.581672501020332,141.68976328564074,373.00752300077653,0.0
0.02,3.9014648862453374,-2.0350875541282063,10.0,0.0,7.705189334130692,9.959536942333155,148.3432823300447,373.00752300077653,0.0
0.021,3.9891051824829464,-2.0457889559126508,10.0,0.0,8.135310004560049,10.334315260302239,154.92060212100432,373.00752300077653,0.0
0.022,4.079618141396171,-2.0489696811670974,10.0,0.0,8.560139305503519,10.705547790999272,161.01925282597162,373.00752300077653,0.0
0.023,4.171109372430197,-2.048468292080302,10.0,0.0,8.979521969370257,11.072981092896333,166.534238406907,373.00752300077653,0.0
0.024,4.266936196769627,-2.039517194249811,10.0,0.0,9.392730090169543,11.435983292623375,171.8647834235234,373.00752300077653,0.0
0.025,4.367255527950721,-2.0225841458509217,10.0,0.0,9.79914449451603,11.793929226271104,177.02637022703064,373.00752300077653,0.0
0.026000000000000002,4.4734353073349595,-1.9962166741499119,10.0,0.0,10.197980960389518,12.146045424568259,181.63161391243256,373.00752300077653,0.0
0.027,4.582366840795821,-1.966358349113627,10.0,0.0,10.589124658468391,12.491912978736195,185.74793639675826,373.00752300077653,0.0
0.028,4.700058850757774,-1.9240450691803936,10.0,0.0,10.971384864613876,12.830451341534015,189.43662766964098,373.00752300077653,0.0
0.029,4.820934284790598,-1.879137197786803,10.0,0.0,11.344756153370636,13.161242511022618,192.73598774770625,373.00752300077653,0.0
0.03,4.952016225740939,-1.821000614527957,10.0,0.0,11.707923484756042,13.483081433273819,195.59831968863915,373.00752300077653,0.0
0.031,5.086039273572549,-1.7621311371320891,10.0,0.0,12.061063698547066,13.79562148058647,197.80891551030922,373.00752300077653,0.0
0.032,5.230431844273564,-1.6911110488141978,10.0,0.0,12.40292038074925,14.097678592248165,200.4421589734679,373.00752300077653,0.0
0.033,5.380124186618445,-1.6166151787533525,10.0,0.0,12.733312761073865,14.38869342901298,201.91742172589852,373.00752300077653,0.0
0.034,5.537594793894332,-1.535029134414507,10.0,0.0,13.051537880865839,14.667821176756876,203.18880493813168,373.00752300077653,0.0
0.035,5.698947813469154,-1.4530296333491768,10.0,0.0,13.357649178779205,14.934684535625108,203.60405746232266,373.00752300077653,0.0
0.036000000000000004,5.870474243492053,-1.3603000477825025,10.0,0.0,13.65045542338638,15.188218311291084,204.28541056101804,373.00752300077653,0.0
0.037,6.041188711220851,-1.275010780747051,10.0,0.0,13.930879897581198,15.42861600670124,205.2233356988433,373.00752300077653,0.0
0.038,6.228175208801664,-1.168399557236846,10.0,0.0,14.196427351981786,15.654155009933262,200.35169734043586,373.00752300077653,0.0
0.039,6.404895489618571,-1.0845312562500289,10.0,0.0,14.449814560392067,15.86612549236809,209.64773540576442,373.00752300077653,0.0
0.04,6.534612624563911,-1.0851225869390002,10.0,0.0,14.699963825590459,16.069735965364643,218.170241886545,373.00752300077653,0.0
0.041,6.621487035821765,-1.1484636683301073,10.0,0.0,14.952420817214799,16.26974130369247,220.68166573712315,373.00752300077653,0.0
0.042,6.6704785161669795,-1.2647840534085386,10.0,0.0,15.211794475054209,16.47047148862455,233.10654395573727,373.00752300077653,0.0
0.043000000000000003,6.709376245503157,-1.3867642159960276,10.0,0.0,15.477558399636717,16.673277185423842,235.10815372853793,373.00752300077653,0.0
0.044,6.744196093263161,-1.5028656568708394,10.0,0.0,15.74857785831126,16.87893749904121,248.8181267625822,373.00752300077653,0.0
0.045,6.750563942850831,-1.6564343609015326,10.0,0.0,16.02879294551472,17.090781462187255,251.61117095327992,373.00752300077653,0.0
0.046,6.764566527560506,-1.7840489455190416,10.0,0.0,16.314672837580048,17.307985931916857,266.60539535969383,373.00752300077653,0.0
0.047,6.752169677737121,-1.9446655565152717,10.0,0.0,16.610076868775216,17.533561623207692,270.0627790167984,373.00752300077653,0.0
0.048,6.7291903821171735,-2.110358990489937,10.0,0.0,16.91511817760721,17.768523902508925,283.13731951482634,373.00752300077653,0.0
0.049,6.714097190323873,-2.246352557911731,10.0,0.0,17.22645394156277,18.011924542904307,294.70561782835244,373.00752300077653,0.0
0.05,6.666841209228205,-2.4219663531358275,10.0,0.0,17.548953774962747,18.267165921658286,300.1294548425776,373.00752300077653,0.0
0.051000000000000004,6.612335516543512,-2.59336894353628,10.0,0.0,17.88182590988993,18.53465621226123,310.75154600411304,373.00752300077653,0.0
0.052000000000000005,6.568447424188529,-2.726701034625408,10.0,0.0,18.22111236450049,18.81296732052879,322.35703405819294,373.00752300077653,0.0
0.053,6.5036136539679195,-2.8764091099274185,10.0,0.0,18.569435851849082,19.104068797231378,330.9557012510771,373.00752300077653,0.0
0.054,6.434362099984388,-3.0149932598739144,10.0,0.0,18.925784313874168,19.407861808234543,339.4707232587175,373.00752300077653,0.0
0.055,6.370891759459199,-3.1253006473392393,10.0,0.0,19.28762520191878,19.723199586257838,348.00092263299223,373.00752300077653,0.0
0.056,6.314459991163816,-3.2071523724558277,10.0,0.0,19.65271639484943,20.048760466390505,356.29964302226927,373.00752300077653,0.0
0.057,6.266092078485367,-3.262894600420583,10.0,0.0,20.01916768432525,20.383030530514645,362.98468703488817,373.00752300077653,0.0
0.058,6.234656406121481,-3.2830044001420036,10.0,0.0,20.38405550695561,20.723492962007192,368.0316803659419,373.00752300077653,0.0
0.059000000000000004,6.228510489334133,-3.2600491726267444,8.314534907533176,0.0,20.743774617448285,20.881358466565146,371.06430838221735,373.00752300077653,0.0
0.06,6.156339286915777,-3.1626860740753875,6.81765304558104,0.0,21.072827978781987,20.919484350924648,367.09700969088993,373.00752300077653,0.0
0.061,6.038698148328275,-2.9805920090238804,8.860407524343614,0.0,21.35373187624813,21.23859360748542,362.7602457167007,373.00752300077653,0.0
0.062,6.09814696915761,-2.783237319278394,10.0,0.0,21.61856823440224,21.651094173994196,368.53308690739607,373.00752300077653,0.0
0.063,6.268623730139492,-2.6300024924627885,8.26696080417953,0.0,21.88328872933956,21.828640127870983,365.70140908626763,373.00752300077653,0.0
0.064,6.381726776903598,-2.442588424069399,9.755860853888837,0.0,22.120208570915715,22.185276365745814,353.5031123127165,373.00752300077653,0.0
0.065,6.631467293636609,-2.2163682202593784,10.0,0.0,22.346089970386558,22.51556684319292,358.8812175982624,373.00752300077653,0.0
0.066,6.916977613872754,-2.0102830445612367,10.0,0.0,22.562005110366336,22.804066291322652,347.26306333427004,373.00752300077653,0.0
0.067,7.21859845150788,-1.8063260673102932,10.0,0.0,22.76480426542048,23.054984119699878,346.4812761524878,373.00752300077653,0.0
0.068,7.554604223512548,-1.5622920107149982,10.0,0.0,22.94761111135398,23.267145654200643,334.1578768965256,373.00752300077653,0.0
0.069,7.882594718955214,-1.3434963940913671,10.0,0.0,23.11172624888154,23.443652823066024,333.6479978558896,373.00752300077653,0.0
0.07,8.22603465146507,-1.113308038266477,10.0,0.0,23.253947826568385,23.584422301175973,322.47476416938025,373.00752300077653,0.0
0.07100000000000001,8.585926575669923,-0.8668883303033617,10.0,0.0,23.371219909979857,23.689183276906174,328.6548973373638,373.00752300077653,0.0
0.07200000000000001,8.78758235855122,-0.8921960797587216,10.0,0.0,23.49248893214291,23.776612146529608,345.4154634202499,373.00752300077653,0.0
0.073,8.859956705061565,-1.0910202400459124,10.0,0.0,23.631991519189054,23.86148041111968,349.552920815824,373.00752300077653,0.0
0.074,8.850033958752206,-1.37675534826819,10.0,0.0,23.79547329429115,23.953627353514495,367.7806948059119,373.00752300077653,0.0
0.075,8.796643318393249,-1.6840168765189458,9.424149324224027,0.0,23.982763003147888,23.995337947821064,374.1548868412841,373.00752300077653,0.0
0.076,8.67934938885482,-1.9793345536387512,6.225579668132834,0.0,24.18490712975028,23.717890724016016,388.0522995801487,373.00752300077653,0.0
0.077,8.353048198142156,-2.20102712549878,-0.8735744670931886,0.0,24.36052512744533,22.77420156862078,389.58488005845396,373.00752300077653,0.0
0.078,7.626977439847234,-2.2136681041414925,-1.805638276822588,0.0,24.423385991763446,21.9875124223219,394.618161697178,373.00752300077653,0.0
0.079,6.851691407561234,-2.185707569540621,-4.538385483148613,0.0,24.398089786427352,21.072517478454667,396.4177047236127,373.00752300077653,0.0
0.08,6.0142168009806145,-2.1028787501317003,-5.6722588135943335,0.0,24.274992142449157,20.233463160555797,395.8929498492027,373.00752300077653,0.0
0.081,5.22391982461591,-1.9948428572805041,-5.638735644873592,0.0,24.069243171059355,19.559588713247038,393.9523400167378,373.00752300077653,0.0
0.082,4.560786874252946,-1.8961303196771258,-4.877878898800769,0.0,23.8069036318698,19.080927478687244,391.12078246312694,373.00752300077653,0.0
0.083,4.066921804247215,-1.8196273563201222,-3.643232716618834,0.0,23.515503722549994,18.799794754440782,387.69855513701685,373.00752300077653,0.0
0.084,3.750106223795579,-1.7744332683504964,-2.0790293749261926,0.0,23.220924211694424,18.707262280600958,383.4615553647547,373.00752300077653,0.0
0.085,3.602897365847393,-1.7614907860849796,-0.06506981243489829,0.0,22.945577672370916,18.813443440086473,379.12340872897687,373.00752300077653,0.0
0.08600000000000001,3.6267065854723377,-1.775530116218676,2.0428446481720144,0.0,22.710057654065682,19.08911172199471,374.56899631231823,373.00752300077653,0.0
0.08700000000000001,3.799477680836266,-1.8130098084615296,4.304436123385916,0.0,22.529638838627168,19.522590363255272,370.65794455738984,373.00752300077653,0.0
0.088,4.113084425331381,-1.8546472098498041,6.28345778528398,0.0,22.414815086088836,20.056986695961747,371.3938992560513,373.00752300077653,0.0
0.089,4.527869287532028,-1.8924086847111068,5.931616673400488,0.0,22.368650730295847,20.425478013820467,371.223757384117,373.00752300077653,0.0
0.09,4.876615864761382,-1.905211766217941,6.03452526553425,0.0,22.36498266608518,20.73312784569433,359.59968276532896,373.00752300077653,0.0
0.091,5.212055424978579,-1.8287726223125917,10.0,0.0,22.383910054838296,21.411408136978043,359.511886700403,373.00752300077653,0.0
0.092,5.741595466933055,-1.7821865485131103,10.0,0.0,22.46441265716559,21.92920338165122,359.04696991346157,373.00752300077653,0.0
0.093,6.231183406472196,-1.7545197847477403,10.0,0.0,22.586067040451265,22.354710089160037,346.3833210915692,373.00752300077653,0.0
0.094,6.717922641675771,-1.6290237200089326,10.0,0.0,22.724578756675655,22.701186127769557,347.5869617784542,373.00752300077653,0.0
0.095,7.153292941009607,-1.4900708049165918,10.0,0.0,22.86985704512578,22.983842393565862,335.39064543189954,373.00752300077653,0.0
0.096,7.5747371241924695,-1.3029127229326694,10.0,0.0,23.009675271443214,23.21075570447078,332.9459894956986,373.00752300077653,0.0
0.097,7.959507873321887,-1.128483574194734,10.0,0.0,23.140887380678056,23.390849166344537,325.1841642400509,373.00752300077653,0.0
0.098,8.360980701044658,-0.8966843611700552,10.0,0.0,23.25323400323147,23.525740189396195,321.3052045878479,373.00752300077653,0.0
0.099,8.663755010560468,-0.8116449167571913,10.0,0.0,23.360798719079533,23.629086326628514,339.8581684106783,373.00752300077653,0.0
0.1,8.77681347791035,-0.9990609381906772,10.0,0.0,23.48940773386783,23.723445633409085,345.5313199271078,373.00752300077653,0.0
0.101,8.81320544265847,-1.2512927132966545,10.0,0.0,23.640463112902687,23.81835737954163,359.735706946249,373.00752300077653,0.0
0.10200000000000001,8.770018500928948,-1.577704408773331,10.0,0.0,23.81928709739868,23.923997972202145,369.5776014883618,373.00752300077653,0.0
0.10300000000000001,8.717706980954723,-1.860413645287622,7.875117381362209,0.0,24.01862664177293,23.8085422137759,383.7409484793127,373.00752300077653,0.0
0.10400000000000001,8.485666863534487,-2.144810297901114,0.6861096311013908,0.0,24.214943195289475,22.980025257003895,385.4696783310922,373.00752300077653,0.0
0.105,7.858903573920863,-2.1939734376514592,-0.30287684809152626,0.0,24.31134037662356,22.283716776735417,392.2474470995933,373.00752300077653,0.0
0.106,7.153287979299823,-2.2114103669299396,-3.8841604733302244,0.0,24.32989342262053,21.35397761115505,394.55046416448755,373.00752300077653,0.0
0.107,6.324751332538338,-2.1423865312950805,-5.251098417414473,0.0,24.24585025624714,20.48860020433309,394.95970902270005,373.00752300077653,0.0
0.108,5.512856066795397,-2.0394124928950568,-5.67524270673996,0.0,24.073036759961244,19.74939284193513,393.6263804871986,373.00752300077653,0.0
0.109,4.798011838048384,-1.9348991576450756,-5.2147670138534625,0.0,23.833117150570637,19.192232547763897,391.0842737887042,373.00752300077653,0.0
0.11,4.236353128452332,-1.8476084017438432,-4.1244811724855275,0.0,23.552916622905336,18.83675702346043,388.04120359109066,373.00752300077653,0.0
0.111,3.852173070241578,-1.7882911504232304,-2.753282879581903,0.0,23.259536605489963,18.66538117193371,384.0573108682999,373.00752300077653,0.0
0.112,3.63654038814403,-1.7614937275343852,-0.8718343968617592,0.0,22.97600246065889,18.694930048436937,379.6857920093606,373.00752300077653,0.0
0.113,3.5939281215498604,-1.7642872918805634,1.2471423425220411,0.0,22.72435188426821,18.909974601816128,375.38403654592054,373.00752300077653,0.0
0.114,3.7106148035284514,-1.7955072956015987,3.3742549387906458,0.0,22.522777085620373,19.277880602730455,370.7422387303572,373.00752300077653,0.0
0.115,3.9666583602860284,-1.8380367903043309,5.7178066892765065,0.0,22.38251641130884,19.798360165855776,369.71913804652297,373.00752300077653,0.0
0.116,4.35476865567686,-1.8815400048382336,6.262240880736157,0.0,22.3126898193927,20.249086251867702,372.0513756694486,373.00752300077653,0.0
0.117,4.741781266972323,-1.9079968885064438,5.105683542586627,0.0,22.29739372032753,20.476401136687187,361.92318172034965,373.00752300077653,0.0
0.11800000000000001,5.030100425753765,-1.8514383997628163,10.0,0.0,22.299872717052338,21.20155032546216,358.0286350612127,373.00752300077653,0.0
0.11900000000000001,5.568064838011597,-1.817595696525682,10.0,0.0,22.371461620513518,21.74919643669744,360.48272236317314,373.00752300077653,0.0
0.12,6.0720163799113545,-1.7989017924284951,10.0,0.0,22.488938342333785,22.19918180166891,348.9414351566891,373.00752300077653,0.0
0.121,6.551182835777062,-1.7109917590480042,10.0,0.0,22.63018276383829,22.568247507599036,348.9741492423678,373.00752300077653,0.0
0.122,7.003377358018632,-1.5616387179816567,10.0,0.0,22.778659579601864,22.86958135219868,337.8780747351622,373.00752300077653,0.0
0.123,7.412124169980428,-1.4038303801691128,10.0,0.0,22.926556711500332,23.115189289821345,336.88432734159517,373.00752300077653,0.0
0.124,7.814644691782001,-1.2043503763393733,10.0,0.0,23.063860206928076,23.310836357593022,324.3456450582822,373.00752300077653,0.0
0.125,8.203127263158366,-0.99418186504642,10.0,0.0,23.185874323386287,23.46194119049693,318.74922510939643,373.00752300077653,0.0
0.126,8.562281200082957,-0.813974919476367,10.0,0.0,23.293076432589288,23.574514844408334,335.07698668548244,373.00752300077653,0.0
0.127,8.752017129438977,-0.894061254370901,10.0,0.0,23.411427262557226,23.669271930988963,339.42769799455505,373.00752300077653,0.0
0.128,8.804595283458365,-1.1410752047191877,10.0,0.0,23.553789389375794,23.76250215425975,355.9695314385132,373.00752300077653,0.0
0.129,8.787655892428628,-1.4460813046062868,10.0,0.0,23.72231885732369,23.863034682438794,363.5221825553037,373.00752300077653,0.0
0.13,8.746019652339081,-1.733128538310476,10.0,0.0,23.91257376600329,23.97477749709427,381.63711799014516,373.00752300077653,0.0
0.131,8.646282431145387,-2.0632366766823136,1.4029984765912262,0.0,24.128418888164337,23.159256085507604,381.7540137031619,373.00752300077653,0.0
0.132,8.069033867973232,-2.144767256303215,1.2570857130590074,0.0,24.24679463932519,22.579290908278253,389.2411662317999,373.00752300077653,0.0
0.133,7.441345127115367,-2.198502714358316,-2.6488269835702436,0.0,24.30043189223689,21.70424183075668,393.5305226110316,373.00752300077653,0.0
0.134,6.6574867817364325,-2.1661919125604463,-4.998735169288626,0.0,24.25710896932694,20.782578143398798,394.25599012648973,373.00752300077653,0.0
0.135,5.822431376945728,-2.0711340914383594,-5.573953598274832,0.0,24.115818717666738,19.992991098227602,393.5246111794911,373.00752300077653,0.0
0.136,5.064070192683235,-1.9659109146589213,-5.413435006562661,0.0,23.89907481542092,19.366712138006676,391.4555348173397,373.00752300077653,0.0
0.137,4.44127450023357,-1.8746401184446082,-4.56337694365259,0.0,23.632389851561808,18.934211798913076,388.61195572242246,373.00752300077653,0.0
0.138,3.9888571553065635,-1.8062609664004983,-3.297631723410433,0.0,23.34251435141654,18.69256234195794,385.13907003359583,373.00752300077653,0.0
0.139,3.7084275752099702,-1.7691002159175107,-1.682504349325308,0.0,23.054057564557603,18.637419919992087,380.8750805494391,373.00752300077653,0.0
0.14,3.594167500579937,-1.762657218922544,0.3708148172664423,0.0,22.78859509202336,18.778424208529508,376.636858396429,373.00752300077653,0.0
0.14100000000000001,3.646832977328451,-1.78297068349148,2.4536325398149677,0.0,22.566078206668802,19.080422775585543,371.961799653211,373.00752300077653,0.0
0.14200000000000002,3.842545829996822,-1.8236917998190891,4.801619144899603,0.0,22.400289054705667,19.546418387708307,368.8688123078443,373.00752300077653,0.0
0.14300000000000002,4.1815150677619926,-1.8654799567790672,6.389499924512294,0.0,22.30186786525344,20.065093055501556,371.3620785967077,373.00752300077653,0.0
0.14400000000000002,4.590503629212072,-1.9048794638855178,5.15932122412127,0.0,22.26907232573786,20.329260623349246,366.5416734819809,373.00752300077653,0.0
