timestamp,iq,id,iq_ref,id_ref,vq,vd,omega,omega_ref,r
0.0,0.0,0.0,0.0,0.0,0.0,0.0,0.0,332.5424717233742,0.0
0.001,0.0,0.0,10.0,0.0,0.0,1.0999999999999999,6.115472199294103,332.5424717233742,0.0
0.002,0.5307369851907212,-0.2913212625381807,10.0,0.0,0.14204533887919985,1.9316189316290207,13.317801563642547,332.5424717233742,0.0
0.003,1.0842913387634832,-0.6024330830807904,10.0,0.0,0.384357124667687,2.6386968949419622,20.697939467553027,332.5424717233742,0.0
0.004,1.5590443546685477,-0.8700465084428163,10.0,0.0,0.6994718867930164,3.2526109522886295,28.232747544420146,332.5424717233742,0.0
0.005,1.9399447555359186,-1.0838738622210777,10.0,0.0,1.065311453102468,3.7994935661768023,35.92944872443006,332.5424717233742,0.0
0.006,2.239750732602683,-1.2510087368845633,10.0,0.0,1.4655018868449925,4.299102221838433,43.75633668444442,332.5424717233742,0.0
0.007,2.4770151619816017,-1.382020589851471,10.0,0.0,1.8883740978591532,4.765668027847139,51.58766747378032,332.5424717233742,0.0
0.008,2.6680767290418097,-1.4872241871505252,10.0,0.0,2.325877945545995,5.209220346273558,59.45942083902103,332.5424717233742,0.0
0.009000000000000001,2.8266491704841292,-1.5730794701170803,10.0,0.0,2.772378685460125,5.636635464737965,67.35059094018146,332.5424717233742,0.0
0.01,2.962077666392183,-1.645500646948331,10.0,0.0,3.224078639851053,6.052647735211881,75.20908322432116,332.5424717233742,0.0
0.011,3.0811061533574158,-1.7084279320504514,10.0,0.0,3.678407615443203,6.460489925470405,83.0265951655913,332.5424717233742,0.0
0.012,3.188848746459569,-1.7638278597420747,10.0,0.0,4.133552631697047,6.862319393890706,90.74118064793086,332.5424717233742,0.0
0.013000000000000001,3.288205119878689,-1.8140726097274587,10.0,0.0,4.588339016389012,7.259628641949282,98.35820682563939,332.5424717233742,0.0
0.014,3.3820602099432007,-1.8592355758795645,10.0,0.0,5.041843166194517,7.653355107498287,105.90865295623543,332.5424717233742,0.0
0.015,3.4721069852858886,-1.899829032412081,10.0,0.0,5.493383198131427,8.044092747085895,113.37727610343421,332.5424717233742,0.0
0.016,3.5596145800153947,-1.9360338400176071,10.0,0.0,5.94241958510469,8.43218525824161,120.68508583176356,332.5424717233742,0.0
0.017,3.645144415105338,-1.9685384477868613,10.0,0.0,6.388575043274759,8.817838951066484,127.83962377537456,332.5424717233742,0.0
0.018000000000000002,3.730251927866576,-1.9959253041084188,10.0,0.0,6.83136783302799,9.201036292373047,134.85405702603322,332.5424717233742,0.0
0.019,3.81544967906247,-2.018253592643655,10.0,0.0,7.270383321112213,9.581672501020332,141.68976328564074,332.5424717233742,0.0
0.02,3.9014648862453374,-2.0350875541282063,10.0,0.0,7.705189334130692,9.959536942333155,148.3432823300447,332.5424717233742,0.0
0.021,3.9891051824829464,-2.0457889559126508,10.0,0.0,8.135310004560049,10.334315260302239,154.92060212100432,332.5424717233742,0.0
0.022,4.079618141396171,-2.0489696811670974,10.0,0.0,8.560139305503519,10.705547790999272,161.01925282597162,332.5424717233742,0.0
0.023,4.171109372430197,-2.048468292080302,10.0,0.0,8.979521969370257,11.072981092896333,166.534238406907,332.5424717233742,0.0
0.024,4.266936196769627,-2.039517194249811,10.0,0.0,9.392730090169543,11.435983292623375,171.8647834235234,332.5424717233742,0.0
0.025,4.367255527950721,-2.0225841458509217,10.0,0.0,9.79914449451603,11.793929226271104,177.02637022703064,332.5424717233742,0.0
0.026000000000000002,4.4734353073349595,-1.9962166741499119,10.0,0.0,10.197980960389518,12.146045424568259,181.63161391243256,332.5424717233742,0.0
0.027,4.582366840795821,-1.966358349113627,10.0,0.0,10.589124658468391,12.491912978736195,185.74793639675826,332.5424717233742,0.0
0.028,4.700058850757774,-1.9240450691803936,10.0,0.0,10.971384864613876,12.830451341534015,189.43662766964098,332.5424717233742,0.0
0.029,4.820934284790598,-1.879137197786803,10.0,0.0,11.344756153370636,13.161242511022618,192.73598774770625,332.5424717233742,0.0
0.03,4.952016225740939,-1.821000614527957,10.0,0.0,11.707923484756042,13.483081433273819,195.59831968863915,332.5424717233742,0.0
0.031,5.086039273572549,-1.7621311371320891,10.0,0.0,12.061063698547066,13.79562148058647,197.80891551030922,332.5424717233742,0.0
0.032,5.230431844273564,-1.6911110488141978,10.0,0.0,12.40292038074925,14.097678592248165,200.4421589734679,332.5424717233742,0.0
0.033,5.380124186618445,-1.6166151787533525,10.0,0.0,12.733312761073865,14.38869342901298,201.91742172589852,332.5424717233742,0.0
0.034,5.537594793894332,-1.535029134414507,10.0,0.0,13.051537880865839,14.667821176756876,203.18880493813168,332.5424717233742,0.0
0.035,5.698947813469154,-1.4530296333491768,10.0,0.0,13.357649178779205,14.934684535625108,203.60405746232266,332.5424717233742,0.0
0.036000000000000004,5.870474243492053,-1.3603000477825025,10.0,0.0,13.65045542338638,15.188218311291084,204.28541056101804,332.5424717233742,0.0
0.037,6.041188711220851,-1.275010780747051,10.0,0.0,13.930879897581198,15.42861600670124,205.2233356988433,332.5424717233742,0.0
0.038,6.228175208801664,-1.168399557236846,10.0,0.0,14.196427351981786,15.654155009933262,200.35169734043586,332.5424717233742,0.0
0.039,6.404895489618571,-1.0845312562500289,10.0,0.0,14.449814560392067,15.86612549236809,209.64773540576442,332.5424717233742,0.0
0.04,6.534612624563911,-1.0851225869390002,10.0,0.0,14.699963825590459,16.069735965364643,218.170241886545,332.5424717233742,0.0
0.041,6.621487035821765,-1.1484636683301073,10.0,0.0,14.952420817214799,16.26974130369247,220.68166573712315,332.5424717233742,0.0
0.042,6.6704785161669795,-1.2647840534085386,10.0,0.0,15.211794475054209,16.47047148862455,233.10654395573727,332.5424717233742,0.0
0.043000000000000003,6.709376245503157,-1.3867642159960276,10.0,0.0,15.477558399636717,16.673277185423842,235.10815372853793,332.5424717233742,0.0
0.044,6.744196093263161,-1.5028656568708394,10.0,0.0,15.74857785831126,16.87893749904121,248.8181267625822,332.5424717233742,0.0
0.045,6.750563942850831,-1.6564343609015326,10.0,0.0,16.02879294551472,17.090781462187255,251.61117095327992,332.5424717233742,0.0
0.046,6.764566527560506,-1.7840489455190416,10.0,0.0,16.314672837580048,17.307985931916857,266.60539535969383,332.5424717233742,0.0
0.047,6.752169677737121,-1.9446655565152717,10.0,0.0,16.610076868775216,17.533561623207692,270.0627790167984,332.5424717233742,0.0
0.048,6.7291903821171735,-2.110358990489937,10.0,0.0,16.91511817760721,17.768523902508925,283.13731951482634,332.5424717233742,0.0
0.049,6.714097190323873,-2.246352557911731,10.0,0.0,17.22645394156277,18.011924542904307,294.70561782835244,332.5424717233742,0.0
0.05,6.666841209228205,-2.4219663531358275,10.0,0.0,17.548953774962747,18.267165921658286,300.1294548425776,332.5424717233742,0.0
0.051000000000000004,6.612335516543512,-2.59336894353628,10.0,0.0,17.88182590988993,18.53465621226123,310.75154600411304,332.5424717233742,0.0
0.052000000000000005,6.568447424188529,-2.726701034625408,10.0,0.0,18.22111236450049,18.81296732052879,322.35703405819294,332.5424717233742,0.0
0.053,6.5036136539679195,-2.8764091099274185,10.0,0.0,18.569435851849082,19.104068797231378,330.9557012510771,332.5424717233742,0.0
0.054,6.434362099984388,-3.0149932598739144,6.4298985087571445,0.0,18.925784313874168,19.015150644197828,337.6606241140074,332.5424717233742,0.0
0.055,6.183419166156633,-3.026438643985233,3.0262555533856403,0.0,19.237479265146167,18.658970649672927,340.2999752365908,332.5424717233742,0.0
0.056,5.7492856838928255,-2.920462930421044,1.6290049569617855,0.0,19.470614939505307,18.295162267385543,339.35273916270563,332.5424717233742,0.0
0.057,5.287292116064976,-2.7400235288881305,2.0345203195110537,0.0,19.625267631166814,18.096105444245897,338.2283298409267,332.5424717233742,0.0
0.058,4.925849249493239,-2.5669977044489274,2.539866399225007,0.0,19.727320924675222,18.019091267374023,337.0661782258576,332.5424717233742,0.0
0.059000000000000004,4.688880844766703,-2.4132376917873435,3.075705141734719,0.0,19.796284127997225,18.03632473427331,335.14052395021935,332.5424717233742,0.0
0.06,4.566493565704577,-2.276810651193951,4.012551757285386,0.0,19.846604983338295,18.167518831749902,336.66790321705804,332.5424717233742,0.0
0.061,4.563774275181317,-2.1571325444264917,3.2076078089292013,0.0,19.89321284155443,18.1917885537052,335.79697026900965,332.5424717233742,0.0
0.062,4.548651284376527,-2.0423745518971526,3.6105292974970427,0.0,19.926160288033923,18.2722992285959,326.6832860628922,332.5424717233742,0.0
0.063,4.600902769389467,-1.8953544466347383,8.22596325716059,0.0,19.948839425700974,18.845823208063326,326.3060076162374,332.5424717233742,0.0
0.064,4.937427774803749,-1.8375418623499675,8.476967121559344,0.0,20.02171386432936,19.309223553092497,329.8323378412495,332.5424717233742,0.0
0.065,5.297013361529156,-1.8190051229793243,6.740903347874546,0.0,20.1321799781099,19.503905089246615,318.90144870829585,332.5424717233742,0.0
0.066,5.559053368618231,-1.7140266833177369,10.0,0.0,20.239705373158724,20.04079780772149,320.10675241220014,332.5424717233742,0.0
0.067,5.983754688694613,-1.6257312992091917,10.0,0.0,20.38150479269484,20.458066082194986,316.93620309839974,332.5424717233742,0.0
0.068,6.37514328826556,-1.574650281103506,10.0,0.0,20.54611513957414,20.808981738422705,310.7392971977568,332.5424717233742,0.0
0.069,6.788658694348101,-1.4255512253797966,10.0,0.0,20.713465931439746,21.099694055042214,307.43706761045854,332.5424717233742,0.0
0.07,7.136373156969888,-1.3214379068821984,10.0,0.0,20.883191401303232,21.34395678235876,304.3061495992784,332.5424717233742,0.0
0.07100000000000001,7.508124565713727,-1.132098340308974,10.0,0.0,21.04058437777395,21.543350273594395,293.43701051198724,332.5424717233742,0.0
0.07200000000000001,7.834191810807236,-0.9847529929441912,10.0,0.0,21.187862813176768,21.706393830480696,300.7704902091798,332.5424717233742,0.0
0.073,8.14303080031728,-0.8477284187517835,10.0,0.0,21.323118511040413,21.837149258823473,305.0421992067286,332.5424717233742,0.0
0.074,8.277253435914682,-0.9697108191485821,10.0,0.0,21.472712491737543,21.956678614097726,314.0539679102428,332.5424717233742,0.0
0.075,8.30796388556066,-1.2160525075044828,10.0,0.0,21.645177771607575,22.077178508809176,328.1573703917827,332.5424717233742,0.0
0.076,8.324372066749172,-1.4369026771082525,8.42303181870498,0.0,21.834276614734588,22.027910646659755,332.6947354634747,332.5424717233742,0.0
0.077,8.192435522339062,-1.6784450269074085,6.152826645457992,0.0,22.023899944115847,21.78320366949077,343.99571124955236,332.5424717233742,0.0
0.078,7.9340858716302645,-1.8158751599692484,0.387806357157368,0.0,22.182792133980875,20.99757863913007,347.6728864439526,332.5424717233742,0.0
0.079,7.3206219722194525,-1.8555791827936914,-1.6020853872485485,0.0,22.250225743003412,20.210064974218398,349.8105568745459,332.5424717233742,0.0
0.08,6.6253376873860965,-1.804609621307547,-2.84360145405691,0.0,22.226160932640806,19.461724819132854,353.21972651304134,332.5424717233742,0.0
0.081,5.920342316817066,-1.757906954719478,-4.754958821201295,0.0,22.12504099009607,18.65857469671605,353.25729599383067,332.5424717233742,0.0
0.082,5.209494826761103,-1.6817808818545037,-4.980891804300524,0.0,21.945811188214876,17.991031808017468,352.54310765939414,332.5424717233742,0.0
0.083,4.585055334773015,-1.6164478618590719,-4.823803996442459,0.0,21.71132470618108,17.453439085914113,350.9607638138127,332.5424717233742,0.0
0.084,4.073858569235281,-1.5718964800666477,-4.216814994556135,0.0,21.442280278343123,17.06134214923592,348.7292231662377,332.5424717233742,0.0
0.085,3.69090330264405,-1.5504973563193731,-3.2629121851972682,0.0,21.15902220982687,16.817422994122005,346.37544547964785,332.5424717233742,0.0
0.08600000000000001,3.4399221583417843,-1.5498949803172837,-2.2243530794650725,0.0,20.879845762528095,16.698050794412147,343.7295136208354,332.5424717233742,0.0
0.08700000000000001,3.302597656806907,-1.5697910785312137,-1.0132575690334615,0.0,20.61884433455176,16.698128968759377,340.4543995418307,332.5424717233742,0.0
0.088,3.270601026355851,-1.602086339445512,0.5451801922843273,0.0,20.387304384526217,16.83356276584916,337.388926601798,332.5424717233742,0.0
0.089,3.345313770993532,-1.6488499368408336,2.0294521135164354,0.0,20.197282852316548,17.071446353735094,333.84960802146867,332.5424717233742,0.0
0.09,3.509674309942956,-1.7008610800151573,3.7860400407001595,0.0,20.05530542189166,17.427588850551295,331.5883614185301,332.5424717233742,0.0
0.091,3.7701134276683543,-1.7481784239688047,4.926204445217885,0.0,19.967824780594043,17.814766862308215,333.2150715027139,332.5424717233742,0.0
0.092,4.074906774194122,-1.78506556105863,4.106123405332589,0.0,19.93139441624222,18.02194557338653,331.6119493817051,332.5424717233742,0.0
0.093,4.292338028891673,-1.785019525730476,4.9169896892536915,0.0,19.918951024176412,18.281289974000536,322.2206540373561,332.5424717233742,0.0
0.094,4.538044535839979,-1.7280783636854162,9.71585553828836,0.0,19.927423343906916,19.008368772683824,324.8454504080601,332.5424717233742,0.0
0.095,5.0297432233101205,-1.7442796237880474,8.480427566089492,0.0,20.010107861764435,19.42807139748738,326.0963944691304,332.5424717233742,0.0
0.096,5.4272474437777,-1.7470115989887798,7.91941630809678,0.0,20.12663269498762,19.72590677556239,315.16278394886825,332.5424717233742,0.0
0.097,5.772636002575415,-1.6519205386843852,10.0,0.0,20.25080124631049,20.20606771857843,318.06142456526646,332.5424717233742,0.0
0.098,6.192243875527526,-1.5710214171393715,10.0,0.0,20.402621044035776,20.58712060506936,310.0714805062004,332.5424717233742,0.0
0.099,6.5850733175830936,-1.4892628151372937,10.0,0.0,20.56917969563284,20.906235022787136,310.3873687652508,332.5424717233742,0.0
0.1,6.977455444687933,-1.3447600747621271,10.0,0.0,20.735916208420733,21.170860124331867,299.9880348714798,332.5424717233742,0.0
0.101,7.328170913483982,-1.2128945381787095,10.0,0.0,20.899381398463884,21.3910414867044,301.47178491191426,332.5424717233742,0.0
0.10200000000000001,7.671977359885111,-1.053703001619788,10.0,0.0,21.05232579208432,21.571239677427826,292.584960001437,332.5424717233742,0.0
0.10300000000000001,8.016058079453153,-0.8662989668872387,10.0,0.0,21.18897303696007,21.714301673752477,297.6345658843209,332.5424717233742,0.0
0.10400000000000001,8.20592098271479,-0.9161896893398951,10.0,0.0,21.333623776797825,21.839278082769134,313.3517134807096,332.5424717233742,0.0
0.105,8.278829501195377,-1.1125471171552213,10.0,0.0,21.49740749338863,21.960100616867663,318.8849689532751,332.5424717233742,0.0
0.106,8.30808510359985,-1.3315789463914225,10.0,0.0,21.679025018668035,22.082730238135724,332.3370980312768,332.5424717233742,0.0
0.107,8.273551331773625,-1.6123135964548323,5.725769664225242,0.0,21.883434246760924,21.74518458379464,336.51366929597214,332.5424717233742,0.0
0.108,8.007806201684401,-1.7395575617369292,3.5977720561516,0.0,22.044837476290805,21.299383610758145,346.27344156986294,332.5424717233742,0.0
0.109,7.566945982523656,-1.8501563325195551,-1.4194237792586888,0.0,22.15641371069733,20.429528664970682,346.71703846111154,332.5424717233742,0.0
0.11,6.884215111914358,-1.8072519156109392,-1.7829678922603636,0.0,22.164021353516674,19.738690736701948,351.03336204382254,332.5424717233742,0.0
0.111,6.207641606734411,-1.7761835979014098,-4.126038586820344,0.0,22.098795968448243,18.93119080713414,351.89268734727744,332.5424717233742,0.0
0.112,5.495714206518733,-1.7088281379302157,-4.749203394786831,0.0,21.95224471151014,18.224347189057486,351.77203771745127,332.5424717233742,0.0
0.113,4.842410729417864,-1.6420404436512523,-4.881174239814514,0.0,21.74299112668721,17.629991770700247,350.59697818269285,332.5424717233742,0.0
0.114,4.284496436691688,-1.58982441706639,-4.474189537028492,0.0,21.490151472529305,17.175072098882048,348.6360526015817,332.5424717233742,0.0
0.115,3.846797204657334,-1.558609828239043,-3.6546625552549887,0.0,21.214192372100214,16.86900632239362,346.38551873384336,332.5424717233742,0.0
0.116,3.540039811066695,-1.5488844612801773,-2.667826091490511,0.0,20.934464959587977,16.695674275682112,344.010499474358,332.5424717233742,0.0
0.117,3.3540302049222133,-1.5592255015329177,-1.5949967392576854,0.0,20.666611851753213,16.63723903923848,341.07508792299933,332.5424717233742,0.0
0.11800000000000001,3.271825760517842,-1.5864431584015921,-0.2126171255745879,0.0,20.42259106291059,16.706377872461584,337.8236488155082,332.5424717233742,0.0
0.11900000000000001,3.2955605925826825,-1.6242822453158714,1.3602906572496414,0.0,20.213776359266415,16.899963927480773,334.62060599770996,332.5424717233742,0.0
0.12,3.418450270366169,-1.675325101205235,2.941030723405401,0.0,20.05043805476727,17.198181719846982,331.3231421207558,332.5424717233742,0.0
0.121,3.631798190041544,-1.726143868863009,4.601955957908669,0.0,19.93833499583812,17.59489890327401,330.8066744712184,332.5424717233742,0.0
0.122,3.9284643573249793,-1.770646455873476,4.877547755198922,0.0,19.881501058039156,17.923940108617874,333.23360320297536,332.5424717233742,0.0
0.123,4.208757910549424,-1.7962836804362756,3.6571720745244303,0.0,19.86562970338628,18.049530927618516,325.4874642727999,332.5424717233742,0.0
0.124,4.389964317547303,-1.7493728150653376,7.600791614117898,0.0,19.85848799866233,18.589847666178304,320.48322163551563,332.5424717233742,0.0
0.125,4.773131702361003,-1.720436677450678,10.0,0.0,19.90337827178285,19.259558939201295,326.26836016651123,332.5424717233742,0.0
0.126,5.2628183319956285,-1.7598417690099593,7.389207175036682,0.0,20.015374566341283,19.505574962217572,318.2346909263139,332.5424717233742,0.0
0.127,5.586181282656779,-1.7078628627355499,10.0,0.0,20.134661103139724,20.020811093107287,316.7884330933892,332.5424717233742,0.0
0.128,6.029073606634137,-1.6197133765374867,10.0,0.0,20.284365944928247,20.424859810207344,315.68155327465394,332.5424717233742,0.0
0.129,6.418032668413347,-1.567218637025118,10.0,0.0,20.454612247763553,20.765117566220308,307.88118000876005,332.5424717233742,0.0
0.13,6.822209008437692,-1.4190606097489016,10.0,0.0,20.62608726031135,21.047804370130628,306.07134576062833,332.5424717233742,0.0
0.131,7.1637090865630135,-1.3110608804701416,10.0,0.0,20.798285062047512,21.285846749711137,302.1343568107562,332.5424717233742,0.0
0.132,7.529433672718252,-1.1197746315371035,10.0,0.0,20.957105831478245,21.480489967811394,291.83993225837287,332.5424717233742,0.0
0.133,7.848882244041328,-0.9743134546997769,10.0,0.0,21.105420978813164,21.640068844060714,299.32874968534185,332.5424717233742,0.0
0.134,8.132766468243155,-0.8726879891369035,10.0,0.0,21.245138309595983,21.770488568469617,306.4536183839518,332.5424717233742,0.0
0.135,8.263927270205826,-0.990930834865714,10.0,0.0,21.3979488474272,21.890249207542052,312.16425833068257,332.5424717233742,0.0
0.136,8.292014640148041,-1.23344673669687,10.0,0.0,21.57294871612669,22.011536833816347,328.6634818012506,332.5424717233742,0.0
0.137,8.297465400089704,-1.4668731621103266,7.235885393134863,0.0,21.765829108360823,21.833824367683825,330.9794424616712,332.5424717233742,0.0
0.138,8.109136940027874,-1.6597694481149947,6.093535355541585,0.0,21.940534541964663,21.61592446752758,345.07831460299906,332.5424717233742,0.0
0.139,7.837359104853416,-1.8026185022109984,-1.0812591439185795,0.0,22.089763875283012,20.68749348345123,344.61235299941416,332.5424717233742,0.0
0.14,7.156814240591202,-1.8012938784784462,-0.9689771548865274,0.0,22.12965297771036,20.02306965161958,348.1500828221295,332.5424717233742,0.0
0.14100000000000001,6.504079898887897,-1.7682931875858032,-2.8939181772317477,0.0,22.09549395695094,19.281206109810274,351.0161548109123,332.5424717233742,0.0
0.14200000000000002,5.820445837072608,-1.7304803922394458,-4.511691002498546,0.0,21.98673508350734,18.520079822932704,351.10104646980705,332.5424717233742,0.0
0.14300000000000002,5.141764028461157,-1.665208518598725,-4.739722579410235,0.0,21.80593769057335,17.883103190520025,350.51211949147194,332.5424717233742,0.0
0.14400000000000002,4.545038513979663,-1.6100706308745272,-4.624955567923657,0.0,21.574109924778224,17.36550215759471,348.9990989755614,332.5424717233742,0.0
