timestamp,iq,id,iq_ref,id_ref,vq,vd,omega,omega_ref,r
0.0,0.0,0.0,0.0,0.0,0.0,0.0,0.0,5.597740184903555,0.0
0.001,0.0,0.0,2.854847494300813,0.0,0.0,0.31403322437308934,1.7438910550827273,5.597740184903555,0.0
0.002,0.15155277098429432,-0.0831731808102093,2.0214404580576573,0.0,0.04055237232643197,0.45976907257084215,3.284794868767712,5.597740184903555,0.0
0.003,0.2654809639162732,-0.1477346053562914,1.2741180043765234,0.0,0.09789311713196291,0.510098600126295,4.319866279957031,5.597740184903555,0.0
0.004,0.3154642812177661,-0.1764941385932017,0.7693610378313293,0.0,0.1570506746230854,0.5087203246497511,5.004696040420999,5.597740184903555,0.0
0.005,0.3169098529369517,-0.17727822486298908,0.43287659904417086,0.0,0.2099533029747488,0.4817707341527431,5.441096307125758,5.597740184903555,0.0
0.006,0.2899904148539314,-0.16176266385162666,0.21624290446956948,0.0,0.25315615686759724,0.44531709743159165,5.708470832435994,5.597740184903555,0.0
0.007,0.2508239226627172,-0.13907536741293156,0.08144833533912688,0.0,0.2860529147009028,0.40820716387344086,5.856299360950827,5.597740184903555,0.0
0.008,0.20958092939324421,-0.11536716483330982,0.0049484793212375144,0.0,0.3095679740756914,0.37517592532150223,5.935522320659189,5.597740184903555,0.0
0.009000000000000001,0.17209168240178574,-0.09391585702371814,-0.03804082189049951,0.0,0.32530584182454847,0.3475468792254899,5.884032034778678,5.597740184903555,0.0
0.01,0.14058250767263542,-0.07622692438800355,-0.01515859744899542,0.0,0.33497574867708585,0.3302925789649391,5.805750555603696,5.597740184903555,0.0
0.011,0.11815772574046185,-0.06328134776318775,0.02190203843149413,0.0,0.3407061107159417,0.32173018138338366,5.823799274458911,5.597740184903555,0.0
0.012,0.10447453051236787,-0.0548066778510877,0.0106170881083332,0.0,0.34420443886867363,0.31426601252528535,5.896015065402315,5.597740184903555,0.0
0.013000000000000001,0.0948240187231776,-0.04919792460429068,-0.028473556168356423,0.0,0.3460743011622959,0.3046356963455957,5.845934687741587,5.597740184903555,0.0
0.014,0.08589199040367365,-0.044627174916337164,-0.005915312366372771,0.0,0.3463474506753802,0.29991372927147597,5.765792302692237,5.597740184903555,0.0
0.015,0.0803380132958559,-0.04146409710678536,0.03247535898041547,0.0,0.34581885746757274,0.3002102824648684,5.734483722876559,5.597740184903555,0.0
0.016,0.07872144913876163,-0.04018516834851463,0.04676221350852455,0.0,0.345263727514571,0.3017342505889672,5.792454532637361,5.597740184903555,0.0
0.017,0.07903449788795246,-0.04013559962777508,0.015829665150785252,0.0,0.34492384409758076,0.29945425903674144,5.814787786663672,5.597740184903555,0.0
0.018000000000000002,0.07792365557059078,-0.0399140823497727,0.0024925621200286713,0.0,0.3443660786536939,0.29633584559063525,5.738759086848762,5.597740184903555,0.0
0.019,0.07614301678527827,-0.039099487486489067,0.0390967230080316,0.0,0.34346485814740413,0.2978180875159497,5.692399163035977,5.597740184903555,0.0
0.02,0.07656848883450416,-0.03909750941048017,0.06133009513309998,0.0,0.34280991224454666,0.301077004209713,5.747309009845092,5.597740184903555,0.0
0.021,0.07855005372959671,-0.03990297640750892,0.03237948347912681,0.0,0.3426349737517845,0.30032391622265864,5.799349741387595,5.597740184903555,0.0
0.022,0.07879678852833788,-0.040283833561450155,0.004343022143034947,0.0,0.3424360599265564,0.2968268133756928,5.7344156690916215,5.597740184903555,0.0
0.023,0.07713710226827555,-0.03970247314577719,0.03544330344914112,0.0,0.3418395689818911,0.29754595782452736,5.674615764289124,5.597740184903555,0.0
0.024,0.07714043489588343,-0.03956167253881921,0.06457450005653431,0.0,0.3413649671139669,0.3010100040961267,5.718639397539461,5.597740184903555,0.0
0.025,0.07907557388528146,-0.04023811944533544,0.04135369130500642,0.0,0.3413600472257817,0.3010217526624739,5.784548273649903,5.597740184903555,0.0
0.026000000000000002,0.07966846541518702,-0.04067517635145491,0.006531172362322243,0.0,0.3413981059736576,0.29738769870879234,5.738543799382598,5.597740184903555,0.0
0.027,0.0779398042438612,-0.04015314691969835,0.028125373351184035,0.0,0.3410071596448233,0.29704052496761296,5.670516756047475,5.597740184903555,0.0
0.028,0.07731233588673612,-0.03977943845047883,0.06141112930730627,0.0,0.3405847029374579,0.30018620002052354,5.6932993158798695,5.597740184903555,0.0
0.029,0.07888968739460861,-0.04020447479819955,0.04906425808134608,0.0,0.3405695504890617,0.3011042651535523,5.762213946637643,5.597740184903555,0.0
0.03,0.07984539154055922,-0.04069566201849539,0.012962205085118444,0.0,0.3406975000295632,0.29799189747013743,5.747104832730996,5.597740184903555,0.0
0.031,0.07843580658497137,-0.04038855223194749,0.019023115560167336,0.0,0.3404627238989499,0.296395893577906,5.676756858137717,5.597740184903555,0.0
0.032,0.07725060863905595,-0.0397911512981305,0.05340693612446561,0.0,0.34002918198732035,0.2987738995436535,5.66566407954029,5.597740184903555,0.0
0.033,0.07825662968485912,-0.039930939557302994,0.05827408647681134,0.0,0.33989814558127573,0.30093978476028077,5.734879903801179,5.597740184903555,0.0
0.034,0.07967598942692858,-0.04059555799600313,0.022294777157390755,0.0,0.34006851148316347,0.2987235129248115,5.7561852033798395,5.597740184903555,0.0
0.035,0.07887387231303192,-0.0405541816643296,0.010057677183297684,0.0,0.3399890160304447,0.29586204343907146,5.68260634511377,5.597740184903555,0.0
0.036000000000000004,0.07721178670591826,-0.039778003902938126,0.04599844471423015,0.0,0.3395463573839871,0.2975294350304204,5.643064065212268,5.597740184903555,0.0
0.037,0.0776715869072594,-0.039718567746974125,0.06531634586189398,0.0,0.33931592756176815,0.30068418417070375,5.711641787829674,5.597740184903555,0.0
0.038,0.07945980836718422,-0.04047337238635181,0.029888468523930123,0.0,0.3395076385076907,0.29921806353750585,5.758001789491785,5.597740184903555,0.0
0.039,0.07918254704938557,-0.040602650515272745,0.005105851646992177,0.0,0.3395402388434888,0.29559429793869363,5.688103701092001,5.597740184903555,0.0
0.04,0.07724035471595947,-0.039799654517929176,0.039151260684999564,0.0,0.3391175802448287,0.2965398586397915,5.634101340948386,5.597740184903555,0.0
0.041,0.07721849687237742,-0.03957991589328723,0.06578882919635876,0.0,0.33881560228740737,0.2999212582962427,5.687941235643865,5.597740184903555,0.0
0.042,0.07903238123415207,-0.040219422365893036,0.03796687134121639,0.0,0.3389545051896062,0.29940778328389644,5.750457934983108,5.597740184903555,0.0
0.043000000000000003,0.0792655513959395,-0.040519468454804225,0.005181344170799379,0.0,0.33905478030540476,0.2956238477786314,5.695075288279312,5.597740184903555,0.0
0.044,0.07733967164497435,-0.03985715081312452,0.03189931648893987,0.0,0.33869077895762306,0.29570934403639626,5.625603947143047,5.597740184903555,0.0
0.045,0.07686685015028047,-0.03949821223732192,0.0663563494346775,0.0,0.33833886730347457,0.29930573600136295,5.666940454777089,5.597740184903555,0.0
0.046,0.07868593860338562,-0.04005846184050483,0.04499609291892083,0.0,0.3384470028533456,0.299608271113439,5.736178900732926,5.597740184903555,0.0
0.047,0.07937295953937384,-0.040463361477391324,0.008992482782708588,0.0,0.3386135148234631,0.29608719030104114,5.70385715442224,5.597740184903555,0.0
0.048,0.07767184103516635,-0.03998611400352448,0.024092186242865063,0.0,0.33835472129683464,0.2951498654936969,5.632641492334209,5.597740184903555,0.0
0.049,0.07672074877708236,-0.03947595310266907,0.05935100421257361,0.0,0.3379767294177791,0.29809547571983763,5.642170464251024,5.597740184903555,0.0
0.05,0.07808567017154894,-0.03976411126062365,0.05414221546069141,0.0,0.33796789675562694,0.2996235185170825,5.7134227053221505,5.597740184903555,0.0
0.051000000000000004,0.0792681704752353,-0.040342573218952404,0.017359269720942427,0.0,0.33817350087325104,0.29688741180507333,5.715819212798052,5.597740184903555,0.0
0.052000000000000005,0.07810351114546038,-0.04015357856008575,0.014980225704046765,0.0,0.3380583598758532,0.29469154832087846,5.642325066098078,5.597740184903555,0.0
0.053,0.07667471128296585,-0.039444715269254756,0.051281450242088605,0.0,0.33765906161437287,0.29686620361629357,5.618739847588842,5.597740184903555,0.0
0.054,0.07747888394678738,-0.03949283756715024,0.0628640628698534,0.0,0.3375295407942589,0.2995917917080476,5.69165092693817,5.597740184903555,0.0
0.055,0.07910941789369491,-0.04024240931869812,0.02546941577484349,0.0,0.337767502535023,0.29763131459436437,5.72616795290281,5.597740184903555,0.0
0.056,0.07850376090735786,-0.04026580476031886,0.006926625112530754,0.0,0.3377806981714052,0.2943078484721879,5.649430743519751,5.597740184903555,0.0
0.057,0.07664496360080383,-0.03941547971092826,0.04477832421789826,0.0,0.3373664579220824,0.2958655744679381,5.604814099003849,5.597740184903555,0.0
0.058,0.07696778009282514,-0.03930273068895248,0.06701590733484653,0.0,0.3371455151553435,0.299239623203804,5.672037428369242,5.597740184903555,0.0
0.059000000000000004,0.07882772857138105,-0.040060226639458726,0.03266127021749317,0.0,0.3373685235836405,0.2980514207076101,5.7228368091811035,5.597740184903555,0.0
0.06,0.07871091925543695,-0.04024439443656728,0.006010613568786849,0.0,0.33746309441766537,0.2944477619532204,5.656539286254452,5.597740184903555,0.0
0.061,0.07680347451588486,-0.039489005516582104,0.038571384018603785,0.0,0.33710290783367913,0.2952707683018305,5.5994390870790935,5.597740184903555,0.0
0.062,0.07671878407835447,-0.03924446527808141,0.06710449458452747,0.0,0.33684169500591743,0.2987787313156673,5.653629113548751,5.597740184903555,0.0
0.063,0.07856864462147622,-0.03988462348037556,0.03945059206324662,0.0,0.3370302625669529,0.29837818479822525,5.718790644490512,5.597740184903555,0.0
0.064,0.07886303748498366,-0.04019434459451913,0.005659321996496755,0.0,0.33718758646067354,0.2945821643969468,5.665193328514272,5.597740184903555,0.0
0.065,0.076930727005767,-0.039538566828528604,0.03178344854850945,0.0,0.33687434315949366,0.29460854312790585,5.594120950006579,5.597740184903555,0.0
0.066,0.07641285146681936,-0.039160219986001936,0.06735583015132558,0.0,0.33656000168650985,0.298290323570933,5.635718707415234,5.597740184903555,0.0
0.067,0.0782537026895554,-0.03971601783129478,0.046177166221881616,0.0,0.33671019363653454,0.2986794425842015,5.707775464303173,5.597740184903555,0.0
0.068,0.07898193909800036,-0.04012982683566451,0.009048434983915998,0.0,0.33692423930491144,0.2951105976015623,5.675940483082277,5.597740184903555,0.0
0.069,0.07725319364098579,-0.03964915539763199,0.024183922612576556,0.0,0.33670298395995935,0.29415367699991296,5.602048179480011,5.597740184903555,0.0
0.07,0.07627511333152912,-0.039123453465710924,0.06108699446794491,0.0,0.33635514159120655,0.29726860733120747,5.613610775001524,5.597740184903555,0.0
0.07100000000000001,0.07771280973393867,-0.039429336588991226,0.05514699080620891,0.0,0.3363924806553386,0.29884690186379304,5.6878409600333155,5.597740184903555,0.0
0.07200000000000001,0.07892829441604372,-0.040028398317555475,0.017130890539015467,0.0,0.33664675322522525,0.2960294035057517,5.689337860978309,5.597740184903555,0.0
0.073,0.07772033236413814,-0.03982387832822167,0.015466463305771082,0.0,0.33656536088620675,0.29386118692004887,5.613737237386039,5.597740184903555,0.0
0.074,0.07628823115623998,-0.03909898223029891,0.0531068045770812,0.0,0.3361975927516417,0.29620418608354093,5.593238926751476,5.597740184903555,0.0
0.075,0.07717286827560955,-0.03916496107431177,0.06340097247588364,0.0,0.3361154079807029,0.29892043247817274,5.669277746103697,5.597740184903555,0.0
0.076,0.07880242199407013,-0.039932063181683734,0.024666187187771596,0.0,0.3363967877696919,0.29682266315773004,5.700837187244312,5.597740184903555,0.0
0.077,0.07811389217523818,-0.03992717107977106,0.007855496594056391,0.0,0.3364320434954538,0.2935930144530593,5.621769210706832,5.597740184903555,0.0
0.078,0.07628138913351516,-0.039060297187973624,0.047149194604763835,0.0,0.33604550157109364,0.29537495991494783,5.580146666668831,5.597740184903555,0.0
0.079,0.0767259615910868,-0.0389767063853041,0.06813640180611141,0.0,0.3358752821359828,0.2987884844495026,5.653600996248945,5.597740184903555,0.0
0.08,0.07861466953732654,-0.039781921494091835,0.030850628902600853,0.0,0.33615284666783185,0.29732901534618067,5.7011705194520585,5.597740184903555,0.0
0.081,0.07835343413061753,-0.03991980662309804,0.006031563955558851,0.0,0.3362638230492666,0.29373363316543655,5.629093997934852,5.597740184903555,0.0
0.082,0.07641839143033777,-0.039104987936280436,0.04175628658384905,0.0,0.3359131546676435,0.29489703932245637,5.57579994982945,5.597740184903555,0.0
0.083,0.07649922392997306,-0.0389032005036371,0.06862271298729135,0.0,0.33569984530916214,0.298478855701745,5.639478661791391,5.597740184903555,0.0
0.084,0.0784032109772596,-0.03961966853749113,0.03636597223744234,0.0,0.33594687788250804,0.29765562351053365,5.697995299941918,5.597740184903555,0.0
0.085,0.0784846854289227,-0.03985931092154833,0.006105102011795149,0.0,0.33610607996130587,0.29394336715924513,5.6368834202056455,5.597740184903555,0.0
0.08600000000000001,0.0765448985249449,-0.039148825049090265,0.03626960952691056,0.0,0.3357975863272842,0.2944531524838387,5.570157152673691,5.597740184903555,0.0
0.08700000000000001,0.07628388370931795,-0.03883021663761543,0.06990857361518664,0.0,0.3355429785225865,0.2982890646478091,5.625284822782391,5.597740184903555,0.0
0.088,0.07824921037595162,-0.039485642237271586,0.042069292182047933,0.0,0.3357727056148325,0.29809841813489885,5.695890732700094,5.597740184903555,0.0
0.089,0.07868746413004328,-0.0398296780214874,0.00578483174523127,0.0,0.33599168502683013,0.2942083565025019,5.644634381069497,5.597740184903555,0.0
0.09,0.07673072027299965,-0.03918054716811527,0.03094406559887037,0.0,0.33572491558267503,0.29407918366462854,5.57186265922914,5.597740184903555,0.0
0.091,0.07610839473272202,-0.038771245130658064,0.06758870177579288,0.0,0.33543337388356165,0.2977644571779123,5.6096316943351,5.597740184903555,0.0
0.092,0.07792242273797118,-0.03928415857950023,0.0485852691284975,0.0,0.33560002720543514,0.29838945888100443,5.686652679852442,5.597740184903555,0.0
0.093,0.07875891298800167,-0.03972572579325534,0.009185651420337379,0.0,0.33585595862445516,0.2947508284770992,5.656887745784038,5.597740184903555,0.0
0.094,0.077009032188106,-0.03925957262048827,0.023476642845734585,0.0,0.3356667413400407,0.2936685112798505,5.579307264023186,5.597740184903555,0.0
0.095,0.07595973168492912,-0.03869354531099775,0.062451212934964195,0.0,0.33533061259202646,0.2969177211167971,5.590455854304682,5.597740184903555,0.0
0.096,0.07744200570153449,-0.03900179614741779,0.05694976110020534,0.0,0.33539258556760954,0.29863994854567355,5.66832399053255,5.597740184903555,0.0
0.097,0.07873057816513979,-0.03964457006328022,0.017309854929981085,0.0,0.3356882066109026,0.29576385513801295,5.670042257877516,5.597740184903555,0.0
0.098,0.07750798955124845,-0.03943890290421191,0.015727700527758445,0.0,0.3356376050824441,0.2935746657250695,5.5912882146648855,5.597740184903555,0.0
0.099,0.0760612003307371,-0.03869028762398494,0.055169241836460534,0.0,0.33529285375630286,0.2961006471166715,5.573947595118581,5.597740184903555,0.0
0.1,0.0770323162654972,-0.03877498739382858,0.06407747750746269,0.0,0.33525197882942115,0.2988037551021937,5.653552759542846,5.597740184903555,0.0
0.101,0.0786618845636758,-0.03956129545113383,0.02371676954893716,0.0,0.3355711490823847,0.29653416321087545,5.6812350734991,5.597740184903555,0.0
0.10200000000000001,0.07787440046150604,-0.039523190297517455,0.009040663684854552,0.0,0.33561938847344946,0.2934156019027421,5.599079642410658,5.597740184903555,0.0
0.10300000000000001,0.0760766586220735,-0.03863841495254306,0.05010498465400476,0.0,0.33525400355818324,0.2954674337910918,5.560578695838231,5.597740184903555,0.0
0.10400000000000001,0.07667260335844957,-0.038591773262443764,0.06972707283087132,0.0,0.33513405749081754,0.2989417991494479,5.642106308873593,5.597740184903555,0.0
0.105,0.07860515601797181,-0.03946327827173248,0.028519605073489745,0.0,0.3354698745339466,0.2971210696849676,5.685845980886838,5.597740184903555,0.0
0.106,0.07815882478957176,-0.03954101165519424,0.00576871110703462,0.0,0.3355898725484028,0.29349389317423136,5.605746625097911,5.597740184903555,0.0
0.107,0.07617183772920005,-0.03863964351892559,0.04573832459955451,0.0,0.3352352252815155,0.2950797058042128,5.557385556567429,5.597740184903555,0.0
0.108,0.07645688007475307,-0.03848658818657204,0.07032240514815702,0.0,0.33506680159911895,0.29872480064131396,5.6312925643295975,5.597740184903555,0.0
0.109,0.07841840356894672,-0.03928980271842281,0.03303337747281217,0.0,0.33536961392049924,0.29742799261578556,5.68381078007423,5.597740184903555,0.0
0.11,0.0782585173807899,-0.039460914807345815,0.005913563648788971,0.0,0.3355232543916517,0.2937180600966982,5.610734382905216,5.597740184903555,0.0
0.111,0.07628398056149276,-0.03864209430959463,0.042321820253279595,0.0,0.33519875618813827,0.29488619142961014,5.554654469029621,5.597740184903555,0.0
0.112,0.07635277508729467,-0.03842448738608849,0.07079263434981653,0.0,0.33500777238165935,0.2986454540274225,5.622653833055734,5.597740184903555,0.0
0.113,0.07833303906995044,-0.03917399941887049,0.036543815855237916,0.0,0.33529643560845046,0.29774047271660253,5.6824433458298085,5.597740184903555,0.0
0.114,0.07838657781737327,-0.039406749046122506,0.005802027858938297,0.0,0.33548384172015033,0.2939296607425066,5.616364499204054,5.597740184903555,0.0
0.115,0.07638885427844656,-0.038653927434481525,0.038655208028810534,0.0,0.33518628814971774,0.2946602232523953,5.549218733600944,5.597740184903555,0.0
0.116,0.07622682475889493,-0.038348727633322977,0.07271330534339154,0.0,0.3349655024253062,0.29870367906891865,5.613708280469779,5.597740184903555,0.0
0.117,0.07830731782477221,-0.03907678674808022,0.04030885095331196,0.0,0.33525427935562313,0.2981851652428518,5.683944946525163,5.597740184903555,0.0
0.11800000000000001,0.07859379219501628,-0.03938597229635325,0.004328470309404024,0.0,0.335489057029464,0.29410287591542617,5.621732770188662,5.597740184903555,0.0
0.11900000000000001,0.07650448592315583,-0.03863995178773177,0.03519463262480328,0.0,0.3352069738917472,0.2944400633828674,5.548304302132927,5.597740184903555,0.0
0.12,0.07609578843225746,-0.03826468384220591,0.07240322548037723,0.0,0.33495299854562444,0.29852367104203203,5.605279976720316,5.597740184903555,0.0
0.121,0.07814471379147246,-0.03893036715340075,0.043839990268515094,0.0,0.3352097593437173,0.29843000983438467,5.6791858044258365,5.597740184903555,0.0
0.122,0.07865938593903107,-0.03928824998711384,0.00607262022053183,0.0,0.33546418821983254,0.2944664877915125,5.627459150914077,5.597740184903555,0.0
0.123,0.07667452436730349,-0.038641887738973923,0.031638757316306484,0.0,0.33522214332841654,0.2943381911159199,5.55020130356467,5.597740184903555,0.0
0.124,0.07604340305379315,-0.038218797991846486,0.07074306980439882,0.0,0.3349513970088801,0.29829390735024613,5.593933648612479,5.597740184903555,0.0
0.125,0.07798915501454923,-0.03877524522325503,0.04891496264340492,0.0,0.3351687370376563,0.2988144984877775,5.675806417969541,5.597740184903555,0.0
0.126,0.07879884564637381,-0.03921544906999015,0.0071979156342139375,0.0,0.3354592601281349,0.29486456196513944,5.636964126722917,5.597740184903555,0.0
0.127,0.07687796533654238,-0.0386675728457528,0.026226821839332295,0.0,0.3352610688341683,0.2940684152968674,5.5535596809000936,5.597740184903555,0.0
0.128,0.07592063167947323,-0.03812632188776159,0.06837084979077881,0.0,0.3349490231596343,0.2978637160778132,5.580571109417914,5.597740184903555,0.0
0.129,0.07770829876150208,-0.03855659342627694,0.055036826286725106,0.0,0.3351004545094651,0.29915388263265674,5.664448594765946,5.597740184903555,0.0
0.13,0.07885917169054295,-0.03914462738708673,0.012430999514085099,0.0,0.33542614040010116,0.29566815560567494,5.647262240804904,5.597740184903555,0.0
0.131,0.07726933060304872,-0.03878154062018609,0.020528955935592806,0.0,0.33532486511500803,0.2940667945934619,5.56378958103909,5.597740184903555,0.0
