timestamp,iq,id,iq_ref,id_ref,vq,vd,omega,omega_ref,r
0.0,0.0,0.0,0.0,0.0,0.0,0.0,0.0,376.88161915909126,0.0
0.001,0.0,0.0,10.0,0.0,0.0,1.0999999999999999,6.115472199294103,376.88161915909126,0.0
0.002,0.5307369851907212,-0.2913212625381807,10.0,0.0,0.14204533887919985,1.9316189316290207,13.317801563642547,376.88161915909126,0.0
0.003,1.0842913387634832,-0.6024330830807904,10.0,0.0,0.384357124667687,2.6386968949419622,20.697939467553027,376.88161915909126,0.0
0.004,1.5590443546685477,-0.8700465084428163,10.0,0.0,0.6994718867930164,3.2526109522886295,28.232747544420146,376.88161915909126,0.0
0.005,1.9399447555359186,-1.0838738622210777,10.0,0.0,1.065311453102468,3.7994935661768023,35.92944872443006,376.88161915909126,0.0
0.006,2.239750732602683,-1.2510087368845633,10.0,0.0,1.4655018868449925,4.299102221838433,43.75633668444442,376.88161915909126,0.0
0.007,2.4770151619816017,-1.382020589851471,10.0,0.0,1.8883740978591532,4.765668027847139,51.58766747378032,376.88161915909126,0.0
0.008,2.6680767290418097,-1.4872241871505252,10.0,0.0,2.325877945545995,5.209220346273558,59.45942083902103,376.88161915909126,0.0
0.009000000000000001,2.8266491704841292,-1.5730794701170803,10.0,0.0,2.772378685460125,5.636635464737965,67.35059094018146,376.88161915909126,0.0
0.01,2.962077666392183,-1.645500646948331,10.0,0.0,3.224078639851053,6.052647735211881,75.20908322432116,376.88161915909126,0.0
0.011,3.0811061533574158,-1.7084279320504514,10.0,0.0,3.678407615443203,6.460489925470405,83.0265951655913,376.88161915909126,0.0
0.012,3.188848746459569,-1.7638278597420747,10.0,0.0,4.133552631697047,6.862319393890706,90.74118064793086,376.88161915909126,0.0
0.013000000000000001,3.288205119878689,-1.8140726097274587,10.0,0.0,4.588339016389012,7.259628641949282,98.35820682563939,376.88161915909126,0.0
0.014,3.3820602099432007,-1.8592355758795645,10.0,0.0,5.041843166194517,7.653355107498287,105.90865295623543,376.88161915909126,0.0
0.015,3.4721069852858886,-1.899829032412081,10.0,0.0,5.493383198131427,8.044092747085895,113.37727610343421,376.88161915909126,0.0
0.016,3.5596145800153947,-1.9360338400176071,10.0,0.0,5.94241958510469,8.43218525824161,120.68508583176356,376.88161915909126,0.0
0.017,3.645144415105338,-1.9685384477868613,10.0,0.0,6.388575043274759,8.817838951066484,127.83962377537456,376.88161915909126,0.0
0.018000000000000002,3.730251927866576,-1.9959253041084188,10.0,0.0,6.83136783302799,9.201036292373047,134.85405702603322,376.88161915909126,0.0
0.019,3.81544967906247,-2.018253592643655,10.0,0.0,7.270383321112213,9.581672501020332,141.68976328564074,376.88161915909126,0.0
0.02,3.9014648862453374,-2.0350875541282063,10.0,0.0,7.705189334130692,9.959536942333155,148.3432823300447,376.88161915909126,0.0
0.021,3.9891051824829464,-2.0457889559126508,10.0,0.0,8.135310004560049,10.334315260302239,154.92060212100432,376.88161915909126,0.0
0.022,4.079618141396171,-2.0489696811670974,10.0,0.0,8.560139305503519,10.705547790999272,161.01925282597162,376.88161915909126,0.0
0.023,4.171109372430197,-2.048468292080302,10.0,0.0,8.979521969370257,11.072981092896333,166.534238406907,376.88161915909126,0.0
0.024,4.266936196769627,-2.039517194249811,10.0,0.0,9.392730090169543,11.435983292623375,171.8647834235234,376.88161915909126,0.0
0.025,4.367255527950721,-2.0225841458509217,10.0,0.0,9.79914449451603,11.793929226271104,177.02637022703064,376.88161915909126,0.0
0.026000000000000002,4.4734353073349595,-1.9962166741499119,10.0,0.0,10.197980960389518,12.146045424568259,181.63161391243256,376.88161915909126,0.0
0.027,4.582366840795821,-1.966358349113627,10.0,0.0,10.589124658468391,12.491912978736195,185.74793639675826,376.88161915909126,0.0
0.028,4.700058850757774,-1.9240450691803936,10.0,0.0,10.971384864613876,12.830451341534015,189.43662766964098,376.88161915909126,0.0
0.029,4.820934284790598,-1.879137197786803,10.0,0.0,11.344756153370636,13.161242511022618,192.73598774770625,376.88161915909126,0.0
0.03,4.952016225740939,-1.821000614527957,10.0,0.0,11.707923484756042,13.483081433273819,195.59831968863915,376.88161915909126,0.0
0.031,5.086039273572549,-1.7621311371320891,10.0,0.0,12.061063698547066,13.79562148058647,197.80891551030922,376.88161915909126,0.0
0.032,5.230431844273564,-1.6911110488141978,10.0,0.0,12.40292038074925,14.097678592248165,200.4421589734679,376.88161915909126,0.0
0.033,5.380124186618445,-1.6166151787533525,10.0,0.0,12.733312761073865,14.38869342901298,201.91742172589852,376.88161915909126,0.0
0.034,5.537594793894332,-1.535029134414507,10.0,0.0,13.051537880865839,14.667821176756876,203.18880493813168,376.88161915909126,0.0
0.035,5.698947813469154,-1.4530296333491768,10.0,0.0,13.357649178779205,14.934684535625108,203.60405746232266,376.88161915909126,0.0
0.036000000000000004,5.870474243492053,-1.3603000477825025,10.0,0.0,13.65045542338638,15.188218311291084,204.28541056101804,376.88161915909126,0.0
0.037,6.041188711220851,-1.275010780747051,10.0,0.0,13.930879897581198,15.42861600670124,205.2233356988433,376.88161915909126,0.0
0.038,6.228175208801664,-1.168399557236846,10.0,0.0,14.196427351981786,15.654155009933262,200.35169734043586,376.88161915909126,0.0
0.039,6.404895489618571,-1.0845312562500289,10.0,0.0,14.449814560392067,15.86612549236809,209.64773540576442,376.88161915909126,0.0
0.04,6.534612624563911,-1.0851225869390002,10.0,0.0,14.699963825590459,16.069735965364643,218.170241886545,376.88161915909126,0.0
0.041,6.621487035821765,-1.1484636683301073,10.0,0.0,14.952420817214799,16.26974130369247,220.68166573712315,376.88161915909126,0.0
0.042,6.6704785161669795,-1.2647840534085386,10.0,0.0,15.211794475054209,16.47047148862455,233.10654395573727,376.88161915909126,0.0
0.043000000000000003,6.709376245503157,-1.3867642159960276,10.0,0.0,15.477558399636717,16.673277185423842,235.10815372853793,376.88161915909126,0.0
0.044,6.744196093263161,-1.5028656568708394,10.0,0.0,15.74857785831126,16.87893749904121,248.8181267625822,376.88161915909126,0.0
0.045,6.750563942850831,-1.6564343609015326,10.0,0.0,16.02879294551472,17.090781462187255,251.61117095327992,376.88161915909126,0.0
0.046,6.764566527560506,-1.7840489455190416,10.0,0.0,16.314672837580048,17.307985931916857,266.60539535969383,376.88161915909126,0.0
0.047,6.752169677737121,-1.9446655565152717,10.0,0.0,16.610076868775216,17.533561623207692,270.0627790167984,376.88161915909126,0.0
0.048,6.7291903821171735,-2.110358990489937,10.0,0.0,16.91511817760721,17.768523902508925,283.13731951482634,376.88161915909126,0.0
0.049,6.714097190323873,-2.246352557911731,10.0,0.0,17.22645394156277,18.011924542904307,294.70561782835244,376.88161915909126,0.0
0.05,6.666841209228205,-2.4219663531358275,10.0,0.0,17.548953774962747,18.267165921658286,300.1294548425776,376.88161915909126,0.0
0.051000000000000004,6.612335516543512,-2.59336894353628,10.0,0.0,17.88182590988993,18.53465621226123,310.75154600411304,376.88161915909126,0.0
0.052000000000000005,6.568447424188529,-2.726701034625408,10.0,0.0,18.22111236450049,18.81296732052879,322.35703405819294,376.88161915909126,0.0
0.053,6.5036136539679195,-2.8764091099274185,10.0,0.0,18.569435851849082,19.104068797231378,330.9557012510771,376.88161915909126,0.0
0.054,6.434362099984388,-3.0149932598739144,10.0,0.0,18.925784313874168,19.407861808234543,339.4707232587175,376.88161915909126,0.0
0.055,6.370891759459199,-3.1253006473392393,10.0,0.0,19.28762520191878,19.723199586257838,348.00092263299223,376.88161915909126,0.0
0.056,6.314459991163816,-3.2071523724558277,10.0,0.0,19.65271639484943,20.048760466390505,356.29964302226927,376.88161915909126,0.0
0.057,6.266092078485367,-3.262894600420583,10.0,0.0,20.01916768432525,20.383030530514645,362.98468703488817,376.88161915909126,0.0
0.058,6.234656406121481,-3.2830044001420036,10.0,0.0,20.38405550695561,20.723492962007192,368.0316803659419,376.88161915909126,0.0
0.059000000000000004,6.228510489334133,-3.2600491726267444,10.0,0.0,20.743774617448285,21.0667596267365,372.35801287012686,376.88161915909126,0.0
0.06,6.247959954981508,-3.201438289803519,8.14038388762122,0.0,21.09563083852922,21.204912863291383,371.8511913865484,376.88161915909126,0.0
0.061,6.198304565465634,-3.0627652612564704,8.44409890713587,0.0,21.41144883684562,21.4220977990725,364.8862965540823,376.88161915909126,0.0
0.062,6.21041377259448,-2.8722319685698494,10.0,0.0,21.697831596998427,21.815429444447712,367.9704882560074,376.88161915909126,0.0
0.063,6.371245983299369,-2.6752571649576833,10.0,0.0,21.975147350202995,22.164936739265798,372.2216960142298,376.88161915909126,0.0
0.064,6.561572970745232,-2.503897462553189,8.462528668506362,0.0,22.242802438340547,22.318775386946236,358.68153339910623,376.88161915909126,0.0
0.065,6.710627203846397,-2.2683205965209563,10.0,0.0,22.474876024192895,22.653999542684954,357.6493114429102,376.88161915909126,0.0
0.066,6.9915897187222225,-2.0095772121504685,10.0,0.0,22.69115866341344,22.934118593814766,352.80208363074513,376.88161915909126,0.0
0.067,7.2654643435532265,-1.8206464980478587,10.0,0.0,22.89562999911734,23.180537420171,344.30297667625985,376.88161915909126,0.0
0.068,7.611807123666708,-1.5461790810847296,10.0,0.0,23.075993975161538,23.38740253789783,338.07443581727574,376.88161915909126,0.0
0.069,7.922871668238478,-1.348646207936742,10.0,0.0,23.240024123497356,23.56086386935463,334.3609482685015,376.88161915909126,0.0
0.07,8.288528249106689,-1.079980489437011,10.0,0.0,23.37741948984179,23.69627050404955,320.7826007717024,376.88161915909126,0.0
0.07100000000000001,8.631599340105842,-0.860931002806203,10.0,0.0,23.49320719667689,23.797794757708207,331.26073397564033,376.88161915909126,0.0
0.07200000000000001,8.823710305279919,-0.9025532789683438,10.0,0.0,23.614337503438467,23.88304386142533,347.50892144415667,376.88161915909126,0.0
0.073,8.89148587391012,-1.106314999859198,10.0,0.0,23.753877256431984,23.966346882549338,352.0393963458839,376.88161915909126,0.0
0.074,8.874172285198348,-1.40141973138914,10.0,0.0,23.918217239497935,24.05785582730488,370.50607033311536,376.88161915909126,0.0
0.075,8.819784580774586,-1.706623096385541,10.0,0.0,24.105895441567146,24.16245738749097,377.49570363070114,376.88161915909126,0.0
0.076,8.725313220392964,-2.0264189939593154,6.528822384088484,0.0,24.317391494531197,23.90338504671284,389.1449215504283,376.88161915909126,0.0
0.077,8.412672661567347,-2.258857994146674,0.5815804003115312,0.0,24.504201039165906,23.105330451119578,394.54557678681795,376.88161915909126,0.0
0.078,7.758801791237589,-2.30501383525681,-2.295386794160555,0.0,24.595276922298055,22.21756768814297,399.41736913187253,376.88161915909126,0.0
0.079,6.9453706293101085,-2.268623483506981,-4.956640466415661,0.0,24.584004443715745,21.246659276882635,400.4503867595101,376.88161915909126,0.0
0.08,6.062896895278151,-2.161820949447727,-5.708836956238623,0.0,24.465383996636604,20.404523180856355,399.9045823870555,376.88161915909126,0.0
0.081,5.251790054477388,-2.040782618904756,-5.666164402290967,0.0,24.262165793643632,19.72735161070502,397.8647001834162,376.88161915909126,0.0
0.082,4.5777681607804475,-1.9325506456936878,-4.856054110714562,0.0,24.000857120187028,19.25229212370212,394.9089086718611,376.88161915909126,0.0
0.083,4.081579195667744,-1.8482278315200795,-3.5584312500647366,0.0,23.709980175548814,18.98108569703499,391.26532617368974,376.88161915909126,0.0
0.084,3.7689747012542867,-1.7978432656878527,-1.8804770711250294,0.0,23.41637120860789,18.908935554381976,386.7921131634929,376.88161915909126,0.0
0.085,3.6345757548121833,-1.781835666570515,0.2570244939293751,0.0,23.143651133851186,19.04464299883125,382.3339991386725,376.88161915909126,0.0
0.08600000000000001,3.678675915585199,-1.7957649774646274,2.4315577065437717,0.0,22.913466111204592,19.35113632194751,377.47698727802833,376.88161915909126,0.0
0.08700000000000001,3.8754846286200872,-1.833188778562759,4.854109955676476,0.0,22.74092624814614,19.827489268939843,374.09202280795506,376.88161915909126,0.0
0.088,4.222517024630887,-1.873353089913695,6.574488154224473,0.0,22.63731950233039,20.3677635378452,376.4417524765446,376.88161915909126,0.0
0.089,4.648574453236673,-1.9125838181073835,5.404021986755174,0.0,22.60201459497454,20.65429865168481,371.7407911503247,376.88161915909126,0.0
0.09,4.964968019623928,-1.8993688274100478,7.805910929952788,0.0,22.5970477334796,21.15401949081478,360.09456972286114,376.88161915909126,0.0
0.091,5.396277799992997,-1.8383336871963751,10.0,0.0,22.635967926530622,21.77632232797875,364.3370815861245,376.88161915909126,0.0
0.092,5.925032461232572,-1.7921421161898503,10.0,0.0,22.728755662584348,22.264496095098274,358.1375426743599,376.88161915909126,0.0
0.093,6.406846139644656,-1.747576576959593,10.0,0.0,22.856641708139406,22.665419301098304,350.2301712532162,376.88161915909126,0.0
0.094,6.897348481499016,-1.5857303536985454,10.0,0.0,22.994474040572534,22.989901670233962,347.74383283783897,376.88161915909126,0.0
0.095,7.312664963606884,-1.456670025867882,10.0,0.0,23.138393202847155,23.25493924608605,338.64399538338466,376.88161915909126,0.0
0.096,7.747278694981997,-1.234772732084457,10.0,0.0,23.271306107441664,23.464210634950213,330.0701515235441,376.88161915909126,0.0
0.097,8.123986227000174,-1.0660703422192896,10.0,0.0,23.395516570515788,23.628754484179158,328.9210888937502,376.88161915909126,0.0
0.098,8.522141325073308,-0.8383490696980647,10.0,0.0,23.500398056126723,23.749235009324757,329.7552395854607,376.88161915909126,0.0
0.099,8.769346554562532,-0.8434190914191162,10.0,0.0,23.609674360805652,23.84494460625382,345.86209060892435,376.88161915909126,0.0
0.1,8.84432000224993,-1.077313496399385,10.0,0.0,23.74327167904021,23.93623584700713,352.0438250965785,376.88161915909126,0.0
0.101,8.859054503816392,-1.3486790651405696,10.0,0.0,23.900149658038377,24.03088663481313,367.75584256760703,376.88161915909126,0.0
0.10200000000000001,8.800589239546786,-1.6830819249109694,10.0,0.0,24.08487557680465,24.138338665823674,376.48377584507205,376.88161915909126,0.0
0.10300000000000001,8.730611697243123,-1.9775143379463183,6.401049758142175,0.0,24.29091764363153,23.864746436016134,390.1963252335426,376.88161915909126,0.0
0.10400000000000001,8.408534769705852,-2.223404686031986,-0.5883719968376209,0.0,24.47309989495405,22.9409994318489,391.58111236229246,376.88161915909126,0.0
0.105,7.69763272647746,-2.2393584875016597,-1.4277604932445573,0.0,24.5439852354084,22.180385291655433,397.3264410377334,376.88161915909126,0.0
0.106,6.934083811990072,-2.224231224072704,-4.504873049751444,0.0,24.529897090806077,21.249713963436374,399.11108343918187,376.88161915909126,0.0
0.107,6.089311635892298,-2.140920994209129,-5.61948889327659,0.0,24.41513777519139,20.404153786582185,398.71620671522425,376.88161915909126,0.0
0.108,5.289322640090762,-2.030701465445242,-5.640396406859109,0.0,24.216007327587356,19.72007109557031,396.82024775787147,376.88161915909126,0.0
0.109,4.614501132794452,-1.9278339246308243,-4.891803214170523,0.0,23.95816842144059,19.23326843107536,393.9703832317655,376.88161915909126,0.0
0.11,4.110195644611551,-1.8464281274614178,-3.637758591844271,0.0,23.66950717717851,18.948546507571397,390.5282721112178,376.88161915909126,0.0
0.111,3.7866354349263753,-1.796481938286214,-2.053169561091697,0.0,23.376559842154663,18.855743567334674,386.19835624821565,376.88161915909126,0.0
0.112,3.6359132575136477,-1.780044072450158,0.018620999518137005,0.0,23.102318243259322,18.96832109639735,381.7662567384084,376.88161915909126,0.0
0.113,3.6615434177054227,-1.791704445431847,2.1858243786285882,0.0,22.868205576846133,19.25556463936505,377.0926553004172,376.88161915909126,0.0
0.114,3.840916738746215,-1.8280624906122067,4.520514736210919,0.0,22.69011131261104,19.706341703225046,373.31393550663637,376.88161915909126,0.0
0.115,4.166575769635554,-1.8686887220304251,6.445551469625894,0.0,22.579009486189666,20.248610011187928,374.7987471292186,376.88161915909126,0.0
0.116,4.586799519894993,-1.9097736618120846,5.7239743786335,0.0,22.53735775426852,20.58394943614944,372.6241578224631,376.88161915909126,0.0
0.117,4.923665605840888,-1.9107913429634666,6.853843645377549,0.0,22.533106233564475,20.98023810372299,360.66833000431467,376.88161915909126,0.0
0.11800000000000001,5.3037515483884174,-1.8418621028301267,10.0,0.0,22.561316338462,21.632810465989046,362.7729670224621,376.88161915909126,0.0
0.11900000000000001,5.83485935600886,-1.7921113196990022,10.0,0.0,22.647179375353296,22.136864039559253,360.17216842797495,376.88161915909126,0.0
0.12,6.320236550879542,-1.7571768111709285,10.0,0.0,22.7715161778057,22.551018146102003,348.459793107688,376.88161915909126,0.0
0.121,6.810665662118922,-1.6115876423971343,10.0,0.0,22.90916924718731,22.887097091948082,348.80138327180265,376.88161915909126,0.0
0.122,7.237807970544764,-1.475622375144118,10.0,0.0,23.053164616505267,23.161252087333274,337.3574377181719,376.88161915909126,0.0
0.123,7.666106016745904,-1.2716661554432567,10.0,0.0,23.189100416935386,23.379549758113868,332.7338821899798,376.88161915909126,0.0
0.124,8.046469529812335,-1.1019219505801074,10.0,0.0,23.316640104062607,23.552054235884118,327.9332330091547,376.88161915909126,0.0
0.125,8.451568698014357,-0.8645273657934593,10.0,0.0,23.42426030797624,23.67930496121851,327.4464937070457,376.88161915909126,0.0
0.126,8.741299692262459,-0.801090666839186,10.0,0.0,23.529239472994842,23.77677321672556,338.6012239329308,376.88161915909126,0.0
0.127,8.81779239672515,-1.0424252414792567,10.0,0.0,23.66064871726224,23.869475675635343,353.44747726686126,376.88161915909126,0.0
0.128,8.84904168071674,-1.2966116669714833,10.0,0.0,23.813734444051622,23.96337631888645,360.166983082632,376.88161915909126,0.0
0.129,8.79987910562297,-1.624420233055364,10.0,0.0,23.994418740501487,24.06891584659161,377.4389994684979,376.88161915909126,0.0
0.13,8.735829726041075,-1.9182781630502248,5.510436304050778,0.0,24.19663484671546,23.69467165061989,383.13520641742144,376.88161915909126,0.0
0.131,8.370956083130698,-2.1421769473109853,2.5997969570057107,0.0,24.362895209679607,23.1422944005756,390.4426468734954,376.88161915909126,0.0
0.132,7.83675165004767,-2.235684661767419,-1.189533548175305,0.0,24.465338672090507,22.329174700942716,396.75771535476593,376.88161915909126,0.0
0.133,7.097519796448909,-2.248578413370828,-4.545828750767323,0.0,24.47670905382885,21.352285609845946,397.671376856659,376.88161915909126,0.0
0.134,6.236697541572546,-2.1590509371072177,-5.210557078689524,0.0,24.379276528378643,20.521963431487567,397.92035050066755,376.88161915909126,0.0
0.135,5.432825041641221,-2.0536217954464884,-5.5454312141095725,0.0,24.197853106817576,19.814559099246708,396.47360323799836,376.88161915909126,0.0
0.136,4.738429694608045,-1.9514432469244076,-5.017977423564048,0.0,23.953646245267706,19.289466279562376,393.84285585480507,376.88161915909126,0.0
0.137,4.202383569315342,-1.865635447079925,-3.8722160989245387,0.0,23.672933715406725,18.965242383808242,390.5599995747083,376.88161915909126,0.0
0.138,3.8436845846275545,-1.808763587160668,-2.367571763032318,0.0,23.38247222236375,18.8335193154079,386.3636983395964,376.88161915909126,0.0
0.139,3.657507459643121,-1.785895162138231,-0.3642419372814256,0.0,23.105937763631765,18.908134735918384,381.92489330084555,376.88161915909126,0.0
0.14,3.649713890496553,-1.7907828867214253,1.8047278406764526,0.0,22.865284626778404,19.16518406717876,377.4775029409626,376.88161915909126,0.0
0.14100000000000001,3.8001242333899445,-1.8239134542489766,4.022464182799212,0.0,22.677997221918613,19.578101378071942,373.1724652809618,376.88161915909126,0.0
0.14200000000000002,4.093328318182125,-1.8641475931778793,6.212074551580924,0.0,22.554824738241024,20.11892964863639,373.52191994329854,376.88161915909126,0.0
0.14300000000000002,4.503253650347494,-1.9055486406139068,6.070944212570467,0.0,22.502204103816307,20.51377765710739,374.6409967682703,376.88161915909126,0.0
0.14400000000000002,4.866690209974552,-1.9197503839259409,5.533812023992784,0.0,22.495478514971126,20.770326795698054,362.3891211124022,376.88161915909126,0.0
