timestamp,iq,id,iq_ref,id_ref,vq,vd,omega,omega_ref,r
0.0,0.0,0.0,0.0,0.0,0.0,0.0,0.0,486.1282703595837,0.0
0.001,0.0,0.0,10.0,0.0,0.0,1.0999999999999999,6.115472199294103,486.1282703595837,0.0
0.002,0.5307369851907212,-0.2913212625381807,10.0,0.0,0.14204533887919985,1.9316189316290207,13.317801563642547,486.1282703595837,0.0
0.003,1.0842913387634832,-0.6024330830807904,10.0,0.0,0.384357124667687,2.6386968949419622,20.697939467553027,486.1282703595837,0.0
0.004,1.5590443546685477,-0.8700465084428163,10.0,0.0,0.6994718867930164,3.2526109522886295,28.232747544420146,486.1282703595837,0.0
0.005,1.9399447555359186,-1.0838738622210777,10.0,0.0,1.065311453102468,3.7994935661768023,35.92944872443006,486.1282703595837,0.0
0.006,2.239750732602683,-1.2510087368845633,10.0,0.0,1.4655018868449925,4.299102221838433,43.75633668444442,486.1282703595837,0.0
0.007,2.4770151619816017,-1.382020589851471,10.0,0.0,1.8883740978591532,4.765668027847139,51.58766747378032,486.1282703595837,0.0
0.008,2.6680767290418097,-1.4872241871505252,10.0,0.0,2.325877945545995,5.209220346273558,59.45942083902103,486.1282703595837,0.0
0.009000000000000001,2.8266491704841292,-1.5730794701170803,10.0,0.0,2.772378685460125,5.636635464737965,67.35059094018146,486.1282703595837,0.0
0.01,2.962077666392183,-1.645500646948331,10.0,0.0,3.224078639851053,6.052647735211881,75.20908322432116,486.1282703595837,0.0
0.011,3.0811061533574158,-1.7084279320504514,10.0,0.0,3.678407615443203,6.460489925470405,83.0265951655913,486.1282703595837,0.0
0.012,3.188848746459569,-1.7638278597420747,10.0,0.0,4.133552631697047,6.862319393890706,90.74118064793086,486.1282703595837,0.0
0.013000000000000001,3.288205119878689,-1.8140726097274587,10.0,0.0,4.588339016389012,7.259628641949282,98.35820682563939,486.1282703595837,0.0
0.014,3.3820602099432007,-1.8592355758795645,10.0,0.0,5.041843166194517,7.653355107498287,105.90865295623543,486.1282703595837,0.0
0.015,3.4721069852858886,-1.899829032412081,10.0,0.0,5.493383198131427,8.044092747085895,113.37727610343421,486.1282703595837,0.0
0.016,3.5596145800153947,-1.9360338400176071,10.0,0.0,5.94241958510469,8.43218525824161,120.68508583176356,486.1282703595837,0.0
0.017,3.645144415105338,-1.9685384477868613,10.0,0.0,6.388575043274759,8.817838951066484,127.83962377537456,486.1282703595837,0.0
0.018000000000000002,3.730251927866576,-1.9959253041084188,10.0,0.0,6.83136783302799,9.201036292373047,134.85405702603322,486.1282703595837,0.0
0.019,3.81544967906247,-2.018253592643655,10.0,0.0,7.270383321112213,9.581672501020332,141.68976328564074,486.1282703595837,0.0
0.02,3.9014648862453374,-2.0350875541282063,10.0,0.0,7.705189334130692,9.959536942333155,148.3432823300447,486.1282703595837,0.0
0.021,3.9891051824829464,-2.0457889559126508,10.0,0.0,8.135310004560049,10.334315260302239,154.92060212100432,486.1282703595837,0.0
0.022,4.079618141396171,-2.0489696811670974,10.0,0.0,8.560139305503519,10.705547790999272,161.01925282597162,486.1282703595837,0.0
0.023,4.171109372430197,-2.048468292080302,10.0,0.0,8.979521969370257,11.072981092896333,166.534238406907,486.1282703595837,0.0
0.024,4.266936196769627,-2.039517194249811,10.0,0.0,9.392730090169543,11.435983292623375,171.8647834235234,486.1282703595837,0.0
0.025,4.367255527950721,-2.0225841458509217,10.0,0.0,9.79914449451603,11.793929226271104,177.02637022703064,486.1282703595837,0.0
0.026000000000000002,4.4734353073349595,-1.9962166741499119,10.0,0.0,10.197980960389518,12.146045424568259,181.63161391243256,486.1282703595837,0.0
0.027,4.582366840795821,-1.966358349113627,10.0,0.0,10.589124658468391,12.491912978736195,185.74793639675826,486.1282703595837,0.0
0.028,4.700058850757774,-1.9240450691803936,10.0,0.0,10.971384864613876,12.830451341534015,189.43662766964098,486.1282703595837,0.0
0.029,4.820934284790598,-1.879137197786803,10.0,0.0,11.344756153370636,13.161242511022618,192.73598774770625,486.1282703595837,0.0
0.03,4.952016225740939,-1.821000614527957,10.0,0.0,11.707923484756042,13.483081433273819,195.59831968863915,486.1282703595837,0.0
0.031,5.086039273572549,-1.7621311371320891,10.0,0.0,12.061063698547066,13.79562148058647,197.80891551030922,486.1282703595837,0.0
0.032,5.230431844273564,-1.6911110488141978,10.0,0.0,12.40292038074925,14.097678592248165,200.4421589734679,486.1282703595837,0.0
0.033,5.380124186618445,-1.6166151787533525,10.0,0.0,12.733312761073865,14.38869342901298,201.91742172589852,486.1282703595837,0.0
0.034,5.537594793894332,-1.535029134414507,10.0,0.0,13.051537880865839,14.667821176756876,203.18880493813168,486.1282703595837,0.0
0.035,5.698947813469154,-1.4530296333491768,10.0,0.0,13.357649178779205,14.934684535625108,203.60405746232266,486.1282703595837,0.0
0.036000000000000004,5.870474243492053,-1.3603000477825025,10.0,0.0,13.65045542338638,15.188218311291084,204.28541056101804,486.1282703595837,0.0
0.037,6.041188711220851,-1.275010780747051,10.0,0.0,13.930879897581198,15.42861600670124,205.2233356988433,486.1282703595837,0.0
0.038,6.228175208801664,-1.168399557236846,10.0,0.0,14.196427351981786,15.654155009933262,200.35169734043586,486.1282703595837,0.0
0.039,6.404895489618571,-1.0845312562500289,10.0,0.0,14.449814560392067,15.86612549236809,209.64773540576442,486.1282703595837,0.0
0.04,6.534612624563911,-1.0851225869390002,10.0,0.0,14.699963825590459,16.069735965364643,218.170241886545,486.1282703595837,0.0
0.041,6.621487035821765,-1.1484636683301073,10.0,0.0,14.952420817214799,16.26974130369247,220.68166573712315,486.1282703595837,0.0
0.042,6.6704785161669795,-1.2647840534085386,10.0,0.0,15.211794475054209,16.47047148862455,233.10654395573727,486.1282703595837,0.0
0.043000000000000003,6.709376245503157,-1.3867642159960276,10.0,0.0,15.477558399636717,16.673277185423842,235.10815372853793,486.1282703595837,0.0
0.044,6.744196093263161,-1.5028656568708394,10.0,0.0,15.74857785831126,16.87893749904121,248.8181267625822,486.1282703595837,0.0
0.045,6.750563942850831,-1.6564343609015326,10.0,0.0,16.02879294551472,17.090781462187255,251.61117095327992,486.1282703595837,0.0
0.046,6.764566527560506,-1.7840489455190416,10.0,0.0,16.314672837580048,17.307985931916857,266.60539535969383,486.1282703595837,0.0
0.047,6.752169677737121,-1.9446655565152717,10.0,0.0,16.610076868775216,17.533561623207692,270.0627790167984,486.1282703595837,0.0
0.048,6.7291903821171735,-2.110358990489937,10.0,0.0,16.91511817760721,17.768523902508925,283.13731951482634,486.1282703595837,0.0
0.049,6.714097190323873,-2.246352557911731,10.0,0.0,17.22645394156277,18.011924542904307,294.70561782835244,486.1282703595837,0.0
0.05,6.666841209228205,-2.4219663531358275,10.0,0.0,17.548953774962747,18.267165921658286,300.1294548425776,486.1282703595837,0.0
0.051000000000000004,6.612335516543512,-2.59336894353628,10.0,0.0,17.88182590988993,18.53465621226123,310.75154600411304,486.1282703595837,0.0
0.052000000000000005,6.568447424188529,-2.726701034625408,10.0,0.0,18.22111236450049,18.81296732052879,322.35703405819294,486.1282703595837,0.0
0.053,6.5036136539679195,-2.8764091099274185,10.0,0.0,18.569435851849082,19.104068797231378,330.9557012510771,486.1282703595837,0.0
0.054,6.434362099984388,-3.0149932598739144,10.0,0.0,18.925784313874168,19.407861808234543,339.4707232587175,486.1282703595837,0.0
0.055,6.370891759459199,-3.1253006473392393,10.0,0.0,19.28762520191878,19.723199586257838,348.00092263299223,486.1282703595837,0.0
0.056,6.314459991163816,-3.2071523724558277,10.0,0.0,19.65271639484943,20.048760466390505,356.29964302226927,486.1282703595837,0.0
0.057,6.266092078485367,-3.262894600420583,10.0,0.0,20.01916768432525,20.383030530514645,362.98468703488817,486.1282703595837,0.0
0.058,6.234656406121481,-3.2830044001420036,10.0,0.0,20.38405550695561,20.723492962007192,368.0316803659419,486.1282703595837,0.0
0.059000000000000004,6.228510489334133,-3.2600491726267444,10.0,0.0,20.743774617448285,21.0667596267365,372.35801287012686,486.1282703595837,0.0
0.06,6.247959954981508,-3.201438289803519,10.0,0.0,21.095630838529225,21.40947063565305,373.88739853789605,486.1282703595837,0.0
0.061,6.298571070969623,-3.1064761741463998,10.0,0.0,21.436712814499675,21.747723437683817,371.47602194372377,486.1282703595837,0.0
0.062,6.38094735961424,-2.982369480030801,10.0,0.0,21.76480975788002,22.077703876517536,366.2922057853833,486.1282703595837,0.0
0.063,6.53566146196873,-2.7695519558602215,10.0,0.0,22.070926190088084,22.39130117743337,372.07145994459506,486.1282703595837,0.0
0.064,6.708566607552835,-2.560747003310555,10.0,0.0,22.35695033962817,22.686677966487718,365.1882535794375,486.1282703595837,0.0
0.065,6.897199383751794,-2.3667028673086685,10.0,0.0,22.62465294768497,22.962098937664592,356.7297130485294,486.1282703595837,0.0
0.066,7.167218997264825,-2.0824440278168583,10.0,0.0,22.863799361069702,23.20893224280502,357.7888817172531,486.1282703595837,0.0
0.067,7.423387055578651,-1.859201647307153,10.0,0.0,23.082000390168847,23.42951856849048,345.1266644280509,486.1282703595837,0.0
0.068,7.736929428236853,-1.5824320316278497,10.0,0.0,23.27222771500701,23.617938384108047,342.9584987314189,486.1282703595837,0.0
0.069,8.04132723792414,-1.3546495884062866,10.0,0.0,23.43998591632552,23.77619061530866,334.2677598047511,486.1282703595837,0.0
0.07,8.395997401416553,-1.0747195592463576,10.0,0.0,23.578279041856877,23.89942370363377,322.7417355360636,486.1282703595837,0.0
0.07100000000000001,8.726669482066718,-0.8579631993863083,10.0,0.0,23.694022264374595,23.99133556844291,337.9106389559309,486.1282703595837,0.0
0.07200000000000001,8.91385728821635,-0.8925675486457335,10.0,0.0,23.81335639313859,24.06834663115294,344.8606079910171,486.1282703595837,0.0
0.073,8.941721008651788,-1.1508071676799903,10.0,0.0,23.95651852989837,24.148396869281978,362.43451347602996,486.1282703595837,0.0
0.074,8.927907180207171,-1.4305443375681337,10.0,0.0,24.121558169292424,24.236556455607346,368.59250641149885,486.1282703595837,0.0
0.075,8.859340450140312,-1.7499202918046703,10.0,0.0,24.31124378664675,24.33980824926249,387.10067316750514,486.1282703595837,0.0
0.076,8.767176841935807,-2.0562826706616475,10.0,0.0,24.52279212376306,24.461155754889383,396.7190369145668,486.1282703595837,0.0
0.077,8.62162972262067,-2.4016532593838043,10.0,0.0,24.76024751870129,24.606611890707832,408.83095327273656,486.1282703595837,0.0
0.078,8.47560200325128,-2.694417929744825,10.0,0.0,25.017253395580042,24.77587553037574,428.2762610097064,486.1282703595837,0.0
0.079,8.289593068490031,-3.001970310780605,10.0,0.0,25.296388163948027,24.972914099394785,438.0404594767293,486.1282703595837,0.0
0.08,8.078425759776728,-3.30171273584331,10.0,0.0,25.597209455327665,25.19953060295957,447.87571303424875,486.1282703595837,0.0
0.081,7.882675762310951,-3.525181384717318,10.0,0.0,25.912194395051316,25.45298841193994,460.26934286159303,486.1282703595837,0.0
0.082,7.687097883672571,-3.703693402600396,10.0,0.0,26.238428257179056,25.732155000670204,470.03446400235384,486.1282703595837,0.0
0.083,7.512516260295773,-3.813976142857688,10.0,0.0,26.570301373216505,26.033276516525277,477.918982155292,486.1282703595837,0.0
0.084,7.3689562950047955,-3.855399170081403,10.0,0.0,26.902553034827754,26.351518972346824,478.5439455783908,486.1282703595837,0.0
0.085,7.275652065733423,-3.8162994175680955,10.0,0.0,27.228688572811343,26.679990214314294,473.55535348460853,486.1282703595837,0.0
0.08600000000000001,7.267766248696914,-3.6603820503219797,10.0,0.0,27.538297768321378,27.00816228346467,474.1807480051759,486.1282703595837,0.0
0.08700000000000001,7.3464323522243,-3.4076290670194203,10.0,0.0,27.823519596704617,27.32574593569263,475.7079540819185,486.1282703595837,0.0
0.088,7.480709249017063,-3.1292177565686656,10.0,0.0,28.08387989315578,27.6261096079242,459.5304728259807,486.1282703595837,0.0
0.089,7.695613562209921,-2.801501191801076,10.0,0.0,28.314975818165053,27.900176237094435,448.5636800468391,486.1282703595837,0.0
0.09,8.020201174839713,-2.3826535389658305,10.0,0.0,28.50757273742622,28.13639020159123,445.48610120291113,486.1282703595837,0.0
0.091,8.354868291359303,-2.0325776833111755,10.0,0.0,28.670211493617295,28.3346749548736,425.5547717088185,486.1282703595837,0.0
0.092,8.785028497986112,-1.6118087441171771,10.0,0.0,28.79363102476271,28.4854241568831,418.1571209188704,486.1282703595837,0.0
0.093,9.213939198463112,-1.2630473015486263,10.0,0.0,28.885627453703925,28.59056181681997,404.39055654859436,486.1282703595837,0.0
0.094,9.710582044615853,-0.8630683077983461,10.0,0.0,28.938427930857845,28.644043747585243,399.8028636561218,486.1282703595837,0.0
0.095,10.09778552966185,-0.6891582118156743,10.0,0.0,28.976166232752334,28.65983157809586,422.487643054602,486.1282703595837,0.0
0.096,10.19655033502452,-0.9613560624343314,10.0,0.0,29.04339035203631,28.67082236200544,431.03532474074945,486.1282703595837,0.0
0.097,10.169180884367012,-1.3604820806818894,10.0,0.0,29.146173021283875,28.69143476707839,450.5677013529273,486.1282703595837,0.0
0.098,10.043142481850674,-1.8334632082393423,10.0,0.0,29.288775327962842,28.733854728339033,463.78246626216827,486.1282703595837,0.0
0.099,9.878032929363341,-2.2746707669262736,10.0,0.0,29.465162420279952,28.80319459088995,486.89045707977465,486.1282703595837,0.0
0.1,9.638548632068545,-2.744249331321392,7.020081810523201,0.0,29.67808635611704,28.580140352752608,495.80306737526445,486.1282703595837,0.0
0.101,9.205716886507073,-3.100868416371161,2.4670286926214935,0.0,29.8819447882682,27.974863919977093,505.9862160467015,486.1282703595837,0.0
0.10200000000000001,8.507274782226823,-3.275406066806448,-2.8231250999682027,0.0,30.0205226846241,26.986614901703593,510.69639867199743,486.1282703595837,0.0
0.10300000000000001,7.547762931721789,-3.2360257754509716,-5.423897695740312,0.0,30.04034068096359,25.976427009796765,510.15489152336573,486.1282703595837,0.0
0.10400000000000001,6.5403056750318855,-3.045941881233999,-5.393410333062284,0.0,29.93664266302814,25.199826222297713,505.64882415676755,486.1282703595837,0.0
0.105,5.691296054942545,-2.8032547097986003,-3.335582187735028,0.0,29.740859618220593,24.79988841975716,498.3502979991938,486.1282703595837,0.0
0.106,5.142372323447421,-2.5817362673062907,0.19146061465574427,0.0,29.502720940679957,24.839654034063194,490.34690015690416,486.1282703595837,0.0
0.107,4.968863170279156,-2.418534869105568,4.150973237827362,0.0,29.276635722946835,25.265501949243095,481.3466291229918,486.1282703595837,0.0
0.108,5.152758236766343,-2.3257037902947753,8.698925167149444,0.0,29.10716441381782,26.064872588280128,477.14144950747374,486.1282703595837,0.0
0.109,5.68810151959283,-2.2756658865196364,10.0,0.0,29.030001440878266,26.807948934374853,479.3382268578337,486.1282703595837,0.0
0.11,6.319741557329043,-2.225656533395842,9.843067279598507,0.0,29.029861750036275,27.37460102967076,461.6265790044789,486.1282703595837,0.0
0.111,6.927219762629399,-2.1077159409676485,10.0,0.0,29.0739278661722,27.84289967059538,449.98651241895993,486.1282703595837,0.0
0.112,7.564969840519366,-1.8418906985248444,10.0,0.0,29.132355864042573,28.203128005322224,443.5452318044143,486.1282703595837,0.0
0.113,8.131662979040584,-1.603389630922314,10.0,0.0,29.19738703058675,28.477217561904983,426.0339737158154,486.1282703595837,0.0
0.114,8.73150107970278,-1.2591272379558593,10.0,0.0,29.247840183584493,28.670086019796262,413.35107658863046,486.1282703595837,0.0
0.115,9.277975881337023,-0.9700474462962059,10.0,0.0,29.284178713918696,28.794599100025042,404.94856024673953,486.1282703595837,0.0
0.116,9.852985392094528,-0.6201911836430574,10.0,0.0,29.2937413082671,28.852508427097376,411.3718934596297,486.1282703595837,0.0
0.117,10.147392833941351,-0.7118218434126744,10.0,0.0,29.321716511089093,28.87894835740175,429.160180578668,486.1282703595837,0.0
0.11800000000000001,10.191178406164518,-1.1138954333750828,10.0,0.0,29.39284997495749,28.903669476431805,444.4507941991519,486.1282703595837,0.0
0.11900000000000001,10.152657698274222,-1.540222713822284,10.0,0.0,29.502217469291615,28.93770696353585,461.5541174122442,486.1282703595837,0.0
0.12,10.001746938201036,-2.042355659524186,10.0,0.0,29.655023314125476,28.99549242789206,476.42763520233285,486.1282703595837,0.0
0.121,9.811529565812416,-2.5005463239821446,10.0,0.0,29.843706764544926,29.082194733658046,500.7460704291546,486.1282703595837,0.0
0.122,9.557141855223565,-2.9594592806163904,-0.3937954489903248,0.0,30.068090619084224,28.061858128941335,504.24219127597587,486.1282703595837,0.0
0.123,8.708846181011165,-3.1211796802680696,-2.3229950815648817,0.0,30.181202542093263,27.148488212114405,508.44557462385524,486.1282703595837,0.0
0.124,7.746146106704043,-3.1165574294894522,-4.64785979814728,0.0,30.189540629536523,26.198737408204387,510.2766946248808,486.1282703595837,0.0
0.125,6.7559198255130255,-3.000495921445224,-5.804904041313034,0.0,30.089349284467396,25.34006716403526,507.6730609019028,486.1282703595837,0.0
0.126,5.859785031136464,-2.798524105006683,-4.718535085247209,0.0,29.892253764760472,24.77698840194452,501.498264533554,486.1282703595837,0.0
0.127,5.1978186566316955,-2.5858348358795173,-1.7848368428125214,0.0,29.637183819375547,24.626206034451094,493.54331494938435,486.1282703595837,0.0
0.128,4.876029495108476,-2.4125910144114306,2.1184875033742925,0.0,29.375612704109574,24.893800748847223,485.2667869094544,486.1282703595837,0.0
0.129,4.9199950475382765,-2.3063982979532205,6.265366357840549,0.0,29.15700941121408,25.51754820842405,476.9228087544214,486.1282703595837,0.0
0.13,5.304448852671365,-2.250668402298951,10.0,0.0,29.01757283220843,26.38455124180618,476.3985838679176,486.1282703595837,0.0
0.131,5.949807541327904,-2.227101634955832,10.0,0.0,28.976745168990348,27.046419059827045,471.9759694649837,486.1282703595837,0.0
0.132,6.583100071030172,-2.1749436407664415,10.0,0.0,29.00068534220877,27.574808738343336,453.0985058337192,486.1282703595837,0.0
0.133,7.225785151813874,-1.9803543651258224,10.0,0.0,29.0541872255784,27.988391032740658,449.71140106943056,486.1282703595837,0.0
0.134,7.841800474686961,-1.7133325650642857,10.0,0.0,29.11627064480044,28.304630451327007,430.242468680762,486.1282703595837,0.0
0.135,8.41131588174191,-1.4449203552007976,10.0,0.0,29.176914538874538,28.53896772842961,424.36338960612045,486.1282703595837,0.0
0.136,8.997624420890656,-1.1067086479130266,10.0,0.0,29.220408605548474,28.69713688199355,404.73753527300346,486.1282703595837,0.0
0.137,9.55480830725065,-0.7909057915851907,10.0,0.0,29.244013983788218,28.78841138476038,407.03705703714417,486.1282703595837,0.0
0.138,10.014668885670476,-0.6287027655405518,10.0,0.0,29.25970197017905,28.827906150311915,423.6509505743182,486.1282703595837,0.0
0.139,10.184804798579274,-0.8772642865548366,10.0,0.0,29.30673443205796,28.850903893311614,433.7894869605235,486.1282703595837,0.0
0.14,10.171966528880612,-1.3179647645182777,10.0,0.0,29.397354859414786,28.879418676995176,451.90412358464135,486.1282703595837,0.0
0.14100000000000001,10.072008668477494,-1.7931697911081317,10.0,0.0,29.52963027054954,28.925011006993426,466.9491819747976,486.1282703595837,0.0
0.14200000000000002,9.913525399714564,-2.2537033282559205,10.0,0.0,29.699144012390995,28.995705226065205,490.3885943214361,486.1282703595837,0.0
0.14300000000000002,9.67925485517322,-2.734143350472053,4.5246401560424125,0.0,29.907018869027784,28.498176741790537,497.3919560909524,486.1282703595837,0.0
0.14400000000000002,9.115110285289155,-3.0357562888434546,0.9103224139705519,0.0,30.072726414572124,27.788080435660518,506.54435244005333,486.1282703595837,0.0
0.145,8.332486551585111,-3.1670789571042453,-3.8700365813846,0.0,30.162282939073997,26.756315367638198,510.46288825964837,486.1282703595837,0.0
0.146,7.334890503163811,-3.1120369812829063,-6.072650670182764,0.0,30.132339460300493,25.74410782704335,509.22408615044026,486.1282703595837,0.0
0.147,6.328138557980518,-2.9240891138816227,-5.684207773487275,0.0,29.984045729688923,24.995648305641076,504.5059752866941,486.1282703595837,0.0
0.148,5.507253003348001,-2.696067748360296,-3.5089293908852897,0.0,29.752532548464963,24.622831447994876,497.17875161984085,486.1282703595837,0.0
