timestamp,iq,id,iq_ref,id_ref,vq,vd,omega,omega_ref,r
0.0,0.0,0.0,0.0,0.0,0.0,0.0,0.0,368.30078856218836,0.0
0.001,0.0,0.0,10.0,0.0,0.0,1.0999999999999999,6.115472199294103,368.30078856218836,0.0
0.002,0.5307369851907212,-0.2913212625381807,10.0,0.0,0.14204533887919985,1.9316189316290207,13.317801563642547,368.30078856218836,0.0
0.003,1.0842913387634832,-0.6024330830807904,10.0,0.0,0.384357124667687,2.6386968949419622,20.697939467553027,368.30078856218836,0.0
0.004,1.5590443546685477,-0.8700465084428163,10.0,0.0,0.6994718867930164,3.2526109522886295,28.232747544420146,368.30078856218836,0.0
0.005,1.9399447555359186,-1.0838738622210777,10.0,0.0,1.065311453102468,3.7994935661768023,35.92944872443006,368.30078856218836,0.0
0.006,2.239750732602683,-1.2510087368845633,10.0,0.0,1.4655018868449925,4.299102221838433,43.75633668444442,368.30078856218836,0.0
0.007,2.4770151619816017,-1.382020589851471,10.0,0.0,1.8883740978591532,4.765668027847139,51.58766747378032,368.30078856218836,0.0
0.008,2.6680767290418097,-1.4872241871505252,10.0,0.0,2.325877945545995,5.209220346273558,59.45942083902103,368.30078856218836,0.0
0.009000000000000001,2.8266491704841292,-1.5730794701170803,10.0,0.0,2.772378685460125,5.636635464737965,67.35059094018146,368.30078856218836,0.0
0.01,2.962077666392183,-1.645500646948331,10.0,0.0,3.224078639851053,6.052647735211881,75.20908322432116,368.30078856218836,0.0
0.011,3.0811061533574158,-1.7084279320504514,10.0,0.0,3.678407615443203,6.460489925470405,83.0265951655913,368.30078856218836,0.0
0.012,3.188848746459569,-1.7638278597420747,10.0,0.0,4.133552631697047,6.862319393890706,90.74118064793086,368.30078856218836,0.0
0.013000000000000001,3.288205119878689,-1.8140726097274587,10.0,0.0,4.588339016389012,7.259628641949282,98.35820682563939,368.30078856218836,0.0
0.014,3.3820602099432007,-1.8592355758795645,10.0,0.0,5.041843166194517,7.653355107498287,105.90865295623543,368.30078856218836,0.0
0.015,3.4721069852858886,-1.899829032412081,10.0,0.0,5.493383198131427,8.044092747085895,113.37727610343421,368.30078856218836,0.0
0.016,3.5596145800153947,-1.9360338400176071,10.0,0.0,5.94241958510469,8.43218525824161,120.68508583176356,368.30078856218836,0.0
0.017,3.645144415105338,-1.9685384477868613,10.0,0.0,6.388575043274759,8.817838951066484,127.83962377537456,368.30078856218836,0.0
0.018000000000000002,3.730251927866576,-1.9959253041084188,10.0,0.0,6.83136783302799,9.201036292373047,134.85405702603322,368.30078856218836,0.0
0.019,3.81544967906247,-2.018253592643655,10.0,0.0,7.270383321112213,9.581672501020332,141.68976328564074,368.30078856218836,0.0
0.02,3.9014648862453374,-2.0350875541282063,10.0,0.0,7.705189334130692,9.959536942333155,148.3432823300447,368.30078856218836,0.0
0.021,3.9891051824829464,-2.0457889559126508,10.0,0.0,8.135310004560049,10.334315260302239,154.92060212100432,368.30078856218836,0.0
0.022,4.079618141396171,-2.0489696811670974,10.0,0.0,8.560139305503519,10.705547790999272,161.01925282597162,368.30078856218836,0.0
0.023,4.171109372430197,-2.048468292080302,10.0,0.0,8.979521969370257,11.072981092896333,166.534238406907,368.30078856218836,0.0
0.024,4.266936196769627,-2.039517194249811,10.0,0.0,9.392730090169543,11.435983292623375,171.8647834235234,368.30078856218836,0.0
0.025,4.367255527950721,-2.0225841458509217,10.0,0.0,9.79914449451603,11.793929226271104,177.02637022703064,368.30078856218836,0.0
0.026000000000000002,4.4734353073349595,-1.9962166741499119,10.0,0.0,10.197980960389518,12.146045424568259,181.63161391243256,368.30078856218836,0.0
0.027,4.582366840795821,-1.966358349113627,10.0,0.0,10.589124658468391,12.491912978736195,185.74793639675826,368.30078856218836,0.0
0.028,4.700058850757774,-1.9240450691803936,10.0,0.0,10.971384864613876,12.830451341534015,189.43662766964098,368.30078856218836,0.0
0.029,4.820934284790598,-1.879137197786803,10.0,0.0,11.344756153370636,13.161242511022618,192.73598774770625,368.30078856218836,0.0
0.03,4.952016225740939,-1.821000614527957,10.0,0.0,11.707923484756042,13.483081433273819,195.59831968863915,368.30078856218836,0.0
0.031,5.086039273572549,-1.7621311371320891,10.0,0.0,12.061063698547066,13.79562148058647,197.80891551030922,368.30078856218836,0.0
0.032,5.230431844273564,-1.6911110488141978,10.0,0.0,12.40292038074925,14.097678592248165,200.4421589734679,368.30078856218836,0.0
0.033,5.380124186618445,-1.6166151787533525,10.0,0.0,12.733312761073865,14.38869342901298,201.91742172589852,368.30078856218836,0.0
0.034,5.537594793894332,-1.535029134414507,10.0,0.0,13.051537880865839,14.667821176756876,203.18880493813168,368.30078856218836,0.0
0.035,5.698947813469154,-1.4530296333491768,10.0,0.0,13.357649178779205,14.934684535625108,203.60405746232266,368.30078856218836,0.0
0.036000000000000004,5.870474243492053,-1.3603000477825025,10.0,0.0,13.65045542338638,15.188218311291084,204.28541056101804,368.30078856218836,0.0
0.037,6.041188711220851,-1.275010780747051,10.0,0.0,13.930879897581198,15.42861600670124,205.2233356988433,368.30078856218836,0.0
0.038,6.228175208801664,-1.168399557236846,10.0,0.0,14.196427351981786,15.654155009933262,200.35169734043586,368.30078856218836,0.0
0.039,6.404895489618571,-1.0845312562500289,10.0,0.0,14.449814560392067,15.86612549236809,209.64773540576442,368.30078856218836,0.0
0.04,6.534612624563911,-1.0851225869390002,10.0,0.0,14.699963825590459,16.069735965364643,218.170241886545,368.30078856218836,0.0
0.041,6.621487035821765,-1.1484636683301073,10.0,0.0,14.952420817214799,16.26974130369247,220.68166573712315,368.30078856218836,0.0
0.042,6.6704785161669795,-1.2647840534085386,10.0,0.0,15.211794475054209,16.47047148862455,233.10654395573727,368.30078856218836,0.0
0.043000000000000003,6.709376245503157,-1.3867642159960276,10.0,0.0,15.477558399636717,16.673277185423842,235.10815372853793,368.30078856218836,0.0
0.044,6.744196093263161,-1.5028656568708394,10.0,0.0,15.74857785831126,16.87893749904121,248.8181267625822,368.30078856218836,0.0
0.045,6.750563942850831,-1.6564343609015326,10.0,0.0,16.02879294551472,17.090781462187255,251.61117095327992,368.30078856218836,0.0
0.046,6.764566527560506,-1.7840489455190416,10.0,0.0,16.314672837580048,17.307985931916857,266.60539535969383,368.30078856218836,0.0
0.047,6.752169677737121,-1.9446655565152717,10.0,0.0,16.610076868775216,17.533561623207692,270.0627790167984,368.30078856218836,0.0
0.048,6.7291903821171735,-2.110358990489937,10.0,0.0,16.91511817760721,17.768523902508925,283.13731951482634,368.30078856218836,0.0
0.049,6.714097190323873,-2.246352557911731,10.0,0.0,17.22645394156277,18.011924542904307,294.70561782835244,368.30078856218836,0.0
0.05,6.666841209228205,-2.4219663531358275,10.0,0.0,17.548953774962747,18.267165921658286,300.1294548425776,368.30078856218836,0.0
0.051000000000000004,6.612335516543512,-2.59336894353628,10.0,0.0,17.88182590988993,18.53465621226123,310.75154600411304,368.30078856218836,0.0
0.052000000000000005,6.568447424188529,-2.726701034625408,10.0,0.0,18.22111236450049,18.81296732052879,322.35703405819294,368.30078856218836,0.0
0.053,6.5036136539679195,-2.8764091099274185,10.0,0.0,18.569435851849082,19.104068797231378,330.9557012510771,368.30078856218836,0.0
0.054,6.434362099984388,-3.0149932598739144,10.0,0.0,18.925784313874168,19.407861808234543,339.4707232587175,368.30078856218836,0.0
0.055,6.370891759459199,-3.1253006473392393,10.0,0.0,19.28762520191878,19.723199586257838,348.00092263299223,368.30078856218836,0.0
0.056,6.314459991163816,-3.2071523724558277,10.0,0.0,19.65271639484943,20.048760466390505,356.29964302226927,368.30078856218836,0.0
0.057,6.266092078485367,-3.262894600420583,10.0,0.0,20.01916768432525,20.383030530514645,362.98468703488817,368.30078856218836,0.0
0.058,6.234656406121481,-3.2830044001420036,8.436113029009896,0.0,20.38405550695561,20.551465395198285,367.39528495640167,368.30078856218836,0.0
0.059000000000000004,6.1427543786960905,-3.224980233415737,6.239869104311012,0.0,20.722714277454187,20.52339245996278,366.07586492232485,368.30078856218836,0.0
0.06,5.9607034663775424,-3.0687015742438497,6.921828357748053,0.0,21.008089466537704,20.648077232506516,361.0156134963211,368.30078856218836,0.0
0.061,5.871775732649077,-2.8702761761896904,9.524805821408592,0.0,21.257131606773015,21.07630051675948,365.12492390474927,368.30078856218836,0.0
0.062,5.989532205603316,-2.7213674888900257,7.50190926376891,0.0,21.509696159787676,21.224214801271458,367.6557302718581,368.30078856218836,0.0
0.063,6.051955959921053,-2.538625373754935,6.242956663117801,0.0,21.733183140160193,21.258649243893068,355.7595428881057,368.30078856218836,0.0
0.064,6.085674483298031,-2.2892641300495544,10.0,0.0,21.912162551101375,21.734768433325033,354.301378295662,368.30078856218836,0.0
0.065,6.376058830166206,-2.0846766686169906,10.0,0.0,22.100844931571118,22.11199811861736,354.6935209365182,368.30078856218836,0.0
0.066,6.681834237782464,-1.9479758734450296,10.0,0.0,22.295390829668523,22.439641622058325,341.94108815922027,368.30078856218836,0.0
0.067,7.03844430672719,-1.743845802768813,10.0,0.0,22.482159188477617,22.717806011457174,343.475564034785,368.30078856218836,0.0
0.068,7.381134311278702,-1.5542029610750019,10.0,0.0,22.65924773846614,22.95270099798584,331.406202900437,368.30078856218836,0.0
0.069,7.74193848439903,-1.3276332777383086,10.0,0.0,22.81909069535857,23.145553781862752,328.23859297380847,368.30078856218836,0.0
0.07,8.078492256874766,-1.1376118034473446,10.0,0.0,22.963597969610813,23.301692709800108,322.5393185614804,368.30078856218836,0.0
0.07100000000000001,8.449887265826424,-0.8905886445810636,10.0,0.0,23.083996076499187,23.419180559109016,324.7868661852732,368.30078856218836,0.0
0.07200000000000001,8.703462317242886,-0.8401481536043374,10.0,0.0,23.201024935210835,23.51278012860958,333.6178628471378,368.30078856218836,0.0
0.073,8.765594039536362,-1.070185158353812,10.0,0.0,23.341519340433585,23.604423888093137,349.885727617155,368.30078856218836,0.0
0.074,8.784620052939303,-1.3203925982042284,10.0,0.0,23.50235112941847,23.69948116789922,355.37168202409356,368.30078856218836,0.0
0.075,8.73721107018886,-1.6285134096623197,10.0,0.0,23.687996682347357,23.80652114685977,373.55169668563923,368.30078856218836,0.0
0.076,8.668379037193258,-1.9202721363939208,4.062098490563802,0.0,23.8947939297053,23.275349950981177,376.7710790396831,368.30078856218836,0.0
0.077,8.231417361658146,-2.0915313538669116,2.36770440876691,0.0,24.043715259394315,22.73834872950185,384.1396101969108,368.30078856218836,0.0
0.078,7.684253453059759,-2.170545405354706,-1.4749493861941465,0.0,24.131023287455417,21.92001019970207,390.03587892764097,368.30078856218836,0.0
0.079,6.9465648790611,-2.1734760833529965,-4.640434655213765,0.0,24.12729889379537,20.958133588099706,390.75714909099236,368.30078856218836,0.0
0.08,6.101660246514536,-2.083188870302991,-5.225633342177501,0.0,24.017798378125594,20.14491781925591,390.88096089041454,368.30078856218836,0.0
0.081,5.318910994785106,-1.9821162994852337,-5.513340965170855,0.0,23.827711226478975,19.453931095434644,389.4178437512285,368.30078856218836,0.0
0.082,4.645600550056097,-1.8874534478591793,-4.992952947468223,0.0,23.5781319296442,18.939390743410954,386.85483466036516,368.30078856218836,0.0
0.083,4.125919437488359,-1.8103880795491774,-3.896988863018332,0.0,23.294525965292696,18.617130483953787,383.7481361647247,368.30078856218836,0.0
0.084,3.7763341348158237,-1.7613188643172482,-2.4981130912234732,0.0,23.002427611438204,18.47490992022842,379.82389525775216,368.30078856218836,0.0
0.085,3.58995691490011,-1.7426990647090483,-0.6512237046928329,0.0,22.723759550792053,18.523876293454574,375.57177274709363,368.30078856218836,0.0
0.08600000000000001,3.5681689030187806,-1.7516838355226427,1.4021277087873765,0.0,22.479029456318703,18.74801189401879,371.2978286631791,368.30078856218836,0.0
0.08700000000000001,3.6969392126813636,-1.785949313296573,3.5091293497347484,0.0,22.28486528619611,19.12211497726697,366.76107826913204,368.30078856218836,0.0
0.088,3.9598585938916857,-1.830354135179619,5.792901649688828,0.0,22.152069717039986,19.641902842927035,365.97658132889956,368.30078856218836,0.0
0.089,4.349220727113112,-1.8741789593591927,6.20839219213796,0.0,22.08890917380641,20.079097960933094,368.5642112904046,368.30078856218836,0.0
0.09,4.7279325822051534,-1.8997156854389805,4.911942984103268,0.0,22.078154988323778,20.28172851177897,358.05910736205004,368.30078856218836,0.0
0.091,5.0010865052382245,-1.8368308766937427,10.0,0.0,22.081566580251216,21.009411539838265,354.69818099091606,368.30078856218836,0.0
0.092,5.533364943158639,-1.8044179111865104,10.0,0.0,22.154468737673497,21.55796776518449,357.1266829646937,368.30078856218836,0.0
0.093,6.033465484762219,-1.7899706878718864,10.0,0.0,22.27367123697864,22.009270308541137,345.69061949387014,368.30078856218836,0.0
0.094,6.510054455256622,-1.7055802863342793,10.0,0.0,22.416945268752947,22.379939066154282,345.9837253103133,368.30078856218836,0.0
0.095,6.9581399627610745,-1.561858335570986,10.0,0.0,22.567993262542544,22.68334483506299,335.06216490454517,368.30078856218836,0.0
0.096,7.363478154626668,-1.4077290010090584,10.0,0.0,22.71876002654986,22.931408480429614,334.23692339714415,368.30078856218836,0.0
0.097,7.761258402677029,-1.213160397941068,10.0,0.0,22.85939522570127,23.130039992293444,321.99009903532937,368.30078856218836,0.0
0.098,8.145618914823153,-1.0061922839559552,10.0,0.0,22.985009249616226,23.28457001903044,316.5469894302205,368.30078856218836,0.0
0.099,8.500225074101275,-0.8293251882115618,10.0,0.0,23.09612917442137,23.401045373086117,331.1980618931982,368.30078856218836,0.0
0.1,8.703953250307041,-0.88366298471359,10.0,0.0,23.215530470724225,23.498121146426875,335.9390981209868,368.30078856218836,0.0
0.101,8.754670217588998,-1.1331708277314192,10.0,0.0,23.3596016994978,23.59388788742489,352.9514931471526,368.30078856218836,0.0
0.10200000000000001,8.747571556195457,-1.42225756730591,10.0,0.0,23.528146942416853,23.69577309962657,359.4711569776254,368.30078856218836,0.0
0.10300000000000001,8.70495096357851,-1.7130578245988608,10.0,0.0,23.719123343170637,23.808941593473918,378.16552175956224,368.30078856218836,0.0
0.10400000000000001,8.616126512300644,-2.0277366174828897,1.0965658374023404,0.0,23.93402561787809,22.959857603840568,377.8901901836815,368.30078856218836,0.0
0.105,8.02231520859884,-2.105797485330287,1.138337609127773,0.0,24.047969173685843,22.375232476051483,384.87506732275136,368.30078856218836,0.0
0.106,7.395083290005466,-2.148552445200775,-2.519843748012784,0.0,24.09597829804119,21.520703947627624,389.3773943478728,368.30078856218836,0.0
0.107,6.623478443282643,-2.121352753006184,-4.981773318430336,0.0,24.0503141413785,20.60080295926073,389.9076850928919,368.30078856218836,0.0
0.108,5.797428448391995,-2.028695723225101,-5.462987656246922,0.0,23.907306025191424,19.82316082357936,389.3197368908134,368.30078856218836,0.0
0.109,5.050298814449329,-1.929687700629937,-5.379203038493918,0.0,23.690870194867266,19.1969343009632,387.40644670597226,368.30078856218836,0.0
0.11,4.432288580194117,-1.844334384830963,-4.613614527511198,0.0,23.425056510801962,18.755573567035448,384.65087457952126,368.30078856218836,0.0
0.111,3.977019727410482,-1.7805339274059035,-3.3993293244590275,0.0,23.135523604591658,18.501582496783506,381.379450484284,368.30078856218836,0.0
0.112,3.6893728668404195,-1.7461316429810116,-1.894403896061359,0.0,22.84639863526469,18.424524654163818,377.3343241032842,368.30078856218836,0.0
0.113,3.5604840005098684,-1.7413399992563274,0.03782393902759207,0.0,22.578297320642985,18.535057213139876,373.2008662613661,368.30078856218836,0.0
0.114,3.5919413949869714,-1.7608433944532194,2.0555520829948506,0.0,22.350252683289973,18.805605000185874,368.8236432786314,368.30078856218836,0.0
0.115,3.763217933324186,-1.801081457880564,4.238935027197789,0.0,22.17629844140189,19.227762541942305,365.1718201344724,368.30078856218836,0.0
0.116,4.068392096150924,-1.8439671187668114,6.096136283554439,0.0,22.06627041994147,19.74091082156391,366.2272919369692,368.30078856218836,0.0
0.117,4.4658855063079095,-1.8828278263156135,5.589135348558225,0.0,22.02240584981077,20.07672682217517,365.6286920482332,368.30078856218836,0.0
0.11800000000000001,4.7901181804112705,-1.891986428116163,5.915156258065793,0.0,22.017128175876827,20.38381641505822,354.3152183938813,368.30078856218836,0.0
0.11900000000000001,5.113981317161461,-1.8182682124918874,10.0,0.0,22.03488663888792,21.073359265475776,354.88148073477987,368.30078856218836,0.0
0.12,5.639172843100893,-1.7828892817805526,10.0,0.0,22.11666904041764,21.6003428032475,354.6825908683647,368.30078856218836,0.0
0.121,6.126505348377644,-1.765163433068025,10.0,0.0,22.241375501520302,22.03445156707399,342.2639773716461,368.30078856218836,0.0
0.122,6.607512284056599,-1.65266060645049,10.0,0.0,22.38482414045455,22.389582662756176,344.0781031769192,368.30078856218836,0.0
0.123,7.0391987789415476,-1.5199898326234331,10.0,0.0,22.53597226820878,22.680870067683,332.15504703764356,368.30078856218836,0.0
0.124,7.451835039315464,-1.3443622701998468,10.0,0.0,22.683141999551953,22.91707042120029,330.6127772046084,368.30078856218836,0.0
0.125,7.832938456206695,-1.1708833267760106,10.0,0.0,22.821888384960154,23.106572699245877,321.78243966802256,368.30078856218836,0.0
0.126,8.225499572290968,-0.9471547775045916,10.0,0.0,22.94283500864647,23.251628699427357,317.7983112454392,368.30078856218836,0.0
0.127,8.568911046071971,-0.7860486473118873,10.0,0.0,23.05070818115382,23.360424111004267,330.2040074569316,368.30078856218836,0.0
0.128,8.689787509751635,-0.9652368452819826,10.0,0.0,23.179995340646755,23.459265002407257,342.2289980674902,368.30078856218836,0.0
0.129,8.749315623237184,-1.1863414579508866,10.0,0.0,23.32876749874459,23.55581119277264,349.5074843515532,368.30078856218836,0.0
0.13,8.7175558861804,-1.5019390373504033,10.0,0.0,23.504821747676424,23.661668832122356,365.80264275367506,368.30078856218836,0.0
0.131,8.674295407199203,-1.780161037588606,6.957358822901182,0.0,23.701304779882264,23.444296658266783,372.25520350168654,368.30078856218836,0.0
0.132,8.405981482113893,-2.0309464446561503,3.6915342995004607,0.0,23.881206466257005,22.968577646183835,379.84253293543355,368.30078856218836,0.0
0.133,7.950888596743881,-2.148858082638059,-0.21754786110549862,0.0,24.006008508893313,22.208456989653854,386.9735227798454,368.30078856218836,0.0
0.134,7.2672495056242035,-2.1855809535978072,-3.969770125487983,0.0,24.045178681038742,21.23382434673395,388.09324492877323,368.30078856218836,0.0
0.135,6.427575673324465,-2.1064260215355777,-4.727555763617757,0.0,23.9738943004412,20.40026551841191,389.2121710167651,368.30078856218836,0.0
0.136,5.625551076057828,-2.012545448835102,-5.496132632159472,0.0,23.816847161394772,19.64579450308036,388.43063883656976,368.30078856218836,0.0
0.137,4.902781831684037,-1.9147368443467812,-5.306665044805601,0.0,23.590237493953126,19.05107744958011,386.16236313906444,368.30078856218836,0.0
0.138,4.314563656008283,-1.8305367322743291,-4.351142941821704,0.0,23.318533161622533,18.653860197021007,383.32119501554604,368.30078856218836,0.0
0.139,3.8965908055564555,-1.770677647529023,-3.0807629445960796,0.0,23.02853503906783,18.43947564694268,379.860827224769,368.30078856218836,0.0
0.14,3.644494699031937,-1.741996789804039,-1.4661794358333795,0.0,22.743541970258466,18.405980968821535,375.7452018487518,368.30078856218836,0.0
0.14100000000000001,3.5524521209387,-1.7427634111218975,0.5171891193096103,0.0,22.484069877440138,18.55696488013468,371.661240164133,368.30078856218836,0.0
0.14200000000000002,3.617647349081585,-1.7685860566883063,2.5255654455995495,0.0,22.26847620983409,18.859899000498494,367.0655409552927,368.30078856218836,0.0
0.14300000000000002,3.817933648165841,-1.811404164071909,4.835767526088657,0.0,22.109187086381553,19.323639267038377,364.3180106199096,368.30078856218836,0.0
0.14400000000000002,4.156274762219846,-1.8544131122333558,6.249360473202989,0.0,22.01650370515219,19.822255138401616,367.05759169296584,368.30078856218836,0.0
