timestamp,iq,id,iq_ref,id_ref,vq,vd,omega,omega_ref,r
0.0,0.0,0.0,0.0,0.0,0.0,0.0,0.0,102.71071827236905,0.0
0.001,0.0,0.0,10.0,0.0,0.0,1.0999999999999999,6.115472199294103,102.71071827236905,0.0
0.002,0.5307369851907212,-0.2913212625381807,10.0,0.0,0.14204533887919985,1.9316189316290207,13.317801563642547,102.71071827236905,0.0
0.003,1.0842913387634832,-0.6024330830807904,10.0,0.0,0.384357124667687,2.6386968949419622,20.697939467553027,102.71071827236905,0.0
0.004,1.5590443546685477,-0.8700465084428163,10.0,0.0,0.6994718867930164,3.2526109522886295,28.232747544420146,102.71071827236905,0.0
0.005,1.9399447555359186,-1.0838738622210777,10.0,0.0,1.065311453102468,3.7994935661768023,35.92944872443006,102.71071827236905,0.0
0.006,2.239750732602683,-1.2510087368845633,10.0,0.0,1.4655018868449925,4.299102221838433,43.75633668444442,102.71071827236905,0.0
0.007,2.4770151619816017,-1.382020589851471,10.0,0.0,1.8883740978591532,4.765668027847139,51.58766747378032,102.71071827236905,0.0
0.008,2.6680767290418097,-1.4872241871505252,10.0,0.0,2.325877945545995,5.209220346273558,59.45942083902103,102.71071827236905,0.0
0.009000000000000001,2.8266491704841292,-1.5730794701170803,10.0,0.0,2.772378685460125,5.636635464737965,67.35059094018146,102.71071827236905,0.0
0.01,2.962077666392183,-1.645500646948331,10.0,0.0,3.224078639851053,6.052647735211881,75.20908322432116,102.71071827236905,0.0
0.011,3.0811061533574158,-1.7084279320504514,10.0,0.0,3.678407615443203,6.460489925470405,83.0265951655913,102.71071827236905,0.0
0.012,3.188848746459569,-1.7638278597420747,10.0,0.0,4.133552631697047,6.862319393890706,90.74118064793086,102.71071827236905,0.0
0.013000000000000001,3.288205119878689,-1.8140726097274587,8.127089898218474,0.0,4.588339016389012,7.053608530753313,97.13359611525755,102.71071827236905,0.0
0.014,3.283849943717321,-1.8050738738187033,4.986653386126245,0.0,5.015283367848223,6.946001110198465,101.41366654939546,102.71071827236905,0.0
0.015,3.1083215783954827,-1.6958576746113545,2.8595886862870254,0.0,5.3768487475523115,6.7085406834074215,103.97107911995457,102.71071827236905,0.0
0.016,2.8276068071638663,-1.5237413993019557,1.5682787925316157,0.0,5.660670918314923,6.439332737133449,105.56398594506352,102.71071827236905,0.0
0.017,2.514291812491805,-1.3342713637005499,0.7432927032501939,0.0,5.870069536210817,6.1792499333813415,104.76549233694195,102.71071827236905,0.0
0.018000000000000002,2.2135153367984928,-1.1550390766503056,1.1219917666652526,0.0,6.014699160722397,6.045974292042049,103.61056453555982,102.71071827236905,0.0
0.019,2.002899040560031,-1.0125254128737404,1.6904572047244097,0.0,6.117654078503968,6.019393412669494,105.45483313346277,102.71071827236905,0.0
0.02,1.8856960343830051,-0.9225991008381182,0.7408817571619957,0.0,6.199188658883978,5.906414327116989,106.51084136082606,102.71071827236905,0.0
0.021,1.7625500669023517,-0.8424322789162536,0.17487641259577913,0.0,6.253352785379687,5.772495801092174,104.19525838719136,102.71071827236905,0.0
0.022,1.6392361696737547,-0.7587574938405254,1.3178224982649085,0.0,6.280306088484232,5.801102732209017,103.1741629900926,102.71071827236905,0.0
0.023,1.6066509223052743,-0.7116022112904647,1.8237357496370539,0.0,6.303074421160255,5.876116535557124,105.29486504938372,102.71071827236905,0.0
0.024,1.6243711817469928,-0.7015566560803619,0.7375432522213474,0.0,6.330433842655877,5.819090403596298,104.91767558095052,102.71071827236905,0.0
0.025,1.5935132988130671,-0.6757763049956307,0.9040684133521335,0.0,6.346619325738635,5.803254089396809,102.39329686828826,102.71071827236905,0.0
0.026000000000000002,1.5762500768119496,-0.64307211426023,2.1694319837240688,0.0,6.356262971623121,5.9297350716459345,104.21424336835526,102.71071827236905,0.0
0.027,1.6354551308562337,-0.6429422755813583,1.2439234827307093,0.0,6.3779031107967485,5.923387561280725,105.25373753771248,102.71071827236905,0.0
0.028,1.6454054068425705,-0.6368603149946401,0.698746205398662,0.0,6.396076767738744,5.8686219205547525,102.45848213733137,102.71071827236905,0.0
0.029,1.6243690929438577,-0.6024204088162866,2.098896266939593,0.0,6.40322892484019,5.983031986427122,103.3054315572802,102.71071827236905,0.0
0.03,1.6791652420241385,-0.5975458666669597,1.6694744241160673,0.0,6.4209150722440835,6.019240418558582,104.69285387405078,102.71071827236905,0.0
0.031,1.7109588107297073,-0.5998461120461669,0.955941909713959,0.0,6.440755220533944,5.976452932994483,101.7051136260337,102.71071827236905,0.0
0.032,1.704477583215974,-0.5711921120081083,2.4598680801858577,0.0,6.451157662980426,6.113526285425271,103.1656346897781,102.71071827236905,0.0
0.033,1.7757126168945905,-0.5737111890125383,1.7250583841395628,0.0,6.47479083489621,6.134163552608036,103.55001904554305,102.71071827236905,0.0
0.034,1.8048489772627805,-0.5751603739721021,1.5244731985253472,0.0,6.4982586359142,6.137891487503286,100.9279929788467,102.71071827236905,0.0
0.035,1.8244908444868724,-0.5497898787196542,2.853313484808746,0.0,6.516947203992549,6.289902450567158,103.64451172756905,102.71071827236905,0.0
0.036000000000000004,1.9073056764568284,-0.5626018906024868,1.4857161758955704,0.0,6.550631037829085,6.255943854444741,101.54607808710507,102.71071827236905,0.0
0.037,1.916755518125759,-0.5463529832410666,2.5465793979802003,0.0,6.575635128741144,6.358909094572775,102.58349686397796,102.71071827236905,0.0
0.038,1.9791597320578036,-0.5366061161345071,2.0291422236276695,0.0,6.607525668266692,6.379781533263755,102.35305776004473,102.71071827236905,0.0
0.039,2.0049161568931977,-0.5325627220967519,2.147938380717523,0.0,6.637967093035694,6.417788566469023,101.10713832144329,102.71071827236905,0.0
0.04,2.043847673865966,-0.5064490767103667,2.786933899527505,0.0,6.666333011596202,6.520115681710218,102.77962885558176,102.71071827236905,0.0
0.041,2.103650500980695,-0.5147805839832186,1.94999952662614,0.0,6.703272652078654,6.510404945263198,100.49173717990884,102.71071827236905,0.0
0.042,2.1270317615584053,-0.4873056753286459,3.116135175387204,0.0,6.732441699843428,6.64002960120946,102.84257974809212,102.71071827236905,0.0
0.043000000000000003,2.1998748250952787,-0.4939818138621197,1.9393952765383324,0.0,6.772665432751577,6.6107270265933,100.04365055075185,102.71071827236905,0.0
0.044,2.21621969264552,-0.46455713139888166,3.3655305524246404,0.0,6.802633058451006,6.755949857270401,102.61674106840705,102.71071827236905,0.0
0.045,2.295776404422511,-0.47284194314111894,2.079925065636659,0.0,6.8453317807644805,6.725381421524228,99.8102901042985,102.71071827236905,0.0
0.046,2.3153824644924588,-0.44153730087875975,3.512154829371639,0.0,6.877177428505705,6.87117993097282,102.16670067124615,102.71071827236905,0.0
0.047,2.395232488027804,-0.45200317192352246,2.3393897219090456,0.0,6.921882654655219,6.8536692528042575,100.03748742124687,102.71071827236905,0.0
0.048,2.42448880443173,-0.41989157520245657,3.4307286554199083,0.0,6.956729356023159,6.971735404259239,101.20671262419859,102.71071827236905,0.0
0.049,2.492406402900653,-0.4267515141412177,2.861156110425752,0.0,7.000973711650275,7.000734868753508,100.8441907108871,102.71071827236905,0.0
0.05,2.543552976498673,-0.40069186622315467,3.061082342696313,0.0,7.040758417503731,7.0539994862496735,99.45497159774067,102.71071827236905,0.0
0.051000000000000004,2.5861206597963284,-0.39601724926882564,3.788249366015816,0.0,7.081637503135667,7.179734243397249,101.60025886421728,102.71071827236905,0.0
0.052000000000000005,2.67419374353127,-0.3949553516547393,2.7267103268590263,0.0,7.130932093351156,7.163680106474947,99.50391818661161,102.71071827236905,0.0
0.053,2.7057531978873026,-0.3629916106243103,3.806948666519434,0.0,7.170186418315663,7.281011640878823,99.93840153591911,102.71071827236905,0.0
0.054,2.7765380175992584,-0.36835037924609004,3.6174301592301843,0.0,7.218157566182805,7.35141529951559,101.2948107177033,102.71071827236905,0.0
0.055,2.848297300925581,-0.3555467277736257,2.953384643884748,0.0,7.266909975778722,7.34124021249151,99.10163859434846,102.71071827236905,0.0
0.056,2.877934949274019,-0.32191315953751953,4.086061502342375,0.0,7.306197979721391,7.465650236228158,100.66778997444831,102.71071827236905,0.0
0.057,2.9384222702820684,-0.3539437138088044,3.3234150952716557,0.0,7.35785788229566,7.4799729557956525,103.93862714511609,102.71071827236905,0.0
0.058,2.9572076281975432,-0.37342330633722187,1.6757174212102974,0.0,7.407606516204666,7.322947597427161,102.58577288913843,102.71071827236905,0.0
0.059000000000000004,2.877237031398955,-0.3458612030084691,2.3533940030314344,0.0,7.433451123594473,7.2866056582543575,103.10980064186973,102.71071827236905,0.0
0.06,2.8157766623486133,-0.3528066216078456,2.0873893029707777,0.0,7.454116693407239,7.226406025540481,105.76438619741728,102.71071827236905,0.0
0.061,2.7631730950305,-0.345360458463406,0.7295598459465178,0.0,7.465807210835461,7.032763508521696,103.53471593562232,102.71071827236905,0.0
0.062,2.64172183375272,-0.315848535785479,1.8361550002114675,0.0,7.45379257495585,7.007791659554373,105.32109227225789,102.71071827236905,0.0
0.063,2.5820152877192046,-0.32679950438815264,0.9168630918947942,0.0,7.441981943540545,6.877280677889249,104.71759642669231,102.71071827236905,0.0
0.064,2.5016745400447546,-0.3104311886946445,1.198542233134349,0.0,7.416391252687946,6.80705777265248,104.67220150774872,102.71071827236905,0.0
0.065,2.4351247250201467,-0.3211218488416978,1.2016248602523456,0.0,7.387676996170038,6.74533745860067,105.427300950117,102.71071827236905,0.0
0.066,2.3890574285335267,-0.3250949537511818,0.7969093122907274,0.0,7.3559922688373165,6.646770118218581,104.83427628951259,102.71071827236905,0.0
0.067,2.3225580728907618,-0.3355819777354898,1.072186062421499,0.0,7.318733121788835,6.596072893291259,105.34873579784492,102.71071827236905,0.0
0.068,2.282248712751179,-0.34492783297213536,0.7885761330005718,0.0,7.281053340788658,6.516538652473143,105.25058997859418,102.71071827236905,0.0
0.069,2.2284731772580564,-0.3616267769846452,0.8122503255636935,0.0,7.240931539095693,6.4521423334158206,105.25656151061587,102.71071827236905,0.0
0.07,2.18564223846008,-0.3703214663083695,0.7838061271703802,0.0,7.199171712051782,6.390981510258885,105.55296650045257,102.71071827236905,0.0
0.07100000000000001,2.1409513564866733,-0.39013557299865365,0.6071811499711943,0.0,7.157564390239262,6.317104168834368,105.13273471689644,102.71071827236905,0.0
0.07200000000000001,2.096120862847184,-0.3976231597849621,0.7930768773039869,0.0,7.1133555599451315,6.273153054630263,105.86791481735894,102.71071827236905,0.0
0.073,2.0592800546425853,-0.4206260564529042,0.39391486162283784,0.0,7.071627944025611,6.187013573785006,104.91397919406003,102.71071827236905,0.0
0.074,2.0109311469081534,-0.4248999229727337,0.8488500640553798,0.0,7.025699237964025,6.1642997436254605,106.53064826243826,102.71071827236905,0.0
0.075,1.9845745295214288,-0.4487935593321113,0.0023162299655727914,0.0,6.984677580826972,6.044012090936699,104.71801457205633,102.71071827236905,0.0
0.076,1.9195947050799806,-0.44902309274729735,0.8885601121596647,0.0,6.935515636446827,6.044487417700052,105.06471936887515,102.71071827236905,0.0
0.077,1.9035270209742543,-0.46852843874821426,0.6916677027851974,0.0,6.893460711906979,6.010596060503136,106.00049727657483,102.71071827236905,0.0
0.078,1.8805197978736512,-0.4954401783551361,0.19088095889329537,0.0,6.854987381998178,5.9251408465375714,104.77194874313408,102.71071827236905,0.0
0.079,1.834052674666264,-0.5009907490469483,0.7845429209060242,0.0,6.812157309063728,5.919575815559809,105.01334009971768,102.71071827236905,0.0
0.08,1.8185919997081759,-0.5200713314261911,0.6408210243407351,0.0,6.7750970986797485,5.889774255157386,106.35055758917638,102.71071827236905,0.0
0.081,1.7974926931860837,-0.5427257050650288,-0.06418611355668569,0.0,6.741063928570405,5.785299580521591,104.78856029475484,102.71071827236905,0.0
0.082,1.7393093654070861,-0.5421521968748095,0.6960341134302217,0.0,6.699696978371102,5.784732525676443,104.92468498244098,102.71071827236905,0.0
0.083,1.7224795477862442,-0.5561421587705259,0.6058321024864353,0.0,6.663954648597646,5.7638305044827005,106.26110903697347,102.71071827236905,0.0
0.084,1.7048352431629836,-0.5768199584912975,-0.09788383242585197,0.0,6.631831008032488,5.666710295032421,104.78804822994263,102.71071827236905,0.0
0.085,1.6501134940007143,-0.5766220802625284,0.6178732715138289,0.0,6.592979165976446,5.667703132614759,104.68978310946845,102.71071827236905,0.0
0.08600000000000001,1.634610830800596,-0.5888122254862729,0.6472151833799256,0.0,6.559454686641141,5.661939616959523,105.74518711739788,102.71071827236905,0.0
0.08700000000000001,1.6267467486995273,-0.6059440873838389,0.08916849096492463,0.0,6.530468907030342,5.592431472051088,105.23929986323316,102.71071827236905,0.0
0.088,1.5856979503375646,-0.6137915946379658,0.31682630213864305,0.0,6.498122798068754,5.562035116824476,104.60249671185457,102.71071827236905,0.0
0.089,1.5575414074812717,-0.6192539076288526,0.6163100934330812,0.0,6.466494043837119,5.564797156885591,104.64070599375586,102.71071827236905,0.0
0.09,1.5494160066072586,-0.6328768866670103,0.5779055752685689,0.0,6.439748273599047,5.5575130112739695,105.59927114284756,102.71071827236905,0.0
0.091,1.5412642849532303,-0.6477149530896162,0.06973747201793512,0.0,6.416444623339729,5.493583692396983,104.9393424240637,102.71071827236905,0.0
0.092,1.5037135876823995,-0.6490119445728214,0.37741558989291857,0.0,6.389072694617568,5.476692273863769,104.69396471053588,102.71071827236905,0.0
0.093,1.4821770567057402,-0.6527271500301546,0.4802719822751582,0.0,6.363144519599777,5.468983737729679,104.79916374253915,102.71071827236905,0.0
0.094,1.4694212827008093,-0.6611459533432686,0.4067880115718223,0.0,6.339927224780225,5.4515292068368035,104.81341084318098,102.71071827236905,0.0
0.095,1.4545822219777627,-0.6677362916504666,0.3786375355427909,0.0,6.317926955534,5.432641425834589,104.69787182889071,102.71071827236905,0.0
0.096,1.4379806906603103,-0.672746442505535,0.41653550712270593,0.0,6.296723148323163,5.419570455479742,104.55202594323589,102.71071827236905,0.0
0.097,1.4235796413168327,-0.6778668007392336,0.47104537324144835,0.0,6.276845762695082,5.412721407111169,104.36772935238535,102.71071827236905,0.0
0.098,1.4123937726931957,-0.684625813739184,0.5466235578665535,0.0,6.258963498640607,5.4134244617193845,104.09990495740522,102.71071827236905,0.0
0.099,1.407791087512343,-0.6893967703158564,0.6666438885062611,0.0,6.243396981545837,5.425109875669105,103.96513746800744,102.71071827236905,0.0
0.1,1.4087960170126819,-0.6982764489731145,0.7214834412487641,0.0,6.2314847126420485,5.438745674912805,104.19131348727188,102.71071827236905,0.0
0.101,1.414148256106517,-0.7043236897118621,0.5935894794675141,0.0,6.222703650247699,5.434631239013079,105.16694347145565,102.71071827236905,0.0
0.10200000000000001,1.4089984099724362,-0.7087025390897135,0.08121223538476352,0.0,6.214810451526984,5.375587588698288,104.48847804125091,102.71071827236905,0.0
0.10300000000000001,1.3725183675878425,-0.6994017699252324,0.4026673527983142,0.0,6.200735334544995,5.366104125100184,103.52407373222907,102.71071827236905,0.0
0.10400000000000001,1.3544510094039184,-0.691496261107401,0.8767359527106362,0.0,6.186342784623076,5.406717099956301,103.40259093610915,102.71071827236905,0.0
0.105,1.3683491485255581,-0.6953670800149395,0.9305586241331953,0.0,6.177955632346966,5.441299861306752,104.46606752949229,102.71071827236905,0.0
0.106,1.3876809489265032,-0.7039850723044914,0.3812668348703916,0.0,6.174774742396289,5.408637791108523,104.61809661488533,102.71071827236905,0.0
0.107,1.3716243469784377,-0.7023748833721193,0.2861785087487092,0.0,6.168382433715402,5.3759165851725905,103.3145368609181,102.71071827236905,0.0
0.108,1.348417244140001,-0.6892277239347842,0.9319201998468363,0.0,6.157927149660225,5.420202953536923,102.66662469113503,102.71071827236905,0.0
0.109,1.3629335432905745,-0.6886965132999258,1.2563172205507112,0.0,6.153019069271539,5.4864125480908,103.82256428076334,102.71071827236905,0.0
0.11,1.3990770443989429,-0.6996590989186745,0.6672289656526094,0.0,6.156433952901519,5.4736360747741735,104.67868355232667,102.71071827236905,0.0
0.111,1.3988535514456841,-0.7002117070911793,0.21948967707136835,0.0,6.158180861879629,5.4195043171932,103.0325103082291,102.71071827236905,0.0
0.112,1.3694513028029094,-0.6809186644721548,1.0393583787615517,0.0,6.152212143432011,5.468855388761036,102.01612245240763,102.71071827236905,0.0
0.113,1.384968033952138,-0.6759790144290633,1.5544982648719048,0.0,6.151424972907389,5.559140318869721,103.41503192757061,102.71071827236905,0.0
0.114,1.4337492719385236,-0.6884872530770207,0.8480003907383988,0.0,6.161170315197804,5.552241105032277,104.33888589731379,102.71071827236905,0.0
0.115,1.4409609474922953,-0.6881630820203446,0.36979172961736273,0.0,6.1690904606727175,5.501162900894588,102.51798605677838,102.71071827236905,0.0
0.116,1.4158386271744956,-0.6665667198160055,1.2821689720409712,0.0,6.168738413054463,5.5639636869864635,101.41918343962173,102.71071827236905,0.0
0.117,1.4407044202943466,-0.6596704009031732,1.8444856289467697,0.0,6.174159017348851,5.670193789096363,103.4168619704256,102.71071827236905,0.0
0.11800000000000001,1.4996607976806386,-0.6743017352055188,0.8385849265642706,0.0,6.191338981387176,5.643834154012288,103.90188194870723,102.71071827236905,0.0
0.11900000000000001,1.499573443007007,-0.6694290060401926,0.584163300660075,0.0,6.203482671962056,5.604500279802778,101.66438126908466,102.71071827236905,0.0
0.12,1.4807531880560878,-0.6426261401468593,1.713377010504204,0.0,6.207579018101878,5.699141240911466,101.82396615274027,102.71071827236905,0.0
0.121,1.5245070368368019,-0.6385119347518508,1.6424520898726862,0.0,6.220545291804072,5.760632736239975,103.76544655489059,102.71071827236905,0.0
0.122,1.565810349896219,-0.644940551628436,0.6611646059723115,0.0,6.2391123775792705,5.705933509434395,101.93510557652596,102.71071827236905,0.0
0.123,1.5483781115047217,-0.6265403825908578,1.5840912221130583,0.0,6.248264527333495,5.77222629585504,100.5279339097478,102.71071827236905,0.0
0.124,1.5811365243155706,-0.613326409581852,2.309504899128348,0.0,6.261861205413743,5.899593509126206,102.99382491574669,102.71071827236905,0.0
0.125,1.6522304655242077,-0.6304308430097451,1.0737283296951297,0.0,6.288848564420244,5.864901360065635,102.18378701097447,102.71071827236905,0.0
0.126,1.6537756719203573,-0.6198644364365717,1.4840165946951833,0.0,6.308334623562708,5.894407603364615,100.14656491055767,102.71071827236905,0.0
0.127,1.6744368898139672,-0.5977897550829838,2.528269178521696,0.0,6.326500150237662,6.031419447914526,102.9660682706286,102.71071827236905,0.0
0.128,1.747043307391903,-0.6106710975841025,1.115963998503638,0.0,6.358188003188769,5.982970471282055,101.59256341324571,102.71071827236905,0.0
0.129,1.7424059376532763,-0.5942190761111485,1.813897975786313,0.0,6.379923637394483,6.034667141756243,100.54008682703666,102.71071827236905,0.0
0.13,1.774376210840038,-0.5712250300130897,2.3618425833441634,0.0,6.402290550370987,6.133099171914189,102.64652003860022,102.71071827236905,0.0
0.131,1.8292560250248777,-0.5789717554315422,1.3092679599000743,0.0,6.433346055322646,6.0969449588711,100.49878586898643,102.71071827236905,0.0
0.132,1.8304531644740982,-0.5556581556180111,2.405254368740793,0.0,6.455038625241157,6.1990130816368385,101.6880296002487,102.71071827236905,0.0
0.133,1.8872237450563019,-0.5473508647498819,1.8208593898308632,0.0,6.484088084447031,6.211567544879806,101.48177027807662,102.71071827236905,0.0
0.134,1.9071939552086055,-0.5416870846843649,1.936278530859824,0.0,6.51094810115809,6.242682545710416,99.86317528192141,102.71071827236905,0.0
0.135,1.9398841743372293,-0.515386719479049,2.7740514588419054,0.0,6.535397213909173,6.360976656794186,102.06778157854208,102.71071827236905,0.0
0.136,2.0062959434050076,-0.526511782661295,1.6781776774698414,0.0,6.570717587095627,6.333984030407769,99.5746819691899,102.71071827236905,0.0
