timestamp,iq,id,iq_ref,id_ref,vq,vd,omega,omega_ref,r
0.0,0.0,0.0,0.0,0.0,0.0,0.0,0.0,391.847711119919,0.0
0.001,0.0,0.0,10.0,0.0,0.0,1.0999999999999999,6.115472199294103,391.847711119919,0.0
0.002,0.5307369851907212,-0.2913212625381807,10.0,0.0,0.14204533887919985,1.9316189316290207,13.317801563642547,391.847711119919,0.0
0.003,1.0842913387634832,-0.6024330830807904,10.0,0.0,0.384357124667687,2.6386968949419622,20.697939467553027,391.847711119919,0.0
0.004,1.5590443546685477,-0.8700465084428163,10.0,0.0,0.6994718867930164,3.2526109522886295,28.232747544420146,391.847711119919,0.0
0.005,1.9399447555359186,-1.0838738622210777,10.0,0.0,1.065311453102468,3.7994935661768023,35.92944872443006,391.847711119919,0.0
0.006,2.239750732602683,-1.2510087368845633,10.0,0.0,1.4655018868449925,4.299102221838433,43.75633668444442,391.847711119919,0.0
0.007,2.4770151619816017,-1.382020589851471,10.0,0.0,1.8883740978591532,4.765668027847139,51.58766747378032,391.847711119919,0.0
0.008,2.6680767290418097,-1.4872241871505252,10.0,0.0,2.325877945545995,5.209220346273558,59.45942083902103,391.847711119919,0.0
0.009000000000000001,2.8266491704841292,-1.5730794701170803,10.0,0.0,2.772378685460125,5.636635464737965,67.35059094018146,391.847711119919,0.0
0.01,2.962077666392183,-1.645500646948331,10.0,0.0,3.224078639851053,6.052647735211881,75.20908322432116,391.847711119919,0.0
0.011,3.0811061533574158,-1.7084279320504514,10.0,0.0,3.678407615443203,6.460489925470405,83.0265951655913,391.847711119919,0.0
0.012,3.188848746459569,-1.7638278597420747,10.0,0.0,4.133552631697047,6.862319393890706,90.74118064793086,391.847711119919,0.0
0.013000000000000001,3.288205119878689,-1.8140726097274587,10.0,0.0,4.588339016389012,7.259628641949282,98.35820682563939,391.847711119919,0.0
0.014,3.3820602099432007,-1.8592355758795645,10.0,0.0,5.041843166194517,7.653355107498287,105.90865295623543,391.847711119919,0.0
0.015,3.4721069852858886,-1.899829032412081,10.0,0.0,5.493383198131427,8.044092747085895,113.37727610343421,391.847711119919,0.0
0.016,3.5596145800153947,-1.9360338400176071,10.0,0.0,5.94241958510469,8.43218525824161,120.68508583176356,391.847711119919,0.0
0.017,3.645144415105338,-1.9685384477868613,10.0,0.0,6.388575043274759,8.817838951066484,127.83962377537456,391.847711119919,0.0
0.018000000000000002,3.730251927866576,-1.9959253041084188,10.0,0.0,6.83136783302799,9.201036292373047,134.85405702603322,391.847711119919,0.0
0.019,3.81544967906247,-2.018253592643655,10.0,0.0,7.270383321112213,9.581672501020332,141.68976328564074,391.847711119919,0.0
0.02,3.9014648862453374,-2.0350875541282063,10.0,0.0,7.705189334130692,9.959536942333155,148.3432823300447,391.847711119919,0.0
0.021,3.9891051824829464,-2.0457889559126508,10.0,0.0,8.135310004560049,10.334315260302239,154.92060212100432,391.847711119919,0.0
0.022,4.079618141396171,-2.0489696811670974,10.0,0.0,8.560139305503519,10.705547790999272,161.01925282597162,391.847711119919,0.0
0.023,4.171109372430197,-2.048468292080302,10.0,0.0,8.979521969370257,11.072981092896333,166.534238406907,391.847711119919,0.0
0.024,4.266936196769627,-2.039517194249811,10.0,0.0,9.392730090169543,11.435983292623375,171.8647834235234,391.847711119919,0.0
0.025,4.367255527950721,-2.0225841458509217,10.0,0.0,9.79914449451603,11.793929226271104,177.02637022703064,391.847711119919,0.0
0.026000000000000002,4.4734353073349595,-1.9962166741499119,10.0,0.0,10.197980960389518,12.146045424568259,181.63161391243256,391.847711119919,0.0
0.027,4.582366840795821,-1.966358349113627,10.0,0.0,10.589124658468391,12.491912978736195,185.74793639675826,391.847711119919,0.0
0.028,4.700058850757774,-1.9240450691803936,10.0,0.0,10.971384864613876,12.830451341534015,189.43662766964098,391.847711119919,0.0
0.029,4.820934284790598,-1.879137197786803,10.0,0.0,11.344756153370636,13.161242511022618,192.73598774770625,391.847711119919,0.0
0.03,4.952016225740939,-1.821000614527957,10.0,0.0,11.707923484756042,13.483081433273819,195.59831968863915,391.847711119919,0.0
0.031,5.086039273572549,-1.7621311371320891,10.0,0.0,12.061063698547066,13.79562148058647,197.80891551030922,391.847711119919,0.0
0.032,5.230431844273564,-1.6911110488141978,10.0,0.0,12.40292038074925,14.097678592248165,200.4421589734679,391.847711119919,0.0
0.033,5.380124186618445,-1.6166151787533525,10.0,0.0,12.733312761073865,14.38869342901298,201.91742172589852,391.847711119919,0.0
0.034,5.537594793894332,-1.535029134414507,10.0,0.0,13.051537880865839,14.667821176756876,203.18880493813168,391.847711119919,0.0
0.035,5.698947813469154,-1.4530296333491768,10.0,0.0,13.357649178779205,14.934684535625108,203.60405746232266,391.847711119919,0.0
0.036000000000000004,5.870474243492053,-1.3603000477825025,10.0,0.0,13.65045542338638,15.188218311291084,204.28541056101804,391.847711119919,0.0
0.037,6.041188711220851,-1.275010780747051,10.0,0.0,13.930879897581198,15.42861600670124,205.2233356988433,391.847711119919,0.0
0.038,6.228175208801664,-1.168399557236846,10.0,0.0,14.196427351981786,15.654155009933262,200.35169734043586,391.847711119919,0.0
0.039,6.404895489618571,-1.0845312562500289,10.0,0.0,14.449814560392067,15.86612549236809,209.64773540576442,391.847711119919,0.0
0.04,6.534612624563911,-1.0851225869390002,10.0,0.0,14.699963825590459,16.069735965364643,218.170241886545,391.847711119919,0.0
0.041,6.621487035821765,-1.1484636683301073,10.0,0.0,14.952420817214799,16.26974130369247,220.68166573712315,391.847711119919,0.0
0.042,6.6704785161669795,-1.2647840534085386,10.0,0.0,15.211794475054209,16.47047148862455,233.10654395573727,391.847711119919,0.0
0.043000000000000003,6.709376245503157,-1.3867642159960276,10.0,0.0,15.477558399636717,16.673277185423842,235.10815372853793,391.847711119919,0.0
0.044,6.744196093263161,-1.5028656568708394,10.0,0.0,15.74857785831126,16.87893749904121,248.8181267625822,391.847711119919,0.0
0.045,6.750563942850831,-1.6564343609015326,10.0,0.0,16.02879294551472,17.090781462187255,251.61117095327992,391.847711119919,0.0
0.046,6.764566527560506,-1.7840489455190416,10.0,0.0,16.314672837580048,17.307985931916857,266.60539535969383,391.847711119919,0.0
0.047,6.752169677737121,-1.9446655565152717,10.0,0.0,16.610076868775216,17.533561623207692,270.0627790167984,391.847711119919,0.0
0.048,6.7291903821171735,-2.110358990489937,10.0,0.0,16.91511817760721,17.768523902508925,283.13731951482634,391.847711119919,0.0
0.049,6.714097190323873,-2.246352557911731,10.0,0.0,17.22645394156277,18.011924542904307,294.70561782835244,391.847711119919,0.0
0.05,6.666841209228205,-2.4219663531358275,10.0,0.0,17.548953774962747,18.267165921658286,300.1294548425776,391.847711119919,0.0
0.051000000000000004,6.612335516543512,-2.59336894353628,10.0,0.0,17.88182590988993,18.53465621226123,310.75154600411304,391.847711119919,0.0
0.052000000000000005,6.568447424188529,-2.726701034625408,10.0,0.0,18.22111236450049,18.81296732052879,322.35703405819294,391.847711119919,0.0
0.053,6.5036136539679195,-2.8764091099274185,10.0,0.0,18.569435851849082,19.104068797231378,330.9557012510771,391.847711119919,0.0
0.054,6.434362099984388,-3.0149932598739144,10.0,0.0,18.925784313874168,19.407861808234543,339.4707232587175,391.847711119919,0.0
0.055,6.370891759459199,-3.1253006473392393,10.0,0.0,19.28762520191878,19.723199586257838,348.00092263299223,391.847711119919,0.0
0.056,6.314459991163816,-3.2071523724558277,10.0,0.0,19.65271639484943,20.048760466390505,356.29964302226927,391.847711119919,0.0
0.057,6.266092078485367,-3.262894600420583,10.0,0.0,20.01916768432525,20.383030530514645,362.98468703488817,391.847711119919,0.0
0.058,6.234656406121481,-3.2830044001420036,10.0,0.0,20.38405550695561,20.723492962007192,368.0316803659419,391.847711119919,0.0
0.059000000000000004,6.228510489334133,-3.2600491726267444,10.0,0.0,20.743774617448285,21.0667596267365,372.35801287012686,391.847711119919,0.0
0.06,6.247959954981508,-3.201438289803519,10.0,0.0,21.095630838529225,21.40947063565305,373.88739853789605,391.847711119919,0.0
0.061,6.298571070969623,-3.1064761741463998,10.0,0.0,21.436712814499675,21.747723437683817,371.47602194372377,391.847711119919,0.0
0.062,6.38094735961424,-2.982369480030801,10.0,0.0,21.76480975788002,22.077703876517536,366.2922057853833,391.847711119919,0.0
0.063,6.53566146196873,-2.7695519558602215,10.0,0.0,22.070926190088084,22.39130117743337,372.07145994459506,391.847711119919,0.0
0.064,6.708566607552835,-2.560747003310555,10.0,0.0,22.35695033962817,22.686677966487718,365.1882535794375,391.847711119919,0.0
0.065,6.897199383751794,-2.3667028673086685,10.0,0.0,22.62465294768497,22.962098937664592,356.7297130485294,391.847711119919,0.0
0.066,7.167218997264825,-2.0824440278168583,10.0,0.0,22.863799361069702,23.20893224280502,357.7888817172531,391.847711119919,0.0
0.067,7.423387055578651,-1.859201647307153,10.0,0.0,23.082000390168847,23.42951856849048,345.1266644280509,391.847711119919,0.0
0.068,7.736929428236853,-1.5824320316278497,10.0,0.0,23.27222771500701,23.617938384108047,342.9584987314189,391.847711119919,0.0
0.069,8.04132723792414,-1.3546495884062866,10.0,0.0,23.43998591632552,23.77619061530866,334.2677598047511,391.847711119919,0.0
0.07,8.395997401416553,-1.0747195592463576,10.0,0.0,23.578279041856877,23.89942370363377,322.7417355360636,391.847711119919,0.0
0.07100000000000001,8.726669482066718,-0.8579631993863083,10.0,0.0,23.694022264374595,23.99133556844291,337.9106389559309,391.847711119919,0.0
0.07200000000000001,8.91385728821635,-0.8925675486457335,10.0,0.0,23.81335639313859,24.06834663115294,344.8606079910171,391.847711119919,0.0
0.073,8.941721008651788,-1.1508071676799903,10.0,0.0,23.95651852989837,24.148396869281978,362.43451347602996,391.847711119919,0.0
0.074,8.927907180207171,-1.4305443375681337,10.0,0.0,24.121558169292424,24.236556455607346,368.59250641149885,391.847711119919,0.0
0.075,8.859340450140312,-1.7499202918046703,10.0,0.0,24.31124378664675,24.33980824926249,387.10067316750514,391.847711119919,0.0
0.076,8.767176841935807,-2.0562826706616475,9.228309034786985,0.0,24.52279212376306,24.376269748715956,395.9755287811726,391.847711119919,0.0
0.077,8.580856272944661,-2.3806312851758387,4.749603051340711,0.0,24.74944650092107,23.96487280991571,403.9392228010182,391.847711119919,0.0
0.078,8.14842625440032,-2.5429865250438826,0.6468409246069164,0.0,24.926911336723602,23.256468324955016,411.9127490632042,391.847711119919,0.0
0.079,7.465874836637629,-2.590913197288238,-3.5405725859189356,0.0,25.019437621998016,22.287819262948585,413.6855394670147,391.847711119919,0.0
0.08,6.596568013680636,-2.497846067944127,-4.645346071295123,0.0,24.995129721594047,21.434435023731766,414.2471800795898,391.847711119919,0.0
0.081,5.750512221555025,-2.3623210085783275,-5.150161067179383,0.0,24.873937102071984,20.703849572606956,412.7781980795177,391.847711119919,0.0
0.082,5.009119233208098,-2.2162181534685113,-4.62497493673934,0.0,24.677089135921232,20.17011469974659,409.96415409149535,391.847711119919,0.0
0.083,4.438647996914334,-2.0828247219040374,-3.399117372443915,0.0,24.43334023017853,19.85499889443412,405.6591925158938,391.847711119919,0.0
0.084,4.0624591320582315,-1.9850448282111246,-1.38475139860288,0.0,24.17303278048827,19.79201752332942,400.6906244727221,391.847711119919,0.0
0.085,3.9039254051903276,-1.92927446632453,1.0111034894549258,0.0,23.927300997785977,19.966380743621023,395.80571192832343,391.847711119919,0.0
0.08600000000000001,3.9540477026156537,-1.9174642281026237,3.413979753570217,0.0,23.72283729279752,20.331993513799876,390.41482739533467,391.847711119919,0.0
0.08700000000000001,4.184373894096156,-1.9323305258795302,6.123750857310442,0.0,23.577134630463483,20.889810037143665,388.72182657795474,391.847711119919,0.0
0.088,4.587074254187009,-1.957261042951975,7.001510111420048,0.0,23.50437758059742,21.404736671139137,391.26954168536815,391.847711119919,0.0
0.089,5.0186541480678155,-1.9731417617813845,5.733434252058851,0.0,23.491886473018024,21.669182214951643,380.3412266595812,391.847711119919,0.0
0.09,5.347033109894084,-1.9084369889224768,10.0,0.0,23.49981269837504,22.35613119763002,374.4101585816658,391.847711119919,0.0
0.091,5.897571912662018,-1.83680351839916,10.0,0.0,23.568408565435227,22.875236768410648,376.1392868335576,391.847711119919,0.0
0.092,6.41018379803205,-1.780296618467017,10.0,0.0,23.67655597858015,23.298409449456194,363.12631947079444,391.847711119919,0.0
0.093,6.9056535003964985,-1.651667459868257,10.0,0.0,23.802621780068595,23.640704055305303,362.62079609808177,391.847711119919,0.0
0.094,7.374321734689424,-1.4736121529777275,10.0,0.0,23.932010669821118,23.91477697196975,348.8916015844982,391.847711119919,0.0
0.095,7.809177439566989,-1.2823377459225664,10.0,0.0,24.056608330557705,24.13123404074942,347.3370729200727,391.847711119919,0.0
0.096,8.227402756829948,-1.074592745051239,10.0,0.0,24.169452726073274,24.29684894087462,335.73704231438535,391.847711119919,0.0
0.097,8.648806049548643,-0.8330967543346728,10.0,0.0,24.263087063079716,24.41501468151244,340.26974924641024,391.847711119919,0.0
0.098,8.941611165681575,-0.7879644649524522,10.0,0.0,24.356624948524413,24.502732751939675,350.4147558997674,391.847711119919,0.0
0.099,9.018969304013169,-1.0436297621940578,10.0,0.0,24.47815535805776,24.585451459813513,366.60357067685254,391.847711119919,0.0
0.1,9.040925177184654,-1.3227235938454682,10.0,0.0,24.62394826593439,24.670409773187757,373.630782612168,391.847711119919,0.0
0.101,8.981726058469514,-1.6703542269418574,10.0,0.0,24.79910614568488,24.768183007802616,391.5442595198413,391.847711119919,0.0
0.10200000000000001,8.902801103932786,-1.986015255558673,6.510325161442198,0.0,24.997771967738696,24.49792022850158,399.15240369332776,391.847711119919,0.0
0.10300000000000001,8.573822210035118,-2.2568800072133586,2.6332061489648915,0.0,25.176183442052864,23.91836239513247,406.4785134279479,391.847711119919,0.0
0.10400000000000001,8.02363833554135,-2.3727066973108846,-1.176156741425479,0.0,25.288830273992886,23.091573201968867,412.98965756696174,391.847711119919,0.0
0.105,7.260537357377088,-2.391562175003743,-4.643148275402817,0.0,25.308449339067792,22.093891440335145,414.2985052309141,391.847711119919,0.0
0.106,6.367852920587226,-2.3014482936846834,-5.522080048488943,0.0,25.216237239749805,21.22649145993782,414.2196673507392,391.847711119919,0.0
0.107,5.525590536521351,-2.1818550073579743,-5.706380670709701,0.0,25.03425222964114,20.508848534814376,412.34310074431716,391.847711119919,0.0
0.108,4.807808806414472,-2.062582210420532,-4.97305126374266,0.0,24.78677735323113,19.997814008652075,409.3347783835286,391.847711119919,0.0
0.109,4.2695548321304795,-1.9601304118614393,-3.643760755984479,0.0,24.50286954197378,19.704054229118906,405.27685754370617,391.847711119919,0.0
0.11,3.9249454074498584,-1.8914723415852783,-1.7490918003111355,0.0,24.211448664144058,19.638924823431832,400.31381376425134,391.847711119919,0.0
0.111,3.781588258762675,-1.8594448461445467,0.6477690629729587,0.0,23.93982048973288,19.8081974680438,395.50212748940834,391.847711119919,0.0
0.112,3.839306325911301,-1.8643281709032458,3.0170680366995635,0.0,23.71313983790189,20.16225175035731,390.20149808950634,391.847711119919,0.0
0.113,4.067919589825645,-1.8938382460605843,5.683844866954686,0.0,23.547729954505062,20.703314722488077,387.48431677201256,391.847711119919,0.0
0.114,4.463199990055467,-1.9283340567494027,7.086069469180642,0.0,23.45646679508519,21.26011263562226,390.44991889560293,391.847711119919,0.0
0.115,4.916179647326053,-1.9587407036964715,5.617246329628617,0.0,23.433009515978018,21.53063669183058,381.5580367508383,391.847711119919,0.0
0.116,5.246478146964849,-1.9166037291269922,10.0,0.0,23.434011236730285,22.236750711256164,373.53825119121217,391.847711119919,0.0
0.117,5.803148386056401,-1.8622162739347872,10.0,0.0,23.49996293702442,22.770595222807014,376.1392285195367,391.847711119919,0.0
0.11800000000000001,6.326521877516901,-1.807558005567883,10.0,0.0,23.607235383475803,23.20564607156246,364.05769693081885,391.847711119919,0.0
0.11900000000000001,6.816055221111833,-1.7001665749579082,10.0,0.0,23.736019195474157,23.55930414720667,362.7504906870023,391.847711119919,0.0
0.12,7.294452172185768,-1.512650358061829,10.0,0.0,23.86773756428463,23.842746465304103,350.3798600053511,391.847711119919,0.0
0.121,7.718810020320833,-1.3405543424649746,10.0,0.0,23.997572928477105,24.06912099468872,349.2145550561221,391.847711119919,0.0
0.122,8.149676371313571,-1.1122547979787805,10.0,0.0,24.113670219451283,24.242689887426273,334.77704036967447,391.847711119919,0.0
0.123,8.560173332580552,-0.887187561480816,10.0,0.0,24.213040270031883,24.36966561775804,336.76787567676126,391.847711119919,0.0
0.124,8.883278682269532,-0.7932122193374869,10.0,0.0,24.307084273316818,24.462444161261587,353.12481826466745,391.847711119919,0.0
0.125,9.01508625443976,-0.9697000753863243,10.0,0.0,24.42135514821041,24.54408147130143,358.2718662918603,391.847711119919,0.0
0.126,9.034069088680713,-1.265358549964895,10.0,0.0,24.563120220261787,24.62821210178184,376.81089190561914,391.847711119919,0.0
0.127,8.991401110215653,-1.5983226432949018,10.0,0.0,24.732791313676582,24.722989482392926,383.6443030557386,391.847711119919,0.0
0.128,8.914194404329344,-1.923850568562866,10.0,0.0,24.927451466657182,24.83332229214722,403.75000382038513,391.847711119919,0.0
0.129,8.794725607797979,-2.2584679620510033,-0.04832840081656986,0.0,25.147231519346168,23.859141212693906,404.14667756101784,391.847711119919,0.0
0.13,8.097309854218143,-2.341306510101903,-0.3696549355439114,0.0,25.253381525171637,23.145014656571455,409.78734593599825,391.847711119919,0.0
0.131,7.357148908318549,-2.351122467693362,-3.3693854711949083,0.0,25.27775524465687,22.260602209582615,413.76139148597133,391.847711119919,0.0
0.132,6.520169520776979,-2.3026857425987712,-5.575545049841974,0.0,25.205824148158378,21.339054254117087,413.6581715789932,391.847711119919,0.0
0.133,5.665176546859962,-2.19141379806581,-5.742039700943639,0.0,25.0371758191155,20.591894601969013,411.9621757496545,391.847711119919,0.0
0.134,4.923612549365533,-2.0733069977932113,-5.095186432571644,0.0,24.798797329177447,20.048426998148607,409.1842142496116,391.847711119919,0.0
0.135,4.355072786373854,-1.9713415590886993,-3.879570713847139,0.0,24.519874797596387,19.717841236046556,405.505580448054,391.847711119919,0.0
0.136,3.97783858820962,-1.8990697962491445,-2.176832506349677,0.0,24.228855703437926,19.603377206802225,400.77074374484584,391.847711119919,0.0
0.137,3.79338328518216,-1.8629901549859529,0.10135551900512674,0.0,23.95224607286032,19.72134871313191,395.92241888716813,391.847711119919,0.0
0.138,3.8091026027110924,-1.8601552885254866,2.4847708701714897,0.0,23.715143517075422,20.035682236187164,390.7227227883435,391.847711119919,0.0
0.139,4.000113698319869,-1.8870294071562594,5.0958688028995605,0.0,23.536169070888523,20.537404743105153,386.8636542243651,391.847711119919,0.0
0.14,4.360275564517363,-1.9206310130400719,7.075243653844291,0.0,23.428691755473036,21.124970114663654,388.9932359762861,391.847711119919,0.0
0.14100000000000001,4.8207224026419855,-1.9541071382279183,6.038997529320136,0.0,23.39406506646677,21.46220286178592,384.71011018816625,391.847711119919,0.0
0.14200000000000002,5.176414954945786,-1.9438181341621026,8.25193643269758,0.0,23.39515776937423,21.981513693539917,371.92075935614986,391.847711119919,0.0
0.14300000000000002,5.637576911677953,-1.8759755207504147,10.0,0.0,23.440712487731727,22.571989426061258,375.34413777807504,391.847711119919,0.0
0.14400000000000002,6.174338160120829,-1.800653917228165,10.0,0.0,23.533152357252273,23.036060303731787,367.6413069521427,391.847711119919,0.0
0.145,6.660550891282341,-1.7278051608097151,10.0,0.0,23.655495180417013,23.414852292643992,360.11153172575894,391.847711119919,0.0
0.146,7.159132997205728,-1.539149259844768,10.0,0.0,23.78345925861454,23.71801746064149,354.92088753941124,391.847711119919,0.0
0.147,7.583457429353262,-1.3912834690297897,10.0,0.0,23.91456476781207,23.96197265318199,347.60931049343753,391.847711119919,0.0
