timestamp,iq,id,iq_ref,id_ref,vq,vd,omega,omega_ref,r
0.0,0.0,0.0,0.0,0.0,0.0,0.0,0.0,401.41520928488137,0.0
0.001,0.0,0.0,10.0,0.0,0.0,1.0999999999999999,6.115472199294103,401.41520928488137,0.0
0.002,0.5307369851907212,-0.2913212625381807,10.0,0.0,0.14204533887919985,1.9316189316290207,13.317801563642547,401.41520928488137,0.0
0.003,1.0842913387634832,-0.6024330830807904,10.0,0.0,0.384357124667687,2.6386968949419622,20.697939467553027,401.41520928488137,0.0
0.004,1.5590443546685477,-0.8700465084428163,10.0,0.0,0.6994718867930164,3.2526109522886295,28.232747544420146,401.41520928488137,0.0
0.005,1.9399447555359186,-1.0838738622210777,10.0,0.0,1.065311453102468,3.7994935661768023,35.92944872443006,401.41520928488137,0.0
0.006,2.239750732602683,-1.2510087368845633,10.0,0.0,1.4655018868449925,4.299102221838433,43.75633668444442,401.41520928488137,0.0
0.007,2.4770151619816017,-1.382020589851471,10.0,0.0,1.8883740978591532,4.765668027847139,51.58766747378032,401.41520928488137,0.0
0.008,2.6680767290418097,-1.4872241871505252,10.0,0.0,2.325877945545995,5.209220346273558,59.45942083902103,401.41520928488137,0.0
0.009000000000000001,2.8266491704841292,-1.5730794701170803,10.0,0.0,2.772378685460125,5.636635464737965,67.35059094018146,401.41520928488137,0.0
0.01,2.962077666392183,-1.645500646948331,10.0,0.0,3.224078639851053,6.052647735211881,75.20908322432116,401.41520928488137,0.0
0.011,3.0811061533574158,-1.7084279320504514,10.0,0.0,3.678407615443203,6.460489925470405,83.0265951655913,401.41520928488137,0.0
0.012,3.188848746459569,-1.7638278597420747,10.0,0.0,4.133552631697047,6.862319393890706,90.74118064793086,401.41520928488137,0.0
0.013000000000000001,3.288205119878689,-1.8140726097274587,10.0,0.0,4.588339016389012,7.259628641949282,98.35820682563939,401.41520928488137,0.0
0.014,3.3820602099432007,-1.8592355758795645,10.0,0.0,5.041843166194517,7.653355107498287,105.90865295623543,401.41520928488137,0.0
0.015,3.4721069852858886,-1.899829032412081,10.0,0.0,5.493383198131427,8.044092747085895,113.37727610343421,401.41520928488137,0.0
0.016,3.5596145800153947,-1.9360338400176071,10.0,0.0,5.94241958510469,8.43218525824161,120.68508583176356,401.41520928488137,0.0
0.017,3.645144415105338,-1.9685384477868613,10.0,0.0,6.388575043274759,8.817838951066484,127.83962377537456,401.41520928488137,0.0
0.018000000000000002,3.730251927866576,-1.9959253041084188,10.0,0.0,6.83136783302799,9.201036292373047,134.85405702603322,401.41520928488137,0.0
0.019,3.81544967906247,-2.018253592643655,10.0,0.0,7.270383321112213,9.581672501020332,141.68976328564074,401.41520928488137,0.0
0.02,3.9014648862453374,-2.0350875541282063,10.0,0.0,7.705189334130692,9.959536942333155,148.3432823300447,401.41520928488137,0.0
0.021,3.9891051824829464,-2.0457889559126508,10.0,0.0,8.135310004560049,10.334315260302239,154.92060212100432,401.41520928488137,0.0
0.022,4.079618141396171,-2.0489696811670974,10.0,0.0,8.560139305503519,10.705547790999272,161.01925282597162,401.41520928488137,0.0
0.023,4.171109372430197,-2.048468292080302,10.0,0.0,8.979521969370257,11.072981092896333,166.534238406907,401.41520928488137,0.0
0.024,4.266936196769627,-2.039517194249811,10.0,0.0,9.392730090169543,11.435983292623375,171.8647834235234,401.41520928488137,0.0
0.025,4.367255527950721,-2.0225841458509217,10.0,0.0,9.79914449451603,11.793929226271104,177.02637022703064,401.41520928488137,0.0
0.026000000000000002,4.4734353073349595,-1.9962166741499119,10.0,0.0,10.197980960389518,12.146045424568259,181.63161391243256,401.41520928488137,0.0
0.027,4.582366840795821,-1.966358349113627,10.0,0.0,10.589124658468391,12.491912978736195,185.74793639675826,401.41520928488137,0.0
0.028,4.700058850757774,-1.9240450691803936,10.0,0.0,10.971384864613876,12.830451341534015,189.43662766964098,401.41520928488137,0.0
0.029,4.820934284790598,-1.879137197786803,10.0,0.0,11.344756153370636,13.161242511022618,192.73598774770625,401.41520928488137,0.0
0.03,4.952016225740939,-1.821000614527957,10.0,0.0,11.707923484756042,13.483081433273819,195.59831968863915,401.41520928488137,0.0
0.031,5.086039273572549,-1.7621311371320891,10.0,0.0,12.061063698547066,13.79562148058647,197.80891551030922,401.41520928488137,0.0
0.032,5.230431844273564,-1.6911110488141978,10.0,0.0,12.40292038074925,14.097678592248165,200.4421589734679,401.41520928488137,0.0
0.033,5.380124186618445,-1.6166151787533525,10.0,0.0,12.733312761073865,14.38869342901298,201.91742172589852,401.41520928488137,0.0
0.034,5.537594793894332,-1.535029134414507,10.0,0.0,13.051537880865839,14.667821176756876,203.18880493813168,401.41520928488137,0.0
0.035,5.698947813469154,-1.4530296333491768,10.0,0.0,13.357649178779205,14.934684535625108,203.60405746232266,401.41520928488137,0.0
0.036000000000000004,5.870474243492053,-1.3603000477825025,10.0,0.0,13.65045542338638,15.188218311291084,204.28541056101804,401.41520928488137,0.0
0.037,6.041188711220851,-1.275010780747051,10.0,0.0,13.930879897581198,15.42861600670124,205.2233356988433,401.41520928488137,0.0
0.038,6.228175208801664,-1.168399557236846,10.0,0.0,14.196427351981786,15.654155009933262,200.35169734043586,401.41520928488137,0.0
0.039,6.404895489618571,-1.0845312562500289,10.0,0.0,14.449814560392067,15.86612549236809,209.64773540576442,401.41520928488137,0.0
0.04,6.534612624563911,-1.0851225869390002,10.0,0.0,14.699963825590459,16.069735965364643,218.170241886545,401.41520928488137,0.0
0.041,6.621487035821765,-1.1484636683301073,10.0,0.0,14.952420817214799,16.26974130369247,220.68166573712315,401.41520928488137,0.0
0.042,6.6704785161669795,-1.2647840534085386,10.0,0.0,15.211794475054209,16.47047148862455,233.10654395573727,401.41520928488137,0.0
0.043000000000000003,6.709376245503157,-1.3867642159960276,10.0,0.0,15.477558399636717,16.673277185423842,235.10815372853793,401.41520928488137,0.0
0.044,6.744196093263161,-1.5028656568708394,10.0,0.0,15.74857785831126,16.87893749904121,248.8181267625822,401.41520928488137,0.0
0.045,6.750563942850831,-1.6564343609015326,10.0,0.0,16.02879294551472,17.090781462187255,251.61117095327992,401.41520928488137,0.0
0.046,6.764566527560506,-1.7840489455190416,10.0,0.0,16.314672837580048,17.307985931916857,266.60539535969383,401.41520928488137,0.0
0.047,6.752169677737121,-1.9446655565152717,10.0,0.0,16.610076868775216,17.533561623207692,270.0627790167984,401.41520928488137,0.0
0.048,6.7291903821171735,-2.110358990489937,10.0,0.0,16.91511817760721,17.768523902508925,283.13731951482634,401.41520928488137,0.0
0.049,6.714097190323873,-2.246352557911731,10.0,0.0,17.22645394156277,18.011924542904307,294.70561782835244,401.41520928488137,0.0
0.05,6.666841209228205,-2.4219663531358275,10.0,0.0,17.548953774962747,18.267165921658286,300.1294548425776,401.41520928488137,0.0
0.051000000000000004,6.612335516543512,-2.59336894353628,10.0,0.0,17.88182590988993,18.53465621226123,310.75154600411304,401.41520928488137,0.0
0.052000000000000005,6.568447424188529,-2.726701034625408,10.0,0.0,18.22111236450049,18.81296732052879,322.35703405819294,401.41520928488137,0.0
0.053,6.5036136539679195,-2.8764091099274185,10.0,0.0,18.569435851849082,19.104068797231378,330.9557012510771,401.41520928488137,0.0
0.054,6.434362099984388,-3.0149932598739144,10.0,0.0,18.925784313874168,19.407861808234543,339.4707232587175,401.41520928488137,0.0
0.055,6.370891759459199,-3.1253006473392393,10.0,0.0,19.28762520191878,19.723199586257838,348.00092263299223,401.41520928488137,0.0
0.056,6.314459991163816,-3.2071523724558277,10.0,0.0,19.65271639484943,20.048760466390505,356.29964302226927,401.41520928488137,0.0
0.057,6.266092078485367,-3.262894600420583,10.0,0.0,20.01916768432525,20.383030530514645,362.98468703488817,401.41520928488137,0.0
0.058,6.234656406121481,-3.2830044001420036,10.0,0.0,20.38405550695561,20.723492962007192,368.0316803659419,401.41520928488137,0.0
0.059000000000000004,6.228510489334133,-3.2600491726267444,10.0,0.0,20.743774617448285,21.0667596267365,372.35801287012686,401.41520928488137,0.0
0.06,6.247959954981508,-3.201438289803519,10.0,0.0,21.095630838529225,21.40947063565305,373.88739853789605,401.41520928488137,0.0
0.061,6.298571070969623,-3.1064761741463998,10.0,0.0,21.436712814499675,21.747723437683817,371.47602194372377,401.41520928488137,0.0
0.062,6.38094735961424,-2.982369480030801,10.0,0.0,21.76480975788002,22.077703876517536,366.2922057853833,401.41520928488137,0.0
0.063,6.53566146196873,-2.7695519558602215,10.0,0.0,22.070926190088084,22.39130117743337,372.07145994459506,401.41520928488137,0.0
0.064,6.708566607552835,-2.560747003310555,10.0,0.0,22.35695033962817,22.686677966487718,365.1882535794375,401.41520928488137,0.0
0.065,6.897199383751794,-2.3667028673086685,10.0,0.0,22.62465294768497,22.962098937664592,356.7297130485294,401.41520928488137,0.0
0.066,7.167218997264825,-2.0824440278168583,10.0,0.0,22.863799361069702,23.20893224280502,357.7888817172531,401.41520928488137,0.0
0.067,7.423387055578651,-1.859201647307153,10.0,0.0,23.082000390168847,23.42951856849048,345.1266644280509,401.41520928488137,0.0
0.068,7.736929428236853,-1.5824320316278497,10.0,0.0,23.27222771500701,23.617938384108047,342.9584987314189,401.41520928488137,0.0
0.069,8.04132723792414,-1.3546495884062866,10.0,0.0,23.43998591632552,23.77619061530866,334.2677598047511,401.41520928488137,0.0
0.07,8.395997401416553,-1.0747195592463576,10.0,0.0,23.578279041856877,23.89942370363377,322.7417355360636,401.41520928488137,0.0
0.07100000000000001,8.726669482066718,-0.8579631993863083,10.0,0.0,23.694022264374595,23.99133556844291,337.9106389559309,401.41520928488137,0.0
0.07200000000000001,8.91385728821635,-0.8925675486457335,10.0,0.0,23.81335639313859,24.06834663115294,344.8606079910171,401.41520928488137,0.0
0.073,8.941721008651788,-1.1508071676799903,10.0,0.0,23.95651852989837,24.148396869281978,362.43451347602996,401.41520928488137,0.0
0.074,8.927907180207171,-1.4305443375681337,10.0,0.0,24.121558169292424,24.236556455607346,368.59250641149885,401.41520928488137,0.0
0.075,8.859340450140312,-1.7499202918046703,10.0,0.0,24.31124378664675,24.33980824926249,387.10067316750514,401.41520928488137,0.0
0.076,8.767176841935807,-2.0562826706616475,10.0,0.0,24.52279212376306,24.461155754889383,396.7190369145668,401.41520928488137,0.0
0.077,8.62162972262067,-2.4016532593838043,9.190202161947774,0.0,24.76024751870129,24.517534128522094,407.7849064321846,401.41520928488137,0.0
0.078,8.43144196908026,-2.674918709997149,3.5935704316658494,0.0,25.00620070518922,24.003953874031154,420.8668862239621,401.41520928488137,0.0
0.079,7.898918074430898,-2.820157713704182,-3.1419362336137286,0.0,25.1894441834809,22.938063298636195,420.6195809070137,401.41520928488137,0.0
0.08,7.008343836731925,-2.7266280247727703,-3.210327291360838,0.0,25.236033600584395,22.1495561061109,421.97361831838526,401.41520928488137,0.0
0.081,6.162888897085889,-2.593482588608805,-4.09293008738166,0.0,25.185402655636288,21.432250478547747,421.8001328771737,401.41520928488137,0.0
0.082,5.402684937525422,-2.4407795355104804,-4.210036602698814,0.0,25.052638360947494,20.852724516676613,419.29215130844216,401.41520928488137,0.0
0.083,4.780139879649218,-2.2826898593766694,-3.134815238568639,0.0,24.859335065696733,20.498198053501973,414.9101398064984,401.41520928488137,0.0
0.084,4.348890044559373,-2.1536421809483146,-1.0787587928129412,0.0,24.637295105787807,20.416419933792678,409.80825327980057,401.41520928488137,0.0
0.085,4.151719091124434,-2.0648373670481135,1.3882540305867925,0.0,24.420803277154107,20.58880278270678,404.721678011797,401.41520928488137,0.0
0.08600000000000001,4.179759772023203,-2.0263009568826824,3.8984769773194223,0.0,24.239847959295982,20.968696375339462,399.2056771065288,401.41520928488137,0.0
0.08700000000000001,4.407067774466377,-2.0176213375719945,6.67857275173704,0.0,24.114408138464423,21.54848990918193,398.1551960462218,401.41520928488137,0.0
0.088,4.81838883157937,-2.024897022069875,7.2364134142771315,0.0,24.06037877458814,22.048349386434225,400.21798165353164,401.41520928488137,0.0
0.089,5.243657371357868,-2.0233724825282975,6.216992886935719,0.0,24.061497838630167,22.332438986136207,387.2461456086148,401.41520928488137,0.0
0.09,5.592540567953935,-1.931089195098201,10.0,0.0,24.080778040016277,22.980432053754882,382.78428544203655,401.41520928488137,0.0
0.091,6.139284157818814,-1.828608245936243,10.0,0.0,24.15257945649216,23.471070800700502,382.46552466156965,401.41520928488137,0.0
0.092,6.643466237333708,-1.7529533508737187,10.0,0.0,24.25896737704973,23.869833221751144,368.3896775870904,401.41520928488137,0.0
0.093,7.1504396582623135,-1.5849808380320782,10.0,0.0,24.376872320194664,24.188632937245487,367.4549634761252,401.41520928488137,0.0
0.094,7.614626609952062,-1.4047393530573231,10.0,0.0,24.496719902355732,24.4413523450283,353.6111346308983,401.41520928488137,0.0
0.095,8.071563687418575,-1.1776940819779447,10.0,0.0,24.606682102109982,24.635163361244516,348.0974227660451,401.41520928488137,0.0
0.096,8.487081033975054,-0.9804151129986991,10.0,0.0,24.70559894963352,24.779451958467995,341.9786539024355,401.41520928488137,0.0
0.097,8.924803504329653,-0.7227117330721451,10.0,0.0,24.782678390024916,24.875209082448034,351.90671585096305,401.41520928488137,0.0
0.098,9.106188083119278,-0.859609019576677,10.0,0.0,24.879261334089943,24.9535233591059,362.4733305874514,401.41520928488137,0.0
0.099,9.14220721429944,-1.1670013699147574,10.0,0.0,25.0064615970864,25.031516243862562,378.54783040524626,401.41520928488137,0.0
0.1,9.136201663920698,-1.4704833111720435,10.0,0.0,25.159050212293778,25.11545066829666,387.92453426324454,401.41520928488137,0.0
0.101,9.047926394931922,-1.8416998796986588,10.0,0.0,25.3425724115492,25.215900735893065,403.1127550630622,401.41520928488137,0.0
0.10200000000000001,8.947609454247937,-2.164848596343535,5.622878802932448,0.0,25.549621590784398,24.853326795763294,414.4204094214334,401.41520928488137,0.0
0.10300000000000001,8.545667133826457,-2.4247012021033245,-0.16100037761868524,0.0,25.725060757550217,23.9984701555196,417.95565978381154,401.41520928488137,0.0
0.10400000000000001,7.821904079965151,-2.471770737339971,-2.0940300637970477,0.0,25.80004946643351,23.167443135023262,423.54955226674525,401.41520928488137,0.0
0.105,7.000741471312472,-2.45066501256305,-5.112319735082542,0.0,25.781644277301023,22.197426376898456,424.749921685149,401.41520928488137,0.0
0.106,6.103613776891342,-2.3466742639783487,-5.945851568287088,0.0,25.65685000617276,21.351537591033033,423.4752698467824,401.41520928488137,0.0
0.107,5.278829601276897,-2.2114022122372265,-5.529126254722801,0.0,25.446106265365103,20.71368834183883,420.7800013752617,401.41520928488137,0.0
0.108,4.619235110650197,-2.083041925717474,-4.375139939866251,0.0,25.179885062719013,20.30562843719464,416.9314652016193,401.41520928488137,0.0
0.109,4.161416679326311,-1.9838608271875706,-2.6060344122124297,0.0,24.889853671900042,20.138578230182976,411.9691919602507,401.41520928488137,0.0
0.11,3.9173578473441553,-1.924423775368324,-0.23043761828184106,0.0,24.606574134746975,20.225122784051216,406.817854006285,401.41520928488137,0.0
0.111,3.8946631126459756,-1.9037181235958154,2.291204911486976,0.0,24.35859375551926,20.52836547164956,401.38704332965744,401.41520928488137,0.0
0.112,4.067285067469857,-1.9186699996375711,5.006891909353002,0.0,24.167587445856462,21.03077963465526,396.78454633297844,401.41520928488137,0.0
0.113,4.423109547545057,-1.945487916091362,7.354447037211536,0.0,24.04872363551002,21.657511471219856,398.2246073505814,401.41520928488137,0.0
0.114,4.905349708927894,-1.9801156020491577,6.666322547753063,0.0,24.007960256145488,22.06102632502298,395.2272428846683,401.41520928488137,0.0
0.115,5.307548867502808,-1.9752679037805116,8.226884444711718,0.0,24.010745176428607,22.559236903239963,381.7535688835323,401.41520928488137,0.0
0.116,5.7789366701992675,-1.8975016482665719,10.0,0.0,24.054566851381256,23.139511341064814,383.6090647459385,401.41520928488137,0.0
0.117,6.32498190247024,-1.8028754624684737,10.0,0.0,24.142402584738484,23.59305824952672,375.5918342321661,401.41520928488137,0.0
0.11800000000000001,6.819539292118951,-1.7127063496540513,10.0,0.0,24.257837095054562,23.961093179939517,367.41214325534645,401.41520928488137,0.0
0.11900000000000001,7.328583524234184,-1.5077482372674362,10.0,0.0,24.376887946145935,24.25281877670645,361.0777378085444,401.41520928488137,0.0
0.12,7.764827872748959,-1.345892248003377,10.0,0.0,24.497451694109685,24.484380462890353,354.14455446567615,401.41520928488137,0.0
0.121,8.228143005806029,-1.0905996932454465,10.0,0.0,24.602651614764717,24.658240134101117,340.90093973680234,401.41520928488137,0.0
0.122,8.63924840536064,-0.8871620684132742,10.0,0.0,24.694892297291357,24.784645387635866,346.5824460767879,401.41520928488137,0.0
0.123,8.9880717810238,-0.7715020356173419,10.0,0.0,24.779861209559584,24.873374666742404,358.02366868588064,401.41520928488137,0.0
0.124,9.127339202445853,-0.9513247297296124,10.0,0.0,24.88614325519195,24.949896726565314,365.32348485534413,401.41520928488137,0.0
0.125,9.137294128885609,-1.2739079011533851,10.0,0.0,25.023135224158867,25.02969241727502,383.8310408753073,401.41520928488137,0.0
0.126,9.104353653568154,-1.596541636139353,10.0,0.0,25.18667144443427,25.118930737359758,391.61396328048033,401.41520928488137,0.0
0.127,9.005553649943405,-1.9609841953415925,10.0,0.0,25.379640218853,25.226137443109124,408.2671942979902,401.41520928488137,0.0
0.128,8.89004964102321,-2.286578596770859,2.6131026989201063,0.0,25.596203744969994,24.541079093551595,415.7887470326045,401.41520928488137,0.0
0.129,8.317042058671017,-2.4635840168643974,-1.2914090458642553,0.0,25.73881973571553,23.652431406615595,419.2393511374398,401.41520928488137,0.0
0.13,7.52295171756839,-2.462612650452864,-3.194952516807515,0.0,25.776432454186708,22.778185284789586,423.70224719018427,401.41520928488137,0.0
0.131,6.663925060240547,-2.408328625828718,-5.649270922232763,0.0,25.71689775958362,21.830737486000995,423.8525602578384,401.41520928488137,0.0
0.132,5.7783998658170335,-2.288002517185819,-5.948800965789388,0.0,25.555878722857514,21.052493381707283,421.8651127291058,401.41520928488137,0.0
0.133,5.005253300766192,-2.1532405611301955,-5.159576235865353,0.0,25.319516625294956,20.5019726751089,418.84691770784355,401.41520928488137,0.0
0.134,4.420184044287854,-2.034883301325295,-3.824795809463838,0.0,25.040066987810825,20.178427581581133,414.6099047096251,401.41520928488137,0.0
0.135,4.038689096792794,-1.9524652424026614,-1.8382362646020454,0.0,24.7483253908389,20.100579530988192,409.3173899248967,401.41520928488137,0.0
0.136,3.87469593162556,-1.907199912068594,0.728999321361993,0.0,24.47381814275734,20.278096743458214,404.3074409347644,401.41520928488137,0.0
0.137,3.9289636055156802,-1.9041932616384505,3.2050514999293274,0.0,24.244635262486973,20.649495517876264,398.79802593278293,401.41520928488137,0.0
0.138,4.166477924044176,-1.927976011310791,5.985930834441031,0.0,24.07815671665371,21.216388433536853,396.125377434815,401.41520928488137,0.0
0.139,4.580432140619442,-1.9582250993351875,7.375153401925665,0.0,23.988104889155785,21.791790071488254,398.9880510099655,401.41520928488137,0.0
0.14,5.052101928905471,-1.9840683924190532,5.9680881970995765,0.0,23.967138679561774,22.0842328301433,389.06626536979644,401.41520928488137,0.0
0.14100000000000001,5.406071650921142,-1.9345837852508387,10.0,0.0,23.97181162707333,22.76869567080188,380.92002456200913,401.41520928488137,0.0
0.14200000000000002,5.96969519089913,-1.8597979805752867,10.0,0.0,24.03673197145696,23.286401511939328,382.85024191057727,401.41520928488137,0.0
0.14300000000000002,6.495766574622831,-1.7884560087224086,10.0,0.0,24.139831106658903,23.706597186591566,369.87901985793667,401.41520928488137,0.0
0.14400000000000002,6.996383739148381,-1.6558412660454125,10.0,0.0,24.260765693829942,24.045276033038213,368.36444307274417,401.41520928488137,0.0
0.145,7.476942625262104,-1.4638962844718177,10.0,0.0,24.38368690638221,24.314325147730035,354.7462193534701,401.41520928488137,0.0
