timestamp,iq,id,iq_ref,id_ref,vq,vd,omega,omega_ref,r
0.0,0.0,0.0,0.0,0.0,0.0,0.0,0.0,35.27380608067637,0.0
0.001,0.0,0.0,10.0,0.0,0.0,1.0999999999999999,6.115472199294103,35.27380608067637,0.0
0.002,0.5307369851907212,-0.2913212625381807,10.0,0.0,0.14204533887919985,1.9316189316290207,13.317801563642547,35.27380608067637,0.0
0.003,1.0842913387634832,-0.6024330830807904,10.0,0.0,0.384357124667687,2.6386968949419622,20.697939467553027,35.27380608067637,0.0
0.004,1.5590443546685477,-0.8700465084428163,8.004890345676772,0.0,0.6994718867930166,3.033148890313074,26.997937823822166,35.27380608067637,0.0
0.005,1.8343299064469714,-1.0258042461360766,4.937649850110745,0.0,1.0369775891355628,3.076687923854002,31.369043715281073,35.27380608067637,0.0
0.006,1.8620426388235631,-1.0414726335132007,2.7911445280352445,0.0,1.345252569832498,2.9438848987588044,34.111539013898025,35.27380608067637,0.0
0.007,1.7227045122340379,-0.9616847519023386,1.431519549394552,0.0,1.6004863990992537,2.7427003010617135,35.78753800128685,35.27380608067637,0.0
0.008,1.5045682737585615,-0.8354132204867086,0.5883827364940358,0.0,1.7969863960300148,2.5306103513947646,36.726723711492795,35.27380608067637,0.0
0.009000000000000001,1.2681343113431467,-0.6990650835625548,0.10426070508289775,0.0,1.938891818553503,2.3383837145423074,37.2393243859009,35.27380608067637,0.0
0.01,1.0491396387289778,-0.5739376927737504,-0.17169481517340013,0.0,2.034983503521871,2.175781471076767,36.85051308872001,35.27380608067637,0.0
0.011,0.8631045323192146,-0.4689115020713771,0.006943763336610398,0.0,2.0949041885774746,2.0797323342722156,36.40106925371868,35.27380608067637,0.0
0.012,0.7326400823286855,-0.39231927314401266,0.2203930491068501,0.0,2.131853008172076,2.0334639537381656,36.67988800339791,35.27380608067637,0.0
0.013000000000000001,0.6532306631467392,-0.342555157994534,0.06692285504001871,0.0,2.1557719773766437,1.9839314706220357,37.11639337330223,35.27380608067637,0.0
0.014,0.5924997141064415,-0.30766185999967266,-0.16975570283839847,0.0,2.169005179721201,1.9231305035146316,36.65692244184403,35.27380608067637,0.0
0.015,0.5358352139361269,-0.27769236614116366,0.04614859927902448,0.0,2.1718872537760756,1.9014749976924554,36.151976360316496,35.27380608067637,0.0
0.016,0.50403889440176,-0.2586789582123862,0.2898399372463908,0.0,2.170523789909664,1.9098512041602973,36.16088525751085,35.27380608067637,0.0
0.017,0.4975853345898898,-0.2513052011158392,0.2765146968808698,0.0,2.1695133138753464,1.9137426821587953,36.6242299976394,35.27380608067637,0.0
0.018000000000000002,0.4967445045990772,-0.24948575677213677,0.03133808764696555,0.0,2.1688666319374676,1.890335745842808,36.48442474858648,35.27380608067637,0.0
0.019,0.48339044906533646,-0.2448402087568714,0.08913452549432432,0.0,2.1654511087235364,1.8794747470289836,35.970100499673926,35.27380608067637,0.0
0.02,0.4743204984181798,-0.23936457481709073,0.3393337057606244,0.0,2.1607351736963922,1.8971663952418187,35.84684810256564,35.27380608067637,0.0
0.021,0.481629023841429,-0.2400500667699295,0.395229484095876,0.0,2.158390157447456,1.9153691916418405,36.33808838155003,35.27380608067637,0.0
0.022,0.49319658294884455,-0.24505131460041996,0.13896652159494316,0.0,2.1586432048052413,1.9015699768709282,36.44076330803007,35.27380608067637,0.0
0.023,0.48900789921495924,-0.24494357914832707,0.07595948608138547,0.0,2.157429162572122,1.885384274833206,35.89210883316202,35.27380608067637,0.0
0.024,0.48000140040450207,-0.2396801548916847,0.3441036959905548,0.0,2.154140055044832,1.9017705002528986,35.66789912662059,35.27380608067637,0.0
0.025,0.48635715393964196,-0.23982973510004005,0.45226761880182753,0.0,2.152887568877727,1.9246165839110718,36.21039222942622,35.27380608067637,0.0
0.026000000000000002,0.4996873186802661,-0.2453795376805979,0.1716552059115144,0.0,2.154653922174926,1.9117010453545533,36.41838517217315,35.27380608067637,0.0
0.027,0.4962860781285993,-0.24527065566722736,0.056212943623079714,0.0,2.154884611239478,1.890868609368671,35.82122822435021,35.27380608067637,0.0
0.028,0.48490487874009935,-0.238669760614653,0.3493171960978141,0.0,2.1522839781633367,1.9067562958101556,35.55317987478616,35.27380608067637,0.0
0.029,0.49005925206716056,-0.23795419044298688,0.4805476329387399,0.0,2.1515194732706013,1.9316186627677705,36.12610486454937,35.27380608067637,0.0
0.03,0.5038857523451916,-0.24348322045402054,0.1855621502184056,0.0,2.1539330045658303,1.9186882637753908,36.36250145663657,35.27380608067637,0.0
0.031,0.500539568517128,-0.24320674835527373,0.056476900415201925,0.0,2.1547264406013262,1.8965490803844907,35.72743478275089,35.27380608067637,0.0
0.032,0.4884997391704822,-0.23600407164394815,0.3694739503372976,0.0,2.152437084976924,1.9137146063155432,35.46304915175743,35.27380608067637,0.0
0.033,0.4941100537031931,-0.23511055456358163,0.49977433512321656,0.0,2.15206695739634,1.939400183026215,36.07802074816912,35.27380608067637,0.0
0.034,0.5083045798616916,-0.24090367259556558,0.18424639024244294,0.0,2.154948578399204,1.9249638167909102,36.2621498349021,35.27380608067637,0.0
0.035,0.5042610324289462,-0.24028041217075347,0.08229840933369903,0.0,2.1559719108512017,1.904786986307455,35.61302471427446,35.27380608067637,0.0
0.036000000000000004,0.4931305726681339,-0.23301415256837527,0.4034687833115369,0.0,2.154082171057641,1.924262308163556,35.46098576802134,35.27380608067637,0.0
0.037,0.5002699036224788,-0.23235413437058772,0.4776164595646478,0.0,2.154328998023314,1.9456490335001695,36.07052829526413,35.27380608067637,0.0
0.038,0.5125645487932206,-0.23744000926816694,0.164877973797373,0.0,2.157255861246792,1.9284980411435184,36.07207653903271,35.27380608067637,0.0
0.039,0.50650468757751,-0.2359174276314138,0.15612114732952231,0.0,2.157956596183238,1.9163084994765256,35.42310374877022,35.27380608067637,0.0
0.04,0.4988723884292967,-0.22999593986776662,0.47911456577982914,0.0,2.1567321656217073,1.9418037840582363,35.55224405119445,35.27380608067637,0.0
0.041,0.5102836574225587,-0.2308646798445343,0.411760034862532,0.0,2.1583344828495816,1.9526566019594747,36.211569206288054,35.27380608067637,0.0
0.042,0.5185238664402024,-0.23393116783005852,0.07271982605961291,0.0,2.1611904764234318,1.9251711818322204,35.795260924150405,35.27380608067637,0.0
0.043000000000000003,0.5059704336561622,-0.22918701676382658,0.27565941869369714,0.0,2.1604598071300307,1.927896940049276,35.118965125010526,35.27380608067637,0.0
0.044,0.5041517619188053,-0.22518220151726512,0.6153557278202952,0.0,2.1596816924212163,1.9656887731561405,35.745547018202,35.27380608067637,0.0
0.045,0.5231329548789898,-0.23049673258331396,0.2973473718493036,0.0,2.1633852190637004,1.959139611290367,36.26842447111303,35.27380608067637,0.0
0.046,0.5244665604111673,-0.23167776996042605,0.02596246148942083,0.0,2.166140245656181,1.9269865770166055,35.45878012070121,35.27380608067637,0.0
0.047,0.5085289936725464,-0.22285582087627798,0.4289348962950802,0.0,2.1644222413890093,1.947131634158259,35.14100775707924,35.27380608067637,0.0
0.048,0.5148502652775532,-0.22083062932723804,0.5891490613420399,0.0,2.1647559916831676,1.9778295034222029,35.89433057810449,35.27380608067637,0.0
0.049,0.5314170458265207,-0.22774382799120407,0.20628240585513358,0.0,2.1689068576428316,1.9600143538908013,35.87940479446758,35.27380608067637,0.0
0.05,0.5263907378939653,-0.2265250144955415,0.20768931053567374,0.0,2.170657920582226,1.9490977936563068,35.12723752888433,35.27380608067637,0.0
0.051000000000000004,0.5199400650404465,-0.22029622800166254,0.5852386288452207,0.0,2.1704692428248613,1.9816236626410058,35.56336293755587,35.27380608067637,0.0
0.052000000000000005,0.5351191127216558,-0.22246102962745848,0.3642803559406541,0.0,2.1738524357854794,1.9810629717754336,36.17089151936004,35.27380608067637,0.0
0.053,0.5380779412631649,-0.22411044216476522,0.051545210651733564,0.0,2.1770010277263245,1.9485317053769908,35.323837255755535,35.27380608067637,0.0
0.054,0.5224819603347829,-0.215411669889895,0.47457203070319454,0.0,2.175608274757632,1.9709738726585644,35.09907676926928,35.27380608067637,0.0
0.055,0.530362867073393,-0.21340927727419448,0.5886995670603924,0.0,2.1764657383489876,1.9983334491633564,35.85062940909558,35.27380608067637,0.0
0.056,0.5454706187490346,-0.21997830878496388,0.2071550138630499,0.0,2.180716030624029,1.9783485945445916,35.569333039582034,35.27380608067637,0.0
0.057,0.5392038614841617,-0.21761206311226627,0.34484792903076733,0.0,2.1822168308705847,1.9805893416315212,34.88574618909909,35.27380608067637,0.0
0.058,0.5395105438119224,-0.2131675916454636,0.6905219531880133,0.0,2.1833263963965566,2.0193069049113315,35.778393441564575,35.27380608067637,0.0
0.059000000000000004,0.5587750582110863,-0.2191664579368548,0.23915245334638785,0.0,2.1889010817046337,1.9990402534309766,35.829981708517835,35.27380608067637,0.0
0.06,0.5527878877157661,-0.2175863310304179,0.20779656359134313,0.0,2.191657830711245,1.9832735166533024,35.00997757003852,35.27380608067637,0.0
0.061,0.5440764911224363,-0.20889011677862893,0.6204369179373779,0.0,2.191621448840796,2.0159615082499838,35.55597104110483,35.27380608067637,0.0
0.062,0.558222150760001,-0.21076212362925972,0.344618532799938,0.0,2.195150387213147,2.0092675000653086,35.93052400976848,35.27380608067637,0.0
0.063,0.5575624039707974,-0.21135640670246886,0.1507748691771918,0.0,2.197703681999342,1.9852451961323971,35.018364519058224,35.27380608067637,0.0
0.064,0.5464604381562057,-0.20220686176797947,0.6094090301485028,0.0,2.1965870241401007,2.0174832651861805,35.37568514441782,35.27380608067637,0.0
0.065,0.560149837204249,-0.20350317369835913,0.4297299268312891,0.0,2.199039928733848,2.0204179650206235,35.89526091944275,35.27380608067637,0.0
0.066,0.5644287080702596,-0.2063054078157871,0.1637274909311625,0.0,2.201836295485278,1.9955072266103744,34.934504908651114,35.27380608067637,0.0
0.067,0.5542506608818311,-0.1984462725228295,0.6474985080472322,0.0,2.2009694244971407,2.03040440885745,35.29031228307008,35.27380608067637,0.0
0.068,0.5698903796655963,-0.20026223571576054,0.4694297588138124,0.0,2.2039573061366777,2.0354777636560684,35.81177650760024,35.27380608067637,0.0
0.069,0.5756290062419774,-0.2040066513266377,0.20331794227949201,0.0,2.207547461177389,2.0123761070767747,34.8875917445588,35.27380608067637,0.0
0.07,0.5668511553202832,-0.19654366559583933,0.6692724671613905,0.0,2.2076100624696036,2.046882697428982,35.32077159369833,35.27380608067637,0.0
0.07100000000000001,0.5824176758912147,-0.19855243166308278,0.45221288746140353,0.0,2.2114126567925223,2.0476086940873537,35.70412046083439,35.27380608067637,0.0
0.07200000000000001,0.5857544825045015,-0.2012949092913244,0.2562353100917949,0.0,2.21518917622742,2.0290440292767706,34.82376308203768,35.27380608067637,0.0
0.073,0.5788951358128374,-0.19355387160964918,0.7009144294765366,0.0,2.2158526383165036,2.0643758579989697,35.39570557385847,35.27380608067637,0.0
0.074,0.594821673945308,-0.1965915083952109,0.4137241886343196,0.0,2.220394487492127,2.0583826197098776,35.462090080261326,35.27380608067637,0.0
0.075,0.5949695157429085,-0.1977717478497321,0.37864909543704256,0.0,2.22398227789342,2.052599535107567,34.67572841435566,35.27380608067637,0.0
0.076,0.5940007070039625,-0.1913849373778648,0.7778107050530827,0.0,2.2259186292479027,2.092120113374615,35.594380880653816,35.27380608067637,0.0
0.077,0.612946967790864,-0.19716990646795968,0.3152787239042305,0.0,2.2323136179982708,2.0709183581539232,35.152239821279636,35.27380608067637,0.0
0.078,0.606879285932097,-0.19443481133326293,0.5375649161852878,0.0,2.2355902221958157,2.082409985905074,34.94142887151358,35.27380608067637,0.0
0.079,0.6129104670061563,-0.18964596986047072,0.6462941631599439,0.0,2.2391889071380606,2.102093359808533,35.66438235304913,35.27380608067637,0.0
0.08,0.6226073901841803,-0.19379349253564196,0.2809116596684424,0.0,2.244900176885423,2.077882547223217,34.89753768629758,35.27380608067637,0.0
0.081,0.613819574073344,-0.18670533242216025,0.668096676988003,0.0,2.2467980655602835,2.1039717488152068,35.33566055810241,35.27380608067637,0.0
0.082,0.6251304898912442,-0.18619762988154778,0.4484166963113281,0.0,2.2511301198485247,2.0982730921667776,35.3475700155722,35.27380608067637,0.0
0.083,0.623772699959565,-0.18642985365281808,0.4417243282274742,0.0,2.254489724683345,2.0953006119802224,34.69623019189886,35.27380608067637,0.0
0.084,0.6243186185946601,-0.17960630906236338,0.773169998951919,0.0,2.256463208873364,2.1294136588071537,35.579509386300245,35.27380608067637,0.0
0.085,0.6404681215134065,-0.18532180416558156,0.3284733686949893,0.0,2.262347589234333,2.1063106772001756,34.86896209211154,35.27380608067637,0.0
0.08600000000000001,0.6339482739368476,-0.18018875329518488,0.6877954556749912,0.0,2.2647114428517314,2.1309575059229706,35.292921943132335,35.27380608067637,0.0
0.08700000000000001,0.6456450510765384,-0.17949280547502838,0.4756243715400332,0.0,2.2692783702281565,2.1250921530494504,35.21267720037372,35.27380608067637,0.0
0.088,0.644338810351657,-0.17963852747567224,0.5163580317223677,0.0,2.2728250584778604,2.127133095913463,34.76122356599209,35.27380608067637,0.0
0.089,0.6477078904303447,-0.17343978833587073,0.747210674060025,0.0,2.275537853663609,2.1539274061554616,35.49622731458146,35.27380608067637,0.0
0.09,0.6604851206953428,-0.17869725495356922,0.37748458742628865,0.0,2.281299109074329,2.133963364410384,34.75638485329194,35.27380608067637,0.0
0.091,0.6553794081607264,-0.17253699291731486,0.7525800303448928,0.0,2.283757631279303,2.1622190126497265,35.370077535128736,35.27380608067637,0.0
0.092,0.6684247411741444,-0.1739800086959491,0.4447709748819716,0.0,2.289016200443727,2.148798953998704,34.85681523731908,35.27380608067637,0.0
0.093,0.6649741809278418,-0.1710824699747792,0.7055720322203712,0.0,2.2920737474094905,2.1695229799483062,35.20728565508396,35.27380608067637,0.0
0.094,0.6762060189713068,-0.1695229397820659,0.5310020275938581,0.0,2.296755369339652,2.1653996391299795,35.065451885909795,35.27380608067637,0.0
0.095,0.6756404010308918,-0.16983124667750832,0.6040024541286051,0.0,2.30060600405539,2.1721070779054696,34.867496771438525,35.27380608067637,0.0
0.096,0.6817504994299418,-0.16453759397428755,0.7070431044566188,0.0,2.3041569343107944,2.1884555365424196,35.3565121959188,35.27380608067637,0.0
0.097,0.6897430706969914,-0.16846644930950988,0.46170833106405507,0.0,2.3094727280182594,2.1746889289093665,34.64606419076828,35.27380608067637,0.0
0.098,0.6874306266361357,-0.16129731824185004,0.8232097525383985,0.0,2.312052388620879,2.205383360065835,35.38674234269758,35.27380608067637,0.0
0.099,0.7013948929227976,-0.16527886559420832,0.45174131395353545,0.0,2.3179531877983193,2.1872305779756984,34.63132815158318,35.27380608067637,0.0
0.1,0.6974605540705741,-0.15953532677173482,0.835873188801666,0.0,2.3207770241050056,2.2180247645680726,35.35802469046932,35.27380608067637,0.0
0.101,0.7119337469704594,-0.16223884646590947,0.47168273326066745,0.0,2.326752717994845,2.2004882526663776,34.62005833302471,35.27380608067637,0.0
0.10200000000000001,0.7078911053513438,-0.15717944837994252,0.8472033894594905,0.0,2.3297936223191327,2.230841560588218,35.34861277595147,35.27380608067637,0.0
0.10300000000000001,0.7224342220648738,-0.15942840313189052,0.48217810104335723,0.0,2.33586374600675,2.2129154706078618,34.583327185243064,35.27380608067637,0.0
0.10400000000000001,0.7181359689858343,-0.15426598331311941,0.8717256853518947,0.0,2.3389438925999846,2.244507728158232,35.36883212867365,35.27380608067637,0.0
0.105,0.7331928271484256,-0.15682544736651163,0.4780229531566278,0.0,2.3452084155329946,2.224346761299649,34.50995152332459,35.27380608067637,0.0
0.106,0.728145630532488,-0.15092603684139494,0.9151018014046778,0.0,2.348155859688549,2.2595498042588424,35.4109353646264,35.27380608067637,0.0
0.107,0.7445265245311623,-0.1545258644346884,0.4632385879142731,0.0,2.3547838388649796,2.235599175065233,34.422692373382,35.27380608067637,0.0
0.108,0.7383761755404961,-0.14749485813624363,0.965871220609416,0.0,2.357544548235645,2.275354975768958,35.40537445713089,35.27380608067637,0.0
0.109,0.7562816991457044,-0.1524715977161232,0.47321449497042534,0.0,2.3646225181563887,2.250161590105656,34.42175194852163,35.27380608067637,0.0
0.11,0.7504820404542746,-0.14476808196947716,0.9735462905966019,0.0,2.3675761983907955,2.288975422468139,35.37434763195877,35.27380608067637,0.0
0.111,0.767578881960608,-0.15002520551188375,0.4962430333652086,0.0,2.374771212585143,2.2647579142134875,34.438934683098516,35.27380608067637,0.0
0.112,0.7624696520173054,-0.14180454058363157,0.9722982217711141,0.0,2.377868130157057,2.301553745209526,35.32137382171801,35.27380608067637,0.0
0.113,0.7783577620453845,-0.1471714016275686,0.5306029750509497,0.0,2.385007500435501,2.2798338714373534,34.48204369260432,35.27380608067637,0.0
0.114,0.7745840776337363,-0.13876850430482962,0.9581856634885155,0.0,2.3882829589929417,2.3130249566511383,35.23123391507853,35.27380608067637,0.0
0.115,0.7887204731118231,-0.14397064964135714,0.584016273907388,0.0,2.3952062451762623,2.296197279114282,34.55875995205522,35.27380608067637,0.0
0.116,0.7872820495497685,-0.13592024654141216,0.9274037167052568,0.0,2.3988168691932055,2.3235586010996276,35.10019547249602,35.27380608067637,0.0
0.117,0.7989249151097085,-0.1405515007729251,0.6584220625666604,0.0,2.405392505003456,2.314227897457696,34.66114159725397,35.27380608067637,0.0
0.11800000000000001,0.8008727249808454,-0.13333830564965898,0.8840756450219072,0.0,2.409537742862613,2.3339017079422195,34.943870741486215,35.27380608067637,0.0
0.11900000000000001,0.8093174209898473,-0.13730469139494617,0.7460104262976878,0.0,2.4157442723675215,2.33366951281771,34.87997420963611,35.27380608067637,0.0
0.12,0.8152322205877036,-0.13120624310155182,0.7818970109331429,0.0,2.4205964362397614,2.3388431856576117,34.58577880888236,35.27380608067637,0.0
0.121,0.8177036616496274,-0.13225997297344833,0.9358749840279582,0.0,2.425657645777609,2.3603507082739883,35.22173763392116,35.27380608067637,0.0
0.122,0.8317095221455407,-0.13177756891032694,0.618416255976111,0.0,2.4322998848776494,2.34223742952193,34.323740068135415,35.27380608067637,0.0
0.123,0.8274694856375073,-0.12529779666302981,1.0769156989943924,0.0,2.435758621285907,2.380815691188453,35.15764226446109,35.27380608067637,0.0
0.124,0.8448997391559572,-0.13144534379784545,0.6611262389937083,0.0,2.443470338127294,2.363600437046783,34.60108575775002,35.27380608067637,0.0
0.125,0.8446512763203013,-0.12317140359670958,0.946131695578506,0.0,2.4477177489769026,2.384588008274858,34.80212214871139,35.27380608067637,0.0
0.126,0.8532049160238967,-0.1268748207080625,0.8503303394174707,0.0,2.4541292911486186,2.3895699747257746,35.03382365985287,35.27380608067637,0.0
0.127,0.8616638538306565,-0.12216059685836539,0.7368794080549655,0.0,2.4598422769536725,2.3823283630987966,34.2822916460545,35.27380608067637,0.0
0.128,0.8599164062251706,-0.11889464051189402,1.1225605593003682,0.0,2.4639476900559107,2.420218455780312,35.146096109026395,35.27380608067637,0.0
0.129,0.8787720985429482,-0.12447551938674412,0.691935427530922,0.0,2.472078127355773,2.401412903865797,34.591043898903266,35.27380608067637,0.0
0.13,0.8780401370795841,-0.11589401039736558,0.9762891544102178,0.0,2.4765151909566185,2.4211551848312856,34.65906804929821,35.27380608067637,0.0
0.131,0.8858918600635837,-0.11916363731751983,0.9484244595265257,0.0,2.4829282503450383,2.432587281211436,35.12294169242378,35.27380608067637,0.0
0.132,0.8969617595402989,-0.11655893262476458,0.7179962818462683,0.0,2.489523999647227,2.4173098495838232,34.283697896993075,35.27380608067637,0.0
0.133,0.8934608325175782,-0.10967142854771633,1.1475192613984533,0.0,2.493200852454888,2.4542673465440004,34.87776708832484,35.27380608067637,0.0
0.134,0.9099940668452435,-0.11628852524583005,0.8544450556560876,0.0,2.5010025253553643,2.449509721615473,34.919546636356245,35.27380608067637,0.0
0.135,0.9163260596476475,-0.11017114467253614,0.8370978760835854,0.0,2.506809185642895,2.446499391909307,34.22431735100036,35.27380608067637,0.0
