timestamp,iq,id,iq_ref,id_ref,vq,vd,omega,omega_ref,r
0.0,0.0,0.0,0.0,0.0,0.0,0.0,0.0,452.1031477901156,0.0
0.001,0.0,0.0,10.0,0.0,0.0,1.0999999999999999,6.115472199294103,452.1031477901156,0.0
0.002,0.5307369851907212,-0.2913212625381807,10.0,0.0,0.14204533887919985,1.9316189316290207,13.317801563642547,452.1031477901156,0.0
0.003,1.0842913387634832,-0.6024330830807904,10.0,0.0,0.384357124667687,2.6386968949419622,20.697939467553027,452.1031477901156,0.0
0.004,1.5590443546685477,-0.8700465084428163,10.0,0.0,0.6994718867930164,3.2526109522886295,28.232747544420146,452.1031477901156,0.0
0.005,1.9399447555359186,-1.0838738622210777,10.0,0.0,1.065311453102468,3.7994935661768023,35.92944872443006,452.1031477901156,0.0
0.006,2.239750732602683,-1.2510087368845633,10.0,0.0,1.4655018868449925,4.299102221838433,43.75633668444442,452.1031477901156,0.0
0.007,2.4770151619816017,-1.382020589851471,10.0,0.0,1.8883740978591532,4.765668027847139,51.58766747378032,452.1031477901156,0.0
0.008,2.6680767290418097,-1.4872241871505252,10.0,0.0,2.325877945545995,5.209220346273558,59.45942083902103,452.1031477901156,0.0
0.009000000000000001,2.8266491704841292,-1.5730794701170803,10.0,0.0,2.772378685460125,5.636635464737965,67.35059094018146,452.1031477901156,0.0
0.01,2.962077666392183,-1.645500646948331,10.0,0.0,3.224078639851053,6.052647735211881,75.20908322432116,452.1031477901156,0.0
0.011,3.0811061533574158,-1.7084279320504514,10.0,0.0,3.678407615443203,6.460489925470405,83.0265951655913,452.1031477901156,0.0
0.012,3.188848746459569,-1.7638278597420747,10.0,0.0,4.133552631697047,6.862319393890706,90.74118064793086,452.1031477901156,0.0
0.013000000000000001,3.288205119878689,-1.8140726097274587,10.0,0.0,4.588339016389012,7.259628641949282,98.35820682563939,452.1031477901156,0.0
0.014,3.3820602099432007,-1.8592355758795645,10.0,0.0,5.041843166194517,7.653355107498287,105.90865295623543,452.1031477901156,0.0
0.015,3.4721069852858886,-1.899829032412081,10.0,0.0,5.493383198131427,8.044092747085895,113.37727610343421,452.1031477901156,0.0
0.016,3.5596145800153947,-1.9360338400176071,10.0,0.0,5.94241958510469,8.43218525824161,120.68508583176356,452.1031477901156,0.0
0.017,3.645144415105338,-1.9685384477868613,10.0,0.0,6.388575043274759,8.817838951066484,127.83962377537456,452.1031477901156,0.0
0.018000000000000002,3.730251927866576,-1.9959253041084188,10.0,0.0,6.83136783302799,9.201036292373047,134.85405702603322,452.1031477901156,0.0
0.019,3.81544967906247,-2.018253592643655,10.0,0.0,7.270383321112213,9.581672501020332,141.68976328564074,452.1031477901156,0.0
0.02,3.9014648862453374,-2.0350875541282063,10.0,0.0,7.705189334130692,9.959536942333155,148.3432823300447,452.1031477901156,0.0
0.021,3.9891051824829464,-2.0457889559126508,10.0,0.0,8.135310004560049,10.334315260302239,154.92060212100432,452.1031477901156,0.0
0.022,4.079618141396171,-2.0489696811670974,10.0,0.0,8.560139305503519,10.705547790999272,161.01925282597162,452.1031477901156,0.0
0.023,4.171109372430197,-2.048468292080302,10.0,0.0,8.979521969370257,11.072981092896333,166.534238406907,452.1031477901156,0.0
0.024,4.266936196769627,-2.039517194249811,10.0,0.0,9.392730090169543,11.435983292623375,171.8647834235234,452.1031477901156,0.0
0.025,4.367255527950721,-2.0225841458509217,10.0,0.0,9.79914449451603,11.793929226271104,177.02637022703064,452.1031477901156,0.0
0.026000000000000002,4.4734353073349595,-1.9962166741499119,10.0,0.0,10.197980960389518,12.146045424568259,181.63161391243256,452.1031477901156,0.0
0.027,4.582366840795821,-1.966358349113627,10.0,0.0,10.589124658468391,12.491912978736195,185.74793639675826,452.1031477901156,0.0
0.028,4.700058850757774,-1.9240450691803936,10.0,0.0,10.971384864613876,12.830451341534015,189.43662766964098,452.1031477901156,0.0
0.029,4.820934284790598,-1.879137197786803,10.0,0.0,11.344756153370636,13.161242511022618,192.73598774770625,452.1031477901156,0.0
0.03,4.952016225740939,-1.821000614527957,10.0,0.0,11.707923484756042,13.483081433273819,195.59831968863915,452.1031477901156,0.0
0.031,5.086039273572549,-1.7621311371320891,10.0,0.0,12.061063698547066,13.79562148058647,197.80891551030922,452.1031477901156,0.0
0.032,5.230431844273564,-1.6911110488141978,10.0,0.0,12.40292038074925,14.097678592248165,200.4421589734679,452.1031477901156,0.0
0.033,5.380124186618445,-1.6166151787533525,10.0,0.0,12.733312761073865,14.38869342901298,201.91742172589852,452.1031477901156,0.0
0.034,5.537594793894332,-1.535029134414507,10.0,0.0,13.051537880865839,14.667821176756876,203.18880493813168,452.1031477901156,0.0
0.035,5.698947813469154,-1.4530296333491768,10.0,0.0,13.357649178779205,14.934684535625108,203.60405746232266,452.1031477901156,0.0
0.036000000000000004,5.870474243492053,-1.3603000477825025,10.0,0.0,13.65045542338638,15.188218311291084,204.28541056101804,452.1031477901156,0.0
0.037,6.041188711220851,-1.275010780747051,10.0,0.0,13.930879897581198,15.42861600670124,205.2233356988433,452.1031477901156,0.0
0.038,6.228175208801664,-1.168399557236846,10.0,0.0,14.196427351981786,15.654155009933262,200.35169734043586,452.1031477901156,0.0
0.039,6.404895489618571,-1.0845312562500289,10.0,0.0,14.449814560392067,15.86612549236809,209.64773540576442,452.1031477901156,0.0
0.04,6.534612624563911,-1.0851225869390002,10.0,0.0,14.699963825590459,16.069735965364643,218.170241886545,452.1031477901156,0.0
0.041,6.621487035821765,-1.1484636683301073,10.0,0.0,14.952420817214799,16.26974130369247,220.68166573712315,452.1031477901156,0.0
0.042,6.6704785161669795,-1.2647840534085386,10.0,0.0,15.211794475054209,16.47047148862455,233.10654395573727,452.1031477901156,0.0
0.043000000000000003,6.709376245503157,-1.3867642159960276,10.0,0.0,15.477558399636717,16.673277185423842,235.10815372853793,452.1031477901156,0.0
0.044,6.744196093263161,-1.5028656568708394,10.0,0.0,15.74857785831126,16.87893749904121,248.8181267625822,452.1031477901156,0.0
0.045,6.750563942850831,-1.6564343609015326,10.0,0.0,16.02879294551472,17.090781462187255,251.61117095327992,452.1031477901156,0.0
0.046,6.764566527560506,-1.7840489455190416,10.0,0.0,16.314672837580048,17.307985931916857,266.60539535969383,452.1031477901156,0.0
0.047,6.752169677737121,-1.9446655565152717,10.0,0.0,16.610076868775216,17.533561623207692,270.0627790167984,452.1031477901156,0.0
0.048,6.7291903821171735,-2.110358990489937,10.0,0.0,16.91511817760721,17.768523902508925,283.13731951482634,452.1031477901156,0.0
0.049,6.714097190323873,-2.246352557911731,10.0,0.0,17.22645394156277,18.011924542904307,294.70561782835244,452.1031477901156,0.0
0.05,6.666841209228205,-2.4219663531358275,10.0,0.0,17.548953774962747,18.267165921658286,300.1294548425776,452.1031477901156,0.0
0.051000000000000004,6.612335516543512,-2.59336894353628,10.0,0.0,17.88182590988993,18.53465621226123,310.75154600411304,452.1031477901156,0.0
0.052000000000000005,6.568447424188529,-2.726701034625408,10.0,0.0,18.22111236450049,18.81296732052879,322.35703405819294,452.1031477901156,0.0
0.053,6.5036136539679195,-2.8764091099274185,10.0,0.0,18.569435851849082,19.104068797231378,330.9557012510771,452.1031477901156,0.0
0.054,6.434362099984388,-3.0149932598739144,10.0,0.0,18.925784313874168,19.407861808234543,339.4707232587175,452.1031477901156,0.0
0.055,6.370891759459199,-3.1253006473392393,10.0,0.0,19.28762520191878,19.723199586257838,348.00092263299223,452.1031477901156,0.0
0.056,6.314459991163816,-3.2071523724558277,10.0,0.0,19.65271639484943,20.048760466390505,356.29964302226927,452.1031477901156,0.0
0.057,6.266092078485367,-3.262894600420583,10.0,0.0,20.01916768432525,20.383030530514645,362.98468703488817,452.1031477901156,0.0
0.058,6.234656406121481,-3.2830044001420036,10.0,0.0,20.38405550695561,20.723492962007192,368.0316803659419,452.1031477901156,0.0
0.059000000000000004,6.228510489334133,-3.2600491726267444,10.0,0.0,20.743774617448285,21.0667596267365,372.35801287012686,452.1031477901156,0.0
0.06,6.247959954981508,-3.201438289803519,10.0,0.0,21.095630838529225,21.40947063565305,373.88739853789605,452.1031477901156,0.0
0.061,6.298571070969623,-3.1064761741463998,10.0,0.0,21.436712814499675,21.747723437683817,371.47602194372377,452.1031477901156,0.0
0.062,6.38094735961424,-2.982369480030801,10.0,0.0,21.76480975788002,22.077703876517536,366.2922057853833,452.1031477901156,0.0
0.063,6.53566146196873,-2.7695519558602215,10.0,0.0,22.070926190088084,22.39130117743337,372.07145994459506,452.1031477901156,0.0
0.064,6.708566607552835,-2.560747003310555,10.0,0.0,22.35695033962817,22.686677966487718,365.1882535794375,452.1031477901156,0.0
0.065,6.897199383751794,-2.3667028673086685,10.0,0.0,22.62465294768497,22.962098937664592,356.7297130485294,452.1031477901156,0.0
0.066,7.167218997264825,-2.0824440278168583,10.0,0.0,22.863799361069702,23.20893224280502,357.7888817172531,452.1031477901156,0.0
0.067,7.423387055578651,-1.859201647307153,10.0,0.0,23.082000390168847,23.42951856849048,345.1266644280509,452.1031477901156,0.0
0.068,7.736929428236853,-1.5824320316278497,10.0,0.0,23.27222771500701,23.617938384108047,342.9584987314189,452.1031477901156,0.0
0.069,8.04132723792414,-1.3546495884062866,10.0,0.0,23.43998591632552,23.77619061530866,334.2677598047511,452.1031477901156,0.0
0.07,8.395997401416553,-1.0747195592463576,10.0,0.0,23.578279041856877,23.89942370363377,322.7417355360636,452.1031477901156,0.0
0.07100000000000001,8.726669482066718,-0.8579631993863083,10.0,0.0,23.694022264374595,23.99133556844291,337.9106389559309,452.1031477901156,0.0
0.07200000000000001,8.91385728821635,-0.8925675486457335,10.0,0.0,23.81335639313859,24.06834663115294,344.8606079910171,452.1031477901156,0.0
0.073,8.941721008651788,-1.1508071676799903,10.0,0.0,23.95651852989837,24.148396869281978,362.43451347602996,452.1031477901156,0.0
0.074,8.927907180207171,-1.4305443375681337,10.0,0.0,24.121558169292424,24.236556455607346,368.59250641149885,452.1031477901156,0.0
0.075,8.859340450140312,-1.7499202918046703,10.0,0.0,24.31124378664675,24.33980824926249,387.10067316750514,452.1031477901156,0.0
0.076,8.767176841935807,-2.0562826706616475,10.0,0.0,24.52279212376306,24.461155754889383,396.7190369145668,452.1031477901156,0.0
0.077,8.62162972262067,-2.4016532593838043,10.0,0.0,24.76024751870129,24.606611890707832,408.83095327273656,452.1031477901156,0.0
0.078,8.47560200325128,-2.694417929744825,10.0,0.0,25.017253395580042,24.77587553037574,428.2762610097064,452.1031477901156,0.0
0.079,8.289593068490031,-3.001970310780605,10.0,0.0,25.296388163948027,24.972914099394785,438.0404594767293,452.1031477901156,0.0
0.08,8.078425759776728,-3.30171273584331,10.0,0.0,25.597209455327665,25.19953060295957,447.87571303424875,452.1031477901156,0.0
0.081,7.882675762310951,-3.525181384717318,8.806885905055548,0.0,25.912194395051312,25.32174586149605,459.2673035869865,452.1031477901156,0.0
0.082,7.625466529266032,-3.670233221338999,3.0394490707179704,0.0,26.22162338219591,24.86708669298385,463.38790165983585,452.1031477901156,0.0
0.083,7.082303003141094,-3.5988848905144026,0.866302495596087,0.0,26.445344719017896,24.364640480660576,460.70189372222467,452.1031477901156,0.0
0.084,6.476653318225665,-3.3703283882561967,2.123319005080586,0.0,26.5720215689852,24.156004135125805,456.25967045691215,452.1031477901156,0.0
0.085,6.048216759810174,-3.119337614916179,4.302865411068881,0.0,26.63984367935748,24.24915057328165,450.55829984406984,452.1031477901156,0.0
0.08600000000000001,5.881814048745943,-2.896479829675212,7.1689991969504945,0.0,26.688193773865002,24.647263763679145,447.95446124899405,452.1031477901156,0.0
0.08700000000000001,6.007454430341555,-2.710202582654249,8.512405359899603,0.0,26.753258258641637,25.11402951546707,450.34491749419476,452.1031477901156,0.0
0.088,6.287831841581162,-2.5531889800290397,7.334759540258457,0.0,26.843084146300832,25.368064927343447,436.8584088447621,452.1031477901156,0.0
0.089,6.547496481350944,-2.3503249523920737,10.0,0.0,26.92858607936793,25.88487295930381,425.28552451150455,452.1031477901156,0.0
0.09,7.0159884862261475,-2.098730852790118,10.0,0.0,27.031571911644512,26.28296050263886,425.40113424670903,452.1031477901156,0.0
0.091,7.481985811720931,-1.8791906250585941,10.0,0.0,27.142434430972497,26.604963089112392,407.2841372992186,452.1031477901156,0.0
0.092,7.975002336410742,-1.6042706613775835,10.0,0.0,27.246365163287425,26.85627982441042,404.5734305220719,452.1031477901156,0.0
0.093,8.463441211090151,-1.3202665372036777,10.0,0.0,27.336543241878353,27.044059848442316,386.5643113765,452.1031477901156,0.0
0.094,8.959506397326926,-1.0138219387774523,10.0,0.0,27.405612650428218,27.172396896190858,376.17235612558983,452.1031477901156,0.0
0.095,9.426842071493763,-0.751432444208048,10.0,0.0,27.454810424479604,27.24836090772355,389.0070074817431,452.1031477901156,0.0
0.096,9.719336460056876,-0.7740827909930781,10.0,0.0,27.511800255371156,27.29414726950784,401.4593210009116,452.1031477901156,0.0
0.097,9.802653676148505,-1.0595437944061614,10.0,0.0,27.598843946259564,27.33481402831839,412.9075740674474,452.1031477901156,0.0
0.098,9.753613639088217,-1.4774429756523544,10.0,0.0,27.72436424384314,27.386346056574297,429.84183163349286,452.1031477901156,0.0
0.099,9.666173717480179,-1.8685174990129907,10.0,0.0,27.881324920251167,27.45440490276925,446.33428369109475,452.1031477901156,0.0
0.1,9.48948023190958,-2.3215147883355187,10.0,0.0,28.075314370229755,27.54991581618219,458.83492991476055,452.1031477901156,0.0
0.101,9.29342685454213,-2.720185499386519,3.6987643817757228,0.0,28.298779771874166,26.981937601901734,472.4091221424728,452.1031477901156,0.0
0.10200000000000001,8.710243461782365,-2.958686480041022,-3.2913914756039873,0.0,28.465349212687563,25.84938860051414,475.47950598792727,452.1031477901156,0.0
0.10300000000000001,7.7410046997062745,-2.932989576353354,-5.060346980309326,0.0,28.496795140068674,24.822852326303625,477.3593715894369,452.1031477901156,0.0
0.10400000000000001,6.72094100402069,-2.8053522917774325,-6.252842019057342,0.0,28.408659715024154,23.8911439919417,475.78261176667945,452.1031477901156,0.0
0.105,5.7776464293047205,-2.619235616627912,-5.701256747444269,0.0,28.216970537627212,23.209954045038344,471.5594868416199,452.1031477901156,0.0
0.106,5.038109276322136,-2.423679986089483,-3.7842576754295365,0.0,27.956681330671884,22.854984361372036,465.3368391824385,452.1031477901156,0.0
0.107,4.573284309924267,-2.266749453234053,-0.8052707597620632,0.0,27.67161727373675,22.86173667015404,458.4239851445923,452.1031477901156,0.0
0.108,4.4237267152977395,-2.1627671501484107,2.5879478856162788,0.0,27.40586610536246,23.19457460994422,451.19126295020715,452.1031477901156,0.0
0.109,4.569810399802646,-2.11891688605298,6.213427831207929,0.0,27.196190141784975,23.81485946523743,444.8177697261676,452.1031477901156,0.0
0.11,4.990369661310826,-2.105946926675274,9.473028223867171,0.0,27.068522067203972,24.629648800459336,446.2960493692764,452.1031477901156,0.0
0.111,5.609308085816169,-2.1214448375653014,8.791959386521189,0.0,27.036934203394942,25.17880118458578,440.34616415261786,452.1031477901156,0.0
0.112,6.1579049044399925,-2.094502100351372,10.0,0.0,27.060301684177027,25.755418433971244,424.22547018271837,452.1031477901156,0.0
0.113,6.770813870994893,-1.9504983755101455,10.0,0.0,27.123423159459048,26.202696282226782,424.16178645066867,452.1031477901156,0.0
0.114,7.346128712168747,-1.7587904141544848,10.0,0.0,27.205312433537713,26.554402950321396,407.61354892579396,452.1031477901156,0.0
0.115,7.8845819864522655,-1.5362397979144524,10.0,0.0,27.29161995884513,26.825651167254968,403.10179673097315,452.1031477901156,0.0
0.116,8.42152092466004,-1.2547778066394102,10.0,0.0,27.3676862404373,27.0247265645659,385.3021271815163,452.1031477901156,0.0
0.117,8.929521384549378,-0.981451124495051,10.0,0.0,27.428802118478227,27.160990389099215,379.03785327101644,452.1031477901156,0.0
0.11800000000000001,9.417825096450649,-0.7203035269914553,10.0,0.0,27.471439822264426,27.241106015273026,386.25086481535254,452.1031477901156,0.0
0.11900000000000001,9.719376150038032,-0.7480143475053698,10.0,0.0,27.52348498452097,27.289186270432488,400.6605715496477,452.1031477901156,0.0
0.12,9.773788528415967,-1.0944863542865466,10.0,0.0,27.612968468608578,27.334693165215953,415.52154175454206,452.1031477901156,0.0
0.121,9.756472707771966,-1.4656381599373223,10.0,0.0,27.735416272319565,27.387046582984468,430.2926608552396,452.1031477901156,0.0
0.122,9.637909482524897,-1.9127923179409225,10.0,0.0,27.896330076760172,27.459278235917957,444.06438043362704,452.1031477901156,0.0
0.123,9.49171007611346,-2.3145653351212907,10.0,0.0,28.08809915635989,27.555274406454945,466.62181032820723,452.1031477901156,0.0
0.124,9.277516510722926,-2.7425846800109728,-0.7179115060687451,0.0,28.313355342819392,26.503976900359493,468.3031336395275,452.1031477901156,0.0
0.125,8.465492707021733,-2.855226650548615,-1.7205730202230072,0.0,28.41906658333365,25.664401794776477,473.7029133885433,452.1031477901156,0.0
0.126,7.574610964633031,-2.856562757873275,-4.636460550715187,0.0,28.42926974133849,24.69851106421633,476.17186135759164,452.1031477901156,0.0
0.127,6.615431160002331,-2.7616321104418065,-6.111621670914106,0.0,28.33140777819614,23.793721835681218,474.4374489949449,452.1031477901156,0.0
0.128,5.712856408386198,-2.5914167330078683,-5.4677585016390156,0.0,28.135078703471095,23.144893318139108,470.27396396476195,452.1031477901156,0.0
0.129,5.0056505010832275,-2.409923685689763,-3.5677241482940163,0.0,27.875237603033696,22.812646794341056,464.1053566470242,452.1031477901156,0.0
0.13,4.564159712771658,-2.2632449477286656,-0.6034425779942403,0.0,27.593836229557695,22.83620336971985,457.2837451172194,452.1031477901156,0.0
0.131,4.43094479544515,-2.166123521575523,2.755557213637143,0.0,27.333714081469925,23.179350044612416,450.0854886936811,452.1031477901156,0.0
0.132,4.586971918851966,-2.1262556168548703,6.374862016370629,0.0,27.13050456042246,23.808208234843292,443.96583283755024,452.1031477901156,0.0
0.133,5.014716339446291,-2.1144652283030285,9.516063093961712,0.0,27.009603546809323,24.617707109422717,445.79378245160825,452.1031477901156,0.0
0.134,5.6296691414608615,-2.1324355210746555,8.66518194031778,0.0,26.983837158105835,25.14578969349049,438.7088294649236,452.1031477901156,0.0
0.135,6.167498997065674,-2.097683247990748,10.0,0.0,27.009453213712543,25.72081442228623,423.28744629925745,452.1031477901156,0.0
0.136,6.777439037763543,-1.946844631729184,10.0,0.0,27.073765411580208,26.165834997245526,424.296385603679,452.1031477901156,0.0
0.137,7.347271326313406,-1.7570795351430106,10.0,0.0,27.15678267269518,26.516202583162155,406.2904255655832,452.1031477901156,0.0
0.138,7.882941365647422,-1.5348260289129954,10.0,0.0,27.243984731570876,26.786609755157375,402.63570162145186,452.1031477901156,0.0
0.139,8.415885113739277,-1.2569790478586218,10.0,0.0,27.32116666890485,26.985429303943878,384.80899041305423,452.1031477901156,0.0
0.14,8.925393046913078,-0.9788333320997324,10.0,0.0,27.38269480846113,27.121368656416934,377.2606255711666,452.1031477901156,0.0
0.14100000000000001,9.40949544838383,-0.7223563460902551,10.0,0.0,27.42623305800564,27.20171070276826,385.96500025421767,452.1031477901156,0.0
0.14200000000000002,9.710076393703968,-0.7497395293241969,10.0,0.0,27.479028607246658,27.2501494894684,399.66967851180374,452.1031477901156,0.0
0.14300000000000002,9.764223050212829,-1.0949419644340397,10.0,0.0,27.569086916263334,27.29607362965985,414.8694536968393,452.1031477901156,0.0
0.14400000000000002,9.746654178663478,-1.4653575258736997,10.0,0.0,27.692025495804756,27.348885229169348,429.6246473665595,452.1031477901156,0.0
0.145,9.62807303535676,-1.911985920043672,10.0,0.0,27.853376345087284,27.421577763730284,443.35671462645405,452.1031477901156,0.0
0.146,9.482749071163903,-2.312182148101199,10.0,0.0,28.04541666404227,27.517935954391525,465.841694722493,452.1031477901156,0.0
0.147,9.26930955634164,-2.7392762926017995,-0.6183503069529843,0.0,28.270867163782384,26.477868931105817,467.57650404763945,452.1031477901156,0.0
