timestamp,iq,id,iq_ref,id_ref,vq,vd,omega,omega_ref,r
0.0,0.0,0.0,0.0,0.0,0.0,0.0,0.0,480.75080875245135,0.0
0.001,0.0,0.0,10.0,0.0,0.0,1.0999999999999999,6.115472199294103,480.75080875245135,0.0
0.002,0.5307369851907212,-0.2913212625381807,10.0,0.0,0.14204533887919985,1.9316189316290207,13.317801563642547,480.75080875245135,0.0
0.003,1.0842913387634832,-0.6024330830807904,10.0,0.0,0.384357124667687,2.6386968949419622,20.697939467553027,480.75080875245135,0.0
0.004,1.5590443546685477,-0.8700465084428163,10.0,0.0,0.6994718867930164,3.2526109522886295,28.232747544420146,480.75080875245135,0.0
0.005,1.9399447555359186,-1.0838738622210777,10.0,0.0,1.065311453102468,3.7994935661768023,35.92944872443006,480.75080875245135,0.0
0.006,2.239750732602683,-1.2510087368845633,10.0,0.0,1.4655018868449925,4.299102221838433,43.75633668444442,480.75080875245135,0.0
0.007,2.4770151619816017,-1.382020589851471,10.0,0.0,1.8883740978591532,4.765668027847139,51.58766747378032,480.75080875245135,0.0
0.008,2.6680767290418097,-1.4872241871505252,10.0,0.0,2.325877945545995,5.209220346273558,59.45942083902103,480.75080875245135,0.0
0.009000000000000001,2.8266491704841292,-1.5730794701170803,10.0,0.0,2.772378685460125,5.636635464737965,67.35059094018146,480.75080875245135,0.0
0.01,2.962077666392183,-1.645500646948331,10.0,0.0,3.224078639851053,6.052647735211881,75.20908322432116,480.75080875245135,0.0
0.011,3.0811061533574158,-1.7084279320504514,10.0,0.0,3.678407615443203,6.460489925470405,83.0265951655913,480.75080875245135,0.0
0.012,3.188848746459569,-1.7638278597420747,10.0,0.0,4.133552631697047,6.862319393890706,90.74118064793086,480.75080875245135,0.0
0.013000000000000001,3.288205119878689,-1.8140726097274587,10.0,0.0,4.588339016389012,7.259628641949282,98.35820682563939,480.75080875245135,0.0
0.014,3.3820602099432007,-1.8592355758795645,10.0,0.0,5.041843166194517,7.653355107498287,105.90865295623543,480.75080875245135,0.0
0.015,3.4721069852858886,-1.899829032412081,10.0,0.0,5.493383198131427,8.044092747085895,113.37727610343421,480.75080875245135,0.0
0.016,3.5596145800153947,-1.9360338400176071,10.0,0.0,5.94241958510469,8.43218525824161,120.68508583176356,480.75080875245135,0.0
0.017,3.645144415105338,-1.9685384477868613,10.0,0.0,6.388575043274759,8.817838951066484,127.83962377537456,480.75080875245135,0.0
0.018000000000000002,3.730251927866576,-1.9959253041084188,10.0,0.0,6.83136783302799,9.201036292373047,134.85405702603322,480.75080875245135,0.0
0.019,3.81544967906247,-2.018253592643655,10.0,0.0,7.270383321112213,9.581672501020332,141.68976328564074,480.75080875245135,0.0
0.02,3.9014648862453374,-2.0350875541282063,10.0,0.0,7.705189334130692,9.959536942333155,148.3432823300447,480.75080875245135,0.0
0.021,3.9891051824829464,-2.0457889559126508,10.0,0.0,8.135310004560049,10.334315260302239,154.92060212100432,480.75080875245135,0.0
0.022,4.079618141396171,-2.0489696811670974,10.0,0.0,8.560139305503519,10.705547790999272,161.01925282597162,480.75080875245135,0.0
0.023,4.171109372430197,-2.048468292080302,10.0,0.0,8.979521969370257,11.072981092896333,166.534238406907,480.75080875245135,0.0
0.024,4.266936196769627,-2.039517194249811,10.0,0.0,9.392730090169543,11.435983292623375,171.8647834235234,480.75080875245135,0.0
0.025,4.367255527950721,-2.0225841458509217,10.0,0.0,9.79914449451603,11.793929226271104,177.02637022703064,480.75080875245135,0.0
0.026000000000000002,4.4734353073349595,-1.9962166741499119,10.0,0.0,10.197980960389518,12.146045424568259,181.63161391243256,480.75080875245135,0.0
0.027,4.582366840795821,-1.966358349113627,10.0,0.0,10.589124658468391,12.491912978736195,185.74793639675826,480.75080875245135,0.0
0.028,4.700058850757774,-1.9240450691803936,10.0,0.0,10.971384864613876,12.830451341534015,189.43662766964098,480.75080875245135,0.0
0.029,4.820934284790598,-1.879137197786803,10.0,0.0,11.344756153370636,13.161242511022618,192.73598774770625,480.75080875245135,0.0
0.03,4.952016225740939,-1.821000614527957,10.0,0.0,11.707923484756042,13.483081433273819,195.59831968863915,480.75080875245135,0.0
0.031,5.086039273572549,-1.7621311371320891,10.0,0.0,12.061063698547066,13.79562148058647,197.80891551030922,480.75080875245135,0.0
0.032,5.230431844273564,-1.6911110488141978,10.0,0.0,12.40292038074925,14.097678592248165,200.4421589734679,480.75080875245135,0.0
0.033,5.380124186618445,-1.6166151787533525,10.0,0.0,12.733312761073865,14.38869342901298,201.91742172589852,480.75080875245135,0.0
0.034,5.537594793894332,-1.535029134414507,10.0,0.0,13.051537880865839,14.667821176756876,203.18880493813168,480.75080875245135,0.0
0.035,5.698947813469154,-1.4530296333491768,10.0,0.0,13.357649178779205,14.934684535625108,203.60405746232266,480.75080875245135,0.0
0.036000000000000004,5.870474243492053,-1.3603000477825025,10.0,0.0,13.65045542338638,15.188218311291084,204.28541056101804,480.75080875245135,0.0
0.037,6.041188711220851,-1.275010780747051,10.0,0.0,13.930879897581198,15.42861600670124,205.2233356988433,480.75080875245135,0.0
0.038,6.228175208801664,-1.168399557236846,10.0,0.0,14.196427351981786,15.654155009933262,200.35169734043586,480.75080875245135,0.0
0.039,6.404895489618571,-1.0845312562500289,10.0,0.0,14.449814560392067,15.86612549236809,209.64773540576442,480.75080875245135,0.0
0.04,6.534612624563911,-1.0851225869390002,10.0,0.0,14.699963825590459,16.069735965364643,218.170241886545,480.75080875245135,0.0
0.041,6.621487035821765,-1.1484636683301073,10.0,0.0,14.952420817214799,16.26974130369247,220.68166573712315,480.75080875245135,0.0
0.042,6.6704785161669795,-1.2647840534085386,10.0,0.0,15.211794475054209,16.47047148862455,233.10654395573727,480.75080875245135,0.0
0.043000000000000003,6.709376245503157,-1.3867642159960276,10.0,0.0,15.477558399636717,16.673277185423842,235.10815372853793,480.75080875245135,0.0
0.044,6.744196093263161,-1.5028656568708394,10.0,0.0,15.74857785831126,16.87893749904121,248.8181267625822,480.75080875245135,0.0
0.045,6.750563942850831,-1.6564343609015326,10.0,0.0,16.02879294551472,17.090781462187255,251.61117095327992,480.75080875245135,0.0
0.046,6.764566527560506,-1.7840489455190416,10.0,0.0,16.314672837580048,17.307985931916857,266.60539535969383,480.75080875245135,0.0
0.047,6.752169677737121,-1.9446655565152717,10.0,0.0,16.610076868775216,17.533561623207692,270.0627790167984,480.75080875245135,0.0
0.048,6.7291903821171735,-2.110358990489937,10.0,0.0,16.91511817760721,17.768523902508925,283.13731951482634,480.75080875245135,0.0
0.049,6.714097190323873,-2.246352557911731,10.0,0.0,17.22645394156277,18.011924542904307,294.70561782835244,480.75080875245135,0.0
0.05,6.666841209228205,-2.4219663531358275,10.0,0.0,17.548953774962747,18.267165921658286,300.1294548425776,480.75080875245135,0.0
0.051000000000000004,6.612335516543512,-2.59336894353628,10.0,0.0,17.88182590988993,18.53465621226123,310.75154600411304,480.75080875245135,0.0
0.052000000000000005,6.568447424188529,-2.726701034625408,10.0,0.0,18.22111236450049,18.81296732052879,322.35703405819294,480.75080875245135,0.0
0.053,6.5036136539679195,-2.8764091099274185,10.0,0.0,18.569435851849082,19.104068797231378,330.9557012510771,480.75080875245135,0.0
0.054,6.434362099984388,-3.0149932598739144,10.0,0.0,18.925784313874168,19.407861808234543,339.4707232587175,480.75080875245135,0.0
0.055,6.370891759459199,-3.1253006473392393,10.0,0.0,19.28762520191878,19.723199586257838,348.00092263299223,480.75080875245135,0.0
0.056,6.314459991163816,-3.2071523724558277,10.0,0.0,19.65271639484943,20.048760466390505,356.29964302226927,480.75080875245135,0.0
0.057,6.266092078485367,-3.262894600420583,10.0,0.0,20.01916768432525,20.383030530514645,362.98468703488817,480.75080875245135,0.0
0.058,6.234656406121481,-3.2830044001420036,10.0,0.0,20.38405550695561,20.723492962007192,368.0316803659419,480.75080875245135,0.0
0.059000000000000004,6.228510489334133,-3.2600491726267444,10.0,0.0,20.743774617448285,21.0667596267365,372.35801287012686,480.75080875245135,0.0
0.06,6.247959954981508,-3.201438289803519,10.0,0.0,21.095630838529225,21.40947063565305,373.88739853789605,480.75080875245135,0.0
0.061,6.298571070969623,-3.1064761741463998,10.0,0.0,21.436712814499675,21.747723437683817,371.47602194372377,480.75080875245135,0.0
0.062,6.38094735961424,-2.982369480030801,10.0,0.0,21.76480975788002,22.077703876517536,366.2922057853833,480.75080875245135,0.0
0.063,6.53566146196873,-2.7695519558602215,10.0,0.0,22.070926190088084,22.39130117743337,372.07145994459506,480.75080875245135,0.0
0.064,6.708566607552835,-2.560747003310555,10.0,0.0,22.35695033962817,22.686677966487718,365.1882535794375,480.75080875245135,0.0
0.065,6.897199383751794,-2.3667028673086685,10.0,0.0,22.62465294768497,22.962098937664592,356.7297130485294,480.75080875245135,0.0
0.066,7.167218997264825,-2.0824440278168583,10.0,0.0,22.863799361069702,23.20893224280502,357.7888817172531,480.75080875245135,0.0
0.067,7.423387055578651,-1.859201647307153,10.0,0.0,23.082000390168847,23.42951856849048,345.1266644280509,480.75080875245135,0.0
0.068,7.736929428236853,-1.5824320316278497,10.0,0.0,23.27222771500701,23.617938384108047,342.9584987314189,480.75080875245135,0.0
0.069,8.04132723792414,-1.3546495884062866,10.0,0.0,23.43998591632552,23.77619061530866,334.2677598047511,480.75080875245135,0.0
0.07,8.395997401416553,-1.0747195592463576,10.0,0.0,23.578279041856877,23.89942370363377,322.7417355360636,480.75080875245135,0.0
0.07100000000000001,8.726669482066718,-0.8579631993863083,10.0,0.0,23.694022264374595,23.99133556844291,337.9106389559309,480.75080875245135,0.0
0.07200000000000001,8.91385728821635,-0.8925675486457335,10.0,0.0,23.81335639313859,24.06834663115294,344.8606079910171,480.75080875245135,0.0
0.073,8.941721008651788,-1.1508071676799903,10.0,0.0,23.95651852989837,24.148396869281978,362.43451347602996,480.75080875245135,0.0
0.074,8.927907180207171,-1.4305443375681337,10.0,0.0,24.121558169292424,24.236556455607346,368.59250641149885,480.75080875245135,0.0
0.075,8.859340450140312,-1.7499202918046703,10.0,0.0,24.31124378664675,24.33980824926249,387.10067316750514,480.75080875245135,0.0
0.076,8.767176841935807,-2.0562826706616475,10.0,0.0,24.52279212376306,24.461155754889383,396.7190369145668,480.75080875245135,0.0
0.077,8.62162972262067,-2.4016532593838043,10.0,0.0,24.76024751870129,24.606611890707832,408.83095327273656,480.75080875245135,0.0
0.078,8.47560200325128,-2.694417929744825,10.0,0.0,25.017253395580042,24.77587553037574,428.2762610097064,480.75080875245135,0.0
0.079,8.289593068490031,-3.001970310780605,10.0,0.0,25.296388163948027,24.972914099394785,438.0404594767293,480.75080875245135,0.0
0.08,8.078425759776728,-3.30171273584331,10.0,0.0,25.597209455327665,25.19953060295957,447.87571303424875,480.75080875245135,0.0
0.081,7.882675762310951,-3.525181384717318,10.0,0.0,25.912194395051316,25.45298841193994,460.26934286159303,480.75080875245135,0.0
0.082,7.687097883672571,-3.703693402600396,10.0,0.0,26.238428257179056,25.732155000670204,470.03446400235384,480.75080875245135,0.0
0.083,7.512516260295773,-3.813976142857688,10.0,0.0,26.570301373216505,26.033276516525277,477.918982155292,480.75080875245135,0.0
0.084,7.3689562950047955,-3.855399170081403,8.063539770153513,0.0,26.90255303482776,26.138508347063713,476.78114918868476,480.75080875245135,0.0
0.085,7.176537319104499,-3.762831626657801,8.67215284909479,0.0,27.201506053282902,26.372484689387562,470.78193207531746,480.75080875245135,0.0
0.08600000000000001,7.097864934212319,-3.568235496524071,10.0,0.0,27.473481505244436,26.75966552771384,471.4046188268553,480.75080875245135,0.0
0.08700000000000001,7.190284273549297,-3.3231397217033307,10.0,0.0,27.731962921913507,27.1110945047186,473.4319829170827,480.75080875245135,0.0
0.088,7.353496358818704,-3.061484097460857,10.0,0.0,27.97340793369767,27.436199589703524,457.7497072569706,480.75080875245135,0.0
0.089,7.5884855369568704,-2.761899716890622,10.0,0.0,28.19288122718162,27.72872197862587,445.72977259892207,480.75080875245135,0.0
0.09,7.933228530727009,-2.3580817592145413,10.0,0.0,28.378235298670734,27.978367620471033,444.0308759075191,480.75080875245135,0.0
0.091,8.282430604522615,-2.0177080571917436,10.0,0.0,28.536615599549712,28.186619307100784,423.6235174319792,480.75080875245135,0.0
0.092,8.715625107923868,-1.613633124356348,10.0,0.0,28.658938533412105,28.345724480519287,417.69938725498497,480.75080875245135,0.0
0.093,9.151002077008421,-1.26774606101019,10.0,0.0,28.750932863590375,28.45759190841687,402.40025945582283,480.75080875245135,0.0
0.094,9.646718432978194,-0.8762486594377834,10.0,0.0,28.805308660001085,28.51729699707671,399.5328013892226,480.75080875245135,0.0
0.095,10.043853094907961,-0.6894419383865436,10.0,0.0,28.84358362033678,28.53774150725905,418.86189380805445,480.75080875245135,0.0
0.096,10.167128563920423,-0.9270515684141003,10.0,0.0,28.908080662170697,28.550380107484653,427.8745501245705,480.75080875245135,0.0
0.097,10.134016691167497,-1.3420916003925165,10.0,0.0,29.01067016706113,28.573079612564037,449.10709011594236,480.75080875245135,0.0
0.098,10.034259375150302,-1.776681739188357,10.0,0.0,29.14892518691822,28.61441030365889,460.9360075515369,480.75080875245135,0.0
0.099,9.850928622688846,-2.256382430202329,10.0,0.0,29.325908948522656,28.684602237240547,476.88608902639095,480.75080875245135,0.0
0.1,9.63619641799406,-2.6923489914389185,9.372208126633994,0.0,29.535372842150704,28.718203482546038,500.25667335782344,480.75080875245135,0.0
0.101,9.330973771241274,-3.1128852060419945,-2.508142685135974,0.0,29.76914978894046,27.500257491218612,502.0725324472956,480.75080875245135,0.0
0.10200000000000001,8.368992738736072,-3.1787534934843915,-3.6292894668204942,0.0,29.86079459139114,26.525726842943346,504.2389602154029,480.75080875245135,0.0
0.10300000000000001,7.3479641434191425,-3.0950879163771767,-4.947384865503673,0.0,29.835959952413013,25.626728048862184,504.40329543887555,480.75080875245135,0.0
0.10400000000000001,6.38320105867559,-2.9326429552490025,-5.266077344104224,0.0,29.70667660797154,24.88918410500072,500.63769710569244,480.75080875245135,0.0
0.105,5.576003408686729,-2.7207856702113657,-3.582147061045081,0.0,29.494887351845215,24.480029587655103,493.79033295358136,480.75080875245135,0.0
0.106,5.039140633434902,-2.522264528791823,-0.28886022700083913,0.0,29.24364281689119,24.487016774123493,485.9757322689336,480.75080875245135,0.0
0.107,4.8540656807737035,-2.3721523154353323,3.5661908801582163,0.0,29.003694322024398,24.874293158936915,477.3604502036382,480.75080875245135,0.0
0.108,5.013033990303741,-2.2886807204107327,7.907735498294042,0.0,28.818787561806467,25.618529189130747,471.6147600489588,480.75080875245135,0.0
0.109,5.509540139354697,-2.2429412736287526,10.0,0.0,28.72259845743395,26.403558595989402,473.5407421376041,480.75080875245135,0.0
0.11,6.146714928427226,-2.211304461189714,9.963611863241107,0.0,28.71150854928408,27.010416646356923,460.0036921728793,480.75080875245135,0.0
0.111,6.761240708774235,-2.1294341166160042,10.0,0.0,28.75352406720723,27.49862038933633,445.89385918564454,480.75080875245135,0.0
0.112,7.398727593282986,-1.8903716370704848,10.0,0.0,28.814680238331732,27.87786312895004,443.0268037725409,480.75080875245135,0.0
0.113,7.970580301154604,-1.6555707793905552,10.0,0.0,28.884207596755818,28.168768282694025,423.178395667501,480.75080875245135,0.0
0.114,8.555067978762832,-1.3376952353794613,10.0,0.0,28.94325443344747,28.378960539447853,415.4923296698389,480.75080875245135,0.0
0.115,9.098329848342413,-1.0501088843335808,10.0,0.0,28.988960068970403,28.52012432531776,401.85573631760747,480.75080875245135,0.0
0.116,9.667723125157195,-0.7014500390245342,10.0,0.0,29.008734910054507,28.594541654399166,408.61887267027845,480.75080875245135,0.0
0.117,10.048639481081615,-0.6513929429471963,10.0,0.0,29.03195430782291,28.627287868297287,419.3194987861252,480.75080875245135,0.0
0.11800000000000001,10.13349784840184,-1.002357961263602,10.0,0.0,29.09523311017988,28.653556143736466,437.83006169737416,480.75080875245135,0.0
0.11900000000000001,10.094183543622083,-1.453940399795079,10.0,0.0,29.20097527790036,28.688698629066394,451.2948044969209,480.75080875245135,0.0
0.12,9.997808698863935,-1.8886031296215746,10.0,0.0,29.34295455327738,28.741109172510974,471.6819828912178,480.75080875245135,0.0
0.121,9.801975670084722,-2.3833052059368383,10.0,0.0,29.526047556557575,28.823054473866932,484.45708400888293,480.75080875245135,0.0
0.122,9.5739058299052,-2.82836355856304,5.101855436338304,0.0,29.743035187671087,28.399447995544495,499.0163975447152,480.75080875245135,0.0
0.123,9.0330086734659,-3.1353165011460886,-2.360457219500457,0.0,29.92527764799886,27.32524597046652,504.2947425083074,480.75080875245135,0.0
0.124,8.081053780458358,-3.1609112960728103,-5.235069038855141,0.0,29.98162155780217,26.234410287024925,506.22588241308455,480.75080875245135,0.0
0.125,7.012747612942684,-3.032112462754492,-6.455389727850036,0.0,29.908823688666715,25.260797534808596,504.1156844251781,480.75080875245135,0.0
0.126,6.019820639457051,-2.814664657774954,-5.633939490624066,0.0,29.723313061008604,24.578367909293405,498.5194730192285,480.75080875245135,0.0
0.127,5.254392674625889,-2.5859150036831138,-3.013520430317042,0.0,29.46512254966447,24.29992958422202,490.789437717554,480.75080875245135,0.0
0.128,4.822276442602894,-2.399851647467092,0.7511109308691761,0.0,29.186727784304775,24.451299805524982,482.82586872137176,480.75080875245135,0.0
0.129,4.764022747288665,-2.280336573556409,4.712144829271088,0.0,28.940023493043327,24.95984768753836,474.18383503383905,480.75080875245135,0.0
0.13,5.043045090565354,-2.225026319139142,9.098831410223568,0.0,28.763955441862574,25.804520542431447,471.3723747754859,480.75080875245135,0.0
0.131,5.640028309614509,-2.20615526210222,10.0,0.0,28.68843876755931,26.539503055120377,472.6124602089372,480.75080875245135,0.0
0.132,6.2893645006328835,-2.1770298986396477,10.0,0.0,28.69095693254476,27.118966814390795,454.2738516379784,480.75080875245135,0.0
0.133,6.920510287783766,-2.059334110679373,10.0,0.0,28.738514373917695,27.577803339556308,445.5341834763983,480.75080875245135,0.0
0.134,7.5564921452574625,-1.8048995161342969,10.0,0.0,28.800388876149537,27.93186540989197,435.84387236846686,480.75080875245135,0.0
0.135,8.116591897597528,-1.5764716416248017,10.0,0.0,28.868899414941165,28.20145756923457,421.49491937568854,480.75080875245135,0.0
0.136,8.711736397765025,-1.2346817380350437,10.0,0.0,28.922205505138113,28.391076669027044,407.1646619405635,480.75080875245135,0.0
0.137,9.248078337921577,-0.954026945769621,10.0,0.0,28.96168876818131,28.51401829944443,400.5456948972592,480.75080875245135,0.0
0.138,9.808658220451479,-0.6184746063017038,10.0,0.0,28.975413658543122,28.57231372544767,408.8943311343693,480.75080875245135,0.0
0.139,10.084547099310054,-0.7272807266641093,10.0,0.0,29.008919799103612,28.601410120037627,423.9202915042414,480.75080875245135,0.0
0.14,10.118955701959191,-1.1323861709433705,10.0,0.0,29.085458502734145,28.62992143172181,440.4850506386258,480.75080875245135,0.0
0.14100000000000001,10.078658649069393,-1.5524253250724405,10.0,0.0,29.199347719681445,28.66801224444501,456.85933757026663,480.75080875245135,0.0
0.14200000000000002,9.929701940581989,-2.0453426683214984,10.0,0.0,29.355677612422447,28.729665164995325,471.60948933422515,480.75080875245135,0.0
0.14300000000000002,9.744079647998165,-2.4933087265192366,10.0,0.0,29.546886900913627,28.81971466786406,495.62097191264894,480.75080875245135,0.0
0.14400000000000002,9.495667652609983,-2.943173919817329,-0.8985160811648072,0.0,29.77298572152339,27.746512476933773,498.6591509715053,480.75080875245135,0.0
0.145,8.627395370865246,-3.0842964601568994,-2.5966890327835337,0.0,29.8801792684835,26.818452354329107,502.4945623827929,480.75080875245135,0.0
0.146,7.656634235052223,-3.065931538602874,-4.731832274730732,0.0,29.88041608171282,25.87413457370492,504.2097618836772,480.75080875245135,0.0
