timestamp,iq,id,iq_ref,id_ref,vq,vd,omega,omega_ref,r
0.0,0.0,0.0,0.0,0.0,0.0,0.0,0.0,38.82957904564754,0.0
0.001,0.0,0.0,10.0,0.0,0.0,1.0999999999999999,6.115472199294103,38.82957904564754,0.0
0.002,0.5307369851907212,-0.2913212625381807,10.0,0.0,0.14204533887919985,1.9316189316290207,13.317801563642547,38.82957904564754,0.0
0.003,1.0842913387634832,-0.6024330830807904,10.0,0.0,0.384357124667687,2.6386968949419622,20.697939467553027,38.82957904564754,0.0
0.004,1.5590443546685477,-0.8700465084428163,9.816243478846829,0.0,0.6994718867930164,3.232397734961781,28.118748196122333,38.82957904564754,0.0
0.005,1.9302174404638723,-1.0785262469756103,6.212947423057427,0.0,1.062701893692782,3.3676334569884134,33.46602549183853,38.82957904564754,0.0
0.006,2.0294039535824697,-1.1349463940505158,3.592944310737419,0.0,1.4072538908981456,3.2663024401199596,36.902550984555006,38.82957904564754,0.0
0.007,1.9211393336162275,-1.0729193878440801,1.8939518449901063,0.0,1.6998304145426708,3.0617715578773543,38.985967905763594,38.82957904564754,0.0
0.008,1.7021603983103841,-0.9465098420966072,0.8506794957846515,0.0,1.9294114176283252,2.8321864191523165,40.125528265785235,38.82957904564754,0.0
0.009000000000000001,1.4476745604145165,-0.8000817989015205,0.2679398235724544,0.0,2.0982328172389257,2.6206529069725475,40.8288296869615,38.82957904564754,0.0
0.01,1.2062138864799867,-0.6598658570342225,-0.10370339342881685,0.0,2.215059252497037,2.4361173445776383,40.90388236260175,38.82957904564754,0.0
0.011,0.9946135104971625,-0.5415309229529307,-0.1619727644184844,0.0,2.2901348046595773,2.299886217927945,40.23140972919452,38.82957904564754,0.0
0.012,0.8310432569153696,-0.4469941206284774,0.16024524544966168,0.0,2.334863990026017,2.2366891580890353,39.96432583969004,38.82957904564754,0.0
0.013000000000000001,0.7293026458297952,-0.3843438748829811,0.28243972226147496,0.0,2.3628543918631633,2.204059699804876,40.56196381119272,38.82957904564754,0.0
0.014,0.6681825441748244,-0.3467544630614798,-0.03370311114531588,0.0,2.3812744748452666,2.147200376161172,40.688108670047335,38.82957904564754,0.0
0.015,0.6112640359187909,-0.316656363338526,-0.11536083681662168,0.0,2.38923172031348,2.097697906581889,40.017525028161714,38.82957904564754,0.0
0.016,0.564192713841657,-0.28984740609334736,0.2080515243010469,0.0,2.388794989977204,2.0949420058329333,39.65780500479797,38.82957904564754,0.0
0.017,0.5461231586849993,-0.27692159989210297,0.37962927639141375,0.0,2.386972593489974,2.1095743890904735,40.02161856922829,38.82957904564754,0.0
0.018000000000000002,0.547251320260289,-0.27427188822482956,0.1858020989404483,0.0,2.3866334647558345,2.099219734008176,40.38521149249516,38.82957904564754,0.0
0.019,0.541051007603609,-0.27200464074338426,-0.01155068716146368,0.0,2.3850698832805928,2.070789412871983,39.79141660767949,38.82957904564754,0.0
0.02,0.5246374923768269,-0.26398502617601155,0.275728379626053,0.0,2.379960142711659,2.080363474457909,39.357153061038495,38.82957904564754,0.0
0.021,0.5251585361425665,-0.2619284034314863,0.4875844127926393,0.0,2.376172750001987,2.108679078842299,39.76571645836508,38.82957904564754,0.0
0.022,0.5405031571880541,-0.26681701852448614,0.2739413400021733,0.0,2.3761539708893973,2.1064823873013214,40.217059580430195,38.82957904564754,0.0
0.023,0.5435823693015411,-0.2691003949771361,0.03439497362178745,0.0,2.376119685792829,2.0801045503072144,39.689095458389744,38.82957904564754,0.0
0.024,0.5308193484088439,-0.2636787390938793,0.28978187051459114,0.0,2.372831829594824,2.0882838152442056,39.173066500367206,38.82957904564754,0.0
0.025,0.5317280278099955,-0.26160806425680294,0.5443614749786635,0.0,2.370517127837072,2.1205386706467633,39.65138393852274,38.82957904564754,0.0
0.026000000000000002,0.5489132186633386,-0.2669547887792456,0.29698470697214374,0.0,2.3722682282411895,2.1176980456080754,40.14616892496493,38.82957904564754,0.0
0.027,0.5519353328292237,-0.26888777488492827,0.036426314957874295,0.0,2.3737193173274274,2.0889683570224507,39.57040416609713,38.82957904564754,0.0
0.028,0.5377290649956108,-0.2623580697689934,0.31690044318728117,0.0,2.371414731222669,2.0983073948327466,39.070982024548634,38.82957904564754,0.0
0.029,0.5385788797234677,-0.25976980692655427,0.5641974841725168,0.0,2.3700550956479094,2.130644461179217,39.6027538318406,38.82957904564754,0.0
0.03,0.5555022600158944,-0.26486183951180464,0.2905798326646025,0.0,2.3726511364780722,2.1251878715729537,40.087131494806435,38.82957904564754,0.0
0.031,0.5568777018088985,-0.26604837115862984,0.03581547669009666,0.0,2.3745215124198924,2.095266577573911,39.41328626393462,38.82957904564754,0.0
0.032,0.5417410632937798,-0.2583472967901259,0.36690101994313196,0.0,2.372353737870622,2.109170288541125,38.941916164936025,38.82957904564754,0.0
0.033,0.5447406460230886,-0.2559982282556833,0.6014626982495461,0.0,2.371611725077895,2.143476459652492,39.60888548535765,38.82957904564754,0.0
0.034,0.5629737777802912,-0.26207197847389774,0.26018497364163073,0.0,2.3750661338849275,2.1324159972175147,40.02786700146351,38.82957904564754,0.0
0.035,0.5616826972362126,-0.2624734744307663,0.03871133603054144,0.0,2.377052482620831,2.1021820491930177,39.221324395414804,38.82957904564754,0.0
0.036000000000000004,0.5460658311812829,-0.25334419070493325,0.43806518555722307,0.0,2.3748085655112847,2.123018735129209,38.86178057176579,38.82957904564754,0.0
0.037,0.5526251452446401,-0.25170998595436866,0.6175150821205468,0.0,2.3747842390210088,2.1564156176800076,39.6324926873824,38.82957904564754,0.0
0.038,0.5707929589101208,-0.25899476820387574,0.22412988789489274,0.0,2.378919701529791,2.139470642633674,39.79838471644487,38.82957904564754,0.0
0.039,0.5665362675232899,-0.2581810537286201,0.13149581665568477,0.0,2.3807847638682884,2.119027729638001,39.02880924386741,38.82957904564754,0.0
0.04,0.5554481049090957,-0.24978411065188372,0.5142912509622185,0.0,2.379503502079681,2.1450265836355498,39.05369870507228,38.82957904564754,0.0
0.041,0.5660104202415727,-0.249457675696841,0.49960532376553535,0.0,2.380998313455402,2.1615812834070667,39.78669624547633,38.82957904564754,0.0
0.042,0.5767649861723326,-0.25332964924465406,0.1235353815652227,0.0,2.3844282951105114,2.134331780869879,39.36654725919011,38.82957904564754,0.0
0.043000000000000003,0.5650027377086247,-0.24888585576747557,0.32824019257290427,0.0,2.3842627913284242,2.137829848375084,38.60086418859117,38.82957904564754,0.0
0.044,0.564056913113633,-0.24437431214695843,0.7133688764429412,0.0,2.3840118128115813,2.1812650840879995,39.37131498461113,38.82957904564754,0.0
0.045,0.5860143710748891,-0.2505752758399731,0.3227261190433228,0.0,2.38885667716015,2.171084929603593,39.86312825187093,38.82957904564754,0.0
0.046,0.5860910166276475,-0.25133613311514025,0.06648399335118871,0.0,2.3922207242887596,2.1383382143191523,38.92260591920612,38.82957904564754,0.0
0.047,0.5698647577335109,-0.2409948545654751,0.5358148909480093,0.0,2.39082854596285,2.165177050202473,38.78467746585722,38.82957904564754,0.0
0.048,0.579604245596076,-0.23931541899786973,0.6052281334203616,0.0,2.3921781439309235,2.1909013261070376,39.57495999749477,38.82957904564754,0.0
0.049,0.5943394481434284,-0.24550073910760253,0.20263305808311372,0.0,2.3966623892603924,2.167685066104549,39.20731644457619,38.82957904564754,0.0
0.05,0.586183998092469,-0.2421377914857312,0.382677460553117,0.0,2.3979448066171623,2.1721141431914073,38.46908468199975,38.82957904564754,0.0
0.051000000000000004,0.587082969669982,-0.2374257110996759,0.755398285477815,0.0,2.3990571905806934,2.215246959648238,39.4211493519934,38.82957904564754,0.0
0.052000000000000005,0.6087728434632709,-0.24410451212034506,0.2734502474175332,0.0,2.4051534067096894,2.1950593440183743,39.557098829385374,38.82957904564754,0.0
0.053,0.603443713500916,-0.24272216314007855,0.19820031088416734,0.0,2.4084023932647627,2.1748452019601197,38.66097974739073,38.82957904564754,0.0
0.054,0.592719213041736,-0.2326625755800138,0.6479458448640559,0.0,2.408212335816699,2.2083282846172074,39.10583122087974,38.82957904564754,0.0
0.055,0.6068534079811032,-0.2335747368008418,0.42275758636722904,0.0,2.4115905259890424,2.207513883041408,39.68344432903443,38.82957904564754,0.0
0.056,0.6091913603819099,-0.2349448376936839,0.1254123794560169,0.0,2.4146910464725755,2.1765468176504603,38.61665670978129,38.82957904564754,0.0
0.057,0.5950885474083192,-0.2250763527623496,0.66093541244125,0.0,2.4132855740172863,2.2124421854955543,38.81911331210781,38.82957904564754,0.0
0.058,0.6103712397517417,-0.22550951308943348,0.5598117686133869,0.0,2.4157565180773273,2.2263065138721787,39.57917743477748,38.82957904564754,0.0
0.059000000000000004,0.6205797879966193,-0.23045952942346137,0.1722837233872535,0.0,2.4199069707624985,2.196444541897048,38.622514229380386,38.82957904564754,0.0
0.06,0.6090159524937543,-0.22310211894692605,0.6526859742484711,0.0,2.419797365665881,2.228077447822705,38.71001216297678,38.82957904564754,0.0
0.061,0.6232065019420394,-0.22261502477235692,0.6101326762769809,0.0,2.422882005417053,2.245374618566318,39.510838661439195,38.82957904564754,0.0
0.062,0.6345926831465681,-0.2279193304541115,0.20290683088785766,0.0,2.427976242834208,2.215770651759584,38.57278980659394,38.82957904564754,0.0
0.063,0.6234038978683012,-0.22056663885843444,0.6744991507010217,0.0,2.4287388206966325,2.246928547201233,38.735261088363195,38.82957904564754,0.0
0.064,0.6373419050993462,-0.21977506678885866,0.5942066893892368,0.0,2.4325273843052826,2.259853748294333,39.4542511084348,38.82957904564754,0.0
0.065,0.6461360506110452,-0.22416810180095456,0.22846495872556005,0.0,2.437720761234404,2.2316086439451266,38.45246837351798,38.82957904564754,0.0
0.066,0.6352837366238647,-0.2158216105292241,0.7331274329052672,0.0,2.438608245645681,2.2671593731838633,38.8505973503496,38.82957904564754,0.0
0.067,0.6511179904061205,-0.21636440796104667,0.5338527614424358,0.0,2.4431052271699225,2.270426648281226,39.308713555015416,38.82957904564754,0.0
0.068,0.6554507041094577,-0.21931212925559412,0.30000331401585023,0.0,2.447798059419558,2.2497679455494355,38.33862296583105,38.82957904564754,0.0
0.069,0.6480086518343867,-0.21047108899475198,0.7899581694061981,0.0,2.4489537465294124,2.2887398777702823,38.986984175040014,38.82957904564754,0.0
0.07,0.6656056221779533,-0.21351288453977035,0.4642035135077912,0.0,2.4543140660629263,2.2811875375167596,38.93595630785623,38.82957904564754,0.0
0.07100000000000001,0.6654237770626021,-0.2141440272976731,0.4886536744775962,0.0,2.458422127365656,2.281069500173727,38.20588986962711,38.82957904564754,0.0
0.07200000000000001,0.667750346003781,-0.20757354740043027,0.8599237853523621,0.0,2.4613785145875338,2.321711542247114,39.2386889462945,38.82957904564754,0.0
0.073,0.6876619976917882,-0.2142743653928131,0.33943314801219504,0.0,2.4689062620726974,2.295451331622915,38.54378280967549,38.82957904564754,0.0
0.074,0.6800402643496644,-0.2090938845427582,0.689744178681421,0.0,2.4724183526734937,2.3173465437411815,38.72881128733163,38.82957904564754,0.0
0.075,0.690611258994317,-0.20579291736380556,0.5982376174365104,0.0,2.477457453844854,2.3225955849197377,39.17527929657297,38.82957904564754,0.0
0.076,0.6938896149745893,-0.20790731053369288,0.3715466103065881,0.0,2.4827831419374107,2.3035477777143463,38.25541546701456,38.82957904564754,0.0
0.077,0.6872950131005279,-0.1983221309406893,0.8372201608721225,0.0,2.4845959668132425,2.3411865104382077,39.02668235592106,38.82957904564754,0.0
0.078,0.7039686733134143,-0.20163274919012392,0.4496156833161358,0.0,2.4904514022772464,2.326049375698295,38.49081888533208,38.82957904564754,0.0
0.079,0.700768016070778,-0.19885432044100457,0.7209350202137796,0.0,2.4938688473759605,2.3472514787118923,38.680170884685495,38.82957904564754,0.0
0.08,0.7128005387205443,-0.1962558982777154,0.6277531021466938,0.0,2.498806716115692,2.3523563275137462,38.98609689685895,38.82957904564754,0.0
0.081,0.7166103472087597,-0.1987679391362785,0.47322491754785057,0.0,2.5040635915777116,2.3410794434769797,38.16708688719777,38.82957904564754,0.0
0.082,0.7146695898517492,-0.19035698633128753,0.8893548439629405,0.0,2.5067167658727163,2.3790270905358923,39.06709586860058,38.82957904564754,0.0
0.083,0.7322895784306349,-0.1953713436703356,0.4369751850320036,0.0,2.513535076279458,2.3575646222546136,38.27902411794916,38.82957904564754,0.0
0.084,0.7272123726067965,-0.18987060325936697,0.8365166096346968,0.0,2.5168700837988007,2.388138277664153,38.888571108124964,38.82957904564754,0.0
0.085,0.7421677708141139,-0.19039034222714574,0.5311531939220222,0.0,2.5230411347977286,2.376706812449209,38.420093191823725,38.82957904564754,0.0
0.08600000000000001,0.739709038744265,-0.18829654233113136,0.7694870106108801,0.0,2.5272164187970287,2.3967259673583095,38.65908647859593,38.82957904564754,0.0
0.08700000000000001,0.7516379395506746,-0.18515845099405245,0.6516952928952928,0.0,2.532651837839192,2.3984835416514234,38.70211442616093,38.82957904564754,0.0
0.088,0.7537868199069483,-0.18664709923198716,0.6314559653076584,0.0,2.5379146046259935,2.399443403730833,38.24863320956107,38.82957904564754,0.0
0.089,0.7582176999794596,-0.17944014892845284,0.8640060319684539,0.0,2.5419394299262867,2.426150548885129,38.930512949504156,38.82957904564754,0.0
0.09,0.7708775835844629,-0.18464873657859568,0.5220568229583453,0.0,2.5488775013565323,2.4093012700004834,38.14401947576119,38.82957904564754,0.0
0.091,0.7684216267071828,-0.1769389308167889,0.9221591555286912,0.0,2.5525366732449877,2.442658228912715,38.943278445315066,38.82957904564754,0.0
0.092,0.783836398560285,-0.18052562097287744,0.5213926767550783,0.0,2.559637257810609,2.423239888659155,38.10645715121964,38.82957904564754,0.0
0.093,0.7798036896402213,-0.17379056801609477,0.9470345427470721,0.0,2.5633092271675055,2.457899456634105,38.93065583742185,38.82957904564754,0.0
0.094,0.7961613986965457,-0.1766787494867434,0.533924431728221,0.0,2.570465006877546,2.4379220587898605,38.06070371578673,38.82957904564754,0.0
0.095,0.7918259465973249,-0.17022930487770885,0.9765892458443906,0.0,2.5741691481104585,2.4741226861854897,38.949221659704286,38.82957904564754,0.0
0.096,0.8090382688823794,-0.17332576957477436,0.5311338477450452,0.0,2.5815280435224093,2.4517102130604096,37.97041953709343,38.82957904564754,0.0
0.097,0.80387369869241,-0.16624952127517711,1.0291265041360154,0.0,2.5851004501207306,2.492248848916779,38.97944638499249,38.82957904564754,0.0
0.098,0.8228045799425912,-0.1705141839222412,0.5231144067930333,0.0,2.5929093550190303,2.4663155619362866,37.886698469022576,38.82957904564754,0.0
0.099,0.8167987250588412,-0.16241150585178665,1.078917170544241,0.0,2.5964100995152304,2.510804871979451,38.96406830153667,38.82957904564754,0.0
0.1,0.8370370423791917,-0.16793119484802205,0.5388873617283026,0.0,2.604697893136416,2.483947745406577,37.887001208180955,38.82957904564754,0.0
0.101,0.831491245404125,-0.1591378027951264,1.0868466867808264,0.0,2.6084487247224164,2.527093355537507,38.92038624745254,38.82957904564754,0.0
0.10200000000000001,0.8507176890229857,-0.16490412688988482,0.5692460951269833,0.0,2.616861263733861,2.5017134627136706,37.91219131412377,38.82957904564754,0.0
0.10300000000000001,0.8461177398957769,-0.15557930862065822,1.0825174391066081,0.0,2.620811166311216,2.542046925667841,38.84491196043672,38.82957904564754,0.0
0.10400000000000001,0.8637634743464396,-0.16138073004731202,0.6160037868022407,0.0,2.629130829465876,2.520305787110208,37.97669684201286,38.82957904564754,0.0
0.105,0.861027634644543,-0.15199070134385007,1.0586401680505149,0.0,2.6333534950776594,2.5554032668958735,38.71398613413585,38.82957904564754,0.0
0.106,0.8762404266858531,-0.15737478524308368,0.6911514511041381,0.0,2.641349791622782,2.5408623770660044,38.07168663553657,38.82957904564754,0.0
0.107,0.8768632612758069,-0.14865332271204723,1.019880124504887,0.0,2.6460791678129985,2.568493863232698,38.54724335253287,38.82957904564754,0.0
0.108,0.8889867713194107,-0.15339444678499886,0.7849251229378866,0.0,2.6537074932741973,2.5633754437364695,38.23887757100962,38.82957904564754,0.0
0.109,0.8938525426985102,-0.14576459906224964,0.9450150284458908,0.0,2.6591744497494223,2.579077138606269,38.27903876669071,38.82957904564754,0.0
0.11,0.9009293721796898,-0.14895201866374802,0.9304398333949122,0.0,2.6660917946974965,2.589821395596785,38.60453890878134,38.82957904564754,0.0
0.111,0.9122098219464005,-0.14430610214787315,0.7699401637182579,0.0,2.6728489058370535,2.5815036684896078,37.78442598412188,38.82957904564754,0.0
0.112,0.910558069912962,-0.14092014142875547,1.1904481566632454,0.0,2.6777725366379936,2.622848798349164,38.78342758070769,38.82957904564754,0.0
0.113,0.9317349305929415,-0.14582583500091317,0.6914088730197409,0.0,2.6869118032449233,2.5991064049774932,37.91950916414301,38.82957904564754,0.0
0.114,0.9289653600225622,-0.1360981401531779,1.132468780117126,0.0,2.6916438004850205,2.63267558159037,38.44125215184256,38.82957904564754,0.0
0.115,0.9432611182446028,-0.14149375869484193,0.8754805552053989,0.0,2.6999503106504568,2.629081507344577,38.350328187414455,38.82957904564754,0.0
0.116,0.9497757898236567,-0.1342077588695268,0.9257350460017834,0.0,2.706211346208568,2.6342017114851517,37.865219949895156,38.82957904564754,0.0
0.117,0.9526241136339485,-0.13428166528455904,1.1779327557189567,0.0,2.7124392883288317,2.6664270330250623,38.72906184337223,38.82957904564754,0.0
0.11800000000000001,0.9716432558451782,-0.1366196103265659,0.7470169810031735,0.0,2.721523403281532,2.6440662819019685,37.89404751478144,38.82957904564754,0.0
0.11900000000000001,0.968634074142954,-0.12675769936497805,1.1738794606072283,0.0,2.7263548419704575,2.676635249299415,38.27662995551305,38.82957904564754,0.0
0.12,0.9824519102635207,-0.13196468904227998,0.988117731142768,0.0,2.7346314215043535,2.6801779949985933,38.54959525907769,38.82957904564754,0.0
0.121,0.9922832485020413,-0.1266339038787998,0.8544349172261468,0.0,2.741796161390023,2.6704033630000286,37.656807331724295,38.82957904564754,0.0
0.122,0.9903140967532438,-0.12136367407089954,1.3125565980420775,0.0,2.7467405466600345,2.7143678012935584,38.47659294780351,38.82957904564754,0.0
0.123,1.0116528984078368,-0.12856502407786757,0.9061936509809099,0.0,2.7564317880312434,2.7027821336003557,38.28737283540616,38.82957904564754,0.0
0.124,1.0163985264729063,-0.12024919251607608,1.0062257692819991,0.0,2.7630085835241447,2.708082688226714,37.6767487240976,38.82957904564754,0.0
0.125,1.0193874058835832,-0.11908898228648918,1.3230661281517786,0.0,2.769413290120754,2.747081664777867,38.550724879291955,38.82957904564754,0.0
0.126,1.0409621933792175,-0.12442903723953963,0.8888665922181567,0.0,2.77967643185995,2.7295475239617577,38.19723809426247,38.82957904564754,0.0
0.127,1.0422877357091838,-0.11475016031931873,1.0719333942467517,0.0,2.7860417683328604,2.73934239320232,37.66281436690197,38.82957904564754,0.0
0.128,1.0464326212151494,-0.11416608736384909,1.3508129047144561,0.0,2.7927825988266366,2.777197705314923,38.514157958767214,38.82957904564754,0.0
0.129,1.0680446178053644,-0.11913866232305004,0.9282953196506372,0.0,2.803187701457363,2.7603399690340806,38.244946819432954,38.82957904564754,0.0
0.13,1.0697292021413474,-0.109525086984049,1.068747211579913,0.0,2.809759301160049,2.7659142162961983,37.572215828487685,38.82957904564754,0.0
0.131,1.0724371928408858,-0.1071252744363052,1.4176863392241459,0.0,2.8160633219918174,2.8082859507903555,38.49274073413074,38.82957904564754,0.0
0.132,1.0946901324834455,-0.11484533767839145,0.960792269517786,0.0,2.8268473192719306,2.790882431520447,38.700446738743146,38.82957904564754,0.0
0.133,1.0937521075002086,-0.11044422011477395,0.8582305902806275,0.0,2.834251241332624,2.7699105320310986,38.089478309912785,38.82957904564754,0.0
0.134,1.0802461532466812,-0.1067343735141898,1.1711158120531557,0.0,2.8384535092878846,2.7886954806021587,38.73487369080133,38.82957904564754,0.0
0.135,1.082203081763549,-0.11420439830275247,0.8493651751573457,0.0,2.844972846497473,2.7671504171559835,39.14632207979527,38.82957904564754,0.0
