timestamp,iq,id,iq_ref,id_ref,vq,vd,omega,omega_ref,r
0.0,0.0,0.0,0.0,0.0,0.0,0.0,0.0,398.27152402209737,0.0
0.001,0.0,0.0,10.0,0.0,0.0,1.0999999999999999,6.115472199294103,398.27152402209737,0.0
0.002,0.5307369851907212,-0.2913212625381807,10.0,0.0,0.14204533887919985,1.9316189316290207,13.317801563642547,398.27152402209737,0.0
0.003,1.0842913387634832,-0.6024330830807904,10.0,0.0,0.384357124667687,2.6386968949419622,20.697939467553027,398.27152402209737,0.0
0.004,1.5590443546685477,-0.8700465084428163,10.0,0.0,0.6994718867930164,3.2526109522886295,28.232747544420146,398.27152402209737,0.0
0.005,1.9399447555359186,-1.0838738622210777,10.0,0.0,1.065311453102468,3.7994935661768023,35.92944872443006,398.27152402209737,0.0
0.006,2.239750732602683,-1.2510087368845633,10.0,0.0,1.4655018868449925,4.299102221838433,43.75633668444442,398.27152402209737,0.0
0.007,2.4770151619816017,-1.382020589851471,10.0,0.0,1.8883740978591532,4.765668027847139,51.58766747378032,398.27152402209737,0.0
0.008,2.6680767290418097,-1.4872241871505252,10.0,0.0,2.325877945545995,5.209220346273558,59.45942083902103,398.27152402209737,0.0
0.009000000000000001,2.8266491704841292,-1.5730794701170803,10.0,0.0,2.772378685460125,5.636635464737965,67.35059094018146,398.27152402209737,0.0
0.01,2.962077666392183,-1.645500646948331,10.0,0.0,3.224078639851053,6.052647735211881,75.20908322432116,398.27152402209737,0.0
0.011,3.0811061533574158,-1.7084279320504514,10.0,0.0,3.678407615443203,6.460489925470405,83.0265951655913,398.27152402209737,0.0
0.012,3.188848746459569,-1.7638278597420747,10.0,0.0,4.133552631697047,6.862319393890706,90.74118064793086,398.27152402209737,0.0
0.013000000000000001,3.288205119878689,-1.8140726097274587,10.0,0.0,4.588339016389012,7.259628641949282,98.35820682563939,398.27152402209737,0.0
0.014,3.3820602099432007,-1.8592355758795645,10.0,0.0,5.041843166194517,7.653355107498287,105.90865295623543,398.27152402209737,0.0
0.015,3.4721069852858886,-1.899829032412081,10.0,0.0,5.493383198131427,8.044092747085895,113.37727610343421,398.27152402209737,0.0
0.016,3.5596145800153947,-1.9360338400176071,10.0,0.0,5.94241958510469,8.43218525824161,120.68508583176356,398.27152402209737,0.0
0.017,3.645144415105338,-1.9685384477868613,10.0,0.0,6.388575043274759,8.817838951066484,127.83962377537456,398.27152402209737,0.0
0.018000000000000002,3.730251927866576,-1.9959253041084188,10.0,0.0,6.83136783302799,9.201036292373047,134.85405702603322,398.27152402209737,0.0
0.019,3.81544967906247,-2.018253592643655,10.0,0.0,7.270383321112213,9.581672501020332,141.68976328564074,398.27152402209737,0.0
0.02,3.9014648862453374,-2.0350875541282063,10.0,0.0,7.705189334130692,9.959536942333155,148.3432823300447,398.27152402209737,0.0
0.021,3.9891051824829464,-2.0457889559126508,10.0,0.0,8.135310004560049,10.334315260302239,154.92060212100432,398.27152402209737,0.0
0.022,4.079618141396171,-2.0489696811670974,10.0,0.0,8.560139305503519,10.705547790999272,161.01925282597162,398.27152402209737,0.0
0.023,4.171109372430197,-2.048468292080302,10.0,0.0,8.979521969370257,11.072981092896333,166.534238406907,398.27152402209737,0.0
0.024,4.266936196769627,-2.039517194249811,10.0,0.0,9.392730090169543,11.435983292623375,171.8647834235234,398.27152402209737,0.0
0.025,4.367255527950721,-2.0225841458509217,10.0,0.0,9.79914449451603,11.793929226271104,177.02637022703064,398.27152402209737,0.0
0.026000000000000002,4.4734353073349595,-1.9962166741499119,10.0,0.0,10.197980960389518,12.146045424568259,181.63161391243256,398.27152402209737,0.0
0.027,4.582366840795821,-1.966358349113627,10.0,0.0,10.589124658468391,12.491912978736195,185.74793639675826,398.27152402209737,0.0
0.028,4.700058850757774,-1.9240450691803936,10.0,0.0,10.971384864613876,12.830451341534015,189.43662766964098,398.27152402209737,0.0
0.029,4.820934284790598,-1.879137197786803,10.0,0.0,11.344756153370636,13.161242511022618,192.73598774770625,398.27152402209737,0.0
0.03,4.952016225740939,-1.821000614527957,10.0,0.0,11.707923484756042,13.483081433273819,195.59831968863915,398.27152402209737,0.0
0.031,5.086039273572549,-1.7621311371320891,10.0,0.0,12.061063698547066,13.79562148058647,197.80891551030922,398.27152402209737,0.0
0.032,5.230431844273564,-1.6911110488141978,10.0,0.0,12.40292038074925,14.097678592248165,200.4421589734679,398.27152402209737,0.0
0.033,5.380124186618445,-1.6166151787533525,10.0,0.0,12.733312761073865,14.38869342901298,201.91742172589852,398.27152402209737,0.0
0.034,5.537594793894332,-1.535029134414507,10.0,0.0,13.051537880865839,14.667821176756876,203.18880493813168,398.27152402209737,0.0
0.035,5.698947813469154,-1.4530296333491768,10.0,0.0,13.357649178779205,14.934684535625108,203.60405746232266,398.27152402209737,0.0
0.036000000000000004,5.870474243492053,-1.3603000477825025,10.0,0.0,13.65045542338638,15.188218311291084,204.28541056101804,398.27152402209737,0.0
0.037,6.041188711220851,-1.275010780747051,10.0,0.0,13.930879897581198,15.42861600670124,205.2233356988433,398.27152402209737,0.0
0.038,6.228175208801664,-1.168399557236846,10.0,0.0,14.196427351981786,15.654155009933262,200.35169734043586,398.27152402209737,0.0
0.039,6.404895489618571,-1.0845312562500289,10.0,0.0,14.449814560392067,15.86612549236809,209.64773540576442,398.27152402209737,0.0
0.04,6.534612624563911,-1.0851225869390002,10.0,0.0,14.699963825590459,16.069735965364643,218.170241886545,398.27152402209737,0.0
0.041,6.621487035821765,-1.1484636683301073,10.0,0.0,14.952420817214799,16.26974130369247,220.68166573712315,398.27152402209737,0.0
0.042,6.6704785161669795,-1.2647840534085386,10.0,0.0,15.211794475054209,16.47047148862455,233.10654395573727,398.27152402209737,0.0
0.043000000000000003,6.709376245503157,-1.3867642159960276,10.0,0.0,15.477558399636717,16.673277185423842,235.10815372853793,398.27152402209737,0.0
0.044,6.744196093263161,-1.5028656568708394,10.0,0.0,15.74857785831126,16.87893749904121,248.8181267625822,398.27152402209737,0.0
0.045,6.750563942850831,-1.6564343609015326,10.0,0.0,16.02879294551472,17.090781462187255,251.61117095327992,398.27152402209737,0.0
0.046,6.764566527560506,-1.7840489455190416,10.0,0.0,16.314672837580048,17.307985931916857,266.60539535969383,398.27152402209737,0.0
0.047,6.752169677737121,-1.9446655565152717,10.0,0.0,16.610076868775216,17.533561623207692,270.0627790167984,398.27152402209737,0.0
0.048,6.7291903821171735,-2.110358990489937,10.0,0.0,16.91511817760721,17.768523902508925,283.13731951482634,398.27152402209737,0.0
0.049,6.714097190323873,-2.246352557911731,10.0,0.0,17.22645394156277,18.011924542904307,294.70561782835244,398.27152402209737,0.0
0.05,6.666841209228205,-2.4219663531358275,10.0,0.0,17.548953774962747,18.267165921658286,300.1294548425776,398.27152402209737,0.0
0.051000000000000004,6.612335516543512,-2.59336894353628,10.0,0.0,17.88182590988993,18.53465621226123,310.75154600411304,398.27152402209737,0.0
0.052000000000000005,6.568447424188529,-2.726701034625408,10.0,0.0,18.22111236450049,18.81296732052879,322.35703405819294,398.27152402209737,0.0
0.053,6.5036136539679195,-2.8764091099274185,10.0,0.0,18.569435851849082,19.104068797231378,330.9557012510771,398.27152402209737,0.0
0.054,6.434362099984388,-3.0149932598739144,10.0,0.0,18.925784313874168,19.407861808234543,339.4707232587175,398.27152402209737,0.0
0.055,6.370891759459199,-3.1253006473392393,10.0,0.0,19.28762520191878,19.723199586257838,348.00092263299223,398.27152402209737,0.0
0.056,6.314459991163816,-3.2071523724558277,10.0,0.0,19.65271639484943,20.048760466390505,356.29964302226927,398.27152402209737,0.0
0.057,6.266092078485367,-3.262894600420583,10.0,0.0,20.01916768432525,20.383030530514645,362.98468703488817,398.27152402209737,0.0
0.058,6.234656406121481,-3.2830044001420036,10.0,0.0,20.38405550695561,20.723492962007192,368.0316803659419,398.27152402209737,0.0
0.059000000000000004,6.228510489334133,-3.2600491726267444,10.0,0.0,20.743774617448285,21.0667596267365,372.35801287012686,398.27152402209737,0.0
0.06,6.247959954981508,-3.201438289803519,10.0,0.0,21.095630838529225,21.40947063565305,373.88739853789605,398.27152402209737,0.0
0.061,6.298571070969623,-3.1064761741463998,10.0,0.0,21.436712814499675,21.747723437683817,371.47602194372377,398.27152402209737,0.0
0.062,6.38094735961424,-2.982369480030801,10.0,0.0,21.76480975788002,22.077703876517536,366.2922057853833,398.27152402209737,0.0
0.063,6.53566146196873,-2.7695519558602215,10.0,0.0,22.070926190088084,22.39130117743337,372.07145994459506,398.27152402209737,0.0
0.064,6.708566607552835,-2.560747003310555,10.0,0.0,22.35695033962817,22.686677966487718,365.1882535794375,398.27152402209737,0.0
0.065,6.897199383751794,-2.3667028673086685,10.0,0.0,22.62465294768497,22.962098937664592,356.7297130485294,398.27152402209737,0.0
0.066,7.167218997264825,-2.0824440278168583,10.0,0.0,22.863799361069702,23.20893224280502,357.7888817172531,398.27152402209737,0.0
0.067,7.423387055578651,-1.859201647307153,10.0,0.0,23.082000390168847,23.42951856849048,345.1266644280509,398.27152402209737,0.0
0.068,7.736929428236853,-1.5824320316278497,10.0,0.0,23.27222771500701,23.617938384108047,342.9584987314189,398.27152402209737,0.0
0.069,8.04132723792414,-1.3546495884062866,10.0,0.0,23.43998591632552,23.77619061530866,334.2677598047511,398.27152402209737,0.0
0.07,8.395997401416553,-1.0747195592463576,10.0,0.0,23.578279041856877,23.89942370363377,322.7417355360636,398.27152402209737,0.0
0.07100000000000001,8.726669482066718,-0.8579631993863083,10.0,0.0,23.694022264374595,23.99133556844291,337.9106389559309,398.27152402209737,0.0
0.07200000000000001,8.91385728821635,-0.8925675486457335,10.0,0.0,23.81335639313859,24.06834663115294,344.8606079910171,398.27152402209737,0.0
0.073,8.941721008651788,-1.1508071676799903,10.0,0.0,23.95651852989837,24.148396869281978,362.43451347602996,398.27152402209737,0.0
0.074,8.927907180207171,-1.4305443375681337,10.0,0.0,24.121558169292424,24.236556455607346,368.59250641149885,398.27152402209737,0.0
0.075,8.859340450140312,-1.7499202918046703,10.0,0.0,24.31124378664675,24.33980824926249,387.10067316750514,398.27152402209737,0.0
0.076,8.767176841935807,-2.0562826706616475,10.0,0.0,24.52279212376306,24.461155754889383,396.7190369145668,398.27152402209737,0.0
0.077,8.62162972262067,-2.4016532593838043,7.611589029474385,0.0,24.76024751870129,24.34388668395001,406.170316875378,398.27152402209737,0.0
0.078,8.345050477747758,-2.637457086306593,2.8069611205359895,0.0,24.984715182126052,23.786433345063315,418.416203399269,398.27152402209737,0.0
0.079,7.770121937497111,-2.755245341849295,-3.5174289351812495,0.0,25.141589415160134,22.720011826347083,418.2865908924645,398.27152402209737,0.0
0.08,6.873933838722462,-2.6522360745291076,-3.6527733504826685,0.0,25.163625171058534,21.917107303142608,419.4973613406321,398.27152402209737,0.0
0.081,6.026876871541416,-2.517329561853613,-4.470416947751806,0.0,25.089357275325554,21.192323841703995,418.90534204498886,398.27152402209737,0.0
0.082,5.2709102258972065,-2.365814687910897,-4.3807454801591,0.0,24.934720252015058,20.625317995592894,416.25585666050006,398.27152402209737,0.0
0.083,4.663845275116055,-2.2148886209713092,-3.2358461142987283,0.0,24.723759627800582,20.283808725460045,411.95197327064557,398.27152402209737,0.0
0.084,4.250312821328582,-2.0961795425015195,-1.2207089118569643,0.0,24.488195401031977,20.204988338937838,406.7955505328613,398.27152402209737,0.0
0.085,4.0647070067875815,-2.017216112007174,1.2722621919275383,0.0,24.26080667171834,20.380850332844503,401.78286466650707,398.27152402209737,0.0
0.08600000000000001,4.1012824194619055,-1.988067041182208,3.7434917186605503,0.0,24.071326251240926,20.757413437792334,396.3722711899351,398.27152402209737,0.0
0.08700000000000001,4.3312512492359385,-1.9873059125300567,6.467780985268168,0.0,23.938657949862552,21.32740089710876,394.8933552025073,398.27152402209737,0.0
0.088,4.739054903803426,-2.0003140170767644,7.241020667177967,0.0,23.877693727340315,21.84237753899501,397.5296070011425,398.27152402209737,0.0
0.089,5.171884195728465,-2.005875408024171,5.930313938069908,0.0,23.874805263217674,22.10431677185335,385.01340574685923,398.27152402209737,0.0
0.09,5.5067767597407205,-1.9220358035700376,10.0,0.0,23.889121598393697,22.768035879994887,379.7874200949804,398.27152402209737,0.0
0.091,6.054901912724605,-1.8287695472991072,10.0,0.0,23.958957318721026,23.269173009032478,380.47861761941533,398.27152402209737,0.0
0.092,6.562901469240721,-1.7590916855988445,10.0,0.0,24.065191277695043,23.67678129751209,366.60234956200105,398.27152402209737,0.0
0.093,7.0659596452080216,-1.6059878663555711,10.0,0.0,24.185418028119884,24.003995749249917,366.4282367361809,398.27152402209737,0.0
0.094,7.533807575280867,-1.4244219247596286,10.0,0.0,24.307902333292887,24.264078740308094,351.4165234285001,398.27152402209737,0.0
0.095,7.982336940367718,-1.2120754490120023,10.0,0.0,24.422604054138127,24.465742111918928,348.4028910323212,398.27152402209737,0.0
0.096,8.399009662695725,-1.0118398289065649,10.0,0.0,24.52609948660582,24.617360612648,339.6167911847321,398.27152402209737,0.0
0.097,8.832827530058431,-0.7575657316303941,10.0,0.0,24.608439431400313,24.72061356836431,346.25770871356855,398.27152402209737,0.0
0.098,9.052199411467294,-0.8349642084008613,10.0,0.0,24.703927250704506,24.801982494707094,360.39043441339703,398.27152402209737,0.0
0.099,9.09994634192299,-1.1286660812038356,10.0,0.0,24.82953640195318,24.881704866809983,372.9824615706761,398.27152402209737,0.0
0.1,9.106796473208863,-1.4179302405480119,10.0,0.0,24.979438914087098,24.965739871690552,384.41001824041035,398.27152402209737,0.0
0.101,9.024441839645538,-1.787875883928878,10.0,0.0,25.16055605467413,25.06548913830129,397.5984336243436,398.27152402209737,0.0
0.10200000000000001,8.933116540128248,-2.1056309119252026,6.78666679293935,0.0,25.364790004509334,24.829130776144247,411.3091238655936,398.27152402209737,0.0
0.10300000000000001,8.60154607979242,-2.3925072453024,-0.19905432612061524,0.0,25.553343569536846,23.936095151802206,413.93235917827,398.27152402209737,0.0
0.10400000000000001,7.884538914415645,-2.4405923959826152,-1.6672803340205427,0.0,25.636158818868438,23.135125880306823,419.7996290211239,398.27152402209737,0.0
0.105,7.081596177327149,-2.428295708998096,-4.816196305437751,0.0,25.628762129042236,22.17199019354321,421.48775580607935,398.27152402209737,0.0
0.106,6.192210089050217,-2.3338424731003498,-5.892422015755293,0.0,25.515524650443403,21.307335780392155,420.548033894593,398.27152402209737,0.0
0.107,5.357778699733473,-2.202980940007718,-5.6453261587370775,0.0,25.313695242108118,20.63865945401357,418.0647386205019,398.27152402209737,0.0
0.108,4.675393667013613,-2.0763744716387156,-4.601610667675563,0.0,25.05256304577884,20.195723604591922,414.56794534477103,398.27152402209737,0.0
0.109,4.189955973527891,-1.9746875189628248,-3.0161782430368733,0.0,24.76333098402968,19.981502828235385,409.91095826021905,398.27152402209737,0.0
0.11,3.908944658726138,-1.9122223892215362,-0.8040790431420968,0.0,24.475745756074986,20.01331437877496,404.66703105109417,398.27152402209737,0.0
0.111,3.8441180726793736,-1.8852639574962893,1.753929491130373,0.0,24.217759429777363,20.276767009553254,399.5439972013731,398.27152402209737,0.0
0.112,3.979909489575583,-1.8984120332390315,4.302721684198158,0.0,24.013632871836283,20.727277478799632,394.3906280038862,398.27152402209737,0.0
0.113,4.292135746541434,-1.927549959942103,6.9182152431237105,0.0,23.878043707793857,21.34155364078112,394.26450540477435,398.27152402209737,0.0
0.114,4.754613708133109,-1.9636479056538043,7.021346728852866,0.0,23.82112047111508,21.81828248479575,395.60575441490414,398.27152402209737,0.0
0.115,5.186411167207708,-1.9771613408681747,6.377379919859905,0.0,23.818687940922104,22.126905516012215,381.8991646590093,398.27152402209737,0.0
0.116,5.559314919470277,-1.8876482573826843,10.0,0.0,23.83737939333453,22.772649429834953,379.4905069573683,398.27152402209737,0.0
0.117,6.109839367329001,-1.7963099284014774,10.0,0.0,23.909624006534905,23.26263324497343,377.56076669649264,398.27152402209737,0.0
0.11800000000000001,6.613468816584033,-1.730300226047638,10.0,0.0,24.01729485595998,23.660949144978616,364.21193307772603,398.27152402209737,0.0
0.11900000000000001,7.124339074526971,-1.5598602284691423,10.0,0.0,24.13594190773297,23.979041106044637,363.0679078308278,398.27152402209737,0.0
0.12,7.5801340026809045,-1.393822828439086,10.0,0.0,24.257973736407752,24.23215983666384,350.5554922788318,398.27152402209737,0.0
0.121,8.037256263842593,-1.1652855721514652,10.0,0.0,24.369635531085628,24.426444377642348,343.23786994502865,398.27152402209737,0.0
0.122,8.445590511559388,-0.9766109409679231,10.0,0.0,24.471090763526256,24.572121099353573,339.52847085983706,398.27152402209737,0.0
0.123,8.875701877004108,-0.7275394516597453,10.0,0.0,24.551457027381883,24.670146764415982,348.2662645890535,398.27152402209737,0.0
0.124,9.049715539207936,-0.8709121551421433,10.0,0.0,24.65185094363433,24.75156610016974,360.19285368653885,398.27152402209737,0.0
0.125,9.085150284237045,-1.1746524310024795,10.0,0.0,24.782325105146718,24.8327252086422,374.3213538018649,398.27152402209737,0.0
0.126,9.081883034727438,-1.4700630785505822,10.0,0.0,24.937325529826808,24.91952956731501,385.2144198799271,398.27152402209737,0.0
0.127,8.994225521533163,-1.8386659341914835,10.0,0.0,25.123098555551184,25.02276318654481,398.61572894429327,398.27152402209737,0.0
0.128,8.897845454760997,-2.1553286213888128,5.861463550562639,0.0,25.331764507661404,24.688736969198956,411.35920316237195,398.27152402209737,0.0
0.129,8.513588766664284,-2.4146854113623606,-0.6411503498794522,0.0,25.511523862851124,23.77638223926737,413.9374311001074,398.27152402209737,0.0
0.13,7.768919603352959,-2.4454099737310955,-2.0869233895272767,0.0,25.582857943489554,22.957301063574366,419.2937397736234,398.27152402209737,0.0
0.131,6.950476530664586,-2.418111588088998,-4.975299883800521,0.0,25.561840430450506,22.006579775903518,420.6380716696733,398.27152402209737,0.0
0.132,6.066237721932949,-2.316964402879403,-5.8711313083012495,0.0,25.43699933343165,21.168253012177107,419.43688821899514,398.27152402209737,0.0
0.133,5.2514530592909185,-2.1854962024107465,-5.48219322493114,0.0,25.22735963954258,20.53380024334048,416.8533364768724,398.27152402209737,0.0
0.134,4.597792656223106,-2.0613749600719715,-4.376235478417529,0.0,24.96289998350618,20.123349550992437,413.18461813301417,398.27152402209737,0.0
0.135,4.140973122114553,-1.9656754850489335,-2.6910072475975744,0.0,24.674555494009468,19.94552703492188,408.378051793417,398.27152402209737,0.0
0.136,3.8909968195051814,-1.9088188611653227,-0.38878935551218685,0.0,24.39196596797841,20.015973205275856,403.3353493882702,398.27152402209737,0.0
0.137,3.8572162396674132,-1.8892008777357587,2.081923593399498,0.0,24.14309059964743,20.301088152206813,398.1396950671495,398.27152402209737,0.0
0.138,4.015214169271494,-1.9054772203997064,4.68106904350932,0.0,23.94960084036998,20.776285359579713,393.3860275008739,398.27152402209737,0.0
0.139,4.34926755280777,-1.9340975136836747,7.106757791859338,0.0,23.825965246592162,21.390282285212038,394.27862249282657,398.27152402209737,0.0
0.14,4.816207005024583,-1.970851658645461,6.700389311175721,0.0,23.779849657768306,21.813535732636158,393.0913789887717,398.27152402209737,0.0
0.14100000000000001,5.221457814434535,-1.973601329301247,7.345812513536424,0.0,23.78060589489177,22.225004318989072,380.0162775436442,398.27152402209737,0.0
0.14200000000000002,5.643928113748403,-1.8898140895629476,10.0,0.0,23.813189273860413,22.838488837075992,379.97985882848906,398.27152402209737,0.0
0.14300000000000002,6.188662025077254,-1.8017604809274226,10.0,0.0,23.89501474218836,23.311645339133424,375.17096244930036,398.27152402209737,0.0
0.14400000000000002,6.684300377321709,-1.7282329264670757,10.0,0.0,24.008765818984973,23.6965958581843,363.8707560738104,398.27152402209737,0.0
0.145,7.193789732936444,-1.5395829960393554,10.0,0.0,24.129620623204566,24.00333898741457,361.16064490482654,398.27152402209737,0.0
