timestamp,iq,id,iq_ref,id_ref,vq,vd,omega,omega_ref,r
0.0,0.0,0.0,0.0,0.0,0.0,0.0,0.0,127.59994402785152,0.0
0.001,0.0,0.0,10.0,0.0,0.0,1.0999999999999999,6.115472199294103,127.59994402785152,0.0
0.002,0.5307369851907212,-0.2913212625381807,10.0,0.0,0.14204533887919985,1.9316189316290207,13.317801563642547,127.59994402785152,0.0
0.003,1.0842913387634832,-0.6024330830807904,10.0,0.0,0.384357124667687,2.6386968949419622,20.697939467553027,127.59994402785152,0.0
0.004,1.5590443546685477,-0.8700465084428163,10.0,0.0,0.6994718867930164,3.2526109522886295,28.232747544420146,127.59994402785152,0.0
0.005,1.9399447555359186,-1.0838738622210777,10.0,0.0,1.065311453102468,3.7994935661768023,35.92944872443006,127.59994402785152,0.0
0.006,2.239750732602683,-1.2510087368845633,10.0,0.0,1.4655018868449925,4.299102221838433,43.75633668444442,127.59994402785152,0.0
0.007,2.4770151619816017,-1.382020589851471,10.0,0.0,1.8883740978591532,4.765668027847139,51.58766747378032,127.59994402785152,0.0
0.008,2.6680767290418097,-1.4872241871505252,10.0,0.0,2.325877945545995,5.209220346273558,59.45942083902103,127.59994402785152,0.0
0.009000000000000001,2.8266491704841292,-1.5730794701170803,10.0,0.0,2.772378685460125,5.636635464737965,67.35059094018146,127.59994402785152,0.0
0.01,2.962077666392183,-1.645500646948331,10.0,0.0,3.224078639851053,6.052647735211881,75.20908322432116,127.59994402785152,0.0
0.011,3.0811061533574158,-1.7084279320504514,10.0,0.0,3.678407615443203,6.460489925470405,83.0265951655913,127.59994402785152,0.0
0.012,3.188848746459569,-1.7638278597420747,10.0,0.0,4.133552631697047,6.862319393890706,90.74118064793086,127.59994402785152,0.0
0.013000000000000001,3.288205119878689,-1.8140726097274587,10.0,0.0,4.588339016389012,7.259628641949282,98.35820682563939,127.59994402785152,0.0
0.014,3.3820602099432007,-1.8592355758795645,10.0,0.0,5.041843166194517,7.653355107498287,105.90865295623543,127.59994402785152,0.0
0.015,3.4721069852858886,-1.899829032412081,10.0,0.0,5.493383198131427,8.044092747085895,113.37727610343421,127.59994402785152,0.0
0.016,3.5596145800153947,-1.9360338400176071,9.677739038137695,0.0,5.94241958510469,8.396736552436758,120.47772284318866,127.59994402785152,0.0
0.017,3.628336646020673,-1.9592030911237182,6.198737880107101,0.0,6.384003283461331,8.372867746871837,125.2866258890393,127.59994402785152,0.0
0.018000000000000002,3.5150397366002597,-1.8755475627687062,3.817419538569903,0.0,6.7696079307957,8.181539066406582,128.23326469051096,127.59994402785152,0.0
0.019,3.2739837211683165,-1.7129394836311902,2.3377669312074767,0.0,7.080468911928531,7.934338307930105,130.0061538544808,127.59994402785152,0.0
0.02,2.9786689793140955,-1.5229494914301989,1.427260250956266,0.0,7.3162509007497,7.687658576110194,128.3966905887536,127.59994402785152,0.0
0.021,2.6868887319651336,-1.3335398742101683,2.2240244182108526,0.0,7.484851559534566,7.615116821344753,127.60949026915073,127.59994402785152,0.0
0.022,2.508564507258738,-1.1846769865909503,2.6175291155992904,0.0,7.614857155498487,7.618705045218736,130.61867695121086,127.59994402785152,0.0
0.023,2.408873328964668,-1.0948065832170646,1.0827484453356306,0.0,7.72382389875848,7.471356872964112,130.1473023029202,127.59994402785152,0.0
0.024,2.2703522857070477,-0.9960745862636834,1.292962186730275,0.0,7.797197334835877,7.402351913492396,126.69674363560755,127.59994402785152,0.0
0.025,2.176435966982745,-0.9027564545249204,3.027273524309039,0.0,7.847055256836634,7.545202487922403,129.56983325715044,127.59994402785152,0.0
0.026000000000000002,2.208085564477778,-0.8678946776481735,1.5710298212446059,0.0,7.903310829941261,7.496803257484914,130.1568919033165,127.59994402785152,0.0
0.027,2.1787876054122473,-0.8293896522242366,1.2519310194069204,0.0,7.94521398766381,7.441870347702293,126.73098741730462,127.59994402785152,0.0
0.028,2.1434677376267177,-0.7667016965870344,2.9735728285183334,0.0,7.9709229137699875,7.592784837556577,128.57263719767028,127.59994402785152,0.0
0.029,2.208723443799395,-0.7511068075122186,2.0430210066373173,0.0,8.00806383800912,7.604070326181174,128.80522518299972,127.59994402785152,0.0
0.03,2.2293808159726867,-0.7361970647284342,1.914674202421113,0.0,8.041135095871333,7.611508974244914,125.36492570440679,127.59994402785152,0.0
0.031,2.2503540239673594,-0.6943586757658186,3.6571741249520273,0.0,8.067189967395647,7.812368863651387,128.73576917877676,127.59994402785152,0.0
0.032,2.3591349889782776,-0.7046098324314817,1.9603941362577864,0.0,8.112271351831026,7.779921279216711,126.03427323497614,127.59994402785152,0.0
0.033,2.3787832853815627,-0.6811254638525517,3.326798816086852,0.0,8.146914047269059,7.921425403382927,127.16694217570215,127.59994402785152,0.0
0.034,2.4680811678522456,-0.6655265447312299,2.7647943642453425,0.0,8.190761848162357,7.967132564067731,126.8997429636298,127.59994402785152,0.0
0.035,2.515736892739361,-0.6595006521421879,2.9053959809237306,0.0,8.234288726041221,8.029390860213542,125.27000583322294,127.59994402785152,0.0
0.036000000000000004,2.579224194262286,-0.6249750060871049,3.743563928073449,0.0,8.275951183606612,8.174061426633696,127.15678028229051,127.59994402785152,0.0
0.037,2.6692486236388273,-0.6340108332816962,2.804608340995273,0.0,8.329253649509434,8.18749657390208,124.272112799285,127.59994402785152,0.0
0.038,2.7199544087038947,-0.5979469891023302,4.280220394783695,0.0,8.374512002417141,8.371947942758032,127.14934524978997,127.59994402785152,0.0
0.039,2.8297364445163997,-0.6087201874969088,2.8461101573118226,0.0,8.435235347184864,8.358402797270639,123.925098847012,127.59994402785152,0.0
0.04,2.8732600070501872,-0.5675539602491627,4.494981810509207,0.0,8.48389582594588,8.5443117135146,126.47152081927234,127.59994402785152,0.0
0.041,2.9823247830163453,-0.5763056330665324,3.2330550564648255,0.0,8.547655494737578,8.549633236802466,123.95091825048303,127.59994402785152,0.0
0.042,3.0384721992009514,-0.5342478854442119,4.529846598633167,0.0,8.600857480012268,8.710979343799039,125.14741644976922,127.59994402785152,0.0
0.043000000000000003,3.1383672001357197,-0.5407476361627264,3.9561227747708925,0.0,8.666009427514402,8.775006526635906,125.2226504296575,127.59994402785152,0.0
0.044,3.223703533407008,-0.5080828078319735,3.9422787208086914,0.0,8.727390769926442,8.834972531591593,122.40277097012914,127.59994402785152,0.0
0.045,3.285338909657715,-0.49154073706068546,5.404190181150098,0.0,8.787137599091311,9.05010224341522,125.53445571412249,127.59994402785152,0.0
0.046,3.42721455686001,-0.4994359547236269,3.8590026922907152,0.0,8.863456611172694,9.050113961165282,123.78121973188352,127.59994402785152,0.0
0.047,3.4934426929423834,-0.4555985633191193,4.7738079263698765,0.0,8.927243828589821,9.167970520488744,122.33421991082209,127.59994402785152,0.0
0.048,3.5788591393991434,-0.44921940092925694,5.5499650780708905,0.0,8.996174646248743,9.347915852218467,127.04466280121791,127.59994402785152,0.0
0.049,3.699523489920746,-0.4745361185354142,3.200296445139314,0.0,9.079055545875315,9.238115697308817,127.05622864197768,127.59994402785152,0.0
0.05,3.6722581518508424,-0.46356995592007566,3.1999506786181664,0.0,9.14120889498452,9.17524813055769,126.98324975052729,127.59994402785152,0.0
0.051000000000000004,3.6070913213938978,-0.4743321207565119,3.242607067116604,0.0,9.192153652265853,9.136474013762196,131.52739073131505,127.59994402785152,0.0
0.052000000000000005,3.5526554339179612,-0.4830732026895821,0.9312621096880891,0.0,9.234980419503776,8.857333554490047,129.2558622180388,127.59994402785152,0.0
0.053,3.385341362687087,-0.4337679837934827,2.050467184424342,0.0,9.24009947919279,8.774476014624817,130.54629875087522,127.59994402785152,0.0
0.054,3.2704812324542853,-0.437839818024498,1.3757853707758936,0.0,9.237361832880753,8.625970558079622,131.5175487999997,127.59994402785152,0.0
0.055,3.160266892352176,-0.4179352989607368,0.8509842984921723,0.0,9.217817190106079,8.452035558851918,130.68743690743142,127.59994402785152,0.0
0.056,3.02619064700345,-0.414513284442098,1.235165315980515,0.0,9.182656135279682,8.354693761503412,131.53139447320837,127.59994402785152,0.0
0.057,2.9369431385546276,-0.41612685642372993,0.7738720286384728,0.0,9.141488719264245,8.217462430100488,131.49292391919562,127.59994402785152,0.0
0.058,2.8346363249704156,-0.4289909646042793,0.7541775067314056,0.0,9.0921138278901,8.102645300109733,131.70910473000285,127.59994402785152,0.0
0.059000000000000004,2.749794307533058,-0.43491720954694,0.604995494306277,0.0,9.036717958516187,7.986468871615214,131.893786392793,127.59994402785152,0.0
0.06,2.662896477145045,-0.45352644168669376,0.4697162392617851,0.0,8.977231786316159,7.871691942270424,131.62395339963481,127.59994402785152,0.0
0.061,2.5836563531752974,-0.46409261727389284,0.564392642123047,0.0,8.913192725394845,7.782058720838081,131.93837531849687,127.59994402785152,0.0
0.062,2.5136923717964397,-0.4893595951833216,0.36379736978556654,0.0,8.849267954236595,7.678876308183085,131.62873653704284,127.59994402785152,0.0
0.063,2.446660031511458,-0.5036470929608666,0.47832883542066673,0.0,8.782736373905108,7.600897991238556,132.01164274641172,127.59994402785152,0.0
0.064,2.3863576957316766,-0.5319812621657346,0.2427587435506231,0.0,8.718034003547071,7.502969256726204,131.53033056192066,127.59994402785152,0.0
0.065,2.3247265689787615,-0.5468109818390461,0.44411097045546155,0.0,8.651356924245624,7.439044005092537,131.92736144374567,127.59994402785152,0.0
0.066,2.273047233978546,-0.57587570396602,0.20232135538401863,0.0,8.588003849948187,7.351301606347681,131.45296564865848,127.59994402785152,0.0
0.067,2.2180182306358516,-0.5920344019409903,0.4009890367195439,0.0,8.523698652761984,7.295805878162882,131.71494923588867,127.59994402785152,0.0
0.068,2.1725782903720106,-0.619477397228743,0.22884719102407747,0.0,8.463131544977825,7.2229550266336835,131.36760261935515,127.59994402785152,0.0
0.069,2.125077402630894,-0.637562642328954,0.36484391337579813,0.0,8.403051009827308,7.172784305643517,131.5238357296763,127.59994402785152,0.0
0.07,2.084556917849342,-0.6621679880766101,0.24748844119697333,0.0,8.346487191674065,7.111335778522686,131.3067064727008,127.59994402785152,0.0
0.07100000000000001,2.042153436852803,-0.6807843746525275,0.3189854452362364,0.0,8.29123665168994,7.063673125526524,131.34467659988914,127.59994402785152,0.0
0.07200000000000001,2.004311537645363,-0.7011872232876439,0.26255305592168776,0.0,8.238803049888716,7.0120677250694285,131.26775797282147,127.59994402785152,0.0
0.073,1.9657202369146416,-0.7191171686090234,0.2643342300058231,0.0,8.188220533720903,6.965006381608625,131.17572593497553,127.59994402785152,0.0
0.074,1.9289384922737978,-0.7352032549548346,0.27459242985755283,0.0,8.139580304868613,6.922363590023151,131.13758924462417,127.59994402785152,0.0
0.075,1.894279489608138,-0.7506749795087462,0.25828432286550873,0.0,8.093080848580481,6.880669253790171,131.04876844852583,127.59994402785152,0.0
0.076,1.860520101278993,-0.7644365718949903,0.26820647670793196,0.0,8.048420962214811,6.843115866233811,130.94240016562213,127.59994402785152,0.0
0.077,1.8289535848433731,-0.7768422043919316,0.28796605678207676,0.0,8.005698729380871,6.810060883990879,130.95389483012974,127.59994402785152,0.0
0.078,1.8007097608857343,-0.7872771066714965,0.24867921650549007,0.0,7.96496700453182,6.774311183928666,131.0117791064771,127.59994402785152,0.0
0.079,1.7717446393865857,-0.7954297648576854,0.18561872754555853,0.0,7.9255259255391355,6.734423221130272,130.88310525407948,127.59994402785152,0.0
0.08,1.74040703933251,-0.8004506912911105,0.21712404148208453,0.0,7.886510933491692,6.70183362092602,130.5901950277665,127.59994402785152,0.0
0.081,1.7118116098822866,-0.8053143609418241,0.33367664463942637,0.0,7.848623275025814,6.683939335984377,130.28216852146213,127.59994402785152,0.0
0.082,1.6915504648874917,-0.8124066617866277,0.46086765285550646,0.0,7.81346647030878,6.678813970217431,129.96772894767454,127.59994402785152,0.0
0.083,1.6797012228350598,-0.8229481408759148,0.5944095905510669,0.0,7.782401449178131,6.685203968795647,129.50867321056808,127.59994402785152,0.0
0.084,1.677888081675641,-0.8323885154411714,0.8048501672771349,0.0,7.75601495642965,6.7097424625728985,129.32474924849708,127.59994402785152,0.0
0.085,1.6869652889775286,-0.8454893878820886,0.8795640961061753,0.0,7.736067654556594,6.73428595988671,129.5248943462859,127.59994402785152,0.0
0.08600000000000001,1.6999548298412976,-0.8557485952561361,0.7602420440274289,0.0,7.72156693668896,6.739169734842887,130.73294883186722,127.59994402785152,0.0
0.08700000000000001,1.7012588288930217,-0.8625790683129794,0.12488475319660752,0.0,7.709653428066218,6.673405434559027,129.8394634952945,127.59994402785152,0.0
0.088,1.6623628056061484,-0.8517584852812302,0.5492322268085394,0.0,7.691096271413309,6.670349610998975,128.47039560270562,127.59994402785152,0.0
0.089,1.6466820153280706,-0.8416903051837065,1.225061657354435,0.0,7.673089954089268,6.737177343451284,128.22698127197106,127.59994402785152,0.0
0.09,1.6749047861621962,-0.8464974337589057,1.340498450280523,0.0,7.664196507687112,6.7982001111478345,129.76735221300524,127.59994402785152,0.0
0.091,1.7115674569682127,-0.8578946913477641,0.5486388979118944,0.0,7.663500309743851,6.760221672664385,129.81283841208403,127.59994402785152,0.0
0.092,1.6967095850298919,-0.8535508023141876,0.5037668545301721,0.0,7.658484087376984,6.730955121607925,127.89664458779306,127.59994402785152,0.0
0.093,1.6761367315900275,-0.833782289387046,1.4588967610762422,0.0,7.6489117346095155,6.811741048733313,127.03111382485969,127.59994402785152,0.0
0.094,1.7109022573843837,-0.8318809582768434,1.897350444572848,0.0,7.6483637485384754,6.918139817616801,128.9574767923295,127.59994402785152,0.0
0.095,1.7727234316689042,-0.8469735846713871,0.9205936331931686,0.0,7.660189640177393,6.895563451004754,129.51853208520583,127.59994402785152,0.0
0.096,1.7741575546952446,-0.8424960674152391,0.620880106181452,0.0,7.66793185282909,6.853686848570258,127.02364013602805,127.59994402785152,0.0
0.097,1.7536542258154226,-0.8135807060332134,1.874089119688579,0.0,7.667576269392709,6.959891961807326,126.40528234917717,127.59994402785152,0.0
0.098,1.8028730472775654,-0.8076138757757447,2.1952146299007618,0.0,7.677509557909167,7.0726136177156835,128.5750374772503,127.59994402785152,0.0
0.099,1.871034169269822,-0.8220514462315549,1.100586131370207,0.0,7.69936948421753,7.044430511739842,128.0361400596977,127.59994402785152,0.0
0.1,1.8733405884589611,-0.8106323047388273,1.3656728798280546,0.0,7.7148246260287205,7.061785441417209,125.02185253008744,127.59994402785152,0.0
0.101,1.8848689319325111,-0.7871143550821602,2.898597559610817,0.0,7.7279969635792165,7.243676186009283,127.35817746034328,127.59994402785152,0.0
0.10200000000000001,1.9823501155449283,-0.7964597470405639,1.7328527601579786,0.0,7.759304314445866,7.254526268396928,128.79777523855248,127.59994402785152,0.0
0.10300000000000001,2.0120694720493644,-0.7930498175072653,1.0010755589463738,0.0,7.788097392296364,7.196289716114363,125.38701977278623,127.59994402785152,0.0
0.10400000000000001,1.9951132386908483,-0.7520226108625487,2.7285825343801484,0.0,7.803708613697975,7.346262045389414,126.17792171111361,127.59994402785152,0.0
0.105,2.070243779859997,-0.7430410561301434,2.347351788383837,0.0,7.832178246932809,7.415153890201001,128.0747313177199,127.59994402785152,0.0
0.106,2.123705018122289,-0.7458504173789855,1.394199112182005,0.0,7.865088946610013,7.373839596135513,124.47668937293854,127.59994402785152,0.0
0.107,2.1248950776610482,-0.7102182904160357,3.2244526311218205,0.0,7.8866295193345355,7.55121092112305,126.1413221830823,127.59994402785152,0.0
0.108,2.2205241465661554,-0.7088155528628983,2.406722444497634,0.0,7.923955187424147,7.594239018182053,126.65801678963538,127.59994402785152,0.0
0.109,2.2677662499434406,-0.7084150367942574,2.157794413603251,0.0,7.9618210690186775,7.613251750129527,123.34801558358942,127.59994402785152,0.0
0.11,2.303750322690134,-0.6740448208383305,3.8553143010688564,0.0,7.994024917054034,7.819880438003505,126.97148409253782,127.59994402785152,0.0
0.111,2.419437461355941,-0.6886353916328166,2.0498646459477907,0.0,8.045619914020207,7.781126236429872,123.74882459372563,127.59994402785152,0.0
0.112,2.4391662300737766,-0.6618557829376012,3.6997055896951454,0.0,8.085088328467982,7.949930661901341,125.95279348914418,127.59994402785152,0.0
0.113,2.5394671748234203,-0.6540063814985604,2.614192647372941,0.0,8.136894705946787,7.959060836942237,123.90257836868389,127.59994402785152,0.0
0.114,2.5740104509607713,-0.6377992776602843,3.6762738641947643,0.0,8.182729175773975,8.097345944572936,125.3312391643045,127.59994402785152,0.0
0.115,2.668633064260144,-0.6195633482782941,2.984630515019927,0.0,8.23596482818788,8.129621353144277,123.55349574979759,127.59994402785152,0.0
0.116,2.7126307169876864,-0.6068441560169751,3.9139667050539235,0.0,8.285887704362606,8.269242684828322,125.20317710896154,127.59994402785152,0.0
0.117,2.81223379998407,-0.5894831718561316,3.113093694660849,0.0,8.342997909753182,8.291988415315537,122.49994192222167,127.59994402785152,0.0
0.11800000000000001,2.856523314189546,-0.5705638490171409,4.515711309087084,0.0,8.394764151982743,8.476591445251264,125.34531041782107,127.59994402785152,0.0
0.11900000000000001,2.9756461471329088,-0.5680724119638614,3.115573397387688,0.0,8.45972920813545,8.46720883350346,121.78153895853336,127.59994402785152,0.0
0.12,3.0192920765934135,-0.5323631893275815,4.955643177724723,0.0,8.513356397378642,8.678060219588556,124.7721778569055,127.59994402785152,0.0
0.121,3.143304928251738,-0.5451852000810902,3.4886013902481134,0.0,8.584473519715278,8.680208937175852,122.74534602942003,127.59994402785152,0.0
0.122,3.2039627235777672,-0.5015353604033435,4.550563283975162,0.0,8.643764099104892,8.815308492453545,122.65713741213015,127.59994402785152,0.0
0.123,3.292065325701925,-0.5021182971280639,4.6440956587773154,0.0,8.711136197519808,8.933411384152997,124.36749458682206,127.59994402785152,0.0
0.124,3.3984196314206265,-0.48420630326417347,3.821241565841656,0.0,8.781605226570907,8.944173974945237,121.47984478271866,127.59994402785152,0.0
0.125,3.453064462273657,-0.4431930769851302,5.3262674603446865,0.0,8.841771276844057,9.129741210551407,122.19259673239442,127.59994402785152,0.0
0.126,3.5699198423923466,-0.4519309832359548,5.023964958461376,0.0,8.915848747600899,9.242157149967555,126.05166956637846,127.59994402785152,0.0
0.127,3.6645673964020804,-0.4703689634642618,3.109911286084085,0.0,8.995700863986274,9.133973686435219,125.71560194403438,127.59994402785152,0.0
0.128,3.629373961933593,-0.4570674289512541,3.296788518094301,0.0,9.055101873781165,9.08910856647118,126.01670723633998,127.59994402785152,0.0
0.129,3.570178990242644,-0.47242228672900194,3.1620682398566133,0.0,9.105898320300845,9.04414156909811,130.4427528871135,127.59994402785152,0.0
0.13,3.5165206790879484,-0.4780340282965375,0.920617325877235,0.0,9.1475821654259,8.768848982869068,127.93366796047358,127.59994402785152,0.0
0.131,3.3499281599393624,-0.43116345100691,2.1718225498709716,0.0,9.15235648649801,8.703089717549334,129.6975738228785,127.59994402785152,0.0
0.132,3.2445980078513057,-0.4385455477058112,1.268893320718246,0.0,9.15135818534071,8.542469934960248,130.10813094074007,127.59994402785152,0.0
0.133,3.131217694917056,-0.4165366454789632,1.0385328926585746,0.0,9.131902935828295,8.392920478621193,129.62988101874507,127.59994402785152,0.0
0.134,3.0082125576812317,-0.4174245475464539,1.25735848374714,0.0,9.099756023882904,8.295151624231737,130.58230657169418,127.59994402785152,0.0
0.135,2.922526609201175,-0.41873400629365437,0.751322081834159,0.0,9.061182079134625,8.154288106925824,130.3415571015146,127.59994402785152,0.0
0.136,2.8189175357586382,-0.4300578173048096,0.8442806861873109,0.0,9.013611701754336,8.049479495967528,130.6724599663483,127.59994402785152,0.0
0.137,2.7381942624237996,-0.437055931068081,0.6481040943854985,0.0,8.960974055420095,7.9357291665577065,130.8614127678447,127.59994402785152,0.0
