timestamp,iq,id,iq_ref,id_ref,vq,vd,omega,omega_ref,r
0.0,0.0,0.0,0.0,0.0,0.0,0.0,0.0,153.34478303294964,0.0
0.001,0.0,0.0,10.0,0.0,0.0,1.0999999999999999,6.115472199294103,153.34478303294964,0.0
0.002,0.5307369851907212,-0.2913212625381807,10.0,0.0,0.14204533887919985,1.9316189316290207,13.317801563642547,153.34478303294964,0.0
0.003,1.0842913387634832,-0.6024330830807904,10.0,0.0,0.384357124667687,2.6386968949419622,20.697939467553027,153.34478303294964,0.0
0.004,1.5590443546685477,-0.8700465084428163,10.0,0.0,0.6994718867930164,3.2526109522886295,28.232747544420146,153.34478303294964,0.0
0.005,1.9399447555359186,-1.0838738622210777,10.0,0.0,1.065311453102468,3.7994935661768023,35.92944872443006,153.34478303294964,0.0
0.006,2.239750732602683,-1.2510087368845633,10.0,0.0,1.4655018868449925,4.299102221838433,43.75633668444442,153.34478303294964,0.0
0.007,2.4770151619816017,-1.382020589851471,10.0,0.0,1.8883740978591532,4.765668027847139,51.58766747378032,153.34478303294964,0.0
0.008,2.6680767290418097,-1.4872241871505252,10.0,0.0,2.325877945545995,5.209220346273558,59.45942083902103,153.34478303294964,0.0
0.009000000000000001,2.8266491704841292,-1.5730794701170803,10.0,0.0,2.772378685460125,5.636635464737965,67.35059094018146,153.34478303294964,0.0
0.01,2.962077666392183,-1.645500646948331,10.0,0.0,3.224078639851053,6.052647735211881,75.20908322432116,153.34478303294964,0.0
0.011,3.0811061533574158,-1.7084279320504514,10.0,0.0,3.678407615443203,6.460489925470405,83.0265951655913,153.34478303294964,0.0
0.012,3.188848746459569,-1.7638278597420747,10.0,0.0,4.133552631697047,6.862319393890706,90.74118064793086,153.34478303294964,0.0
0.013000000000000001,3.288205119878689,-1.8140726097274587,10.0,0.0,4.588339016389012,7.259628641949282,98.35820682563939,153.34478303294964,0.0
0.014,3.3820602099432007,-1.8592355758795645,10.0,0.0,5.041843166194517,7.653355107498287,105.90865295623543,153.34478303294964,0.0
0.015,3.4721069852858886,-1.899829032412081,10.0,0.0,5.493383198131427,8.044092747085895,113.37727610343421,153.34478303294964,0.0
0.016,3.5596145800153947,-1.9360338400176071,10.0,0.0,5.94241958510469,8.43218525824161,120.68508583176356,153.34478303294964,0.0
0.017,3.645144415105338,-1.9685384477868613,10.0,0.0,6.388575043274759,8.817838951066484,127.83962377537456,153.34478303294964,0.0
0.018000000000000002,3.730251927866576,-1.9959253041084188,10.0,0.0,6.83136783302799,9.201036292373047,134.85405702603322,153.34478303294964,0.0
0.019,3.81544967906247,-2.018253592643655,10.0,0.0,7.270383321112213,9.581672501020332,141.68976328564074,153.34478303294964,0.0
0.02,3.9014648862453374,-2.0350875541282063,8.871789632313316,0.0,7.705189334130688,9.835433801887621,147.76765101007908,153.34478303294964,0.0
0.021,3.9310606672774564,-2.012399275365246,5.888617090322851,0.0,8.119226825655279,9.78803731418624,151.43938807218407,153.34478303294964,0.0
0.022,3.804093477915446,-1.898669644859289,4.07180250887801,0.0,8.474837542689245,9.631028694508576,153.7958487146103,153.34478303294964,0.0
0.023,3.5897020860727924,-1.725118029527335,2.889061530848296,0.0,8.761232944670592,9.43566202794232,153.3568223694563,153.34478303294964,0.0
0.024,3.3384250458670026,-1.5438170293191957,3.1084543100602247,0.0,8.981244545927604,9.349928744228649,149.97909408510205,153.34478303294964,0.0
0.025,3.1623705444547556,-1.3720409549178119,4.830975341715825,0.0,9.153599300505475,9.49890655945533,155.4074447303722,153.34478303294964,0.0
0.026000000000000002,3.131584947383865,-1.2858876392804428,2.096173402106528,0.0,9.315857257172128,9.333794515607224,154.7145016850242,153.34478303294964,0.0
0.027,2.9989037436689383,-1.1703781466337975,2.4289477382597764,0.0,9.433533702752554,9.279659744621483,150.63429972856855,153.34478303294964,0.0
0.028,2.917627039948396,-1.0444737083885598,4.496153549531414,0.0,9.521334633395847,9.474384616542812,155.34066924009437,153.34478303294964,0.0
0.029,2.9719627396495643,-1.001657887734807,2.123009931697055,0.0,9.616377262277487,9.369909544257506,151.9154629257416,153.34478303294964,0.0
0.03,2.924813320197094,-0.9268005908943419,3.8499062899455243,0.0,9.683661976596522,9.504806070811362,152.30796267851056,153.34478303294964,0.0
0.031,2.987061724293632,-0.8675016543222406,3.6640246171054303,0.0,9.751933562084504,9.58790664990169,153.41672528794942,153.34478303294964,0.0
0.032,3.0394444849504163,-0.844245322989918,3.1089238898360048,0.0,9.819722839851893,9.605182446729268,149.39587849534874,153.34478303294964,0.0
0.033,3.0817541631243897,-0.7803037867191692,5.158836331512353,0.0,9.875659763848839,9.854420730515347,153.32712587337048,153.34478303294964,0.0
0.034,3.2213156926962423,-0.7856330305866762,3.1933892140972757,0.0,9.952152456012833,9.832701899518934,148.73881197228027,153.34478303294964,0.0
0.035,3.270301510883746,-0.7333637897704481,5.533605875249071,0.0,10.01302108693233,10.093889700034497,152.58280496952798,153.34478303294964,0.0
0.036000000000000004,3.4250257213641535,-0.7374044639615684,3.619229157259432,0.0,10.094888801380609,10.08453217302911,147.91606089454956,153.34478303294964,0.0
0.037,3.488125459493045,-0.6856455066845688,6.006888416132645,0.0,10.161900099641148,10.360689726735659,151.63157974777855,153.34478303294964,0.0
0.038,3.654164396701544,-0.6976822923721215,4.166261022369863,0.0,10.251667659444688,10.371953763283326,148.24540614715286,153.34478303294964,0.0
0.039,3.738732381255632,-0.6426444684159891,5.910341591540671,0.0,10.327410338430589,10.593681199774139,149.51358392935902,153.34478303294964,0.0
0.04,3.8827592994288604,-0.647049073280701,5.314564691473502,0.0,10.418786377941661,10.702836614661841,150.172323400827,153.34478303294964,0.0
0.041,4.013284979319981,-0.6072626483350443,5.016919552060738,0.0,10.507519802197725,10.770513340070858,145.68060146512087,153.34478303294964,0.0
0.042,4.102936829512535,-0.5721502084194046,7.339422335592088,0.0,10.590683052427824,11.090191046224888,149.272304106417,153.34478303294964,0.0
0.043000000000000003,4.30865999010707,-0.5931985094352512,5.584295804209345,0.0,10.700164185761215,11.14819533133564,151.05940332894033,153.34478303294964,0.0
0.044,4.424693538367794,-0.5662046665840483,4.7135999899877765,0.0,10.801317828548548,11.122415568315368,150.73401613154942,153.34478303294964,0.0
0.045,4.424638133986258,-0.5778323834202181,4.902401257697234,0.0,10.891327118035614,11.139970673430694,154.62490217140797,153.34478303294964,0.0
0.046,4.401340162384151,-0.6232923071720959,2.944157046383379,0.0,10.97897530352985,10.950038543893994,156.9539691829098,153.34478303294964,0.0
0.047,4.286433630274923,-0.5983726768680553,1.7435316791328672,0.0,11.03566969895003,10.687784836391959,155.7730332123015,153.34478303294964,0.0
0.048,4.08672244309703,-0.5740654494861723,2.309717162643493,0.0,11.058044685369023,10.552531761309302,160.10521131958944,153.34478303294964,0.0
0.049,3.939236870052012,-0.5637472894280264,0.07602382613312253,0.0,11.06376494030527,10.195899671688728,157.1124146023288,153.34478303294964,0.0
0.05,3.6987502789563753,-0.5178384464241601,1.5347458690696465,0.0,11.028303169655992,10.083277843902033,160.3000824253098,153.34478303294964,0.0
0.051000000000000004,3.551403043969894,-0.5286845428710583,-0.12864103634444746,0.0,10.986777552332175,9.79461557174172,158.17174220121723,153.34478303294964,0.0
0.052000000000000005,3.3606441652747083,-0.5019516471605598,0.887259484019161,0.0,10.917489190032079,9.678559895665796,159.39570372800983,153.34478303294964,0.0
0.053,3.2341425661573364,-0.5262201039251702,0.21476951367225539,0.0,10.846460955555612,9.49505563614162,158.88763827984883,153.34478303294964,0.0
0.054,3.1070870361376732,-0.5344747642394343,0.41337368528376617,0.0,10.7648504466413,9.36408143001394,159.44680870081353,153.34478303294964,0.0
0.055,2.9988505628450035,-0.565153215224365,0.0727682181227749,0.0,10.68159565101085,9.209226407265772,159.09833580859578,153.34478303294964,0.0
0.056,2.8923902390440137,-0.5842291363115375,0.18946913647519192,0.0,10.592972399478366,9.08840283380493,159.43788730483354,153.34478303294964,0.0
0.057,2.798259478890425,-0.6165919422091815,-0.041237654362527465,0.0,10.504498265190916,8.953544316740135,159.20143422082785,153.34478303294964,0.0
0.058,2.70552764973453,-0.6404792591822805,0.018422375761534937,0.0,10.413689669433799,8.841453102780712,159.29966669981036,153.34478303294964,0.0
0.059000000000000004,2.6212370040312645,-0.6711827397954779,-0.09024270039832727,0.0,10.323891321554171,8.727285044698501,159.10483670618757,153.34478303294964,0.0
0.06,2.5406128394895178,-0.6975997489271655,-0.050428240319312145,0.0,10.234254838852635,8.629045950649388,159.04891437492427,153.34478303294964,0.0
0.061,2.467336606978661,-0.7268444657345793,-0.07950838810740635,0.0,10.146710843773842,8.535324300808336,158.86451629354346,153.34478303294964,0.0
0.062,2.3991143054517634,-0.754167306116209,-0.04250668002294189,0.0,10.061262148492728,8.453353096653531,158.72428563178056,153.34478303294964,0.0
0.063,2.337346618681788,-0.7820865952980781,-0.026186375129801043,0.0,9.978959095730437,8.378571582372922,158.53421786223083,153.34478303294964,0.0
0.064,2.2809578899782625,-0.8087452796397762,0.016953161352250667,0.0,9.900061459202083,8.313205143497928,158.35901664124907,153.34478303294964,0.0
0.065,2.2302184866646826,-0.8347609423626405,0.054411435760137294,0.0,9.825112078495154,8.255192046755104,158.17500601418308,153.34478303294964,0.0
0.066,2.184438705748241,-0.8592755147936905,0.09811451948079686,0.0,9.754292772524828,8.204446459948734,158.01408292574888,153.34478303294964,0.0
0.067,2.1432438343690317,-0.8821403404936022,0.13188306476990608,0.0,9.687750823573582,8.159044648413117,157.89856214187884,153.34478303294964,0.0
0.068,2.1058148931121083,-0.9024388625625452,0.14410566561563343,0.0,9.625327077534477,8.11624085860054,157.91017120124556,153.34478303294964,0.0
0.069,2.0711851637130456,-0.9182330994404594,0.09264725424931441,0.0,9.566399707953908,8.069127402727888,157.8315520292914,153.34478303294964,0.0
0.07,2.0341967301334765,-0.9302102411013252,0.08708915026297603,0.0,9.509813272958047,8.024458178559371,157.44096796875286,153.34478303294964,0.0
0.07100000000000001,1.9974228039690165,-0.9392503469632282,0.24141933117421566,0.0,9.455293199273122,7.999304381790516,156.9716510112743,153.34478303294964,0.0
0.07200000000000001,1.9706569669440777,-0.9493528107800817,0.43980913013024603,0.0,9.404730623241036,7.994070036217203,156.54427403941543,153.34478303294964,0.0
0.073,1.956267016806906,-0.9634680720302241,0.6215027059950264,0.0,9.360152524354175,8.003620499098416,155.89382297654262,153.34478303294964,0.0
0.074,1.9545336198550858,-0.9768909376555485,0.9212378379954989,0.0,9.32232264425041,8.038958808727557,155.64757360547526,153.34478303294964,0.0
0.075,1.969445839900693,-0.9927023020922745,1.0213346178039249,0.0,9.29341460455172,8.073335915667792,155.2200550147689,153.34478303294964,0.0
0.076,1.9880094333117906,-1.006651675636732,1.2163411933389172,0.0,9.272211396962442,8.119941390380138,156.5786956171276,153.34478303294964,0.0
0.077,2.0137203064142635,-1.0181708501558986,0.5046817663177783,0.0,9.258916673064993,8.076890834027482,156.8094098176648,153.34478303294964,0.0
0.078,1.9910202595506072,-1.014695373302727,0.3546783982020303,0.0,9.242148871722984,8.030186198583857,154.70595590282537,153.34478303294964,0.0
0.079,1.9580693944610423,-0.9919892029438487,1.3927936269229901,0.0,9.219924462999867,8.105565550082071,153.51723320022865,153.34478303294964,0.0
0.08,1.984814907465226,-0.9890513027468653,1.9854304765485606,0.0,9.207364322980801,8.222721911648396,154.95014989854192,153.34478303294964,0.0
0.081,2.0509298920952173,-1.0026453163914772,1.2529184587359987,0.0,9.209300553623153,8.233398739421288,156.23614049151317,153.34478303294964,0.0
0.082,2.070480129017292,-1.0036332262530714,0.5810095876647408,0.0,9.212083573926892,8.175127275626286,153.48274156037652,153.34478303294964,0.0
0.083,2.0458535887867466,-0.9733859154343336,1.9563294679587937,0.0,9.205424062532076,8.283869957578796,151.68204292966269,153.34478303294964,0.0
0.084,2.0952941784569945,-0.963822360945642,2.873306184348583,0.0,9.209555252586428,8.462501929930479,154.2452101667781,153.34478303294964,0.0
0.085,2.1986908028036023,-0.9846428697568678,1.5827182944525942,0.0,9.23352241238463,8.461670166218548,155.15816325995937,153.34478303294964,0.0
0.08600000000000001,2.225184225770344,-0.9781804827322086,1.1081079455918608,0.0,9.254090612170994,8.422136725099033,151.5134953080942,153.34478303294964,0.0
0.08700000000000001,2.2168583539454514,-0.9362457290381585,2.9487547987729945,0.0,9.264100448830673,8.59701148553904,151.68868200313645,153.34478303294964,0.0
0.088,2.307513853189289,-0.9280198644057471,2.877722461550005,0.0,9.290111280295763,8.71912436433961,154.44340215327296,153.34478303294964,0.0
0.089,2.393808361310619,-0.9357920106249796,1.4893761952785187,0.0,9.326669511224832,8.671033431588084,151.0384420214032,153.34478303294964,0.0
0.09,2.3967405187671247,-0.9030032654751483,3.2149196713288615,0.0,9.351078342357177,8.835641067993873,150.24788539237397,153.34478303294964,0.0
0.091,2.4916344369409607,-0.8838198400761923,3.641166962249231,0.0,9.387724764674475,9.005451581688497,153.0631010606603,153.34478303294964,0.0
0.092,2.6024122236771463,-0.8982447051802565,2.2363759478289604,0.0,9.439466165544946,8.991919584390711,149.91550690449967,153.34478303294964,0.0
0.093,2.634167665751636,-0.8676458026289507,3.844465787193778,0.0,9.481170098666905,9.173467398623252,150.82324520484175,153.34478303294964,0.0
0.094,2.747244962385074,-0.8496228764231855,3.4158120153038127,0.0,9.5351818870428,9.265677063234254,152.05376884778937,153.34478303294964,0.0
0.095,2.824177372896499,-0.8464699813698202,2.8134603356816066,0.0,9.592846873848393,9.284763000992289,147.92576606411097,153.34478303294964,0.0
0.096,2.8732133304395546,-0.7977335297090224,4.931651897209193,0.0,9.641324475017075,9.542106800994706,151.93999712379446,153.34478303294964,0.0
0.097,3.0218126098432228,-0.8063686473308378,2.938584226459003,0.0,9.712125923524141,9.522289060556982,147.6827003007184,153.34478303294964,0.0
0.098,3.066666873864624,-0.7682977990756572,5.123853465319339,0.0,9.769591308652439,9.768395555747558,151.15174695423246,153.34478303294964,0.0
0.099,3.216726718339104,-0.764152621508504,3.4112604993494826,0.0,9.845845543737132,9.769341981034641,146.95797567578163,153.34478303294964,0.0
0.1,3.272196124005398,-0.7281258848412491,5.572014212146582,0.0,9.910647508584331,10.028026989190316,150.69226621801712,153.34478303294964,0.0
0.101,3.432765289100745,-0.7279694299769783,3.731394109178158,0.0,9.995180835093988,10.026140030456821,146.1672534350066,153.34478303294964,0.0
0.10200000000000001,3.497039474716512,-0.6826528591902238,6.065675796662857,0.0,10.066088874841427,10.302607818133863,149.9743756531261,153.34478303294964,0.0
0.10300000000000001,3.6647913366283147,-0.6932352499488007,4.195818761401341,0.0,10.159170118073133,10.31168257731019,146.57861172142006,153.34478303294964,0.0
0.10400000000000001,3.7467372342966296,-0.6388589681517718,5.961362440369651,0.0,10.237763497994049,10.534729829806787,147.93682178064267,153.34478303294964,0.0
0.105,3.889991797813533,-0.6430539884173431,5.3363370232814145,0.0,10.331807480219707,10.641984919366246,148.7191964157199,153.34478303294964,0.0
0.106,4.018258185971459,-0.602919171580693,4.991405571915102,0.0,10.422715793124068,10.703549935650715,144.19338676287293,153.34478303294964,0.0
0.107,4.103872921634179,-0.5652734769830654,7.345824361039349,0.0,10.50695009812906,11.022349705873184,147.61178326030017,153.34478303294964,0.0
0.108,4.306171148396996,-0.5871588015623939,5.693956110052224,0.0,10.617424792305506,11.091046576486791,150.51350048221275,153.34478303294964,0.0
0.109,4.417659840919133,-0.576715128391148,4.2714103246033055,0.0,10.722354046831038,11.01371910165737,149.49345253177339,153.34478303294964,0.0
0.11,4.3882215258923125,-0.5825296564244539,4.8199476048347485,0.0,10.809801663236447,11.033534960021566,153.93650867045343,153.34478303294964,0.0
0.111,4.356359491056877,-0.6251269006660863,2.592502279119686,0.0,10.895113655423984,10.81282007624054,155.4060986611021,153.34478303294964,0.0
0.112,4.222608385545632,-0.5930724464685408,1.8370941275138257,0.0,10.945870997610518,10.576281437894757,154.6970221298754,153.34478303294964,0.0
0.113,4.03029567033455,-0.5721202958199841,2.1781100021579247,0.0,10.965914549714453,10.43335511294722,158.61107349668117,153.34478303294964,0.0
0.114,3.88354953498017,-0.5583888752801867,0.16842141411771916,0.0,10.968360179360353,10.096468820010841,156.01016446615446,153.34478303294964,0.0
0.115,3.6516067119978413,-0.5195414338058394,1.442222115049025,0.0,10.93273671239124,9.977776931490045,159.44258310852447,153.34478303294964,0.0
0.116,3.5066399375103225,-0.5267247173836298,-0.33496520689172815,0.0,10.889985038875263,9.672790189665427,156.72084580423865,153.34478303294964,0.0
0.117,3.306717490037267,-0.497990009983265,0.9921428175382943,0.0,10.817777207878601,9.578322512055543,158.30721840932017,153.34478303294964,0.0
0.11800000000000001,3.1886871074771648,-0.5257760248032791,0.1493321612338283,0.0,10.746687200924823,9.391084684276073,157.58948602839627,153.34478303294964,0.0
0.11900000000000001,3.0639530369715766,-0.5318007119050081,0.46575132174131495,0.0,10.664367267321465,9.271236296728054,158.17753718323064,153.34478303294964,0.0
0.12,2.961802995580135,-0.564590614451602,0.12339820282131742,0.0,10.58184113073275,9.124306883736226,157.79032941910668,153.34478303294964,0.0
0.121,2.8615422665717842,-0.5852406894033775,0.27254662102172533,0.0,10.494818275722956,9.01365483535296,158.17849247826473,153.34478303294964,0.0
0.122,2.774283782440289,-0.6199129488608837,0.030127996989551598,0.0,10.409039949166619,8.88580399944588,157.96828795099896,153.34478303294964,0.0
0.123,2.687224516154559,-0.6447758635431483,0.088995211441945,0.0,10.321442569695684,8.779763928754072,158.1100433494526,153.34478303294964,0.0
0.124,2.6070770687417117,-0.6765795142751507,-0.02953509094991169,0.0,10.235250693536354,8.669886748329283,157.9270645575763,153.34478303294964,0.0
0.125,2.5295640453550505,-0.702822463369459,0.01613148974197598,0.0,10.149258974843535,8.576311683329461,157.91988879274555,153.34478303294964,0.0
0.126,2.458773282995548,-0.7323229425244545,-0.026031685440609298,0.0,10.065491544736124,8.485412191509027,157.75197449911687,153.34478303294964,0.0
0.127,2.3922096898368506,-0.7590328054692713,0.013853546712060627,0.0,9.983653988589793,8.406649000772374,157.65586531931,153.34478303294964,0.0
0.128,2.3317796030793767,-0.7866416578657518,0.018797313751886424,0.0,9.904893744118588,8.333705009159338,157.4879829909258,153.34478303294964,0.0
0.129,2.2761346349493325,-0.8125054359072953,0.06130647836423675,0.0,9.829284051993808,8.270322608324175,157.3497028291823,153.34478303294964,0.0
0.13,2.225941674260271,-0.8378803407759758,0.0903973612736575,0.0,9.75742969075313,8.213457159828462,157.1928581112701,153.34478303294964,0.0
0.131,2.1803412640883906,-0.8615616742845806,0.13033896944654222,0.0,9.689425418424209,8.163709603640193,157.06208563349693,153.34478303294964,0.0
0.132,2.13913393471143,-0.8836697688202115,0.1585521823276581,0.0,9.625441894773182,8.118917215302801,156.9710923052157,153.34478303294964,0.0
0.133,2.1015353327688144,-0.9031555510164415,0.167785753745612,0.0,9.565299839749748,8.076663047081121,157.01635516699463,153.34478303294964,0.0
0.134,2.0667075801770878,-0.9182010878681016,0.10843860151570062,0.0,9.508406724638213,8.029454634485464,156.9489429295042,153.34478303294964,0.0
0.135,2.029214743110503,-0.9294404752329567,0.1061031212953698,0.0,9.453567957019882,7.98539025488769,156.56819848845487,153.34478303294964,0.0
0.136,1.9921886740940162,-0.9380835695937927,0.2642411872649828,0.0,9.40064497470965,7.961364917767865,156.108356127386,153.34478303294964,0.0
0.137,1.965680342245573,-0.947871155424755,0.466526636855052,0.0,9.351601960416257,7.957665490737372,155.69768064849472,153.34478303294964,0.0
