timestamp,iq,id,iq_ref,id_ref,vq,vd,omega,omega_ref,r
0.0,0.0,0.0,0.0,0.0,0.0,0.0,0.0,135.0915806450894,0.0
0.001,0.0,0.0,10.0,0.0,0.0,1.0999999999999999,6.115472199294103,135.0915806450894,0.0
0.002,0.5307369851907212,-0.2913212625381807,10.0,0.0,0.14204533887919985,1.9316189316290207,13.317801563642547,135.0915806450894,0.0
0.003,1.0842913387634832,-0.6024330830807904,10.0,0.0,0.384357124667687,2.6386968949419622,20.697939467553027,135.0915806450894,0.0
0.004,1.5590443546685477,-0.8700465084428163,10.0,0.0,0.6994718867930164,3.2526109522886295,28.232747544420146,135.0915806450894,0.0
0.005,1.9399447555359186,-1.0838738622210777,10.0,0.0,1.065311453102468,3.7994935661768023,35.92944872443006,135.0915806450894,0.0
0.006,2.239750732602683,-1.2510087368845633,10.0,0.0,1.4655018868449925,4.299102221838433,43.75633668444442,135.0915806450894,0.0
0.007,2.4770151619816017,-1.382020589851471,10.0,0.0,1.8883740978591532,4.765668027847139,51.58766747378032,135.0915806450894,0.0
0.008,2.6680767290418097,-1.4872241871505252,10.0,0.0,2.325877945545995,5.209220346273558,59.45942083902103,135.0915806450894,0.0
0.009000000000000001,2.8266491704841292,-1.5730794701170803,10.0,0.0,2.772378685460125,5.636635464737965,67.35059094018146,135.0915806450894,0.0
0.01,2.962077666392183,-1.645500646948331,10.0,0.0,3.224078639851053,6.052647735211881,75.20908322432116,135.0915806450894,0.0
0.011,3.0811061533574158,-1.7084279320504514,10.0,0.0,3.678407615443203,6.460489925470405,83.0265951655913,135.0915806450894,0.0
0.012,3.188848746459569,-1.7638278597420747,10.0,0.0,4.133552631697047,6.862319393890706,90.74118064793086,135.0915806450894,0.0
0.013000000000000001,3.288205119878689,-1.8140726097274587,10.0,0.0,4.588339016389012,7.259628641949282,98.35820682563939,135.0915806450894,0.0
0.014,3.3820602099432007,-1.8592355758795645,10.0,0.0,5.041843166194517,7.653355107498287,105.90865295623543,135.0915806450894,0.0
0.015,3.4721069852858886,-1.899829032412081,10.0,0.0,5.493383198131427,8.044092747085895,113.37727610343421,135.0915806450894,0.0
0.016,3.5596145800153947,-1.9360338400176071,10.0,0.0,5.94241958510469,8.43218525824161,120.68508583176356,135.0915806450894,0.0
0.017,3.645144415105338,-1.9685384477868613,9.899470578860733,0.0,6.388575043274761,8.806780714741167,127.77518796177223,135.0915806450894,0.0
0.018000000000000002,3.725016093864032,-1.993015175000432,6.427583440689567,0.0,6.829941895193578,8.79969929410778,132.59805110857894,135.0915806450894,0.0
0.019,3.6244151381828873,-1.9114366288064573,4.0410871626513165,0.0,7.2172455125037045,8.621531803439632,135.70267637625054,135.0915806450894,0.0
0.02,3.395158390320466,-1.7491162090772432,2.482663571503908,0.0,7.530962558307731,8.376562024031536,137.53655380662286,135.0915806450894,0.0
0.021,3.1039528235180405,-1.5592495826284942,1.5412751247024108,0.0,7.769548796878472,8.129232478777599,134.99334957589596,135.0915806450894,0.0
0.022,2.8161830330093514,-1.3628383375109405,2.813859550757795,0.0,7.939836886368303,8.108635304528171,135.34396889199124,135.0915806450894,0.0
0.023,2.6656163071316388,-1.2207528935462686,2.636026010241139,0.0,8.077371163099269,8.088523764876744,138.2557342913688,135.0915806450894,0.0
0.024,2.562929784318875,-1.1255881191932637,1.1485017740895582,0.0,8.190093587452813,7.9321173265426745,136.10833807269807,135.0915806450894,0.0
0.025,2.4206079608656745,-1.0180590991624996,2.2120323091488396,0.0,8.265026581077741,7.949115911047132,133.9112260672484,135.0915806450894,0.0
0.026000000000000002,2.3727778014723464,-0.9323416265942044,3.3223918576520837,0.0,8.32581250200842,8.087250280747128,137.52595043035382,135.0915806450894,0.0
0.027,2.4100114573538294,-0.9078288213363259,1.4906859782467348,0.0,8.392494033963343,8.000484559609681,135.53132729856753,135.0915806450894,0.0
0.028,2.3673724881785607,-0.8534739668437172,2.4836000776050957,0.0,8.438096934667424,8.061663796673042,133.80911533657067,135.0915806450894,0.0
0.029,2.390520203554827,-0.8003521958515695,3.357530711688714,0.0,8.479957622743221,8.204515990472942,136.74632964165534,135.0915806450894,0.0
0.03,2.461759041345556,-0.7967340605127822,1.8723760691807216,0.0,8.532050684214083,8.1575579216805,133.69853606330204,135.0915806450894,0.0
0.031,2.4632998904216565,-0.7537787057824795,3.4102033041752415,0.0,8.56954972499167,8.3050604031684,135.112267626967,135.0915806450894,0.0
0.032,2.546318088081611,-0.7328560491979358,2.7031306525239893,0.0,8.61617717116329,8.339289683301851,134.69091457028335,135.0915806450894,0.0
0.033,2.5859347729515823,-0.7190527093991921,2.917813841613871,0.0,8.66025565991908,8.401917003996424,132.59548793918418,135.0915806450894,0.0
0.034,2.647585933788603,-0.6785850780566688,3.9904880842225094,0.0,8.701875625819053,8.572151315449796,135.05208721449526,135.0915806450894,0.0
0.035,2.750482921500793,-0.6884995116164949,2.7625833808729126,0.0,8.757852290279377,8.573025775513313,131.80620492997681,135.0915806450894,0.0
0.036000000000000004,2.7978804807528093,-0.6505107560149691,4.41837828028326,0.0,8.80404082684825,8.76964218034455,134.81576582436466,135.0915806450894,0.0
0.037,2.9163235568349757,-0.6556897194082393,2.916355981296585,0.0,8.866221723772638,8.756880633690395,131.0516615530661,135.0915806450894,0.0
0.038,2.9609585870683293,-0.6155534023101724,4.838807307866093,0.0,8.916441591824448,8.974377777741754,134.3073639493192,135.0915806450894,0.0
0.039,3.0898238663850357,-0.6244725593737726,3.2187982766972456,0.0,8.984771657924195,8.96399285707639,130.7524323418034,135.0915806450894,0.0
0.04,3.1431493611649106,-0.5802175878211089,5.039655563488012,0.0,9.040272986905997,9.173396675313588,133.26936429286528,135.0915806450894,0.0
0.041,3.268704578008487,-0.5909623836043751,3.799411751479314,0.0,9.112789042065028,9.199497033531392,131.28319951883992,135.0915806450894,0.0
0.042,3.3451612300214135,-0.5466630137457207,4.8305779497544865,0.0,9.175683148887646,9.34891500182068,131.22493339705773,135.0915806450894,0.0
0.043000000000000003,3.4463099435245357,-0.5489672197697424,4.898377483125902,0.0,9.247926098218167,9.4764650786862,132.9038303759933,135.0915806450894,0.0
0.044,3.5648022032478357,-0.528028236629307,4.080806496349078,0.0,9.323373430096495,9.495850977484515,129.45771833190457,135.0915806450894,0.0
0.045,3.628718219492577,-0.48598822836618405,5.8602011415252875,0.0,9.388799607589284,9.718906301238302,130.9746967837174,135.0915806450894,0.0
0.046,3.768936592867797,-0.49967558493227804,5.142880754232591,0.0,9.471914709013074,9.814714660403196,133.80075204750315,135.0915806450894,0.0
0.047,3.8811456805121343,-0.48402359945502416,3.7427614083155802,0.0,9.554440544242816,9.751472953708918,132.82330425675536,135.0915806450894,0.0
0.048,3.870144283305311,-0.4791201927269768,4.254168067572815,0.0,9.622006770394844,9.775396171753696,134.87051044442777,135.0915806450894,0.0
0.049,3.851241468010979,-0.5171393178555725,3.232775675743231,0.0,9.689439833567574,9.688185756625687,138.7523435820024,135.0915806450894,0.0
0.05,3.7919879997778594,-0.5135660318295081,1.2552514775867856,0.0,9.740635296196071,9.41545480480153,136.2429744302699,135.0915806450894,0.0
0.051000000000000004,3.61688185820789,-0.4751118960536278,2.4984221156012305,0.0,9.755243895304226,9.350309647476164,139.25052930763763,135.0915806450894,0.0
0.052000000000000005,3.508328655350674,-0.4837317715098821,0.9530551902918791,0.0,9.76320984642697,9.12090758852857,138.45273112794308,135.0915806450894,0.0
0.053,3.356297942472962,-0.44925588470520306,1.3183427753106187,0.0,9.7435604502396,8.986515480581138,138.75457657554398,135.0915806450894,0.0
0.054,3.2255403622088465,-0.4540307608366392,1.1307900922056247,0.0,9.713306778118733,8.852176999518253,139.6616134925397,135.0915806450894,0.0
0.055,3.118629921771284,-0.4497385476453626,0.6315713052332681,0.0,9.672124732891309,8.685661032259155,139.29012738709955,135.0915806450894,0.0
0.056,2.9938937263548935,-0.45765288331606246,0.7753288905332374,0.0,9.619322794516407,8.565135856547368,139.61637922581141,135.0915806450894,0.0
0.057,2.897457972748097,-0.46493374684561206,0.5669549853700828,0.0,9.560470284039358,8.436384870090906,139.88182575850146,135.0915806450894,0.0
0.058,2.8000265140955225,-0.48436607991088665,0.3863292678909378,0.0,9.496692673966255,8.306591744277027,139.63300381412364,135.0915806450894,0.0
0.059000000000000004,2.709283560051371,-0.49540955411131615,0.46532600838950744,0.0,9.42733397115047,8.202903479025192,139.93009962811695,135.0915806450894,0.0
0.06,2.6282161615830835,-0.5210565205268407,0.2683929115625774,0.0,9.357253043654781,8.08820554625208,139.64756337668447,135.0915806450894,0.0
0.061,2.5513272885943703,-0.5368012447761423,0.3641012099628642,0.0,9.284185865634614,7.9981136598430895,139.93745678234075,135.0915806450894,0.0
0.062,2.482045691983431,-0.5654662839285299,0.17069574576221447,0.0,9.21241192383984,7.894344647124224,139.57241308744452,135.0915806450894,0.0
0.063,2.41387050484571,-0.583573398978013,0.3084092687867783,0.0,9.139143607216575,7.817664138291515,139.76809518044507,135.0915806450894,0.0
0.064,2.3543226023278927,-0.6125451513707799,0.16380307693294327,0.0,9.068539892985074,7.729909549751168,139.46919488541587,135.0915806450894,0.0
0.065,2.295886788563026,-0.6330790610412774,0.2694770820442782,0.0,8.998190103862514,7.662772711611445,139.59043662068305,135.0915806450894,0.0
0.066,2.2440095055836746,-0.6607256079932067,0.16386765465475417,0.0,8.930997390906247,7.587762944299558,139.3383486616411,135.0915806450894,0.0
0.067,2.192631267034763,-0.6817676161168069,0.24744395401020913,0.0,8.865061127938498,7.528917203036816,139.39244516104924,135.0915806450894,0.0
0.068,2.146695230398883,-0.7067114576534372,0.17738705914654496,0.0,8.802367319629036,7.465359569819468,139.2109393922834,135.0915806450894,0.0
0.069,2.101063685792223,-0.7271865619243268,0.22694635605752733,0.0,8.74158995188322,7.412600520242133,139.18468321737174,135.0915806450894,0.0
0.07,2.0595036124990886,-0.7483997613111109,0.19914341779052958,0.0,8.683743116844093,7.359601015285649,139.07837724836168,135.0915806450894,0.0
0.07100000000000001,2.018909870282445,-0.7673303670604724,0.21242843626284014,0.0,8.62825124945179,7.311905869646421,138.97550070152627,135.0915806450894,0.0
0.07200000000000001,1.9808490616874377,-0.7847363034681942,0.22502750911617309,0.0,8.57526440118215,7.268464851184315,138.88941533623242,135.0915806450894,0.0
0.073,1.9452116787775349,-0.8009462171097577,0.23009184485167022,0.0,8.524841167029754,7.228039839977964,138.78497200136465,135.0915806450894,0.0
0.074,1.9115360408928308,-0.8155160502431804,0.24537959872280135,0.0,8.47685833768023,7.191593962383702,138.7456574316107,135.0915806450894,0.0
0.075,1.880841055675184,-0.8274361636546306,0.22849611573455908,0.0,8.431194717650152,7.155024020941584,138.81732928702917,135.0915806450894,0.0
0.076,1.8509350284050503,-0.8364810492320808,0.1554027016059325,0.0,8.387316201758278,7.112655984063942,138.6517937832573,135.0915806450894,0.0
0.077,1.8177539355458603,-0.842500848604813,0.2025683221101926,0.0,8.344160462843053,7.079406911623444,138.2927478266038,135.0915806450894,0.0
0.078,1.7878723701581565,-0.8486233191989438,0.3500796286217931,0.0,8.302608664346929,7.063876921310762,137.90503409458037,135.0915806450894,0.0
0.079,1.7684129701662197,-0.8567581096430227,0.5158019601385975,0.0,8.264492648912054,7.064340811926706,137.50126822551627,135.0915806450894,0.0
0.08,1.7596163509695966,-0.8687182801209498,0.6935880188663801,0.0,8.231468894930394,7.079618989194163,137.09365688331317,135.0915806450894,0.0
0.081,1.7632497704909393,-0.8799338732792031,0.877372927585691,0.0,8.204389447616272,7.108017810369239,136.73147326142873,135.0915806450894,0.0
0.082,1.7753504401834066,-0.8943335394000157,1.0420658123645181,0.0,8.184329634492778,7.145852433462918,137.67529108280712,135.0915806450894,0.0
0.083,1.7959390926432357,-0.9061880183291768,0.5443197972981468,0.0,8.171219261012002,7.119354877356133,138.58142235065864,135.0915806450894,0.0
0.084,1.7812339276635092,-0.9088929678084916,0.056355746316694155,0.0,8.156949168922056,7.047320908727019,136.81685471489928,135.0915806450894,0.0
0.085,1.7369342275447144,-0.8886441207037148,0.9213868234982767,0.0,8.134648266501877,7.0858223021148845,135.58808329862208,135.0915806450894,0.0
0.08600000000000001,1.7402745824984907,-0.8845111043639551,1.5308075051015488,0.0,8.118175450336176,7.175818994080385,136.28586295142563,135.0915806450894,0.0
0.08700000000000001,1.7862800482591226,-0.8951483211724824,1.1699748556364131,0.0,8.11356100899593,7.204355739291435,137.8216818745992,135.0915806450894,0.0
0.088,1.8101155143083874,-0.9023165823462188,0.37476438175453275,0.0,8.11294382287184,7.143550693607189,136.40532152026267,135.0915806450894,0.0
0.089,1.781658986470495,-0.885740862926075,1.069807150171059,0.0,8.104412839043782,7.176539815866253,134.3615544620307,135.0915806450894,0.0
0.09,1.7886069456689648,-0.8738989386543774,2.098990941117628,0.0,8.098897011348743,7.310587876046352,135.3797088119702,135.0915806450894,0.0
0.091,1.8595321386063166,-0.883721404566526,1.5870324844790735,0.0,8.108536462934282,7.356339987668109,137.3623250602809,135.0915806450894,0.0
0.092,1.9005317401405148,-0.8885537398757879,0.5730169161718057,0.0,8.122220512748337,7.288258001099441,135.4653028899726,135.0915806450894,0.0
0.093,1.873906116079723,-0.8647425504300894,1.5177907788771259,0.0,8.125060404731999,7.345756713411733,132.91849043049328,135.0915806450894,0.0
0.094,1.8964732653551732,-0.8470288079805878,2.8129279107627507,0.0,8.131655778973535,7.528058246910618,135.31437827289955,135.0915806450894,0.0
0.095,1.9956374531421393,-0.863345382927885,1.6127560132815155,0.0,8.157793729809507,7.537136495278165,136.91777272333792,135.0915806450894,0.0
0.096,2.025939832980907,-0.8603093072759409,0.792796867279844,0.0,8.181728576327446,7.467385306902788,133.38154836891454,135.0915806450894,0.0
0.097,2.001509218728874,-0.8194845918018594,2.5780093672532836,0.0,8.191834461410423,7.61456607983995,133.16134706647716,135.0915806450894,0.0
0.098,2.0735676367809432,-0.8081247400065894,2.707412354258093,0.0,8.214806498736083,7.73625083543424,135.6802496371937,135.0915806450894,0.0
0.099,2.1529434380451447,-0.8202648585946493,1.4420743789787829,0.0,8.249098819451248,7.699572358092355,133.1648195149498,135.0915806450894,0.0
0.1,2.159274021414958,-0.7956606577953597,2.719057051402121,0.0,8.2734661970869,7.823209828117493,132.49697408478704,135.0915806450894,0.0
0.101,2.232550553567346,-0.7772953786017325,3.0789258320865303,0.0,8.305986445258192,7.9557389153516755,135.03370032447415,135.0915806450894,0.0
0.10200000000000001,2.3171227841999578,-0.7882692882357267,1.8111415154491266,0.0,8.349898360187456,7.926641975994544,132.06789390255588,135.0915806450894,0.0
0.10300000000000001,2.3319683861266727,-0.7585022935568912,3.3242815938335983,0.0,8.383125281177064,8.083181879949104,133.1854608006591,135.0915806450894,0.0
0.10400000000000001,2.4243569473159625,-0.7448727022201721,2.7845593432262987,0.0,8.427481915362916,8.14287535154497,134.00529269751485,135.0915806450894,0.0
0.105,2.4780546179383705,-0.7415786376614472,2.3855062742741646,0.0,8.47314618210168,8.157553666164596,130.48456880593125,135.0915806450894,0.0
0.106,2.5152582978985376,-0.7003677287152297,4.191938338457546,0.0,8.511211594290033,8.374473205656438,134.23918581559505,135.0915806450894,0.0
0.107,2.6372407961419997,-0.7117787023225851,2.323153781920588,0.0,8.568829735395006,8.336830672549851,130.4363586465245,135.0915806450894,0.0
0.108,2.6625486581627884,-0.6782238579892312,4.271119586441514,0.0,8.613116666466082,8.54011425108724,133.5158659354613,135.0915806450894,0.0
0.109,2.7819464486608227,-0.6752506392030673,2.74712308906939,0.0,8.673311756660638,8.52749821378728,129.99169972137952,135.0915806450894,0.0
0.11,2.8169284648991715,-0.6468295390379941,4.560205005347383,0.0,8.723129145275456,8.734188221119837,133.12603293131514,135.0915806450894,0.0
0.111,2.9430171453789087,-0.6445061410430684,3.012693877517316,0.0,8.788662432984246,8.723313988666138,129.35747928689807,135.0915806450894,0.0
0.112,2.9849808231838764,-0.6110853704313203,4.954311713307764,0.0,8.842901917889453,8.945778463690194,132.8256292021847,135.0915806450894,0.0
0.113,3.1180990288448758,-0.6172584272484765,3.242896270093495,0.0,8.914977145762544,8.929525196746228,129.0956918674933,135.0915806450894,0.0
0.114,3.1673986157276066,-0.5732919099423035,5.167823825215163,0.0,8.97332147668208,9.146869192279004,131.86854970788423,135.0915806450894,0.0
0.115,3.2954007363145457,-0.5848664599919307,3.8136252143917444,0.0,9.049278639741463,9.16651486121293,129.96866111600232,135.0915806450894,0.0
0.116,3.3689788801003586,-0.5387128886686448,4.814798705623567,0.0,9.114412015042243,9.308649175092565,129.58960083866472,135.0915806450894,0.0
0.117,3.4648235055531824,-0.5389380838380977,5.059348642356615,0.0,9.18773179138278,9.450165025880677,131.53808570803628,135.0915806450894,0.0
0.11800000000000001,3.5871853937736877,-0.5221358308314362,4.120641157041368,0.0,9.266020675385647,9.466656585022301,128.59178931556968,135.0915806450894,0.0
0.11900000000000001,3.6520558874464424,-0.47796768511147864,5.658787266569862,0.0,9.33343935340326,9.661998888129531,129.17595776766512,135.0915806450894,0.0
0.12,3.778333918038674,-0.48465592513591044,5.425859269296385,0.0,9.41482778178972,9.790303409504023,133.4488352333923,135.0915806450894,0.0
0.121,3.884526185861279,-0.504298316760889,3.3058479905497746,0.0,9.503001600153492,9.672625991735751,133.02510289658375,135.0915806450894,0.0
0.122,3.846725145645923,-0.4907999682811484,3.538378936439102,0.0,9.568909052655037,9.627532251517888,133.59247486320788,135.0915806450894,0.0
0.123,3.7837852725083834,-0.5095080493869564,3.269684010945849,0.0,9.625909258291076,9.568202254951787,138.30417271861538,135.0915806450894,0.0
0.124,3.7209010794426316,-0.5131104106090396,0.8817091625068425,0.0,9.67148562263027,9.266802857038407,135.53744935229554,135.0915806450894,0.0
0.125,3.53546917704376,-0.4638346907535229,2.2606121585946997,0.0,9.67690805794788,9.195428780737556,137.79530423790658,135.0915806450894,0.0
0.126,3.4198615095042246,-0.4718808876363819,1.1046474798610086,0.0,9.676028680959316,9.001651735382321,137.72954744200842,135.0915806450894,0.0
0.127,3.2854712766337983,-0.44552532006794454,1.1111462098408946,0.0,9.652879962732726,8.853065812889236,137.65094105838028,135.0915806450894,0.0
0.128,3.1548895877990364,-0.44962981742841585,1.1248557975220566,0.0,9.617902574464825,8.731486761611048,138.49933504270584,135.0915806450894,0.0
0.129,3.054584479953549,-0.449571805177006,0.6665812613831155,0.0,9.574217593574634,8.577748326756446,138.29582885094212,135.0915806450894,0.0
0.13,2.939416932127301,-0.4611460920152793,0.7362918752064491,0.0,9.520801018962725,8.458931529362676,138.54303382551595,135.0915806450894,0.0
0.131,2.8473481726975067,-0.4694569873019928,0.5781748561152673,0.0,9.461642877685785,8.33754066406784,138.8476883344299,135.0915806450894,0.0
0.132,2.755048629090743,-0.4904179821977946,0.3882865247648848,0.0,9.398484064492731,8.212298787119614,138.56582931078057,135.0915806450894,0.0
0.133,2.6682992240730936,-0.5020123644647483,0.49447354993263914,0.0,9.330182717024561,8.115464111744734,138.9131001458174,135.0915806450894,0.0
0.134,2.5916566658240723,-0.528731412793858,0.28262293740694755,0.0,9.261851188259259,8.004680518888238,138.59980945397328,135.0915806450894,0.0
0.135,2.517979614347274,-0.5444994813718533,0.40418599524016674,0.0,9.190741750145119,7.920970625007731,138.94953999082065,135.0915806450894,0.0
0.136,2.4524085585857582,-0.5738443515315972,0.19074113335916731,0.0,9.121442521486136,7.820302256937615,138.55654982786604,135.0915806450894,0.0
0.137,2.3866631235201696,-0.5915228807446364,0.35258652300870974,0.0,9.050657568397877,7.749284531588473,138.80766232095544,135.0915806450894,0.0
0.138,2.3301047943293085,-0.6207738858899106,0.1898694597053452,0.0,8.982890163357382,7.6643367144658905,138.4927770625696,135.0915806450894,0.0
