timestamp,iq,id,iq_ref,id_ref,vq,vd,omega,omega_ref,r
0.0,0.0,0.0,0.0,0.0,0.0,0.0,0.0,197.82173270054005,0.0
0.001,0.0,0.0,10.0,0.0,0.0,1.0999999999999999,6.115472199294103,197.82173270054005,0.0
0.002,0.5307369851907212,-0.2913212625381807,10.0,0.0,0.14204533887919985,1.9316189316290207,13.317801563642547,197.82173270054005,0.0
0.003,1.0842913387634832,-0.6024330830807904,10.0,0.0,0.384357124667687,2.6386968949419622,20.697939467553027,197.82173270054005,0.0
0.004,1.5590443546685477,-0.8700465084428163,10.0,0.0,0.6994718867930164,3.2526109522886295,28.232747544420146,197.82173270054005,0.0
0.005,1.9399447555359186,-1.0838738622210777,10.0,0.0,1.065311453102468,3.7994935661768023,35.92944872443006,197.82173270054005,0.0
0.006,2.239750732602683,-1.2510087368845633,10.0,0.0,1.4655018868449925,4.299102221838433,43.75633668444442,197.82173270054005,0.0
0.007,2.4770151619816017,-1.382020589851471,10.0,0.0,1.8883740978591532,4.765668027847139,51.58766747378032,197.82173270054005,0.0
0.008,2.6680767290418097,-1.4872241871505252,10.0,0.0,2.325877945545995,5.209220346273558,59.45942083902103,197.82173270054005,0.0
0.009000000000000001,2.8266491704841292,-1.5730794701170803,10.0,0.0,2.772378685460125,5.636635464737965,67.35059094018146,197.82173270054005,0.0
0.01,2.962077666392183,-1.645500646948331,10.0,0.0,3.224078639851053,6.052647735211881,75.20908322432116,197.82173270054005,0.0
0.011,3.0811061533574158,-1.7084279320504514,10.0,0.0,3.678407615443203,6.460489925470405,83.0265951655913,197.82173270054005,0.0
0.012,3.188848746459569,-1.7638278597420747,10.0,0.0,4.133552631697047,6.862319393890706,90.74118064793086,197.82173270054005,0.0
0.013000000000000001,3.288205119878689,-1.8140726097274587,10.0,0.0,4.588339016389012,7.259628641949282,98.35820682563939,197.82173270054005,0.0
0.014,3.3820602099432007,-1.8592355758795645,10.0,0.0,5.041843166194517,7.653355107498287,105.90865295623543,197.82173270054005,0.0
0.015,3.4721069852858886,-1.899829032412081,10.0,0.0,5.493383198131427,8.044092747085895,113.37727610343421,197.82173270054005,0.0
0.016,3.5596145800153947,-1.9360338400176071,10.0,0.0,5.94241958510469,8.43218525824161,120.68508583176356,197.82173270054005,0.0
0.017,3.645144415105338,-1.9685384477868613,10.0,0.0,6.388575043274759,8.817838951066484,127.83962377537456,197.82173270054005,0.0
0.018000000000000002,3.730251927866576,-1.9959253041084188,10.0,0.0,6.83136783302799,9.201036292373047,134.85405702603322,197.82173270054005,0.0
0.019,3.81544967906247,-2.018253592643655,10.0,0.0,7.270383321112213,9.581672501020332,141.68976328564074,197.82173270054005,0.0
0.02,3.9014648862453374,-2.0350875541282063,10.0,0.0,7.705189334130692,9.959536942333155,148.3432823300447,197.82173270054005,0.0
0.021,3.9891051824829464,-2.0457889559126508,10.0,0.0,8.135310004560049,10.334315260302239,154.92060212100432,197.82173270054005,0.0
0.022,4.079618141396171,-2.0489696811670974,10.0,0.0,8.560139305503519,10.705547790999272,161.01925282597162,197.82173270054005,0.0
0.023,4.171109372430197,-2.048468292080302,10.0,0.0,8.979521969370257,11.072981092896333,166.534238406907,197.82173270054005,0.0
0.024,4.266936196769627,-2.039517194249811,10.0,0.0,9.392730090169543,11.435983292623375,171.8647834235234,197.82173270054005,0.0
0.025,4.367255527950721,-2.0225841458509217,10.0,0.0,9.79914449451603,11.793929226271104,177.02637022703064,197.82173270054005,0.0
0.026000000000000002,4.4734353073349595,-1.9962166741499119,10.0,0.0,10.197980960389518,12.146045424568259,181.63161391243256,197.82173270054005,0.0
0.027,4.582366840795821,-1.966358349113627,10.0,0.0,10.589124658468391,12.491912978736195,185.74793639675826,197.82173270054005,0.0
0.028,4.700058850757774,-1.9240450691803936,9.96894434931168,0.0,10.971384864613878,12.8270352199583,189.4096348235896,197.82173270054005,0.0
0.029,4.81930554655809,-1.8782918695137751,8.22221611466551,0.0,11.34432155510303,12.963101491930134,191.4196937648012,197.82173270054005,0.0
0.03,4.8574390120266155,-1.7711515394337791,7.2812070334171075,0.0,11.682243299428318,13.033808874919304,194.41299214832196,197.82173270054005,0.0
0.031,4.8495343323876545,-1.6288333056158526,5.818645247178905,0.0,11.978860005200819,12.981016837783335,189.08321767245485,197.82173270054005,0.0
0.032,4.7702010639499495,-1.4687618325379928,8.570917635393313,0.0,12.224351156982095,13.289188868235943,194.19778804083865,197.82173270054005,0.0
0.033,4.877210490135523,-1.3650782671923356,6.049871897798429,0.0,12.466305919173259,13.273690686239043,189.81599055389924,197.82173270054005,0.0
0.034,4.879814794832045,-1.2404441872934944,8.320828062734538,0.0,12.669842473810192,13.559737054925103,194.32370840753748,197.82173270054005,0.0
0.035,5.024058158744091,-1.1558963568327145,6.101949378845445,0.0,12.87357608930035,13.554905498345743,188.7600253542108,197.82173270054005,0.0
0.036000000000000004,5.0729625809299685,-1.0337248420245697,8.97440797897208,0.0,13.043859799259266,13.905152639024818,193.04071569783986,197.82173270054005,0.0
0.037,5.268295115965013,-0.9960874541547478,6.881872977184551,0.0,13.229221454772597,13.957502465801992,190.20572761959906,197.82173270054005,0.0
0.038,5.394106173646549,-0.8800481324481839,8.37552706711436,0.0,13.388893975903292,14.196494884368319,187.86029656686327,197.82173270054005,0.0
0.039,5.562416716228242,-0.8412437432047026,9.647856954819023,0.0,13.55339039717783,14.535319010832122,194.49486532480063,197.82173270054005,0.0
0.04,5.80779189421126,-0.8389141521391332,6.363841249607738,0.0,13.735451377846513,14.457437176174393,196.91690169159475,197.82173270054005,0.0
0.041,5.818356084006553,-0.8397074294194504,5.161871376300132,0.0,13.89162863339405,14.307464784939942,197.2729667891676,197.82173270054005,0.0
0.042,5.693530949576908,-0.8609703348615669,4.989326486627423,0.0,14.019521911089218,14.194983525937964,205.7804764842099,197.82173270054005,0.0
0.043000000000000003,5.555828780399462,-0.8817553504626323,0.6559842012695745,0.0,14.125451457776368,13.645496505378302,202.74622686332654,197.82173270054005,0.0
0.044,5.202866108422564,-0.7988631957234582,2.1238640700833953,0.0,14.156513360561512,13.403800222192093,206.3803971893956,197.82173270054005,0.0
0.045,4.922671708690011,-0.7924716957961682,0.2211922621603053,0.0,14.160425301304912,12.992698817294158,206.1284603244838,197.82173270054005,0.0
0.046,4.6102414527333435,-0.7417303671521436,0.264093418376774,0.0,14.117318276332615,12.67840997638131,207.35866894736617,197.82173270054005,0.0
0.047,4.323865397036748,-0.7378451023188461,-0.4463802555326728,0.0,14.047173103921033,12.34103526493737,207.3240411384723,197.82173270054005,0.0
0.048,4.053862412940945,-0.7241034493119454,-0.5240894354650596,0.0,13.948832248423791,12.055776802036771,208.08418790268001,197.82173270054005,0.0
0.049,3.8119439980780605,-0.7363798406625246,-1.0067873695903184,0.0,13.833287451764853,11.760801414716015,207.9143981278988,197.82173270054005,0.0
0.05,3.583441200574706,-0.7460973618994693,-1.0228191364733021,0.0,13.700745759462281,11.509548695022298,207.9775460119494,197.82173270054005,0.0
0.051000000000000004,3.3819815931234634,-0.768529001371179,-1.1559512116126989,0.0,13.558703269550113,11.275558396315798,207.7292877682643,197.82173270054005,0.0
0.052000000000000005,3.201211208916783,-0.7955919560754066,-1.130897640447384,0.0,13.410218607381266,11.072720238256533,207.41615053391067,197.82173270054005,0.0
0.053,3.0441964129273114,-0.8286323266189004,-1.070273201604274,0.0,13.259662406836117,10.897199506064174,207.0276678094761,197.82173270054005,0.0
0.054,2.909462025387228,-0.8661269733556698,-0.9680911904763505,0.0,13.110403760561862,10.748059638541692,206.58976335014535,197.82173270054005,0.0
0.055,2.795397825301803,-0.906660042492509,-0.8368192673070274,0.0,12.965240683300461,10.623525702715373,206.11620193208083,197.82173270054005,0.0
0.056,2.7000260992286576,-0.9488571907263349,-0.6829832505901745,0.0,12.826376875796925,10.521888343219898,205.70549282141735,197.82173270054005,0.0
0.057,2.621692359871589,-0.991000306580261,-0.5564662964672102,0.0,12.695449484355784,10.43656983777852,205.2731492855673,197.82173270054005,0.0
0.058,2.556000702036082,-1.031264826135899,-0.4148086943924638,0.0,12.573090647507204,10.367450355392497,204.80721108960745,197.82173270054005,0.0
0.059000000000000004,2.5018703950471144,-1.06799645184719,-0.25169438030320546,0.0,12.459693579737564,10.314830353279715,204.44584207765405,197.82173270054005,0.0
0.06,2.459344484747416,-1.1003656925147278,-0.13725096809764548,0.0,12.355567518749927,10.27122682386605,204.05064260023354,197.82173270054005,0.0
0.061,2.4239774946886086,-1.1279469078432773,-0.001940328384328005,0.0,12.260203952199154,10.238775887344863,203.3173353274054,197.82173270054005,0.0
0.062,2.394848758860343,-1.1525646456859322,0.3097572817610903,0.0,12.173563787660742,10.235817809580103,202.51941518567128,197.82173270054005,0.0
0.063,2.3827615476461856,-1.1760426012735548,0.66174052777684,0.0,12.097628229535909,10.26113100997353,201.62948763093755,197.82173270054005,0.0
0.064,2.3895430296654063,-1.2004632659813015,1.0686267558397304,0.0,12.03426904082488,10.316690152007638,200.76333167122218,197.82173270054005,0.0
0.065,2.418582433217943,-1.2231666007214443,1.472288745990595,0.0,11.9850548453627,10.397564898032611,200.28929983901966,197.82173270054005,0.0
0.066,2.466249099964688,-1.2454943186533642,1.684628990707055,0.0,11.951078559674347,10.479798617619553,201.04651957886765,197.82173270054005,0.0
0.067,2.521531968845106,-1.258501853530093,1.2737712519997877,0.0,11.929930826170647,10.497489134064626,202.55156031625825,197.82173270054005,0.0
0.068,2.5386625576295607,-1.2616639203451834,0.4739526071473046,0.0,11.912884669662711,10.426092815890632,199.03062037235654,197.82173270054005,0.0
0.069,2.507228413736961,-1.2247939839170914,2.2223337023799945,0.0,11.88631618331293,10.564080682523395,196.54878643061517,197.82173270054005,0.0
0.07,2.5696933606664283,-1.2147273219343064,3.4759801359499294,0.0,11.87546469880758,10.798844724997103,198.86691591090545,197.82173270054005,0.0
0.07100000000000001,2.7091666267449854,-1.236735830380203,2.3064635637011346,0.0,11.891696369549013,10.853146517690494,200.4189387338841,197.82173270054005,0.0
0.07200000000000001,2.7761259030580248,-1.2348101460370209,1.5044800918783734,0.0,11.91130314212343,10.821147494277021,195.85451230222517,197.82173270054005,0.0
0.073,2.785652336782249,-1.1869299356209793,3.80636551169098,0.0,11.92050176879673,11.055157966413422,194.67391579260317,197.82173270054005,0.0
0.074,2.9177279708276607,-1.170935975537173,4.428141935581351,0.0,11.950901046511278,11.297630751025572,198.0376387296042,197.82173270054005,0.0
0.075,3.0791364979549405,-1.1907433887773822,2.744121406790196,0.0,12.004846429972842,11.311001980898482,195.02294376087127,197.82173270054005,0.0
0.076,3.1397447214130816,-1.159975076398351,4.279456780553346,0.0,12.051151809581452,11.509104903222994,192.7079619078542,197.82173270054005,0.0
0.077,3.2775153143446794,-1.1229738659018125,5.488085414988735,0.0,12.108874493430825,11.795075184338284,196.6766882236761,197.82173270054005,0.0
0.078,3.462615029167637,-1.1395863014361343,3.515172701846425,0.0,12.191619317020525,11.810130758235761,192.21397227907718,197.82173270054005,0.0
0.079,3.539613890182823,-1.0921683975329288,5.802608278360517,0.0,12.26221312185631,12.096683420086999,194.08584018270665,197.82173270054005,0.0
0.08,3.7283381421454034,-1.0652369402722894,4.904033251724119,0.0,12.351914531134002,12.219932908435812,193.45976777551493,197.82173270054005,0.0
0.081,3.8506613445949296,-1.046520932715754,5.260689104570227,0.0,12.443181302060193,12.376477173207125,190.39647637783716,197.82173270054005,0.0
0.082,4.002030845003516,-0.9826459330302447,6.866587366636143,0.0,12.534136732481056,12.684148525872267,193.09979696059577,197.82173270054005,0.0
0.083,4.208045353273387,-0.9910249563709064,5.562146432656282,0.0,12.648324197690677,12.789452900048941,188.2081675405139,197.82173270054005,0.0
0.084,4.36194757143285,-0.9272193381979875,8.104096794297478,0.0,12.754520945564567,13.173435433534396,192.58755551376734,197.82173270054005,0.0
0.085,4.611433816481656,-0.9472979173475777,5.966744579538483,0.0,12.891342971887806,13.243206676445014,188.47914522870641,197.82173270054005,0.0
0.08600000000000001,4.76816039788497,-0.870132314861126,8.114375596787283,0.0,13.01277091780477,13.56255087023798,189.6057976034613,197.82173270054005,0.0
0.08700000000000001,4.989281366868649,-0.8700865531438593,7.633208760380629,0.0,13.154757110745308,13.764942736291953,190.9295881407825,197.82173270054005,0.0
0.088,5.2058086881219054,-0.8169714404231935,7.040234937317604,0.0,13.296941666215085,13.879271787213698,184.4248007554517,197.82173270054005,0.0
0.089,5.362482837754282,-0.7546654321495129,10.0,0.0,13.430018161447158,14.312821400468907,190.20884819983402,197.82173270054005,0.0
0.09,5.654627151648389,-0.7757686370023941,7.602171113261108,0.0,13.5960863810981,14.392395740721675,196.45933396521977,197.82173270054005,0.0
0.091,5.765187724058623,-0.823206774579187,4.490552217921438,0.0,13.758512375894144,14.153079459468099,195.25141101125567,197.82173270054005,0.0
0.092,5.637931376507863,-0.8279062209878232,5.120216911796332,0.0,13.880806700814409,14.069420515053807,201.866992773849,197.82173270054005,0.0
0.093,5.506811243537549,-0.8643116249330808,1.7719734297665743,0.0,13.986463298771108,13.64490411876218,201.70702628548273,197.82173270054005,0.0
0.094,5.2254797145012875,-0.8039660813602592,1.8131037381002875,0.0,14.032100533470514,13.341047057496672,203.09566229959287,197.82173270054005,0.0
0.095,4.935685765955675,-0.7910536590762096,1.0660464350546852,0.0,14.041971427557908,13.018615838458958,205.11175523019196,197.82173270054005,0.0
0.096,4.663091301350134,-0.7564730477981169,-0.014900255541376417,0.0,14.01493736731504,12.645068719419795,205.30592492338727,197.82173270054005,0.0
0.097,4.358039477980163,-0.7419744305237796,-0.18682702436750143,0.0,13.952002959405155,12.328900184519993,205.80540545664107,197.82173270054005,0.0
0.098,4.091028580883245,-0.7268342388661518,-0.5164040185554128,0.0,13.862224703886678,12.029841541093733,206.3986873489352,197.82173270054005,0.0
0.099,3.8415361287830976,-0.7341612636299786,-0.898814511186429,0.0,13.752475784218014,11.737715612970764,206.28120043765853,197.82173270054005,0.0
0.1,3.6111796039542767,-0.7410876231353501,-0.9246657329192778,0.0,13.62517779300188,11.487652149439095,206.42694600698525,197.82173270054005,0.0
0.101,3.408703628174644,-0.7623397461854275,-1.08359065064709,0.0,13.487871724494644,11.25261079649372,206.22819975676026,197.82173270054005,0.0
0.10200000000000001,3.2265077358182137,-0.7879787000446502,-1.0682821960967996,0.0,13.343399891237604,11.048632939571371,205.97138445720898,197.82173270054005,0.0
0.10300000000000001,3.0678410710674284,-0.8200339117143969,-1.0213710638878504,0.0,13.196247139359121,10.871244199212072,205.6262742117921,197.82173270054005,0.0
0.10400000000000001,2.9311499502009877,-0.8566903845875125,-0.9268613562919255,0.0,13.049782448531895,10.720255370862107,205.23189918193677,197.82173270054005,0.0
0.105,2.8151022751185235,-0.8966911708496175,-0.8037755061782299,0.0,12.906898865712503,10.593711635751372,204.8012761413469,197.82173270054005,0.0
0.106,2.717711054693884,-0.9386379628452353,-0.6582594202913663,0.0,12.76986340692087,10.489862384312076,204.43363776144716,197.82173270054005,0.0
0.107,2.6372692702237837,-0.9807865625418405,-0.5405592809505646,0.0,12.640363446911142,10.402061050693627,204.03852896963411,197.82173270054005,0.0
0.108,2.5693002395128284,-1.0212857456721145,-0.40517284773498297,0.0,12.519066773687905,10.33047753622986,203.60483554601385,197.82173270054005,0.0
0.109,2.5128008335330243,-1.0585641896215265,-0.24615716437958612,0.0,12.406437053343748,10.27559581107776,203.24639513109017,197.82173270054005,0.0
0.11,2.4679806310115504,-1.0917213079332022,-0.12118358122324846,0.0,12.302856631093583,10.231461451937657,202.96493822742124,197.82173270054005,0.0
0.111,2.431411492317997,-1.120240231047279,-0.03188718465759788,0.0,12.20802632551386,10.19352975750828,202.3451995364005,197.82173270054005,0.0
0.112,2.3990475014639907,-1.144543313627796,0.23274749249417592,0.0,12.121274030901887,10.181319400091915,201.59111046038123,197.82173270054005,0.0
0.113,2.3807302337799188,-1.1673433941983107,0.5720982529053922,0.0,12.044240908046426,10.198028345366412,200.76928183604454,197.82173270054005,0.0
0.114,2.380518735459913,-1.1916282764391264,0.9535370737186915,0.0,11.979025328244745,10.243767938651624,199.78474738960472,197.82173270054005,0.0
0.115,2.401970067959394,-1.2140256147295707,1.4261741500479568,0.0,11.927126124141292,10.324225943258089,199.3644102081721,197.82173270054005,0.0
0.116,2.447095183199411,-1.237474104799145,1.620915965687944,0.0,11.890818001433585,10.403394206599264,199.52508111226663,197.82173270054005,0.0
0.117,2.4997210682607323,-1.2522438812610703,1.5235470295234128,0.0,11.867447707840878,10.453019233996702,201.50602890536257,197.82173270054005,0.0
0.11800000000000001,2.5333508836192884,-1.2617919658533074,0.49623017092721966,0.0,11.852279537887716,10.38014054337237,198.80001994836746,197.82173270054005,0.0
0.11900000000000001,2.5023619966937343,-1.2335115341628415,1.8394517769464982,0.0,11.828133987535562,10.474805525778631,195.86089077045918,197.82173270054005,0.0
0.12,2.5413455383078944,-1.2187324586497013,3.328624785201449,0.0,11.814526596469705,10.703368191310082,197.41923324128393,197.82173270054005,0.0
0.121,2.6721498646502955,-1.2339198534641636,2.5534785443816332,0.0,11.826954615248304,10.793557394127557,199.78102566383117,197.82173270054005,0.0
0.122,2.754838637854978,-1.2371020079322117,1.3529894034751027,0.0,11.847356915474135,10.743880413660534,195.8817053991034,197.82173270054005,0.0
0.123,2.7551842927197407,-1.1958951470520138,3.3220498088533574,0.0,11.856186711389173,10.930601762960393,192.81965272286806,197.82173270054005,0.0
0.124,2.8598709146968053,-1.172322434489236,4.9030969467477465,0.0,11.880624732869586,11.242246466167535,197.07939142931448,197.82173270054005,0.0
0.125,3.0488151923731253,-1.2016475025381315,2.7806510062367895,0.0,11.937244907133685,11.256153972042235,196.1215575900722,197.82173270054005,0.0
0.126,3.113510191375765,-1.1814620504581543,3.27656967696261,0.0,11.987080164149557,11.344881250827296,190.76528695468124,197.82173270054005,0.0
0.127,3.194708083427437,-1.1272496034384654,6.025269452116676,0.0,12.03504310869098,11.718832297859471,196.10191293266868,197.82173270054005,0.0
0.128,3.4143341044891944,-1.142136551148312,3.37415466080167,0.0,12.117784552199758,11.7177280264501,193.1782029081658,197.82173270054005,0.0
0.129,3.483080811949234,-1.1094853492908483,4.882444970976861,0.0,12.188400922535301,11.912065530954978,191.27536719235198,197.82173270054005,0.0
0.13,3.629035676258651,-1.0564977660627193,5.899326483965646,0.0,12.265887284151257,12.175437417370503,194.1358682879064,197.82173270054005,0.0
0.131,3.8073885099617235,-1.0603849021916993,4.505934580314777,0.0,12.362919659053645,12.238619563710348,189.12708973811422,197.82173270054005,0.0
0.132,3.9185174318030693,-1.0023619543952502,7.097270284835119,0.0,12.450145615480873,12.59372692637467,193.7420810250335,197.82173270054005,0.0
0.133,4.146885105637722,-1.0011095853999332,4.830571158130539,0.0,12.564602181420295,12.62278673252918,187.76214075174428,197.82173270054005,0.0
0.134,4.2555479560141265,-0.9399093437081669,7.921137214263112,0.0,12.663799568485086,13.013346235300752,192.50873473401032,197.82173270054005,0.0
0.135,4.505273632659209,-0.9420059392637523,5.600970202795392,0.0,12.792975795048578,13.062262298751676,186.7901106099521,197.82173270054005,0.0
0.136,4.640804568463992,-0.8736018108123083,8.570598485730375,0.0,12.906580585215606,13.456654013579303,190.6854355391207,197.82173270054005,0.0
0.137,4.897507406835747,-0.885334085515612,6.694298992760272,0.0,13.050238659350569,13.559995806021966,188.07294329139472,197.82173270054005,0.0
