timestamp,iq,id,iq_ref,id_ref,vq,vd,omega,omega_ref,r
0.0,0.0,0.0,0.0,0.0,0.0,0.0,0.0,379.09861850543786,0.0
0.001,0.0,0.0,10.0,0.0,0.0,1.0999999999999999,6.115472199294103,379.09861850543786,0.0
0.002,0.5307369851907212,-0.2913212625381807,10.0,0.0,0.14204533887919985,1.9316189316290207,13.317801563642547,379.09861850543786,0.0
0.003,1.0842913387634832,-0.6024330830807904,10.0,0.0,0.384357124667687,2.6386968949419622,20.697939467553027,379.09861850543786,0.0
0.004,1.5590443546685477,-0.8700465084428163,10.0,0.0,0.6994718867930164,3.2526109522886295,28.232747544420146,379.09861850543786,0.0
0.005,1.9399447555359186,-1.0838738622210777,10.0,0.0,1.065311453102468,3.7994935661768023,35.92944872443006,379.09861850543786,0.0
0.006,2.239750732602683,-1.2510087368845633,10.0,0.0,1.4655018868449925,4.299102221838433,43.75633668444442,379.09861850543786,0.0
0.007,2.4770151619816017,-1.382020589851471,10.0,0.0,1.8883740978591532,4.765668027847139,51.58766747378032,379.09861850543786,0.0
0.008,2.6680767290418097,-1.4872241871505252,10.0,0.0,2.325877945545995,5.209220346273558,59.45942083902103,379.09861850543786,0.0
0.009000000000000001,2.8266491704841292,-1.5730794701170803,10.0,0.0,2.772378685460125,5.636635464737965,67.35059094018146,379.09861850543786,0.0
0.01,2.962077666392183,-1.645500646948331,10.0,0.0,3.224078639851053,6.052647735211881,75.20908322432116,379.09861850543786,0.0
0.011,3.0811061533574158,-1.7084279320504514,10.0,0.0,3.678407615443203,6.460489925470405,83.0265951655913,379.09861850543786,0.0
0.012,3.188848746459569,-1.7638278597420747,10.0,0.0,4.133552631697047,6.862319393890706,90.74118064793086,379.09861850543786,0.0
0.013000000000000001,3.288205119878689,-1.8140726097274587,10.0,0.0,4.588339016389012,7.259628641949282,98.35820682563939,379.09861850543786,0.0
0.014,3.3820602099432007,-1.8592355758795645,10.0,0.0,5.041843166194517,7.653355107498287,105.90865295623543,379.09861850543786,0.0
0.015,3.4721069852858886,-1.899829032412081,10.0,0.0,5.493383198131427,8.044092747085895,113.37727610343421,379.09861850543786,0.0
0.016,3.5596145800153947,-1.9360338400176071,10.0,0.0,5.94241958510469,8.43218525824161,120.68508583176356,379.09861850543786,0.0
0.017,3.645144415105338,-1.9685384477868613,10.0,0.0,6.388575043274759,8.817838951066484,127.83962377537456,379.09861850543786,0.0
0.018000000000000002,3.730251927866576,-1.9959253041084188,10.0,0.0,6.83136783302799,9.201036292373047,134.85405702603322,379.09861850543786,0.0
0.019,3.81544967906247,-2.018253592643655,10.0,0.0,7.270383321112213,9.581672501020332,141.68976328564074,379.09861850543786,0.0
0.02,3.9014648862453374,-2.0350875541282063,10.0,0.0,7.705189334130692,9.959536942333155,148.3432823300447,379.09861850543786,0.0
0.021,3.9891051824829464,-2.0457889559126508,10.0,0.0,8.135310004560049,10.334315260302239,154.92060212100432,379.09861850543786,0.0
0.022,4.079618141396171,-2.0489696811670974,10.0,0.0,8.560139305503519,10.705547790999272,161.01925282597162,379.09861850543786,0.0
0.023,4.171109372430197,-2.048468292080302,10.0,0.0,8.979521969370257,11.072981092896333,166.534238406907,379.09861850543786,0.0
0.024,4.266936196769627,-2.039517194249811,10.0,0.0,9.392730090169543,11.435983292623375,171.8647834235234,379.09861850543786,0.0
0.025,4.367255527950721,-2.0225841458509217,10.0,0.0,9.79914449451603,11.793929226271104,177.02637022703064,379.09861850543786,0.0
0.026000000000000002,4.4734353073349595,-1.9962166741499119,10.0,0.0,10.197980960389518,12.146045424568259,181.63161391243256,379.09861850543786,0.0
0.027,4.582366840795821,-1.966358349113627,10.0,0.0,10.589124658468391,12.491912978736195,185.74793639675826,379.09861850543786,0.0
0.028,4.700058850757774,-1.9240450691803936,10.0,0.0,10.971384864613876,12.830451341534015,189.43662766964098,379.09861850543786,0.0
0.029,4.820934284790598,-1.879137197786803,10.0,0.0,11.344756153370636,13.161242511022618,192.73598774770625,379.09861850543786,0.0
0.03,4.952016225740939,-1.821000614527957,10.0,0.0,11.707923484756042,13.483081433273819,195.59831968863915,379.09861850543786,0.0
0.031,5.086039273572549,-1.7621311371320891,10.0,0.0,12.061063698547066,13.79562148058647,197.80891551030922,379.09861850543786,0.0
0.032,5.230431844273564,-1.6911110488141978,10.0,0.0,12.40292038074925,14.097678592248165,200.4421589734679,379.09861850543786,0.0
0.033,5.380124186618445,-1.6166151787533525,10.0,0.0,12.733312761073865,14.38869342901298,201.91742172589852,379.09861850543786,0.0
0.034,5.537594793894332,-1.535029134414507,10.0,0.0,13.051537880865839,14.667821176756876,203.18880493813168,379.09861850543786,0.0
0.035,5.698947813469154,-1.4530296333491768,10.0,0.0,13.357649178779205,14.934684535625108,203.60405746232266,379.09861850543786,0.0
0.036000000000000004,5.870474243492053,-1.3603000477825025,10.0,0.0,13.65045542338638,15.188218311291084,204.28541056101804,379.09861850543786,0.0
0.037,6.041188711220851,-1.275010780747051,10.0,0.0,13.930879897581198,15.42861600670124,205.2233356988433,379.09861850543786,0.0
0.038,6.228175208801664,-1.168399557236846,10.0,0.0,14.196427351981786,15.654155009933262,200.35169734043586,379.09861850543786,0.0
0.039,6.404895489618571,-1.0845312562500289,10.0,0.0,14.449814560392067,15.86612549236809,209.64773540576442,379.09861850543786,0.0
0.04,6.534612624563911,-1.0851225869390002,10.0,0.0,14.699963825590459,16.069735965364643,218.170241886545,379.09861850543786,0.0
0.041,6.621487035821765,-1.1484636683301073,10.0,0.0,14.952420817214799,16.26974130369247,220.68166573712315,379.09861850543786,0.0
0.042,6.6704785161669795,-1.2647840534085386,10.0,0.0,15.211794475054209,16.47047148862455,233.10654395573727,379.09861850543786,0.0
0.043000000000000003,6.709376245503157,-1.3867642159960276,10.0,0.0,15.477558399636717,16.673277185423842,235.10815372853793,379.09861850543786,0.0
0.044,6.744196093263161,-1.5028656568708394,10.0,0.0,15.74857785831126,16.87893749904121,248.8181267625822,379.09861850543786,0.0
0.045,6.750563942850831,-1.6564343609015326,10.0,0.0,16.02879294551472,17.090781462187255,251.61117095327992,379.09861850543786,0.0
0.046,6.764566527560506,-1.7840489455190416,10.0,0.0,16.314672837580048,17.307985931916857,266.60539535969383,379.09861850543786,0.0
0.047,6.752169677737121,-1.9446655565152717,10.0,0.0,16.610076868775216,17.533561623207692,270.0627790167984,379.09861850543786,0.0
0.048,6.7291903821171735,-2.110358990489937,10.0,0.0,16.91511817760721,17.768523902508925,283.13731951482634,379.09861850543786,0.0
0.049,6.714097190323873,-2.246352557911731,10.0,0.0,17.22645394156277,18.011924542904307,294.70561782835244,379.09861850543786,0.0
0.05,6.666841209228205,-2.4219663531358275,10.0,0.0,17.548953774962747,18.267165921658286,300.1294548425776,379.09861850543786,0.0
0.051000000000000004,6.612335516543512,-2.59336894353628,10.0,0.0,17.88182590988993,18.53465621226123,310.75154600411304,379.09861850543786,0.0
0.052000000000000005,6.568447424188529,-2.726701034625408,10.0,0.0,18.22111236450049,18.81296732052879,322.35703405819294,379.09861850543786,0.0
0.053,6.5036136539679195,-2.8764091099274185,10.0,0.0,18.569435851849082,19.104068797231378,330.9557012510771,379.09861850543786,0.0
0.054,6.434362099984388,-3.0149932598739144,10.0,0.0,18.925784313874168,19.407861808234543,339.4707232587175,379.09861850543786,0.0
0.055,6.370891759459199,-3.1253006473392393,10.0,0.0,19.28762520191878,19.723199586257838,348.00092263299223,379.09861850543786,0.0
0.056,6.314459991163816,-3.2071523724558277,10.0,0.0,19.65271639484943,20.048760466390505,356.29964302226927,379.09861850543786,0.0
0.057,6.266092078485367,-3.262894600420583,10.0,0.0,20.01916768432525,20.383030530514645,362.98468703488817,379.09861850543786,0.0
0.058,6.234656406121481,-3.2830044001420036,10.0,0.0,20.38405550695561,20.723492962007192,368.0316803659419,379.09861850543786,0.0
0.059000000000000004,6.228510489334133,-3.2600491726267444,10.0,0.0,20.743774617448285,21.0667596267365,372.35801287012686,379.09861850543786,0.0
0.06,6.247959954981508,-3.201438289803519,9.255614939599127,0.0,21.09563083852922,21.32758827900895,372.9220336579947,379.09861850543786,0.0
0.061,6.2579084464255486,-3.0898677759313493,9.035370394139644,0.0,21.426697655031607,21.579836799363356,366.94710923381905,379.09861850543786,0.0
0.062,6.294884553266294,-2.9292971743859293,10.0,0.0,21.733335580887925,21.944310964593747,367.66259114726324,379.09861850543786,0.0
0.063,6.454463448942679,-2.717419602332157,10.0,0.0,22.02405630377119,22.276171292372137,372.45908798308557,379.09861850543786,0.0
0.064,6.631771900128243,-2.533638396289387,9.489065347900299,0.0,22.300793830199794,22.529806707256387,361.1602475918959,379.09861850543786,0.0
0.065,6.817914548969568,-2.3200321540640494,10.0,0.0,22.5535622708896,22.828361884686363,358.54315204593746,379.09861850543786,0.0
0.066,7.093657648551296,-2.0498468195547614,10.0,0.0,22.783325060879662,23.088758727455737,354.8514490321959,379.09861850543786,0.0
0.067,7.353445709645557,-1.8486329477873067,10.0,0.0,22.996719583598317,23.32027290922263,345.2203844089455,379.09861850543786,0.0
0.068,7.686325311017746,-1.563821441597346,10.0,0.0,23.182608945258586,23.515956249544708,339.85924928012764,379.09861850543786,0.0
0.069,7.988192639122609,-1.3566383284207832,10.0,0.0,23.349535677397515,23.680783581922782,335.34020068282285,379.09861850543786,0.0
0.07,8.348697035946474,-1.0790468873854293,10.0,0.0,23.487789242178227,23.809184043907376,321.8825654078796,379.09861850543786,0.0
0.07100000000000001,8.687084278618398,-0.8563660882123816,10.0,0.0,23.603338523180646,23.904952263445896,332.2384123391577,379.09861850543786,0.0
0.07200000000000001,8.867119844594678,-0.9093970106496705,10.0,0.0,23.724969907496508,23.98627854930015,349.66246980656115,379.09861850543786,0.0
0.073,8.92021844837208,-1.1307297607519013,10.0,0.0,23.866387075253094,24.0675948542448,354.53614563796214,379.09861850543786,0.0
0.074,8.905840992354632,-1.4147318146409866,10.0,0.0,24.03082105515525,24.15703375167034,372.8331712652143,379.09861850543786,0.0
0.075,8.839109626385826,-1.7355362587591496,10.0,0.0,24.220203995123853,24.261168833039935,379.6769122695261,379.09861850543786,0.0
0.076,8.747198257768135,-2.0458135878894206,6.575381846586905,0.0,24.431984610995706,24.006563640282252,395.74882076323115,379.09861850543786,0.0
0.077,8.433095377062688,-2.280615308313627,-1.6270744228435552,0.0,24.61985206195996,22.964205223475712,395.5247916040082,379.09861850543786,0.0
0.078,7.65142450440345,-2.281084962305016,-1.6793215742177896,0.0,24.682400570881953,22.203989536674865,400.20701432516967,379.09861850543786,0.0
0.079,6.868433862596515,-2.248082022848312,-4.231516892995834,0.0,24.659037640351514,21.324143517766625,402.48534778988,379.09861850543786,0.0
0.08,6.039650413360866,-2.1717464371025015,-5.60455091819542,0.0,24.54195951594581,20.487770291109847,401.8587151765897,379.09861850543786,0.0
0.081,5.249848211581264,-2.061307794773791,-5.518835578261804,0.0,24.34156698651631,19.825076010026272,399.7825814275048,379.09861850543786,0.0
0.082,4.589855599977749,-1.9570226975267269,-4.687608332940008,0.0,24.084577307647507,19.36389091295275,396.8939603607607,379.09861850543786,0.0
0.083,4.104506181371825,-1.8736880827140547,-3.421251218121175,0.0,23.79904413030131,19.100900877807177,393.17381936363034,379.09861850543786,0.0
0.084,3.797922954097281,-1.8231936720636828,-1.701932728137935,0.0,23.511044228151764,19.040988652005648,388.51330944466133,379.09861850543786,0.0
0.085,3.672031774112499,-1.804102838048296,0.5341753219543364,0.0,23.244258046001825,19.19782855670521,384.0710073155507,379.09861850543786,0.0
0.08600000000000001,3.728945796884746,-1.8177327350556098,2.7056024984085365,0.0,23.021524669547798,19.52128230732407,379.16757439833594,379.09861850543786,0.0
0.08700000000000001,3.939067827026859,-1.8529996235526822,5.1566293980869204,0.0,22.857153064565665,20.015471749347817,376.2799814216866,379.09861850543786,0.0
0.088,4.300223486809781,-1.890442992055645,6.628612257249098,0.0,22.762403665934478,20.543587029907325,379.0303034621303,379.09861850543786,0.0
0.089,4.7239014889514745,-1.9242267697945579,5.254134387460335,0.0,22.7332825170886,20.80051042464162,372.12325025626046,379.09861850543786,0.0
0.09,5.028706190045368,-1.895142538824361,8.777414672887023,0.0,22.729228719416632,21.400843238013806,362.38629516967023,379.09861850543786,0.0
0.091,5.5125767452593,-1.8401331976936146,10.0,0.0,22.7798533976344,21.989811259347153,366.4734015582238,379.09861850543786,0.0
0.092,6.034765055733167,-1.80073574738207,10.0,0.0,22.880528784040777,22.460117084497828,357.36126233182483,379.09861850543786,0.0
0.093,6.519230209391256,-1.7329954796638973,10.0,0.0,23.011109759375685,22.84539058197641,353.5428423587166,379.09861850543786,0.0
0.094,7.001814078149677,-1.564974794879562,10.0,0.0,23.149355114275867,23.156955253213784,346.28392260332663,379.09861850543786,0.0
0.095,7.412049161181864,-1.430640438768041,10.0,0.0,23.29183582848535,23.410887972371487,341.60548337276856,379.09861850543786,0.0
0.096,7.846420030762137,-1.2008865766915546,10.0,0.0,23.421532161922357,23.609997046210857,329.09160107563315,379.09861850543786,0.0
0.097,8.228740532493385,-1.0182884728054016,10.0,0.0,23.540381516592888,23.764453299515353,328.3578612132574,379.09861850543786,0.0
0.098,8.61414155470674,-0.8103111084978862,10.0,0.0,23.641740032091846,23.8767779555303,335.6900180352249,379.09861850543786,0.0
0.099,8.83336250705132,-0.8564063195390057,10.0,0.0,23.7513454085,23.967745702957874,344.2550985382463,379.09861850543786,0.0
0.1,8.877527499979125,-1.1313974646982725,10.0,0.0,23.888875095867206,24.057911273584892,360.6280084617667,379.09861850543786,0.0
0.101,8.882187943557664,-1.4097279228144992,10.0,0.0,24.049534810501587,24.152742257021572,367.60389879326766,379.09861850543786,0.0
0.10200000000000001,8.81935005207228,-1.739937716519668,10.0,0.0,24.23715142474261,24.2611148860772,384.61303433909984,379.09861850543786,0.0
0.10300000000000001,8.738729699851442,-2.0408495008202214,3.4271841185473972,0.0,24.44664183880108,23.66264202652102,389.77493185386885,379.09861850543786,0.0
0.10400000000000001,8.247247699848046,-2.215083484882078,0.7394722276785828,0.0,24.591492545901914,22.968302161623427,395.4842607603467,379.09861850543786,0.0
0.105,7.596944104433307,-2.2564486754863107,-2.2790486481094163,0.0,24.65523202692874,22.119339751993266,400.6025350895192,379.09861850543786,0.0
0.106,6.807017887850728,-2.235397705162236,-5.053224978536505,0.0,24.624972060248176,21.16706219170965,401.20253389427705,379.09861850543786,0.0
0.107,5.948044257768076,-2.1373290447166156,-5.574263534803812,0.0,24.491933291261525,20.364001750044466,400.5642563616138,379.09861850543786,0.0
0.108,5.168744362798785,-2.0276166465082297,-5.469781147033938,0.0,24.280804677808554,19.72178017601029,398.4957793883694,379.09861850543786,0.0
0.109,4.5260685729757775,-1.929565472030916,-4.629514269241053,0.0,24.016878263087044,19.276953768644592,395.57631454783353,379.09861850543786,0.0
0.11,4.057854241047901,-1.8526116317658028,-3.334558809397084,0.0,23.727377438416738,19.029336610962055,391.85183217816785,379.09861850543786,0.0
0.111,3.767568935014078,-1.8070920334303078,-1.5998497612915443,0.0,23.437827363030944,18.982648767618358,387.35187867511786,379.09861850543786,0.0
0.112,3.6543192012739016,-1.7943981096384567,0.5675943885366523,0.0,23.171622375215602,19.142301084721574,382.8974375077032,379.09861850543786,0.0
0.113,3.7174920140285774,-1.811266059048123,2.756826782221321,0.0,22.94998553156512,19.470427286399556,377.9548094035811,379.09861850543786,0.0
0.114,3.9324105037490558,-1.848709423969269,5.239578925300934,0.0,22.787275083094695,19.971778289604888,375.14963961853505,379.09861850543786,0.0
0.115,4.298808436865696,-1.8883693749208947,6.681653606693001,0.0,22.694958940747327,20.502369253419353,378.100724133531,379.09861850543786,0.0
0.116,4.7240844990997735,-1.9251921451597456,5.2160902929140915,0.0,22.66858741423289,20.751920407773454,370.96697130417675,379.09861850543786,0.0
0.117,5.025742428838408,-1.8946605849563407,8.864283179603827,0.0,22.666081456480548,21.36090653306545,361.60614250335493,379.09861850543786,0.0
0.11800000000000001,5.512245153592066,-1.8410346033805756,10.0,0.0,22.719131164661334,21.946691651004176,365.70474777047303,379.09861850543786,0.0
0.11900000000000001,6.031793363830192,-1.80332088297042,10.0,0.0,22.821842164388556,22.415560783884494,356.4347665165862,379.09861850543786,0.0
0.12,6.514178408841234,-1.7351784413292652,10.0,0.0,22.954050446054662,22.79994723060066,352.9472720581118,379.09861850543786,0.0
0.121,6.993881246867797,-1.568132841012336,10.0,0.0,23.093782952607327,23.11117239907902,345.4581476384169,379.09861850543786,0.0
0.122,7.40210766960756,-1.4338475115885134,10.0,0.0,23.237563795119108,23.365140423243695,341.05524817428545,379.09861850543786,0.0
0.123,7.834341631585801,-1.2048037426807632,10.0,0.0,23.368511394510563,23.564626257652865,328.45425612623825,379.09861850543786,0.0
0.124,8.215124834857932,-1.0223181048582122,10.0,0.0,23.48852983493239,23.71969445582013,327.7153009180486,379.09861850543786,0.0
0.125,8.598547772962396,-0.8154906181808745,10.0,0.0,23.591127083972477,23.83288898705407,334.4225180348227,379.09861850543786,0.0
0.126,8.82037375195547,-0.855976876051876,10.0,0.0,23.701305824464534,23.92445716176043,343.5490102283678,379.09861850543786,0.0
0.127,8.86526520170305,-1.1292338240835136,10.0,0.0,23.839276910082788,24.01516659336306,359.59204520877364,379.09861850543786,0.0
0.128,8.872383651833958,-1.4032986029036487,10.0,0.0,23.999936386489384,24.110268075350326,366.71269392588005,379.09861850543786,0.0
0.129,8.809135089257692,-1.7346327703397462,10.0,0.0,24.18774617408381,24.218953883164225,383.59799290404663,379.09861850543786,0.0
0.13,8.730057163402986,-2.0338026276571655,3.5576102022621487,0.0,24.39723890633074,23.634955297423268,388.7676507963686,379.09861850543786,0.0
0.131,8.247375322117806,-2.2094525292880047,0.8760909331918443,0.0,24.543712297385106,22.952066845143563,394.6494323743149,379.09861850543786,0.0
0.132,7.605831147696856,-2.2539598015918645,-2.220307994470075,0.0,24.610388805043176,22.10406892861862,399.8019162093246,379.09861850543786,0.0
0.133,6.819176623327896,-2.2341630961082863,-5.003582889013773,0.0,24.582975159956703,21.152458761325153,400.42495103174855,379.09861850543786,0.0
0.134,5.961401620282226,-2.1365517652320003,-5.5283636254888595,0.0,24.452602583307993,20.349863819276916,399.8556600633764,379.09861850543786,0.0
0.135,5.182204993335791,-2.0274452933623897,-5.451288556882159,0.0,24.243982171522426,19.705351057613758,397.8466731058349,379.09861850543786,0.0
0.136,4.537735375670463,-1.9296721369943406,-4.634275624115388,0.0,23.982108542267316,19.25662789453036,394.9622128049185,379.09861850543786,0.0
0.137,4.066180596224645,-1.8527631451895485,-3.3506814166520087,0.0,23.694067702094525,19.00504124788548,391.2886700738148,379.09861850543786,0.0
0.138,3.772025418418963,-1.8072522196947225,-1.635810566783909,0.0,23.40543516938814,18.953250555062837,386.8329546083829,379.09861850543786,0.0
0.139,3.654149256032694,-1.7944357729153362,0.514703804902573,0.0,23.139532120779347,19.107208376723083,382.4171711263957,379.09861850543786,0.0
0.14,3.712334552838425,-1.8108168940583187,2.689410019686597,0.0,22.917545246990983,19.429313506993307,377.5222582805326,379.09861850543786,0.0
0.14100000000000001,3.9216405206210028,-1.8483058529978096,5.152630044867215,0.0,22.753927547880387,19.923774773991674,374.6259638153728,379.09861850543786,0.0
0.14200000000000002,4.281938464203891,-1.887867358897596,6.645503824347751,0.0,22.660094621440287,20.454472345753913,377.4648818631737,379.09861850543786,0.0
0.14300000000000002,4.704943896470862,-1.9252010125350771,5.242382166869962,0.0,22.63242583166152,20.71051712946501,370.8332812349213,379.09861850543786,0.0
0.14400000000000002,5.007698824425105,-1.8981367195839844,8.640835853701322,0.0,22.629777990470764,21.296978690201055,360.96007444035865,379.09861850543786,0.0
