timestamp,iq,id,iq_ref,id_ref,vq,vd,omega,omega_ref,r
0.0,0.0,0.0,0.0,0.0,0.0,0.0,0.0,72.68065058217427,0.0
0.001,0.0,0.0,10.0,0.0,0.0,1.0999999999999999,6.115472199294103,72.68065058217427,0.0
0.002,0.5307369851907212,-0.2913212625381807,10.0,0.0,0.14204533887919985,1.9316189316290207,13.317801563642547,72.68065058217427,0.0
0.003,1.0842913387634832,-0.6024330830807904,10.0,0.0,0.384357124667687,2.6386968949419622,20.697939467553027,72.68065058217427,0.0
0.004,1.5590443546685477,-0.8700465084428163,10.0,0.0,0.6994718867930164,3.2526109522886295,28.232747544420146,72.68065058217427,0.0
0.005,1.9399447555359186,-1.0838738622210777,10.0,0.0,1.065311453102468,3.7994935661768023,35.92944872443006,72.68065058217427,0.0
0.006,2.239750732602683,-1.2510087368845633,10.0,0.0,1.4655018868449925,4.299102221838433,43.75633668444442,72.68065058217427,0.0
0.007,2.4770151619816017,-1.382020589851471,10.0,0.0,1.8883740978591532,4.765668027847139,51.58766747378032,72.68065058217427,0.0
0.008,2.6680767290418097,-1.4872241871505252,10.0,0.0,2.325877945545995,5.209220346273558,59.45942083902103,72.68065058217427,0.0
0.009000000000000001,2.8266491704841292,-1.5730794701170803,8.165149468834153,0.0,2.7723786854601244,5.434801906309721,66.2471205702779,72.68065058217427,0.0
0.01,2.865758664825227,-1.5916691051707081,4.8356349033246815,0.0,3.197973814412691,5.331860967476202,70.60883863810335,72.68065058217427,0.0
0.011,2.7089080200785034,-1.501592496919527,2.675493988852666,0.0,3.560621013328484,5.095097946350015,73.1940828311314,72.68065058217427,0.0
0.012,2.4356921435812895,-1.3419970401296455,1.3777375698490713,0.0,3.8466724560757,4.825609390249575,74.93214101555682,72.68065058217427,0.0
0.013000000000000001,2.126814043750269,-1.1580587831225961,0.48619357330253243,0.0,4.058532645235277,4.557826990820259,75.71734729374455,72.68065058217427,0.0
0.014,1.8220111855293675,-0.9852702536568763,0.063223467092965,0.0,4.205261219864806,4.330837111938234,74.66783757297762,72.68065058217427,0.0
0.015,1.559762068734563,-0.8326449211504402,0.5681064575683987,0.0,4.299557047862129,4.226785282686979,74.09849328678871,72.68065058217427,0.0
0.016,1.389316294656918,-0.7240101062591814,0.8386001736167081,0.0,4.363594533821618,4.183400242001731,75.2955105173074,72.68065058217427,0.0
0.017,1.2877862639445479,-0.6565714353107828,0.21394295900602867,0.0,4.410557861461225,4.088804068850882,75.88288306901586,72.68065058217427,0.0
0.018000000000000002,1.1884480288583537,-0.5997980892859628,-0.11176564171661485,0.0,4.437794557668537,3.9886943773980565,74.38737220583772,72.68065058217427,0.0
0.019,1.0960231535926002,-0.5436748313672845,0.6189225736358206,0.0,4.446690790199032,3.9941254683356098,73.60660946962665,72.68065058217427,0.0
0.02,1.0640947603388624,-0.514610250372765,1.0000443528668335,0.0,4.452604637240021,4.037107461499596,74.73137037450697,72.68065058217427,0.0
0.021,1.0716966797815977,-0.5084297379379841,0.41715670250334735,0.0,4.461836088335429,4.0072982856477495,75.30370077997955,72.68065058217427,0.0
0.022,1.054033162482051,-0.4981977791567862,0.10476099778900227,0.0,4.466099766394527,3.9548775275730663,73.76619826541688,72.68065058217427,0.0
0.023,1.0215786976741728,-0.47512852891485025,0.8626567782379135,0.0,4.462259702901447,3.9980110619641525,73.1357717149526,72.68065058217427,0.0
0.024,1.0344562610381618,-0.4689106714375746,1.1733188421422696,0.0,4.462663727376702,4.061300029173698,74.50464609702426,72.68065058217427,0.0
0.025,1.068855321501631,-0.47949534526763404,0.47064169595793626,0.0,4.470582738821465,4.034244274373151,74.6037195840113,72.68065058217427,0.0
0.026000000000000002,1.063438631025346,-0.4758749067506428,0.40187426244604696,0.0,4.474500178666528,4.011088176529696,73.10427414343975,72.68065058217427,0.0
0.027,1.051450052543231,-0.46047241722686405,1.1473607471191665,0.0,4.474052195280293,4.074595196832525,73.45086439790992,72.68065058217427,0.0
0.028,1.0816792944881508,-0.4606497705309564,0.9663634817267239,0.0,4.480173246021654,4.100897050327785,74.85665713329091,72.68065058217427,0.0
0.029,1.1024268032622242,-0.4649282701968979,0.2417070485250652,0.0,4.488781238468617,4.0452986550037,73.38561798032826,72.68065058217427,0.0
0.03,1.0793392735837086,-0.4503159357266284,0.9701769510248484,0.0,4.489318450350084,4.086246255416089,72.36674646268617,72.68065058217427,0.0
0.031,1.0960541289320094,-0.4427234544705192,1.4827517510407777,0.0,4.493207651491177,4.170181836567041,74.07020650090091,72.68065058217427,0.0
0.032,1.142029229100462,-0.4565363928382134,0.6171261727461399,0.0,4.50669683866626,4.140878105639391,73.91216092224197,72.68065058217427,0.0
0.033,1.1390068365003632,-0.4526011214426283,0.6838338586749342,0.0,4.515335724793881,4.132639981944825,72.13444162509794,72.68065058217427,0.0
0.034,1.1363760292463767,-0.4370851583847742,1.5781555968177132,0.0,4.520619506716874,4.224057038440829,73.73208687117025,72.68065058217427,0.0
0.035,1.182160338522266,-0.4440549184049823,0.7688186108915944,0.0,4.53543844932997,4.203827899553349,74.06603548765497,72.68065058217427,0.0
0.036000000000000004,1.182398922419287,-0.4413513585332197,0.5879904535944278,0.0,4.546385494606912,4.175737440236582,72.25834224603773,72.68065058217427,0.0
0.037,1.1713687752101993,-0.42060605885376895,1.4960601577644153,0.0,4.551173842058462,4.254462382442827,73.3849562035558,72.68065058217427,0.0
0.038,1.2085063514025796,-0.4225521096736073,0.9257101227915627,0.0,4.563777367572459,4.249779029431637,73.74890799411925,72.68065058217427,0.0
0.039,1.2144909795584036,-0.42163691315149054,0.7330516533903888,0.0,4.574532073108303,4.2310484996533475,71.90845574647193,72.68065058217427,0.0
0.04,1.2111352368657706,-0.4030114292242673,1.6609997255710724,0.0,4.580298603845963,4.319696344018106,73.36455800386108,72.68065058217427,0.0
0.041,1.2552888107873923,-0.4092707446199654,0.9261095226596305,0.0,4.59522804547913,4.305048203419785,72.95554214635777,72.68065058217427,0.0
0.042,1.2591847904967806,-0.4065143540601664,1.1278685357694485,0.0,4.606833932773614,4.322913192486991,71.79839467795209,72.68065058217427,0.0
0.043000000000000003,1.275165502360255,-0.39245674623612314,1.7152648290145112,0.0,4.617546957290324,4.4010293549948925,73.59732014612419,72.68065058217427,0.0
0.044,1.316837391828118,-0.40280847085913396,0.8066353992889617,0.0,4.636279561392925,4.362157902778586,72.07064175682952,72.68065058217427,0.0
0.045,1.3111766056898413,-0.3889278287539771,1.576074682189746,0.0,4.647621371985837,4.423810876980402,72.87333635868747,72.68065058217427,0.0
0.046,1.3438531210178888,-0.38407975901906327,1.1728005234956385,0.0,4.66359981768985,4.424727159988498,72.81412293980303,72.68065058217427,0.0
0.047,1.3508522975399968,-0.38205509674711774,1.2010725093615706,0.0,4.677897814971706,4.433849175034229,71.60792539862585,72.68065058217427,0.0
0.048,1.3643315407299224,-0.36479639251812845,1.8148985317856428,0.0,4.689800003187481,4.50931420592589,73.27987062011954,72.68065058217427,0.0
0.049,1.4037907497078144,-0.37399109940303604,0.9729337206593467,0.0,4.7092424804704756,4.475462842546159,71.52551332932595,72.68065058217427,0.0
0.05,1.4023323496976432,-0.3576066149176664,1.8616637385846262,0.0,4.721461333324957,4.553675829406645,72.97510590192502,72.68065058217427,0.0
0.051000000000000004,1.4427903189072628,-0.35972460267890927,1.1339228990875823,0.0,4.74067642307863,4.531885649729443,71.53732524344653,72.68065058217427,0.0
0.052000000000000005,1.4450875698173697,-0.3484401488871639,1.8642464817141036,0.0,4.754528516094509,4.6019608815711965,72.7921533520734,72.68065058217427,0.0
0.053,1.484591598513106,-0.3473788134741015,1.2357173997016786,0.0,4.773999020635457,4.585649894035303,71.41104584450056,72.68065058217427,0.0
0.054,1.4886108892399246,-0.33766551210236656,1.9389672008648333,0.0,4.78883352617196,4.656512742962173,72.7657529048819,72.68065058217427,0.0
0.055,1.529798597003825,-0.3362834728551639,1.2607626474470923,0.0,4.809215974744026,4.635647303715663,71.12421221721343,72.68065058217427,0.0
0.056,1.5324805980388483,-0.32495464140279395,2.097097374930934,0.0,4.824241283466946,4.7178023757721945,72.84409021021088,72.68065058217427,0.0
0.057,1.5782483571740222,-0.326955938732011,1.2355239821518413,0.0,4.846312999543963,4.685100417520309,70.71391266200116,72.68065058217427,0.0
0.058,1.5782677570246357,-0.31120951036817135,2.32028013545843,0.0,4.861155228094776,4.786270281100613,72.78724727625303,72.68065058217427,0.0
0.059000000000000004,1.6307337140013907,-0.31962587497502337,1.2825468613917113,0.0,4.885713484538932,4.748038098228625,70.72993132503122,72.68065058217427,0.0
0.06,1.6328821064061592,-0.30003152966942725,2.3307120295740464,0.0,4.901753155421789,4.842048796934224,72.54324924747138,72.68065058217427,0.0
0.061,1.680170769355977,-0.30935574305700786,1.425427081700994,0.0,4.9268115360126075,4.813019127909252,70.95976795695465,72.68065058217427,0.0
0.062,1.6875644484908803,-0.2882215408869703,2.234376553211555,0.0,4.94404310726927,4.887095137115413,71.99502297548582,72.68065058217427,0.0
0.063,1.7252777742308172,-0.2950893422209473,1.7236053200128523,0.0,4.967925922489317,4.887137843119615,71.35707449878466,72.68065058217427,0.0
0.064,1.7459015000735008,-0.27722229435919343,2.055815319197333,0.0,4.987390673509649,4.929323895702387,71.17932475487775,72.68065058217427,0.0
0.065,1.770846333068822,-0.2803403161996517,2.1597034494237484,0.0,5.009649207567291,4.9748057180909155,72.16942409062236,72.68065058217427,0.0
0.066,1.8096642624838877,-0.27271009028255233,1.6697660464669664,0.0,5.03335956538874,4.959012692113144,70.29094303261088,72.68065058217427,0.0
0.067,1.816978380116797,-0.25675258010937796,2.632903650968337,0.0,5.051440560970385,5.057598141394541,71.84642154488186,72.68065058217427,0.0
0.068,1.8693377270747398,-0.2684194780272675,1.863506685205771,0.0,5.079014935794706,5.048181716038023,71.3843205635754,72.68065058217427,0.0
0.069,1.8907376279127965,-0.2492973292809999,2.107520476044991,0.0,5.100670125259676,5.075169461726922,70.29831262898081,72.68065058217427,0.0
0.07,1.9101020647626203,-0.24614074566819533,2.6743478228742212,0.0,5.122702567637091,5.159618732991153,71.91314003273611,72.68065058217427,0.0
0.07100000000000001,1.9636914185582819,-0.2515285261769784,1.8746092264909529,0.0,5.151600914595282,5.1384856177472225,71.03910232465682,72.68065058217427,0.0
0.07200000000000001,1.9781289717719692,-0.2302240489130093,2.32804356310577,0.0,5.173098745029138,5.17917857439942,70.15699967004376,72.68065058217427,0.0
0.073,2.002751607514104,-0.22905383337180074,2.7943313995336068,0.0,5.196600409147935,5.262145222671199,71.67887487790297,72.68065058217427,0.0
0.074,2.058116767259506,-0.23414687991965155,2.043411552646715,0.0,5.226620508957705,5.246057369791273,72.0059399665191,72.68065058217427,0.0
0.075,2.0680743105800596,-0.22727750051254747,1.8866261144952046,0.0,5.251223251298245,5.224301434284708,71.28410878822399,72.68065058217427,0.0
0.076,2.0514683297277516,-0.23001435683215876,2.2615071215822597,0.0,5.271559873843303,5.251912365050906,73.31355741307316,72.68065058217427,0.0
0.077,2.0529543588519914,-0.2448680170293871,1.2404537408486873,0.0,5.294230461268975,5.162401660031238,73.21902815215859,72.68065058217427,0.0
0.078,2.0079504823926593,-0.22601320076676656,1.282334595606129,0.0,5.303460353059251,5.103891798788524,72.46556140867962,72.68065058217427,0.0
0.079,1.9564243565918198,-0.21868254896924177,1.6612188590805588,0.0,5.305298446011126,5.098632208357224,74.1646734590107,72.68065058217427,0.0
0.08,1.9335551169481888,-0.22476231319029938,0.7968226051466538,0.0,5.307168851206978,4.997210310799558,73.32024852695618,72.68065058217427,0.0
0.081,1.8773516380222883,-0.205650835395232,1.212639091726096,0.0,5.296546965927806,4.966455109865733,73.17488066392168,72.68065058217427,0.0
0.082,1.839100534066879,-0.2102697695411465,1.2803807224258688,0.0,5.284610946617175,4.944652241654392,74.45141934540167,72.68065058217427,0.0
0.083,1.8195339318509385,-0.21291828037391425,0.6244036940535991,0.0,5.271933389266616,4.852770984109374,73.08741955564135,72.68065058217427,0.0
0.084,1.7676221531895364,-0.2057822879087372,1.3023358991990923,0.0,5.2505240176171135,4.855457039064124,74.30217997346423,72.68065058217427,0.0
0.085,1.7523426959003876,-0.22027994949853014,0.6787403963747489,0.0,5.233190291327566,4.781520346511506,73.40492802472963,72.68065058217427,0.0
0.08600000000000001,1.716020592152526,-0.21500477654008088,1.1201235963164986,0.0,5.2094710227703835,4.771874694446405,73.82677211987689,72.68065058217427,0.0
0.08700000000000001,1.6986485618544576,-0.23089856846910473,0.89774033336584,0.0,5.188960184704186,4.733493392103415,73.76522608448049,72.68065058217427,0.0
0.088,1.680421896819571,-0.233802467388474,0.9176675960409797,0.0,5.16682279117215,4.703146180562733,73.63285546248576,72.68065058217427,0.0
0.089,1.6585777802363666,-0.24741900819484686,0.9743308582352268,0.0,5.145333196338756,4.681874223211335,74.01967313517324,72.68065058217427,0.0
0.09,1.6469877885701307,-0.253837651862015,0.7675317963615016,0.0,5.124435250648887,4.638322430601139,73.59514679486617,72.68065058217427,0.0
0.091,1.6205411762437385,-0.2648527778406834,0.9706500043881165,0.0,5.102419397687966,4.624240243623881,74.17071866157353,72.68065058217427,0.0
0.092,1.6106400846222952,-0.2719534233876326,0.667963390240442,0.0,5.081867831075792,4.574862634366843,73.62997257614589,72.68065058217427,0.0
0.093,1.5815576976855439,-0.28147306660988436,0.9288432130145468,0.0,5.059409814498107,4.563191327667746,74.148561107904,72.68065058217427,0.0
0.094,1.5717748142632435,-0.2883292451383186,0.6548698418781933,0.0,5.038689452114188,4.518480774235136,73.80823031887675,72.68065058217427,0.0
0.095,1.5448573316541991,-0.298619426158208,0.8137594390247926,0.0,5.016633428752301,4.499249923557656,73.85338077648738,72.68065058217427,0.0
0.096,1.5315577977311996,-0.30391542149144146,0.7794569082763454,0.0,4.995339580335314,4.475568155163382,74.28169523986666,72.68065058217427,0.0
0.097,1.5139363619183515,-0.31817361950286693,0.5492892300097814,0.0,4.975322381748521,4.42895512206518,73.62387585954649,72.68065058217427,0.0
0.098,1.489047648128507,-0.31872845957041673,0.8687666673961476,0.0,4.952564050137905,4.4250074114720395,74.8394801006355,72.68065058217427,0.0
0.099,1.4792107181758043,-0.3322836003050683,0.23937625166703014,0.0,4.933172297709171,4.347584093829986,73.39227672708877,72.68065058217427,0.0
0.1,1.4387235538050334,-0.3295871840404918,0.9558616769912489,0.0,4.907545231562656,4.365426452433475,74.37826304428265,72.68065058217427,0.0
0.101,1.4382209311251593,-0.34083097507018423,0.4458923937732264,0.0,4.887528889067055,4.315310810005819,73.8426392562647,72.68065058217427,0.0
0.10200000000000001,1.411026901946257,-0.3503640406923665,0.7020844010412939,0.0,4.865438815886387,4.304472228185914,73.66290188029178,72.68065058217427,0.0
0.10300000000000001,1.4010278602910913,-0.3564525231166146,0.7821305760465784,0.0,4.845048294252244,4.2995796106981174,74.77599294633433,72.68065058217427,0.0
0.10400000000000001,1.3945385907082684,-0.3716622886577039,0.20463161938370655,0.0,4.827819752418011,4.229425685050272,73.45490246127888,72.68065058217427,0.0
0.105,1.3580842311444359,-0.36982120638753246,0.8574343431203852,0.0,4.80494405549729,4.246092673817646,74.08451167149883,72.68065058217427,0.0
0.106,1.3576704959884087,-0.379226209623737,0.5285911271171628,0.0,4.787075588324063,4.215785580290014,74.2741692355904,72.68065058217427,0.0
0.107,1.3395768569354687,-0.3914229966779788,0.4178271585372135,0.0,4.769210855058997,4.179812907958323,73.57618767485036,72.68065058217427,0.0
0.108,1.3177426214514998,-0.3929783368335146,0.757862567980476,0.0,4.749584447433836,4.1863833937705595,73.99960859801381,72.68065058217427,0.0
0.109,1.315688084431204,-0.4018049099107204,0.5329625262403566,0.0,4.733533098789353,4.162202488270605,74.51012435563098,72.68065058217427,0.0
0.11,1.2997707475343652,-0.41376707014796105,0.259409909697204,0.0,4.717896366354646,4.112723112742298,73.6407511318595,72.68065058217427,0.0
0.111,1.2706889041923155,-0.41209758160083726,0.6844955160860895,0.0,4.698572104268027,4.1191627737902206,73.76616972087439,72.68065058217427,0.0
0.112,1.2658822835536063,-0.41876916478788057,0.610931030191646,0.0,4.682574803530903,4.110921002849248,74.7494168766889,72.68065058217427,0.0
0.113,1.2579578342889022,-0.4310738746119811,0.09861978933924442,0.0,4.668639858022175,4.0471087105065715,73.72692543789455,72.68065058217427,0.0
0.114,1.2226563758431839,-0.4278572221938545,0.5994027601792151,0.0,4.649240298965821,4.052297307984592,73.6399969260445,72.68065058217427,0.0
0.115,1.2151384553415687,-0.43265139886172077,0.6332735526655364,0.0,4.632859081520546,4.05421900394499,74.54830335347815,72.68065058217427,0.0
0.116,1.2130403209158485,-0.44310079718659673,0.16044381123567586,0.0,4.6194096474649005,4.0021160446644855,73.97255413872948,72.68065058217427,0.0
0.117,1.1837991363280667,-0.4444948923732136,0.435399383044458,0.0,4.6021437173740445,3.9920473971801322,73.53401510340969,72.68065058217427,0.0
0.11800000000000001,1.1700906904478583,-0.4467823345059953,0.6461352554919997,0.0,4.585835193226583,4.002905928887216,73.8088641249858,72.68065058217427,0.0
0.11900000000000001,1.171577680539987,-0.4552721239979636,0.497428609275826,0.0,4.573154377087361,3.9922820118316533,74.53312605778368,72.68065058217427,0.0
0.12,1.164118221609269,-0.4651982547079522,0.11677288812079545,0.0,4.561686227339685,3.941902752386134,73.81388282710199,72.68065058217427,0.0
0.121,1.1351050000414458,-0.4624065455325329,0.4650621810123603,0.0,4.545920617305829,3.940649843123174,73.60592524104669,72.68065058217427,0.0
0.122,1.1250943298383558,-0.4649473547753599,0.5597882274512864,0.0,4.531913683457528,3.9456936774691536,73.7094794638661,72.68065058217427,0.0
0.123,1.1237652708678687,-0.4722137699345543,0.4977228272246621,0.0,4.5205857240037375,3.941104070291108,74.33938821023803,72.68065058217427,0.0
0.124,1.1192029005128998,-0.47992523291507905,0.16618107775806223,0.0,4.510707196553788,3.9004802595957715,73.91426324895686,72.68065058217427,0.0
0.125,1.0954138672344564,-0.4782610880556627,0.36640743173082146,0.0,4.497493970214957,3.890842463613721,73.75409757573955,72.68065058217427,0.0
0.126,1.0822334173494355,-0.4785917885161174,0.43575579840382217,0.0,4.484691305411051,3.887685140544864,73.79511643735994,72.68065058217427,0.0
0.127,1.0750400563732418,-0.4828229989013892,0.4041017090417721,0.0,4.473315300918425,3.8800473150144774,73.8392409486174,72.68065058217427,0.0
0.128,1.0679161864041855,-0.4862113828287804,0.3704535497486082,0.0,4.46264352445018,3.8693626070460727,73.82450185588065,72.68065058217427,0.0
0.129,1.0588726974769715,-0.4887517609524453,0.36638458337991775,0.0,4.452216012586251,3.8594916326023636,73.75826920918368,72.68065058217427,0.0
0.13,1.0495868249609703,-0.4908148385594833,0.38872472045831075,0.0,4.442045689219881,3.852994120246431,73.68934982986471,72.68065058217427,0.0
0.131,1.0418516020841373,-0.49331558694441147,0.4130974176408915,0.0,4.432497098500826,3.849344937900045,73.58355554184581,72.68065058217427,0.0
0.132,1.0358411955106175,-0.49663032853445305,0.45696551205362546,0.0,4.423878062710094,3.8502713706242866,73.48926349436323,72.68065058217427,0.0
0.133,1.0333664121798456,-0.4995507803375577,0.4960254066730271,0.0,4.4165016760533,3.8543132860616875,73.2774943544086,72.68065058217427,0.0
0.134,1.0330728652357455,-0.5033491861967255,0.5959415389279967,0.0,4.4106557397324035,3.867821089222064,73.96786217535765,72.68065058217427,0.0
0.135,1.0384953929775422,-0.50828729200444,0.23788551252163825,0.0,4.40725038493989,3.8384087806860263,74.13191008478427,72.68065058217427,0.0
0.136,1.0212781662529697,-0.507787935791189,0.14134896278223108,0.0,4.401140024531491,3.8065068275341902,73.48452189708217,72.68065058217427,0.0
0.137,0.9980207635699521,-0.5003010074459149,0.45700434348419783,0.0,4.3916319362928995,3.8152576330591947,73.10743862650243,72.68065058217427,0.0
