timestamp,iq,id,iq_ref,id_ref,vq,vd,omega,omega_ref,r
0.0,0.0,0.0,0.0,0.0,0.0,0.0,0.0,11.754444785558594,0.0
0.001,0.0,0.0,5.994766840634883,0.0,0.0,0.659424352469837,3.665491043534378,11.754444785558594,0.0
0.002,0.31821129847252927,-0.17463782776101952,4.242910856287936,0.0,0.08515259630069587,0.9652512001761993,6.902665812869224,11.754444785558594,0.0
0.003,0.5572615621152559,-0.3101489144034216,2.6728412613474064,0.0,0.2055324589950123,1.0707081111260317,9.07802489273155,11.754444785558594,0.0
0.004,0.6619684363050846,-0.37044476215620087,1.611925920344514,0.0,0.3296974589012622,1.067530072164945,10.516066406231412,11.754444785558594,0.0
0.005,0.6647096276111185,-0.37197341912491927,0.9052889473878551,0.0,0.44069334870980953,1.0107109611736238,11.430001805892966,11.754444785558594,0.0
0.006,0.6079190483569347,-0.3392816576450223,0.4515656773537343,0.0,0.5312963581058943,0.9341045359191229,11.99041760823313,11.754444785558594,0.0
0.007,0.5255210788418524,-0.2915824541933695,0.16899804795690654,0.0,0.6002584292720375,0.856169718450488,12.299592821733507,11.754444785558594,0.0
0.008,0.43886508773294003,-0.24172288120027216,0.008958960844969277,0.0,0.6495232505799788,0.7868541458838155,12.464965832193997,11.754444785558594,0.0
0.009000000000000001,0.3600980834434515,-0.1967226995165461,-0.08083275485162972,0.0,0.6824786082451798,0.7289177254098523,12.342956520491907,11.754444785558594,0.0
0.01,0.2939816433306073,-0.15954715792548624,-0.025713216349917745,0.0,0.702705480338285,0.6935166875114783,12.182662755338846,11.754444785558594,0.0
0.011,0.24733658103547476,-0.13249623127252408,0.0501514865288098,0.0,0.7147657149163271,0.6759421549952311,12.23876681100715,11.754444785558594,0.0
0.012,0.21888789986596757,-0.11488422401054295,0.017256238440172655,0.0,0.7221956612526521,0.65961687917557,12.386092852969444,11.754444785558594,0.0
0.013000000000000001,0.19831424255989832,-0.10303911699567427,-0.06272326321508315,0.0,0.7261232436743627,0.6391769483622882,12.260615541997046,11.754444785558594,0.0
0.014,0.1793545352786083,-0.09326165592536922,-0.005046315293268627,0.0,0.726657005124989,0.6301978593883389,12.095767676407911,11.754444785558594,0.0
0.015,0.16806280931043388,-0.08676491196649395,0.07396438859280546,0.0,0.7256226143083845,0.6313369561887835,12.047423070059487,11.754444785558594,0.0
0.016,0.165024461907169,-0.08419345520542867,0.09520690892200856,0.0,0.7245876794493569,0.6340265753795523,12.176488768629703,11.754444785558594,0.0
0.017,0.16545408130868156,-0.08402601688725712,0.0264536198061896,0.0,0.7239324963479201,0.62849081055111,12.200155288524723,11.754444785558594,0.0
0.018000000000000002,0.1626037794910378,-0.08335361108464946,0.010163254829018364,0.0,0.7227169648186782,0.622656526032994,12.039216931729461,11.754444785558594,0.0
0.019,0.1590581262502452,-0.08164553275883711,0.08778471176494052,0.0,0.7208583934327354,0.626346899564799,11.953275888453158,11.754444785558594,0.0
0.02,0.16028337624906672,-0.08172680012074633,0.1287669223741466,0.0,0.7195807367316355,0.6330439731702043,12.081152774176154,11.754444785558594,0.0
0.021,0.1643825389311435,-0.08346049203269242,0.061561399626473,0.0,0.7192904464978811,0.6307024887415831,12.180207096856263,11.754444785558594,0.0
0.022,0.1644253557265002,-0.08409645658085173,0.007776615173441803,0.0,0.7188476560258181,0.6233581344494232,12.02802767955755,11.754444785558594,0.0
0.023,0.16081502670368505,-0.08267597381195958,0.08113049488280885,0.0,0.7175520964216855,0.6257082755122967,11.912134677014002,11.754444785558594,0.0
0.024,0.1611872369440017,-0.08246919743968882,0.13750009724002846,0.0,0.7166125663109929,0.6330839175540073,12.020329908735173,11.754444785558594,0.0
0.025,0.16534340940114897,-0.08398489833711818,0.08074363014767741,0.0,0.7166733482779802,0.6323676781088637,12.153278833404823,11.754444785558594,0.0
0.026000000000000002,0.1661678547428213,-0.08478496011739256,0.010280827334390119,0.0,0.7167292778906107,0.6244966699033826,12.035834423528014,11.754444785558594,0.0
0.027,0.16229144572068302,-0.08348746733641765,0.06618913589310033,0.0,0.71584178889772,0.6247075468951556,11.887694716546786,11.754444785558594,0.0
0.028,0.16137696058979456,-0.082776075386015,0.13892649007383231,0.0,0.7149988583165611,0.632312442436932,11.970921248962423,11.754444785558594,0.0
0.029,0.16525740244654474,-0.08395448586565545,0.09514845923197565,0.0,0.7151374494199602,0.633093604976452,12.11882716339553,11.754444785558594,0.0
0.03,0.16678736892418733,-0.08482852059598792,0.017551678237052948,0.0,0.7154246573825112,0.6255831528773635,12.048243015264095,11.754444785558594,0.0
0.031,0.16317402580538318,-0.08380088551564965,0.04990577000571511,0.0,0.7148103191327579,0.6236001520967862,11.895187598584346,11.754444785558594,0.0
0.032,0.16115353863923956,-0.08269012150706248,0.12502605021533192,0.0,0.7139472069397815,0.6298798276317502,11.913622048832146,11.754444785558594,0.0
0.033,0.16405317176970494,-0.0832747048497115,0.11421705245869684,0.0,0.713873785327376,0.6331658673225816,12.067421385497488,11.754444785558594,0.0
0.034,0.16657147565068642,-0.0844797076905757,0.03418761812663687,0.0,0.7142630143243627,0.6271727959885258,12.066673204830156,11.754444785558594,0.0
0.035,0.1639899529736153,-0.0840183211298233,0.031439424267587,0.0,0.7139512107381538,0.6226250982396867,11.907415189494756,11.754444785558594,0.0
0.036000000000000004,0.16098467059173913,-0.08247292092778319,0.10953872789592536,0.0,0.7130504375790649,0.6274241610800542,11.859644558346057,11.754444785558594,0.0
0.037,0.1627830925431354,-0.08257661164862216,0.13237204574240044,0.0,0.7127465080012345,0.6331560330088327,12.017931013825445,11.754444785558594,0.0
0.038,0.16621850127018528,-0.08414707821806273,0.05059395572003797,0.0,0.713217872989495,0.6287004909655639,12.082438985285728,11.754444785558594,0.0
0.039,0.16474821067286063,-0.08411723529580688,0.015060027992624792,0.0,0.7131775598874599,0.6218427745286323,11.913788893179868,11.754444785558594,0.0
0.04,0.16086790078425264,-0.0822473627868298,0.09779163296934218,0.0,0.7122501189051704,0.6255347454316776,11.824625402797116,11.754444785558594,0.0
0.041,0.16176531277926023,-0.08203720432162165,0.14167157198833308,0.0,0.7117802004053311,0.6326267339701739,11.97559705407773,11.754444785558594,0.0
0.042,0.16569697521070634,-0.08365906558660162,0.0639742236628349,0.0,0.7122469789331256,0.6295535153513331,12.076175544586635,11.754444785558594,0.0
0.043000000000000003,0.16512606845111488,-0.08392828856788914,0.010467670818101932,0.0,0.712373153661548,0.6218276654853596,11.9179034329529,11.754444785558594,0.0
0.044,0.16098634515369808,-0.08213278839487015,0.08796914016102653,0.0,0.7115139286816861,0.6243969057301144,11.804327910207931,11.754444785558594,0.0
0.045,0.1611988658967488,-0.08169680199151343,0.14425807028701726,0.0,0.7109675467216467,0.6319752925581278,11.93831681996661,11.754444785558594,0.0
0.046,0.16524422393256818,-0.08318673678189802,0.07542489506359734,0.0,0.7114018943313882,0.6301637997549906,12.061135589956493,11.754444785558594,0.0
0.047,0.16537812997985282,-0.08366562887787309,0.01094860202467729,0.0,0.7116494366824958,0.6221985544262504,11.924859887938837,11.754444785558594,0.0
0.048,0.16122097081114764,-0.08208666005695217,0.07738230200970281,0.0,0.7108972247743572,0.6234656843632678,11.780339948885931,11.754444785558594,0.0
0.049,0.16075827805603657,-0.0813940291226575,0.14938331990288217,0.0,0.7102865473361712,0.6317959796955444,11.903443117466221,11.754444785558594,0.0
0.05,0.16504218710906782,-0.08281398259682231,0.08634175229366106,0.0,0.7107330883665324,0.6311017382114438,12.051762130482889,11.754444785558594,0.0
0.051000000000000004,0.16584153175826827,-0.08348544444238025,0.009209072336084312,0.0,0.7111252124137168,0.6226223070386665,11.930552034791127,11.754444785558594,0.0
0.052000000000000005,0.16155125235264053,-0.08197625527163319,0.0680530476896398,0.0,0.7104574555116676,0.6227541196574631,11.771472905149032,11.754444785558594,0.0
0.053,0.1604155831971839,-0.08109214366409812,0.1474223313147827,0.0,0.7097874951765818,0.6310301775824496,11.869166607924443,11.754444785558594,0.0
0.054,0.16452735312511108,-0.0822917206259177,0.09742826170341881,0.0,0.7101529312493783,0.6316549418043005,12.03015024273079,11.754444785558594,0.0
0.055,0.16599519405749066,-0.08311495707436974,0.014179389728523839,0.0,0.7106228603767921,0.6234759931868388,11.939800094902402,11.754444785558594,0.0
0.056,0.1619871293494401,-0.08187875865459067,0.05750091054927914,0.0,0.7100836875390579,0.622215353881106,11.769469807133843,11.754444785558594,0.0
0.057,0.16019093891615183,-0.08081137511890875,0.14251580421780619,0.0,0.7093673178497971,0.6301027846180848,11.829626827075298,11.754444785558594,0.0
0.058,0.16396790640501552,-0.08170904171468649,0.11168547383191166,0.0,0.7096207453640521,0.6324549217051982,12.002491240132901,11.754444785558594,0.0
0.059000000000000004,0.16622532622719555,-0.08280691230945454,0.022772802757367122,0.0,0.71019583293506,0.6249145508151335,11.955823981911351,11.754444785558594,0.0
0.06,0.16272883678420286,-0.08192199602435415,0.04409263990461465,0.0,0.7098510551626518,0.62182722260507,11.782389180521696,11.754444785558594,0.0
0.061,0.1601836831027939,-0.08048344285255532,0.13053059664981131,0.0,0.7090826306604311,0.6285541283197956,11.791786600373355,11.754444785558594,0.0
0.062,0.16313272791974373,-0.08096366441256536,0.12545846857583415,0.0,0.709130949083224,0.632759340890559,11.964727719256421,11.754444785558594,0.0
0.063,0.16605990299665005,-0.08238334547352463,0.0368850797973225,0.0,0.7097463196219198,0.6265640137513386,11.966322229230064,11.754444785558594,0.0
0.064,0.16347185254548038,-0.08192100136135602,0.03396905037378645,0.0,0.7096155657298755,0.6219286843315035,11.789404911797343,11.754444785558594,0.0
0.065,0.160431413494381,-0.08024382168697351,0.12207810782775966,0.0,0.7088544879619918,0.6277735368697294,11.761968271377793,11.754444785558594,0.0
0.066,0.16274961933187215,-0.08044269579767496,0.1357211931793427,0.0,0.70879265117364,0.6332920381588436,11.93867163861185,11.754444785558594,0.0
0.067,0.16613638570623707,-0.08207098088602584,0.045527241031781074,0.0,0.7094659708116465,0.6278453778076585,11.97283038025041,11.754444785558594,0.0
0.068,0.16409064176491397,-0.08182468089500007,0.02626401426558289,0.0,0.7094839166008374,0.6220525995298755,11.7903524427451,11.754444785558594,0.0
0.069,0.16062554587759698,-0.07994740632912013,0.1171439064463734,0.0,0.7087167527809943,0.6273910171745304,11.737551913809076,11.754444785558594,0.0
0.07,0.16252754496918642,-0.07997292833758576,0.14371309963188028,0.0,0.7085817272741913,0.6338888181423854,11.919875951224922,11.754444785558594,0.0
0.07100000000000001,0.166284149986766,-0.0817519868305899,0.05089676926729403,0.0,0.7093054256289998,0.6288536416297972,11.976404638508177,11.754444785558594,0.0
0.07200000000000001,0.16457735839482757,-0.08163054367289345,0.020412827096170982,0.0,0.7094220871647918,0.6221945953940599,11.787321910440024,11.754444785558594,0.0
0.073,0.16076844460273318,-0.07960149122701068,0.11462541988143288,0.0,0.708639196585961,0.6272832571647766,11.716820431054337,11.754444785558594,0.0
0.074,0.1624193283542224,-0.07952485488607114,0.15025240311931887,0.0,0.7084553217690402,0.6345419195782684,11.90546573234709,11.754444785558594,0.0
0.075,0.16649127273756453,-0.08142534197071288,0.054419543005058024,0.0,0.7092255206178809,0.6297270387791191,11.977532954732323,11.754444785558594,0.0
0.076,0.16500351918504017,-0.08138370317360465,0.016155050120703535,0.0,0.7094136263633941,0.6224242726632432,11.781771027985869,11.754444785558594,0.0
0.077,0.1609263917018064,-0.07924060407797925,0.11376275106965816,0.0,0.7086173204102207,0.6274236922543655,11.699673400249328,11.754444785558594,0.0
0.078,0.1624394764070729,-0.07910230277269556,0.15535927879102135,0.0,0.7084068048588518,0.635235869738507,11.894416183009572,11.754444785558594,0.0
0.079,0.16675340803240316,-0.08109664025523519,0.05658817343638961,0.0,0.709219318747166,0.6305055894211401,11.97576519074151,11.754444785558594,0.0
0.08,0.16538690552698943,-0.08110118752387069,0.013700465518590943,0.0,0.7094581100396369,0.622793106298779,11.77424471927042,11.754444785558594,0.0
0.081,0.16113473541380635,-0.07887807305281148,0.11426270191701772,0.0,0.7086571858261218,0.6278205473883022,11.686893472510556,11.754444785558594,0.0
0.082,0.16260531294762146,-0.0787079613769989,0.15861383842743013,0.0,0.7084426170032816,0.635933869369831,11.886594983393303,11.754444785558594,0.0
0.083,0.16705380690671284,-0.08076254654247889,0.057441581007709575,0.0,0.7092885427458391,0.6311673140294874,11.970132704200855,11.754444785558594,0.0
0.084,0.16570799705393502,-0.08077993349265822,0.01351584141751093,0.0,0.7095545870929716,0.623334422040106,11.764630210185127,11.754444785558594,0.0
0.085,0.16140649269386842,-0.07851517856033943,0.11616523417911001,0.0,0.7087614408943957,0.6285018216651335,11.6796510395552,11.754444785558594,0.0
0.08600000000000001,0.162936389467568,-0.0783458183801497,0.15940275695410736,0.0,0.7085683672076827,0.6365914965967266,11.882231338874234,11.754444785558594,0.0
0.08700000000000001,0.16737401388064546,-0.08041682115816357,0.056834741761433605,0.0,0.7094330722901837,0.6316652000498435,11.95915432089667,11.754444785558594,0.0
0.088,0.1659357588232672,-0.08040850927517759,0.01632615539683463,0.0,0.7096970528748372,0.624090323618162,11.752515008983963,11.754444785558594,0.0
0.089,0.1617545497983391,-0.07815580969400476,0.119665109118935,0.0,0.7089294339227584,0.6295172541033595,11.67980549416067,11.754444785558594,0.0
0.09,0.1634623434441271,-0.07802911692469663,0.15676625944456074,0.0,0.7087898607055951,0.6371427972521413,11.881878899498846,11.754444785558594,0.0
0.091,0.1676911777221122,-0.08004713053206075,0.05445521563607031,0.0,0.7096500475495297,0.6319185086080176,11.94048176217509,11.754444785558594,0.0
0.092,0.16602397194851312,-0.07996175380368599,0.023293414531783435,0.0,0.7098722152684631,0.6251236608071891,11.736740065085325,11.754444785558594,0.0
0.093,0.1621933055592538,-0.0778136801167123,0.1253413102813984,0.0,0.7091572470971372,0.6309721023469197,11.68966504419199,11.754444785558594,0.0
0.094,0.16423867944551085,-0.07779356679453413,0.1495266181417317,0.0,0.7091178881683472,0.6375408100313041,11.88788063187492,11.754444785558594,0.0
0.095,0.16800756414947926,-0.07964034266031308,0.049084465837103824,0.0,0.7099426823793317,0.631764097643685,11.912580605696272,11.754444785558594,0.0
0.096,0.16589672078092846,-0.07938782307072242,0.03515312072505081,0.0,0.7100610810169437,0.6263893910942268,11.712538903984703,11.754444785558594,0.0
0.097,0.16266463950863233,-0.077484554414013,0.13559303039657444,0.0,0.709423334779506,0.6330861190847309,11.708547635784717,11.754444785558594,0.0
0.098,0.1653529087529761,-0.07770304818690613,0.13804763599430614,0.0,0.7095621029664482,0.6379869767418753,11.90753611752033,11.754444785558594,0.0
0.099,0.16846492162279136,-0.07924517375652916,0.037022481806882196,0.0,0.71034452897534,0.6309588737121694,11.878116301826706,11.754444785558594,0.0
0.1,0.16548401016649872,-0.07862946656083698,0.05049567449101289,0.0,0.7102627530331498,0.6275631467123419,11.67222293325712,11.754444785558594,0.0
0.101,0.16298266288364904,-0.07707068298562691,0.1542645772988211,0.0,0.7096842728638796,0.6360240012868466,11.733938395401141,11.754444785558594,0.0
0.10200000000000001,0.1668185741787415,-0.07778718936008594,0.12361191012838456,0.0,0.7101041297059296,0.638724476254859,11.94411922587393,11.754444785558594,0.0
0.10300000000000001,0.16917070353428243,-0.07897201206681431,0.016624750488836895,0.0,0.7108752137945711,0.6295144534054705,11.83700918432566,11.754444785558594,0.0
0.10400000000000001,0.16484433352393066,-0.07769606519508598,0.06935412727530088,0.0,0.7104959848064524,0.6286720662874858,11.62373560091963,11.754444785558594,0.0
0.105,0.16323576536014134,-0.07648029399858271,0.17729801082470562,0.0,0.7099494646424488,0.6393562072029707,11.767887985638838,11.754444785558594,0.0
0.106,0.16843002271039975,-0.07794756290802979,0.10508738646429935,0.0,0.7106995678783986,0.6393072205052018,11.975249444385133,11.754444785558594,0.0
0.107,0.1697592894429909,-0.07882407395836538,-0.000801389497113475,0.0,0.7114515056474187,0.6283182069215711,11.786128247409533,11.754444785558594,0.0
0.108,0.16433249637770558,-0.07676744028774707,0.09344237437217731,0.0,0.7107943534669026,0.6305392301629487,11.601739359644851,11.754444785558594,0.0
0.109,0.16400971663086839,-0.07587242667403553,0.18716387251365552,0.0,0.7103471336677735,0.641820600860506,11.812573861839132,11.754444785558594,0.0
0.11,0.16970457933879446,-0.07798724968831175,0.08116533065370964,0.0,0.7113143535860208,0.6387023952270453,11.96676334316577,11.754444785558594,0.0
0.111,0.16956780936997512,-0.07846352818780016,0.0019474044143189678,0.0,0.711904273353898,0.6284107390046717,11.734098731618795,11.754444785558594,0.0
0.112,0.1642813938339973,-0.07596833653365667,0.11848317072720424,0.0,0.7111268016557998,0.6333984919474036,11.60643159989705,11.754444785558594,0.0
0.113,0.16545034204572845,-0.0755235918989238,0.1837968684446923,0.0,0.7109018824285052,0.6436474230531972,11.847731354341546,11.754444785558594,0.0
0.114,0.17085200943336806,-0.07797651773685756,0.062214125534614834,0.0,0.7119986175230395,0.6382392364978755,11.9341490369888,11.754444785558594,0.0
0.115,0.1694254810903811,-0.07803976534686316,0.017208241696686097,0.0,0.7124272884313094,0.6299576571060731,11.69899937339973,11.754444785558594,0.0
0.116,0.16495201164370418,-0.07548097146745875,0.1353375276128096,0.0,0.7117028345067377,0.6364691993891352,11.662196482760162,11.754444785558594,0.0
0.117,0.1671394985116112,-0.07539810750238177,0.15466145596057754,0.0,0.7117184531055648,0.6429161230605908,11.876297424487806,11.754444785558594,0.0
0.11800000000000001,0.17083133774098477,-0.07727767960911607,0.04639245870746361,0.0,0.7125847837830465,0.6362328597969111,11.850581129315946,11.754444785558594,0.0
0.11900000000000001,0.16822914276660883,-0.07683723873102377,0.05828924285581982,0.0,0.7126289108487542,0.633019051995673,11.626997809456753,11.754444785558594,0.0
0.12,0.16595300738108898,-0.07532980233537243,0.1713553725464347,0.0,0.712185830833027,0.6426736970482769,11.738329534127343,11.754444785558594,0.0
0.121,0.1704475656474272,-0.07629230857664862,0.11585066272545219,0.0,0.7128734733746297,0.6435652274536812,11.961431925723112,11.754444785558594,0.0
0.122,0.171992238707838,-0.07723759965636356,0.002229595525922931,0.0,0.7136758616589682,0.6323681303249853,11.765360944864106,11.754444785558594,0.0
0.123,0.16651109044755127,-0.07519208223858752,0.10015592436237046,0.0,0.7130438415752509,0.6348974616208327,11.573515783332152,11.754444785558594,0.0
0.124,0.16638793150326261,-0.07425626491684907,0.19788779515061225,0.0,0.7126454718982767,0.6468406362783351,11.816325321783243,11.754444785558594,0.0
0.125,0.1724087805946168,-0.07660847310806951,0.07586422056282022,0.0,0.7137493577290015,0.642486219600358,11.952890169411909,11.754444785558594,0.0
0.126,0.17168731531137754,-0.07695896557546555,0.005597342909954145,0.0,0.7143224453983579,0.6323080820493836,11.692159797908609,11.754444785558594,0.0
0.127,0.16641128868466973,-0.07418778227187661,0.1365853785381039,0.0,0.713512075457612,0.6388895679921731,11.622703870620018,11.754444785558594,0.0
0.128,0.1684343735614756,-0.07394269923968584,0.17263075133178485,0.0,0.7134416438047148,0.6471116793949165,11.858176759234924,11.754444785558594,0.0
0.129,0.1729348659982507,-0.07625258310613106,0.05385698728756866,0.0,0.7144570045130125,0.6406041454000183,11.848071404467568,11.754444785558594,0.0
0.13,0.17068874106617477,-0.07597337845653923,0.05797339848215702,0.0,0.7146662644008711,0.6367815224141825,11.61661432546881,11.754444785558594,0.0
0.131,0.16822398025763807,-0.07431818069286937,0.1750802425824341,0.0,0.7142930562938526,0.6464513388944192,11.73837613937327,11.754444785558594,0.0
