timestamp,iq,id,iq_ref,id_ref,vq,vd,omega,omega_ref,r
0.0,0.0,0.0,0.0,0.0,0.0,0.0,0.0,472.12334077776507,0.0
0.001,0.0,0.0,10.0,0.0,0.0,1.0999999999999999,6.115472199294103,472.12334077776507,0.0
0.002,0.5307369851907212,-0.2913212625381807,10.0,0.0,0.14204533887919985,1.9316189316290207,13.317801563642547,472.12334077776507,0.0
0.003,1.0842913387634832,-0.6024330830807904,10.0,0.0,0.384357124667687,2.6386968949419622,20.697939467553027,472.12334077776507,0.0
0.004,1.5590443546685477,-0.8700465084428163,10.0,0.0,0.6994718867930164,3.2526109522886295,28.232747544420146,472.12334077776507,0.0
0.005,1.9399447555359186,-1.0838738622210777,10.0,0.0,1.065311453102468,3.7994935661768023,35.92944872443006,472.12334077776507,0.0
0.006,2.239750732602683,-1.2510087368845633,10.0,0.0,1.4655018868449925,4.299102221838433,43.75633668444442,472.12334077776507,0.0
0.007,2.4770151619816017,-1.382020589851471,10.0,0.0,1.8883740978591532,4.765668027847139,51.58766747378032,472.12334077776507,0.0
0.008,2.6680767290418097,-1.4872241871505252,10.0,0.0,2.325877945545995,5.209220346273558,59.45942083902103,472.12334077776507,0.0
0.009000000000000001,2.8266491704841292,-1.5730794701170803,10.0,0.0,2.772378685460125,5.636635464737965,67.35059094018146,472.12334077776507,0.0
0.01,2.962077666392183,-1.645500646948331,10.0,0.0,3.224078639851053,6.052647735211881,75.20908322432116,472.12334077776507,0.0
0.011,3.0811061533574158,-1.7084279320504514,10.0,0.0,3.678407615443203,6.460489925470405,83.0265951655913,472.12334077776507,0.0
0.012,3.188848746459569,-1.7638278597420747,10.0,0.0,4.133552631697047,6.862319393890706,90.74118064793086,472.12334077776507,0.0
0.013000000000000001,3.288205119878689,-1.8140726097274587,10.0,0.0,4.588339016389012,7.259628641949282,98.35820682563939,472.12334077776507,0.0
0.014,3.3820602099432007,-1.8592355758795645,10.0,0.0,5.041843166194517,7.653355107498287,105.90865295623543,472.12334077776507,0.0
0.015,3.4721069852858886,-1.899829032412081,10.0,0.0,5.493383198131427,8.044092747085895,113.37727610343421,472.12334077776507,0.0
0.016,3.5596145800153947,-1.9360338400176071,10.0,0.0,5.94241958510469,8.43218525824161,120.68508583176356,472.12334077776507,0.0
0.017,3.645144415105338,-1.9685384477868613,10.0,0.0,6.388575043274759,8.817838951066484,127.83962377537456,472.12334077776507,0.0
0.018000000000000002,3.730251927866576,-1.9959253041084188,10.0,0.0,6.83136783302799,9.201036292373047,134.85405702603322,472.12334077776507,0.0
0.019,3.81544967906247,-2.018253592643655,10.0,0.0,7.270383321112213,9.581672501020332,141.68976328564074,472.12334077776507,0.0
0.02,3.9014648862453374,-2.0350875541282063,10.0,0.0,7.705189334130692,9.959536942333155,148.3432823300447,472.12334077776507,0.0
0.021,3.9891051824829464,-2.0457889559126508,10.0,0.0,8.135310004560049,10.334315260302239,154.92060212100432,472.12334077776507,0.0
0.022,4.079618141396171,-2.0489696811670974,10.0,0.0,8.560139305503519,10.705547790999272,161.01925282597162,472.12334077776507,0.0
0.023,4.171109372430197,-2.048468292080302,10.0,0.0,8.979521969370257,11.072981092896333,166.534238406907,472.12334077776507,0.0
0.024,4.266936196769627,-2.039517194249811,10.0,0.0,9.392730090169543,11.435983292623375,171.8647834235234,472.12334077776507,0.0
0.025,4.367255527950721,-2.0225841458509217,10.0,0.0,9.79914449451603,11.793929226271104,177.02637022703064,472.12334077776507,0.0
0.026000000000000002,4.4734353073349595,-1.9962166741499119,10.0,0.0,10.197980960389518,12.146045424568259,181.63161391243256,472.12334077776507,0.0
0.027,4.582366840795821,-1.966358349113627,10.0,0.0,10.589124658468391,12.491912978736195,185.74793639675826,472.12334077776507,0.0
0.028,4.700058850757774,-1.9240450691803936,10.0,0.0,10.971384864613876,12.830451341534015,189.43662766964098,472.12334077776507,0.0
0.029,4.820934284790598,-1.879137197786803,10.0,0.0,11.344756153370636,13.161242511022618,192.73598774770625,472.12334077776507,0.0
0.03,4.952016225740939,-1.821000614527957,10.0,0.0,11.707923484756042,13.483081433273819,195.59831968863915,472.12334077776507,0.0
0.031,5.086039273572549,-1.7621311371320891,10.0,0.0,12.061063698547066,13.79562148058647,197.80891551030922,472.12334077776507,0.0
0.032,5.230431844273564,-1.6911110488141978,10.0,0.0,12.40292038074925,14.097678592248165,200.4421589734679,472.12334077776507,0.0
0.033,5.380124186618445,-1.6166151787533525,10.0,0.0,12.733312761073865,14.38869342901298,201.91742172589852,472.12334077776507,0.0
0.034,5.537594793894332,-1.535029134414507,10.0,0.0,13.051537880865839,14.667821176756876,203.18880493813168,472.12334077776507,0.0
0.035,5.698947813469154,-1.4530296333491768,10.0,0.0,13.357649178779205,14.934684535625108,203.60405746232266,472.12334077776507,0.0
0.036000000000000004,5.870474243492053,-1.3603000477825025,10.0,0.0,13.65045542338638,15.188218311291084,204.28541056101804,472.12334077776507,0.0
0.037,6.041188711220851,-1.275010780747051,10.0,0.0,13.930879897581198,15.42861600670124,205.2233356988433,472.12334077776507,0.0
0.038,6.228175208801664,-1.168399557236846,10.0,0.0,14.196427351981786,15.654155009933262,200.35169734043586,472.12334077776507,0.0
0.039,6.404895489618571,-1.0845312562500289,10.0,0.0,14.449814560392067,15.86612549236809,209.64773540576442,472.12334077776507,0.0
0.04,6.534612624563911,-1.0851225869390002,10.0,0.0,14.699963825590459,16.069735965364643,218.170241886545,472.12334077776507,0.0
0.041,6.621487035821765,-1.1484636683301073,10.0,0.0,14.952420817214799,16.26974130369247,220.68166573712315,472.12334077776507,0.0
0.042,6.6704785161669795,-1.2647840534085386,10.0,0.0,15.211794475054209,16.47047148862455,233.10654395573727,472.12334077776507,0.0
0.043000000000000003,6.709376245503157,-1.3867642159960276,10.0,0.0,15.477558399636717,16.673277185423842,235.10815372853793,472.12334077776507,0.0
0.044,6.744196093263161,-1.5028656568708394,10.0,0.0,15.74857785831126,16.87893749904121,248.8181267625822,472.12334077776507,0.0
0.045,6.750563942850831,-1.6564343609015326,10.0,0.0,16.02879294551472,17.090781462187255,251.61117095327992,472.12334077776507,0.0
0.046,6.764566527560506,-1.7840489455190416,10.0,0.0,16.314672837580048,17.307985931916857,266.60539535969383,472.12334077776507,0.0
0.047,6.752169677737121,-1.9446655565152717,10.0,0.0,16.610076868775216,17.533561623207692,270.0627790167984,472.12334077776507,0.0
0.048,6.7291903821171735,-2.110358990489937,10.0,0.0,16.91511817760721,17.768523902508925,283.13731951482634,472.12334077776507,0.0
0.049,6.714097190323873,-2.246352557911731,10.0,0.0,17.22645394156277,18.011924542904307,294.70561782835244,472.12334077776507,0.0
0.05,6.666841209228205,-2.4219663531358275,10.0,0.0,17.548953774962747,18.267165921658286,300.1294548425776,472.12334077776507,0.0
0.051000000000000004,6.612335516543512,-2.59336894353628,10.0,0.0,17.88182590988993,18.53465621226123,310.75154600411304,472.12334077776507,0.0
0.052000000000000005,6.568447424188529,-2.726701034625408,10.0,0.0,18.22111236450049,18.81296732052879,322.35703405819294,472.12334077776507,0.0
0.053,6.5036136539679195,-2.8764091099274185,10.0,0.0,18.569435851849082,19.104068797231378,330.9557012510771,472.12334077776507,0.0
0.054,6.434362099984388,-3.0149932598739144,10.0,0.0,18.925784313874168,19.407861808234543,339.4707232587175,472.12334077776507,0.0
0.055,6.370891759459199,-3.1253006473392393,10.0,0.0,19.28762520191878,19.723199586257838,348.00092263299223,472.12334077776507,0.0
0.056,6.314459991163816,-3.2071523724558277,10.0,0.0,19.65271639484943,20.048760466390505,356.29964302226927,472.12334077776507,0.0
0.057,6.266092078485367,-3.262894600420583,10.0,0.0,20.01916768432525,20.383030530514645,362.98468703488817,472.12334077776507,0.0
0.058,6.234656406121481,-3.2830044001420036,10.0,0.0,20.38405550695561,20.723492962007192,368.0316803659419,472.12334077776507,0.0
0.059000000000000004,6.228510489334133,-3.2600491726267444,10.0,0.0,20.743774617448285,21.0667596267365,372.35801287012686,472.12334077776507,0.0
0.06,6.247959954981508,-3.201438289803519,10.0,0.0,21.095630838529225,21.40947063565305,373.88739853789605,472.12334077776507,0.0
0.061,6.298571070969623,-3.1064761741463998,10.0,0.0,21.436712814499675,21.747723437683817,371.47602194372377,472.12334077776507,0.0
0.062,6.38094735961424,-2.982369480030801,10.0,0.0,21.76480975788002,22.077703876517536,366.2922057853833,472.12334077776507,0.0
0.063,6.53566146196873,-2.7695519558602215,10.0,0.0,22.070926190088084,22.39130117743337,372.07145994459506,472.12334077776507,0.0
0.064,6.708566607552835,-2.560747003310555,10.0,0.0,22.35695033962817,22.686677966487718,365.1882535794375,472.12334077776507,0.0
0.065,6.897199383751794,-2.3667028673086685,10.0,0.0,22.62465294768497,22.962098937664592,356.7297130485294,472.12334077776507,0.0
0.066,7.167218997264825,-2.0824440278168583,10.0,0.0,22.863799361069702,23.20893224280502,357.7888817172531,472.12334077776507,0.0
0.067,7.423387055578651,-1.859201647307153,10.0,0.0,23.082000390168847,23.42951856849048,345.1266644280509,472.12334077776507,0.0
0.068,7.736929428236853,-1.5824320316278497,10.0,0.0,23.27222771500701,23.617938384108047,342.9584987314189,472.12334077776507,0.0
0.069,8.04132723792414,-1.3546495884062866,10.0,0.0,23.43998591632552,23.77619061530866,334.2677598047511,472.12334077776507,0.0
0.07,8.395997401416553,-1.0747195592463576,10.0,0.0,23.578279041856877,23.89942370363377,322.7417355360636,472.12334077776507,0.0
0.07100000000000001,8.726669482066718,-0.8579631993863083,10.0,0.0,23.694022264374595,23.99133556844291,337.9106389559309,472.12334077776507,0.0
0.07200000000000001,8.91385728821635,-0.8925675486457335,10.0,0.0,23.81335639313859,24.06834663115294,344.8606079910171,472.12334077776507,0.0
0.073,8.941721008651788,-1.1508071676799903,10.0,0.0,23.95651852989837,24.148396869281978,362.43451347602996,472.12334077776507,0.0
0.074,8.927907180207171,-1.4305443375681337,10.0,0.0,24.121558169292424,24.236556455607346,368.59250641149885,472.12334077776507,0.0
0.075,8.859340450140312,-1.7499202918046703,10.0,0.0,24.31124378664675,24.33980824926249,387.10067316750514,472.12334077776507,0.0
0.076,8.767176841935807,-2.0562826706616475,10.0,0.0,24.52279212376306,24.461155754889383,396.7190369145668,472.12334077776507,0.0
0.077,8.62162972262067,-2.4016532593838043,10.0,0.0,24.76024751870129,24.606611890707832,408.83095327273656,472.12334077776507,0.0
0.078,8.47560200325128,-2.694417929744825,10.0,0.0,25.017253395580042,24.77587553037574,428.2762610097064,472.12334077776507,0.0
0.079,8.289593068490031,-3.001970310780605,10.0,0.0,25.296388163948027,24.972914099394785,438.0404594767293,472.12334077776507,0.0
0.08,8.078425759776728,-3.30171273584331,10.0,0.0,25.597209455327665,25.19953060295957,447.87571303424875,472.12334077776507,0.0
0.081,7.882675762310951,-3.525181384717318,10.0,0.0,25.912194395051316,25.45298841193994,460.26934286159303,472.12334077776507,0.0
0.082,7.687097883672571,-3.703693402600396,10.0,0.0,26.238428257179056,25.732155000670204,470.03446400235384,472.12334077776507,0.0
0.083,7.512516260295773,-3.813976142857688,7.687643653219386,0.0,26.570301373216516,25.778917318379413,475.3858130540719,472.12334077776507,0.0
0.084,7.245408561654465,-3.7995863093419335,4.979344404597294,0.0,26.870977700331828,25.607037392657592,471.16761149614024,472.12334077776507,0.0
0.085,6.900179986318092,-3.6047555383605165,7.098002476379367,0.0,27.103110915690653,25.777852538902334,465.6021748612354,472.12334077776507,0.0
0.08600000000000001,6.755916043756107,-3.372808168620197,9.94593245299707,0.0,27.30554642117644,26.259301956697065,466.59993328468335,472.12334077776507,0.0
0.08700000000000001,6.885309133892616,-3.1599950920571604,9.502287316203926,0.0,27.514793353168585,26.619893839106837,467.9914369034924,472.12334077776507,0.0
0.088,7.0754610213657,-2.933091250987115,8.847854545542127,0.0,27.716343488450416,26.878177296349303,451.6771252243844,472.12334077776507,0.0
0.089,7.302657770702861,-2.6350006180340224,10.0,0.0,27.893046024714188,27.24097762554034,441.9709482834807,472.12334077776507,0.0
0.09,7.678612125359461,-2.272282926634139,10.0,0.0,28.05144030054621,27.53456370937521,438.84309314752346,472.12334077776507,0.0
0.091,8.057873894641656,-1.9735046383554504,10.0,0.0,28.194115322381872,27.77667136133532,419.75962654150527,472.12334077776507,0.0
0.092,8.517620388494382,-1.5960293270231425,10.0,0.0,28.308199105866215,27.962056253652015,413.4796328345226,472.12334077776507,0.0
0.093,8.965318451563789,-1.2772581872717539,10.0,0.0,28.39812292797445,28.095661713086358,399.21530302205025,472.12334077776507,0.0
0.094,9.468498761971714,-0.9029237207961875,10.0,0.0,28.45442583390051,28.17402615527392,394.48787494735564,472.12334077776507,0.0
0.095,9.920541091614002,-0.6393858776466539,10.0,0.0,28.487689075371016,28.205491590678754,406.01006378492514,472.12334077776507,0.0
0.096,10.04860349896969,-0.8911668414728262,10.0,0.0,28.55110382068734,28.227570365177456,426.51652891207715,472.12334077776507,0.0
0.097,10.048430266740063,-1.272752521617028,10.0,0.0,28.64984158409949,28.25508241637673,435.5263857117364,472.12334077776507,0.0
0.098,9.962009862868696,-1.7042818476487458,10.0,0.0,28.785109145352404,28.299221550900853,458.8611205581841,472.12334077776507,0.0
0.099,9.808101361990081,-2.1538336937376963,10.0,0.0,28.95639927374191,28.368539259155774,468.9437214724929,472.12334077776507,0.0
0.1,9.593375038764268,-2.6117405211219666,8.952728098708311,0.0,29.16336639266933,28.354935110828137,483.83629239754043,472.12334077776507,0.0
0.101,9.292919781745555,-2.9995358830893686,1.3893131199867828,0.0,29.386354806413834,27.572787975619356,496.50734124388225,472.12334077776507,0.0
0.10200000000000001,8.547139263733097,-3.17155216229458,-5.190051307845299,0.0,29.52387350235589,26.322089762442758,497.679583946191,472.12334077776507,0.0
0.10300000000000001,7.457766860797915,-3.070797414034682,-6.031735090683918,0.0,29.509767322285455,25.295794827486862,497.0760037209307,472.12334077776507,0.0
0.10400000000000001,6.406878645124014,-2.8793574618898647,-5.979471607485446,0.0,29.374391419473127,24.489588568694494,493.6503521807863,472.12334077776507,0.0
0.105,5.535769965258809,-2.655374481320474,-4.481915951443444,0.0,29.149208752721627,23.99998690546121,487.2648160933971,472.12334077776507,0.0
0.106,4.9346738137135455,-2.454288275234201,-1.4405626609051652,0.0,28.87770453345814,23.91380993714621,479.54512209830807,472.12334077776507,0.0
0.107,4.679376551358656,-2.302559886860046,2.3450665234339123,0.0,28.610053778629208,24.217177658451867,471.734400706001,472.12334077776507,0.0
0.108,4.769405178081233,-2.222099659481377,6.254316620305089,0.0,28.39217153028582,24.843148629393472,464.2242389562856,472.12334077776507,0.0
0.109,5.173532352472428,-2.184453501404633,10.0,0.0,28.255338128756282,25.714113246288502,464.634958255761,472.12334077776507,0.0
0.11,5.821487600475972,-2.1855506669881,9.956144918592383,0.0,28.219781678864145,26.374783363052813,459.8898985030601,472.12334077776507,0.0
0.111,6.4475678977403135,-2.1548262116643624,10.0,0.0,28.250457223896213,26.90870415270135,442.0524662933879,472.12334077776507,0.0
0.112,7.079378226529193,-1.9807693502660926,10.0,0.0,28.312618283189348,27.328623533880013,439.835560389116,472.12334077776507,0.0
0.113,7.674935314816214,-1.7416252828836796,10.0,0.0,28.385989895872967,27.653573906446457,421.759925018654,472.12334077776507,0.0
0.114,8.230682089371154,-1.483373948907289,10.0,0.0,28.45850317848128,27.898189828706453,416.2298325385161,472.12334077776507,0.0
0.115,8.792459599274663,-1.1668128971114387,10.0,0.0,28.515987522696978,28.06935742865743,397.30336015722236,472.12334077776507,0.0
0.116,9.328010482979032,-0.8649254126064183,10.0,0.0,28.554798179708612,28.17586388092644,393.99735597766966,472.12334077776507,0.0
0.117,9.835937355967616,-0.596656647369902,10.0,0.0,28.573887726915025,28.225084306478006,406.5903378031018,472.12334077776507,0.0
0.11800000000000001,10.009560553484267,-0.8368146707544764,10.0,0.0,28.625090432180617,28.25727236119812,422.39827239038414,472.12334077776507,0.0
0.11900000000000001,10.021797112119833,-1.2432380767008189,10.0,0.0,28.716696666811906,28.291752091498022,437.92402223581615,472.12334077776507,0.0
0.12,9.965773129067115,-1.655704948373331,10.0,0.0,28.84389737283458,28.338229475953227,454.70972562685415,472.12334077776507,0.0
0.121,9.806174882779445,-2.1380813234146823,10.0,0.0,29.011962479238328,28.409774759826302,468.71123697389817,472.12334077776507,0.0
0.122,9.615115172646378,-2.572353080611001,8.615800017307672,0.0,29.21332173293018,28.358130613508035,490.85621281338064,472.12334077776507,0.0
0.123,9.288278023682489,-2.9776579998872963,-2.644016622789719,0.0,29.42962147016946,27.141090465891697,492.14678511474244,472.12334077776507,0.0
0.124,8.336954215610417,-3.038404364712047,-3.489537216840395,0.0,29.505216269861137,26.188352455214602,495.3314897523264,472.12334077776507,0.0
0.125,7.336772986113187,-2.977179389192705,-5.313971025377976,0.0,29.470635577560564,25.246721909739744,495.96077674056295,472.12334077776507,0.0
0.126,6.3610389415215165,-2.834162106154605,-5.866988879124241,0.0,29.330230248563556,24.4505376563657,492.7906503212659,472.12334077776507,0.0
0.127,5.5224146483618295,-2.636056144913229,-4.488598764910725,0.0,29.103885544222678,23.959575718331962,486.67000830066866,472.12334077776507,0.0
0.128,4.932369968205541,-2.4466235573766726,-1.5737444298411383,0.0,28.832222591495913,23.858444251268626,479.121360357776,472.12334077776507,0.0
0.129,4.670258972994187,-2.302183182401206,2.1305993458050887,0.0,28.563618671963553,24.14152067028102,471.3533709253931,472.12334077776507,0.0
0.13,4.74640973500729,-2.222488230261182,6.022293760520247,0.0,28.342860745300015,24.749474309527592,463.6257617818679,472.12334077776507,0.0
0.131,5.133539102552905,-2.1867045915799466,9.971074122241834,0.0,28.201834724493956,25.628182965015494,463.73174924214516,472.12334077776507,0.0
0.132,5.778554312502817,-2.1911374214291404,10.0,0.0,28.163627618987515,26.30153181639114,460.6361382174444,472.12334077776507,0.0
0.133,6.407906629297944,-2.1652035240033576,10.0,0.0,28.193679052153957,26.840657210553026,442.66501922511276,472.12334077776507,0.0
0.134,7.035218075974843,-2.0031700194400326,10.0,0.0,28.257073534892236,27.26616447264887,439.4276334241414,472.12334077776507,0.0
0.135,7.634277485702734,-1.7601940147763222,10.0,0.0,28.331572270098892,27.595837036205648,422.5081136121133,472.12334077776507,0.0
0.136,8.181850527027883,-1.5144353811933793,10.0,0.0,28.40698469849308,27.84574977647894,415.76320726989076,472.12334077776507,0.0
0.137,8.748266777042934,-1.1886960691529307,10.0,0.0,28.466473420086555,28.021382428475906,397.47506629452295,472.12334077776507,0.0
0.138,9.275537964748974,-0.897767254549813,10.0,0.0,28.508831758234436,28.133065019285013,392.1727093875365,472.12334077776507,0.0
0.139,9.794974367862666,-0.6079886724772244,10.0,0.0,28.52915616576649,28.185949892362558,409.18704298129245,472.12334077776507,0.0
0.14,10.002347848295246,-0.7971865631572361,10.0,0.0,28.576446173648613,28.217962000069097,418.6922874266451,472.12334077776507,0.0
0.14100000000000001,10.022540932149829,-1.195334358827255,10.0,0.0,28.66411267013009,28.251354393373525,439.67841539106644,472.12334077776507,0.0
0.14200000000000002,9.961897068123102,-1.623830854783957,10.0,0.0,28.789504892892392,28.29704695287714,449.87050500558337,472.12334077776507,0.0
0.14300000000000002,9.81554219755649,-2.092149545876894,10.0,0.0,28.954157240389485,28.366202075828678,467.15230350147965,472.12334077776507,0.0
0.14400000000000002,9.63204475731534,-2.521219089079235,9.084974202022249,0.0,29.151774328273355,28.36297525317809,488.0999647302584,472.12334077776507,0.0
0.145,9.325269993727973,-2.955861024129113,-1.548622651892071,0.0,29.37282694252724,27.251197675222343,490.7685269541917,472.12334077776507,0.0
0.146,8.438973229964207,-3.0442048692154016,-3.0693556256229835,0.0,29.46596794116915,26.306183354294433,494.92935963617816,472.12334077776507,0.0
