timestamp,iq,id,iq_ref,id_ref,vq,vd,omega,omega_ref,r
0.0,0.0,0.0,0.0,0.0,0.0,0.0,0.0,170.48274775289207,0.0
0.001,0.0,0.0,10.0,0.0,0.0,1.0999999999999999,6.115472199294103,170.48274775289207,0.0
0.002,0.5307369851907212,-0.2913212625381807,10.0,0.0,0.14204533887919985,1.9316189316290207,13.317801563642547,170.48274775289207,0.0
0.003,1.0842913387634832,-0.6024330830807904,10.0,0.0,0.384357124667687,2.6386968949419622,20.697939467553027,170.48274775289207,0.0
0.004,1.5590443546685477,-0.8700465084428163,10.0,0.0,0.6994718867930164,3.2526109522886295,28.232747544420146,170.48274775289207,0.0
0.005,1.9399447555359186,-1.0838738622210777,10.0,0.0,1.065311453102468,3.7994935661768023,35.92944872443006,170.48274775289207,0.0
0.006,2.239750732602683,-1.2510087368845633,10.0,0.0,1.4655018868449925,4.299102221838433,43.75633668444442,170.48274775289207,0.0
0.007,2.4770151619816017,-1.382020589851471,10.0,0.0,1.8883740978591532,4.765668027847139,51.58766747378032,170.48274775289207,0.0
0.008,2.6680767290418097,-1.4872241871505252,10.0,0.0,2.325877945545995,5.209220346273558,59.45942083902103,170.48274775289207,0.0
0.009000000000000001,2.8266491704841292,-1.5730794701170803,10.0,0.0,2.772378685460125,5.636635464737965,67.35059094018146,170.48274775289207,0.0
0.01,2.962077666392183,-1.645500646948331,10.0,0.0,3.224078639851053,6.052647735211881,75.20908322432116,170.48274775289207,0.0
0.011,3.0811061533574158,-1.7084279320504514,10.0,0.0,3.678407615443203,6.460489925470405,83.0265951655913,170.48274775289207,0.0
0.012,3.188848746459569,-1.7638278597420747,10.0,0.0,4.133552631697047,6.862319393890706,90.74118064793086,170.48274775289207,0.0
0.013000000000000001,3.288205119878689,-1.8140726097274587,10.0,0.0,4.588339016389012,7.259628641949282,98.35820682563939,170.48274775289207,0.0
0.014,3.3820602099432007,-1.8592355758795645,10.0,0.0,5.041843166194517,7.653355107498287,105.90865295623543,170.48274775289207,0.0
0.015,3.4721069852858886,-1.899829032412081,10.0,0.0,5.493383198131427,8.044092747085895,113.37727610343421,170.48274775289207,0.0
0.016,3.5596145800153947,-1.9360338400176071,10.0,0.0,5.94241958510469,8.43218525824161,120.68508583176356,170.48274775289207,0.0
0.017,3.645144415105338,-1.9685384477868613,10.0,0.0,6.388575043274759,8.817838951066484,127.83962377537456,170.48274775289207,0.0
0.018000000000000002,3.730251927866576,-1.9959253041084188,10.0,0.0,6.83136783302799,9.201036292373047,134.85405702603322,170.48274775289207,0.0
0.019,3.81544967906247,-2.018253592643655,10.0,0.0,7.270383321112213,9.581672501020332,141.68976328564074,170.48274775289207,0.0
0.02,3.9014648862453374,-2.0350875541282063,10.0,0.0,7.705189334130692,9.959536942333155,148.3432823300447,170.48274775289207,0.0
0.021,3.9891051824829464,-2.0457889559126508,10.0,0.0,8.135310004560049,10.334315260302239,154.92060212100432,170.48274775289207,0.0
0.022,4.079618141396171,-2.0489696811670974,10.0,0.0,8.560139305503519,10.705547790999272,161.01925282597162,170.48274775289207,0.0
0.023,4.171109372430197,-2.048468292080302,8.105618187856049,0.0,8.979521969370257,10.864599093560502,165.21838451464583,170.48274775289207,0.0
0.024,4.168518194950464,-1.9857336616302683,6.058695975901405,0.0,9.365975701647807,10.844665848891822,168.0135783631246,170.48274775289207,0.0
0.025,4.060573483613415,-1.853760247567737,4.6857907455597,0.0,9.697901006988356,10.746668955172003,170.13847791354792,170.48274775289207,0.0
0.026000000000000002,3.8950590016795985,-1.6840756394014291,3.62678366874148,0.0,9.969488519665205,10.606029701110984,167.45817803950865,170.48274775289207,0.0
0.027,3.7028110603110713,-1.5077368462426586,4.9971793028949465,0.0,10.182152934502458,10.687438842980011,168.80047859813678,170.48274775289207,0.0
0.028,3.6420998740392236,-1.367544340365348,4.342851715128437,0.0,10.368034034327977,10.701049272226232,172.160422711988,170.48274775289207,0.0
0.029,3.5865789857927193,-1.2618651009407458,2.646102908611871,0.0,10.526465275817632,10.557287861535617,165.53743053311786,170.48274775289207,0.0
0.03,3.4793084723309895,-1.1165359228779228,6.00705217024468,0.0,10.63974783489659,10.841662170506137,169.99381026680024,170.48274775289207,0.0
0.031,3.5769704895433896,-1.0636501091082482,3.783751678264407,0.0,10.765775421230671,10.818939230725352,166.9783433646738,170.48274775289207,0.0
0.032,3.584493711256742,-0.9947965749457144,5.326529173209806,0.0,10.869882924333087,11.003178938703513,168.6674992409694,170.48274775289207,0.0
0.033,3.693021182563076,-0.9320158102093528,4.50010372018124,0.0,10.975786299143703,11.061208061784939,166.5455008456089,170.48274775289207,0.0
0.034,3.7494421963517097,-0.8900207062505832,5.600475386934317,0.0,11.072910594993296,11.248208711108717,167.94957246803187,170.48274775289207,0.0
0.035,3.884903111028669,-0.8378924492912092,4.923771328571432,0.0,11.173708368964366,11.326444071521053,164.7288265313745,170.48274775289207,0.0
0.036000000000000004,3.9693795470337205,-0.8024213481259075,6.591683509115297,0.0,11.26886936302097,11.58923525491893,167.89214025813732,170.48274775289207,0.0
0.037,4.152537027749396,-0.7794559191529451,5.0359327206814335,0.0,11.378621889836333,11.628149152330845,163.19359447827298,170.48274775289207,0.0
0.038,4.250162628859126,-0.7236403412321999,7.45809714335979,0.0,11.475380494429794,11.947235265747146,166.59272265031302,170.48274775289207,0.0
0.039,4.454789655195892,-0.732297897922767,5.797433308365562,0.0,11.595882336920713,12.015661245319063,165.2557655780033,170.48274775289207,0.0
0.04,4.592384064814846,-0.6675651730635652,6.5181816662693155,0.0,11.703969417818312,12.172094654107525,161.83572228438453,170.48274775289207,0.0
0.041,4.727900015207612,-0.6433380003734057,8.314673567763771,0.0,11.814873469757675,12.500569245245236,167.2850371460464,170.48274775289207,0.0
0.042,4.949248683573646,-0.674949328434679,5.621993243001297,0.0,11.951254093430506,12.470133833707953,171.03123200891295,170.48274775289207,0.0
0.043000000000000003,4.987973079811605,-0.6896773190575929,3.743410969007808,0.0,12.072257079270242,12.274616581897519,169.88424379199623,170.48274775289207,0.0
0.044,4.8671253083524455,-0.6856008571547325,4.322890117075129,0.0,12.161012350629415,12.206960381702325,175.31277933692044,170.48274775289207,0.0
0.045,4.758153151366621,-0.7105738944802926,1.5603220287727373,0.0,12.23691427355799,11.856046507022482,174.8526192937204,170.48274775289207,0.0
0.046,4.529880049125783,-0.6557906757300613,1.7467033349644705,0.0,12.263858732289941,11.619962156344224,175.6118125524527,170.48274775289207,0.0
0.047,4.303735726145352,-0.6447509342298485,1.3158160576027162,0.0,12.263833770703352,11.383512417540722,177.48880989298854,170.48274775289207,0.0
0.048,4.103203682010496,-0.6191968505000529,0.30725676593383255,0.0,12.237465779599795,11.083869588773975,177.14061482999122,170.48274775289207,0.0
0.049,3.867585716239128,-0.6085694523889824,0.41477562666150103,0.0,12.182856831775004,10.857379567163784,177.73720691326562,170.48274775289207,0.0
0.05,3.6743774405255722,-0.6008974891598606,0.04393499342056506,0.0,12.110322134597574,10.625106725339133,178.09705542394948,170.48274775289207,0.0
0.051000000000000004,3.4875382537155537,-0.6107164657770299,-0.2121323386319398,0.0,12.022970430015608,10.402968925577808,177.91399615795524,170.48274775289207,0.0
0.052000000000000005,3.317022695893411,-0.6184534709214626,-0.19491518968544863,0.0,11.922892996715415,10.21565261453138,178.24370193530027,170.48274775289207,0.0
0.053,3.1674144466998952,-0.6413985852195989,-0.4373776201820436,0.0,11.816538268161956,10.024968904248563,177.98000728401198,170.48274775289207,0.0
0.054,3.027126846983206,-0.6629094259049038,-0.3805028898490974,0.0,11.703887382767958,9.865334490257169,177.99445739775376,170.48274775289207,0.0
0.055,2.905010196165056,-0.6922283381660423,-0.4628450431686084,0.0,11.589548116456095,9.712802000549871,177.7559815888194,170.48274775289207,0.0
0.056,2.793303294782767,-0.7228212142702048,-0.4163394770606974,0.0,11.474461555053534,9.581094459631046,177.60760231708244,170.48274775289207,0.0
0.057,2.695425901854531,-0.7561159073167896,-0.4133983868341229,0.0,11.36106938317343,9.460556925135979,177.3983348888295,170.48274775289207,0.0
0.058,2.607199892335698,-0.7901648880963654,-0.3779205440670328,0.0,11.250375115987115,9.35333316582231,177.14817593694906,170.48274775289207,0.0
0.059000000000000004,2.5283031794441433,-0.8241132929810498,-0.31949534996737716,0.0,11.143421734317588,9.25963072696755,176.88404576240842,170.48274775289207,0.0
0.06,2.4584566023317853,-0.8577474393582035,-0.25144324279222063,0.0,11.041153718982176,9.178398830033027,176.6020300487227,170.48274775289207,0.0
0.061,2.397007182486405,-0.8904429252228714,-0.1716282089076655,0.0,10.944249477468192,9.109223424325833,176.31939416743057,170.48274775289207,0.0
0.062,2.343486674793289,-0.921732329305965,-0.08867673240698926,0.0,10.853232999125385,9.050874408761981,176.05766966024478,170.48274775289207,0.0
0.063,2.297178990546318,-0.9509550611104167,-0.013563697887621462,0.0,10.768384873518128,9.001250206142588,175.89779738246511,170.48274775289207,0.0
0.064,2.257460183612423,-0.9762441842218945,0.012221944706482635,0.0,10.689548716433878,8.95409489348483,175.74971269629694,170.48274775289207,0.0
0.065,2.21982823240577,-0.9978798737953645,0.03359463835652132,0.0,10.616007678414242,8.909606962823375,175.44237054889302,170.48274775289207,0.0
0.066,2.1839284168200677,-1.014701025857275,0.13766948409846913,0.0,10.547005920961505,8.87702088772358,174.92055321683225,170.48274775289207,0.0
0.067,2.153470064567157,-1.0304976563597914,0.35420009548945597,0.0,10.483215149578719,8.866562283776041,174.37523359207486,170.48274775289207,0.0
0.068,2.135933521957889,-1.0470301114477718,0.5879350494763198,0.0,10.426418198694108,8.875940438074112,173.7227948996758,170.48274775289207,0.0
0.069,2.1320361723687786,-1.0649833094451515,0.8817539242080192,0.0,10.378048285556595,8.908937151563242,173.0887315313588,170.48274775289207,0.0
0.07,2.145401274473164,-1.0821454639915393,1.1727257705818452,0.0,10.339523340101877,8.961356782016141,172.74161118070165,170.48274775289207,0.0
0.07100000000000001,2.172623417725017,-1.1005282972766868,1.323697311632324,0.0,10.311943342353823,9.015518321193433,173.5926462433447,170.48274775289207,0.0
0.07200000000000001,2.2058380683203,-1.1126577126856887,0.86708079540628,0.0,10.293687905660443,9.006386784349855,174.78770985343823,170.48274775289207,0.0
0.073,2.2023332233693207,-1.115348858304654,0.22649936935404824,0.0,10.27651959081604,8.931162745268377,172.16748156728835,170.48274775289207,0.0
0.074,2.1605008833621935,-1.0865992113650822,1.5197661742850261,0.0,10.250356330928385,9.014975950364805,170.32665429956697,170.48274775289207,0.0
0.075,2.1889278458733403,-1.079717441237831,2.441740742678967,0.0,10.234721219294538,9.172730754160554,171.7145438623406,170.48274775289207,0.0
0.076,2.277815389899807,-1.0949009556236502,1.7354780001976633,0.0,10.238164103487364,9.21674455883866,173.473150358612,170.48274775289207,0.0
0.077,2.322250538631863,-1.0988659099199625,0.8262707260047648,0.0,10.245948389557451,9.15975210781157,170.47895190905336,170.48274775289207,0.0
0.078,2.305490623906885,-1.0667351779773424,2.323407909222471,0.0,10.243680971861169,9.28530243549714,168.01557641705764,170.48274775289207,0.0
0.079,2.367884180759651,-1.0517204891782839,3.579767368578675,0.0,10.252865020254607,9.514268266940483,171.10075650821602,170.48274775289207,0.0
0.08,2.5016355191012587,-1.0749229914897849,2.0309972354462467,0.0,10.286729669095289,9.524238899191655,172.0121077818803,170.48274775289207,0.0
0.081,2.5436989238330665,-1.065535073758885,1.560027998324224,0.0,10.3169402203035,9.496990557212595,167.6070549060333,170.48274775289207,0.0
0.082,2.549739551776513,-1.0145376977266976,3.7913113647163073,0.0,10.335889050006761,9.725395132200152,168.62952433648158,170.48274775289207,0.0
0.083,2.6736665570910185,-1.0066951706910148,3.2986088836562777,0.0,10.375430750024844,9.842772461773592,171.1677023808707,170.48274775289207,0.0
0.084,2.7683618099682565,-1.008325870858957,2.022670315181928,0.0,10.423013815287291,9.807762802906568,166.1681169648088,170.48274775289207,0.0
0.085,2.7880267867691466,-0.9597506675515926,4.565609331093713,0.0,10.456978028771303,10.072278898968207,167.81553325462772,170.48274775289207,0.0
0.08600000000000001,2.939341632773689,-0.952218869554843,3.768573331166896,0.0,10.513654684766513,10.184188473328526,169.09035751236152,170.48274775289207,0.0
0.08700000000000001,3.039961824045619,-0.952984162866122,3.1450851047053026,0.0,10.576014132842435,10.220406338360956,164.3467536687028,170.48274775289207,0.0
0.088,3.1073028859374823,-0.9028668805845779,5.578246967376554,0.0,10.630238868629933,10.526719733960805,168.62855595868172,170.48274775289207,0.0
0.089,3.289146496038102,-0.9129972509163023,3.455887740329201,0.0,10.711287983957968,10.530703743485349,164.35949226708902,170.48274775289207,0.0
0.09,3.355741077526013,-0.877705504094187,5.651652140983577,0.0,10.780647192851902,10.799644972070032,167.51836098474809,170.48274775289207,0.0
0.091,3.5297550938223488,-0.8648518227031918,4.101861649835487,0.0,10.868903616230124,10.837717804675087,163.6113841483356,170.48274775289207,0.0
0.092,3.6087999417095804,-0.833715196404733,6.1240637040873,0.0,10.948845188452108,11.111794334132009,166.86565343522074,170.48274775289207,0.0
0.093,3.792705134409819,-0.8199025255140101,4.53310000382144,0.0,11.046992228862592,11.15179021757552,162.44490331018835,170.48274775289207,0.0
0.094,3.8831207920232473,-0.7790079124295934,6.823853510764669,0.0,11.134963872846,11.457387069071665,166.49634998552523,170.48274775289207,0.0
0.095,4.081773020373219,-0.7799146979489452,4.837994150769899,0.0,11.245206730118653,11.478921746605321,162.07375930612915,170.48274775289207,0.0
0.096,4.181652995474044,-0.7188387733217212,7.1333793749355685,0.0,11.33985134985322,11.772677935393457,164.47922046971024,170.48274775289207,0.0
0.097,4.370131141943793,-0.7269179523604328,5.990684065976839,0.0,11.455906595433673,11.87813883468845,164.38885674364374,170.48274775289207,0.0
0.098,4.519672525922189,-0.6723895566579967,6.096804839102573,0.0,11.564823491067928,11.993194635972483,159.8478327856033,170.48274775289207,0.0
0.099,4.640455915241094,-0.6377776090194269,8.473665967795688,0.0,11.671092246983942,12.356239304131233,164.58645070032273,170.48274775289207,0.0
0.1,4.883622178318792,-0.6569459332025228,6.163319980961661,0.0,11.805493229260756,12.390159256181672,169.07458984784463,170.48274775289207,0.0
0.101,4.961923497787077,-0.6835453834120746,3.933331986251182,0.0,11.932580364796147,12.205750609194205,167.8263474361537,170.48274775289207,0.0
0.10200000000000001,4.859880687428713,-0.6844071143856323,4.584017195264035,0.0,12.02834671798425,12.15837451573164,173.23001990250728,170.48274775289207,0.0
0.10300000000000001,4.767170932979021,-0.7125525721048198,1.8547082405910906,0.0,12.112886209546666,11.82775947471588,173.0932499895507,170.48274775289207,0.0
0.10400000000000001,4.553404076556357,-0.6610074859251265,1.8969881747027877,0.0,12.149958833794303,11.593191025918939,173.67096131657757,170.48274775289207,0.0
0.105,4.331538202929733,-0.6485384306516799,1.576250375552502,0.0,12.159011205519201,11.372350304713517,175.87137353950277,170.48274775289207,0.0
0.106,4.138977516131539,-0.6232417791477126,0.4221580062237975,0.0,12.142416326838362,11.069719126978008,175.45558895055808,170.48274775289207,0.0
0.107,3.902340862178707,-0.610832470088069,0.5803218887194821,0.0,12.096105760770538,10.848734954982604,176.21706848330479,170.48274775289207,0.0
0.108,3.7107196908341296,-0.6007594644251724,0.14223891504200203,0.0,12.031343896577631,10.614159339958858,176.57803286587313,170.48274775289207,0.0
0.109,3.521430370153357,-0.6085131528550464,-0.0991961273719788,0.0,11.95055429308556,10.39329368865087,176.4623419363665,170.48274775289207,0.0
0.11,3.350054954372251,-0.613753201487976,-0.10114660445340995,0.0,11.856255953277216,10.205593842598772,176.8246112533884,170.48274775289207,0.0
0.111,3.19865095783582,-0.6354513658242429,-0.34569989796932976,0.0,11.754951860435154,10.015293475116305,176.57036546788223,170.48274775289207,0.0
0.112,3.0575372960468097,-0.6552301555867769,-0.27945318236613836,0.0,11.646706825359573,9.857633869580816,176.7107343029967,170.48274775289207,0.0
0.113,2.9352080766206283,-0.6844039717575328,-0.4119174654244282,0.0,11.53653166511916,9.701727260317865,176.47477261191986,170.48274775289207,0.0
0.114,2.8213249922318946,-0.7135115763703492,-0.35385686847627973,0.0,11.424693458322196,9.569408951540545,176.3896586636079,170.48274775289207,0.0
0.115,2.721844333133263,-0.7462107220629645,-0.3703690034274527,0.0,11.314113071307249,9.446545753804113,176.20503992690942,170.48274775289207,0.0
0.116,2.6315427715988347,-0.7795570728740768,-0.3352825568183926,0.0,11.205645510352454,9.33787383279414,175.99470900048357,170.48274775289207,0.0
0.117,2.5508967356669596,-0.8132101565134376,-0.2852367060813803,0.0,11.10052588908436,9.242344575241823,175.76766617338376,170.48274775289207,0.0
0.11800000000000001,2.479270133940307,-0.8467610507894164,-0.22456447673639346,0.0,10.99971937172181,9.159102233869126,175.5206688252514,170.48274775289207,0.0
0.11900000000000001,2.415969615248832,-0.8795471104941468,-0.15144501339380279,0.0,10.903940229583002,9.087786684610467,175.2690898459829,170.48274775289207,0.0
0.12,2.3605145821693263,-0.9111103284415244,-0.0735189446904676,0.0,10.813751540109374,9.027332497439572,175.0291830924452,170.48274775289207,0.0
0.121,2.3122400240273224,-0.9408445297150735,0.0009700786828488184,0.0,10.729491430826634,8.97607504298726,174.83325826582458,170.48274775289207,0.0
0.122,2.270229091862306,-0.9678953495780861,0.05542738686383686,0.0,10.651209835199138,8.930901193674806,174.7152772369573,170.48274775289207,0.0
0.123,2.2332270124909757,-0.9903365567330653,0.07209260645683013,0.0,10.57843703879156,8.887355290213465,174.60971399569306,170.48274775289207,0.0
0.124,2.197562061675124,-1.0087570977162397,0.0836045646609378,0.0,10.510388779115207,8.845539484460058,174.1776761398927,170.48274775289207,0.0
0.125,2.1623809117912174,-1.02346103702815,0.2626742086911116,0.0,10.446396992745626,8.824196251554703,173.64574559850166,170.48274775289207,0.0
0.126,2.137561650177744,-1.038057601658456,0.49700950093053287,0.0,10.388128644438678,8.824952656287602,173.08837050813926,170.48274775289207,0.0
0.127,2.1263121273569574,-1.0554896228055015,0.7496408185592602,0.0,10.337534328115595,8.84624193262744,172.3497122686415,170.48274775289207,0.0
0.128,2.1312035167124055,-1.071631199516541,1.100300293150649,0.0,10.295729624285546,8.895738530672434,172.05799113412144,170.48274775289207,0.0
0.129,2.1544818189885446,-1.090414348340119,1.2304084265983852,0.0,10.264959781246482,8.944398599106448,172.3253852548327,170.48274775289207,0.0
0.13,2.182767594626773,-1.1050696256349164,1.0782849912233494,0.0,10.243557178368919,8.964202364869974,173.77575449343803,170.48274775289207,0.0
0.131,2.196269408971326,-1.1097843080355942,0.3201703045152231,0.0,10.226647274646588,8.896811770763735,172.14213592661622,170.48274775289207,0.0
0.132,2.159021757320017,-1.0925450001976729,1.1203857061888862,0.0,10.202745831199694,8.934306346572154,169.88803765111894,170.48274775289207,0.0
0.133,2.1649640638323806,-1.0799460038267261,2.25338194495526,0.0,10.183770493155903,9.081262622469735,170.20553749830637,170.48274775289207,0.0
0.134,2.242354957046542,-1.0890143164599415,2.0974041239073995,0.0,10.182511820859613,9.17468463908182,172.4994051174165,170.48274775289207,0.0
0.135,2.309866907565562,-1.0996556780092184,0.9303037407070895,0.0,10.191801084098246,9.125164917236557,171.0211708286592,170.48274775289207,0.0
0.136,2.2988518898708303,-1.0806719770922681,1.6640366543280716,0.0,10.193014828112133,9.175794489681605,167.61574006220712,170.48274775289207,0.0
0.137,2.3226093782272663,-1.0570636468099148,3.395422114460956,0.0,10.196763075647247,9.401874076865788,169.25193802046107,170.48274775289207,0.0
