timestamp,iq,id,iq_ref,id_ref,vq,vd,omega,omega_ref,r
0.0,0.0,0.0,0.0,0.0,0.0,0.0,0.0,24.425780827150355,0.0
0.001,0.0,0.0,10.0,0.0,0.0,1.0999999999999999,6.115472199294103,24.425780827150355,0.0
0.002,0.5307369851907212,-0.2913212625381807,9.533372244041258,0.0,0.14204533887919985,1.880289878473559,13.030728450518614,24.425780827150355,0.0
0.003,1.0595482618258532,-0.588847907152854,6.18969464219532,0.0,0.3777298500000679,2.1807551737662583,17.994705034397963,24.425780827150355,0.0
0.004,1.331302912524642,-0.7446878887419104,3.7720171081831695,0.0,0.6340595710667687,2.2176297391083835,21.29737033423554,24.425780827150355,0.0
0.005,1.3776737794323515,-0.7714645245299598,2.151968563193529,0.0,0.8698308066818065,2.120038006561366,23.416055971584527,24.425780827150355,0.0
0.006,1.2827268883504066,-0.7168659234437901,1.1027229930746945,0.0,1.0659921330032798,1.96747391025547,24.707881334977035,24.425780827150355,0.0
0.007,1.1206457383357393,-0.6232468098695181,0.4539893063001734,0.0,1.2175288005797076,1.8057935639590954,25.406428721178273,24.425780827150355,0.0
0.008,0.9415748732450608,-0.5203335249005462,0.0949091342592755,0.0,1.3273594965580116,1.6605004206530762,25.811800507082584,24.425780827150355,0.0
0.009000000000000001,0.7758439323888382,-0.42472412147850946,-0.12163695549220244,0.0,1.4021899070811483,1.5369300879665124,25.786389586821667,24.425780827150355,0.0
0.01,0.6339575938046217,-0.34526674488991027,-0.12253758295845696,0.0,1.4493960258927896,1.4492164093128483,25.367522656281565,24.425780827150355,0.0
0.011,0.5269312577106329,-0.28367215117982847,0.07747846402028169,0.0,1.4771293334156774,1.4073595154325345,25.26158766726509,24.425780827150355,0.0
0.012,0.46075617476214886,-0.2429531047483014,0.12208789012737198,0.0,1.4940404716278783,1.3815775138579267,25.60438826964138,24.425780827150355,0.0
0.013000000000000001,0.4191680411319627,-0.21795584199664444,-0.061098485485683085,0.0,1.5043397874230309,1.3433811745533282,25.6066340388083,24.425780827150355,0.0
0.014,0.3814416721490637,-0.19836127256346947,-0.07402990218572203,0.0,1.5078841076980758,1.314177827929648,25.20890766912874,24.425780827150355,0.0
0.015,0.3525836436095975,-0.182098869983725,0.11700201423427259,0.0,1.5065607426938081,1.3121891924185536,25.000617102521016,24.425780827150355,0.0
0.016,0.3416968027549959,-0.1745798608620058,0.21539893478442895,0.0,1.5045063836612662,1.3200893982630701,25.203935947827173,24.425780827150355,0.0
0.017,0.3422643708561406,-0.17321496425430746,0.10595796092458226,0.0,1.5033725325808,1.3138003703901233,25.42739230512089,24.425780827150355,0.0
0.018000000000000002,0.338749543419369,-0.17232356987150116,-0.01578633250198158,0.0,1.5016387594050544,1.2961217043571585,25.075265826189206,24.425780827150355,0.0
0.019,0.3288747975034471,-0.1679402204780395,0.1537820569734718,0.0,1.497837242454134,1.300958567162864,24.808303750434128,24.425780827150355,0.0
0.02,0.32892585383542156,-0.1670598449901915,0.2834378656181732,0.0,1.494846555669148,1.317393683393394,25.016920659979913,24.425780827150355,0.0
0.021,0.33807580194913417,-0.17022785586436134,0.17321801251698482,0.0,1.4941557341367504,1.317459493665605,25.304765297866496,24.425780827150355,0.0
0.022,0.34086746926709927,-0.17225439933940295,0.020505848866532228,0.0,1.4937318154583268,1.3015379173629789,25.05179358240557,24.425780827150355,0.0
0.023,0.3334470355859042,-0.16981308227782813,0.14073157904444333,0.0,1.4914693207059586,1.3027622231569582,24.724974351683382,24.425780827150355,0.0
0.024,0.33219281537191436,-0.16854021087991555,0.3011492591602064,0.0,1.489439903325071,1.3201452962939848,24.907241007271434,24.425780827150355,0.0
0.025,0.3412910197964331,-0.1712539330590784,0.20520132956496978,0.0,1.489662973149662,1.3224153266337506,25.235182548168055,24.425780827150355,0.0
0.026000000000000002,0.3450687076581522,-0.1732113906502282,0.03313654190648241,0.0,1.490278922139005,1.3061884499549725,25.055175008658065,24.425780827150355,0.0
0.027,0.3373771079888766,-0.1708503230865242,0.1168463698464004,0.0,1.4889312965536172,1.3034584376352196,24.70649457076957,24.425780827150355,0.0
0.028,0.33378737903523603,-0.16857355247196723,0.2883794513544549,0.0,1.4872185982028288,1.3192161588635982,24.796512274800474,24.425780827150355,0.0
0.029,0.34133225422601426,-0.1701487236912757,0.2396632848625025,0.0,1.4874489783502263,1.3252868954443429,25.15234607910573,24.425780827150355,0.0
0.03,0.3465060015264387,-0.17244804998737356,0.0544807301903209,0.0,1.4885005683213361,1.3103970135815928,25.06935415413103,24.425780827150355,0.0
0.031,0.33974167531233934,-0.1706932713769928,0.08954095940786383,0.0,1.4877419921989574,1.3036055430194364,24.704657152354724,24.425780827150355,0.0
0.032,0.33439648689079904,-0.16746541345342109,0.2691006970439735,0.0,1.4860426100471116,1.3173386582132829,24.696638061902156,24.425780827150355,0.0
0.033,0.3403223407458029,-0.16816297188791607,0.27040166992273906,0.0,1.4859954876368648,1.3271707375045962,25.059569752765892,24.425780827150355,0.0
0.034,0.34684208701127833,-0.17108262325527385,0.08259793523471587,0.0,1.4872504714628394,1.3146855625306322,25.066743847524826,24.425780827150355,0.0
0.035,0.34174450596409944,-0.17004732314608748,0.0726012576515041,0.0,1.486988359883135,1.304978737627233,24.686229335141206,24.425780827150355,0.0
0.036000000000000004,0.33545787005213895,-0.16628826392408141,0.2602540287634054,0.0,1.4853786334577335,1.3175987097941884,24.622565646725075,24.425780827150355,0.0
0.037,0.34047525718741367,-0.1665017522136751,0.2901180247757239,0.0,1.485252951195642,1.329589445008144,24.999150656611178,24.425780827150355,0.0
0.038,0.3477642366225436,-0.1697546263801979,0.09609182153806417,0.0,1.4866945919565777,1.3179754022917183,25.046645264749788,24.425780827150355,0.0
0.039,0.343367587133562,-0.16897043967214512,0.06613587309276475,0.0,1.4867118750902253,1.3068685568645613,24.65034571096686,24.425780827150355,0.0
0.04,0.3366043228820896,-0.16488905713940585,0.2620400011460637,0.0,1.4851756351562722,1.3194231304365727,24.571985763010208,24.425780827150355,0.0
0.041,0.34142376760730114,-0.16492028576323947,0.29975792576579147,0.0,1.485092725546865,1.3321607815233365,24.96159492873283,24.425780827150355,0.0
0.042,0.34899211108472467,-0.1682951492019656,0.099595201888656,0.0,1.4866627946990953,1.320436974332537,25.005598949788915,24.425780827150355,0.0
0.043000000000000003,0.3446243171835669,-0.16750116221702094,0.0717950101342274,0.0,1.4867823890142926,1.3095423016857262,24.597476210049095,24.425780827150355,0.0
0.044,0.33800694433961653,-0.1633757509582171,0.2741394261751501,0.0,1.4853547012646693,1.3229691764909852,24.548412913810143,24.425780827150355,0.0
0.045,0.343335490480128,-0.1635038904045302,0.2974447534280281,0.0,1.4854678192222173,1.3347984230742673,24.948300058048822,24.425780827150355,0.0
0.046,0.3505581509572845,-0.1667275109388553,0.0922759889997038,0.0,1.487105866906651,1.321913232244249,24.938622321401812,24.425780827150355,0.0
0.047,0.3454657563639554,-0.1656204686656611,0.0919864423806942,0.0,1.4871375798842452,1.3131325927919069,24.519144310015392,24.425780827150355,0.0
0.048,0.33971894511549694,-0.16180759437407877,0.30079181324525406,0.0,1.4858797118695033,1.3287859001352462,24.55612064619579,24.425780827150355,0.0
0.049,0.3464952292661514,-0.16244110483865443,0.2810002469646006,0.0,1.486420776284589,1.337680104574204,24.975517744111276,24.425780827150355,0.0
0.05,0.35265805430755387,-0.16513601426279811,0.06580432883724863,0.0,1.4880872596340717,1.321655211766524,24.842375975413855,24.425780827150355,0.0
0.051000000000000004,0.3456039402500942,-0.16313129634762363,0.12820926170332392,0.0,1.4877371373029278,1.3172535391678373,24.39646537418226,24.425780827150355,0.0
0.052000000000000005,0.3414763623589652,-0.15999571279872285,0.3514577168488027,0.0,1.4866569929338018,1.3375737947606963,24.59904092266695,24.425780827150355,0.0
0.053,0.35112969320097465,-0.1619275718696068,0.24843734165129083,0.0,1.4879607488941604,1.3410861423626432,25.046496026735657,24.425780827150355,0.0
0.054,0.35539669413131614,-0.16385484203320919,0.018502637621085172,0.0,1.4896780451459657,1.3197421803151663,24.708075651923526,24.425780827150355,0.0
0.055,0.345173946504439,-0.16004168337075708,0.18488987677941887,0.0,1.4886504954133368,1.322473459693596,24.274486165905486,24.425780827150355,0.0
0.056,0.34382570300429155,-0.15767461175402042,0.40319756640088733,0.0,1.4877765823005975,1.3472249089364456,24.688931292144286,24.425780827150355,0.0
0.057,0.35625081549528764,-0.1615591084310618,0.19334349863154826,0.0,1.489916170774059,1.3427665527838837,25.056968030404118,24.425780827150355,0.0
0.058,0.3571265091518218,-0.16260746086447875,0.0030132574690946434,0.0,1.4914724385858233,1.3201581300664385,24.546054357323836,24.425780827150355,0.0
0.059000000000000004,0.34577877749349906,-0.15705209814802223,0.25726735870750067,0.0,1.489990663921523,1.3310944373687443,24.25673529103447,24.425780827150355,0.0
0.06,0.3484241007214229,-0.15569634485021255,0.40361734721334247,0.0,1.489657118218288,1.3539404313259935,24.77534099614563,24.425780827150355,0.0
0.061,0.36045438985290557,-0.1607211671708331,0.14081889296780992,0.0,1.492207814469348,1.3428002628929427,24.931243816460793,24.425780827150355,0.0
0.062,0.3577243513696067,-0.16064713547044235,0.05781285291712418,0.0,1.4933310325417477,1.3269471081896618,24.423138232256274,24.425780827150355,0.0
0.063,0.3492800240841883,-0.15508293151177888,0.31189207096832405,0.0,1.4921452912181303,1.3424719407666497,24.41888316566707,24.425780827150355,0.0
0.064,0.3550833818393946,-0.1549321323781602,0.3140885808777598,0.0,1.4926696614194621,1.3533037272371766,24.884689339136482,24.425780827150355,0.0
0.065,0.3618220683442116,-0.15791143167126298,0.0765964090231917,0.0,1.4945540041612908,1.3362754461397093,24.649983705363987,24.425780827150355,0.0
0.066,0.35452016925450835,-0.15567850262891214,0.19170719712730327,0.0,1.4942716693316005,1.337046131601085,24.171318261545196,24.425780827150355,0.0
0.067,0.35323981985980774,-0.15309655255112417,0.4335845446927504,0.0,1.4938329513128832,1.3632347348270324,24.650673821594943,24.425780827150355,0.0
0.068,0.3663230407281041,-0.15713795098461233,0.191657834723431,0.0,1.496527338747094,1.3562779365667739,24.974782060935024,24.425780827150355,0.0
0.069,0.36588880288033326,-0.15789921981669156,0.02411370271554386,0.0,1.498299933199052,1.3344542678267257,24.39729093878737,24.425780827150355,0.0
0.07,0.3548603201247976,-0.15168646969818486,0.31314416267299977,0.0,1.497021886130453,1.3496678080459088,24.279892345133575,24.425780827150355,0.0
0.07100000000000001,0.359890244185823,-0.15077415851212927,0.3733023443200656,0.0,1.4973547710613506,1.3662957084436471,24.78153999320819,24.425780827150355,0.0
0.07200000000000001,0.36909827811164564,-0.1551740277610129,0.11892092862217901,0.0,1.499810266268171,1.3517479852602343,24.629979958035165,24.425780827150355,0.0
0.073,0.36391991073375507,-0.1537520669222131,0.19265895489984447,0.0,1.5003650252512104,1.3502172817141922,24.124363007126345,24.425780827150355,0.0
0.074,0.36206535781548466,-0.1508116245973864,0.44848160855449454,0.0,1.5004020089339989,1.3764504532075243,24.655868439213286,24.425780827150355,0.0
0.075,0.3749237782669217,-0.15452237968550334,0.18042801639039452,0.0,1.503496198880783,1.3665869124663637,24.90924670720572,24.425780827150355,0.0
0.076,0.37273513327508645,-0.15466474108233302,0.04890422359362334,0.0,1.5052731679615423,1.3466013986616097,24.326492651988346,24.425780827150355,0.0
0.077,0.36238117735893477,-0.14802777438871562,0.341274132953931,0.0,1.5041423988034848,1.3633851098038674,24.369132836948946,24.425780827150355,0.0
0.078,0.3683169340458502,-0.14747559845814168,0.320520520375645,0.0,1.5048087079900314,1.372414303644157,24.88546034439641,24.425780827150355,0.0
0.079,0.37401376536513486,-0.15020729922066642,0.05775997147945244,0.0,1.5066173144851356,1.3513437908880208,24.408530734313672,24.425780827150355,0.0
0.08,0.3647381599575985,-0.14641976071707696,0.29639727744918837,0.0,1.505694062812096,1.3625161841106643,24.129070323331582,24.425780827150355,0.0
0.081,0.3686537740674993,-0.14490963864380668,0.4390945879784209,0.0,1.5058521375856009,1.3852658703360927,24.70448279740106,24.425780827150355,0.0
0.082,0.3807124338232842,-0.15029581065779796,0.1486013312411753,0.0,1.5088769536465696,1.3710878676379024,24.593095187398173,24.425780827150355,0.0
0.083,0.3765214990073968,-0.1494448611397772,0.20262199264014014,0.0,1.5100340216645005,1.3680589415641924,24.070928271731958,24.425780827150355,0.0
0.084,0.3744258569417611,-0.14583621176105865,0.46725397602743174,0.0,1.5103840483367883,1.3942065377373187,24.65666672483979,24.425780827150355,0.0
0.085,0.38690530188648264,-0.14955313458046665,0.1720758904966208,0.0,1.5137587799630823,1.381264772353524,24.754784038217124,24.425780827150355,0.0
0.08600000000000001,0.38294305603623763,-0.14906423862689316,0.11972720169728651,0.0,1.5154109141052796,1.367708723251094,24.196477365375067,24.425780827150355,0.0
0.08700000000000001,0.3756365673183778,-0.14299896722025113,0.4011735727360682,0.0,1.5148799390278196,1.3879201714758482,24.51333020262772,24.425780827150355,0.0
0.088,0.38385531902145265,-0.1440297884592177,0.2418716603549676,0.0,1.5165972493309343,1.3847425757235552,24.818867226777314,24.425780827150355,0.0
0.089,0.3837008050112836,-0.1449945003600049,0.08517228428390122,0.0,1.5179208791252046,1.366509742390946,24.173824540436875,24.425780827150355,0.0
0.09,0.3752032937894818,-0.139079788833951,0.4102131903212554,0.0,1.5166285972199132,1.3884872298901405,24.395777564253443,24.425780827150355,0.0
0.091,0.38437768615821827,-0.14022395384139263,0.29953671104194085,0.0,1.5178482975211498,1.3916187603950094,24.78823337953003,24.425780827150355,0.0
0.092,0.38777562399607957,-0.14290374391382266,0.09968427787985029,0.0,1.5195425161006422,1.3734000757860008,24.16053760095314,24.425780827150355,0.0
0.093,0.3801839008342929,-0.1380947074195179,0.41618459943026703,0.0,1.5186896524461866,1.394855310124184,24.340625902076027,24.425780827150355,0.0
0.094,0.389553880656587,-0.13907007831346768,0.3269919981195672,0.0,1.5202229797542726,1.399996930291353,24.774274766782483,24.425780827150355,0.0
0.095,0.3939032726456644,-0.14216759622168818,0.10668262637001813,0.0,1.5224481096092322,1.3810508829726942,24.143544854841046,24.425780827150355,0.0
0.096,0.3861043528471505,-0.13736096350303006,0.42486994206382955,0.0,1.5219964169686944,1.4023270269129384,24.336815357890874,24.425780827150355,0.0
0.097,0.3952783284308242,-0.13811623543378776,0.3291243452315106,0.0,1.5238486542258047,1.406629371874423,24.745280875903,24.425780827150355,0.0
0.098,0.39899395806738497,-0.14100145318868423,0.12169658573792153,0.0,1.5262557234870846,1.3885101289853132,24.11601706210694,24.425780827150355,0.0
0.099,0.3915143671451588,-0.1359830230592715,0.43942613028638466,0.0,1.52602928204154,1.41032795610432,24.378506068025427,24.425780827150355,0.0
0.1,0.40086162553605403,-0.1370182915997154,0.3086543749183911,0.0,1.5281713312931946,1.4112761734986872,24.697194207424168,24.425780827150355,0.0
0.101,0.40285940351856014,-0.1392732025395657,0.14659617141628234,0.0,1.5304316848770987,1.3956988062530638,24.079796357789302,24.425780827150355,0.0
0.10200000000000001,0.3964421705889767,-0.13401020021494484,0.4587549409273258,0.0,1.5303067870129434,1.4185891311737084,24.44028561269422,24.425780827150355,0.0
0.10300000000000001,0.4062677450093685,-0.13589758368139088,0.27836526561942915,0.0,1.5327436536318235,1.4150684963213553,24.581181962753366,24.425780827150355,0.0
0.10400000000000001,0.40622118968539167,-0.13728717185472755,0.20636307923382524,0.0,1.534718750967983,1.406130644696629,24.018587417584996,24.425780827150355,0.0
0.105,0.4028371647277622,-0.13262465568453735,0.49173228591366375,0.0,1.535075780747599,1.4307664997587288,24.526978091824276,24.425780827150355,0.0
0.106,0.414037056340025,-0.13585675670588615,0.23652497614728457,0.0,1.538262849329514,1.4207821478245553,24.404439631432986,24.425780827150355,0.0
0.107,0.41134467252152423,-0.13571931244544244,0.2980076183001033,0.0,1.5400853359809576,1.4218382628126223,24.024584031382144,24.425780827150355,0.0
0.108,0.4124311355513056,-0.13210506554840418,0.4919473862832064,0.0,1.5414349927499942,1.4435431282521791,24.650938810944545,24.425780827150355,0.0
0.109,0.4226519334037364,-0.13638022566380198,0.17651841666406376,0.0,1.5453265804677474,1.4254624653532775,24.24195331306592,24.425780827150355,0.0
0.11,0.4163052167977745,-0.13315804038092488,0.3828494407442206,0.0,1.5466237511415637,1.4362300766662304,24.290205773527898,24.425780827150355,0.0
0.111,0.42086434644113435,-0.13099441135557166,0.36007896104945636,0.0,1.5486621885393344,1.440917609481215,24.689504769790666,24.425780827150355,0.0
0.112,0.4230278364782762,-0.13297217662413657,0.15779222349166916,0.0,1.5512047259486215,1.4231240038124167,24.062004494825718,24.425780827150355,0.0
0.113,0.4155100990641647,-0.12712974110709177,0.47518012429738954,0.0,1.5510512034905395,1.4451481349315578,24.474026090198258,24.425780827150355,0.0
0.114,0.4245433671039714,-0.12865541479766238,0.26868687398064056,0.0,1.5533416948513135,1.4379975272915575,24.366645452144542,24.425780827150355,0.0
0.115,0.4226301542725597,-0.12890498963181551,0.32296854675755654,0.0,1.5547002728068606,1.4401277321521162,24.04376082819827,24.425780827150355,0.0
0.116,0.4248031759556734,-0.1256131035489058,0.48823105872021366,0.0,1.5557714102354478,1.45955866939684,24.61076502819627,24.425780827150355,0.0
0.117,0.4341622024114394,-0.12996256372000692,0.20287911671075487,0.0,1.5591898871252987,1.4431045252259798,24.14266367837092,24.425780827150355,0.0
0.11800000000000001,0.4288877202263344,-0.12655990577264636,0.4397609631112242,0.0,1.5602033149331578,1.4582219489902568,24.412829358609084,24.425780827150355,0.0
0.11900000000000001,0.4356414933349586,-0.1261788368783025,0.3048076376775545,0.0,1.5626192513377544,1.4539196290333833,24.442867934785653,24.425780827150355,0.0
0.12,0.434074467176254,-0.1267252715897861,0.289617478512917,0.0,1.564427280613411,1.4502076610674277,23.999679097424043,24.425780827150355,0.0
0.121,0.43334890186827585,-0.12218021114483892,0.5154729144909853,0.0,1.5651778891688468,1.4721078342971572,24.5976815911014,24.425780827150355,0.0
0.122,0.4432771179441527,-0.12621092508045234,0.21475266001279691,0.0,1.5685322833290791,1.45545590928565,24.114026414409505,24.425780827150355,0.0
0.123,0.43801311680177296,-0.12290357580554892,0.4596977924861522,0.0,1.5694819300125422,1.471434105594588,24.41969562986528,24.425780827150355,0.0
0.124,0.4452224459439978,-0.12280772143290697,0.30692403673111507,0.0,1.5719569611703113,1.4658092162661225,24.339136520550575,24.425780827150355,0.0
0.125,0.4432536386317235,-0.12302835864019848,0.3480700344544657,0.0,1.573647228915985,1.4673367783891718,24.07246481108757,24.425780827150355,0.0
0.126,0.44521987353250925,-0.11929244456898509,0.4849390493465958,0.0,1.5749080691794894,1.4832887688231753,24.56039572878275,24.425780827150355,0.0
0.127,0.45256604593723965,-0.12301687835135404,0.2396274414826815,0.0,1.5780850713168175,1.4686302606106645,24.058402768697086,24.425780827150355,0.0
0.128,0.4480731977787212,-0.11900809536966403,0.49429770211004703,0.0,1.5790003119533518,1.4867898232022714,24.474940906370858,24.425780827150355,0.0
0.129,0.45604763257477543,-0.12022369833564997,0.28553703248095597,0.0,1.5818137889414683,1.4767924610237457,24.149384094185905,24.425780827150355,0.0
0.13,0.45282505975593224,-0.1187157785276779,0.45107940590307694,0.0,1.5831681548043839,1.4888076778926422,24.33477034016031,24.425780827150355,0.0
0.131,0.4592070722305081,-0.11755255933097433,0.3592963877857741,0.0,1.5854757308543401,1.4872710068334245,24.3623300482795,24.425780827150355,0.0
0.132,0.4588459336408008,-0.11869317474147481,0.3461510415148885,0.0,1.5875359820805015,1.4856941479461132,24.03339305023351,24.425780827150355,0.0
