timestamp,iq,id,iq_ref,id_ref,vq,vd,omega,omega_ref,r
0.0,0.0,0.0,0.0,0.0,0.0,0.0,0.0,322.70318031274627,0.0
0.001,0.0,0.0,10.0,0.0,0.0,1.0999999999999999,6.115472199294103,322.70318031274627,0.0
0.002,0.5307369851907212,-0.2913212625381807,10.0,0.0,0.14204533887919985,1.9316189316290207,13.317801563642547,322.70318031274627,0.0
0.003,1.0842913387634832,-0.6024330830807904,10.0,0.0,0.384357124667687,2.6386968949419622,20.697939467553027,322.70318031274627,0.0
0.004,1.5590443546685477,-0.8700465084428163,10.0,0.0,0.6994718867930164,3.2526109522886295,28.232747544420146,322.70318031274627,0.0
0.005,1.9399447555359186,-1.0838738622210777,10.0,0.0,1.065311453102468,3.7994935661768023,35.92944872443006,322.70318031274627,0.0
0.006,2.239750732602683,-1.2510087368845633,10.0,0.0,1.4655018868449925,4.299102221838433,43.75633668444442,322.70318031274627,0.0
0.007,2.4770151619816017,-1.382020589851471,10.0,0.0,1.8883740978591532,4.765668027847139,51.58766747378032,322.70318031274627,0.0
0.008,2.6680767290418097,-1.4872241871505252,10.0,0.0,2.325877945545995,5.209220346273558,59.45942083902103,322.70318031274627,0.0
0.009000000000000001,2.8266491704841292,-1.5730794701170803,10.0,0.0,2.772378685460125,5.636635464737965,67.35059094018146,322.70318031274627,0.0
0.01,2.962077666392183,-1.645500646948331,10.0,0.0,3.224078639851053,6.052647735211881,75.20908322432116,322.70318031274627,0.0
0.011,3.0811061533574158,-1.7084279320504514,10.0,0.0,3.678407615443203,6.460489925470405,83.0265951655913,322.70318031274627,0.0
0.012,3.188848746459569,-1.7638278597420747,10.0,0.0,4.133552631697047,6.862319393890706,90.74118064793086,322.70318031274627,0.0
0.013000000000000001,3.288205119878689,-1.8140726097274587,10.0,0.0,4.588339016389012,7.259628641949282,98.35820682563939,322.70318031274627,0.0
0.014,3.3820602099432007,-1.8592355758795645,10.0,0.0,5.041843166194517,7.653355107498287,105.90865295623543,322.70318031274627,0.0
0.015,3.4721069852858886,-1.899829032412081,10.0,0.0,5.493383198131427,8.044092747085895,113.37727610343421,322.70318031274627,0.0
0.016,3.5596145800153947,-1.9360338400176071,10.0,0.0,5.94241958510469,8.43218525824161,120.68508583176356,322.70318031274627,0.0
0.017,3.645144415105338,-1.9685384477868613,10.0,0.0,6.388575043274759,8.817838951066484,127.83962377537456,322.70318031274627,0.0
0.018000000000000002,3.730251927866576,-1.9959253041084188,10.0,0.0,6.83136783302799,9.201036292373047,134.85405702603322,322.70318031274627,0.0
0.019,3.81544967906247,-2.018253592643655,10.0,0.0,7.270383321112213,9.581672501020332,141.68976328564074,322.70318031274627,0.0
0.02,3.9014648862453374,-2.0350875541282063,10.0,0.0,7.705189334130692,9.959536942333155,148.3432823300447,322.70318031274627,0.0
0.021,3.9891051824829464,-2.0457889559126508,10.0,0.0,8.135310004560049,10.334315260302239,154.92060212100432,322.70318031274627,0.0
0.022,4.079618141396171,-2.0489696811670974,10.0,0.0,8.560139305503519,10.705547790999272,161.01925282597162,322.70318031274627,0.0
0.023,4.171109372430197,-2.048468292080302,10.0,0.0,8.979521969370257,11.072981092896333,166.534238406907,322.70318031274627,0.0
0.024,4.266936196769627,-2.039517194249811,10.0,0.0,9.392730090169543,11.435983292623375,171.8647834235234,322.70318031274627,0.0
0.025,4.367255527950721,-2.0225841458509217,10.0,0.0,9.79914449451603,11.793929226271104,177.02637022703064,322.70318031274627,0.0
0.026000000000000002,4.4734353073349595,-1.9962166741499119,10.0,0.0,10.197980960389518,12.146045424568259,181.63161391243256,322.70318031274627,0.0
0.027,4.582366840795821,-1.966358349113627,10.0,0.0,10.589124658468391,12.491912978736195,185.74793639675826,322.70318031274627,0.0
0.028,4.700058850757774,-1.9240450691803936,10.0,0.0,10.971384864613876,12.830451341534015,189.43662766964098,322.70318031274627,0.0
0.029,4.820934284790598,-1.879137197786803,10.0,0.0,11.344756153370636,13.161242511022618,192.73598774770625,322.70318031274627,0.0
0.03,4.952016225740939,-1.821000614527957,10.0,0.0,11.707923484756042,13.483081433273819,195.59831968863915,322.70318031274627,0.0
0.031,5.086039273572549,-1.7621311371320891,10.0,0.0,12.061063698547066,13.79562148058647,197.80891551030922,322.70318031274627,0.0
0.032,5.230431844273564,-1.6911110488141978,10.0,0.0,12.40292038074925,14.097678592248165,200.4421589734679,322.70318031274627,0.0
0.033,5.380124186618445,-1.6166151787533525,10.0,0.0,12.733312761073865,14.38869342901298,201.91742172589852,322.70318031274627,0.0
0.034,5.537594793894332,-1.535029134414507,10.0,0.0,13.051537880865839,14.667821176756876,203.18880493813168,322.70318031274627,0.0
0.035,5.698947813469154,-1.4530296333491768,10.0,0.0,13.357649178779205,14.934684535625108,203.60405746232266,322.70318031274627,0.0
0.036000000000000004,5.870474243492053,-1.3603000477825025,10.0,0.0,13.65045542338638,15.188218311291084,204.28541056101804,322.70318031274627,0.0
0.037,6.041188711220851,-1.275010780747051,10.0,0.0,13.930879897581198,15.42861600670124,205.2233356988433,322.70318031274627,0.0
0.038,6.228175208801664,-1.168399557236846,10.0,0.0,14.196427351981786,15.654155009933262,200.35169734043586,322.70318031274627,0.0
0.039,6.404895489618571,-1.0845312562500289,10.0,0.0,14.449814560392067,15.86612549236809,209.64773540576442,322.70318031274627,0.0
0.04,6.534612624563911,-1.0851225869390002,10.0,0.0,14.699963825590459,16.069735965364643,218.170241886545,322.70318031274627,0.0
0.041,6.621487035821765,-1.1484636683301073,10.0,0.0,14.952420817214799,16.26974130369247,220.68166573712315,322.70318031274627,0.0
0.042,6.6704785161669795,-1.2647840534085386,10.0,0.0,15.211794475054209,16.47047148862455,233.10654395573727,322.70318031274627,0.0
0.043000000000000003,6.709376245503157,-1.3867642159960276,10.0,0.0,15.477558399636717,16.673277185423842,235.10815372853793,322.70318031274627,0.0
0.044,6.744196093263161,-1.5028656568708394,10.0,0.0,15.74857785831126,16.87893749904121,248.8181267625822,322.70318031274627,0.0
0.045,6.750563942850831,-1.6564343609015326,10.0,0.0,16.02879294551472,17.090781462187255,251.61117095327992,322.70318031274627,0.0
0.046,6.764566527560506,-1.7840489455190416,10.0,0.0,16.314672837580048,17.307985931916857,266.60539535969383,322.70318031274627,0.0
0.047,6.752169677737121,-1.9446655565152717,10.0,0.0,16.610076868775216,17.533561623207692,270.0627790167984,322.70318031274627,0.0
0.048,6.7291903821171735,-2.110358990489937,10.0,0.0,16.91511817760721,17.768523902508925,283.13731951482634,322.70318031274627,0.0
0.049,6.714097190323873,-2.246352557911731,10.0,0.0,17.22645394156277,18.011924542904307,294.70561782835244,322.70318031274627,0.0
0.05,6.666841209228205,-2.4219663531358275,10.0,0.0,17.548953774962747,18.267165921658286,300.1294548425776,322.70318031274627,0.0
0.051000000000000004,6.612335516543512,-2.59336894353628,10.0,0.0,17.88182590988993,18.53465621226123,310.75154600411304,322.70318031274627,0.0
0.052000000000000005,6.568447424188529,-2.726701034625408,10.0,0.0,18.22111236450049,18.81296732052879,322.35703405819294,322.70318031274627,0.0
0.053,6.5036136539679195,-2.8764091099274185,5.773864372217622,0.0,18.569435851849086,18.639193878175313,328.1464557674195,322.70318031274627,0.0
0.054,6.210785919886423,-2.899635210511163,2.824720763057595,0.0,18.86660743653866,18.267048401109015,330.8404938884135,322.70318031274627,0.0
0.055,5.762239666006924,-2.8050324587842304,1.3963285668039322,0.0,19.086208751356843,17.880614735307937,331.7061956908296,322.70318031274627,0.0
0.056,5.279121592119871,-2.652834398265693,0.8734475118150575,0.0,19.22941080897335,17.560209099071336,331.36562102721183,322.70318031274627,0.0
0.057,4.844992802048216,-2.488282550830227,0.9571104364792813,0.0,19.309673374591814,17.343518950651998,329.8625168238061,322.70318031274627,0.0
0.058,4.5085313843825015,-2.33303501970598,1.6370691730715397,0.0,19.344808958857186,17.263152373457462,327.92477732225785,322.70318031274627,0.0
0.059000000000000004,4.2986783855796284,-2.202839219558679,2.5537229537505555,0.0,19.35562526427161,17.30808755660935,325.94329808679237,322.70318031274627,0.0
0.06,4.215664492791372,-2.0991245473706077,3.5120613937428367,0.0,19.359746801520565,17.452894540798532,325.25707767146827,322.70318031274627,0.0
0.061,4.244481978995735,-2.0125953235294496,3.8296326278176673,0.0,19.36945581556289,17.60498236923162,326.7109080456897,322.70318031274627,0.0
0.062,4.320206705980999,-1.9376823692352334,3.0626401633775275,0.0,19.386027578310344,17.647245887690154,319.60288755237116,322.70318031274627,0.0
0.063,4.373779158096673,-1.829734074629643,6.647653337640539,0.0,19.394043333765232,18.083825881928036,314.2441458029071,322.70318031274627,0.0
0.064,4.646733041340398,-1.7611787526964344,9.41161455747096,0.0,19.43845391063182,18.716245852090672,319.77773591284887,322.70318031274627,0.0
0.065,5.071008501957616,-1.7827442395107682,6.67407394649905,0.0,19.544723183596926,18.917155041683046,313.35125577179343,322.70318031274627,0.0
0.066,5.341154070694921,-1.7209564076501738,9.980833262436295,0.0,19.653444131851955,19.47424591252057,311.22677488703033,322.70318031274627,0.0
0.067,5.775879250793731,-1.6493994561154377,10.0,0.0,19.799748686015015,19.91042222494898,312.28003193701295,322.70318031274627,0.0
0.068,6.169137637400639,-1.613402314317993,10.0,0.0,19.971796299922232,20.27850852344945,302.40744526357196,322.70318031274627,0.0
0.069,6.569278706023594,-1.4934485319457567,10.0,0.0,20.150612837645806,20.586908019808146,304.60110249552685,322.70318031274627,0.0
0.07,6.916831521174599,-1.3897771669265127,10.0,0.0,20.332183358904494,20.848119821322936,296.67690452526944,322.70318031274627,0.0
0.07100000000000001,7.274859943459714,-1.217582022717992,10.0,0.0,20.503813255976056,21.065459896512277,292.17964476145653,322.70318031274627,0.0
0.07200000000000001,7.583660113991186,-1.0910773791180104,10.0,0.0,20.667820611505476,21.247841219354218,291.87449889652447,322.70318031274627,0.0
0.073,7.915730437853659,-0.9046899184891792,10.0,0.0,20.814427789532978,21.394945411545347,292.0682556945505,322.70318031274627,0.0
0.074,8.119730614874907,-0.9157962806943242,10.0,0.0,20.9641702434257,21.522880586086412,306.78001509540593,322.70318031274627,0.0
0.075,8.191857360716217,-1.1044321092005742,10.0,0.0,21.132370846896883,21.647102548290302,313.4761918185201,322.70318031274627,0.0
0.076,8.227669759438568,-1.307741221390726,10.0,0.0,21.316651230297207,21.772504278219884,324.9467404106265,322.70318031274627,0.0
0.077,8.196267708903152,-1.5818617726147584,4.982114172845988,0.0,21.523163917863194,21.355638782055713,329.77123136149015,322.70318031274627,0.0
0.078,7.89867919282814,-1.67738336047932,2.499188186926718,0.0,21.675104956209022,20.810588820347874,337.4507118802158,322.70318031274627,0.0
0.079,7.40379165077719,-1.750403383144141,-1.4880273881108046,0.0,21.76442388116397,19.97293524971532,338.40619088988984,322.70318031274627,0.0
0.08,6.728284421752203,-1.6999732134663619,-2.1227969987192576,0.0,21.754768037668953,19.267383346997203,342.2878497132851,322.70318031274627,0.0
0.081,6.05644808557267,-1.6631470614948956,-4.259473104422266,0.0,21.67197601323156,18.46988129936965,342.7920649907865,322.70318031274627,0.0
0.082,5.361367809130503,-1.5964453570078831,-4.712469589953384,0.0,21.51074406050129,17.78512786875656,342.61252635589364,322.70318031274627,0.0
0.083,4.733364583422548,-1.537999890009501,-4.821793732938418,0.0,21.291397975657784,17.207360447122177,341.6212127853971,322.70318031274627,0.0
0.084,4.199952177550397,-1.4953955124870855,-4.515317272416668,0.0,21.032107730277705,16.752636143642967,339.8052075148276,322.70318031274627,0.0
0.085,3.775549651240241,-1.4732753301902382,-3.778334909152722,0.0,20.751266902810286,16.43680869516288,337.5354655912441,322.70318031274627,0.0
0.08600000000000001,3.470663637592577,-1.473286470956293,-2.791786800145938,0.0,20.46714984054883,16.254923813380316,335.22049428967716,322.70318031274627,0.0
0.08700000000000001,3.283250605423936,-1.492505510595225,-1.7594742891317905,0.0,20.195369979287896,16.184071182073424,332.60474470898083,322.70318031274627,0.0
0.088,3.1959762433378334,-1.5270224694036711,-0.5506151427459702,0.0,19.947287516094896,16.223503258271208,329.73379198058433,322.70318031274627,0.0
0.089,3.2015548439269454,-1.5720160804553753,0.8145551047739001,0.0,19.732560634468587,16.370777626607588,326.87798849750425,322.70318031274627,0.0
0.09,3.293627752726861,-1.625833927707562,2.200708764466361,0.0,19.55950390492576,16.610604836076543,323.4914929365882,322.70318031274627,0.0
0.091,3.463737600931922,-1.679188970391564,3.8860734186859647,0.0,19.433066445506835,16.962880872797022,321.9519069532143,322.70318031274627,0.0
0.092,3.721435999463167,-1.7271023509520171,4.66337914396824,0.0,19.359237257136662,17.309289817786023,324.0750453275185,322.70318031274627,0.0
0.093,3.9999321481594143,-1.760489487417451,3.5880913066684004,0.0,19.330625333307996,17.459562637712022,320.7997879365146,322.70318031274627,0.0
0.094,4.178167381828904,-1.7486408612020332,5.244753925932692,0.0,19.318264663606445,17.76811183553795,311.71735077755403,322.70318031274627,0.0
0.095,4.431560019982003,-1.7039324076975764,9.895830800764887,0.0,19.33319553703431,18.513531038789875,316.79581592813406,322.70318031274627,0.0
0.096,4.926856422400682,-1.7387918503911646,7.4156718693209935,0.0,19.42545686667592,18.814624479967726,316.3428641783106,322.70318031274627,0.0
0.097,5.25973867905216,-1.7283982264572209,7.705750905577077,0.0,19.537109514411483,19.11988090908708,305.5753047150484,322.70318031274627,0.0
0.098,5.5852369960168335,-1.6300732247204264,10.0,0.0,19.657410726333712,19.622767577792413,311.1685982696819,322.70318031274627,0.0
0.099,5.997947731798773,-1.567689112936682,10.0,0.0,19.81009148165542,20.02231001210885,302.41406395934973,322.70318031274627,0.0
0.1,6.388759937365396,-1.5031341755911303,10.0,0.0,19.98098120288642,20.3583040432713,303.7903983428026,322.70318031274627,0.0
0.101,6.775489255480515,-1.3784751451854196,10.0,0.0,20.15531441113939,20.639155540503612,294.1906040426134,322.70318031274627,0.0
0.10200000000000001,7.123082765746082,-1.2567322103633893,10.0,0.0,20.32815431576393,20.874987215889924,295.57846783325897,322.70318031274627,0.0
0.10300000000000001,7.458859788503934,-1.1104451717770907,10.0,0.0,20.492419252568368,21.071060176799353,287.2890999135521,322.70318031274627,0.0
0.10400000000000001,7.794401127998264,-0.9332218714070448,10.0,0.0,20.641833299128475,21.23040055818148,286.63332685912565,322.70318031274627,0.0
0.105,8.041374146723955,-0.8849996867946088,10.0,0.0,20.788707771867113,21.36493668741653,302.67606882328005,322.70318031274627,0.0
0.106,8.136824645546778,-1.0514622023046463,10.0,0.0,20.953141508807626,21.492676826318686,309.2177773348097,322.70318031274627,0.0
0.107,8.187538971732522,-1.2444904985029033,10.0,0.0,21.133474373371,21.61946225413247,319.5789102568846,322.70318031274627,0.0
0.108,8.167538343945234,-1.512549625521486,7.078320951272357,0.0,21.336008715269486,21.43292494257963,327.1618926279633,322.70318031274627,0.0
0.109,7.993523798469368,-1.65641620118859,3.2422426425808437,0.0,21.512780623876026,20.911484566627603,333.79510161557886,322.70318031274627,0.0
0.11,7.54965503766708,-1.7532542823202437,-0.18528106425525515,0.0,21.62894482719453,20.16828401269987,336.2066937424963,322.70318031274627,0.0
0.111,6.938012630145204,-1.7255593111330616,-1.526112262011491,0.0,21.655157727146495,19.46064571703133,340.65071758302565,322.70318031274627,0.0
0.112,6.277779999519089,-1.6993555985392679,-3.927599554978948,0.0,21.605380048862965,18.642146415969627,341.12034371242567,322.70318031274627,0.0
0.113,5.5710007328947215,-1.627195249515093,-4.346584253675748,0.0,21.471054607034898,17.949589226281187,341.55465910436277,322.70318031274627,0.0
0.114,4.927698607453988,-1.5663735698369656,-4.752256737560465,0.0,21.274937209146444,17.336116526270672,340.7541764964395,322.70318031274627,0.0
0.115,4.363497943185946,-1.518466453662504,-4.532525395435776,0.0,21.032422715063372,16.848235580760004,339.25279356160746,322.70318031274627,0.0
0.116,3.907178403141293,-1.48805693349179,-3.9473300605083557,0.0,20.762505599780503,16.4916185965751,337.22212386004213,322.70318031274627,0.0
0.117,3.565762953411822,-1.480392135565816,-3.077184645198649,0.0,20.483379465037288,16.266528145684983,334.88736863368064,322.70318031274627,0.0
0.11800000000000001,3.3403084948901434,-1.4921736841751905,-2.0316489152272457,0.0,20.21102951700567,16.163727438493403,332.51761333630594,322.70318031274627,0.0
0.11900000000000001,3.2224229178626342,-1.5203247932487338,-0.9449155967754947,0.0,19.958613299570054,16.16376998383561,329.66158313877276,322.70318031274627,0.0
0.12,3.194873832979774,-1.5618607084019314,0.4135154737308335,0.0,19.735730397988338,16.278978281038057,326.8020096759477,322.70318031274627,0.0
0.121,3.2596386488104683,-1.611304221949961,1.8023139115113391,0.0,19.551680043623776,16.492161355222667,323.6818598769702,322.70318031274627,0.0
0.122,3.405143193254614,-1.665642457403073,3.352602015357868,0.0,19.412835802878508,16.806906941867126,321.32551353138166,322.70318031274627,0.0
0.123,3.6335759784533606,-1.714818756322928,4.544551855965773,0.0,19.324216555398866,17.168232586273593,322.2237668445811,322.70318031274627,0.0
0.124,3.9119016118388465,-1.7533835283915307,4.1002193340476945,0.0,19.284342159046176,17.39543617385397,323.0849517165714,322.70318031274627,0.0
0.125,4.126936446875125,-1.7645890346536905,3.665809184014291,0.0,19.272022519054943,17.53171959623641,314.1090207010556,322.70318031274627,0.0
0.126,4.300810979941525,-1.6997089468022857,8.239716287889102,0.0,19.267314320574805,18.143640745021106,313.50708836463843,322.70318031274627,0.0
0.127,4.708776724721634,-1.694370065070998,8.63264337557877,0.0,19.324330580709223,18.648244381091278,316.9818261951418,322.70318031274627,0.0
0.128,5.117638242881521,-1.716599860492784,6.952488001503122,0.0,19.428604244750925,18.87844780799288,307.3608303419877,322.70318031274627,0.0
0.129,5.413206331456856,-1.645717480635211,10.0,0.0,19.53745152534006,19.419662257622218,309.0165528106965,322.70318031274627,0.0
0.13,5.846211847803167,-1.5820667985615688,10.0,0.0,19.683242771603698,19.84248994445022,306.3122194221917,322.70318031274627,0.0
0.131,6.237680709690383,-1.5476645325747203,10.0,0.0,19.853589919485955,20.198882467577658,300.7842718141764,322.70318031274627,0.0
0.132,6.644327237922544,-1.4148756280256274,10.0,0.0,20.028278848052196,20.495854023693912,297.9705971139507,322.70318031274627,0.0
0.133,6.982934843986798,-1.3241025811060827,10.0,0.0,20.206538893257783,20.74741694567042,295.3900351664271,322.70318031274627,0.0
0.134,7.342875909519417,-1.1481892114944565,10.0,0.0,20.373686485952376,20.95544213882189,285.0620824235421,322.70318031274627,0.0
0.135,7.656446806045247,-1.0127449442448286,10.0,0.0,20.531782102991315,21.128486183965155,288.1055829149692,322.70318031274627,0.0
0.136,7.967859547490237,-0.8600520276321886,10.0,0.0,20.67593078468579,21.2689156937043,295.3665520274318,322.70318031274627,0.0
0.137,8.111451338551586,-0.9601171911322885,10.0,0.0,20.832241646335866,21.39703615103667,303.49998764089344,322.70318031274627,0.0
0.138,8.15022159177806,-1.189799938966757,10.0,0.0,21.00999791818097,21.525146838856518,318.172615633863,322.70318031274627,0.0
0.139,8.175773926364261,-1.3955387478842116,7.4391115637264695,0.0,21.20312407312612,21.37410130281658,320.7251994387708,322.70318031274627,0.0
0.14,8.005051571210508,-1.590833153061547,6.182599470012333,0.0,21.381258055453095,21.163900472342128,333.1615382019638,322.70318031274627,0.0
0.14100000000000001,7.754544574103765,-1.7196624251263564,-0.14015349047635262,0.0,21.532776832375273,20.335443964561378,334.14156834108917,322.70318031274627,0.0
0.14200000000000002,7.136339314599658,-1.7319207448974492,-0.7445524403224555,0.0,21.586358203281346,19.667226138947147,337.5362705115792,322.70318031274627,0.0
0.14300000000000002,6.507626440041319,-1.6974145677199934,-2.590234427555788,0.0,21.563841391848154,18.93718356749411,340.43670717974913,322.70318031274627,0.0
