timestamp,iq,id,iq_ref,id_ref,vq,vd,omega,omega_ref,r
0.0,0.0,0.0,0.0,0.0,0.0,0.0,0.0,359.8938680120511,0.0
0.001,0.0,0.0,10.0,0.0,0.0,1.0999999999999999,6.115472199294103,359.8938680120511,0.0
0.002,0.5307369851907212,-0.2913212625381807,10.0,0.0,0.14204533887919985,1.9316189316290207,13.317801563642547,359.8938680120511,0.0
0.003,1.0842913387634832,-0.6024330830807904,10.0,0.0,0.384357124667687,2.6386968949419622,20.697939467553027,359.8938680120511,0.0
0.004,1.5590443546685477,-0.8700465084428163,10.0,0.0,0.6994718867930164,3.2526109522886295,28.232747544420146,359.8938680120511,0.0
0.005,1.9399447555359186,-1.0838738622210777,10.0,0.0,1.065311453102468,3.7994935661768023,35.92944872443006,359.8938680120511,0.0
0.006,2.239750732602683,-1.2510087368845633,10.0,0.0,1.4655018868449925,4.299102221838433,43.75633668444442,359.8938680120511,0.0
0.007,2.4770151619816017,-1.382020589851471,10.0,0.0,1.8883740978591532,4.765668027847139,51.58766747378032,359.8938680120511,0.0
0.008,2.6680767290418097,-1.4872241871505252,10.0,0.0,2.325877945545995,5.209220346273558,59.45942083902103,359.8938680120511,0.0
0.009000000000000001,2.8266491704841292,-1.5730794701170803,10.0,0.0,2.772378685460125,5.636635464737965,67.35059094018146,359.8938680120511,0.0
0.01,2.962077666392183,-1.645500646948331,10.0,0.0,3.224078639851053,6.052647735211881,75.20908322432116,359.8938680120511,0.0
0.011,3.0811061533574158,-1.7084279320504514,10.0,0.0,3.678407615443203,6.460489925470405,83.0265951655913,359.8938680120511,0.0
0.012,3.188848746459569,-1.7638278597420747,10.0,0.0,4.133552631697047,6.862319393890706,90.74118064793086,359.8938680120511,0.0
0.013000000000000001,3.288205119878689,-1.8140726097274587,10.0,0.0,4.588339016389012,7.259628641949282,98.35820682563939,359.8938680120511,0.0
0.014,3.3820602099432007,-1.8592355758795645,10.0,0.0,5.041843166194517,7.653355107498287,105.90865295623543,359.8938680120511,0.0
0.015,3.4721069852858886,-1.899829032412081,10.0,0.0,5.493383198131427,8.044092747085895,113.37727610343421,359.8938680120511,0.0
0.016,3.5596145800153947,-1.9360338400176071,10.0,0.0,5.94241958510469,8.43218525824161,120.68508583176356,359.8938680120511,0.0
0.017,3.645144415105338,-1.9685384477868613,10.0,0.0,6.388575043274759,8.817838951066484,127.83962377537456,359.8938680120511,0.0
0.018000000000000002,3.730251927866576,-1.9959253041084188,10.0,0.0,6.83136783302799,9.201036292373047,134.85405702603322,359.8938680120511,0.0
0.019,3.81544967906247,-2.018253592643655,10.0,0.0,7.270383321112213,9.581672501020332,141.68976328564074,359.8938680120511,0.0
0.02,3.9014648862453374,-2.0350875541282063,10.0,0.0,7.705189334130692,9.959536942333155,148.3432823300447,359.8938680120511,0.0
0.021,3.9891051824829464,-2.0457889559126508,10.0,0.0,8.135310004560049,10.334315260302239,154.92060212100432,359.8938680120511,0.0
0.022,4.079618141396171,-2.0489696811670974,10.0,0.0,8.560139305503519,10.705547790999272,161.01925282597162,359.8938680120511,0.0
0.023,4.171109372430197,-2.048468292080302,10.0,0.0,8.979521969370257,11.072981092896333,166.534238406907,359.8938680120511,0.0
0.024,4.266936196769627,-2.039517194249811,10.0,0.0,9.392730090169543,11.435983292623375,171.8647834235234,359.8938680120511,0.0
0.025,4.367255527950721,-2.0225841458509217,10.0,0.0,9.79914449451603,11.793929226271104,177.02637022703064,359.8938680120511,0.0
0.026000000000000002,4.4734353073349595,-1.9962166741499119,10.0,0.0,10.197980960389518,12.146045424568259,181.63161391243256,359.8938680120511,0.0
0.027,4.582366840795821,-1.966358349113627,10.0,0.0,10.589124658468391,12.491912978736195,185.74793639675826,359.8938680120511,0.0
0.028,4.700058850757774,-1.9240450691803936,10.0,0.0,10.971384864613876,12.830451341534015,189.43662766964098,359.8938680120511,0.0
0.029,4.820934284790598,-1.879137197786803,10.0,0.0,11.344756153370636,13.161242511022618,192.73598774770625,359.8938680120511,0.0
0.03,4.952016225740939,-1.821000614527957,10.0,0.0,11.707923484756042,13.483081433273819,195.59831968863915,359.8938680120511,0.0
0.031,5.086039273572549,-1.7621311371320891,10.0,0.0,12.061063698547066,13.79562148058647,197.80891551030922,359.8938680120511,0.0
0.032,5.230431844273564,-1.6911110488141978,10.0,0.0,12.40292038074925,14.097678592248165,200.4421589734679,359.8938680120511,0.0
0.033,5.380124186618445,-1.6166151787533525,10.0,0.0,12.733312761073865,14.38869342901298,201.91742172589852,359.8938680120511,0.0
0.034,5.537594793894332,-1.535029134414507,10.0,0.0,13.051537880865839,14.667821176756876,203.18880493813168,359.8938680120511,0.0
0.035,5.698947813469154,-1.4530296333491768,10.0,0.0,13.357649178779205,14.934684535625108,203.60405746232266,359.8938680120511,0.0
0.036000000000000004,5.870474243492053,-1.3603000477825025,10.0,0.0,13.65045542338638,15.188218311291084,204.28541056101804,359.8938680120511,0.0
0.037,6.041188711220851,-1.275010780747051,10.0,0.0,13.930879897581198,15.42861600670124,205.2233356988433,359.8938680120511,0.0
0.038,6.228175208801664,-1.168399557236846,10.0,0.0,14.196427351981786,15.654155009933262,200.35169734043586,359.8938680120511,0.0
0.039,6.404895489618571,-1.0845312562500289,10.0,0.0,14.449814560392067,15.86612549236809,209.64773540576442,359.8938680120511,0.0
0.04,6.534612624563911,-1.0851225869390002,10.0,0.0,14.699963825590459,16.069735965364643,218.170241886545,359.8938680120511,0.0
0.041,6.621487035821765,-1.1484636683301073,10.0,0.0,14.952420817214799,16.26974130369247,220.68166573712315,359.8938680120511,0.0
0.042,6.6704785161669795,-1.2647840534085386,10.0,0.0,15.211794475054209,16.47047148862455,233.10654395573727,359.8938680120511,0.0
0.043000000000000003,6.709376245503157,-1.3867642159960276,10.0,0.0,15.477558399636717,16.673277185423842,235.10815372853793,359.8938680120511,0.0
0.044,6.744196093263161,-1.5028656568708394,10.0,0.0,15.74857785831126,16.87893749904121,248.8181267625822,359.8938680120511,0.0
0.045,6.750563942850831,-1.6564343609015326,10.0,0.0,16.02879294551472,17.090781462187255,251.61117095327992,359.8938680120511,0.0
0.046,6.764566527560506,-1.7840489455190416,10.0,0.0,16.314672837580048,17.307985931916857,266.60539535969383,359.8938680120511,0.0
0.047,6.752169677737121,-1.9446655565152717,10.0,0.0,16.610076868775216,17.533561623207692,270.0627790167984,359.8938680120511,0.0
0.048,6.7291903821171735,-2.110358990489937,10.0,0.0,16.91511817760721,17.768523902508925,283.13731951482634,359.8938680120511,0.0
0.049,6.714097190323873,-2.246352557911731,10.0,0.0,17.22645394156277,18.011924542904307,294.70561782835244,359.8938680120511,0.0
0.05,6.666841209228205,-2.4219663531358275,10.0,0.0,17.548953774962747,18.267165921658286,300.1294548425776,359.8938680120511,0.0
0.051000000000000004,6.612335516543512,-2.59336894353628,10.0,0.0,17.88182590988993,18.53465621226123,310.75154600411304,359.8938680120511,0.0
0.052000000000000005,6.568447424188529,-2.726701034625408,10.0,0.0,18.22111236450049,18.81296732052879,322.35703405819294,359.8938680120511,0.0
0.053,6.5036136539679195,-2.8764091099274185,10.0,0.0,18.569435851849082,19.104068797231378,330.9557012510771,359.8938680120511,0.0
0.054,6.434362099984388,-3.0149932598739144,10.0,0.0,18.925784313874168,19.407861808234543,339.4707232587175,359.8938680120511,0.0
0.055,6.370891759459199,-3.1253006473392393,10.0,0.0,19.28762520191878,19.723199586257838,348.00092263299223,359.8938680120511,0.0
0.056,6.314459991163816,-3.2071523724558277,10.0,0.0,19.65271639484943,20.048760466390505,356.29964302226927,359.8938680120511,0.0
0.057,6.266092078485367,-3.262894600420583,7.530107032344592,0.0,20.019167684325243,20.111342304072547,361.7604981529777,359.8938680120511,0.0
0.058,6.103080549219189,-3.2202321628885717,4.781013165581122,0.0,20.349981738213515,19.94405728035904,360.9527841060231,359.8938680120511,0.0
0.059000000000000004,5.814753039122904,-3.062868729851581,5.1742810281186875,0.0,20.614102531082857,19.927418478770406,356.27701558538763,359.8938680120511,0.0
0.06,5.604086169035343,-2.8627962087882532,7.548333812703058,0.0,20.829713021519808,20.216358844915135,358.51996914273604,359.8938680120511,0.0
0.061,5.604510998252071,-2.7007310353566836,6.440596022722001,0.0,21.03683005566069,20.35022113883062,362.42890598858907,359.8938680120511,0.0
0.062,5.611764928145005,-2.5305289969520333,4.460777220030112,0.0,21.21952004328884,20.283912532376288,353.49309242051515,359.8938680120511,0.0
0.063,5.551571222603521,-2.3068315501453993,8.992691759982426,0.0,21.354405472744055,20.76750641966037,347.38118393309344,359.8938680120511,0.0
0.064,5.798735270426671,-2.135312562761644,10.0,0.0,21.507531633838017,21.25392423984802,352.0816935505586,359.8938680120511,0.0
0.065,6.136458825372609,-2.0340856116280266,9.858164323475542,0.0,21.684567186090483,21.6466599367426,343.47471191745814,359.8938680120511,0.0
0.066,6.4830386262600594,-1.918581982429985,10.0,0.0,21.871479623106715,22.000099357807763,341.12932642897204,359.8938680120511,0.0
0.067,6.866257442596219,-1.7277400593099832,10.0,0.0,22.05520718327661,22.296779451914663,335.758192202209,359.8938680120511,0.0
0.068,7.200474722906695,-1.5854407461585127,10.0,0.0,22.236485491624766,22.549232579957092,330.3603598306457,359.8938680120511,0.0
0.069,7.577399906123756,-1.3518047983151478,10.0,0.0,22.40060432081107,22.756448628679312,320.7043234839949,359.8938680120511,0.0
0.07,7.907329922759999,-1.180099699538467,10.0,0.0,22.55248167056397,22.926831905450126,321.0766080064065,359.8938680120511,0.0
0.07100000000000001,8.26568983314173,-0.9568290873963363,10.0,0.0,22.6833668966708,23.059244299543522,316.59472690190347,359.8938680120511,0.0
0.07200000000000001,8.565080993673625,-0.8294789122390468,10.0,0.0,22.80262902643041,23.162154548283564,330.6369917789468,359.8938680120511,0.0
0.073,8.657617706555813,-1.0184992772457266,10.0,0.0,22.942321709990352,23.25951485831384,338.5214801206463,359.8938680120511,0.0
0.074,8.69941001910007,-1.2408726569627226,10.0,0.0,23.100352024316145,23.357436618446048,349.0361326872335,359.8938680120511,0.0
0.075,8.658003897409964,-1.5516906238974737,10.0,0.0,23.28433772578823,23.466341830508966,361.84328923975374,359.8938680120511,0.0
0.076,8.61304464792622,-1.8167119254617448,5.648617386760384,0.0,23.486859541822124,23.108634460282754,370.1576344329898,359.8938680120511,0.0
0.077,8.2694363533174,-2.0305960150973448,1.3888071259329582,0.0,23.65423547607427,22.419232026036045,374.97648428818013,359.8938680120511,0.0
0.078,7.688007504905734,-2.0783717829952986,-1.1714439644234869,0.0,23.739050067048964,21.636999001687506,380.8136017007645,359.8938680120511,0.0
0.079,6.963714171920854,-2.0783071304260363,-4.299200007602795,0.0,23.736675027029726,20.69687806316935,381.9074693421634,359.8938680120511,0.0
0.08,6.138967116978481,-1.9967206341195207,-5.0662698416033685,0.0,23.631551529092572,19.880910835906604,382.38692128098586,359.8938680120511,0.0
0.081,5.364552932081209,-1.9051793089936178,-5.530926343703956,0.0,23.446089977422083,19.169524554474656,381.24727621810894,359.8938680120511,0.0
0.082,4.684877648313045,-1.8184491143965458,-5.1746378943260725,0.0,23.19941104462102,18.621589179836953,378.8756581611243,359.8938680120511,0.0
0.083,4.144478701694025,-1.750104144084653,-4.178646767324489,0.0,22.915955822847963,18.262422720149708,376.0571082572934,359.8938680120511,0.0
0.084,3.7688176593750873,-1.706454971185799,-2.931004217861463,0.0,22.620811517967724,18.0740268786137,372.7683287487847,359.8938680120511,0.0
0.085,3.5487226124780404,-1.6915961275641747,-1.41535907097445,0.0,22.33514407835252,18.04965457614169,368.7870360234832,359.8938680120511,0.0
0.08600000000000001,3.474416507144917,-1.7024017420363895,0.4863556115619785,0.0,22.076943358479802,18.199157644683176,364.8505708491627,359.8938680120511,0.0
0.08700000000000001,3.5458782899232473,-1.7347138137221052,2.4050211703511213,0.0,21.862959289189213,18.49132254186573,360.44747515583947,359.8938680120511,0.0
0.088,3.7424151961136873,-1.7819241467339566,4.601032945574849,0.0,21.70446013246038,18.93434274023453,357.74399858925534,359.8938680120511,0.0
0.089,4.067567784874419,-1.8275173386840233,5.974269923094871,0.0,21.610656059025697,19.412505537166755,360.3099739207076,359.8938680120511,0.0
0.09,4.447818166578112,-1.867513297139836,4.687121198282181,0.0,21.57799229613834,19.639576901457893,355.54540374672325,359.8938680120511,0.0
0.091,4.712615582366382,-1.8519923609039675,7.112890927927629,0.0,21.569194783398338,20.095055698620634,344.9120629706791,359.8938680120511,0.0
0.092,5.093243980447042,-1.7981285968533107,10.0,0.0,21.601055096965393,20.758210015793615,349.86719347997933,359.8938680120511,0.0
0.093,5.611762817672914,-1.7813155480780338,10.0,0.0,21.694734013168265,21.276133053771247,346.7717334592761,359.8938680120511,0.0
0.094,6.086269170318051,-1.7721731161697942,10.0,0.0,21.829999804526462,21.704621169152688,336.838802054764,359.8938680120511,0.0
0.095,6.563923950447818,-1.6477304786304572,10.0,0.0,21.98099056247673,22.05599008984398,338.03055926147107,359.8938680120511,0.0
0.096,6.9723744181180205,-1.535362591129262,10.0,0.0,22.140903095451375,22.347168190618753,327.1797858705548,359.8938680120511,0.0
0.097,7.3809376452061315,-1.3511861261946523,10.0,0.0,22.294806452938236,22.58436228431053,324.7004537147552,359.8938680120511,0.0
0.098,7.74299969520537,-1.194673496819211,10.0,0.0,22.44166425946363,22.77748611115276,318.77999222818056,359.8938680120511,0.0
0.099,8.128819078092937,-0.9695553582959753,10.0,0.0,22.56995079907691,22.927163824345683,309.2860280824177,359.8938680120511,0.0
0.1,8.47500649816962,-0.7911034470117277,10.0,0.0,22.68299792719212,23.04047999780107,324.6547366707032,359.8938680120511,0.0
0.101,8.59976904160667,-0.9570879186030541,10.0,0.0,22.81611477082923,23.143507261145146,336.05458533266017,359.8938680120511,0.0
0.10200000000000001,8.664165513468655,-1.1667764957828424,10.0,0.0,22.967628555210904,23.243707496048067,343.21957939220675,359.8938680120511,0.0
0.10300000000000001,8.63842838645815,-1.4718781313325777,10.0,0.0,23.14547527878337,23.35251413458864,359.3455973681875,359.8938680120511,0.0
0.10400000000000001,8.602042041318557,-1.7407821135930137,6.249908976585017,0.0,23.342946415545804,23.059459895752006,364.45700410413184,359.8938680120511,0.0
0.105,8.30441814687943,-1.9631722811486734,3.6485742476920384,0.0,23.51313889335685,22.599187049468107,372.1886633300679,359.8938680120511,0.0
0.106,7.855161093530396,-2.069060792988535,-0.34020331845617147,0.0,23.62970867338523,21.835650587530335,379.2626317159267,359.8938680120511,0.0
0.107,7.177926516929594,-2.101578511330319,-4.0708751484243235,0.0,23.660785893116195,20.85964185704676,379.91790155603627,359.8938680120511,0.0
0.108,6.3479416850941375,-2.0193391463753425,-4.598750403918952,0.0,23.581783010497226,20.0481081475158,381.10627341835675,359.8938680120511,0.0
0.109,5.566577096792048,-1.9319539266709698,-5.405060389142249,0.0,23.42073706466915,19.304062431251303,380.47891184774693,359.8938680120511,0.0
0.11,4.860505792020786,-1.843502841846437,-5.297230042194297,0.0,23.19253537466375,18.708095327688767,378.3947784642564,359.8938680120511,0.0
0.111,4.2800110497258785,-1.7684972234959946,-4.440172454971073,0.0,22.920191036132348,18.29889650521175,375.6987095234126,359.8938680120511,0.0
0.112,3.8594665639451953,-1.7171322053844917,-3.250186399662809,0.0,22.629261153397625,18.0661659673539,372.64866858103863,359.8938680120511,0.0
0.113,3.597798849239995,-1.6945782799589417,-1.8527139341656929,0.0,22.342183923534893,17.99401560941973,368.84135622595807,359.8938680120511,0.0
0.114,3.481457250044571,-1.699131155823498,-0.038532638764478655,0.0,22.07732573646437,18.096138680896303,364.925120913739,359.8938680120511,0.0
0.115,3.512900822932239,-1.7246502834413755,1.8692724883281642,0.0,21.851927250527876,18.34865816853475,360.8614364541113,359.8938680120511,0.0
0.116,3.6736386310288793,-1.7690362758474725,3.891439033721423,0.0,21.678947829837373,18.739379404376294,357.2272464497094,359.8938680120511,0.0
0.117,3.9561544788728744,-1.8151214842177585,5.735200251545783,0.0,21.566963987796743,19.226853277889493,357.9760502150434,359.8938680120511,0.0
0.11800000000000001,4.329923577467295,-1.85754094106337,5.379976546848859,0.0,21.51913120548081,19.55857971778546,358.55793893384424,359.8938680120511,0.0
0.11900000000000001,4.642443537702157,-1.8710414899216916,5.102391478230514,0.0,21.510315211192026,19.794728610319293,347.4615844744366,359.8938680120511,0.0
0.12,4.919169875070475,-1.7963450585743177,10.0,0.0,21.517644092648716,20.520579104743536,347.4621728406357,359.8938680120511,0.0
0.121,5.4406116842347885,-1.7776017126769432,10.0,0.0,21.59551033166692,21.07101001701893,349.03226807926666,359.8938680120511,0.0
0.122,5.930634097040522,-1.7782095053736529,10.0,0.0,21.72088732866645,21.52549641465162,337.22437601060057,359.8938680120511,0.0
0.123,6.4040618728590974,-1.6966315468046516,10.0,0.0,21.870195612359744,21.899895041009007,338.7096185092991,359.8938680120511,0.0
0.124,6.838137155297722,-1.5709808301321764,10.0,0.0,22.029007131071165,22.208770629789925,327.651898831047,359.8938680120511,0.0
0.125,7.235402185483088,-1.4234631143817071,10.0,0.0,22.187854615223706,22.463281411067882,327.89835556785255,359.8938680120511,0.0
0.126,7.6195736819995235,-1.242404044860535,10.0,0.0,22.337827108598958,22.669939648318344,316.3207047642971,359.8938680120511,0.0
0.127,7.994498660270023,-1.040774985402869,10.0,0.0,22.47309957051661,22.833529278536695,310.7888423851016,359.8938680120511,0.0
0.128,8.336668668316284,-0.8730650402758036,10.0,0.0,22.594771945894923,22.960397740822593,322.0723664484654,359.8938680120511,0.0
0.129,8.561113266695596,-0.8868700036831085,10.0,0.0,22.72015957539008,23.065479388676483,329.57468600632194,359.8938680120511,0.0
0.13,8.641512359953504,-1.0852413469560447,10.0,0.0,22.865199404847047,23.165992180419902,340.3892602512716,359.8938680120511,0.0
0.131,8.632545950032137,-1.3797582775877002,10.0,0.0,23.036199679469426,23.272747971958626,353.18645988335686,359.8938680120511,0.0
0.132,8.613120346447635,-1.6370444288383523,8.994124497381103,0.0,23.226131813114684,23.2773290588127,363.3521969713292,359.8938680120511,0.0
0.133,8.46992303089218,-1.9355146320344274,3.8766726638021565,0.0,23.427787702919886,22.763141752353665,369.48429784191075,359.8938680120511,0.0
0.134,8.049125679452311,-2.0510640067019477,0.7147179302127826,0.0,23.567585002280136,22.06875399866484,376.89177557255033,359.8938680120511,0.0
0.135,7.414508927076593,-2.1029575233764852,-3.1590000107120018,0.0,23.628516589423,21.128895193362016,378.46057512232767,359.8938680120511,0.0
0.136,6.6113933061247545,-2.039367892631828,-4.129066856703437,0.0,23.58185534277264,20.303141804434905,380.41196011359773,359.8938680120511,0.0
0.137,5.823588503534583,-1.9608703953900573,-5.309940273353934,0.0,23.449286053505457,19.513729594439223,380.2893656821302,359.8938680120511,0.0
0.138,5.084301423502509,-1.8701589055961543,-5.452598034320967,0.0,23.241839183260506,18.859561587754143,378.57073470633634,359.8938680120511,0.0
0.139,4.455211986742811,-1.7876741007258745,-4.780051213366883,0.0,22.981553985733758,18.387279389870947,376.0365720402498,359.8938680120511,0.0
0.14,3.979116239493087,-1.7276975776372576,-3.6743969206055906,0.0,22.694296518680318,18.097173033847476,373.2315397677892,359.8938680120511,0.0
0.14100000000000001,3.6654298080306047,-1.6953751761033926,-2.4052575019326676,0.0,22.403798463792025,17.965644909835785,369.63961870196204,359.8938680120511,0.0
0.14200000000000002,3.4982832105943995,-1.6905506882750787,-0.706754475918209,0.0,22.128989932345636,18.007612992814657,365.70342336400614,359.8938680120511,0.0
0.14300000000000002,3.4793072961315645,-1.7088919315650737,1.203247639540188,0.0,21.88792484398194,18.21143450140783,361.81923848309265,359.8938680120511,0.0
0.14400000000000002,3.5967859664371242,-1.7495164338764904,3.126086375286519,0.0,21.695633698135296,18.55006717720459,357.59776776272685,359.8938680120511,0.0
