timestamp,iq,id,iq_ref,id_ref,vq,vd,omega,omega_ref,r
0.0,0.0,0.0,0.0,0.0,0.0,0.0,0.0,167.80802105625799,0.0
0.001,0.0,0.0,10.0,0.0,0.0,1.0999999999999999,6.115472199294103,167.80802105625799,0.0
0.002,0.5307369851907212,-0.2913212625381807,10.0,0.0,0.14204533887919985,1.9316189316290207,13.317801563642547,167.80802105625799,0.0
0.003,1.0842913387634832,-0.6024330830807904,10.0,0.0,0.384357124667687,2.6386968949419622,20.697939467553027,167.80802105625799,0.0
0.004,1.5590443546685477,-0.8700465084428163,10.0,0.0,0.6994718867930164,3.2526109522886295,28.232747544420146,167.80802105625799,0.0
0.005,1.9399447555359186,-1.0838738622210777,10.0,0.0,1.065311453102468,3.7994935661768023,35.92944872443006,167.80802105625799,0.0
0.006,2.239750732602683,-1.2510087368845633,10.0,0.0,1.4655018868449925,4.299102221838433,43.75633668444442,167.80802105625799,0.0
0.007,2.4770151619816017,-1.382020589851471,10.0,0.0,1.8883740978591532,4.765668027847139,51.58766747378032,167.80802105625799,0.0
0.008,2.6680767290418097,-1.4872241871505252,10.0,0.0,2.325877945545995,5.209220346273558,59.45942083902103,167.80802105625799,0.0
0.009000000000000001,2.8266491704841292,-1.5730794701170803,10.0,0.0,2.772378685460125,5.636635464737965,67.35059094018146,167.80802105625799,0.0
0.01,2.962077666392183,-1.645500646948331,10.0,0.0,3.224078639851053,6.052647735211881,75.20908322432116,167.80802105625799,0.0
0.011,3.0811061533574158,-1.7084279320504514,10.0,0.0,3.678407615443203,6.460489925470405,83.0265951655913,167.80802105625799,0.0
0.012,3.188848746459569,-1.7638278597420747,10.0,0.0,4.133552631697047,6.862319393890706,90.74118064793086,167.80802105625799,0.0
0.013000000000000001,3.288205119878689,-1.8140726097274587,10.0,0.0,4.588339016389012,7.259628641949282,98.35820682563939,167.80802105625799,0.0
0.014,3.3820602099432007,-1.8592355758795645,10.0,0.0,5.041843166194517,7.653355107498287,105.90865295623543,167.80802105625799,0.0
0.015,3.4721069852858886,-1.899829032412081,10.0,0.0,5.493383198131427,8.044092747085895,113.37727610343421,167.80802105625799,0.0
0.016,3.5596145800153947,-1.9360338400176071,10.0,0.0,5.94241958510469,8.43218525824161,120.68508583176356,167.80802105625799,0.0
0.017,3.645144415105338,-1.9685384477868613,10.0,0.0,6.388575043274759,8.817838951066484,127.83962377537456,167.80802105625799,0.0
0.018000000000000002,3.730251927866576,-1.9959253041084188,10.0,0.0,6.83136783302799,9.201036292373047,134.85405702603322,167.80802105625799,0.0
0.019,3.81544967906247,-2.018253592643655,10.0,0.0,7.270383321112213,9.581672501020332,141.68976328564074,167.80802105625799,0.0
0.02,3.9014648862453374,-2.0350875541282063,10.0,0.0,7.705189334130692,9.959536942333155,148.3432823300447,167.80802105625799,0.0
0.021,3.9891051824829464,-2.0457889559126508,10.0,0.0,8.135310004560049,10.334315260302239,154.92060212100432,167.80802105625799,0.0
0.022,4.079618141396171,-2.0489696811670974,9.727084638715223,0.0,8.560139305503519,10.675527101257948,160.81476111039726,167.80802105625799,0.0
0.023,4.1569048659152665,-2.0407332780023246,6.849937743477363,0.0,8.975669048847546,10.703747273241143,164.30993650631586,167.80802105625799,0.0
0.024,4.08866712252628,-1.9416741794926282,5.137330891017481,0.0,9.341653698251074,10.619362136560197,167.04385173887238,167.80802105625799,0.0
0.025,3.937020460736094,-1.7752681882273889,3.77801496791308,0.0,9.64528730099207,10.463614050833842,166.17972687504817,167.80802105625799,0.0
0.026000000000000002,3.7236458738399634,-1.6041756370750733,4.226360341637279,0.0,9.885826614172235,10.438670022235597,163.4289793491769,167.80802105625799,0.0
0.027,3.5957564931443047,-1.4327940516404483,5.645524521643727,0.0,10.082676544288269,10.603833019886224,169.7304574366118,167.80802105625799,0.0
0.028,3.584963008971432,-1.347723229698608,2.4755611141227387,0.0,10.268713806598509,10.409185483608079,165.36718917781718,167.80802105625799,0.0
0.029,3.4502029360920083,-1.2078530184943321,4.681603562304456,0.0,10.402147574036853,10.541686403738979,166.67292993849856,167.80802105625799,0.0
0.03,3.4649280627752406,-1.1030137526862622,4.040084093141363,0.0,10.525354439617612,10.578685677846915,167.6473711319382,167.80802105625799,0.0
0.031,3.4641649558357956,-1.0377589067311173,3.554469995664739,0.0,10.633810905654098,10.577534548101506,162.95999553467706,167.80802105625799,0.0
0.032,3.4738022534918205,-0.9350681387143487,5.946638049511117,0.0,10.72066317609011,10.854271071020598,167.82150004755331,167.80802105625799,0.0
0.033,3.6088535750706816,-0.9232118619209833,3.515751003160038,0.0,10.826226589007323,10.805940640657186,162.29716493551754,167.80802105625799,0.0
0.034,3.641160004705266,-0.8452735266394897,6.333027120385328,0.0,10.907945963483442,11.105005643936112,166.76800361917824,167.80802105625799,0.0
0.035,3.8079848056576866,-0.8385142923611266,4.1080079529257745,0.0,11.011435768422038,11.091383550933534,161.54409426083527,167.80802105625799,0.0
0.036000000000000004,3.874059773030402,-0.7708831466965922,6.782601900051491,0.0,11.0958425498862,11.400328175182022,165.55545126996174,167.80802105625799,0.0
0.037,4.058364066941083,-0.7763740637367647,4.799449093351218,0.0,11.203983427959862,11.422313544287347,161.92697457731117,167.80802105625799,0.0
0.038,4.158654372075227,-0.7092740939109086,6.67249790446597,0.0,11.296072849285444,11.669592470953475,162.87707702003271,167.80802105625799,0.0
0.039,4.322667029804451,-0.7086013646362772,6.24675612346745,0.0,11.404278220623127,11.818751873765693,164.19040812438905,167.80802105625799,0.0
0.04,4.483915333139413,-0.6670681892473205,5.626266700607971,0.0,11.512017073108224,11.883722267936347,158.91947759471478,167.80802105625799,0.0
0.041,4.591252038047746,-0.6142076356329567,8.350617400060539,0.0,11.610079750618189,12.24865842460026,162.48217084317994,167.80802105625799,0.0
0.042,4.825637218805735,-0.6397071098790439,6.622529277958737,0.0,11.738163323746763,12.344865030088755,168.65579526091034,167.80802105625799,0.0
0.043000000000000003,4.931608491470995,-0.6868031689301441,3.5272393270470164,0.0,11.867984771864485,12.111745330776385,167.28362203404325,167.80802105625799,0.0
0.044,4.823856007638381,-0.6675443920825019,4.218569930702709,0.0,11.958922679195448,12.034831498066511,170.54459442551112,167.80802105625799,0.0
0.045,4.708599837680215,-0.6939297686888599,2.5607180012762405,0.0,12.036170391717505,11.797026474944325,173.41264526651585,167.80802105625799,0.0
0.046,4.538588802299556,-0.6573495680952448,1.0706463386712963,0.0,12.077625154843776,11.460946013986579,171.95393097051917,167.80802105625799,0.0
0.047,4.2819990893841355,-0.6241864236641987,1.7585443875270275,0.0,12.078044251680163,11.279713335504292,173.6334750432649,167.80802105625799,0.0
0.048,4.094458294209355,-0.6092155605378,0.8605178112840948,0.0,12.058983007485093,11.029047521018674,174.61226086178138,167.80802105625799,0.0
0.049,3.8892813077389805,-0.6076698952695874,0.303082503970618,0.0,12.016740991712725,10.769898606080048,174.72200072522386,167.80802105625799,0.0
0.05,3.689092730270584,-0.5919417052891813,0.17907277555971657,0.0,11.951093641778574,10.544342637662801,175.2685120204618,167.80802105625799,0.0
0.051000000000000004,3.5016229978877735,-0.5994890908005557,-0.1687877817012886,0.0,11.870442924302164,10.316372751866693,174.96915011411062,167.80802105625799,0.0
0.052000000000000005,3.3279072642340606,-0.6020807672282911,-0.090718119104225,0.0,11.775269900545723,10.132435084738919,175.38212683192637,167.80802105625799,0.0
0.053,3.1779648787234063,-0.6236655478892712,-0.3729475357687848,0.0,11.673568821560583,9.940304454558843,175.09402152354332,167.80802105625799,0.0
0.054,3.0371770728905183,-0.6422768223910398,-0.30175488625011226,0.0,11.564656179844528,9.781857499898468,175.192349809545,167.80802105625799,0.0
0.055,2.9150942597884333,-0.6707153230616756,-0.42476231678381904,0.0,11.453732229162796,9.626142464061534,174.91383527312595,167.80802105625799,0.0
0.056,2.8020476682236928,-0.6993752502762869,-0.3565631907429796,0.0,11.341197376952445,9.494852811851047,174.8211797401088,167.80802105625799,0.0
0.057,2.704044151944958,-0.731952419892808,-0.38036701107290494,0.0,11.230083934127752,9.371788149018888,174.6179212819277,167.80802105625799,0.0
0.058,2.6147407983876536,-0.7651463749046219,-0.34683678423905384,0.0,11.121100932657441,9.262688305071014,174.38817416459827,167.80802105625799,0.0
0.059000000000000004,2.534839741430784,-0.7985676920954622,-0.2977647566577444,0.0,11.015450652280254,9.166558848866188,174.14713748929697,167.80802105625799,0.0
0.06,2.4637502288485638,-0.8319297839906404,-0.24063758333748275,0.0,10.914088071256863,9.082291414848013,173.88460534552956,167.80802105625799,0.0
0.061,2.400694748519073,-0.8645119422781607,-0.1701373543464979,0.0,10.81768542142667,9.009723427295548,173.61704395170125,167.80802105625799,0.0
0.062,2.345255066956995,-0.8959097478809274,-0.09444688638677246,0.0,10.726794174857678,8.9478607328695,173.358377763937,167.80802105625799,0.0
0.063,2.296817765899984,-0.9255649603416642,-0.02061735958143851,0.0,10.641753878817635,8.895233232798802,173.13659191981708,167.80802105625799,0.0
0.064,2.2545564732237113,-0.9527207245947331,0.036989853842931186,0.0,10.562645444317756,8.849127320523612,173.00640030895522,167.80802105625799,0.0
0.065,2.217516322303041,-0.9754265403958298,0.050101866746887325,0.0,10.489063344135932,8.804239208985656,172.8925702012417,167.80802105625799,0.0
0.066,2.1815855414768706,-0.9942366000709182,0.056171429153805796,0.0,10.420192691224747,8.760600214700705,172.49064780347035,167.80802105625799,0.0
0.067,2.1459707918228674,-1.0089848007750164,0.21030636056736096,0.0,10.355279405656887,8.734890516038236,171.95882297010587,167.80802105625799,0.0
0.068,2.11927552579199,-1.0231578722808814,0.43471075811112314,0.0,10.29569803463817,8.730983924867765,171.44720920722835,167.80802105625799,0.0
0.069,2.1054687848596187,-1.0401732973482067,0.6541257580401778,0.0,10.243414107646625,8.74465325057147,170.69858349752678,167.80802105625799,0.0
0.07,2.105723156699537,-1.0560767231207986,0.9995329884782755,0.0,10.199304728508912,8.787361848042844,170.3362191104244,167.80802105625799,0.0
0.07100000000000001,2.1249165248318658,-1.0737133488257153,1.1554332014878055,0.0,10.165658141601927,8.832974872203817,170.0053027365591,167.80802105625799,0.0
0.07200000000000001,2.1502366905449937,-1.0896734845334861,1.298918571617448,0.0,10.141516764472541,8.882293039295035,171.01144857036073,167.80802105625799,0.0
0.073,2.1802176632808035,-1.0988676340341235,0.7638113795756007,0.0,10.125573096853211,8.860923901794491,171.72551312197018,167.80802105625799,0.0
0.074,2.1690958627757877,-1.0979503511201019,0.36760418311375176,0.0,10.108894039630208,8.803388799374593,169.18017717175084,167.80802105625799,0.0
0.075,2.1345774664774306,-1.0704414819967916,1.6265505970684933,0.0,10.08511257511309,8.89607128456179,167.58974802687072,167.80802105625799,0.0
0.076,2.170232749885634,-1.065312006024011,2.423947899802425,0.0,10.072688351900634,9.047964348801857,169.2366197733182,167.80802105625799,0.0
0.077,2.2574046603921523,-1.08130260127751,1.586226039408079,0.0,10.078506117671042,9.074069949304317,170.6456881696143,167.80802105625799,0.0
0.078,2.2918204427678406,-1.0820223595687257,0.8533151701264767,0.0,10.086271934374155,9.02298977236028,167.45192817523207,167.80802105625799,0.0
0.079,2.276467599307598,-1.0475042690984395,2.4537560961278455,0.0,10.084348964177908,9.163204775938311,165.4263364118254,167.80802105625799,0.0
0.08,2.3469838544639803,-1.0350265731624608,3.490368824275512,0.0,10.095612425710835,9.379318656473336,168.66213301955776,167.80802105625799,0.0
0.081,2.4754592773446853,-1.0590365529502417,1.86392940077633,0.0,10.130126803879987,9.372245897276448,168.75974208431995,167.80802105625799,0.0
0.082,2.5071338086398343,-1.0466890777142832,1.8056076581146128,0.0,10.158884146238702,9.376981410144712,164.52387696237994,167.80802105625799,0.0
0.083,2.5262458667311347,-1.0016478846236199,3.956381660023397,0.0,10.180408249160756,9.619501882521512,166.52114758900012,167.80802105625799,0.0
0.084,2.6601639428649615,-1.0010234561847924,2.970615081385887,0.0,10.224413713830922,9.695440786489817,168.43578573025064,167.80802105625799,0.0
0.085,2.7359469292264333,-0.9972534283508889,2.0070183640206998,0.0,10.271204063653565,9.665051425666089,163.4509853991327,167.80802105625799,0.0
0.08600000000000001,2.7540630212320645,-0.9435430999318535,4.542988886150929,0.0,10.304406006563807,9.92973782025797,165.61800193962023,167.80802105625799,0.0
0.08700000000000001,2.902091028919574,-0.9395089777790264,3.481380807073538,0.0,10.3608497444896,10.0130372558363,166.1748333827474,167.80802105625799,0.0
0.088,2.9877794357415572,-0.9349568667988228,3.219296962245054,0.0,10.419518661194349,10.067492534835473,161.55001726809365,167.80802105625799,0.0
0.089,3.061010398259651,-0.8854424764177965,5.594285057453574,0.0,10.47236515229643,10.37904018471766,166.3561615329407,167.80802105625799,0.0
0.09,3.2444662703213814,-0.9028753771500699,3.20573152026323,0.0,10.553494522260888,10.358779112377203,161.66845450295992,167.80802105625799,0.0
0.091,3.3012236850681504,-0.8620764630621425,5.610980700786596,0.0,10.619822638437853,10.632711272595179,165.1771150294212,167.80802105625799,0.0
0.092,3.472285668986513,-0.8528063142426959,3.882959497824322,0.0,10.706299431789658,10.65349896019442,160.9364009825067,167.80802105625799,0.0
0.093,3.5431388066276224,-0.8173637017090759,6.072032722019079,0.0,10.782401328675707,10.932850599758625,164.50674790958985,167.80802105625799,0.0
0.094,3.7246838655738816,-0.8080856937330494,4.319871989944192,0.0,10.87816204507754,10.957987427177153,159.93352893620988,167.80802105625799,0.0
0.095,3.808191957454879,-0.7640076441866337,6.685226397834656,0.0,10.962104567210703,11.260526796165262,163.96175017144506,167.80802105625799,0.0
0.096,4.000885511003739,-0.7676873897140486,4.709578489065196,0.0,11.068752326532836,11.279870456452768,159.75153255226763,167.80802105625799,0.0
0.097,4.0979010202832145,-0.7074931483205836,6.895252183693813,0.0,11.160011511942955,11.559380341655327,161.9249627364449,167.80802105625799,0.0
0.098,4.27753054371583,-0.7145859771718314,5.8673676748033055,0.0,11.271477920919889,11.666352031469605,161.96240440303038,167.80802105625799,0.0
0.099,4.423751516905751,-0.6626509283059461,5.907103008042849,0.0,11.376711074316795,11.774134913128846,157.4706183984793,167.80802105625799,0.0
0.1,4.539149647009262,-0.6287439452505716,8.256370036896172,0.0,11.478988782892504,12.128453257223825,161.22227748647916,167.80802105625799,0.0
0.101,4.775936818456889,-0.6467002628550914,6.446397928594033,0.0,11.608784819787191,12.210085328006913,166.05828997996278,167.80802105625799,0.0
0.10200000000000001,4.884761344022719,-0.6701549537617384,4.045888992615175,0.0,11.736164912894402,12.04097470742874,164.77780558031398,167.80802105625799,0.0
0.10300000000000001,4.803407174983224,-0.6687224757605036,4.716433347199015,0.0,11.833503815143876,12.009315330433118,169.7940093975686,167.80802105625799,0.0
0.10400000000000001,4.7235259949404,-0.7022257099315155,2.1884715551585976,0.0,11.92164257000766,11.713747928806034,170.59142608025135,167.80802105625799,0.0
0.105,4.532532672326383,-0.6569127311147471,1.761929163577288,0.0,11.966091249210802,11.455121551361614,170.4779816574706,167.80802105625799,0.0
0.106,4.306756566483129,-0.6366776388370262,1.7919517689555415,0.0,11.978459692386805,11.257296028505992,173.2256326955374,167.80802105625799,0.0
0.107,4.122884329551073,-0.6140392263475598,0.3639501335293449,0.0,11.967520864508586,10.94107768130696,172.352012629602,167.80802105625799,0.0
0.108,3.8826425929455626,-0.5961160729452173,0.7553202507636039,0.0,11.924308921948924,10.737305883947323,173.26408504955722,167.80802105625799,0.0
0.109,3.6979519510217584,-0.5870311809044756,0.24472340085300015,0.0,11.864220887318808,10.50742427065074,173.65024837281476,167.80802105625799,0.0
0.11,3.5133609410575892,-0.5942145216517912,-0.00678053394133471,0.0,11.788034511224652,10.29042065556935,173.57174241341073,167.80802105625799,0.0
0.111,3.3454417234097176,-0.5983540762193744,-0.025164767810848865,0.0,11.698149928826735,10.104616741850611,173.92237617095083,167.80802105625799,0.0
0.112,3.1958485362280022,-0.6189634151069535,-0.2616251977278248,0.0,11.60089904502869,9.917354014725285,173.68596622619043,167.80802105625799,0.0
0.113,3.0570104749729676,-0.6374193003014323,-0.2021996770469512,0.0,11.49647103088044,9.761770138372993,173.86612856935304,167.80802105625799,0.0
0.114,2.936209119569027,-0.6660246469532805,-0.352861923759205,0.0,11.389889459791542,9.606034514377834,173.6335376631685,167.80802105625799,0.0
0.115,2.823128550030158,-0.6937664925202922,-0.2948216367360472,0.0,11.281158032957869,9.474336198808201,173.58739573522743,167.80802105625799,0.0
0.116,2.724145260524823,-0.7257847297102489,-0.3295444195552024,0.0,11.173374504885828,9.35029201928203,173.40537526646904,167.80802105625799,0.0
0.117,2.6335833100152923,-0.7581125781716642,-0.29450772727811536,0.0,11.067200792627228,9.241047150540933,173.22180829729155,167.80802105625799,0.0
0.11800000000000001,2.552685480399088,-0.791175566084271,-0.25686211509970525,0.0,10.964033614906153,9.143893189617629,173.0133240496535,167.80802105625799,0.0
0.11900000000000001,2.4803509964298422,-0.8241959924232933,-0.20467302121464037,0.0,10.864769375883018,9.058650066160574,172.78631854545438,167.80802105625799,0.0
0.12,2.4160162834162873,-0.8566244998897815,-0.1409532440070409,0.0,10.770144179974414,8.9848455892927,172.55128543451374,167.80802105625799,0.0
0.121,2.359185786843518,-0.8880008364916842,-0.0708693323192815,0.0,10.68072816792143,8.921639080527195,172.3200760362675,167.80802105625799,0.0
0.122,2.3092730727348285,-0.9177987983993594,-0.00038518299625156516,0.0,10.596897118641024,8.867786132327831,172.1156796434355,167.80802105625799,0.0
0.123,2.265544316811014,-0.9453465611464765,0.058736427547970926,0.0,10.51879615375182,8.821044945697524,172.02946719885182,167.80802105625799,0.0
0.124,2.2273808792945005,-0.9686614715616462,0.05962818841387252,0.0,10.446120329206707,8.774435349398715,171.92883031780087,167.80802105625799,0.0
0.125,2.189764775678455,-0.9881672694712045,0.06873853632391613,0.0,10.377963616152124,8.72996848795932,171.63529695826668,167.80802105625799,0.0
0.126,2.1532255923894335,-1.0029811812415268,0.1772324570709265,0.0,10.313610360574703,8.698619018287111,171.1338614369653,167.80802105625799,0.0
0.127,2.1227514780500645,-1.017191465475793,0.39469181391454056,0.0,10.253972475735868,8.68979152081415,170.63766696047838,167.80802105625799,0.0
0.128,2.1053941944975842,-1.0331512419153368,0.6144925931157967,0.0,10.20102910219962,8.699491036795678,169.98696744494458,167.80802105625799,0.0
0.129,2.101582869809693,-1.04998541534821,0.9180528869958313,0.0,10.156042178928377,8.734365561240367,169.48445804636862,167.80802105625799,0.0
0.13,2.115562120651718,-1.0668469887086987,1.1525432163827085,0.0,10.120727831764048,8.782436443367715,169.02809512141246,167.80802105625799,0.0
0.131,2.139980622442434,-1.084817687957055,1.3685239382092402,0.0,10.095560168712602,8.841035535984387,170.1123175957282,167.80802105625799,0.0
0.132,2.1740806033741733,-1.0979820552043034,0.8033697356566694,0.0,10.080037554632689,8.823424370650617,171.1600919463137,167.80802105625799,0.0
0.133,2.1662448158362073,-1.0992864546032262,0.2459618514633557,0.0,10.06431792568879,8.751561671644984,168.64646947064102,167.80802105625799,0.0
0.134,2.1244456242026164,-1.0709555284685932,1.4943886051558704,0.0,10.039854543869922,8.83273385459795,166.94608854872234,167.80802105625799,0.0
0.135,2.151075616567841,-1.064348142825264,2.353198391190566,0.0,10.02551121536882,8.981979998924116,168.3365998082729,167.80802105625799,0.0
0.136,2.2344480451151894,-1.078876366001405,1.6526569738951422,0.0,10.02919101255625,9.020314874988152,170.034184945907,167.80802105625799,0.0
