timestamp,iq,id,iq_ref,id_ref,vq,vd,omega,omega_ref,r
0.0,0.0,0.0,0.0,0.0,0.0,0.0,0.0,166.22598328889578,0.0
0.001,0.0,0.0,10.0,0.0,0.0,1.0999999999999999,6.115472199294103,166.22598328889578,0.0
0.002,0.5307369851907212,-0.2913212625381807,10.0,0.0,0.14204533887919985,1.9316189316290207,13.317801563642547,166.22598328889578,0.0
0.003,1.0842913387634832,-0.6024330830807904,10.0,0.0,0.384357124667687,2.6386968949419622,20.697939467553027,166.22598328889578,0.0
0.004,1.5590443546685477,-0.8700465084428163,10.0,0.0,0.6994718867930164,3.2526109522886295,28.232747544420146,166.22598328889578,0.0
0.005,1.9399447555359186,-1.0838738622210777,10.0,0.0,1.065311453102468,3.7994935661768023,35.92944872443006,166.22598328889578,0.0
0.006,2.239750732602683,-1.2510087368845633,10.0,0.0,1.4655018868449925,4.299102221838433,43.75633668444442,166.22598328889578,0.0
0.007,2.4770151619816017,-1.382020589851471,10.0,0.0,1.8883740978591532,4.765668027847139,51.58766747378032,166.22598328889578,0.0
0.008,2.6680767290418097,-1.4872241871505252,10.0,0.0,2.325877945545995,5.209220346273558,59.45942083902103,166.22598328889578,0.0
0.009000000000000001,2.8266491704841292,-1.5730794701170803,10.0,0.0,2.772378685460125,5.636635464737965,67.35059094018146,166.22598328889578,0.0
0.01,2.962077666392183,-1.645500646948331,10.0,0.0,3.224078639851053,6.052647735211881,75.20908322432116,166.22598328889578,0.0
0.011,3.0811061533574158,-1.7084279320504514,10.0,0.0,3.678407615443203,6.460489925470405,83.0265951655913,166.22598328889578,0.0
0.012,3.188848746459569,-1.7638278597420747,10.0,0.0,4.133552631697047,6.862319393890706,90.74118064793086,166.22598328889578,0.0
0.013000000000000001,3.288205119878689,-1.8140726097274587,10.0,0.0,4.588339016389012,7.259628641949282,98.35820682563939,166.22598328889578,0.0
0.014,3.3820602099432007,-1.8592355758795645,10.0,0.0,5.041843166194517,7.653355107498287,105.90865295623543,166.22598328889578,0.0
0.015,3.4721069852858886,-1.899829032412081,10.0,0.0,5.493383198131427,8.044092747085895,113.37727610343421,166.22598328889578,0.0
0.016,3.5596145800153947,-1.9360338400176071,10.0,0.0,5.94241958510469,8.43218525824161,120.68508583176356,166.22598328889578,0.0
0.017,3.645144415105338,-1.9685384477868613,10.0,0.0,6.388575043274759,8.817838951066484,127.83962377537456,166.22598328889578,0.0
0.018000000000000002,3.730251927866576,-1.9959253041084188,10.0,0.0,6.83136783302799,9.201036292373047,134.85405702603322,166.22598328889578,0.0
0.019,3.81544967906247,-2.018253592643655,10.0,0.0,7.270383321112213,9.581672501020332,141.68976328564074,166.22598328889578,0.0
0.02,3.9014648862453374,-2.0350875541282063,10.0,0.0,7.705189334130692,9.959536942333155,148.3432823300447,166.22598328889578,0.0
0.021,3.9891051824829464,-2.0457889559126508,10.0,0.0,8.135310004560049,10.334315260302239,154.92060212100432,166.22598328889578,0.0
0.022,4.079618141396171,-2.0489696811670974,8.925715180988053,0.0,8.560139305503519,10.58737646090796,160.38624945436996,166.22598328889578,0.0
0.023,4.116292853186762,-2.0161908228497705,6.251288852650492,0.0,8.96415431474577,10.571041334912605,164.42540663998244,166.22598328889578,0.0
0.024,4.01579552942633,-1.8980523612367262,4.249716026333385,0.0,9.313466868269995,10.414733927561063,165.42404308678667,166.22598328889578,0.0
0.025,3.8089328602296444,-1.732748896542715,3.7584172049523623,0.0,9.595215429206434,10.296711294582382,160.5187309745082,166.22598328889578,0.0
0.026000000000000002,3.6195546706027453,-1.5429614906572837,6.268145784235471,0.0,9.817763290750902,10.518411887097162,166.79974234753374,166.22598328889578,0.0
0.027,3.6125641484691946,-1.4467330645489827,3.121902507136324,0.0,10.031539172579341,10.367888335779588,167.2656112547051,166.22598328889578,0.0
0.028,3.484338089883553,-1.3182904965457882,2.878571773892546,0.0,10.195718712873912,10.272525741113881,161.9125834739628,166.22598328889578,0.0
0.029,3.3779513255488296,-1.161853115902169,5.5982196624130305,0.0,10.318020353481693,10.515132218504855,167.5703159142647,166.22598328889578,0.0
0.03,3.443332629938566,-1.105152631772251,2.7559101160083848,0.0,10.447679798319934,10.397601872101577,163.23587387055613,166.22598328889578,0.0
0.031,3.3905455194954333,-1.009888564873648,4.95303223204607,0.0,10.542708221516474,10.581357428243287,165.33144420684735,166.22598328889578,0.0
0.032,3.474223235807899,-0.9424504357176113,3.9141924547209457,0.0,10.640143804469357,10.610264254525532,163.44431091100458,166.22598328889578,0.0
0.033,3.505859441488564,-0.8947103198944741,4.885575826421244,0.0,10.726149480306193,10.76062131967338,163.74701347070413,166.22598328889578,0.0
0.034,3.6133231239543737,-0.8353218227599137,4.7590142447533825,0.0,10.812534961547552,10.869402995175221,162.67752364078996,166.22598328889578,0.0
0.035,3.699725261254488,-0.8121532441377499,5.329243756191529,0.0,10.899205403537874,11.031506315047539,163.33865962519053,166.22598328889578,0.0
0.036000000000000004,3.8370352738692164,-0.7650350973062026,5.027549000628294,0.0,10.988467822951147,11.132937548890704,160.39247727006236,166.22598328889578,0.0
0.037,3.9364245981022314,-0.7413385617052295,6.558975238380715,0.0,11.076811686359616,11.39506600945979,163.51559671562256,166.22598328889578,0.0
0.038,4.125649446688742,-0.7271091002060401,5.024519381333344,0.0,11.181205734075244,11.435890763557893,159.1370360528414,166.22598328889578,0.0
0.039,4.229511507205541,-0.674527947884515,7.284689185084465,0.0,11.273601220288747,11.737503105829866,161.75132566773266,166.22598328889578,0.0
0.04,4.426614476962403,-0.6864196201841444,6.022290953850472,0.0,11.388752287584266,11.836085552954648,161.88888788709704,166.22598328889578,0.0
0.041,4.575933911088393,-0.6346568916167041,5.996880798186267,0.0,11.496433675997302,11.931699619229496,156.94705497125332,166.22598328889578,0.0
0.042,4.691533641787698,-0.5920845970602295,8.56058653928455,0.0,11.598743007080978,12.299559374759951,165.68843050247807,166.22598328889578,0.0
0.043000000000000003,4.890182372807034,-0.6896185466430507,4.1952743015363545,0.0,11.73876183800901,12.114347321177313,167.50432830434943,166.22598328889578,0.0
0.044,4.845805029527987,-0.6836392299699166,3.274541950446139,0.0,11.844624516156097,11.910898914874185,166.99715039477817,166.22598328889578,0.0
0.045,4.6906251118436835,-0.6762138163929912,3.520419234172942,0.0,11.918799083531438,11.791261459249412,172.63479471210064,166.22598328889578,0.0
0.046,4.551917194876028,-0.678646644347924,0.637508961279659,0.0,11.973934313817576,11.385132374758724,170.3099414257546,166.22598328889578,0.0
0.047,4.284984977749547,-0.612556000171373,1.7590960230840915,0.0,11.975648813487059,11.205308865987371,172.4908535959825,166.22598328889578,0.0
0.048,4.080519111366173,-0.6092418110808975,0.6059912348992822,0.0,11.95950585795428,10.925403683872636,172.4376752059084,166.22598328889578,0.0
0.049,3.8693944765693873,-0.5777565194910206,0.5704635107662037,0.0,11.913556439579319,10.70067677380712,172.98424977311015,166.22598328889578,0.0
0.05,3.672538349958364,-0.5822412837426016,0.2295935623231804,0.0,11.850537449018875,10.476230123402498,173.0903995579158,166.22598328889578,0.0
0.051000000000000004,3.4969804323596962,-0.5787056381654709,0.10787450723016168,0.0,11.770941923818013,10.275288652076242,173.56775515523657,166.22598328889578,0.0
0.052000000000000005,3.333900312770513,-0.5962732825679726,-0.20422101009363658,0.0,11.681179601344656,10.069551692986659,173.24824892130658,166.22598328889578,0.0
0.053,3.181473329220963,-0.6078027983278185,-0.11469054945275214,0.0,11.580912385499238,9.903517670396992,173.5562071385586,166.22598328889578,0.0
0.054,3.0496113014031985,-0.6344217355923036,-0.34197189657538374,0.0,11.476881276920887,9.731144628916308,173.2701627670629,166.22598328889578,0.0
0.055,2.9250343083656833,-0.6583810187769665,-0.2693915056092169,0.0,11.368385306829971,9.588247286159312,173.3258621163822,166.22598328889578,0.0
0.056,2.8166537767272626,-0.6893155887508695,-0.36823996854372965,0.0,11.259612409337734,9.447867034386318,173.10301053967908,166.22598328889578,0.0
0.057,2.7155190647275464,-0.7198549759567033,-0.32558445269999536,0.0,11.150728763310319,9.326369122417143,172.95561881954814,166.22598328889578,0.0
0.058,2.625827621526053,-0.7524094287635325,-0.3191849479410487,0.0,11.043859286625421,9.215264739039352,172.7506413209456,166.22598328889578,0.0
0.059000000000000004,2.544632148547155,-0.7851993672532525,-0.281942778960274,0.0,10.939847667977036,9.116651077466809,172.52078027414777,166.22598328889578,0.0
0.06,2.471852709137294,-0.817825823921691,-0.22996022541388283,0.0,10.83963685588487,9.030037062992278,172.2755160072539,166.22598328889578,0.0
0.061,2.4070686922928046,-0.849911150140563,-0.16782341915053678,0.0,10.743988844871854,8.954777039368283,172.01990126169335,166.22598328889578,0.0
0.062,2.3497743070080874,-0.8809595773706578,-0.09795522609823015,0.0,10.653474106330863,8.890196892391376,171.76755360833488,166.22598328889578,0.0
0.063,2.2994463362056266,-0.9104976438952339,-0.027197102613385926,0.0,10.568491529991684,8.835071130846298,171.5395855223939,166.22598328889578,0.0
0.064,2.2553746273114776,-0.9378767976724847,0.03365091802211895,0.0,10.489210961382167,8.787289997127196,171.42409444528943,166.22598328889578,0.0
0.065,2.216981222150652,-0.9611945064359994,0.03941534501042243,0.0,10.415371492687902,8.740167084160161,171.30088330959254,166.22598328889578,0.0
0.066,2.1794720232211877,-0.9808287278463169,0.05027191265190023,0.0,10.346130266833864,8.695251171621717,171.00493736742217,166.22598328889578,0.0
0.067,2.1431889271383224,-0.9957940810870828,0.15045534295181762,0.0,10.280771418953766,8.662430387988108,170.51742867063783,166.22598328889578,0.0
0.068,2.112348602956961,-1.010174451630782,0.3512952375265699,0.0,10.22009856472571,8.650475956729192,169.9771762815077,166.22598328889578,0.0
0.069,2.0939485423962636,-1.0253014690854663,0.5839095021655165,0.0,10.165817721009155,8.658944456757766,169.36126574606809,166.22598328889578,0.0
0.07,2.0892484138995666,-1.0424998885430785,0.8605119453135988,0.0,10.119552367632897,8.689571162040759,168.75729694793006,166.22598328889578,0.0
0.07100000000000001,2.101172709457082,-1.058975694660388,1.137183207792269,0.0,10.082616574600896,8.738817802102702,168.42838136219868,166.22598328889578,0.0
0.07200000000000001,2.126332366431688,-1.0768178573092995,1.2796170199249302,0.0,10.056096904708495,8.789698886253422,169.3347991072157,166.22598328889578,0.0
0.073,2.1570989867002486,-1.0889107411326462,0.795319989233219,0.0,10.03846910581449,8.775010151842626,170.39797503270256,166.22598328889578,0.0
0.074,2.15003018445926,-1.0911594041684036,0.2220121090517213,0.0,10.021261637464498,8.702891848919654,167.9076937446707,166.22598328889578,0.0
0.075,2.1086370432358588,-1.063835451859737,1.4503356485099053,0.0,9.995534964272904,8.78159585510836,166.19945449134107,166.22598328889578,0.0
0.076,2.134344790810594,-1.0577728044734709,2.304720563150264,0.0,9.97985770732993,8.928314114929435,167.51221086082361,166.22598328889578,0.0
0.077,2.216516154044276,-1.0722906416079685,1.6354801026897143,0.0,9.982077590622021,8.967850750797085,169.22368222034274,166.22598328889578,0.0
0.078,2.256418466930827,-1.0764221021752318,0.7497674336156828,0.0,9.988338431462726,8.909352181628462,166.3976475354833,166.22598328889578,0.0
0.079,2.237068512231564,-1.045898674818492,2.1610681335795334,0.0,9.984724439687582,9.023957275293315,164.03856330896795,166.22598328889578,0.0
0.08,2.292314810834976,-1.0316772105123688,3.362484446636479,0.0,9.991673229656332,9.238512655457427,166.8548546245581,166.22598328889578,0.0
0.081,2.416771763775429,-1.0530175211441661,1.9480500754847814,0.0,10.02187232745717,9.25156763080733,168.04081955688548,166.22598328889578,0.0
0.082,2.457307954284162,-1.0454235426455618,1.3369192466411945,0.0,10.04930827227176,9.210042559514495,163.7380607053642,166.22598328889578,0.0
0.083,2.454198600325253,-0.9959400555836446,3.5131778982371475,0.0,10.064480871683777,9.421660740636959,164.22336382365822,166.22598328889578,0.0
0.084,2.566864213714437,-0.986355764105423,3.2905525337425168,0.0,10.098738592074854,9.554958675965612,167.0488601621716,166.22598328889578,0.0
0.085,2.66593629567531,-0.9925408695223097,1.869575595753071,0.0,10.143676538470332,9.514500107384809,162.62370921809625,166.22598328889578,0.0
0.08600000000000001,2.681162203276618,-0.9505586185135892,4.118173808498737,0.0,10.175394934703053,9.743452634067017,163.3519557043195,166.22598328889578,0.0
0.08700000000000001,2.813669500967695,-0.9371921274577222,3.782790841232879,0.0,10.22578625247466,9.878880095507569,165.5084574090189,166.22598328889578,0.0
0.088,2.9196249954079447,-0.9424678957771779,2.7117152476819504,0.0,10.285395184038862,9.881009425551767,160.87862396822476,166.22598328889578,0.0
0.089,2.9669475923208157,-0.8947189350165272,5.080105561285725,0.0,10.333951012084198,10.155974475463875,163.9605727124795,166.22598328889578,0.0
0.09,3.1284445310836104,-0.8963158155768637,3.561785294922523,0.0,10.405800908785457,10.200308033458537,161.4517458238205,166.22598328889578,0.0
0.091,3.20403842977795,-0.8758951719483117,4.863941113902777,0.0,10.472636932011309,10.39911320860657,162.38758961437713,166.22598328889578,0.0
0.092,3.3485649921871703,-0.8487336042405877,4.43440315536964,0.0,10.54988630441782,10.509308752055869,161.92485683236757,166.22598328889578,0.0
0.093,3.447913235053376,-0.8396493205836177,4.708780810939706,0.0,10.629702638403415,10.641203559007737,160.8050790084613,166.22598328889578,0.0
0.094,3.5724847215228226,-0.7931555428805721,5.322878765697188,0.0,10.709703346974871,10.819988136047622,161.38890506318995,166.22598328889578,0.0
0.095,3.7014198766298025,-0.792688850835631,5.079336520589916,0.0,10.79999604404526,10.943026547534215,160.5047913547213,166.22598328889578,0.0
0.096,3.833942792399796,-0.7454133606537012,5.578605294165984,0.0,10.888367675557708,11.106857205939999,159.5682395507808,166.22598328889578,0.0
0.097,3.960763809588663,-0.7397425291760289,6.113458633517393,0.0,10.984134173198761,11.304358058516268,161.3476434817354,166.22598328889578,0.0
0.098,4.130078237915652,-0.7101512924631166,5.272540066111697,0.0,11.086875778609693,11.376479522846795,157.00059751195647,166.22598328889578,0.0
0.099,4.2371132611742635,-0.6688138595719073,7.538316908770549,0.0,11.182304164661684,11.699226931376714,160.46642469780176,166.22598328889578,0.0
0.1,4.449049392286217,-0.6829223157516875,5.862998901758846,0.0,11.302429757470154,11.77005706427124,159.84950198719298,166.22598328889578,0.0
0.101,4.588350736316832,-0.62553991884864,6.235225070080262,0.0,11.411172656066094,11.890311015210383,157.6421910050824,166.22598328889578,0.0
0.10200000000000001,4.704929359442909,-0.5990448364890921,7.424718483973688,0.0,11.518726024805838,12.125105239656703,164.2577483210258,166.22598328889578,0.0
0.10300000000000001,4.82835330206134,-0.6835552319903515,4.136622175680692,0.0,11.648564573444974,11.961179003024435,166.6087039701549,166.22598328889578,0.0
0.10400000000000001,4.77100055331589,-0.6758487935661268,2.957317144303549,0.0,11.747333831375288,11.73732969633894,165.84098251797602,166.22598328889578,0.0
0.105,4.602191040699403,-0.6638863371842881,3.345027878102184,0.0,11.81260242702626,11.618178996047007,171.1248163992679,166.22598328889578,0.0
0.106,4.460460781327486,-0.6658704360239507,0.6541226063525207,0.0,11.859766968519127,11.231495771523656,168.86717780713886,166.22598328889578,0.0
0.107,4.2032458792643075,-0.6055538679942111,1.7565299572346107,0.0,11.856892069938704,11.063247521549684,171.17187784266324,166.22598328889578,0.0
0.108,4.009448513905825,-0.6061449321042786,0.5547209939347475,0.0,11.838148018951335,10.787059108412068,170.89747715756226,166.22598328889578,0.0
0.109,3.8041979637103296,-0.5769380328160529,0.6452063977985683,0.0,11.790440862186129,10.579226202415411,171.648926698525,166.22598328889578,0.0
0.11,3.618636725195878,-0.5846909484662348,0.21525219322090638,0.0,11.72786602021218,10.357565285534355,171.54269864539717,166.22598328889578,0.0
0.111,3.4479673489394984,-0.5825969527602451,0.21519906621981022,0.0,11.649074702063361,10.17302469322272,172.15372711779884,166.22598328889578,0.0
0.112,3.2947413106344845,-0.6031060365190972,-0.14959260827005538,0.0,11.561985395668795,9.97408064585448,171.8163391080986,166.22598328889578,0.0
0.113,3.1488146552879,-0.6154720765429736,-0.03680216161195915,0.0,11.464865788741903,9.816896610165974,172.179457919391,166.22598328889578,0.0
0.114,3.0227114159220387,-0.6434285659983572,-0.27789631356312317,0.0,11.364691292378698,9.650482845949197,171.9140790508808,166.22598328889578,0.0
0.115,2.9026092284575626,-0.6671366094190759,-0.20208783692786092,0.0,11.260221189111862,9.513393090694604,172.01649849637167,166.22598328889578,0.0
0.116,2.7976001702616804,-0.6982004065992775,-0.3112027117480598,0.0,11.155669057901868,9.377154554169111,171.81570946166198,166.22598328889578,0.0
0.117,2.6990222002630797,-0.727860949560898,-0.2667054561208788,0.0,11.050900307914295,9.259863991160246,171.70239372660745,166.22598328889578,0.0
0.11800000000000001,2.611355533869442,-0.7598228314014516,-0.26481169297073226,0.0,10.948098578197444,9.152246504447074,171.5127939827997,166.22598328889578,0.0
0.11900000000000001,2.531845867642458,-0.7917043813160612,-0.22287992800589773,0.0,10.848002624453159,9.057573546569197,171.31347304632732,166.22598328889578,0.0
0.12,2.46081427489295,-0.823665960841484,-0.17409435734401857,0.0,10.751645928544164,8.974323762768007,171.09448362793714,166.22598328889578,0.0
0.121,2.3975785011111923,-0.8550442550127563,-0.11328465153934175,0.0,10.659731920409538,8.902210118876434,170.869138564357,166.22598328889578,0.0
0.122,2.3416722069368614,-0.8854263326653974,-0.0470436725038863,0.0,10.572826194299292,8.840312183817765,170.6479759150504,166.22598328889578,0.0
0.123,2.292487016320663,-0.9142664009319729,0.019317725887863624,0.0,10.491289834027,8.787402121712718,170.45545065634013,166.22598328889578,0.0
0.124,2.2492858419410315,-0.9408959603321583,0.07328568156855786,0.0,10.415256954422787,8.741162568207502,170.38542153711057,166.22598328889578,0.0
0.125,2.2114229751196497,-0.9632937800025593,0.0667058587011895,0.0,10.344400871998225,8.694413125626724,170.28134108805247,166.22598328889578,0.0
0.126,2.1736748758450997,-0.9819981011473957,0.07819250523867405,0.0,10.27778895068726,8.650356010661353,169.9919722560279,166.22598328889578,0.0
0.127,2.1372744862138267,-0.9961261578460232,0.18521703157963465,0.0,10.214799553036258,8.619327808360248,169.50344480798762,166.22598328889578,0.0
0.128,2.1070076496848436,-1.0097948286738931,0.3967061404088601,0.0,10.156368548144322,8.610262391353832,169.02136126472743,166.22598328889578,0.0
0.129,2.089522744975096,-1.025404917975811,0.6097941322806375,0.0,10.104454525155875,8.61920587472925,168.36963220472194,166.22598328889578,0.0
0.13,2.085353915444313,-1.0417120046089468,0.9142221731251228,0.0,10.060263931440435,8.653703534243741,167.87997869111206,166.22598328889578,0.0
0.131,2.0989907067312643,-1.0583779055263318,1.1425089759079001,0.0,10.025612341282574,8.700857900996038,167.4457333192118,166.22598328889578,0.0
0.132,2.1229555149481723,-1.0759802175927553,1.3474341615548702,0.0,10.000910942133864,8.757590813459661,168.56016500206118,166.22598328889578,0.0
0.133,2.1558738534279183,-1.0889810035781822,0.7668765029985234,0.0,9.985607037484115,8.736888331313779,169.50763372383238,166.22598328889578,0.0
0.134,2.1460928501698495,-1.0898685444348253,0.26032563776355655,0.0,9.969730896719131,8.668215782070417,167.0474279651442,166.22598328889578,0.0
0.135,2.105393165808354,-1.0622808303033766,1.48221407034516,0.0,9.94553159114328,8.748675265158399,165.41814983427275,166.22598328889578,0.0
0.136,2.131973342010714,-1.056220019142556,2.3049314703271175,0.0,9.93140735234744,8.893618082826324,166.8059186806467,166.22598328889578,0.0
0.137,2.2129965430948246,-1.0705858915028301,1.6052476932226363,0.0,9.934830673269214,8.928815055009332,168.4676483170594,166.22598328889578,0.0
