timestamp,iq,id,iq_ref,id_ref,vq,vd,omega,omega_ref,r
0.0,0.0,0.0,0.0,0.0,0.0,0.0,0.0,461.13191215734435,0.0
0.001,0.0,0.0,10.0,0.0,0.0,1.0999999999999999,6.115472199294103,461.13191215734435,0.0
0.002,0.5307369851907212,-0.2913212625381807,10.0,0.0,0.14204533887919985,1.9316189316290207,13.317801563642547,461.13191215734435,0.0
0.003,1.0842913387634832,-0.6024330830807904,10.0,0.0,0.384357124667687,2.6386968949419622,20.697939467553027,461.13191215734435,0.0
0.004,1.5590443546685477,-0.8700465084428163,10.0,0.0,0.6994718867930164,3.2526109522886295,28.232747544420146,461.13191215734435,0.0
0.005,1.9399447555359186,-1.0838738622210777,10.0,0.0,1.065311453102468,3.7994935661768023,35.92944872443006,461.13191215734435,0.0
0.006,2.239750732602683,-1.2510087368845633,10.0,0.0,1.4655018868449925,4.299102221838433,43.75633668444442,461.13191215734435,0.0
0.007,2.4770151619816017,-1.382020589851471,10.0,0.0,1.8883740978591532,4.765668027847139,51.58766747378032,461.13191215734435,0.0
0.008,2.6680767290418097,-1.4872241871505252,10.0,0.0,2.325877945545995,5.209220346273558,59.45942083902103,461.13191215734435,0.0
0.009000000000000001,2.8266491704841292,-1.5730794701170803,10.0,0.0,2.772378685460125,5.636635464737965,67.35059094018146,461.13191215734435,0.0
0.01,2.962077666392183,-1.645500646948331,10.0,0.0,3.224078639851053,6.052647735211881,75.20908322432116,461.13191215734435,0.0
0.011,3.0811061533574158,-1.7084279320504514,10.0,0.0,3.678407615443203,6.460489925470405,83.0265951655913,461.13191215734435,0.0
0.012,3.188848746459569,-1.7638278597420747,10.0,0.0,4.133552631697047,6.862319393890706,90.74118064793086,461.13191215734435,0.0
0.013000000000000001,3.288205119878689,-1.8140726097274587,10.0,0.0,4.588339016389012,7.259628641949282,98.35820682563939,461.13191215734435,0.0
0.014,3.3820602099432007,-1.8592355758795645,10.0,0.0,5.041843166194517,7.653355107498287,105.90865295623543,461.13191215734435,0.0
0.015,3.4721069852858886,-1.899829032412081,10.0,0.0,5.493383198131427,8.044092747085895,113.37727610343421,461.13191215734435,0.0
0.016,3.5596145800153947,-1.9360338400176071,10.0,0.0,5.94241958510469,8.43218525824161,120.68508583176356,461.13191215734435,0.0
0.017,3.645144415105338,-1.9685384477868613,10.0,0.0,6.388575043274759,8.817838951066484,127.83962377537456,461.13191215734435,0.0
0.018000000000000002,3.730251927866576,-1.9959253041084188,10.0,0.0,6.83136783302799,9.201036292373047,134.85405702603322,461.13191215734435,0.0
0.019,3.81544967906247,-2.018253592643655,10.0,0.0,7.270383321112213,9.581672501020332,141.68976328564074,461.13191215734435,0.0
0.02,3.9014648862453374,-2.0350875541282063,10.0,0.0,7.705189334130692,9.959536942333155,148.3432823300447,461.13191215734435,0.0
0.021,3.9891051824829464,-2.0457889559126508,10.0,0.0,8.135310004560049,10.334315260302239,154.92060212100432,461.13191215734435,0.0
0.022,4.079618141396171,-2.0489696811670974,10.0,0.0,8.560139305503519,10.705547790999272,161.01925282597162,461.13191215734435,0.0
0.023,4.171109372430197,-2.048468292080302,10.0,0.0,8.979521969370257,11.072981092896333,166.534238406907,461.13191215734435,0.0
0.024,4.266936196769627,-2.039517194249811,10.0,0.0,9.392730090169543,11.435983292623375,171.8647834235234,461.13191215734435,0.0
0.025,4.367255527950721,-2.0225841458509217,10.0,0.0,9.79914449451603,11.793929226271104,177.02637022703064,461.13191215734435,0.0
0.026000000000000002,4.4734353073349595,-1.9962166741499119,10.0,0.0,10.197980960389518,12.146045424568259,181.63161391243256,461.13191215734435,0.0
0.027,4.582366840795821,-1.966358349113627,10.0,0.0,10.589124658468391,12.491912978736195,185.74793639675826,461.13191215734435,0.0
0.028,4.700058850757774,-1.9240450691803936,10.0,0.0,10.971384864613876,12.830451341534015,189.43662766964098,461.13191215734435,0.0
0.029,4.820934284790598,-1.879137197786803,10.0,0.0,11.344756153370636,13.161242511022618,192.73598774770625,461.13191215734435,0.0
0.03,4.952016225740939,-1.821000614527957,10.0,0.0,11.707923484756042,13.483081433273819,195.59831968863915,461.13191215734435,0.0
0.031,5.086039273572549,-1.7621311371320891,10.0,0.0,12.061063698547066,13.79562148058647,197.80891551030922,461.13191215734435,0.0
0.032,5.230431844273564,-1.6911110488141978,10.0,0.0,12.40292038074925,14.097678592248165,200.4421589734679,461.13191215734435,0.0
0.033,5.380124186618445,-1.6166151787533525,10.0,0.0,12.733312761073865,14.38869342901298,201.91742172589852,461.13191215734435,0.0
0.034,5.537594793894332,-1.535029134414507,10.0,0.0,13.051537880865839,14.667821176756876,203.18880493813168,461.13191215734435,0.0
0.035,5.698947813469154,-1.4530296333491768,10.0,0.0,13.357649178779205,14.934684535625108,203.60405746232266,461.13191215734435,0.0
0.036000000000000004,5.870474243492053,-1.3603000477825025,10.0,0.0,13.65045542338638,15.188218311291084,204.28541056101804,461.13191215734435,0.0
0.037,6.041188711220851,-1.275010780747051,10.0,0.0,13.930879897581198,15.42861600670124,205.2233356988433,461.13191215734435,0.0
0.038,6.228175208801664,-1.168399557236846,10.0,0.0,14.196427351981786,15.654155009933262,200.35169734043586,461.13191215734435,0.0
0.039,6.404895489618571,-1.0845312562500289,10.0,0.0,14.449814560392067,15.86612549236809,209.64773540576442,461.13191215734435,0.0
0.04,6.534612624563911,-1.0851225869390002,10.0,0.0,14.699963825590459,16.069735965364643,218.170241886545,461.13191215734435,0.0
0.041,6.621487035821765,-1.1484636683301073,10.0,0.0,14.952420817214799,16.26974130369247,220.68166573712315,461.13191215734435,0.0
0.042,6.6704785161669795,-1.2647840534085386,10.0,0.0,15.211794475054209,16.47047148862455,233.10654395573727,461.13191215734435,0.0
0.043000000000000003,6.709376245503157,-1.3867642159960276,10.0,0.0,15.477558399636717,16.673277185423842,235.10815372853793,461.13191215734435,0.0
0.044,6.744196093263161,-1.5028656568708394,10.0,0.0,15.74857785831126,16.87893749904121,248.8181267625822,461.13191215734435,0.0
0.045,6.750563942850831,-1.6564343609015326,10.0,0.0,16.02879294551472,17.090781462187255,251.61117095327992,461.13191215734435,0.0
0.046,6.764566527560506,-1.7840489455190416,10.0,0.0,16.314672837580048,17.307985931916857,266.60539535969383,461.13191215734435,0.0
0.047,6.752169677737121,-1.9446655565152717,10.0,0.0,16.610076868775216,17.533561623207692,270.0627790167984,461.13191215734435,0.0
0.048,6.7291903821171735,-2.110358990489937,10.0,0.0,16.91511817760721,17.768523902508925,283.13731951482634,461.13191215734435,0.0
0.049,6.714097190323873,-2.246352557911731,10.0,0.0,17.22645394156277,18.011924542904307,294.70561782835244,461.13191215734435,0.0
0.05,6.666841209228205,-2.4219663531358275,10.0,0.0,17.548953774962747,18.267165921658286,300.1294548425776,461.13191215734435,0.0
0.051000000000000004,6.612335516543512,-2.59336894353628,10.0,0.0,17.88182590988993,18.53465621226123,310.75154600411304,461.13191215734435,0.0
0.052000000000000005,6.568447424188529,-2.726701034625408,10.0,0.0,18.22111236450049,18.81296732052879,322.35703405819294,461.13191215734435,0.0
0.053,6.5036136539679195,-2.8764091099274185,10.0,0.0,18.569435851849082,19.104068797231378,330.9557012510771,461.13191215734435,0.0
0.054,6.434362099984388,-3.0149932598739144,10.0,0.0,18.925784313874168,19.407861808234543,339.4707232587175,461.13191215734435,0.0
0.055,6.370891759459199,-3.1253006473392393,10.0,0.0,19.28762520191878,19.723199586257838,348.00092263299223,461.13191215734435,0.0
0.056,6.314459991163816,-3.2071523724558277,10.0,0.0,19.65271639484943,20.048760466390505,356.29964302226927,461.13191215734435,0.0
0.057,6.266092078485367,-3.262894600420583,10.0,0.0,20.01916768432525,20.383030530514645,362.98468703488817,461.13191215734435,0.0
0.058,6.234656406121481,-3.2830044001420036,10.0,0.0,20.38405550695561,20.723492962007192,368.0316803659419,461.13191215734435,0.0
0.059000000000000004,6.228510489334133,-3.2600491726267444,10.0,0.0,20.743774617448285,21.0667596267365,372.35801287012686,461.13191215734435,0.0
0.06,6.247959954981508,-3.201438289803519,10.0,0.0,21.095630838529225,21.40947063565305,373.88739853789605,461.13191215734435,0.0
0.061,6.298571070969623,-3.1064761741463998,10.0,0.0,21.436712814499675,21.747723437683817,371.47602194372377,461.13191215734435,0.0
0.062,6.38094735961424,-2.982369480030801,10.0,0.0,21.76480975788002,22.077703876517536,366.2922057853833,461.13191215734435,0.0
0.063,6.53566146196873,-2.7695519558602215,10.0,0.0,22.070926190088084,22.39130117743337,372.07145994459506,461.13191215734435,0.0
0.064,6.708566607552835,-2.560747003310555,10.0,0.0,22.35695033962817,22.686677966487718,365.1882535794375,461.13191215734435,0.0
0.065,6.897199383751794,-2.3667028673086685,10.0,0.0,22.62465294768497,22.962098937664592,356.7297130485294,461.13191215734435,0.0
0.066,7.167218997264825,-2.0824440278168583,10.0,0.0,22.863799361069702,23.20893224280502,357.7888817172531,461.13191215734435,0.0
0.067,7.423387055578651,-1.859201647307153,10.0,0.0,23.082000390168847,23.42951856849048,345.1266644280509,461.13191215734435,0.0
0.068,7.736929428236853,-1.5824320316278497,10.0,0.0,23.27222771500701,23.617938384108047,342.9584987314189,461.13191215734435,0.0
0.069,8.04132723792414,-1.3546495884062866,10.0,0.0,23.43998591632552,23.77619061530866,334.2677598047511,461.13191215734435,0.0
0.07,8.395997401416553,-1.0747195592463576,10.0,0.0,23.578279041856877,23.89942370363377,322.7417355360636,461.13191215734435,0.0
0.07100000000000001,8.726669482066718,-0.8579631993863083,10.0,0.0,23.694022264374595,23.99133556844291,337.9106389559309,461.13191215734435,0.0
0.07200000000000001,8.91385728821635,-0.8925675486457335,10.0,0.0,23.81335639313859,24.06834663115294,344.8606079910171,461.13191215734435,0.0
0.073,8.941721008651788,-1.1508071676799903,10.0,0.0,23.95651852989837,24.148396869281978,362.43451347602996,461.13191215734435,0.0
0.074,8.927907180207171,-1.4305443375681337,10.0,0.0,24.121558169292424,24.236556455607346,368.59250641149885,461.13191215734435,0.0
0.075,8.859340450140312,-1.7499202918046703,10.0,0.0,24.31124378664675,24.33980824926249,387.10067316750514,461.13191215734435,0.0
0.076,8.767176841935807,-2.0562826706616475,10.0,0.0,24.52279212376306,24.461155754889383,396.7190369145668,461.13191215734435,0.0
0.077,8.62162972262067,-2.4016532593838043,10.0,0.0,24.76024751870129,24.606611890707832,408.83095327273656,461.13191215734435,0.0
0.078,8.47560200325128,-2.694417929744825,10.0,0.0,25.017253395580042,24.77587553037574,428.2762610097064,461.13191215734435,0.0
0.079,8.289593068490031,-3.001970310780605,10.0,0.0,25.296388163948027,24.972914099394785,438.0404594767293,461.13191215734435,0.0
0.08,8.078425759776728,-3.30171273584331,10.0,0.0,25.597209455327665,25.19953060295957,447.87571303424875,461.13191215734435,0.0
0.081,7.882675762310951,-3.525181384717318,10.0,0.0,25.912194395051316,25.45298841193994,460.26934286159303,461.13191215734435,0.0
0.082,7.687097883672571,-3.703693402600396,7.0842303320421705,0.0,26.23842825717906,25.411420337194844,468.90663091511607,461.13191215734435,0.0
0.083,7.353799730737682,-3.747592808469675,2.6878391177029357,0.0,26.53092574008629,24.98689413727574,466.5998429631045,461.13191215734435,0.0
0.084,6.834834647537061,-3.5750485038579582,3.7865537856511216,0.0,26.732301987144915,24.852646008879695,462.5792006511762,461.13191215734435,0.0
0.085,6.449518323148306,-3.3465788144462723,5.782402056676938,0.0,26.8767095738689,24.997711626013235,458.04246072537643,461.13191215734435,0.0
0.08600000000000001,6.3047064501811345,-3.117690108998821,8.081666533896513,0.0,26.998289902928743,25.387748192672202,457.9936378650168,461.13191215734435,0.0
0.08700000000000001,6.410936554695077,-2.911226878702897,8.1374607069996,0.0,27.126293787470416,25.720950419614198,458.7548673296897,461.13191215734435,0.0
0.088,6.5954099101945225,-2.7129518991638335,7.7806164229396915,0.0,27.255071890805787,25.974592231278745,441.61921716269217,461.13191215734435,0.0
0.089,6.83782878754681,-2.441358192381543,10.0,0.0,27.368443807023414,26.438626965473844,434.897217046888,461.13191215734435,0.0
0.09,7.269253440728729,-2.145915526698835,10.0,0.0,27.48709924888151,26.800369059024106,430.20911974117365,461.13191215734435,0.0
0.091,7.698457983592385,-1.9092663811677655,10.0,0.0,27.606986376557245,27.09490423422197,412.8617090247671,461.13191215734435,0.0
0.092,8.19539196746961,-1.5781146376065407,10.0,0.0,27.710278108648758,27.321603911869772,407.0003738408892,461.13191215734435,0.0
0.093,8.662183149644235,-1.2989915941314552,10.0,0.0,27.798518617949245,27.489585104761495,393.3984496478053,461.13191215734435,0.0
0.094,9.173429418658507,-0.9540919860988786,10.0,0.0,27.859585469160045,27.59802305152428,378.2267244986585,461.13191215734435,0.0
0.095,9.650111482026752,-0.6709073810274768,10.0,0.0,27.897688119448503,27.6544013244515,401.03583236608705,461.13191215734435,0.0
0.096,9.867942272211199,-0.8059775512627372,10.0,0.0,27.955307896777427,27.689757468828233,408.1955461952489,461.13191215734435,0.0
0.097,9.905884685068106,-1.1515677328840135,10.0,0.0,28.04736552908713,27.725344618987776,425.8770008854455,461.13191215734435,0.0
0.098,9.836386476616253,-1.5860212101832292,10.0,0.0,28.1781100938685,27.774603044420605,438.7929810101283,461.13191215734435,0.0
0.099,9.726370527408728,-1.9935687225567766,10.0,0.0,28.341191736303138,27.843416856116598,459.2023266828387,461.13191215734435,0.0
0.1,9.533158505781657,-2.4496330316353467,8.164078113454455,0.0,28.5409381945388,27.739859206253342,468.9586869310037,461.13191215734435,0.0
0.101,9.215638529742328,-2.8133371000946745,3.2076302416353712,0.0,28.745801046404317,27.172776997313385,480.70741468985705,461.13191215734435,0.0
0.10200000000000001,8.592083350672935,-3.0249508877916034,-2.8624886631164372,0.0,28.893109868151342,26.130156563586716,485.5360682067493,461.13191215734435,0.0
0.10300000000000001,7.646839014626179,-3.0100681982632405,-5.520856982056609,0.0,28.917672530625918,25.07255105454597,486.4304966342382,461.13191215734435,0.0
0.10400000000000001,6.620170732005595,-2.86458674467127,-6.221057040569992,0.0,28.818164242949134,24.17620510713748,484.05560113001627,461.13191215734435,0.0
0.105,5.699561082736213,-2.657403426818625,-5.2628461781857565,0.0,28.617636838871306,23.56294849974299,478.84941367828736,461.13191215734435,0.0
0.106,5.006145957835514,-2.4549201910026675,-2.8369274675307317,0.0,28.355635191700582,23.31530332947475,471.7517843154331,461.13191215734435,0.0
0.107,4.620536775632285,-2.2965171863468923,0.6056884923155117,0.0,28.07966969406613,23.45613393878614,464.56744076288845,461.13191215734435,0.0
0.108,4.572708372380583,-2.2009314683109262,4.163504982532395,0.0,27.836453408188866,23.91362362426401,456.74141603748006,461.13191215734435,0.0
0.109,4.825127889409183,-2.16158086196403,8.12042230643523,0.0,27.65993500992931,24.672481022427842,453.6852658754943,461.13191215734435,0.0
0.11,5.3611452236122386,-2.1518153854661954,9.722963850246625,0.0,27.5762734949608,25.41807352593751,455.97602081599996,461.13191215734435,0.0
0.111,5.984677318976666,-2.146054250149504,8.62914529340723,0.0,27.575001311720257,25.881166813760856,439.7762840615894,461.13191215734435,0.0
0.112,6.523877642673409,-2.0461537683906483,10.0,0.0,27.60923423394579,26.406479043118416,430.11120506744265,461.13191215734435,0.0
0.113,7.139580569873278,-1.8336697584414574,10.0,0.0,27.670200850607706,26.806639475941818,425.7456646695807,461.13191215734435,0.0
0.114,7.688503184858703,-1.646907748369601,10.0,0.0,27.746667867877356,27.118656068772687,408.9386231480462,461.13191215734435,0.0
0.115,8.261020634405657,-1.355031198443207,10.0,0.0,27.816451042311954,27.34963001074712,400.5799088954131,461.13191215734435,0.0
0.116,8.778178480690544,-1.104720103360585,10.0,0.0,27.877737838540703,27.513322687371698,390.0303169175202,461.13191215734435,0.0
0.117,9.322319691396846,-0.7822041936547417,10.0,0.0,27.916291583692214,27.61209082124185,384.4980050576553,461.13191215734435,0.0
0.11800000000000001,9.73807464795037,-0.6546065619677108,10.0,0.0,27.95005618732708,27.66454588312631,406.5403506998259,461.13191215734435,0.0
0.11900000000000001,9.863266480477595,-0.9404162540812964,10.0,0.0,28.01840487923627,27.70551834717335,415.23161787981604,461.13191215734435,0.0
0.12,9.875778266813883,-1.3119255370385403,10.0,0.0,28.122023872563396,27.74910405583489,432.4678917793499,461.13191215734435,0.0
0.121,9.77949236379353,-1.765327379181695,10.0,0.0,28.26579864723015,27.809409660158593,445.7274472237442,461.13191215734435,0.0
0.122,9.646801797741308,-2.180990231256509,10.0,0.0,28.4424154001694,27.89169528475214,467.8873354202142,461.13191215734435,0.0
0.123,9.438530846427382,-2.629542464620757,3.3035495577049474,0.0,28.654783157423385,27.268387372511807,472.81262571839494,461.13191215734435,0.0
0.124,8.84386109836949,-2.865050029888444,0.7240972730040642,0.0,28.80500365757374,26.57520274309999,481.4314525756042,461.13191215734435,0.0
0.125,8.080612683905688,-2.969910843400967,-3.7883115597831774,0.0,28.88006325860159,25.573798805995242,485.4244996202425,461.13191215734435,0.0
0.126,7.123505694830527,-2.9171822426926703,-6.027760956731297,0.0,28.840627751603137,24.57647516202097,484.5603807000375,461.13191215734435,0.0
0.127,6.148932827150056,-2.751798872713036,-5.829986182055735,0.0,28.687738546216423,23.816721996482165,481.02528394694025,461.13191215734435,0.0
0.128,5.339894580779387,-2.550771101246383,-4.261371523403062,0.0,28.453703723652968,23.36747357008758,475.0298956964925,461.13191215734435,0.0
0.129,4.787131151695974,-2.374167372095626,-1.4026572335706566,0.0,28.180731408214474,23.29123252410661,467.84948377542315,461.13191215734435,0.0
0.13,4.554964267036153,-2.243862283016004,2.120373010783216,0.0,27.914864697214494,23.574275258182237,460.6011527266449,461.13191215734435,0.0
0.131,4.640791270025356,-2.178448414315471,5.749846129479337,0.0,27.697996456055822,24.154676149187935,453.3726803597904,461.13191215734435,0.0
0.132,5.014772938041499,-2.1514910756006707,9.441674630882115,0.0,27.55854395954194,24.984876817492648,453.53407837553516,461.13191215734435,0.0
0.133,5.626476226960435,-2.1594422385837015,9.436953960827838,0.0,27.51720098082522,25.617127065494593,450.80767977354793,461.13191215734435,0.0
0.134,6.217396600620616,-2.1378064209066965,10.0,0.0,27.540757873206047,26.185116053620707,433.74231339344766,461.13191215734435,0.0
0.135,6.833292042883596,-2.0008659462808636,10.0,0.0,27.603910881129348,26.631192076868253,431.18861923727826,461.13191215734435,0.0
0.136,7.424990429968221,-1.7830985684617637,10.0,0.0,27.682771183771223,26.980047930426696,415.81746606429886,461.13191215734435,0.0
0.137,7.961463414451931,-1.5624846146851346,10.0,0.0,27.76654118036751,27.248809184471117,408.78358016597525,461.13191215734435,0.0
0.138,8.517434910817506,-1.2523762759607149,10.0,0.0,27.836904524986704,27.443279178015352,391.78500648096843,461.13191215734435,0.0
0.139,9.026040625165225,-0.9834042915193411,10.0,0.0,27.89319269959709,27.57495159305248,387.35252663430725,461.13191215734435,0.0
0.14,9.5390439808067,-0.6905349456948837,10.0,0.0,27.927493390053858,27.64774127206987,392.0153886438915,461.13191215734435,0.0
0.14100000000000001,9.833327061333279,-0.7391425820173236,10.0,0.0,27.973918512820422,27.68944094692967,407.94363609255095,461.13191215734435,0.0
0.14200000000000002,9.8795098392898,-1.106133087949015,10.0,0.0,28.05975397008557,27.7294758918102,423.32697297714014,461.13191215734435,0.0
0.14300000000000002,9.858327055675156,-1.4866399338249079,10.0,0.0,28.179195224099278,27.776882821906366,437.8708508228446,461.13191215734435,0.0
0.14400000000000002,9.730564344833045,-1.9477547786840455,10.0,0.0,28.338350610196976,27.84533525475076,452.2343732556521,461.13191215734435,0.0
0.145,9.573321556570063,-2.362673034364955,10.0,0.0,28.52946556064566,27.93887706252102,475.31405916095287,461.13191215734435,0.0
0.146,9.347366203877273,-2.8008754070448716,-0.7457085948264384,0.0,28.754876275264472,26.883430900041773,477.2005927316084,461.13191215734435,0.0
