timestamp,iq,id,iq_ref,id_ref,vq,vd,omega,omega_ref,r
0.0,0.0,0.0,0.0,0.0,0.0,0.0,0.0,349.6788963547092,0.0
0.001,0.0,0.0,10.0,0.0,0.0,1.0999999999999999,6.115472199294103,349.6788963547092,0.0
0.002,0.5307369851907212,-0.2913212625381807,10.0,0.0,0.14204533887919985,1.9316189316290207,13.317801563642547,349.6788963547092,0.0
0.003,1.0842913387634832,-0.6024330830807904,10.0,0.0,0.384357124667687,2.6386968949419622,20.697939467553027,349.6788963547092,0.0
0.004,1.5590443546685477,-0.8700465084428163,10.0,0.0,0.6994718867930164,3.2526109522886295,28.232747544420146,349.6788963547092,0.0
0.005,1.9399447555359186,-1.0838738622210777,10.0,0.0,1.065311453102468,3.7994935661768023,35.92944872443006,349.6788963547092,0.0
0.006,2.239750732602683,-1.2510087368845633,10.0,0.0,1.4655018868449925,4.299102221838433,43.75633668444442,349.6788963547092,0.0
0.007,2.4770151619816017,-1.382020589851471,10.0,0.0,1.8883740978591532,4.765668027847139,51.58766747378032,349.6788963547092,0.0
0.008,2.6680767290418097,-1.4872241871505252,10.0,0.0,2.325877945545995,5.209220346273558,59.45942083902103,349.6788963547092,0.0
0.009000000000000001,2.8266491704841292,-1.5730794701170803,10.0,0.0,2.772378685460125,5.636635464737965,67.35059094018146,349.6788963547092,0.0
0.01,2.962077666392183,-1.645500646948331,10.0,0.0,3.224078639851053,6.052647735211881,75.20908322432116,349.6788963547092,0.0
0.011,3.0811061533574158,-1.7084279320504514,10.0,0.0,3.678407615443203,6.460489925470405,83.0265951655913,349.6788963547092,0.0
0.012,3.188848746459569,-1.7638278597420747,10.0,0.0,4.133552631697047,6.862319393890706,90.74118064793086,349.6788963547092,0.0
0.013000000000000001,3.288205119878689,-1.8140726097274587,10.0,0.0,4.588339016389012,7.259628641949282,98.35820682563939,349.6788963547092,0.0
0.014,3.3820602099432007,-1.8592355758795645,10.0,0.0,5.041843166194517,7.653355107498287,105.90865295623543,349.6788963547092,0.0
0.015,3.4721069852858886,-1.899829032412081,10.0,0.0,5.493383198131427,8.044092747085895,113.37727610343421,349.6788963547092,0.0
0.016,3.5596145800153947,-1.9360338400176071,10.0,0.0,5.94241958510469,8.43218525824161,120.68508583176356,349.6788963547092,0.0
0.017,3.645144415105338,-1.9685384477868613,10.0,0.0,6.388575043274759,8.817838951066484,127.83962377537456,349.6788963547092,0.0
0.018000000000000002,3.730251927866576,-1.9959253041084188,10.0,0.0,6.83136783302799,9.201036292373047,134.85405702603322,349.6788963547092,0.0
0.019,3.81544967906247,-2.018253592643655,10.0,0.0,7.270383321112213,9.581672501020332,141.68976328564074,349.6788963547092,0.0
0.02,3.9014648862453374,-2.0350875541282063,10.0,0.0,7.705189334130692,9.959536942333155,148.3432823300447,349.6788963547092,0.0
0.021,3.9891051824829464,-2.0457889559126508,10.0,0.0,8.135310004560049,10.334315260302239,154.92060212100432,349.6788963547092,0.0
0.022,4.079618141396171,-2.0489696811670974,10.0,0.0,8.560139305503519,10.705547790999272,161.01925282597162,349.6788963547092,0.0
0.023,4.171109372430197,-2.048468292080302,10.0,0.0,8.979521969370257,11.072981092896333,166.534238406907,349.6788963547092,0.0
0.024,4.266936196769627,-2.039517194249811,10.0,0.0,9.392730090169543,11.435983292623375,171.8647834235234,349.6788963547092,0.0
0.025,4.367255527950721,-2.0225841458509217,10.0,0.0,9.79914449451603,11.793929226271104,177.02637022703064,349.6788963547092,0.0
0.026000000000000002,4.4734353073349595,-1.9962166741499119,10.0,0.0,10.197980960389518,12.146045424568259,181.63161391243256,349.6788963547092,0.0
0.027,4.582366840795821,-1.966358349113627,10.0,0.0,10.589124658468391,12.491912978736195,185.74793639675826,349.6788963547092,0.0
0.028,4.700058850757774,-1.9240450691803936,10.0,0.0,10.971384864613876,12.830451341534015,189.43662766964098,349.6788963547092,0.0
0.029,4.820934284790598,-1.879137197786803,10.0,0.0,11.344756153370636,13.161242511022618,192.73598774770625,349.6788963547092,0.0
0.03,4.952016225740939,-1.821000614527957,10.0,0.0,11.707923484756042,13.483081433273819,195.59831968863915,349.6788963547092,0.0
0.031,5.086039273572549,-1.7621311371320891,10.0,0.0,12.061063698547066,13.79562148058647,197.80891551030922,349.6788963547092,0.0
0.032,5.230431844273564,-1.6911110488141978,10.0,0.0,12.40292038074925,14.097678592248165,200.4421589734679,349.6788963547092,0.0
0.033,5.380124186618445,-1.6166151787533525,10.0,0.0,12.733312761073865,14.38869342901298,201.91742172589852,349.6788963547092,0.0
0.034,5.537594793894332,-1.535029134414507,10.0,0.0,13.051537880865839,14.667821176756876,203.18880493813168,349.6788963547092,0.0
0.035,5.698947813469154,-1.4530296333491768,10.0,0.0,13.357649178779205,14.934684535625108,203.60405746232266,349.6788963547092,0.0
0.036000000000000004,5.870474243492053,-1.3603000477825025,10.0,0.0,13.65045542338638,15.188218311291084,204.28541056101804,349.6788963547092,0.0
0.037,6.041188711220851,-1.275010780747051,10.0,0.0,13.930879897581198,15.42861600670124,205.2233356988433,349.6788963547092,0.0
0.038,6.228175208801664,-1.168399557236846,10.0,0.0,14.196427351981786,15.654155009933262,200.35169734043586,349.6788963547092,0.0
0.039,6.404895489618571,-1.0845312562500289,10.0,0.0,14.449814560392067,15.86612549236809,209.64773540576442,349.6788963547092,0.0
0.04,6.534612624563911,-1.0851225869390002,10.0,0.0,14.699963825590459,16.069735965364643,218.170241886545,349.6788963547092,0.0
0.041,6.621487035821765,-1.1484636683301073,10.0,0.0,14.952420817214799,16.26974130369247,220.68166573712315,349.6788963547092,0.0
0.042,6.6704785161669795,-1.2647840534085386,10.0,0.0,15.211794475054209,16.47047148862455,233.10654395573727,349.6788963547092,0.0
0.043000000000000003,6.709376245503157,-1.3867642159960276,10.0,0.0,15.477558399636717,16.673277185423842,235.10815372853793,349.6788963547092,0.0
0.044,6.744196093263161,-1.5028656568708394,10.0,0.0,15.74857785831126,16.87893749904121,248.8181267625822,349.6788963547092,0.0
0.045,6.750563942850831,-1.6564343609015326,10.0,0.0,16.02879294551472,17.090781462187255,251.61117095327992,349.6788963547092,0.0
0.046,6.764566527560506,-1.7840489455190416,10.0,0.0,16.314672837580048,17.307985931916857,266.60539535969383,349.6788963547092,0.0
0.047,6.752169677737121,-1.9446655565152717,10.0,0.0,16.610076868775216,17.533561623207692,270.0627790167984,349.6788963547092,0.0
0.048,6.7291903821171735,-2.110358990489937,10.0,0.0,16.91511817760721,17.768523902508925,283.13731951482634,349.6788963547092,0.0
0.049,6.714097190323873,-2.246352557911731,10.0,0.0,17.22645394156277,18.011924542904307,294.70561782835244,349.6788963547092,0.0
0.05,6.666841209228205,-2.4219663531358275,10.0,0.0,17.548953774962747,18.267165921658286,300.1294548425776,349.6788963547092,0.0
0.051000000000000004,6.612335516543512,-2.59336894353628,10.0,0.0,17.88182590988993,18.53465621226123,310.75154600411304,349.6788963547092,0.0
0.052000000000000005,6.568447424188529,-2.726701034625408,10.0,0.0,18.22111236450049,18.81296732052879,322.35703405819294,349.6788963547092,0.0
0.053,6.5036136539679195,-2.8764091099274185,10.0,0.0,18.569435851849082,19.104068797231378,330.9557012510771,349.6788963547092,0.0
0.054,6.434362099984388,-3.0149932598739144,10.0,0.0,18.925784313874168,19.407861808234543,339.4707232587175,349.6788963547092,0.0
0.055,6.370891759459199,-3.1253006473392393,10.0,0.0,19.28762520191878,19.723199586257838,348.00092263299223,349.6788963547092,0.0
0.056,6.314459991163816,-3.2071523724558277,6.535954774859455,0.0,19.65271639484944,19.66771549162504,354.6413264447209,349.6788963547092,0.0
0.057,6.083133606611295,-3.1710153027306878,3.166128568095001,0.0,19.970956464102816,19.343130079873735,354.05312223129954,349.6788963547092,0.0
0.058,5.6861153800873865,-3.0047464195212075,3.4164884160397797,0.0,20.206985778799933,19.18542380263657,350.6067390785495,349.6788963547092,0.0
0.059000000000000004,5.358615184935824,-2.801488441378353,5.130401565176406,0.0,20.382945845540004,19.285172771719846,349.6015961390057,349.6788963547092,0.0
0.06,5.219548693169385,-2.6246086336453853,5.633746037105321,0.0,20.5338606034452,19.442793923132406,353.52614481221934,349.6788963547092,0.0
0.061,5.190427935786495,-2.4755403644767333,3.632999215923409,0.0,20.670817289169904,19.376441458539382,350.5298107934749,349.6788963547092,0.0
0.062,5.100137689498534,-2.299707504792954,5.122657080907976,0.0,20.76959212798931,19.523930461856104,340.42297661520126,349.6788963547092,0.0
0.063,5.147846294359669,-2.1150579784679175,10.0,0.0,20.854685263959528,20.182008342175767,343.39123885503795,349.6788963547092,0.0
0.064,5.515614943004849,-2.0343834601929425,8.84200615516944,0.0,20.99004917261769,20.566657530635844,345.075574019913,349.6788963547092,0.0
0.065,5.8376188012116925,-1.9706530639485544,8.045871796079876,0.0,21.144138010851925,20.818640612147888,333.0264053286657,349.6788963547092,0.0
0.066,6.1285544015007964,-1.818504405988866,10.0,0.0,21.29191722500081,21.254966837904522,334.80446552853346,349.6788963547092,0.0
0.067,6.512178110670191,-1.6816050835552905,10.0,0.0,21.45501370142237,21.603607828455438,326.2590195204266,349.6788963547092,0.0
0.068,6.881885367923272,-1.5580517775816136,10.0,0.0,21.624442758824102,21.896862806387272,325.2861764251527,349.6788963547092,0.0
0.069,7.269331865953691,-1.3714247612713497,10.0,0.0,21.786960969544456,22.13881315005528,313.8065437619981,349.6788963547092,0.0
0.07,7.61793641837788,-1.2149498779721277,10.0,0.0,21.94207642655975,22.338348244642166,315.3807451142683,349.6788963547092,0.0
0.07100000000000001,7.973752532601389,-1.0243856772562947,10.0,0.0,22.082236534086466,22.497787648431547,304.54743918000906,349.6788963547092,0.0
0.07200000000000001,8.329880732812285,-0.8165445043373274,10.0,0.0,22.203367684225515,22.619683181713704,316.614364249366,349.6788963547092,0.0
0.073,8.477787439507695,-0.9378746727523802,10.0,0.0,22.34000000293372,22.728793820947164,327.74600911034867,349.6788963547092,0.0
0.074,8.54932259076837,-1.1338651395698705,10.0,0.0,22.494225803360226,22.834266828556373,334.56760873032147,349.6788963547092,0.0
0.075,8.534184364296564,-1.423313017550573,10.0,0.0,22.673455686414705,22.94699567187183,350.7635917296561,349.6788963547092,0.0
0.076,8.507576477315233,-1.6810002791164746,5.92084010375031,0.0,22.87148658548772,22.620442515876935,354.6539887487481,349.6788963547092,0.0
0.077,8.205820078890959,-1.8796914273037753,3.9258906702639456,0.0,23.0363382327389,22.2006220516247,362.45836896985514,349.6788963547092,0.0
0.078,7.782021246962085,-1.9833360117997254,-0.10409416644104752,0.0,23.152136661652406,21.459520268348037,369.7526811411959,349.6788963547092,0.0
0.079,7.131375690207425,-2.01817079287021,-3.9519880999763037,0.0,23.185040449419702,20.488473044892295,370.08021065225023,349.6788963547092,0.0
0.08,6.319771633836924,-1.9357195629675865,-4.319765998478868,0.0,23.108131152964692,19.698614283692137,371.4949985226877,349.6788963547092,0.0
0.081,5.560071043352286,-1.855361744747803,-5.245320955377385,0.0,22.95191206233001,18.957368227082284,371.1347173697732,349.6788963547092,0.0
0.082,4.865521778975295,-1.774481847135354,-5.279738589070792,0.0,22.72909706454265,18.348897890109285,369.32022095952397,349.6788963547092,0.0
0.083,4.2837397165298325,-1.70588855999781,-4.568903629994309,0.0,22.46098007022772,17.914579643115424,366.8359950618223,349.6788963547092,0.0
0.084,3.8493774333999102,-1.6604720982687486,-3.498361668214609,0.0,22.171933072726077,17.6494948181143,364.17802708381964,349.6788963547092,0.0
0.085,3.566446792754338,-1.6411317570865767,-2.314368986504384,0.0,21.88360901956173,17.528326298873164,360.8036728874203,349.6788963547092,0.0
0.08600000000000001,3.4172591712145595,-1.6456070626070993,-0.7384396536318256,0.0,21.61268620680879,17.565535858001503,357.11829893200314,349.6788963547092,0.0
0.08700000000000001,3.4020271122982186,-1.6706305006960727,1.0298532983038156,0.0,21.375284456378562,17.750868761591317,353.46171990717943,349.6788963547092,0.0
0.088,3.5107679583894056,-1.7143211093065103,2.82031457519097,0.0,21.18471190391659,18.06108219705816,349.35312036742886,349.6788963547092,0.0
0.089,3.728761938487806,-1.764880779698013,4.877872104939059,0.0,21.04934260790446,18.506751819885615,347.8140712968822,349.6788963547092,0.0
0.09,4.059902431456336,-1.810863240737288,5.666044890790649,0.0,20.976629677786697,18.926195467549768,350.6948293386023,349.6788963547092,0.0
0.091,4.406563429261725,-1.8438333956099113,4.215506540091682,0.0,20.95629929787272,19.094161206171414,343.7134795302062,349.6788963547092,0.0
0.092,4.631936458952367,-1.8087712818768145,7.765835612534756,0.0,20.950611995752944,19.627014491127305,335.84649499199486,349.6788963547092,0.0
0.093,5.037206101366705,-1.765227321309122,10.0,0.0,20.994339537815613,20.27394257890371,341.0155560131416,349.6788963547092,0.0
0.094,5.538762335052095,-1.7732981998528405,9.303001750204537,0.0,21.09971037069514,20.710420671475333,334.6189461790251,349.6788963547092,0.0
0.095,5.971086323898891,-1.7434747039866523,10.0,0.0,21.234830636213164,21.15488775161691,330.41706986535934,349.6788963547092,0.0
0.096,6.433645149206321,-1.625343758447694,10.0,0.0,21.388189414142918,21.514891936902835,328.6773691444933,349.6788963547092,0.0
0.097,6.8245217655910855,-1.5385643666986821,10.0,0.0,21.55384830917129,21.81586074190388,320.69245241647843,349.6788963547092,0.0
0.098,7.23280761183732,-1.354383569392772,10.0,0.0,21.71364610141077,22.062295878984436,315.72348942706077,349.6788963547092,0.0
0.099,7.5795531216173195,-1.2199864102313196,10.0,0.0,21.869165748599652,22.26600813396753,313.36736328415395,349.6788963547092,0.0
0.1,7.9542766951816315,-1.0081183628780002,10.0,0.0,22.007543142950706,22.42714899017694,301.0215948275513,349.6788963547092,0.0
0.101,8.297594344662704,-0.8263183149831321,10.0,0.0,22.130317558692695,22.551995794493234,317.7358882436639,349.6788963547092,0.0
0.10200000000000001,8.45630982249255,-0.9332535211597652,10.0,0.0,22.26688008645049,22.66260983388562,324.94832265200006,349.6788963547092,0.0
0.10300000000000001,8.527969808529093,-1.1310050269086958,10.0,0.0,22.421531078942365,22.76952327842884,334.8251128977136,349.6788963547092,0.0
0.10400000000000001,8.514394671622787,-1.4197066756347834,10.0,0.0,22.601187982941745,22.883420342686968,347.9888018187605,349.6788963547092,0.0
0.105,8.49396248934675,-1.6681871464392166,6.702639570815169,0.0,22.79871473826824,22.64329553239021,354.9637414133706,349.6788963547092,0.0
0.106,8.231040048199647,-1.8942835164973924,3.162321322923516,0.0,22.974862133030758,22.11919162238295,361.4526286925399,349.6788963547092,0.0
0.107,7.771060872195694,-1.976022278232183,-0.19985964003945167,0.0,23.08771469740654,21.378644604354626,367.8200343620992,349.6788963547092,0.0
0.108,7.110629070163506,-2.0000801505868817,-3.5649738548929895,0.0,23.117056281883585,20.454944497025956,368.842883712334,349.6788963547092,0.0
0.109,6.319484952298528,-1.9266643767851608,-4.268038403586648,0.0,23.042777383338322,19.66328413561491,370.319221543555,349.6788963547092,0.0
0.11,5.565876360639201,-1.8497292404030463,-5.212610571085594,0.0,22.88903163124246,18.92147513145638,369.9577498827904,349.6788963547092,0.0
0.111,4.873283116998801,-1.7697607864948812,-5.234663275984102,0.0,22.66845237537426,18.314141547524116,368.2129888814428,349.6788963547092,0.0
0.112,4.292411769783955,-1.7022727510057565,-4.5476237005776525,0.0,22.40257368733493,17.878248192499186,365.79290205895035,349.6788963547092,0.0
0.113,3.856952906811792,-1.6578114095802365,-3.4987203463738323,0.0,22.115477665395126,17.609957038835958,363.1716970112431,349.6788963547092,0.0
0.114,3.571339005892065,-1.6391129788249188,-2.3230458290855536,0.0,21.82864991631415,17.485683502176187,359.8816720170349,349.6788963547092,0.0
0.115,3.419106631329021,-1.6439165030680156,-0.7800610886046915,0.0,21.55879296044958,17.51701554274705,356.26923441609887,349.6788963547092,0.0
0.116,3.398957104626557,-1.669194257127665,0.9602543312494145,0.0,21.321787421932694,17.69492765664516,352.6740726260026,349.6788963547092,0.0
0.117,3.5015123177194245,-1.7126588391846322,2.7278834635846074,0.0,21.130801975142973,17.99690148695285,348.62177408663047,349.6788963547092,0.0
0.11800000000000001,3.712976449992848,-1.7620150673763384,4.764603955951468,0.0,20.994106995343508,18.43370684996866,347.07095778531067,349.6788963547092,0.0
0.11900000000000001,4.035943895592632,-1.808582151083571,5.566091492305352,0.0,20.91939086675145,18.847546825084958,349.767148985948,349.6788963547092,0.0
0.12,4.3767510743384115,-1.8414805585452556,4.217113365674307,0.0,20.89668350251395,19.021869605331425,343.10207731241906,349.6788963547092,0.0
0.121,4.602151837191792,-1.8098289747880616,7.615417392861672,0.0,20.88986849443693,19.542406583260007,335.0142111214398,349.6788963547092,0.0
0.122,4.999411895315172,-1.7674986788907041,10.0,0.0,20.931448868249333,20.19708481033633,340.3733318408709,349.6788963547092,0.0
0.123,5.50183983505887,-1.7774115870978562,9.183372679293152,0.0,21.03585275024989,20.625483947946552,334.36894383003585,349.6788963547092,0.0
0.124,5.927571972983866,-1.7498368187424047,10.0,0.0,21.169523804210243,21.077672582706317,329.5777168495368,349.6788963547092,0.0
0.125,6.390396488522461,-1.6346243157067848,10.0,0.0,21.32264898860017,21.443189810849073,328.67348303843175,349.6788963547092,0.0
0.126,6.782841364696809,-1.5495852432305317,10.0,0.0,21.48881120442335,21.748927143392766,319.89107302772726,349.6788963547092,0.0
0.127,7.190143018391003,-1.3702662052923889,10.0,0.0,21.650056228470152,21.99982823111978,316.26314952762027,349.6788963547092,0.0
0.128,7.537786570533649,-1.2363649677311987,10.0,0.0,21.807330913132624,22.207595938280033,312.85068466258025,349.6788963547092,0.0
0.129,7.913273553513822,-1.0239288953275807,10.0,0.0,21.94762594445608,22.372487210584104,300.799348164085,349.6788963547092,0.0
0.13,8.25250985447835,-0.8489905610363193,10.0,0.0,22.073261743829605,22.501357735513817,312.9029391542888,349.6788963547092,0.0
0.131,8.431567878452821,-0.9252419869485315,10.0,0.0,22.209358055952,22.61360076826037,326.5032717473267,349.6788963547092,0.0
0.132,8.513348503831345,-1.1100163981306492,10.0,0.0,22.362631711107724,22.72102384039261,330.88845506733526,349.6788963547092,0.0
0.133,8.511400974192759,-1.3825898595510941,10.0,0.0,22.539455644605525,22.834064005341236,348.2403829947287,349.6788963547092,0.0
0.134,8.481220754538942,-1.652697878800855,6.212437935655004,0.0,22.736887348751676,22.540151068932353,351.08159025809715,349.6788963547092,0.0
0.135,8.208883182491508,-1.841696551249035,4.777807364936894,0.0,22.90327336261913,22.205094185172122,360.4882778637815,349.6788963547092,0.0
0.136,7.830720868767609,-1.9757191653456525,-0.033630252995998866,0.0,23.032367587549963,21.44414423769837,366.56866593865766,349.6788963547092,0.0
0.137,7.190510761488391,-2.0070147619626626,-3.242721986273568,0.0,23.074559684727245,20.53395448164735,368.0182036859413,349.6788963547092,0.0
0.138,6.410215177372825,-1.9398824896750932,-4.150883933227696,0.0,23.013816090663887,19.730626427266902,369.68706077295974,349.6788963547092,0.0
0.139,5.651390951770596,-1.8628877579662273,-5.185394120919435,0.0,22.87101595280372,18.9725100267167,369.4682064516455,349.6788963547092,0.0
0.14,4.946022501384449,-1.779721329638455,-5.273860061231663,0.0,22.65830582887558,18.346541388164532,367.8380737853432,349.6788963547092,0.0
0.14100000000000001,4.348799895314775,-1.708298300292586,-4.640385502386882,0.0,22.39724498454028,17.89110626411462,365.4842745095912,349.6788963547092,0.0
0.14200000000000002,3.895723539399264,-1.6600814224555336,-3.6215396460596967,0.0,22.112157085964895,17.604713039733717,362.8781984064694,349.6788963547092,0.0
0.14300000000000002,3.593334457203423,-1.6383222618513948,-2.450494615016381,0.0,21.825027315920874,17.465808878267236,359.6749535096528,349.6788963547092,0.0
0.14400000000000002,3.4268227686019412,-1.6412707548951095,-0.9488327381575381,0.0,21.553262032575457,17.480846907011255,356.0567422429443,349.6788963547092,0.0
