timestamp,iq,id,iq_ref,id_ref,vq,vd,omega,omega_ref,r
0.0,0.0,0.0,0.0,0.0,0.0,0.0,0.0,141.67253422593257,0.0
0.001,0.0,0.0,10.0,0.0,0.0,1.0999999999999999,6.115472199294103,141.67253422593257,0.0
0.002,0.5307369851907212,-0.2913212625381807,10.0,0.0,0.14204533887919985,1.9316189316290207,13.317801563642547,141.67253422593257,0.0
0.003,1.0842913387634832,-0.6024330830807904,10.0,0.0,0.384357124667687,2.6386968949419622,20.697939467553027,141.67253422593257,0.0
0.004,1.5590443546685477,-0.8700465084428163,10.0,0.0,0.6994718867930164,3.2526109522886295,28.232747544420146,141.67253422593257,0.0
0.005,1.9399447555359186,-1.0838738622210777,10.0,0.0,1.065311453102468,3.7994935661768023,35.92944872443006,141.67253422593257,0.0
0.006,2.239750732602683,-1.2510087368845633,10.0,0.0,1.4655018868449925,4.299102221838433,43.75633668444442,141.67253422593257,0.0
0.007,2.4770151619816017,-1.382020589851471,10.0,0.0,1.8883740978591532,4.765668027847139,51.58766747378032,141.67253422593257,0.0
0.008,2.6680767290418097,-1.4872241871505252,10.0,0.0,2.325877945545995,5.209220346273558,59.45942083902103,141.67253422593257,0.0
0.009000000000000001,2.8266491704841292,-1.5730794701170803,10.0,0.0,2.772378685460125,5.636635464737965,67.35059094018146,141.67253422593257,0.0
0.01,2.962077666392183,-1.645500646948331,10.0,0.0,3.224078639851053,6.052647735211881,75.20908322432116,141.67253422593257,0.0
0.011,3.0811061533574158,-1.7084279320504514,10.0,0.0,3.678407615443203,6.460489925470405,83.0265951655913,141.67253422593257,0.0
0.012,3.188848746459569,-1.7638278597420747,10.0,0.0,4.133552631697047,6.862319393890706,90.74118064793086,141.67253422593257,0.0
0.013000000000000001,3.288205119878689,-1.8140726097274587,10.0,0.0,4.588339016389012,7.259628641949282,98.35820682563939,141.67253422593257,0.0
0.014,3.3820602099432007,-1.8592355758795645,10.0,0.0,5.041843166194517,7.653355107498287,105.90865295623543,141.67253422593257,0.0
0.015,3.4721069852858886,-1.899829032412081,10.0,0.0,5.493383198131427,8.044092747085895,113.37727610343421,141.67253422593257,0.0
0.016,3.5596145800153947,-1.9360338400176071,10.0,0.0,5.94241958510469,8.43218525824161,120.68508583176356,141.67253422593257,0.0
0.017,3.645144415105338,-1.9685384477868613,10.0,0.0,6.388575043274759,8.817838951066484,127.83962377537456,141.67253422593257,0.0
0.018000000000000002,3.730251927866576,-1.9959253041084188,9.733888690767907,0.0,6.83136783302799,9.171764048357515,134.68723013035904,141.67253422593257,0.0
0.019,3.80161813244979,-2.0105404208136486,6.379938554231404,0.0,7.26660764780936,9.161303305591526,139.34027027367674,141.67253422593257,0.0
0.02,3.7000288290006664,-1.9206272480168192,4.076741122095115,0.0,7.647240806661289,8.987488887835882,142.76050262082077,141.67253422593257,0.0
0.021,3.47443744958305,-1.756503614250704,2.3557452645742134,0.0,7.9552747398661605,8.72664081643651,142.92586184560764,141.67253422593257,0.0
0.022,3.177603429351764,-1.5643211476858352,2.2605323759840283,0.0,8.186921637626128,8.559813314759108,139.2158848735477,141.67253422593257,0.0
0.023,2.934337759667799,-1.3785669651510408,4.140087355537844,0.0,8.360209960029184,8.664327313125195,143.42912111879073,141.67253422593257,0.0
0.024,2.8589800460076913,-1.2715644071660421,2.0159033639877504,0.0,8.516708110475538,8.529119646834697,145.25863544873448,141.67253422593257,0.0
0.025,2.722001155894465,-1.1600756601371944,1.0652851867878574,0.0,8.632841942654885,8.354070503417255,141.0791278224801,141.67253422593257,0.0
0.026000000000000002,2.566949213961883,-1.0263123885922427,3.1609730639495703,0.0,8.706258404874895,8.463857430530727,142.09062592859297,141.67253422593257,0.0
0.027,2.560576784138903,-0.9533240329892483,2.651043093866533,0.0,8.776620827183372,8.492108583535307,144.13625868626977,141.67253422593257,0.0
0.028,2.5542215220504425,-0.9117299434836315,1.6035894704247613,0.0,8.838926656271873,8.415085619124012,139.80142216148133,141.67253422593257,0.0
0.029,2.513440090278081,-0.8368155090851793,3.789718853463495,0.0,8.879474959121621,8.607366707305449,142.01645801129948,141.67253422593257,0.0
0.03,2.599020462255515,-0.815771879572492,2.678761690700751,0.0,8.933630885602128,8.630586279984186,141.5616919180685,141.67253422593257,0.0
0.031,2.631492078576649,-0.7962787545556264,2.9072531603948777,0.0,8.982759369245727,8.690427047261535,138.886303528263,141.67253422593257,0.0
0.032,2.6875312105495195,-0.7500539338119753,4.272809662274327,0.0,9.028069282221068,8.891283298331503,142.24507962171225,141.67253422593257,0.0
0.033,2.803303012141034,-0.7602282295587112,2.587696161591904,0.0,9.090515249745447,8.865392358642806,138.38400446056713,141.67253422593257,0.0
0.034,2.837545277220499,-0.7178467532211786,4.55111903981812,0.0,9.139363821193928,9.078553830144298,141.6232615812739,141.67253422593257,0.0
0.035,2.962871907679125,-0.7156633151712967,2.931983205911316,0.0,9.204827319225593,9.064101334428827,137.67298114402814,141.67253422593257,0.0
0.036000000000000004,3.003533446651392,-0.678119379810711,4.947118955353243,0.0,9.258191219373384,9.292277225883385,141.14371789381488,141.67253422593257,0.0
0.037,3.141136634661396,-0.678809118571235,3.217038743781051,0.0,9.329487629269117,9.27778200214853,136.84034404949654,141.67253422593257,0.0
0.038,3.190053882884805,-0.6369047302878299,5.417047567704584,0.0,9.387588495703,9.527162849099566,140.50869170189821,141.67253422593257,0.0
0.039,3.3383369931578644,-0.6473341600075242,3.594512166744088,0.0,9.466383641340608,9.519114746006197,136.95343498034643,141.67253422593257,0.0
0.04,3.4015471205636416,-0.5985184110117625,5.419331519975842,0.0,9.531020435418387,9.733236167739117,139.01952293744318,141.67253422593257,0.0
0.041,3.5332996785807023,-0.6065890716002453,4.412817654312358,0.0,9.61198162241637,9.789583727843402,138.18548491437195,141.67253422593257,0.0
0.042,3.6300410457266703,-0.5621341428558173,4.864707158963579,0.0,9.685510697957207,9.898841609999446,135.9262873776647,141.67253422593257,0.0
0.043000000000000003,3.720506271045922,-0.5503894829401932,6.051768395799888,0.0,9.761765290856296,10.121600691385789,138.86950021518822,141.67253422593257,0.0
0.044,3.8815908289617784,-0.5498571922393587,4.608192317145566,0.0,9.85272922722617,10.142230693785512,136.9376531438896,141.67253422593257,0.0
0.045,3.9682684125081273,-0.5003195781207332,5.621464663615305,0.0,9.931215955552993,10.287866119869534,136.81724575234696,141.67253422593257,0.0
0.046,4.0649445259331465,-0.514201659897521,5.7302212441224825,0.0,10.018439958792165,10.418849579927633,142.77160791469106,141.67253422593257,0.0
0.047,4.142085013711761,-0.5695123007568843,2.7420494260628487,0.0,10.115985257389998,10.208151935990811,142.61032573762415,141.67253422593257,0.0
0.048,4.048150782286154,-0.5431123332608596,2.8133125994793873,0.0,10.179249158901204,10.077103423898475,142.74644096432243,141.67253422593257,0.0
0.049,3.92177064246036,-0.5411274207268877,2.734515918746349,0.0,10.223127478348278,9.969068359618275,147.07356749269738,141.67253422593257,0.0
0.05,3.8130482305945295,-0.5327375406780268,0.5169423218912268,0.0,10.250911421742595,9.643775168771054,144.4017786690833,141.67253422593257,0.0
0.051000000000000004,3.600514632729726,-0.48295402740441107,1.8255442892667517,0.0,10.237995364053143,9.542203115374313,147.00179872325594,141.67253422593257,0.0
0.052000000000000005,3.464229885749739,-0.4884783223336233,0.47224161720720215,0.0,10.217319214367913,9.300413334137147,145.8612424438571,141.67253422593257,0.0
0.053,3.300268798780545,-0.4590837400645531,1.000632674727382,0.0,10.1712430545286,9.169063831199798,146.53505363847296,141.67253422593257,0.0
0.054,3.172265311404855,-0.47171046683557494,0.6151018832940451,0.0,10.11832244614699,9.010990137681024,146.44666923606673,141.67253422593257,0.0
0.055,3.056235996046486,-0.4739871775610718,0.6115527343958203,0.0,10.055010700163756,8.878379844027158,146.90735883215496,141.67253422593257,0.0
0.056,2.949611140354274,-0.49583110498525107,0.32885969028948203,0.0,9.987149164322862,8.732207102750195,146.59667358196248,141.67253422593257,0.0
0.057,2.8478994233584514,-0.5073505181000959,0.43496092182542156,0.0,9.912505204106752,8.618485588239475,146.9624809408151,141.67253422593257,0.0
0.058,2.75805832717906,-0.5351809508174319,0.19915777525027867,0.0,9.836899641928941,8.49053787412937,146.67749998325286,141.67253422593257,0.0
0.059000000000000004,2.6718147970535,-0.5524080967781824,0.29159859645820285,0.0,9.757676546286406,8.388939274363127,146.9579270473729,141.67253422593257,0.0
0.06,2.5939326114073964,-0.5825569612211012,0.09853113618378329,0.0,9.679360003860621,8.275121001286811,146.63431161269983,141.67253422593257,0.0
0.061,2.517866962089739,-0.6029503404406698,0.21072107965263953,0.0,9.599435071439501,8.18671286922835,146.77651832054187,141.67253422593257,0.0
0.062,2.450373170450456,-0.6329072681853036,0.08857788478552875,0.0,9.521753147314362,8.091259066850693,146.53073224167076,141.67253422593257,0.0
0.063,2.385285472512559,-0.6561245485685389,0.1628889440636998,0.0,9.44454836692868,8.013462809624333,146.57099385983224,141.67253422593257,0.0
0.064,2.326498960278129,-0.6846159094374618,0.09377353864396287,0.0,9.370186315750685,7.933195534259499,146.36110209588637,141.67253422593257,0.0
0.065,2.2700692194066616,-0.7083741293454789,0.15183374191736299,0.0,9.297562232735194,7.866215964101136,146.3383193449765,141.67253422593257,0.0
0.066,2.2188343761765252,-0.7345919276027133,0.1165672661818582,0.0,9.228148976614634,7.7992835636400235,146.1630686229194,141.67253422593257,0.0
0.067,2.169821792128757,-0.7573865733002675,0.15928728324053276,0.0,9.161229039104171,7.742033980059724,146.09490530959874,141.67253422593257,0.0
0.068,2.125010048838579,-0.7805072074549922,0.1491452290642048,0.0,9.097591460286774,7.6867137008778705,145.95877964514398,141.67253422593257,0.0
0.069,2.082344576648247,-0.8012152037645562,0.174345607099474,0.0,9.036832284685438,7.63768023836614,145.85088693265072,141.67253422593257,0.0
0.07,2.0428281648475277,-0.8206363895886937,0.18650843627891955,0.0,8.979174930870615,7.5924802625510095,145.73701746397347,141.67253422593257,0.0
0.07100000000000001,2.0057976909975213,-0.8382596288502,0.20279833823713567,0.0,8.924507659316289,7.551382997865011,145.6500623201339,141.67253422593257,0.0
0.07200000000000001,1.9715175371766427,-0.8534967747252207,0.20650062921490253,0.0,8.872697242102435,7.5125735976619525,145.71506940651832,141.67253422593257,0.0
0.073,1.939698940353129,-0.8650049256095559,0.13357173421683877,0.0,8.823300451728183,7.467562138510624,145.64673105138974,141.67253422593257,0.0
0.074,1.9045822554338638,-0.8732637928273351,0.1279989435265616,0.0,8.775135588361337,7.425773077583939,145.28945404929448,141.67253422593257,0.0
0.075,1.8697931686063234,-0.8797625865935172,0.2704682463405721,0.0,8.728240583880611,7.40254942033152,144.85219853310437,141.67253422593257,0.0
0.076,1.845008229672787,-0.8874595742558521,0.45729936136390714,0.0,8.684494394827912,7.398463810395112,144.505660765835,141.67253422593257,0.0
0.077,1.8319172421120435,-0.9001797758515078,0.6022369795995739,0.0,8.646036515985742,7.405679128645108,143.92978635619662,141.67253422593257,0.0
0.078,1.8298490735314101,-0.9116858020602013,0.8676016631161203,0.0,8.613284417719784,7.436164454858615,143.7564346905569,141.67253422593257,0.0
0.079,1.8421507144779228,-0.9262668415527128,0.9334384912897413,0.0,8.588344915983864,7.463540580698185,143.9199955474432,141.67253422593257,0.0
0.08,1.8566971475050877,-0.9385960866715992,0.8291834496314818,0.0,8.569847383573645,7.472081629692539,145.14328004577058,141.67253422593257,0.0
0.081,1.8620977578116458,-0.9426239229675116,0.18283374226940774,0.0,8.554373478845243,7.407414300349737,144.20560148929778,141.67253422593257,0.0
0.082,1.8236796434474272,-0.9321743046473259,0.6263423478721575,0.0,8.53279049527722,7.40719575584143,142.58013132493906,141.67253422593257,0.0
0.083,1.809581158174696,-0.9212090588094998,1.4300014590614507,0.0,8.512242274756215,7.489974835838305,142.04148129136337,141.67253422593257,0.0
0.084,1.8468586589119174,-0.926400488067802,1.6956370051949887,0.0,8.502707493963785,7.5793629948123655,143.77340155341778,141.67253422593257,0.0
0.085,1.9007820005793112,-0.9415468568041042,0.8086682008929285,0.0,8.504679193416418,7.553077143299175,144.1507164595065,141.67253422593257,0.0
0.08600000000000001,1.896779020666163,-0.9385918247839106,0.5952289255128325,0.0,8.50334862056288,7.515987975840894,141.76910873232893,141.67253422593257,0.0
0.08700000000000001,1.8760607996351832,-0.9129470030577143,1.7850670440376524,0.0,8.495650808179192,7.617730228148897,140.67680557810175,141.67253422593257,0.0
0.088,1.9220320405799345,-0.9083891178016918,2.3411759076295513,0.0,8.498652083103773,7.752538049083361,142.99274849870864,141.67253422593257,0.0
0.089,2.0014567215447614,-0.9252375528909182,1.1700023045983474,0.0,8.516732919341717,7.731498027950801,143.38683242566697,141.67253422593257,0.0
0.09,2.008945555721209,-0.9179397416741168,0.955817359121838,0.0,8.529930426257867,7.702491959633425,140.37621939081203,141.67253422593257,0.0
0.091,1.9985103774076032,-0.883784758838203,2.4740870249005145,0.0,8.535223505650885,7.848080519486084,140.43014061715502,141.67253422593257,0.0
0.092,2.0720608803890768,-0.8781613661309925,2.4595503478167933,0.0,8.554269109720433,7.954662893044683,142.93264190900473,141.67253422593257,0.0
0.093,2.144918523816126,-0.8867848537486733,1.1956986250612158,0.0,8.583073208303901,7.906334431174943,140.57871401935782,141.67253422593257,0.0
0.094,2.1404126633303378,-0.8620731424274272,2.383600771950419,0.0,8.601359527720534,8.010251199823594,138.3976904692463,141.67253422593257,0.0
0.095,2.1992634759929754,-0.8402796573797218,3.506860984573041,0.0,8.626058725818332,8.210765877470894,141.86927683831956,141.67253422593257,0.0
0.096,2.315351886724289,-0.8609158331213328,1.7691003739125386,0.0,8.67082738605314,8.179131520810547,140.36225504975266,141.67253422593257,0.0
0.097,2.3330312536571505,-0.841831408205407,2.535714059957789,0.0,8.705650096100259,8.256058731155992,137.97208691246854,141.67253422593257,0.0
0.098,2.3881486117721615,-0.8078117781697776,3.7678026017344894,0.0,8.741131941122458,8.450752978483271,141.511352129527,141.67253422593257,0.0
0.099,2.4995767840581795,-0.8212684907872096,1.9997818141693098,0.0,8.794355461063432,8.41101688815979,138.60905238152696,141.67253422593257,0.0
0.1,2.516832449380864,-0.7889044467233308,3.4815665066133894,0.0,8.834588408004763,8.56046944144462,139.46027104547,141.67253422593257,0.0
0.101,2.608385128019401,-0.7668710836082421,3.0780798064465005,0.0,8.883643286078419,8.62990041215529,140.15120300319478,141.67253422593257,0.0
0.10200000000000001,2.667160232875805,-0.7605721661659979,2.747827139811485,0.0,8.934263226128287,8.659451112526257,136.6272615068852,141.67253422593257,0.0
0.10300000000000001,2.7165917597968283,-0.7156746882930344,4.560250615156754,0.0,8.97790050881866,8.888928128906695,140.48295847606306,141.67253422593257,0.0
0.10400000000000001,2.847895186719383,-0.7296930320087004,2.6442978880665136,0.0,9.042112757465485,8.856993075492475,136.33116487700286,141.67253422593257,0.0
0.105,2.8843008022416305,-0.6890741621202402,4.77360838108591,0.0,9.092102016781322,9.085364850349173,139.88389525375968,141.67253422593257,0.0
0.106,3.018042073037226,-0.6921219162195369,3.0151295824292323,0.0,9.160670969301057,9.06682511723707,135.69510448744043,141.67253422593257,0.0
0.107,3.061607419277487,-0.652485924463643,5.169299262973775,0.0,9.216138616623464,9.30808493015614,139.36052844332673,141.67253422593257,0.0
0.108,3.2043958431443795,-0.6598927471434747,3.3597073428566855,0.0,9.291396590917877,9.29489764533426,135.3104138478418,141.67253422593257,0.0
0.109,3.2591264725756868,-0.6146855538149112,5.448385844380057,0.0,9.35276317980772,9.53381295579398,138.4982332163453,141.67253422593257,0.0
0.11,3.400930121942895,-0.6271389977984985,3.886219170224174,0.0,9.433706591626033,9.547197179788254,135.93011849641613,141.67253422593257,0.0
0.111,3.476181012543938,-0.5779952188047,5.22770068748393,0.0,9.502363734532784,9.723662394732616,136.4475135304068,141.67253422593257,0.0
0.112,3.5911661422834134,-0.5810153477707585,5.0212533774438475,0.0,9.582625336619506,9.841326927830883,137.87772335760283,141.67253422593257,0.0
0.113,3.7106992393461584,-0.5533259926429056,4.344096572529133,0.0,9.663551201453652,9.870829603008263,133.8169024848573,141.67253422593257,0.0
0.114,3.7792227664560185,-0.5110458108292405,6.453063326312647,0.0,9.734960820873903,10.137890251105203,136.16809405613756,141.67253422593257,0.0
0.115,3.944251603394354,-0.5310916483889173,5.332511942370471,0.0,9.82856338711152,10.223567539770885,138.5357824408928,141.67253422593257,0.0
0.116,4.056293368480737,-0.518715529141343,4.180035267843248,0.0,9.919811594099114,10.18379613004506,138.73872981948733,141.67253422593257,0.0
0.117,4.053828982856367,-0.5222850537339161,4.107899622610436,0.0,9.998474248313029,10.162108027829786,140.2656855872917,141.67253422593257,0.0
0.11800000000000001,4.012193438294511,-0.5535049624371802,3.358490225094661,0.0,10.070500321595452,10.07329659002859,144.62777965813348,141.67253422593257,0.0
0.11900000000000001,3.942545990110085,-0.5482586814053725,1.147890735351763,0.0,10.125553353768986,9.772141917293862,142.0612896421053,141.67253422593257,0.0
0.12,3.7488202473858276,-0.5030209845173399,2.427248189204127,0.0,10.140061931604333,9.690056687088969,145.08044048599405,141.67253422593257,0.0
0.121,3.623585640366711,-0.5092024522019174,0.8835937046591358,0.0,10.14604346704983,9.446873819194488,144.29636465360198,141.67253422593257,0.0
0.122,3.458814473535842,-0.4726811494671782,1.2493933165784732,0.0,10.123029404183667,9.30115437607179,144.6699535470144,141.67253422593257,0.0
0.123,3.317491194410377,-0.47756936663357924,1.0326246766614533,0.0,10.088647720207497,9.154100773500168,145.4524184365095,141.67253422593257,0.0
0.124,3.200436954655795,-0.4734988083303857,0.6035933898081254,0.0,10.042502200786773,8.984751341215144,145.26776204587333,141.67253422593257,0.0
0.125,3.070768332866577,-0.4840089688054718,0.6599693069268069,0.0,9.985233113314909,8.851306969967414,145.49372005056802,141.67253422593257,0.0
0.126,2.9660813730267077,-0.4921366319493395,0.5087784463331078,0.0,9.921135438806532,8.718504252625266,145.82673828708766,141.67253422593257,0.0
0.127,2.8637825070161114,-0.5137562774491142,0.30072728746173194,0.0,9.852464144388318,8.581404326359344,145.5739809424239,141.67253422593257,0.0
0.128,2.7675775987387907,-0.5265983880984039,0.38809149262870024,0.0,9.778146422501747,8.472397388685678,145.8735801407226,141.67253422593257,0.0
0.129,2.6819846870082666,-0.5538599390625497,0.19628143433145295,0.0,9.70323012853604,8.353339795333932,145.61535787073183,141.67253422593257,0.0
0.13,2.6007995141726235,-0.5721243284420036,0.2859643328788444,0.0,9.625636171953825,8.258553991238598,145.83792331466447,141.67253422593257,0.0
0.131,2.527908903024737,-0.6017556136919331,0.13302772002520635,0.0,9.549399828103994,8.154973630993108,145.57497050566772,141.67253422593257,0.0
0.132,2.4576567736462884,-0.623233389781554,0.22547976172622652,0.0,9.472495325131955,8.072825591222985,145.69560396955075,141.67253422593257,0.0
0.133,2.3947801944302696,-0.6525924394465243,0.12493233234853296,0.0,9.39808118618236,7.985431069904089,145.47345842793086,141.67253422593257,0.0
0.134,2.3342861021924497,-0.6758371315059,0.19799586113849,0.0,9.324632334625715,7.9144026336368025,145.52660589621146,141.67253422593257,0.0
0.135,2.2797017055548445,-0.7036277513357716,0.13288141029540146,0.0,9.2542500458587,7.840638273667695,145.33676959249382,141.67253422593257,0.0
0.136,2.2269704607095706,-0.7267355396055787,0.1911572084886095,0.0,9.185793500482855,7.779528196095084,145.33404490592005,141.67253422593257,0.0
0.137,2.1791442567801687,-0.7517908404551203,0.15590444497561995,0.0,9.120596607098086,7.71795647975757,145.1915333187748,141.67253422593257,0.0
