timestamp,iq,id,iq_ref,id_ref,vq,vd,omega,omega_ref,r
0.0,0.0,0.0,0.0,0.0,0.0,0.0,0.0,320.9053134574473,0.0
0.001,0.0,0.0,10.0,0.0,0.0,1.0999999999999999,6.115472199294103,320.9053134574473,0.0
0.002,0.5307369851907212,-0.2913212625381807,10.0,0.0,0.14204533887919985,1.9316189316290207,13.317801563642547,320.9053134574473,0.0
0.003,1.0842913387634832,-0.6024330830807904,10.0,0.0,0.384357124667687,2.6386968949419622,20.697939467553027,320.9053134574473,0.0
0.004,1.5590443546685477,-0.8700465084428163,10.0,0.0,0.6994718867930164,3.2526109522886295,28.232747544420146,320.9053134574473,0.0
0.005,1.9399447555359186,-1.0838738622210777,10.0,0.0,1.065311453102468,3.7994935661768023,35.92944872443006,320.9053134574473,0.0
0.006,2.239750732602683,-1.2510087368845633,10.0,0.0,1.4655018868449925,4.299102221838433,43.75633668444442,320.9053134574473,0.0
0.007,2.4770151619816017,-1.382020589851471,10.0,0.0,1.8883740978591532,4.765668027847139,51.58766747378032,320.9053134574473,0.0
0.008,2.6680767290418097,-1.4872241871505252,10.0,0.0,2.325877945545995,5.209220346273558,59.45942083902103,320.9053134574473,0.0
0.009000000000000001,2.8266491704841292,-1.5730794701170803,10.0,0.0,2.772378685460125,5.636635464737965,67.35059094018146,320.9053134574473,0.0
0.01,2.962077666392183,-1.645500646948331,10.0,0.0,3.224078639851053,6.052647735211881,75.20908322432116,320.9053134574473,0.0
0.011,3.0811061533574158,-1.7084279320504514,10.0,0.0,3.678407615443203,6.460489925470405,83.0265951655913,320.9053134574473,0.0
0.012,3.188848746459569,-1.7638278597420747,10.0,0.0,4.133552631697047,6.862319393890706,90.74118064793086,320.9053134574473,0.0
0.013000000000000001,3.288205119878689,-1.8140726097274587,10.0,0.0,4.588339016389012,7.259628641949282,98.35820682563939,320.9053134574473,0.0
0.014,3.3820602099432007,-1.8592355758795645,10.0,0.0,5.041843166194517,7.653355107498287,105.90865295623543,320.9053134574473,0.0
0.015,3.4721069852858886,-1.899829032412081,10.0,0.0,5.493383198131427,8.044092747085895,113.37727610343421,320.9053134574473,0.0
0.016,3.5596145800153947,-1.9360338400176071,10.0,0.0,5.94241958510469,8.43218525824161,120.68508583176356,320.9053134574473,0.0
0.017,3.645144415105338,-1.9685384477868613,10.0,0.0,6.388575043274759,8.817838951066484,127.83962377537456,320.9053134574473,0.0
0.018000000000000002,3.730251927866576,-1.9959253041084188,10.0,0.0,6.83136783302799,9.201036292373047,134.85405702603322,320.9053134574473,0.0
0.019,3.81544967906247,-2.018253592643655,10.0,0.0,7.270383321112213,9.581672501020332,141.68976328564074,320.9053134574473,0.0
0.02,3.9014648862453374,-2.0350875541282063,10.0,0.0,7.705189334130692,9.959536942333155,148.3432823300447,320.9053134574473,0.0
0.021,3.9891051824829464,-2.0457889559126508,10.0,0.0,8.135310004560049,10.334315260302239,154.92060212100432,320.9053134574473,0.0
0.022,4.079618141396171,-2.0489696811670974,10.0,0.0,8.560139305503519,10.705547790999272,161.01925282597162,320.9053134574473,0.0
0.023,4.171109372430197,-2.048468292080302,10.0,0.0,8.979521969370257,11.072981092896333,166.534238406907,320.9053134574473,0.0
0.024,4.266936196769627,-2.039517194249811,10.0,0.0,9.392730090169543,11.435983292623375,171.8647834235234,320.9053134574473,0.0
0.025,4.367255527950721,-2.0225841458509217,10.0,0.0,9.79914449451603,11.793929226271104,177.02637022703064,320.9053134574473,0.0
0.026000000000000002,4.4734353073349595,-1.9962166741499119,10.0,0.0,10.197980960389518,12.146045424568259,181.63161391243256,320.9053134574473,0.0
0.027,4.582366840795821,-1.966358349113627,10.0,0.0,10.589124658468391,12.491912978736195,185.74793639675826,320.9053134574473,0.0
0.028,4.700058850757774,-1.9240450691803936,10.0,0.0,10.971384864613876,12.830451341534015,189.43662766964098,320.9053134574473,0.0
0.029,4.820934284790598,-1.879137197786803,10.0,0.0,11.344756153370636,13.161242511022618,192.73598774770625,320.9053134574473,0.0
0.03,4.952016225740939,-1.821000614527957,10.0,0.0,11.707923484756042,13.483081433273819,195.59831968863915,320.9053134574473,0.0
0.031,5.086039273572549,-1.7621311371320891,10.0,0.0,12.061063698547066,13.79562148058647,197.80891551030922,320.9053134574473,0.0
0.032,5.230431844273564,-1.6911110488141978,10.0,0.0,12.40292038074925,14.097678592248165,200.4421589734679,320.9053134574473,0.0
0.033,5.380124186618445,-1.6166151787533525,10.0,0.0,12.733312761073865,14.38869342901298,201.91742172589852,320.9053134574473,0.0
0.034,5.537594793894332,-1.535029134414507,10.0,0.0,13.051537880865839,14.667821176756876,203.18880493813168,320.9053134574473,0.0
0.035,5.698947813469154,-1.4530296333491768,10.0,0.0,13.357649178779205,14.934684535625108,203.60405746232266,320.9053134574473,0.0
0.036000000000000004,5.870474243492053,-1.3603000477825025,10.0,0.0,13.65045542338638,15.188218311291084,204.28541056101804,320.9053134574473,0.0
0.037,6.041188711220851,-1.275010780747051,10.0,0.0,13.930879897581198,15.42861600670124,205.2233356988433,320.9053134574473,0.0
0.038,6.228175208801664,-1.168399557236846,10.0,0.0,14.196427351981786,15.654155009933262,200.35169734043586,320.9053134574473,0.0
0.039,6.404895489618571,-1.0845312562500289,10.0,0.0,14.449814560392067,15.86612549236809,209.64773540576442,320.9053134574473,0.0
0.04,6.534612624563911,-1.0851225869390002,10.0,0.0,14.699963825590459,16.069735965364643,218.170241886545,320.9053134574473,0.0
0.041,6.621487035821765,-1.1484636683301073,10.0,0.0,14.952420817214799,16.26974130369247,220.68166573712315,320.9053134574473,0.0
0.042,6.6704785161669795,-1.2647840534085386,10.0,0.0,15.211794475054209,16.47047148862455,233.10654395573727,320.9053134574473,0.0
0.043000000000000003,6.709376245503157,-1.3867642159960276,10.0,0.0,15.477558399636717,16.673277185423842,235.10815372853793,320.9053134574473,0.0
0.044,6.744196093263161,-1.5028656568708394,10.0,0.0,15.74857785831126,16.87893749904121,248.8181267625822,320.9053134574473,0.0
0.045,6.750563942850831,-1.6564343609015326,10.0,0.0,16.02879294551472,17.090781462187255,251.61117095327992,320.9053134574473,0.0
0.046,6.764566527560506,-1.7840489455190416,10.0,0.0,16.314672837580048,17.307985931916857,266.60539535969383,320.9053134574473,0.0
0.047,6.752169677737121,-1.9446655565152717,10.0,0.0,16.610076868775216,17.533561623207692,270.0627790167984,320.9053134574473,0.0
0.048,6.7291903821171735,-2.110358990489937,10.0,0.0,16.91511817760721,17.768523902508925,283.13731951482634,320.9053134574473,0.0
0.049,6.714097190323873,-2.246352557911731,10.0,0.0,17.22645394156277,18.011924542904307,294.70561782835244,320.9053134574473,0.0
0.05,6.666841209228205,-2.4219663531358275,10.0,0.0,17.548953774962747,18.267165921658286,300.1294548425776,320.9053134574473,0.0
0.051000000000000004,6.612335516543512,-2.59336894353628,10.0,0.0,17.88182590988993,18.53465621226123,310.75154600411304,320.9053134574473,0.0
0.052000000000000005,6.568447424188529,-2.726701034625408,10.0,0.0,18.22111236450049,18.81296732052879,322.35703405819294,320.9053134574473,0.0
0.053,6.5036136539679195,-2.8764091099274185,4.868642931117411,0.0,18.569435851849086,18.539619519654295,327.327923180314,320.9053134574473,0.0
0.054,6.16312948238028,-2.874495650075346,2.3189722728282263,0.0,18.853884649038612,18.136093567051546,329.6323541208936,320.9053134574473,0.0
0.055,5.688061147729375,-2.76132118656669,1.0794863959039596,0.0,19.057105914861495,17.73937102464498,330.58341118443605,320.9053134574473,0.0
0.056,5.194151768494999,-2.6047001661471088,0.5071768868628395,0.0,19.184236232250356,17.401663024205348,329.922707980586,320.9053134574473,0.0
0.057,4.753485502401564,-2.4362587089928565,0.7473545435564839,0.0,19.2479203677736,17.186115688353212,328.25535704525066,320.9053134574473,0.0
0.058,4.420324868421441,-2.2833484766966485,1.507529575346111,0.0,19.268545645178257,17.11194998364541,326.09345121790324,320.9053134574473,0.0
0.059000000000000004,4.2187432044049755,-2.1595249492142328,2.536601111415264,0.0,19.267600338671574,17.17170187250058,324.0909898608805,320.9053134574473,0.0
0.06,4.149730198359197,-2.06418151740273,3.5059750258923073,0.0,19.263475209476635,17.327300071076223,323.49815260745845,320.9053134574473,0.0
0.061,4.190529838775303,-1.986857271846579,3.776465261103212,0.0,19.267770180365687,17.481808033096996,324.9149468691559,320.9053134574473,0.0
0.062,4.272322929729316,-1.9192368135863322,3.027971796137388,0.0,19.28042144241485,17.527666268905477,317.8560973494361,320.9053134574473,0.0
0.063,4.330655779232005,-1.816286182419534,6.587888717077421,0.0,19.2857450369942,17.963680920755337,312.680850238935,320.9053134574473,0.0
0.064,4.60442597071082,-1.7521288902774446,9.257756904513073,0.0,19.32810994147664,18.585181405719013,318.14252672409395,320.9053134574473,0.0
0.065,5.023199448495823,-1.7745575695682145,6.5545465292671405,0.0,19.431497131650605,18.781389128841592,311.8015187762912,320.9053134574473,0.0
0.066,5.288106017123094,-1.71448864534229,9.816088449980091,0.0,19.537334506661672,19.329164525929055,309.4870788929496,320.9053134574473,0.0
0.067,5.7154877389198155,-1.6434849111824223,10.0,0.0,19.680155962365056,19.775998048392562,310.8720357251004,320.9053134574473,0.0
0.068,6.11061411032093,-1.611529631938884,10.0,0.0,19.850573581369257,20.151401165043712,300.7805836191668,320.9053134574473,0.0
0.069,6.5112864395627925,-1.4995397115111535,10.0,0.0,20.029490411683533,20.466183039427563,303.69687990972,320.9053134574473,0.0
0.07,6.8616187456658455,-1.3984457220063877,10.0,0.0,20.21199330676354,20.73284857902555,295.3220829983634,320.9053134574473,0.0
0.07100000000000001,7.218559091042685,-1.2326470106752323,10.0,0.0,20.38568554794394,20.955337739241305,291.81869887135616,320.9053134574473,0.0
0.07200000000000001,7.527941430996299,-1.1077172469454917,10.0,0.0,20.552173194130933,21.142484553612405,290.8692428920229,320.9053134574473,0.0
0.073,7.860726214323756,-0.9209257975849802,10.0,0.0,20.701428995343974,21.294052948398615,293.8354766578804,320.9053134574473,0.0
0.074,8.089021339961755,-0.8922015024658709,10.0,0.0,20.84962429794483,21.423605467840588,299.0185228814265,320.9053134574473,0.0
0.075,8.163583623582062,-1.0802084951016655,10.0,0.0,21.016923334370933,21.549103365656602,315.351209416044,320.9053134574473,0.0
0.076,8.194291496685212,-1.2973127390989057,8.848114621731124,0.0,21.202043653849362,21.549441742518912,318.31292607431345,320.9053134574473,0.0
0.077,8.126758326734267,-1.501166457588688,7.393180166427744,0.0,21.388938645660083,21.427470104767778,333.35546540607726,320.9053134574473,0.0
0.078,7.936871282558784,-1.6952809683098538,-0.25259101894045877,0.0,21.56426103350905,20.53011188729516,330.8904496364698,320.9053134574473,0.0
0.079,7.3293863687695895,-1.674158563271572,0.8800655040730536,0.0,21.628050751164434,20.005996129814918,336.9100836165136,320.9053134574473,0.0
0.08,6.761754216168037,-1.690185133081412,-2.289799187539513,0.0,21.635024068035722,19.237023926189003,339.3547253226482,320.9053134574473,0.0
0.081,6.101140255819251,-1.6509857258493423,-3.6966141592588393,0.0,21.55993063236366,18.489586488752167,340.7800176359813,320.9053134574473,0.0
0.082,5.432293608207899,-1.5979684965909418,-4.608007357710731,0.0,21.412162895369022,17.79016534101305,340.7339552403971,320.9053134574473,0.0
0.083,4.803727575106017,-1.541155779124805,-4.783262577748122,0.0,21.203510590671243,17.198199189293874,339.70113644139883,320.9053134574473,0.0
0.084,4.259998539354767,-1.4977701746163958,-4.454811408088499,0.0,20.952322611950066,16.73597113674139,338.1191847408165,320.9053134574473,0.0
0.085,3.827143773588012,-1.4731161350769948,-3.8359742706310156,0.0,20.6777525375415,16.401811398872596,336.0404794634324,320.9053134574473,0.0
0.08600000000000001,3.5076836772662037,-1.4707169940562097,-2.9479732919988297,0.0,20.397206131670018,16.195914426562524,333.7119288292716,320.9053134574473,0.0
0.08700000000000001,3.3014743063803973,-1.4862516735032048,-1.911764128636663,0.0,20.125857475304056,16.107143938914046,331.24273677061325,320.9053134574473,0.0
0.088,3.1981215894731934,-1.5173890533060352,-0.780542332439154,0.0,19.876036400793694,16.123494645492862,328.3750419487662,320.9053134574473,0.0
0.089,3.1853291707397253,-1.560129130379645,0.5786077935711909,0.0,19.657222539072308,16.25179610875353,325.57426715267184,320.9053134574473,0.0
0.09,3.261465528997954,-1.6119601934473489,1.9323056546661173,0.0,19.478394226015844,16.472198379380583,322.32521288335494,320.9053134574473,0.0
0.091,3.415261182749609,-1.6656402556426746,3.542633795065491,0.0,19.344875467538543,16.800120550142182,320.2751155144421,320.9053134574473,0.0
0.092,3.654068029258769,-1.7140121712175291,4.5739844589519505,0.0,19.262284912076407,17.154513123024913,321.69480659071047,320.9053134574473,0.0
0.093,3.931726035081039,-1.7502528040845093,3.8562439894851437,0.0,19.226895419908374,17.347788112617575,321.04637350845604,320.9053134574473,0.0
0.094,4.128802818930065,-1.7541376751291897,4.17904993010227,0.0,19.21443730540266,17.541980846031556,312.3474906457237,320.9053134574473,0.0
0.095,4.328348263822584,-1.6951978069109672,8.614069589585664,0.0,19.21612204147446,18.18015336669088,313.37823067612317,320.9053134574473,0.0
0.096,4.755780561074524,-1.7000516579763882,8.173970402199185,0.0,19.2825788783044,18.616893903435326,316.17886332644605,320.9053134574473,0.0
0.097,5.136620800505144,-1.7104652550078885,6.820918578347756,0.0,19.3871610422886,18.834553258073676,305.6005976608213,320.9053134574473,0.0
0.098,5.42217213622948,-1.6241981738883555,10.0,0.0,19.493457410444748,19.376532123731497,308.097984107045,320.9053134574473,0.0
0.099,5.848645746229373,-1.5639754266873132,10.0,0.0,19.637560196970146,19.799095341679894,303.94796951140836,320.9053134574473,0.0
0.1,6.242500256180554,-1.5260687354714628,10.0,0.0,19.805941518076107,20.154753256491347,300.3328179822467,320.9053134574473,0.0
0.101,6.64922952760565,-1.395503677500014,10.0,0.0,19.97906740908792,20.450881837175007,295.77674499066677,320.9053134574473,0.0
0.10200000000000001,6.988576510303663,-1.3061519775809387,10.0,0.0,20.15597053265553,20.70144927350895,294.6911690766714,320.9053134574473,0.0
0.10300000000000001,7.347072331352876,-1.1348045627554817,10.0,0.0,20.322285388868167,20.908609208077827,283.49764827196424,320.9053134574473,0.0
0.10400000000000001,7.664697992812796,-0.994041666367572,10.0,0.0,20.478914308462006,21.080330770260975,289.40390414271013,320.9053134574473,0.0
0.105,7.961856943435067,-0.8661975536235604,10.0,0.0,20.624397268876823,21.221031840231355,295.7991340299832,320.9053134574473,0.0
0.106,8.09849028504736,-0.9755451906448691,10.0,0.0,20.78270872144698,21.350153021175043,303.1199661081206,320.9053134574473,0.0
0.107,8.136237664506847,-1.2040072491412674,10.0,0.0,20.96213849691887,21.47940735095695,317.9492484732719,320.9053134574473,0.0
0.108,8.157250179839048,-1.4146361294387952,6.936856054628946,0.0,21.15743528406953,21.2747994884251,320.0783491070087,320.9053134574473,0.0
0.109,7.960594615764541,-1.592465380035371,5.880575381264927,0.0,21.330196535014597,21.046464893446686,332.2983638814211,320.9053134574473,0.0
0.11,7.691791047364724,-1.7117554862807438,-0.3433625101810076,0.0,21.474191820548327,20.211771358618442,333.38686317545074,320.9053134574473,0.0
0.111,7.0647750538944125,-1.7203466384423614,-1.0124276543758643,0.0,21.520070349721188,19.52987264247716,336.32294502463526,320.9053134574473,0.0
0.112,6.4287925422106245,-1.679957661199718,-2.6346448946400036,0.0,21.48864245534434,18.812686322230697,339.20395245713325,320.9053134574473,0.0
0.113,5.769467494335052,-1.6417708397266502,-4.258135000885861,0.0,21.38484205779091,18.067880035436268,339.33374033108134,320.9053134574473,0.0
0.114,5.112242617470006,-1.5793300674350013,-4.507313206596247,0.0,21.210454454576023,17.441701121976646,338.9603516413954,320.9053134574473,0.0
0.115,4.531755078347704,-1.5294800361022576,-4.50116924359275,0.0,20.986028624612985,16.9211503380638,337.8286526969389,320.9053134574473,0.0
0.116,4.047424231045054,-1.4955409261107417,-4.104553163759416,0.0,20.72875549746923,16.52124989650963,335.9800195297506,320.9053134574473,0.0
0.117,3.67002007016233,-1.4811572936514998,-3.3309836408883147,0.0,20.45597683041382,16.253409822338064,333.7595669345707,320.9053134574473,0.0
0.11800000000000001,3.4068252872477265,-1.4865786034259887,-2.349299878069603,0.0,20.184432203046597,16.110502792071244,331.5328510411479,320.9053134574473,0.0
0.11900000000000001,3.253492686163203,-1.5087798477855667,-1.3422173071952064,0.0,19.928139259171207,16.069928885552528,328.9238890405324,320.9053134574473,0.0
0.12,3.1917634555070635,-1.5451698509518654,-0.1179220627182973,0.0,19.697199106936193,16.137641615843187,326.0619305976158,320.9053134574473,0.0
0.121,3.2197845831302363,-1.5893310162674978,1.2614909873383184,0.0,19.500618071106796,16.311281924597626,323.160711074581,320.9053134574473,0.0
0.122,3.331620639220835,-1.6419247794218652,2.6895467726843796,0.0,19.346402872029614,16.57917034988745,320.1516045885066,320.9053134574473,0.0
0.123,3.5224213310950496,-1.692516459743262,4.201637104410995,0.0,19.239437182592933,16.93702807583179,319.63121956995803,320.9053134574473,0.0
0.124,3.787578859093264,-1.7364348883926821,4.474570552560163,0.0,19.18327894504258,17.2360459150561,321.86074157054185,320.9053134574473,0.0
0.125,4.039734158774203,-1.760491704331658,3.3502552711373106,0.0,19.164845380636493,17.348056623480016,315.42603865367107,320.9053134574473,0.0
0.126,4.197363992705117,-1.7225169544495764,6.622399477610461,0.0,19.155038452866975,17.803384191411627,309.23767849817597,320.9053134574473,0.0
0.127,4.522087465406121,-1.691594540672125,9.833255904950725,0.0,19.188723256650874,18.49852779105801,315.40501569439147,320.9053134574473,0.0
0.128,5.000068469620416,-1.7435494393551498,6.804590284473535,0.0,19.29457820301394,18.712933052855703,309.9431940803722,320.9053134574473,0.0
0.129,5.292586662431602,-1.703758231609499,9.645122285253906,0.0,19.406391599081612,19.23183126823344,306.4909834259473,320.9053134574473,0.0
0.13,5.716300498303587,-1.631529774597566,10.0,0.0,19.55136625888643,19.676968890276637,308.3471738068093,320.9053134574473,0.0
0.131,6.110023332459077,-1.5976479023727026,10.0,0.0,19.723352493540467,20.049469065550163,298.0603860830389,320.9053134574473,0.0
0.132,6.505567439563116,-1.4895776576098312,10.0,0.0,19.903841214054793,20.362345223321835,301.68888990357044,320.9053134574473,0.0
0.133,6.853857697118207,-1.3880661236549208,10.0,0.0,20.08748311200744,20.627626150107755,293.23023576082204,320.9053134574473,0.0
0.134,7.207064012319699,-1.2250258248794292,10.0,0.0,20.262369595317658,20.849373381913743,289.8170591871584,320.9053134574473,0.0
0.135,7.513969830895306,-1.1012557438605315,10.0,0.0,20.42995784755313,21.036206961978845,288.9050724770236,320.9053134574473,0.0
0.136,7.843791288278968,-0.9165759794971122,10.0,0.0,20.580393559301783,21.187904707134543,288.84869452330145,320.9053134574473,0.0
0.137,8.057273421389263,-0.9097276478234102,10.0,0.0,20.732048955550663,21.319291428881236,302.37600378066844,320.9053134574473,0.0
0.138,8.131686381139449,-1.0946489967452506,10.0,0.0,20.902087316047464,21.44665441383673,310.1590903250142,320.9053134574473,0.0
0.139,8.17368330842799,-1.288558078653531,10.0,0.0,21.087338924510824,21.57440940394212,320.03805243661543,320.9053134574473,0.0
0.14,8.14599813878573,-1.5582162572306442,5.63330570733809,0.0,21.29456417996279,21.231043021624032,326.5303893330686,320.9053134574473,0.0
0.14100000000000001,7.888505261849346,-1.6648284026743343,2.3308865003552786,0.0,21.455761025850787,20.651183998008037,332.9739613469131,320.9053134574473,0.0
0.14200000000000002,7.390394229771898,-1.7307289611962573,-1.0115859854616094,0.0,21.549035224771355,19.863000064731565,334.551904728119,320.9053134574473,0.0
0.14300000000000002,6.740204717935626,-1.685167998476619,-1.9370235887712752,0.0,21.54849289898784,19.16112826915012,338.63241034275546,320.9053134574473,0.0
