timestamp,iq,id,iq_ref,id_ref,vq,vd,omega,omega_ref,r
0.0,0.0,0.0,0.0,0.0,0.0,0.0,0.0,9.16608459258983,0.0
0.001,0.0,0.0,4.674703142220813,0.0,0.0,0.5142173456442893,2.8558047549559387,9.16608459258983,0.0
0.002,0.24814560681390238,-0.13619316728573008,3.3099035631191827,0.0,0.06640298296585921,0.752841954851233,5.381031686437025,9.16608459258983,0.0
0.003,0.4346572388159243,-0.24189667178737784,2.0851406264401677,0.0,0.16029358237815083,0.8351336507383094,7.077233264209083,9.16608459258983,0.0
0.004,0.5163914698790452,-0.28894816330744405,1.257928350837946,0.0,0.2571429204601118,0.8327138669315303,8.198533041630164,9.16608459258983,0.0
0.005,0.518607358722184,-0.29016956256517196,0.7069539776370022,0.0,0.34372918535634805,0.7884595315554295,8.911859540290402,9.16608459258983,0.0
0.006,0.47439089506319354,-0.26470349259630904,0.35283297882987713,0.0,0.41441790853619836,0.7287316599607082,9.349137405731769,9.16608459258983,0.0
0.007,0.4101759801534324,-0.22752274878948095,0.1323635179777745,0.0,0.4682297511195293,0.6679564931412683,9.590314135484206,9.16608459258983,0.0
0.008,0.34261343217267,-0.18866379310945364,0.007532857672611998,0.0,0.506680215075848,0.6139030803658446,9.719520593804669,9.16608459258983,0.0
0.009000000000000001,0.281211958999179,-0.15355990244833867,-0.06260473149976759,0.0,0.5324074529430706,0.5687117636269613,9.629536535724732,9.16608459258983,0.0
0.01,0.2296472669407406,-0.1245863999183907,-0.02224722189114825,0.0,0.5482067889779993,0.5408111056920539,9.503182195067149,9.16608459258983,0.0
0.011,0.19311858626376716,-0.1034471355518916,0.037558972412870095,0.0,0.557600541560929,0.5269580613853688,9.540250335259145,9.16608459258983,0.0
0.012,0.17083166993322108,-0.08964723300991896,0.015283244890178738,0.0,0.563363017818945,0.5144675787866991,9.656820072186903,9.16608459258983,0.0
0.013000000000000001,0.15490160444736908,-0.08043490743475465,-0.04790897836967101,0.0,0.5664248414034442,0.49860344283047964,9.566408992034814,9.16608459258983,0.0
0.014,0.14018707756941298,-0.07287590800166145,-0.00670668228807636,0.0,0.566854702351983,0.4912553749316227,9.436668098677652,9.16608459258983,0.0
0.015,0.13124212266559823,-0.06775473102406664,0.05545792932962662,0.0,0.5660190309425776,0.49194798400527684,9.392042856450573,9.16608459258983,0.0
0.016,0.12873605920410527,-0.06570623406585263,0.07551096780455879,0.0,0.5651620646858506,0.49425817057841637,9.490064474677459,9.16608459258983,0.0
0.017,0.1291637962339143,-0.06560465832342723,0.023260359870239555,0.0,0.5646311253500259,0.49023143290315097,9.517842752204203,9.16608459258983,0.0
0.018000000000000002,0.12713985969963995,-0.06516211765125822,0.005853639510723652,0.0,0.5637029424637425,0.48538895229069456,9.3925933891104,9.16608459258983,0.0
0.019,0.12428984117905906,-0.06382252001572762,0.06621323309241908,0.0,0.5622403994716549,0.4880447866203581,9.321184745252593,9.16608459258983,0.0
0.02,0.12511126827724778,-0.06385094084566027,0.10036655349469539,0.0,0.5612062164793904,0.49332319536027325,9.416001881865078,9.16608459258983,0.0
0.021,0.12832714868022313,-0.06518456843844013,0.05045881229570007,0.0,0.5609497074872506,0.491793427617713,9.49734954430781,9.16608459258983,0.0
0.022,0.1285413829214738,-0.06574305831509923,0.006472331557154792,0.0,0.5606139702305736,0.4860601433184371,9.384705185757335,9.16608459258983,0.0
0.023,0.12576795041784652,-0.06471034755272374,0.06060830490071681,0.0,0.5596192951870083,0.4875686555164095,9.290678894477002,9.16608459258983,0.0
0.024,0.12591313155632322,-0.06451339635276188,0.10637550752201141,0.0,0.5588636013432251,0.49327617729486634,9.368792344448492,9.16608459258983,0.0
0.025,0.1291123772113334,-0.0656562120262349,0.06529170501768003,0.0,0.5588819082977474,0.49301002199874355,9.474783845811432,9.16608459258983,0.0
0.026000000000000002,0.12991656326400564,-0.06632572950558917,0.009208961803993998,0.0,0.5589339877931992,0.4869575811899791,9.39219211606064,9.16608459258983,0.0
0.027,0.12697779968039366,-0.06539832374217834,0.04824375144468196,0.0,0.5582669054494611,0.48670155255897296,9.27752573226087,9.16608459258983,0.0
0.028,0.12608195947043385,-0.06479053047922886,0.10446253194785673,0.0,0.5575833452757057,0.4922672913028956,9.32838679783896,9.16608459258983,0.0
0.029,0.12888823045752187,-0.06559776043327135,0.0774089771063205,0.0,0.5576195882212922,0.49335237310677,9.444339171468929,9.16608459258983,0.0
0.03,0.1302858969942035,-0.06633916129912822,0.016650244502544653,0.0,0.5578341968484115,0.4877939653776518,9.403092345541658,9.16608459258983,0.0
0.031,0.12767887117382268,-0.0656810957410048,0.03490357993666171,0.0,0.5573917026198546,0.48572906301355645,9.285679614197578,9.16608459258983,0.0
0.032,0.12591618148777356,-0.06475555059899592,0.09241399539262435,0.0,0.5566917382677041,0.4901378394160916,9.282623852846829,9.16608459258983,0.0
0.033,0.1278760837572314,-0.06509924078058899,0.09277648346542905,0.0,0.556549709362418,0.49326729513010614,9.399433756081079,9.16608459258983,0.0
0.034,0.13005432772526385,-0.06613836573425803,0.032038040213391544,0.0,0.5568456957621492,0.48916474092994927,9.418402470972925,9.16608459258983,0.0
0.035,0.12842294420681497,-0.06594569424340246,0.020030503983637454,0.0,0.5566702429883611,0.4849898308637386,9.295551036957788,9.16608459258983,0.0
0.036000000000000004,0.12587146783163944,-0.0646924613712494,0.0801615565475266,0.0,0.5559589155843023,0.48821370623718024,9.24217888119053,9.16608459258983,0.0
0.037,0.12693252377754932,-0.06467541365830401,0.10608669154514869,0.0,0.5556517655382909,0.4931522847391695,9.36240710885003,9.16608459258983,0.0
0.038,0.12978424159498758,-0.06593530038454923,0.044009352552796144,0.0,0.5560079463640962,0.4901754533467645,9.429662971150073,9.16608459258983,0.0
0.039,0.12897539488148455,-0.06602753683702656,0.007745637617172563,0.0,0.5560283731105903,0.4842811782398451,9.302014324303784,9.16608459258983,0.0
0.04,0.12574208330065806,-0.06457161144441366,0.07021066372317761,0.0,0.5552962555140311,0.48655973914604006,9.221664883109758,9.16608459258983,0.0
0.041,0.12606101756149757,-0.06430617821460893,0.10982958141499097,0.0,0.5548505673663949,0.4922032470024983,9.326194578817498,9.16608459258983,0.0
0.042,0.1291287146115687,-0.0654914217721968,0.05596363369884441,0.0,0.5551468299428007,0.4905821344999533,9.415455361094361,9.16608459258983,0.0
0.043000000000000003,0.1291145068135496,-0.06584537972091033,0.00883953487536751,0.0,0.555278437950094,0.4845400079401651,9.308606832265282,9.16608459258983,0.0
0.044,0.12595951232190583,-0.06462323574127941,0.060838576893152724,0.0,0.5546546970834327,0.485653297763377,9.209017397308319,9.16608459258983,0.0
0.045,0.12568522988167882,-0.0641732447363751,0.11020396632444923,0.0,0.5541673817150158,0.49150170805837495,9.293784207999574,9.16608459258983,0.0
0.046,0.12874038888022374,-0.0651869956600751,0.06654356482472445,0.0,0.5544296514245961,0.49108143741350624,9.40442981694689,9.16608459258983,0.0
0.047,0.12935723553808576,-0.0657175976931724,0.008837308107496084,0.0,0.5546718958131356,0.4847810350378054,9.319713256897206,9.16608459258983,0.0
0.048,0.12617656970692076,-0.06465265959063439,0.04965930148926398,0.0,0.5541374263136405,0.48455842088570195,9.197699802075492,9.16608459258983,0.0
0.049,0.1251783729915677,-0.06397508337724503,0.11034987680526412,0.0,0.5535702583464374,0.4906503595301792,9.260502541556177,9.16608459258983,0.0
0.05,0.1281933511192744,-0.06483303573425918,0.07800432757525849,0.0,0.5537701515618072,0.49156984178382623,9.383586816194033,9.16608459258983,0.0
0.051000000000000004,0.1295327813286174,-0.06554075584586569,0.014287168020288482,0.0,0.5541112733697119,0.4856147455331483,9.333688044414174,9.16608459258983,0.0
0.052000000000000005,0.12667511194724249,-0.06475745793119053,0.03756051939197427,0.0,0.5537295334000277,0.48381424926880856,9.209060669828073,9.16608459258983,0.0
0.053,0.1249521271854645,-0.06381620158360776,0.09944444591264237,0.0,0.5531102125817909,0.48889107866747267,9.221989102028965,9.16608459258983,0.0
0.054,0.12725687564891458,-0.06426563075844095,0.09242118471780479,0.0,0.5531193565579515,0.4917361428692105,9.346758265555065,9.16608459258983,0.0
0.055,0.12935767729509196,-0.0652871607368435,0.02822986622510247,0.0,0.5535199665625459,0.48709876192969687,9.350419862199738,9.16608459258983,0.0
0.056,0.1273983145259168,-0.06495742231639794,0.02455571520666716,0.0,0.5533702909466961,0.48343947457856423,9.222473082700622,9.16608459258983,0.0
0.057,0.12501145592441565,-0.06371854345603624,0.08796522005511702,0.0,0.552736674866883,0.4873858962629471,9.18804852334124,9.16608459258983,0.0
0.058,0.12650101952936887,-0.06381600758651246,0.10495786042729364,0.0,0.5525841724064453,0.4919216889808052,9.316450728110729,9.16608459258983,0.0
0.059000000000000004,0.12921313989127808,-0.06508855377816661,0.039253096687340686,0.0,0.5530395049036145,0.4883077641619569,9.364901478821922,9.16608459258983,0.0
0.06,0.12799730780425805,-0.06504230641592011,0.013039552469422996,0.0,0.5530700989974183,0.48303518558133024,9.230148805888984,9.16608459258983,0.0
0.061,0.12499284805152054,-0.06356668289312373,0.07977524680290068,0.0,0.5524085197098939,0.4862143183389392,9.164067800215317,9.16608459258983,0.0
0.062,0.1258556468532826,-0.06344505455878378,0.11283591756347905,0.0,0.5521323887453335,0.49185374426664247,9.291584284845687,9.16608459258983,0.0
0.063,0.12898864483815572,-0.06479971867126968,0.04782267832573567,0.0,0.5525980428057161,0.48908354969104334,9.366021126648349,9.16608459258983,0.0
0.064,0.12835995532828656,-0.06495500773855983,0.008604892083819607,0.0,0.5527436471587778,0.4830736017107435,9.235449586350489,9.16608459258983,0.0
0.065,0.1251013102854782,-0.06348558345871759,0.07319701229514279,0.0,0.5521105067170476,0.4855286841090547,9.15264214153983,9.16608459258983,0.0
0.066,0.1254941286352728,-0.06320636786201396,0.11473515921097197,0.0,0.5517701690864827,0.49152242271308405,9.269251618531932,9.16608459258983,0.0
0.067,0.1287175744488307,-0.06447797728842772,0.05539875045550027,0.0,0.5522059082722498,0.4895897164054008,9.358211173002333,9.16608459258983,0.0
0.068,0.12856107541258688,-0.06478112128364207,0.008997707416174672,0.0,0.5524254326538812,0.48343255335241353,9.239276253204691,9.16608459258983,0.0
0.069,0.12531311150865246,-0.06343973936981795,0.067733250708847,0.0,0.551856704841578,0.4851936902745458,9.143762613030093,9.16608459258983,0.0
0.07,0.12534165873214692,-0.06304377455307503,0.11571329059174346,0.0,0.5514908211920149,0.4913766698438027,9.248723570577653,9.16608459258983,0.0
0.07100000000000001,0.12860230716881538,-0.06420123901097735,0.06240642203808541,0.0,0.5519111046028701,0.4902028212956475,9.357416282545138,9.16608459258983,0.0
0.07200000000000001,0.12884329627880342,-0.06464008593961863,0.006146749154789605,0.0,0.5522086733353964,0.4835389882940358,9.244632850180666,9.16608459258983,0.0
0.073,0.12539974237165885,-0.06333501972354662,0.06175298276111704,0.0,0.5516621561414541,0.48463177871225227,9.129432379697237,9.16608459258983,0.0
0.074,0.12502269775076522,-0.06278435541284151,0.11971974013175785,0.0,0.5512320472967112,0.49138795871318697,9.231388395740094,9.16608459258983,0.0
0.075,0.12848159150192526,-0.06395370958029437,0.0680886940788266,0.0,0.5516547029380625,0.4907821784311887,9.349584489397493,9.16608459258983,0.0
0.076,0.12909928497365755,-0.06449307923620187,0.007155648282050273,0.0,0.5520221521075546,0.48405955982003035,9.249237975500282,9.16608459258983,0.0
0.077,0.12569627328524302,-0.06328579754580566,0.05649737140155128,0.0,0.5515423998164788,0.48446337620849256,9.12516058283647,9.16608459258983,0.0
0.078,0.12495320097898267,-0.06263327187595663,0.11894530783099104,0.0,0.5510912993865772,0.4912023993418491,9.215019281931061,9.16608459258983,0.0
0.079,0.1283232793190022,-0.06368155438745482,0.07352661139028295,0.0,0.5514810476459648,0.49122373480564285,9.339671574099686,9.16608459258983,0.0
0.08,0.1292588231575999,-0.06427895234450104,0.009464595490872085,0.0,0.551889185575953,0.48462006772562205,9.254055808383605,9.16608459258983,0.0
0.081,0.12597164888751228,-0.06319931692134736,0.051392766190975034,0.0,0.5514714091288232,0.4843412446907034,9.12329399110356,9.16608459258983,0.0
0.082,0.12489099365219332,-0.062464776876848815,0.11720158084585984,0.0,0.550997524972251,0.4909542145527839,9.195195990249792,9.16608459258983,0.0
0.083,0.12813634253650058,-0.06336190010931703,0.08095946729614467,0.0,0.5513383551735606,0.49184598344635483,9.332497485437681,9.16608459258983,0.0
0.084,0.12949479494107838,-0.06407799469725317,0.010644590773721305,0.0,0.551804078416445,0.48519346691306964,9.263466917597611,9.16608459258983,0.0
0.085,0.12626414387379978,-0.06312278755338556,0.04418605144367836,0.0,0.5514457439500073,0.48401443993776744,9.123446045888056,9.16608459258983,0.0
0.08600000000000001,0.12473851299200654,-0.06221738431887583,0.11462287276547405,0.0,0.5509152979483257,0.49046563083837397,9.173909699293437,9.16608459258983,0.0
0.08700000000000001,0.12779666260700467,-0.06295278960855687,0.08931279499574699,0.0,0.551172964251083,0.4923785285143962,9.31508470980129,9.16608459258983,0.0
0.088,0.1296159010310087,-0.06386453257651065,0.01723528856970595,0.0,0.551689091364745,0.486280943393434,9.272769180228856,9.16608459258983,0.0
0.089,0.1267908098589887,-0.06314877706821616,0.03732620747953279,0.0,0.5514559967193526,0.48410445805343805,9.131688385077512,9.16608459258983,0.0
0.09,0.12489339480729088,-0.06206223344211871,0.10821056713032817,0.0,0.5509162007607119,0.4898991468993581,9.155999708349674,9.16608459258983,0.0
0.091,0.12750084212821006,-0.06256188688362116,0.09615575433664877,0.0,0.5510756805973537,0.4927197209051913,9.297117879295763,9.16608459258983,0.0
0.092,0.12962875276507319,-0.0636225265459153,0.024286335996544534,0.0,0.5516129436793518,0.487281101907785,9.278504226451961,9.16608459258983,0.0
0.093,0.12723763158181076,-0.06311624793767728,0.032468966079824385,0.0,0.5514863215098805,0.4843431570474084,9.136274662872763,9.16608459258983,0.0
0.094,0.12509586458701838,-0.06190564874021556,0.103881847166594,0.0,0.5509504639456803,0.48967161823242894,9.142714471546952,9.16608459258983,0.0
0.095,0.12738124028543973,-0.062248828595962,0.10089564403992815,0.0,0.5510508940325088,0.4930982273909519,9.284868393598714,9.16608459258983,0.0
0.096,0.12970620188299464,-0.06340705387829956,0.028630845003958502,0.0,0.5516079150090065,0.4880400607608688,9.280753313276543,9.16608459258983,0.0
0.097,0.12757548747750497,-0.06301662313087544,0.029541697958176766,0.0,0.5515488875898061,0.48462388290734704,9.136817668799774,9.16608459258983,0.0
0.098,0.12527623251029688,-0.06172187642107016,0.10180218943446215,0.0,0.5510156272965692,0.48971457653244416,9.133505851246568,9.16608459258983,0.0
0.099,0.12738416610650713,-0.061979364978407156,0.10378388562449758,0.0,0.5510860336035704,0.49348339118659396,9.27725543340156,9.16608459258983,0.0
0.1,0.12982086597955006,-0.06319340794461825,0.03079738613888411,0.0,0.551657250585997,0.4885870754506384,9.279727286226484,9.16608459258983,0.0
0.101,0.12781056912843972,-0.0628555682288831,0.02842503279005583,0.0,0.5516324114981919,0.4849519187653587,9.133967501350044,9.16608459258983,0.0
0.10200000000000001,0.12544108057645598,-0.06151865809127435,0.10162609614067336,0.0,0.5511028589326602,0.48999417511408977,9.127930733340419,9.16608459258983,0.0
0.10300000000000001,0.12749959909737335,-0.06174657397855936,0.10502601873798027,0.0,0.5511689271075318,0.49387109950077157,9.273399461239048,9.16608459258983,0.0
0.10400000000000001,0.12997042068489917,-0.06298011420450388,0.03121850610217332,0.0,0.5517494911695656,0.4889629074609416,9.27561096298932,9.16608459258983,0.0
0.105,0.12796422059296453,-0.06264627102036581,0.0290174915230422,0.0,0.5517321214688982,0.4853449447799398,9.128110587406429,9.16608459258983,0.0
0.106,0.12560795015936538,-0.06130658794788728,0.10314741936632213,0.0,0.5512106657640664,0.49050247135229985,9.125888155468639,9.16608459258983,0.0
0.107,0.12773066090400434,-0.061552396302102415,0.10466059970642912,0.0,0.5512975440366422,0.4942601893696738,9.273157314802777,9.16608459258983,0.0
0.108,0.13015606278397387,-0.0627679273163122,0.029955292817230444,0.0,0.5518827566117186,0.48917254075200467,9.268428565763722,9.16608459258983,0.0
0.109,0.12804007666797299,-0.06239032645341244,0.031296227605018934,0.0,0.5518469916624594,0.48580374664071874,9.119057699124221,9.16608459258983,0.0
0.11,0.12577847914628315,-0.061087314907844185,0.10645192985942542,0.0,0.5513383685356141,0.4912495892119679,9.127353977991628,9.16608459258983,0.0
0.111,0.12808236047070135,-0.06140128399592421,0.10269109657170392,0.0,0.5514727586937228,0.49465869360831116,9.276948660610081,9.16608459258983,0.0
0.112,0.13038374263725833,-0.06255969478947059,0.026785114582274963,0.0,0.5520589057720641,0.48919816366979424,9.258193691455421,9.16608459258983,0.0
0.113,0.1280323169975774,-0.06208218189356384,0.03524150817094904,0.0,0.5519762746222344,0.48631323518964187,9.106201496466685,9.16608459258983,0.0
0.114,0.12594332652390716,-0.060855304008945656,0.11183643662654857,0.0,0.5514832323010236,0.49225568933245784,9.132289943884237,9.16608459258983,0.0
0.115,0.1285601359119583,-0.061299560180102165,0.09913015940482872,0.0,0.5516948765838888,0.4950822151125037,9.28544918450709,9.16608459258983,0.0
0.116,0.13066239719566272,-0.06236265578579394,0.02135689317422927,0.0,0.5522805069713868,0.48901417558235594,9.2448373749041,9.16608459258983,0.0
0.117,0.12793343128151743,-0.06171382245153167,0.04087527015258209,0.0,0.5521187677442941,0.48685746603729024,9.088994964069792,9.16608459258983,0.0
0.11800000000000001,0.12609490409309013,-0.06059948414829288,0.11956737185493588,0.0,0.5516414426053906,0.4935361492730832,9.140838741999767,9.16608459258983,0.0
0.11900000000000001,0.12916667060342996,-0.06125278453448678,0.09389794139584924,0.0,0.5519627247294704,0.49553239371586155,9.298828235987116,9.16608459258983,0.0
0.12,0.13098880025211132,-0.06218854573183907,0.01357575796820168,0.0,0.5525479038132667,0.4886126794580682,9.228014618748196,9.16608459258983,0.0
0.121,0.127742127839344,-0.06128126561263035,0.04836326632607833,0.0,0.5522734351378179,0.48744865754996797,9.06814113090853,9.16608459258983,0.0
0.122,0.12624924328424594,-0.060304381354468334,0.12927944486272464,0.0,0.5518116266718982,0.49505824609751825,9.153511371857158,9.16608459258983,0.0
0.123,0.12988765037916683,-0.06125510855575608,0.08672005659573674,0.0,0.5522713067420487,0.4959548468229943,9.314854956244897,9.16608459258983,0.0
0.124,0.13131645899491184,-0.06204971575019676,0.004560560765316746,0.0,0.5528525783971074,0.4880750199474784,9.206503777579824,9.16608459258983,0.0
0.125,0.12748949054380854,-0.060800573148906384,0.0583319582479532,0.0,0.5524423884410221,0.4882130062221934,9.047537567282836,9.16608459258983,0.0
0.126,0.12649887555672576,-0.059973128229079214,0.13900053364951723,0.0,0.5520084885928489,0.49670270215724177,9.173296593140314,9.16608459258983,0.0
0.127,0.130683676140793,-0.06129437435874065,0.07604890071527322,0.0,0.5526205598464587,0.49609843892306726,9.321878925975442,9.16608459258983,0.0
0.128,0.13147697112134588,-0.0619322958668748,0.00019979096385325246,0.0,0.5531679565558882,0.48785650895233745,9.177603859305188,9.16608459258983,0.0
0.129,0.12736574550529028,-0.060346130237736606,0.07222213163182652,0.0,0.5526555631630156,0.48963462798818647,9.044459659580868,9.16608459258983,0.0
0.13,0.12716118034709833,-0.059715525580340933,0.1400104808240763,0.0,0.5523187161569929,0.4979015806968716,9.200391228072569,9.16608459258983,0.0
0.131,0.1313453676274409,-0.06129760151145019,0.061701630223398585,0.0,0.5530225835214367,0.4955539901236692,9.314097993246815,9.16608459258983,0.0
0.132,0.13121634711336794,-0.06166197912110476,0.003368113629705599,0.0,0.5534455658698673,0.48793398115428355,9.147306939690178,9.16608459258983,0.0
0.133,0.12727723352272724,-0.05986008685165197,0.08695141693702028,0.0,0.5528623971607796,0.4913277821362508,9.045194523303799,9.16608459258983,0.0
