timestamp,iq,id,iq_ref,id_ref,vq,vd,omega,omega_ref,r
0.0,0.0,0.0,0.0,0.0,0.0,0.0,0.0,354.5414449705826,0.0
0.001,0.0,0.0,10.0,0.0,0.0,1.0999999999999999,6.115472199294103,354.5414449705826,0.0
0.002,0.5307369851907212,-0.2913212625381807,10.0,0.0,0.14204533887919985,1.9316189316290207,13.317801563642547,354.5414449705826,0.0
0.003,1.0842913387634832,-0.6024330830807904,10.0,0.0,0.384357124667687,2.6386968949419622,20.697939467553027,354.5414449705826,0.0
0.004,1.5590443546685477,-0.8700465084428163,10.0,0.0,0.6994718867930164,3.2526109522886295,28.232747544420146,354.5414449705826,0.0
0.005,1.9399447555359186,-1.0838738622210777,10.0,0.0,1.065311453102468,3.7994935661768023,35.92944872443006,354.5414449705826,0.0
0.006,2.239750732602683,-1.2510087368845633,10.0,0.0,1.4655018868449925,4.299102221838433,43.75633668444442,354.5414449705826,0.0
0.007,2.4770151619816017,-1.382020589851471,10.0,0.0,1.8883740978591532,4.765668027847139,51.58766747378032,354.5414449705826,0.0
0.008,2.6680767290418097,-1.4872241871505252,10.0,0.0,2.325877945545995,5.209220346273558,59.45942083902103,354.5414449705826,0.0
0.009000000000000001,2.8266491704841292,-1.5730794701170803,10.0,0.0,2.772378685460125,5.636635464737965,67.35059094018146,354.5414449705826,0.0
0.01,2.962077666392183,-1.645500646948331,10.0,0.0,3.224078639851053,6.052647735211881,75.20908322432116,354.5414449705826,0.0
0.011,3.0811061533574158,-1.7084279320504514,10.0,0.0,3.678407615443203,6.460489925470405,83.0265951655913,354.5414449705826,0.0
0.012,3.188848746459569,-1.7638278597420747,10.0,0.0,4.133552631697047,6.862319393890706,90.74118064793086,354.5414449705826,0.0
0.013000000000000001,3.288205119878689,-1.8140726097274587,10.0,0.0,4.588339016389012,7.259628641949282,98.35820682563939,354.5414449705826,0.0
0.014,3.3820602099432007,-1.8592355758795645,10.0,0.0,5.041843166194517,7.653355107498287,105.90865295623543,354.5414449705826,0.0
0.015,3.4721069852858886,-1.899829032412081,10.0,0.0,5.493383198131427,8.044092747085895,113.37727610343421,354.5414449705826,0.0
0.016,3.5596145800153947,-1.9360338400176071,10.0,0.0,5.94241958510469,8.43218525824161,120.68508583176356,354.5414449705826,0.0
0.017,3.645144415105338,-1.9685384477868613,10.0,0.0,6.388575043274759,8.817838951066484,127.83962377537456,354.5414449705826,0.0
0.018000000000000002,3.730251927866576,-1.9959253041084188,10.0,0.0,6.83136783302799,9.201036292373047,134.85405702603322,354.5414449705826,0.0
0.019,3.81544967906247,-2.018253592643655,10.0,0.0,7.270383321112213,9.581672501020332,141.68976328564074,354.5414449705826,0.0
0.02,3.9014648862453374,-2.0350875541282063,10.0,0.0,7.705189334130692,9.959536942333155,148.3432823300447,354.5414449705826,0.0
0.021,3.9891051824829464,-2.0457889559126508,10.0,0.0,8.135310004560049,10.334315260302239,154.92060212100432,354.5414449705826,0.0
0.022,4.079618141396171,-2.0489696811670974,10.0,0.0,8.560139305503519,10.705547790999272,161.01925282597162,354.5414449705826,0.0
0.023,4.171109372430197,-2.048468292080302,10.0,0.0,8.979521969370257,11.072981092896333,166.534238406907,354.5414449705826,0.0
0.024,4.266936196769627,-2.039517194249811,10.0,0.0,9.392730090169543,11.435983292623375,171.8647834235234,354.5414449705826,0.0
0.025,4.367255527950721,-2.0225841458509217,10.0,0.0,9.79914449451603,11.793929226271104,177.02637022703064,354.5414449705826,0.0
0.026000000000000002,4.4734353073349595,-1.9962166741499119,10.0,0.0,10.197980960389518,12.146045424568259,181.63161391243256,354.5414449705826,0.0
0.027,4.582366840795821,-1.966358349113627,10.0,0.0,10.589124658468391,12.491912978736195,185.74793639675826,354.5414449705826,0.0
0.028,4.700058850757774,-1.9240450691803936,10.0,0.0,10.971384864613876,12.830451341534015,189.43662766964098,354.5414449705826,0.0
0.029,4.820934284790598,-1.879137197786803,10.0,0.0,11.344756153370636,13.161242511022618,192.73598774770625,354.5414449705826,0.0
0.03,4.952016225740939,-1.821000614527957,10.0,0.0,11.707923484756042,13.483081433273819,195.59831968863915,354.5414449705826,0.0
0.031,5.086039273572549,-1.7621311371320891,10.0,0.0,12.061063698547066,13.79562148058647,197.80891551030922,354.5414449705826,0.0
0.032,5.230431844273564,-1.6911110488141978,10.0,0.0,12.40292038074925,14.097678592248165,200.4421589734679,354.5414449705826,0.0
0.033,5.380124186618445,-1.6166151787533525,10.0,0.0,12.733312761073865,14.38869342901298,201.91742172589852,354.5414449705826,0.0
0.034,5.537594793894332,-1.535029134414507,10.0,0.0,13.051537880865839,14.667821176756876,203.18880493813168,354.5414449705826,0.0
0.035,5.698947813469154,-1.4530296333491768,10.0,0.0,13.357649178779205,14.934684535625108,203.60405746232266,354.5414449705826,0.0
0.036000000000000004,5.870474243492053,-1.3603000477825025,10.0,0.0,13.65045542338638,15.188218311291084,204.28541056101804,354.5414449705826,0.0
0.037,6.041188711220851,-1.275010780747051,10.0,0.0,13.930879897581198,15.42861600670124,205.2233356988433,354.5414449705826,0.0
0.038,6.228175208801664,-1.168399557236846,10.0,0.0,14.196427351981786,15.654155009933262,200.35169734043586,354.5414449705826,0.0
0.039,6.404895489618571,-1.0845312562500289,10.0,0.0,14.449814560392067,15.86612549236809,209.64773540576442,354.5414449705826,0.0
0.04,6.534612624563911,-1.0851225869390002,10.0,0.0,14.699963825590459,16.069735965364643,218.170241886545,354.5414449705826,0.0
0.041,6.621487035821765,-1.1484636683301073,10.0,0.0,14.952420817214799,16.26974130369247,220.68166573712315,354.5414449705826,0.0
0.042,6.6704785161669795,-1.2647840534085386,10.0,0.0,15.211794475054209,16.47047148862455,233.10654395573727,354.5414449705826,0.0
0.043000000000000003,6.709376245503157,-1.3867642159960276,10.0,0.0,15.477558399636717,16.673277185423842,235.10815372853793,354.5414449705826,0.0
0.044,6.744196093263161,-1.5028656568708394,10.0,0.0,15.74857785831126,16.87893749904121,248.8181267625822,354.5414449705826,0.0
0.045,6.750563942850831,-1.6564343609015326,10.0,0.0,16.02879294551472,17.090781462187255,251.61117095327992,354.5414449705826,0.0
0.046,6.764566527560506,-1.7840489455190416,10.0,0.0,16.314672837580048,17.307985931916857,266.60539535969383,354.5414449705826,0.0
0.047,6.752169677737121,-1.9446655565152717,10.0,0.0,16.610076868775216,17.533561623207692,270.0627790167984,354.5414449705826,0.0
0.048,6.7291903821171735,-2.110358990489937,10.0,0.0,16.91511817760721,17.768523902508925,283.13731951482634,354.5414449705826,0.0
0.049,6.714097190323873,-2.246352557911731,10.0,0.0,17.22645394156277,18.011924542904307,294.70561782835244,354.5414449705826,0.0
0.05,6.666841209228205,-2.4219663531358275,10.0,0.0,17.548953774962747,18.267165921658286,300.1294548425776,354.5414449705826,0.0
0.051000000000000004,6.612335516543512,-2.59336894353628,10.0,0.0,17.88182590988993,18.53465621226123,310.75154600411304,354.5414449705826,0.0
0.052000000000000005,6.568447424188529,-2.726701034625408,10.0,0.0,18.22111236450049,18.81296732052879,322.35703405819294,354.5414449705826,0.0
0.053,6.5036136539679195,-2.8764091099274185,10.0,0.0,18.569435851849082,19.104068797231378,330.9557012510771,354.5414449705826,0.0
0.054,6.434362099984388,-3.0149932598739144,10.0,0.0,18.925784313874168,19.407861808234543,339.4707232587175,354.5414449705826,0.0
0.055,6.370891759459199,-3.1253006473392393,10.0,0.0,19.28762520191878,19.723199586257838,348.00092263299223,354.5414449705826,0.0
0.056,6.314459991163816,-3.2071523724558277,8.983235646947211,0.0,19.652716394849435,19.936916387554696,355.9352972268282,354.5414449705826,0.0
0.057,6.213453218500042,-3.234100859391071,5.00210982746677,0.0,20.00481596492842,19.74856085871268,358.81827673474146,354.5414449705826,0.0
0.058,5.9133056637444925,-3.126865368667502,3.5178517558685485,0.0,20.290804636266362,19.522799873378236,355.396602578609,354.5414449705826,0.0
0.059000000000000004,5.571036294846422,-2.9231485545635905,5.220137257854504,0.0,20.50428184729287,19.584955994676694,352.60676380043526,354.5414449705826,0.0
0.06,5.395728034283861,-2.73151077608609,6.634403458642857,0.0,20.68358396185509,19.81665186698772,355.9530565463849,354.5414449705826,0.0
0.061,5.383409952371184,-2.582563295291486,4.947140969910006,0.0,20.853657607089552,19.842968734160138,357.06157212935284,354.5414449705826,0.0
0.062,5.339015689964084,-2.4119862985726637,4.367681906838341,0.0,20.992081579686683,19.841553595133856,346.66065240059686,354.5414449705826,0.0
0.063,5.318028183960295,-2.190058210905278,9.646949696916188,0.0,21.093815321445256,20.442501097845543,345.85191821071004,354.5414449705826,0.0
0.064,5.634295841537359,-2.070032179401213,10.0,0.0,21.234486856710365,20.944570762506846,349.41508667686713,354.5414449705826,0.0
0.065,5.998505830339324,-2.0087984562538606,8.405127168127766,0.0,21.405762755683934,21.194633677499308,337.6097245898904,354.5414449705826,0.0
0.066,6.294545571546147,-1.8633454561018716,10.0,0.0,21.56952986347413,21.5992803590698,338.25680848129906,354.5414449705826,0.0
0.067,6.673046352693889,-1.7017872413586308,10.0,0.0,21.741068055022133,21.92521566642937,330.27954554648807,354.5414449705826,0.0
0.068,7.026438625225931,-1.5688255839652008,10.0,0.0,21.91503575798544,22.200623120040735,327.9766592528638,354.5414449705826,0.0
0.069,7.411198125661805,-1.358445912472034,10.0,0.0,22.077335288723244,22.427096976264668,316.66707648692056,354.5414449705826,0.0
0.07,7.751230982541411,-1.1966610040662062,10.0,0.0,22.230359708799945,22.61359738068759,318.06745529511016,354.5414449705826,0.0
0.07100000000000001,8.108906995861563,-0.9916066042839282,10.0,0.0,22.365793592419283,22.76080615377947,311.46399847967797,354.5414449705826,0.0
0.07200000000000001,8.458501861598966,-0.7888998470904078,10.0,0.0,22.482157765692403,22.87195876282618,319.46517991544687,354.5414449705826,0.0
0.073,8.56510269683556,-0.9682855041883565,10.0,0.0,22.619760272395595,22.97540238507688,335.26249761188996,354.5414449705826,0.0
0.074,8.612104378348652,-1.196724952324833,10.0,0.0,22.777281373377573,23.07815771915875,340.15606995538405,354.5414449705826,0.0
0.075,8.601756236535445,-1.46738105497142,10.0,0.0,22.956813674479292,23.18799794234522,357.64346000871683,354.5414449705826,0.0
0.076,8.547659246157934,-1.7612876537666255,4.9709503790210565,0.0,23.1589999326305,22.757459102538924,359.9023749743715,354.5414449705826,0.0
0.077,8.197167080537668,-1.9202384332057105,3.7878835961558197,0.0,23.312459200736306,22.34835909093745,369.907309588429,354.5414449705826,0.0
0.078,7.740890033437837,-2.0466714957504197,-1.3682423570513675,0.0,23.421980669956906,21.48685737380734,373.03298819861175,354.5414449705826,0.0
0.079,7.034016440660887,-2.0324874426627026,-3.1159970944230464,0.0,23.431575244077344,20.654959538467953,376.3263524047906,354.5414449705826,0.0
0.08,6.264888812966294,-1.979231973562695,-4.980528271854559,0.0,23.351304316181675,19.797125365049443,376.84847189062833,354.5414449705826,0.0
0.081,5.485464184339959,-1.890583828280164,-5.464658283973876,0.0,23.18405832244364,19.06048395949635,375.92562540792795,354.5414449705826,0.0
0.082,4.788686807673824,-1.8016375011783619,-5.2170768469971405,0.0,22.95097517299573,18.48170861846041,373.90929780828486,354.5414449705826,0.0
0.083,4.223032807227403,-1.731595285472582,-4.402591575552617,0.0,22.6765076239324,18.07987422835485,371.29047293388396,354.5414449705826,0.0
0.084,3.8132231634500156,-1.685692037873132,-3.2606694179851807,0.0,22.384954455685964,17.847665627782533,368.34696706686407,354.5414449705826,0.0
0.085,3.556908785119103,-1.667148144009533,-1.9269717054380484,0.0,22.097754948357938,17.768906582425945,364.65688654479186,354.5414449705826,0.0
0.08600000000000001,3.4393740627098275,-1.674842195826229,-0.18308586014403794,0.0,21.83243127186553,17.85815963241079,360.8014958642534,354.5414449705826,0.0
0.08700000000000001,3.4641732836460672,-1.7015797535859902,1.6820089711884787,0.0,21.605429458856246,18.09577332121446,356.9215629424898,354.5414449705826,0.0
0.088,3.6144752278639993,-1.7475156746479743,3.598174252351212,0.0,21.42967477176749,18.46276747079682,353.18746150459236,354.5414449705826,0.0
0.089,3.879766595300762,-1.7951933655612757,5.478764805959832,0.0,21.312980155135687,18.935511013821507,353.2374512132451,354.5414449705826,0.0
0.09,4.240511912396823,-1.8377916088954505,5.466809889206841,0.0,21.259438384327154,19.29216072329543,355.3885046409193,354.5414449705826,0.0
0.091,4.5611614095331445,-1.8584186962990292,4.382812578666381,0.0,21.248758758727917,19.457007138235163,344.26823407018924,354.5414449705826,0.0
0.092,4.79680887096655,-1.7848267780079425,10.0,0.0,21.247330355296526,20.210316812786786,343.0843967716376,354.5414449705826,0.0
0.093,5.3176640394575605,-1.7736583491814257,10.0,0.0,21.320883151675428,20.777043211407094,345.70023781652816,354.5414449705826,0.0
0.094,5.8121732005893225,-1.7839213989441933,9.516721943838364,0.0,21.44499392804064,21.192104207585896,334.7008553246496,354.5414449705826,0.0
0.095,6.256720140689154,-1.7104531889574721,10.0,0.0,21.590015592791048,21.592108476723073,335.6412325189724,354.5414449705826,0.0
0.096,6.693389619728025,-1.5881856138114787,10.0,0.0,21.747820766813938,21.918193531566676,326.09349479485763,354.5414449705826,0.0
0.097,7.086672301861116,-1.459695494530712,10.0,0.0,21.90954269154948,22.188556198083962,325.731928155285,354.5414449705826,0.0
0.098,7.477945959492793,-1.2770984694131267,10.0,0.0,22.063327918893055,22.408947514904913,313.21866928637564,354.5414449705826,0.0
0.099,7.842935929771601,-1.0975153668921518,10.0,0.0,22.20584558415825,22.58644206262378,311.82457593461,354.5414449705826,0.0
0.1,8.18941339458397,-0.9250528757204002,10.0,0.0,22.334685894665128,22.725976300670713,315.626972627716,354.5414449705826,0.0
0.101,8.482406569548525,-0.8269403632093835,10.0,0.0,22.455527846461514,22.83567667136565,321.6642956300717,354.5414449705826,0.0
0.10200000000000001,8.562095496971118,-1.0393176233156018,10.0,0.0,22.599598263884545,22.940655349903892,337.7620380975549,354.5414449705826,0.0
0.10300000000000001,8.587464138176115,-1.2895462951809322,10.0,0.0,22.76516088872323,23.047549541072296,343.3636016221923,354.5414449705826,0.0
0.10400000000000001,8.566882519839417,-1.562463647955997,10.0,0.0,22.952375292281488,23.162828240036816,360.9349986121582,354.5414449705826,0.0
0.105,8.502997658966402,-1.858002888316193,2.6813763532119843,0.0,23.162176268292242,22.48707342682669,361.49513565257837,354.5414449705826,0.0
0.106,8.02056359579672,-1.9583093397551798,2.3317709261819477,0.0,23.291499982635592,21.987032730373162,368.9003099476207,354.5414449705826,0.0
0.107,7.480077308761404,-2.0307122662817387,-1.5144048711096048,0.0,23.36484851330279,21.18497434250974,373.94797260775704,354.5414449705826,0.0
0.108,6.7727626728251265,-2.020473162555574,-4.2323014775495125,0.0,23.34880602144178,20.282349524846545,375.3005899847848,354.5414449705826,0.0
0.109,5.977788932279089,-1.9432832761227075,-5.116201616205404,0.0,23.235716800530195,19.478706855676524,375.4619544904452,354.5414449705826,0.0
0.11,5.2262733720350445,-1.8524784646664871,-5.406088964234231,0.0,23.04435560439692,18.795787898657114,374.2234035614517,354.5414449705826,0.0
0.111,4.574130118070108,-1.7702669573956429,-4.9836330856461695,0.0,22.795703414489793,18.275614340184998,371.91368606446343,354.5414449705826,0.0
0.112,4.060855996530353,-1.709188889528723,-4.002496748090857,0.0,22.514002615333517,17.93623207774431,369.21254706762534,354.5414449705826,0.0
0.113,3.70649094497336,-1.6732404573183208,-2.798638270642236,0.0,22.22319012298432,17.759078445231722,366.1014941890975,354.5414449705826,0.0
0.114,3.4999747146637077,-1.6652210023373744,-1.3587123235634566,0.0,21.943220860892993,17.736085330958154,362.3206123472397,354.5414449705826,0.0
0.115,3.4307294509163295,-1.6807067591767948,0.45393692359885396,0.0,21.690732841385582,17.877938576328987,358.6048922187691,354.5414449705826,0.0
0.116,3.4987763712711706,-1.7159562223874947,2.2711625153522856,0.0,21.481401531750777,18.153948403956747,354.4724061514648,354.5414449705826,0.0
0.117,3.684008654825962,-1.7645735041011132,4.338095937195634,0.0,21.325599742198623,18.570919456356002,351.8085903515128,354.5414449705826,0.0
0.11800000000000001,3.9890998736058743,-1.8108802569905955,5.69733238336232,0.0,21.23168280684231,19.027752188189776,353.9475723732423,354.5414449705826,0.0
0.11900000000000001,4.349991468325939,-1.8503705968069872,4.633780098470985,0.0,21.19672170805592,19.262279674273415,350.5033778221123,354.5414449705826,0.0
0.12,4.608104222586609,-1.8425222039061508,6.396258045520664,0.0,21.187451241139282,19.64958291187296,339.73196983239393,354.5414449705826,0.0
0.121,4.945137892714852,-1.7876985728597123,10.0,0.0,21.211886029188157,20.34152303837162,344.0815755892524,354.5414449705826,0.0
0.122,5.4622394800584635,-1.777394710809523,9.821251471310584,0.0,21.30248616256695,20.857502035418158,343.230253866727,354.5414449705826,0.0
0.123,5.928479672220121,-1.777480173463916,10.0,0.0,21.435736621825,21.306277564276296,331.6295588274834,354.5414449705826,0.0
0.124,6.398905193147199,-1.6777629069381694,10.0,0.0,21.589569834098697,21.67462869550718,334.9059106512609,354.5414449705826,0.0
0.125,6.812986904908941,-1.5677256604432719,10.0,0.0,21.75374791381892,21.980683301757818,323.56017685124203,354.5414449705826,0.0
0.126,7.210513687692393,-1.4075669959926693,10.0,0.0,21.91559656556757,22.232963126366858,322.9663015772755,354.5414449705826,0.0
0.127,7.576032583969874,-1.246899902622947,10.0,0.0,22.07041654097609,22.439968022927165,314.1132524887225,354.5414449705826,0.0
0.128,7.95142165517894,-1.0363192923218008,10.0,0.0,22.20889781230037,22.604116818502067,305.29507388822645,354.5414449705826,0.0
0.129,8.286937546041507,-0.8713157410229808,10.0,0.0,22.333901251509843,22.73254600436912,317.3876443119741,354.5414449705826,0.0
0.13,8.495554236234321,-0.9041946431289158,10.0,0.0,22.464513980129727,22.841039938557834,328.24514923063543,354.5414449705826,0.0
0.131,8.581364818717272,-1.087618731765232,10.0,0.0,22.612762690035424,22.944392755018463,334.8179477996914,354.5414449705826,0.0
0.132,8.573739459996917,-1.3751844605710581,10.0,0.0,22.786319799878893,23.053932056107676,351.2157698832224,354.5414449705826,0.0
0.133,8.550072870722069,-1.6377726242304629,7.223451981206207,0.0,22.97948416956141,22.86697992723802,355.74236285869836,354.5414449705826,0.0
0.134,8.322792214560515,-1.871018940385341,4.94814631458706,0.0,23.157668102529154,22.520285511368435,364.5881371590633,354.5414449705826,0.0
0.135,7.95927135050683,-2.0060352169515556,0.42479224251977676,0.0,23.2958835278739,21.78897752760566,372.5232761734268,354.5414449705826,0.0
0.136,7.327045292821785,-2.059811011225548,-3.722595576690402,0.0,23.35171178691237,20.799552423066014,372.80245528566167,354.5414449705826,0.0
0.137,6.507196810092585,-1.9796857297607882,-4.044795235958635,0.0,23.293663170689165,20.00454564308014,374.6551923316447,354.5414449705826,0.0
0.138,5.735004686667269,-1.9016027601987127,-5.172301232560766,0.0,23.154130864252515,19.239173665186474,374.629274919004,354.5414449705826,0.0
0.139,5.017361908071809,-1.8182763262705843,-5.360220825724633,0.0,22.943629512633684,18.59820834356775,372.9770400586839,354.5414449705826,0.0
0.14,4.405504827092105,-1.7434643696488294,-4.718459346445592,0.0,22.68268571312576,18.132890228723163,370.5496929474376,354.5414449705826,0.0
0.14100000000000001,3.9406183935132715,-1.6907344689101855,-3.664868270591012,0.0,22.396252312569132,17.842505885847324,367.8706259264408,354.5414449705826,0.0
0.14200000000000002,3.6312410559416204,-1.664654050152606,-2.4586265696511953,0.0,22.107082270724636,17.704049956345344,364.49185810103756,354.5414449705826,0.0
0.14300000000000002,3.4623533652554634,-1.663810735871305,-0.868746788254116,0.0,21.833151679731028,17.72883084715315,360.7718575038256,354.5414449705826,0.0
0.14400000000000002,3.432781206954332,-1.685293797648634,0.9289493850194503,0.0,21.591463806855874,17.90715243153319,357.08883696612884,354.5414449705826,0.0
