timestamp,iq,id,iq_ref,id_ref,vq,vd,omega,omega_ref,r
0.0,0.0,0.0,0.0,0.0,0.0,0.0,0.0,210.83377511750967,0.0
0.001,0.0,0.0,10.0,0.0,0.0,1.0999999999999999,6.115472199294103,210.83377511750967,0.0
0.002,0.5307369851907212,-0.2913212625381807,10.0,0.0,0.14204533887919985,1.9316189316290207,13.317801563642547,210.83377511750967,0.0
0.003,1.0842913387634832,-0.6024330830807904,10.0,0.0,0.384357124667687,2.6386968949419622,20.697939467553027,210.83377511750967,0.0
0.004,1.5590443546685477,-0.8700465084428163,10.0,0.0,0.6994718867930164,3.2526109522886295,28.232747544420146,210.83377511750967,0.0
0.005,1.9399447555359186,-1.0838738622210777,10.0,0.0,1.065311453102468,3.7994935661768023,35.92944872443006,210.83377511750967,0.0
0.006,2.239750732602683,-1.2510087368845633,10.0,0.0,1.4655018868449925,4.299102221838433,43.75633668444442,210.83377511750967,0.0
0.007,2.4770151619816017,-1.382020589851471,10.0,0.0,1.8883740978591532,4.765668027847139,51.58766747378032,210.83377511750967,0.0
0.008,2.6680767290418097,-1.4872241871505252,10.0,0.0,2.325877945545995,5.209220346273558,59.45942083902103,210.83377511750967,0.0
0.009000000000000001,2.8266491704841292,-1.5730794701170803,10.0,0.0,2.772378685460125,5.636635464737965,67.35059094018146,210.83377511750967,0.0
0.01,2.962077666392183,-1.645500646948331,10.0,0.0,3.224078639851053,6.052647735211881,75.20908322432116,210.83377511750967,0.0
0.011,3.0811061533574158,-1.7084279320504514,10.0,0.0,3.678407615443203,6.460489925470405,83.0265951655913,210.83377511750967,0.0
0.012,3.188848746459569,-1.7638278597420747,10.0,0.0,4.133552631697047,6.862319393890706,90.74118064793086,210.83377511750967,0.0
0.013000000000000001,3.288205119878689,-1.8140726097274587,10.0,0.0,4.588339016389012,7.259628641949282,98.35820682563939,210.83377511750967,0.0
0.014,3.3820602099432007,-1.8592355758795645,10.0,0.0,5.041843166194517,7.653355107498287,105.90865295623543,210.83377511750967,0.0
0.015,3.4721069852858886,-1.899829032412081,10.0,0.0,5.493383198131427,8.044092747085895,113.37727610343421,210.83377511750967,0.0
0.016,3.5596145800153947,-1.9360338400176071,10.0,0.0,5.94241958510469,8.43218525824161,120.68508583176356,210.83377511750967,0.0
0.017,3.645144415105338,-1.9685384477868613,10.0,0.0,6.388575043274759,8.817838951066484,127.83962377537456,210.83377511750967,0.0
0.018000000000000002,3.730251927866576,-1.9959253041084188,10.0,0.0,6.83136783302799,9.201036292373047,134.85405702603322,210.83377511750967,0.0
0.019,3.81544967906247,-2.018253592643655,10.0,0.0,7.270383321112213,9.581672501020332,141.68976328564074,210.83377511750967,0.0
0.02,3.9014648862453374,-2.0350875541282063,10.0,0.0,7.705189334130692,9.959536942333155,148.3432823300447,210.83377511750967,0.0
0.021,3.9891051824829464,-2.0457889559126508,10.0,0.0,8.135310004560049,10.334315260302239,154.92060212100432,210.83377511750967,0.0
0.022,4.079618141396171,-2.0489696811670974,10.0,0.0,8.560139305503519,10.705547790999272,161.01925282597162,210.83377511750967,0.0
0.023,4.171109372430197,-2.048468292080302,10.0,0.0,8.979521969370257,11.072981092896333,166.534238406907,210.83377511750967,0.0
0.024,4.266936196769627,-2.039517194249811,10.0,0.0,9.392730090169543,11.435983292623375,171.8647834235234,210.83377511750967,0.0
0.025,4.367255527950721,-2.0225841458509217,10.0,0.0,9.79914449451603,11.793929226271104,177.02637022703064,210.83377511750967,0.0
0.026000000000000002,4.4734353073349595,-1.9962166741499119,10.0,0.0,10.197980960389518,12.146045424568259,181.63161391243256,210.83377511750967,0.0
0.027,4.582366840795821,-1.966358349113627,10.0,0.0,10.589124658468391,12.491912978736195,185.74793639675826,210.83377511750967,0.0
0.028,4.700058850757774,-1.9240450691803936,10.0,0.0,10.971384864613876,12.830451341534015,189.43662766964098,210.83377511750967,0.0
0.029,4.820934284790598,-1.879137197786803,10.0,0.0,11.344756153370636,13.161242511022618,192.73598774770625,210.83377511750967,0.0
0.03,4.952016225740939,-1.821000614527957,10.0,0.0,11.707923484756042,13.483081433273819,195.59831968863915,210.83377511750967,0.0
0.031,5.086039273572549,-1.7621311371320891,10.0,0.0,12.061063698547066,13.79562148058647,197.80891551030922,210.83377511750967,0.0
0.032,5.230431844273564,-1.6911110488141978,10.0,0.0,12.40292038074925,14.097678592248165,200.4421589734679,210.83377511750967,0.0
0.033,5.380124186618445,-1.6166151787533525,9.63846359571123,0.0,12.733312761073865,14.348924424541215,201.69195267296993,210.83377511750967,0.0
0.034,5.518955644219821,-1.5245936694223732,9.104984970405617,0.0,13.046413079269527,14.539243089983989,203.32864455342255,210.83377511750967,0.0
0.035,5.631803775094962,-1.4186845951022837,8.36169033582018,0.0,13.336505449108,14.654387317330455,198.6295822924057,210.83377511750967,0.0
0.036000000000000004,5.717625181765449,-1.2817813964967808,10.0,0.0,13.595102743593866,14.966361494906758,202.35447476995725,210.83377511750967,0.0
0.037,5.887984818851043,-1.211057228092288,9.038944891387802,0.0,13.85262709985034,15.133017479572167,203.2316205050142,210.83377511750967,0.0
0.038,6.0494786173685355,-1.0886327579547102,8.676393569984278,0.0,14.088305168916618,15.262429485662349,196.30428856514084,210.83377511750967,0.0
0.039,6.174001471239583,-0.9868479971747948,10.0,0.0,14.303384552700868,15.539607742625266,206.51137470152426,210.83377511750967,0.0
0.04,6.326177246113276,-1.0028020848574193,7.1793282533039,0.0,14.527446621055876,15.471572049136187,212.12783791627865,210.83377511750967,0.0
0.041,6.299788778526358,-1.0031723140767737,4.358156017939015,0.0,14.722180097563776,15.155048392591645,211.34789334123823,210.83377511750967,0.0
0.042,6.068760972671375,-0.9831629471529775,4.742987123221938,0.0,14.863583128112623,14.985342767255288,219.2033400008309,210.83377511750967,0.0
0.043000000000000003,5.8518860976938365,-0.9906403571886302,0.731568144592389,0.0,14.97489790184611,14.42318956699436,217.24113410637003,210.83377511750967,0.0
0.044,5.461267154932415,-0.9026328766758245,1.6485975019342254,0.0,15.009110281223384,14.110169918180747,220.77766260446236,210.83377511750967,0.0
0.045,5.126241680452483,-0.8861513417850633,-0.21910562198147066,0.0,15.007666563748716,13.650202447747258,220.50223370996397,210.83377511750967,0.0
0.046,4.765279152583931,-0.8302332676945676,-0.17807576065681818,0.0,14.954384298177128,13.295633291915268,222.04800189559302,210.83377511750967,0.0
0.047,4.439826329723447,-0.8215772557308398,-1.0631021212521743,0.0,14.870580363004386,12.905619812066535,221.80579698114957,210.83377511750967,0.0
0.048,4.126638105158998,-0.803743268548152,-1.0517198826668483,0.0,14.754280294893588,12.587525773009236,222.35279396690981,210.83377511750967,0.0
0.049,3.853449262764001,-0.8119814393403202,-1.4404085640409727,0.0,14.618885368347106,12.273660444127383,222.27037758913346,210.83377511750967,0.0
0.05,3.6031579574878543,-0.8242696517836452,-1.5135663998690339,0.0,14.466912723227932,11.998281835508145,222.07931746067044,210.83377511750967,0.0
0.051000000000000004,3.3823111719018915,-0.846598645180783,-1.5304917590691307,0.0,14.304932788908,11.75590384544688,221.67293900154755,210.83377511750967,0.0
0.052000000000000005,3.1906498831283376,-0.8761515417564458,-1.4356941683480637,0.0,14.137940577703292,11.551036923440304,221.19333498033603,210.83377511750967,0.0
0.053,3.029092295596943,-0.9124621606865086,-1.2994877563705707,0.0,13.970859534534943,11.379846923664939,220.65333065752446,210.83377511750967,0.0
0.054,2.895098457165057,-0.9536200665655026,-1.1276811503649338,0.0,13.80753185916328,11.239728228443312,220.06394954811196,210.83377511750967,0.0
0.055,2.785790985971966,-0.9976073179623501,-0.9252923399647068,0.0,13.650952100401486,11.128517221737571,219.4534958963251,210.83377511750967,0.0
0.056,2.6986062800466915,-1.0426266479961361,-0.7062627218594337,0.0,13.503421470635047,11.04333595265366,218.91026994593867,210.83377511750967,0.0
0.057,2.631100356036961,-1.0866023823735587,-0.5154146949505023,0.0,13.366512914418037,10.977276538862238,218.36588748855337,210.83377511750967,0.0
0.058,2.5787356349876753,-1.1271445162698976,-0.3185445899682908,0.0,13.240709149828408,10.928964502182536,217.97629334291096,210.83377511750967,0.0
0.059000000000000004,2.539946765216937,-1.162009489501333,-0.19517269940110094,0.0,13.126084283746268,10.8882486280887,217.25844614977012,210.83377511750967,0.0
0.06,2.507193872845731,-1.1920200528802236,0.09950418684671503,0.0,13.021802829102318,10.874537522840743,216.3310741726381,210.83377511750967,0.0
0.061,2.48977931858266,-1.2189156623648578,0.5082171848614436,0.0,12.929236820807493,10.89536911561756,215.39335109648337,210.83377511750967,0.0
0.062,2.493334870273654,-1.2472722219748353,0.9314829631490693,0.0,12.850860838082083,10.94676779769006,214.2059060594359,210.83377511750967,0.0
0.063,2.5201679200981655,-1.2729345736396351,1.4914841722535406,0.0,12.788001614923495,11.039640408537599,213.5535950550031,210.83377511750967,0.0
0.064,2.574967811373539,-1.298985425343995,1.7904414750950153,0.0,12.743324545336348,11.138465469663997,213.45932794866695,210.83377511750967,0.0
0.065,2.64132891242914,-1.3182414498499133,1.8113194999515088,0.0,12.714855342999163,11.215495605221479,215.32072668246303,210.83377511750967,0.0
0.066,2.697948619304496,-1.3263690106859038,0.8357506174039355,0.0,12.69763754589834,11.168889892914958,213.2772667810229,210.83377511750967,0.0
0.067,2.6857580859925196,-1.3048163978851692,1.8330456514888755,0.0,12.675028894260512,11.246588270436902,209.57751492655905,210.83377511750967,0.0
0.068,2.7240889964143675,-1.2827702427450358,3.6954841806303027,0.0,12.660241394601254,11.504812927428052,210.3534676202512,210.83377511750967,0.0
0.069,2.874109848323905,-1.2915894654639875,3.3123109087568134,0.0,12.673945686657522,11.658843938950834,213.56900926883733,210.83377511750967,0.0
0.07,2.9976988829144036,-1.2997133310266111,1.6771877429504674,0.0,12.70248808364514,11.610715877721141,209.61587598933232,210.83377511750967,0.0
0.07100000000000001,3.011287899647965,-1.258753711986403,3.6659333739847457,0.0,12.718776638060973,11.805109211890226,205.5690226576556,210.83377511750967,0.0
0.07200000000000001,3.1292767606701637,-1.2246755589877858,5.742007564421645,0.0,12.749536669812693,12.177329888176596,210.31651613103287,210.83377511750967,0.0
0.073,3.3565210377924575,-1.2544303913118826,3.3734334175977816,0.0,12.818056579103517,12.210283620081277,208.87164147606347,210.83377511750967,0.0
0.074,3.445550890103386,-1.2319520142825753,4.115492081496942,0.0,12.880249700859252,12.34458532323874,203.59443530017333,210.83377511750967,0.0
0.075,3.565256011825379,-1.1711428897734841,6.826488567615376,0.0,12.943189460829458,12.750187930223753,209.53336879389008,210.83377511750967,0.0
0.076,3.812513048079521,-1.1889806434946772,3.8700258839931996,0.0,13.042965749655567,12.743202169676927,204.1448349096338,210.83377511750967,0.0
0.077,3.897233875816011,-1.1375203836176775,6.631182228200096,0.0,13.126226827420705,13.073337718077905,206.1528286560848,210.83377511750967,0.0
0.078,4.1184409904386206,-1.1030889078527624,5.673994819588842,0.0,13.23090249251405,13.222398066694865,204.5988081017989,210.83377511750967,0.0
0.079,4.267673468482988,-1.0810029497785933,6.513354766888899,0.0,13.337931485329246,13.454717913809931,203.44516206301142,210.83377511750967,0.0
0.08,4.4724233585406745,-1.0208900547912034,7.164063916827623,0.0,13.45109800470656,13.716662919389373,203.62875938725054,210.83377511750967,0.0
0.081,4.676347231789311,-1.0146276861373043,7.144315412010656,0.0,13.579054641102037,13.934666522162567,202.6263264854385,210.83377511750967,0.0
0.082,4.89729947699428,-0.9527341231649336,7.727606349237382,0.0,13.709270305894858,14.18575940820104,200.5505713244368,210.83377511750967,0.0
0.083,5.106709140171182,-0.9395859415922851,8.868315967668973,0.0,13.850746328468977,14.523584180272747,203.1638947334718,210.83377511750967,0.0
0.084,5.389606115053519,-0.9072200529575052,7.638353066991842,0.0,14.008428460058752,14.66604649153061,197.84893140384344,210.83377511750967,0.0
0.085,5.589067015880025,-0.8436594398092614,10.0,0.0,14.15792060105538,15.062999847117238,200.1168541994559,210.83377511750967,0.0
0.08600000000000001,5.881039391643611,-0.8445520167293633,9.390377316938142,0.0,14.3328926531037,15.314409764452249,206.77525564909809,210.83377511750967,0.0
0.08700000000000001,6.110388500591669,-0.8699094202902848,6.101761786801165,0.0,14.518288880303198,15.180215735547494,207.58393670032004,210.83377511750967,0.0
0.088,6.077372647714156,-0.8871137362618613,5.729919645362085,0.0,14.673364982613531,15.075889486902245,211.4808745645819,210.83377511750967,0.0
0.089,5.954024295490147,-0.9395571880404691,3.7749797187604264,0.0,14.808097586364228,14.799416663056622,217.11291461217132,210.83377511750967,0.0
0.09,5.746488690945735,-0.9140194614637167,0.8961683000191041,0.0,14.898376062914076,14.28853995815275,215.30162398313794,210.83377511750967,0.0
0.091,5.369413887428543,-0.8655522838301404,1.7571351258795107,0.0,14.92346300904462,14.000676108767756,217.38412003529598,210.83377511750967,0.0
0.092,5.0687311593633195,-0.8464559022526091,0.6503836506226297,0.0,14.915638945426421,13.643059360449456,219.28577103735023,210.83377511750967,0.0
0.093,4.762388704127846,-0.8330716826435515,-0.3849618096029017,0.0,14.871554312996988,13.248292237524172,220.13723649547833,210.83377511750967,0.0
0.094,4.4441631360305625,-0.8128189352400448,-0.9037291524466404,0.0,14.790307471499675,12.87382379847627,220.62822957262287,210.83377511750967,0.0
0.095,4.1355272227147735,-0.8033680319331767,-1.2471702355700405,0.0,14.678901398357588,12.526854368252057,220.75561232637517,210.83377511750967,0.0
0.096,3.85196759148088,-0.8015152023959199,-1.4100799845348462,0.0,14.54382968729125,12.217060812483727,220.81743210038323,210.83377511750967,0.0
0.097,3.599281258286359,-0.8126651764181534,-1.5408264413676105,0.0,14.392530817192538,11.936946328762701,220.54610592790215,210.83377511750967,0.0
0.098,3.3759175403306316,-0.8326892698132428,-1.5022866632309944,0.0,14.230441536264829,11.697303392210443,220.1604288967053,210.83377511750967,0.0
0.099,3.1852455944506235,-0.862100787905258,-1.402714685424526,0.0,14.063631915830836,11.494723617865235,219.69855812645508,210.83377511750967,0.0
0.1,3.025587355190605,-0.8991068721380934,-1.260427130388872,0.0,13.897021834090415,11.326032457046802,219.1832997392632,210.83377511750967,0.0
0.101,2.893828145546448,-0.9413502675448775,-1.0862931830104614,0.0,13.734480357094611,11.1881781934657,218.62835503079197,210.83377511750967,0.0
0.10200000000000001,2.7865899633040363,-0.9866210726045006,-0.8867666279076718,0.0,13.57896495604276,11.078540398080872,218.05757371752242,210.83377511750967,0.0
0.10300000000000001,2.700917116637493,-1.0329143026370977,-0.6736139572730249,0.0,13.432676862810613,10.994118001659022,217.5563361265643,210.83377511750967,0.0
0.10400000000000001,2.6341557610121713,-1.0781012961136685,-0.49022077188451485,0.0,13.297082976241585,10.928037779894648,217.04159189490733,210.83377511750967,0.0
0.105,2.581743687972086,-1.119767270033716,-0.29492682383000357,0.0,13.172571843349466,10.87975230856008,216.64856930188176,210.83377511750967,0.0
0.106,2.5424719787014705,-1.1559694169759638,-0.15656346916094277,0.0,13.059248853037545,10.840907067892173,216.07264245653624,210.83377511750967,0.0
0.107,2.509965871013482,-1.1877595019610063,0.07901128012155212,0.0,12.95650852556896,10.822326595887224,215.142114028044,210.83377511750967,0.0
0.108,2.49010153546003,-1.2141257918445492,0.5011921052623274,0.0,12.864766574684078,10.84127429744257,214.32891961351763,210.83377511750967,0.0
0.109,2.4910834115283143,-1.2431960456724171,0.8728378675654374,0.0,12.787027654065442,10.88550560963278,213.18729348215027,210.83377511750967,0.0
0.11,2.512877006271089,-1.26851660417972,1.4201157496027115,0.0,12.723980315625226,10.971636531282156,212.5177408024052,210.83377511750967,0.0
0.111,2.562029819384965,-1.2942217584766684,1.7380524326262896,0.0,12.678425164581554,11.067161009739689,212.1935818350187,210.83377511750967,0.0
0.112,2.624398486787997,-1.313935094923158,1.8865338491444468,0.0,12.648889391954148,11.155362088950673,213.98980791993986,210.83377511750967,0.0
0.113,2.685925525052882,-1.3240736594636182,0.9568604786595651,0.0,12.632045413245567,11.121896310524193,212.84859305518762,210.83377511750967,0.0
0.114,2.6796235561219595,-1.309801192269473,1.5073197316589075,0.0,12.611867897528438,11.161248450569323,209.24742459829199,210.83377511750967,0.0
0.115,2.7002225616071325,-1.2816075857365576,3.3237674652989018,0.0,12.594684775340848,11.386623372915958,208.79362101235512,210.83377511750967,0.0
0.116,2.8274120963347302,-1.2822742230481634,3.5710707993188815,0.0,12.602112723776296,11.582996521449788,211.8014009192681,210.83377511750967,0.0
0.117,2.964589902286968,-1.2986473830142757,2.057504587844804,0.0,12.630229573444737,11.577692170063962,209.57870894153237,210.83377511750967,0.0
0.11800000000000001,3.0022060514857536,-1.273069976668809,3.1814012384724446,0.0,12.652027056710082,11.711728234114997,204.56038991432203,210.83377511750967,0.0
0.11900000000000001,3.093799088920335,-1.2357619601434846,5.753294604109491,0.0,12.681200290299667,12.096510671175444,209.175520881428,210.83377511750967,0.0
0.12,3.3229173576344397,-1.2583766982678137,3.462311662917316,0.0,12.748795145595267,12.143718051517089,209.21258117087763,210.83377511750967,0.0
0.121,3.4161144289573286,-1.2413555145975714,3.45999345765883,0.0,12.812252775810506,12.207658511029248,203.00413038606507,210.83377511750967,0.0
0.122,3.4972114440274895,-1.1738640743499669,6.642515297379553,0.0,12.868504842364898,12.61366257108908,207.8756500991076,210.83377511750967,0.0
0.123,3.7383557506594873,-1.1794700755792429,4.236336691042316,0.0,12.961023682807532,12.662471663125254,204.81846734048074,210.83377511750967,0.0
0.124,3.842487401000526,-1.148181205852841,5.825081148126031,0.0,13.045673712727327,12.905432367873459,203.61299367187098,210.83377511750967,0.0
0.125,4.030396251933681,-1.0951770674237553,6.500025796887296,0.0,13.140637243600025,13.17128981483249,205.60638469844366,210.83377511750967,0.0
0.126,4.226535059661318,-1.09362427729411,5.555604187791616,0.0,13.253049400551385,13.28972586635404,199.85732264512683,210.83377511750967,0.0
0.127,4.383082098914686,-1.0254719971714128,8.53989973917386,0.0,13.358582724047565,13.730017468920982,205.44090986581432,210.83377511750967,0.0
0.128,4.664631275134523,-1.0464266649122649,5.802034781347069,0.0,13.50057841170354,13.776420203714427,199.43252472552436,210.83377511750967,0.0
0.129,4.816091273934662,-0.9668726779268249,8.920239855411902,0.0,13.62405431882745,14.188918333413708,203.2303352150055,210.83377511750967,0.0
0.13,5.086877259676767,-0.9732651632685341,7.097369009696368,0.0,13.777931161466356,14.312544538642465,199.87170637486278,210.83377511750967,0.0
0.131,5.285002835123125,-0.8918281188368682,8.8863041171942,0.0,13.919760940623334,14.635121424452475,199.09743862407677,210.83377511750967,0.0
0.132,5.526420454822708,-0.8849801594375548,9.390801357521536,0.0,14.079726525356012,14.952654262545721,201.717580948055,210.83377511750967,0.0
0.133,5.81097394939549,-0.8520962209951017,8.171892137226967,0.0,14.251900081790067,15.086418680461227,200.88564923623525,210.83377511750967,0.0
0.134,5.9959147906680474,-0.8091990579579282,8.687339251949586,0.0,14.415842875822605,15.275414329456765,207.16251007451936,210.83377511750967,0.0
0.135,6.0969406427869135,-0.9071592639526387,5.585621483237436,0.0,14.593495549641231,15.106297831930092,212.3541356431396,210.83377511750967,0.0
0.136,6.0171027484721,-0.915719397133318,2.974605093671009,0.0,14.73643331891525,14.72545605326858,211.55289264620222,210.83377511750967,0.0
0.137,5.742893276707257,-0.8990878847005672,3.368035416852779,0.0,14.825078065696314,14.495744391797267,218.8552432803107,210.83377511750967,0.0
0.138,5.499620409496213,-0.8897662334797973,-0.36335458182947056,0.0,14.881028105142182,13.907499088739886,215.24068694774874,210.83377511750967,0.0
