timestamp,iq,id,iq_ref,id_ref,vq,vd,omega,omega_ref,r
0.0,0.0,0.0,0.0,0.0,0.0,0.0,0.0,489.29287804524745,0.0
0.001,0.0,0.0,10.0,0.0,0.0,1.0999999999999999,6.115472199294103,489.29287804524745,0.0
0.002,0.5307369851907212,-0.2913212625381807,10.0,0.0,0.14204533887919985,1.9316189316290207,13.317801563642547,489.29287804524745,0.0
0.003,1.0842913387634832,-0.6024330830807904,10.0,0.0,0.384357124667687,2.6386968949419622,20.697939467553027,489.29287804524745,0.0
0.004,1.5590443546685477,-0.8700465084428163,10.0,0.0,0.6994718867930164,3.2526109522886295,28.232747544420146,489.29287804524745,0.0
0.005,1.9399447555359186,-1.0838738622210777,10.0,0.0,1.065311453102468,3.7994935661768023,35.92944872443006,489.29287804524745,0.0
0.006,2.239750732602683,-1.2510087368845633,10.0,0.0,1.4655018868449925,4.299102221838433,43.75633668444442,489.29287804524745,0.0
0.007,2.4770151619816017,-1.382020589851471,10.0,0.0,1.8883740978591532,4.765668027847139,51.58766747378032,489.29287804524745,0.0
0.008,2.6680767290418097,-1.4872241871505252,10.0,0.0,2.325877945545995,5.209220346273558,59.45942083902103,489.29287804524745,0.0
0.009000000000000001,2.8266491704841292,-1.5730794701170803,10.0,0.0,2.772378685460125,5.636635464737965,67.35059094018146,489.29287804524745,0.0
0.01,2.962077666392183,-1.645500646948331,10.0,0.0,3.224078639851053,6.052647735211881,75.20908322432116,489.29287804524745,0.0
0.011,3.0811061533574158,-1.7084279320504514,10.0,0.0,3.678407615443203,6.460489925470405,83.0265951655913,489.29287804524745,0.0
0.012,3.188848746459569,-1.7638278597420747,10.0,0.0,4.133552631697047,6.862319393890706,90.74118064793086,489.29287804524745,0.0
0.013000000000000001,3.288205119878689,-1.8140726097274587,10.0,0.0,4.588339016389012,7.259628641949282,98.35820682563939,489.29287804524745,0.0
0.014,3.3820602099432007,-1.8592355758795645,10.0,0.0,5.041843166194517,7.653355107498287,105.90865295623543,489.29287804524745,0.0
0.015,3.4721069852858886,-1.899829032412081,10.0,0.0,5.493383198131427,8.044092747085895,113.37727610343421,489.29287804524745,0.0
0.016,3.5596145800153947,-1.9360338400176071,10.0,0.0,5.94241958510469,8.43218525824161,120.68508583176356,489.29287804524745,0.0
0.017,3.645144415105338,-1.9685384477868613,10.0,0.0,6.388575043274759,8.817838951066484,127.83962377537456,489.29287804524745,0.0
0.018000000000000002,3.730251927866576,-1.9959253041084188,10.0,0.0,6.83136783302799,9.201036292373047,134.85405702603322,489.29287804524745,0.0
0.019,3.81544967906247,-2.018253592643655,10.0,0.0,7.270383321112213,9.581672501020332,141.68976328564074,489.29287804524745,0.0
0.02,3.9014648862453374,-2.0350875541282063,10.0,0.0,7.705189334130692,9.959536942333155,148.3432823300447,489.29287804524745,0.0
0.021,3.9891051824829464,-2.0457889559126508,10.0,0.0,8.135310004560049,10.334315260302239,154.92060212100432,489.29287804524745,0.0
0.022,4.079618141396171,-2.0489696811670974,10.0,0.0,8.560139305503519,10.705547790999272,161.01925282597162,489.29287804524745,0.0
0.023,4.171109372430197,-2.048468292080302,10.0,0.0,8.979521969370257,11.072981092896333,166.534238406907,489.29287804524745,0.0
0.024,4.266936196769627,-2.039517194249811,10.0,0.0,9.392730090169543,11.435983292623375,171.8647834235234,489.29287804524745,0.0
0.025,4.367255527950721,-2.0225841458509217,10.0,0.0,9.79914449451603,11.793929226271104,177.02637022703064,489.29287804524745,0.0
0.026000000000000002,4.4734353073349595,-1.9962166741499119,10.0,0.0,10.197980960389518,12.146045424568259,181.63161391243256,489.29287804524745,0.0
0.027,4.582366840795821,-1.966358349113627,10.0,0.0,10.589124658468391,12.491912978736195,185.74793639675826,489.29287804524745,0.0
0.028,4.700058850757774,-1.9240450691803936,10.0,0.0,10.971384864613876,12.830451341534015,189.43662766964098,489.29287804524745,0.0
0.029,4.820934284790598,-1.879137197786803,10.0,0.0,11.344756153370636,13.161242511022618,192.73598774770625,489.29287804524745,0.0
0.03,4.952016225740939,-1.821000614527957,10.0,0.0,11.707923484756042,13.483081433273819,195.59831968863915,489.29287804524745,0.0
0.031,5.086039273572549,-1.7621311371320891,10.0,0.0,12.061063698547066,13.79562148058647,197.80891551030922,489.29287804524745,0.0
0.032,5.230431844273564,-1.6911110488141978,10.0,0.0,12.40292038074925,14.097678592248165,200.4421589734679,489.29287804524745,0.0
0.033,5.380124186618445,-1.6166151787533525,10.0,0.0,12.733312761073865,14.38869342901298,201.91742172589852,489.29287804524745,0.0
0.034,5.537594793894332,-1.535029134414507,10.0,0.0,13.051537880865839,14.667821176756876,203.18880493813168,489.29287804524745,0.0
0.035,5.698947813469154,-1.4530296333491768,10.0,0.0,13.357649178779205,14.934684535625108,203.60405746232266,489.29287804524745,0.0
0.036000000000000004,5.870474243492053,-1.3603000477825025,10.0,0.0,13.65045542338638,15.188218311291084,204.28541056101804,489.29287804524745,0.0
0.037,6.041188711220851,-1.275010780747051,10.0,0.0,13.930879897581198,15.42861600670124,205.2233356988433,489.29287804524745,0.0
0.038,6.228175208801664,-1.168399557236846,10.0,0.0,14.196427351981786,15.654155009933262,200.35169734043586,489.29287804524745,0.0
0.039,6.404895489618571,-1.0845312562500289,10.0,0.0,14.449814560392067,15.86612549236809,209.64773540576442,489.29287804524745,0.0
0.04,6.534612624563911,-1.0851225869390002,10.0,0.0,14.699963825590459,16.069735965364643,218.170241886545,489.29287804524745,0.0
0.041,6.621487035821765,-1.1484636683301073,10.0,0.0,14.952420817214799,16.26974130369247,220.68166573712315,489.29287804524745,0.0
0.042,6.6704785161669795,-1.2647840534085386,10.0,0.0,15.211794475054209,16.47047148862455,233.10654395573727,489.29287804524745,0.0
0.043000000000000003,6.709376245503157,-1.3867642159960276,10.0,0.0,15.477558399636717,16.673277185423842,235.10815372853793,489.29287804524745,0.0
0.044,6.744196093263161,-1.5028656568708394,10.0,0.0,15.74857785831126,16.87893749904121,248.8181267625822,489.29287804524745,0.0
0.045,6.750563942850831,-1.6564343609015326,10.0,0.0,16.02879294551472,17.090781462187255,251.61117095327992,489.29287804524745,0.0
0.046,6.764566527560506,-1.7840489455190416,10.0,0.0,16.314672837580048,17.307985931916857,266.60539535969383,489.29287804524745,0.0
0.047,6.752169677737121,-1.9446655565152717,10.0,0.0,16.610076868775216,17.533561623207692,270.0627790167984,489.29287804524745,0.0
0.048,6.7291903821171735,-2.110358990489937,10.0,0.0,16.91511817760721,17.768523902508925,283.13731951482634,489.29287804524745,0.0
0.049,6.714097190323873,-2.246352557911731,10.0,0.0,17.22645394156277,18.011924542904307,294.70561782835244,489.29287804524745,0.0
0.05,6.666841209228205,-2.4219663531358275,10.0,0.0,17.548953774962747,18.267165921658286,300.1294548425776,489.29287804524745,0.0
0.051000000000000004,6.612335516543512,-2.59336894353628,10.0,0.0,17.88182590988993,18.53465621226123,310.75154600411304,489.29287804524745,0.0
0.052000000000000005,6.568447424188529,-2.726701034625408,10.0,0.0,18.22111236450049,18.81296732052879,322.35703405819294,489.29287804524745,0.0
0.053,6.5036136539679195,-2.8764091099274185,10.0,0.0,18.569435851849082,19.104068797231378,330.9557012510771,489.29287804524745,0.0
0.054,6.434362099984388,-3.0149932598739144,10.0,0.0,18.925784313874168,19.407861808234543,339.4707232587175,489.29287804524745,0.0
0.055,6.370891759459199,-3.1253006473392393,10.0,0.0,19.28762520191878,19.723199586257838,348.00092263299223,489.29287804524745,0.0
0.056,6.314459991163816,-3.2071523724558277,10.0,0.0,19.65271639484943,20.048760466390505,356.29964302226927,489.29287804524745,0.0
0.057,6.266092078485367,-3.262894600420583,10.0,0.0,20.01916768432525,20.383030530514645,362.98468703488817,489.29287804524745,0.0
0.058,6.234656406121481,-3.2830044001420036,10.0,0.0,20.38405550695561,20.723492962007192,368.0316803659419,489.29287804524745,0.0
0.059000000000000004,6.228510489334133,-3.2600491726267444,10.0,0.0,20.743774617448285,21.0667596267365,372.35801287012686,489.29287804524745,0.0
0.06,6.247959954981508,-3.201438289803519,10.0,0.0,21.095630838529225,21.40947063565305,373.88739853789605,489.29287804524745,0.0
0.061,6.298571070969623,-3.1064761741463998,10.0,0.0,21.436712814499675,21.747723437683817,371.47602194372377,489.29287804524745,0.0
0.062,6.38094735961424,-2.982369480030801,10.0,0.0,21.76480975788002,22.077703876517536,366.2922057853833,489.29287804524745,0.0
0.063,6.53566146196873,-2.7695519558602215,10.0,0.0,22.070926190088084,22.39130117743337,372.07145994459506,489.29287804524745,0.0
0.064,6.708566607552835,-2.560747003310555,10.0,0.0,22.35695033962817,22.686677966487718,365.1882535794375,489.29287804524745,0.0
0.065,6.897199383751794,-2.3667028673086685,10.0,0.0,22.62465294768497,22.962098937664592,356.7297130485294,489.29287804524745,0.0
0.066,7.167218997264825,-2.0824440278168583,10.0,0.0,22.863799361069702,23.20893224280502,357.7888817172531,489.29287804524745,0.0
0.067,7.423387055578651,-1.859201647307153,10.0,0.0,23.082000390168847,23.42951856849048,345.1266644280509,489.29287804524745,0.0
0.068,7.736929428236853,-1.5824320316278497,10.0,0.0,23.27222771500701,23.617938384108047,342.9584987314189,489.29287804524745,0.0
0.069,8.04132723792414,-1.3546495884062866,10.0,0.0,23.43998591632552,23.77619061530866,334.2677598047511,489.29287804524745,0.0
0.07,8.395997401416553,-1.0747195592463576,10.0,0.0,23.578279041856877,23.89942370363377,322.7417355360636,489.29287804524745,0.0
0.07100000000000001,8.726669482066718,-0.8579631993863083,10.0,0.0,23.694022264374595,23.99133556844291,337.9106389559309,489.29287804524745,0.0
0.07200000000000001,8.91385728821635,-0.8925675486457335,10.0,0.0,23.81335639313859,24.06834663115294,344.8606079910171,489.29287804524745,0.0
0.073,8.941721008651788,-1.1508071676799903,10.0,0.0,23.95651852989837,24.148396869281978,362.43451347602996,489.29287804524745,0.0
0.074,8.927907180207171,-1.4305443375681337,10.0,0.0,24.121558169292424,24.236556455607346,368.59250641149885,489.29287804524745,0.0
0.075,8.859340450140312,-1.7499202918046703,10.0,0.0,24.31124378664675,24.33980824926249,387.10067316750514,489.29287804524745,0.0
0.076,8.767176841935807,-2.0562826706616475,10.0,0.0,24.52279212376306,24.461155754889383,396.7190369145668,489.29287804524745,0.0
0.077,8.62162972262067,-2.4016532593838043,10.0,0.0,24.76024751870129,24.606611890707832,408.83095327273656,489.29287804524745,0.0
0.078,8.47560200325128,-2.694417929744825,10.0,0.0,25.017253395580042,24.77587553037574,428.2762610097064,489.29287804524745,0.0
0.079,8.289593068490031,-3.001970310780605,10.0,0.0,25.296388163948027,24.972914099394785,438.0404594767293,489.29287804524745,0.0
0.08,8.078425759776728,-3.30171273584331,10.0,0.0,25.597209455327665,25.19953060295957,447.87571303424875,489.29287804524745,0.0
0.081,7.882675762310951,-3.525181384717318,10.0,0.0,25.912194395051316,25.45298841193994,460.26934286159303,489.29287804524745,0.0
0.082,7.687097883672571,-3.703693402600396,10.0,0.0,26.238428257179056,25.732155000670204,470.03446400235384,489.29287804524745,0.0
0.083,7.512516260295773,-3.813976142857688,10.0,0.0,26.570301373216505,26.033276516525277,477.918982155292,489.29287804524745,0.0
0.084,7.3689562950047955,-3.855399170081403,10.0,0.0,26.902553034827754,26.351518972346824,478.5439455783908,489.29287804524745,0.0
0.085,7.275652065733423,-3.8162994175680955,10.0,0.0,27.228688572811343,26.679990214314294,473.55535348460853,489.29287804524745,0.0
0.08600000000000001,7.267766248696914,-3.6603820503219797,10.0,0.0,27.538297768321378,27.00816228346467,474.1807480051759,489.29287804524745,0.0
0.08700000000000001,7.3464323522243,-3.4076290670194203,10.0,0.0,27.823519596704617,27.32574593569263,475.7079540819185,489.29287804524745,0.0
0.088,7.480709249017063,-3.1292177565686656,10.0,0.0,28.08387989315578,27.6261096079242,459.5304728259807,489.29287804524745,0.0
0.089,7.695613562209921,-2.801501191801076,10.0,0.0,28.314975818165053,27.900176237094435,448.5636800468391,489.29287804524745,0.0
0.09,8.020201174839713,-2.3826535389658305,10.0,0.0,28.50757273742622,28.13639020159123,445.48610120291113,489.29287804524745,0.0
0.091,8.354868291359303,-2.0325776833111755,10.0,0.0,28.670211493617295,28.3346749548736,425.5547717088185,489.29287804524745,0.0
0.092,8.785028497986112,-1.6118087441171771,10.0,0.0,28.79363102476271,28.4854241568831,418.1571209188704,489.29287804524745,0.0
0.093,9.213939198463112,-1.2630473015486263,10.0,0.0,28.885627453703925,28.59056181681997,404.39055654859436,489.29287804524745,0.0
0.094,9.710582044615853,-0.8630683077983461,10.0,0.0,28.938427930857845,28.644043747585243,399.8028636561218,489.29287804524745,0.0
0.095,10.09778552966185,-0.6891582118156743,10.0,0.0,28.976166232752334,28.65983157809586,422.487643054602,489.29287804524745,0.0
0.096,10.19655033502452,-0.9613560624343314,10.0,0.0,29.04339035203631,28.67082236200544,431.03532474074945,489.29287804524745,0.0
0.097,10.169180884367012,-1.3604820806818894,10.0,0.0,29.146173021283875,28.69143476707839,450.5677013529273,489.29287804524745,0.0
0.098,10.043142481850674,-1.8334632082393423,10.0,0.0,29.288775327962842,28.733854728339033,463.78246626216827,489.29287804524745,0.0
0.099,9.878032929363341,-2.2746707669262736,10.0,0.0,29.465162420279952,28.80319459088995,486.89045707977465,489.29287804524745,0.0
0.1,9.638548632068545,-2.744249331321392,8.606668192802552,0.0,29.67808635611704,28.754664854803323,497.1492083972673,489.29287804524745,0.0
0.101,9.289225359413463,-3.143106698050363,3.3987292305360413,0.0,29.904043449457998,28.209371235150837,507.97547579634767,489.29287804524745,0.0
0.10200000000000001,8.64056880614251,-3.348099850577369,-2.201230446515158,0.0,30.07143614461029,27.245145500077992,513.2519779142883,489.29287804524745,0.0
0.10300000000000001,7.701008492610574,-3.321099371108832,-5.079072504175892,0.0,30.12064701247325,26.23038364741128,513.0979174034356,489.29287804524745,0.0
0.10400000000000001,6.687947566311127,-3.1301261813159624,-5.240092642331438,0.0,30.04272356220073,25.43512637093466,508.64136709975287,489.29287804524745,0.0
0.105,5.8176093320368185,-2.879788531532238,-3.2053023810351036,0.0,29.86743931972951,25.02264620370978,501.13253663229074,489.29287804524745,0.0
0.106,5.250559615421761,-2.6430403286529804,0.4307162668255291,0.0,29.644896558964042,25.06717186409688,493.2270162025565,489.29287804524745,0.0
0.107,5.06823218569794,-2.4695761005998733,4.344135100119551,0.0,29.432347057256784,25.493492087655937,484.27651698117234,489.29287804524745,0.0
0.108,5.247166849795009,-2.3654449435139218,8.869548321452392,0.0,29.273964743077237,26.293080517354113,480.280549615309,489.29287804524745,0.0
0.109,5.779505104119073,-2.3054437932401126,10.0,0.0,29.205820688326185,27.019199563756757,482.05086921358236,489.29287804524745,0.0
0.11,6.401452454918652,-2.2438619498688626,10.0,0.0,29.21092895242242,27.591496957213845,463.6252676002953,489.29287804524745,0.0
0.111,7.014433462497512,-2.112080755275269,10.0,0.0,29.258876016483157,28.045867000409167,452.5768838830563,489.29287804524745,0.0
0.112,7.650323485342168,-1.835109141542786,10.0,0.0,29.31831631289272,28.395776653253897,444.6523520684595,489.29287804524745,0.0
0.113,8.215640025962461,-1.5884574696328904,10.0,0.0,29.382441577173026,28.66081345121533,428.0281036518072,489.29287804524745,0.0
0.114,8.818379004116743,-1.2340326879255974,10.0,0.0,29.43013778555273,28.84511097361788,414.03771652667984,489.29287804524745,0.0
0.115,9.367335359123569,-0.9393332980365976,10.0,0.0,29.462621440264016,28.961390555348938,406.5265106578263,489.29287804524745,0.0
0.116,9.943660602490754,-0.5887941708826459,10.0,0.0,29.467872377589238,29.0113843311577,418.1227694581979,489.29287804524745,0.0
0.117,10.206630695806872,-0.728196142262199,10.0,0.0,29.496437206886092,29.033740365287002,431.4712847972785,489.29287804524745,0.0
0.11800000000000001,10.234309751725082,-1.1492288265996544,10.0,0.0,29.56930073222953,29.056302283715212,448.0543543696973,489.29287804524745,0.0
0.11900000000000001,10.180824363588922,-1.5917403864887758,10.0,0.0,29.681600041625863,29.09005454608912,466.6353092347232,489.29287804524745,0.0
0.12,10.020457611039326,-2.0993952173518275,10.0,0.0,29.837461562116005,29.148767002064353,481.10249015222047,489.29287804524745,0.0
0.121,9.820279138314435,-2.5622141229453086,10.0,0.0,30.029441707461295,29.23761032896532,504.56496300616357,489.29287804524745,0.0
0.122,9.558934213670549,-3.01904739254901,-0.6843858133606684,0.0,30.256731641562634,28.18823105522463,509.03093273597256,489.29287804524745,0.0
0.123,8.68723490460184,-3.1725403815690867,-3.114751225172414,0.0,30.368670550975956,27.19929583985359,512.3612676518724,489.29287804524745,0.0
0.124,7.678515369720535,-3.1395950797302854,-5.0106025791885695,0.0,30.365363134818356,26.238450197883555,513.3982227666806,489.29287804524745,0.0
0.125,6.671156240729863,-3.0010185751369396,-5.770133583807041,0.0,30.251387933592632,25.409490790367073,510.24302476501015,489.29287804524745,0.0
0.126,5.789505621716467,-2.7895863838089987,-4.40203605016942,0.0,30.044042535737695,24.897023819027545,503.57868667494637,489.29287804524745,0.0
0.127,5.163110040028648,-2.5784063404653397,-1.2127250914345193,0.0,29.78506949767978,24.81229924295647,495.41252734157734,489.29287804524745,0.0
0.128,4.894436835958057,-2.4086692986381855,2.809158082286693,0.0,29.526962031652992,25.14395395683958,486.9185762473413,489.29287804524745,0.0
0.129,4.993294285638689,-2.3098705549173015,7.079876647383767,0.0,29.31866029222617,25.832631611649596,479.167313794265,489.29287804524745,0.0
0.13,5.437446574905044,-2.255023436168539,10.0,0.0,29.19501129659787,26.662249532850243,479.76239699514196,489.29287804524745,0.0
0.131,6.087939655496839,-2.218094056754741,10.0,0.0,29.16317523210444,27.300226812869397,470.68834189036113,489.29287804524745,0.0
0.132,6.717332415515624,-2.151398254817632,10.0,0.0,29.19135325764333,27.808494485641155,452.9709253213185,489.29287804524745,0.0
0.133,7.369654141804627,-1.9238121687561025,10.0,0.0,29.243172736458106,28.203291731398018,450.8237549749085,489.29287804524745,0.0
0.134,7.97355753110678,-1.6662317181896764,10.0,0.0,29.3032320032654,28.503885044900333,429.4418614877018,489.29287804524745,0.0
0.135,8.563639065286072,-1.3624218387499132,10.0,0.0,29.356501392509486,28.72155501886644,424.4985094927722,489.29287804524745,0.0
0.136,9.1352231211964,-1.0498613760605917,10.0,0.0,29.394867288124345,28.865811503552,406.0151494159288,489.29287804524745,0.0
0.137,9.713376129256575,-0.7052135928676089,10.0,0.0,29.40903659112194,28.94159793900298,411.1282494948657,489.29287804524745,0.0
0.138,10.126808108977432,-0.6208563002542137,10.0,0.0,29.42353478300933,28.97152667351992,424.69932659788464,489.29287804524745,0.0
0.139,10.216257853397565,-0.9837203053045115,10.0,0.0,29.480334642641353,28.994207201684905,440.8455920342077,489.29287804524745,0.0
0.14,10.200255452564187,-1.4092969229315915,10.0,0.0,29.57690735701513,29.022954424532454,458.7777748806849,489.29287804524745,0.0
0.14100000000000001,10.070733977065668,-1.9100638198679485,10.0,0.0,29.71752611472302,29.072571534829148,473.58358288807574,489.29287804524745,0.0
0.14200000000000002,9.896632731188774,-2.3725603071135692,10.0,0.0,29.89491165231744,29.149144732158412,497.22207449892375,489.29287804524745,0.0
0.14300000000000002,9.647827710832493,-2.8515743407756657,2.69683266998,0.0,30.11028253471573,28.45807829699244,503.05398094694,489.29287804524745,0.0
0.14400000000000002,8.974279262527263,-3.1007321337083744,-0.35673158304504504,0.0,30.257626902243558,27.666397478160345,510.5664577214137,489.29287804524745,0.0
0.145,8.116885250865035,-3.1792033521871446,-4.325705767043571,0.0,30.31720900723875,26.65014551705444,513.4521075435134,489.29287804524745,0.0
0.146,7.110066403939012,-3.0942351595126585,-6.010122973076085,0.0,30.259076492244837,25.69805694478029,511.52142574063885,489.29287804524745,0.0
0.147,6.142836820777548,-2.892962868055853,-5.267067548592712,0.0,30.0902581013894,25.03027131266617,505.834685914431,489.29287804524745,0.0
