timestamp,iq,id,iq_ref,id_ref,vq,vd,omega,omega_ref,r
0.0,0.0,0.0,0.0,0.0,0.0,0.0,0.0,79.61260567208367,0.0
0.001,0.0,0.0,10.0,0.0,0.0,1.0999999999999999,6.115472199294103,79.61260567208367,0.0
0.002,0.5307369851907212,-0.2913212625381807,10.0,0.0,0.14204533887919985,1.9316189316290207,13.317801563642547,79.61260567208367,0.0
0.003,1.0842913387634832,-0.6024330830807904,10.0,0.0,0.384357124667687,2.6386968949419622,20.697939467553027,79.61260567208367,0.0
0.004,1.5590443546685477,-0.8700465084428163,10.0,0.0,0.6994718867930164,3.2526109522886295,28.232747544420146,79.61260567208367,0.0
0.005,1.9399447555359186,-1.0838738622210777,10.0,0.0,1.065311453102468,3.7994935661768023,35.92944872443006,79.61260567208367,0.0
0.006,2.239750732602683,-1.2510087368845633,10.0,0.0,1.4655018868449925,4.299102221838433,43.75633668444442,79.61260567208367,0.0
0.007,2.4770151619816017,-1.382020589851471,10.0,0.0,1.8883740978591532,4.765668027847139,51.58766747378032,79.61260567208367,0.0
0.008,2.6680767290418097,-1.4872241871505252,10.0,0.0,2.325877945545995,5.209220346273558,59.45942083902103,79.61260567208367,0.0
0.009000000000000001,2.8266491704841292,-1.5730794701170803,10.0,0.0,2.772378685460125,5.636635464737965,67.35059094018146,79.61260567208367,0.0
0.01,2.962077666392183,-1.645500646948331,7.8333345906858725,0.0,3.2240786398510535,5.814314540187327,73.8393260393695,79.61260567208367,0.0
0.011,2.9671106964888607,-1.6455658273153642,4.646699837418998,0.0,3.6476594644198883,5.69133318641308,78.0252001083843,79.61260567208367,0.0
0.012,2.789149100720211,-1.5412102893729125,2.569636858548591,0.0,4.005104310177075,5.4460235761655795,80.51470696861853,79.61260567208367,0.0
0.013000000000000001,2.5053317379197764,-1.3738416330885705,1.315862415466128,0.0,4.284906713521938,5.173285146518546,82.22501329207513,79.61260567208367,0.0
0.014,2.1918069828361633,-1.1875817503272659,0.43458517753791015,0.0,4.490640133026712,4.903047597860614,82.63166793636773,79.61260567208367,0.0
0.015,1.8854844539740057,-1.0138563227681658,0.20106723274876903,0.0,4.631529257511327,4.6940931750954284,81.30538830757241,79.61260567208367,0.0
0.016,1.6339399597265787,-0.8639615545490661,0.8472792207915414,0.0,4.722682857042454,4.618148274266417,81.10086993658093,79.61260567208367,0.0
0.017,1.4827966654632372,-0.7614821713978025,0.9346557636423083,0.0,4.787352822073117,4.5761728407330695,82.55910891126796,79.61260567208367,0.0
0.018000000000000002,1.387476711532762,-0.6979676208399987,0.1760712439069554,0.0,4.835396440517534,4.4695176464464454,82.63343212425255,79.61260567208367,0.0
0.019,1.2840017052879487,-0.639146227041971,0.10870137289296888,0.0,4.862134969876644,4.388936543966363,81.10828003897382,79.61260567208367,0.0
0.02,1.2010303451675017,-0.5842581242525049,0.8563206718634344,0.0,4.872692058682971,4.410091325817895,80.7109328762023,79.61260567208367,0.0
0.021,1.1806538321615605,-0.5570033322463812,1.0440109812080032,0.0,4.8818597707010385,4.444767782232551,82.03097038329041,79.61260567208367,0.0
0.022,1.186128253752304,-0.5505725546187301,0.3598085805518847,0.0,4.893143519539788,4.3989482455368885,81.8287834096134,79.61260567208367,0.0
0.023,1.15958880700697,-0.5349960695895379,0.4387402900150952,0.0,4.897067834248161,4.377337632800077,80.23204580044404,79.61260567208367,0.0
0.024,1.1404622773819377,-0.5146031136121976,1.2309146933161677,0.0,4.896351195904797,4.446468903867569,80.66754253222062,79.61260567208367,0.0
0.025,1.1710509609081625,-0.5129368504476506,1.0026169588265077,0.0,4.902639989114194,4.472024868682967,82.16515925091227,79.61260567208367,0.0
0.026000000000000002,1.1912499545020028,-0.5156922849608169,0.22828306369239915,0.0,4.911175259912284,4.410844362757851,80.65264806418854,79.61260567208367,0.0
0.027,1.164796379174774,-0.4989519830966833,0.9741382331332145,0.0,4.91086996548787,4.449534725316819,79.33982604671439,79.61260567208367,0.0
0.028,1.179288378592705,-0.4894187570155786,1.633277038123981,0.0,4.913582984911511,4.54751358334278,81.17400378937946,79.61260567208367,0.0
0.029,1.23240307952998,-0.5038754859162071,0.7005741856184919,0.0,4.927508160635265,4.521079458574077,81.37162064333866,79.61260567208367,0.0
0.03,1.2326476542322768,-0.500981243959036,0.5841756089263401,0.0,4.936934472405478,4.495708692735656,79.45951200128337,79.61260567208367,0.0
0.031,1.222692162923767,-0.48073535422378183,1.5417608666619866,0.0,4.940682970963521,4.581413548566902,80.44703911820329,79.61260567208367,0.0
0.032,1.2643488773658333,-0.48258517765546866,1.03965297374083,0.0,4.953033044723724,4.589433254370432,81.52193261727597,79.61260567208367,0.0
0.033,1.2780810734427497,-0.48362789677624973,0.48311295475257077,0.0,4.9650462825572275,4.540593699386092,79.26091588346235,79.61260567208367,0.0
0.034,1.2600877871917404,-0.46101380676833786,1.6171382195455937,0.0,4.968476264016868,4.63026418644903,79.9512827029394,79.61260567208367,0.0
0.035,1.3027620022601252,-0.4606654502846445,1.2685680394985122,0.0,4.980718117723711,4.656753553978498,81.10815003518582,79.61260567208367,0.0
0.036000000000000004,1.325983089388797,-0.46609881180013685,0.6751789297442803,0.0,4.994985876144359,4.617903492419737,78.95027244353159,79.61260567208367,0.0
0.037,1.3166915318565635,-0.446441125381284,1.7607410578569147,0.0,5.001725173445837,4.710965220248683,79.9906207722005,79.61260567208367,0.0
0.038,1.3633028471301354,-0.44831232075262173,1.2367867425212902,0.0,5.0174991221550975,4.721683948801423,80.52380430124317,79.61260567208367,0.0
0.039,1.3796014310587914,-0.45062661837586937,0.9610829917083583,0.0,5.033003409633549,4.70649359885433,78.50772343572115,79.61260567208367,0.0
0.04,1.3821751783195626,-0.43094480882702885,1.9801722468329974,0.0,5.043250091342842,4.809109441862234,80.25148117451084,79.61260567208367,0.0
0.041,1.434796706547813,-0.438774724988381,1.1019046224138775,0.0,5.0637917980552345,4.78992540687043,79.24227540173435,79.61260567208367,0.0
0.042,1.439884129241566,-0.4322314869585793,1.610210811505619,0.0,5.079562875252313,4.8393769018792945,79.14863683069805,79.61260567208367,0.0
0.043000000000000003,1.4726773971234688,-0.42092226618629913,1.6616697854376223,0.0,5.097523412325918,4.882481395108512,80.30669343362989,79.61260567208367,0.0
0.044,1.5001128240943147,-0.42574273170024296,1.075700606356242,0.0,5.118641688429342,4.855410328995923,78.35003506304427,79.61260567208367,0.0
0.045,1.499990073069659,-0.40397144601705853,2.0666554977394433,0.0,5.1324979842308736,4.94831078383032,80.0191318100548,79.61260567208367,0.0
0.046,1.5469834598846135,-0.40809096123985344,1.228041862854468,0.0,5.154929555467032,4.925979273950362,78.45409815614657,79.61260567208367,0.0
0.047,1.5513453585869066,-0.3953334359811584,2.022143764967954,0.0,5.1714402956608945,5.003851542774248,79.71770875542444,79.61260567208367,0.0
0.048,1.5958346856456178,-0.3930731230909826,1.3892874344956123,0.0,5.193966129552425,4.9931822363726,78.44781383614001,79.61260567208367,0.0
0.049,1.6032792877207318,-0.38424187093863343,2.035882812497262,0.0,5.212223614806783,5.062912485927501,79.50984851637176,79.61260567208367,0.0
0.05,1.6467859298265108,-0.3781225353637001,1.5058930439385074,0.0,5.2350435620994755,5.058019346119983,78.32127720556646,79.61260567208367,0.0
0.051000000000000004,1.6559843600555721,-0.3710301038215934,2.1130919840063305,0.0,5.254373226568265,5.127412535211396,79.46541169254581,79.61260567208367,0.0
0.052000000000000005,1.7008166822522948,-0.36422690687352854,1.542496680312032,0.0,5.278031816150449,5.118122327894147,77.91982481577118,79.61260567208367,0.0
0.053,1.7089123402505362,-0.35520596148131856,2.332217927262475,0.0,5.297471254019029,5.204260091310492,79.59726709464819,79.61260567208367,0.0
0.054,1.7607085451042481,-0.3538356897255165,1.4936501735983247,0.0,5.323520004003169,5.177971730845575,77.4016041858036,79.61260567208367,0.0
0.055,1.7654999358396206,-0.33802230712232717,2.6135916428834163,0.0,5.342609273573611,5.288487229651212,79.59692733877397,79.61260567208367,0.0
0.056,1.825151491809546,-0.34583768997038844,1.5160868497313333,0.0,5.371858992006889,5.25142140634441,77.40344708075024,79.61260567208367,0.0
0.057,1.831383502994283,-0.3232876004422379,2.6349185646565307,0.0,5.391918492589584,5.354944668114287,79.21740168677557,79.61260567208367,0.0
0.058,1.8846232249435042,-0.33313514848823245,1.7318933014969449,0.0,5.421633100471337,5.333806408366073,77.79392256424256,79.61260567208367,0.0
0.059000000000000004,1.8999027334897705,-0.309699602024362,2.461819693841861,0.0,5.443586035998608,5.405927242449795,78.41366521674522,79.61260567208367,0.0
0.06,1.9389335690336864,-0.3150732699076424,2.16393777214392,0.0,5.471381220313324,5.428824414543279,78.62516909580846,79.61260567208367,0.0
0.061,1.9728824336842201,-0.29876744870144156,2.0680601983750497,0.0,5.496839226394402,5.441299607205173,76.96606326488134,79.61260567208367,0.0
0.062,1.9897768231815744,-0.2907957412091533,2.924078537910632,0.0,5.520285121521471,5.548674980097383,78.96573073899681,79.61260567208367,0.0
0.063,2.0539959302406827,-0.2986918056973056,1.930713550183766,0.0,5.5530722485936765,5.522931915286243,77.63718409615528,79.61260567208367,0.0
0.064,2.070303835149417,-0.2748593868575391,2.6147410873638153,0.0,5.577305829760287,5.587066870161137,77.55954032540329,79.61260567208367,0.0
0.065,2.1067436578213847,-0.2777071787828884,2.674093626206614,0.0,5.606081129597916,5.643054890121286,78.77911948677581,79.61260567208367,0.0
0.066,2.1551350555828144,-0.27160287776917713,2.072638907373432,0.0,5.636877750417032,5.624609438082062,77.1711663743852,79.61260567208367,0.0
0.067,2.168553654059256,-0.2480575927375932,2.9010298565457253,0.0,5.66022122560698,5.707233613071166,77.29557458404206,79.61260567208367,0.0
0.068,2.2149649452047053,-0.25435864490878834,2.86199606259771,0.0,5.690421339365988,5.7663810352131115,78.96129426676492,79.61260567208367,0.0
0.069,2.26442817554514,-0.2580421247314213,2.0356493352894645,0.0,5.723858356222069,5.727149082026345,78.82742809556186,79.61260567208367,0.0
0.07,2.2571198994475097,-0.2509972811844826,2.1104341966562163,0.0,5.749216708485475,5.712972370541431,78.39416062111604,79.61260567208367,0.0
0.07100000000000001,2.236935254085597,-0.2584889509723943,2.339252384388799,0.0,5.771516086486189,5.729318545697102,80.85630048007826,79.61260567208367,0.0
0.07200000000000001,2.23269271342435,-0.27083145939982134,1.0957455068277446,0.0,5.794502903431536,5.607450935747352,80.01169831651907,79.61260567208367,0.0
0.073,2.168741264463462,-0.24607435199810423,1.5140556621629844,0.0,5.800157570788912,5.565510188328686,79.78888596146923,79.61260567208367,0.0
0.074,2.1176314533067013,-0.24575944910056124,1.6236990367940485,0.0,5.801265628423969,5.541189216781319,81.72053677142195,79.61260567208367,0.0
0.075,2.0884397726404247,-0.24650655918827613,0.6367943208243088,0.0,5.799916114279408,5.4124551824109375,80.09155424429844,79.61260567208367,0.0
0.076,2.0140369425182456,-0.22621980510325346,1.446496098663917,0.0,5.783589134062037,5.403288237291971,80.93558612479475,79.61260567208367,0.0
0.077,1.9812760854901645,-0.2378386838362183,1.0112503538886477,0.0,5.769459101555982,5.3402909049313525,80.98778496734148,79.61260567208367,0.0
0.078,1.9452041020076465,-0.23217448923521822,0.9713991396627044,0.0,5.749703088871031,5.285789436051886,80.44350079726149,79.61260567208367,0.0
0.079,1.9038824678260782,-0.23973203878203375,1.2352322734509213,0.0,5.727360502962786,5.268367329575982,81.69043883154399,79.61260567208367,0.0
0.08,1.887111272683856,-0.2480620862498608,0.5909849247150718,0.0,5.7063506947237705,5.178379250581848,80.37611236740103,79.61260567208367,0.0
0.081,1.8371971117174295,-0.2485905343509186,1.2405130898333736,0.0,5.678417888225682,5.178502416068484,81.93271109559863,79.61260567208367,0.0
0.082,1.8248784153792454,-0.2630547895596096,0.43901267149942447,0.0,5.65487646251801,5.082015571676263,80.33895964269347,79.61260567208367,0.0
0.083,1.7753225454323265,-0.2613759852752705,1.2286248582459098,0.0,5.623711183918518,5.093023572608729,81.93185874878785,79.61260567208367,0.0
0.084,1.7679151822283758,-0.2798270533547179,0.40898277443167874,0.0,5.5988096388038056,5.002076745753937,80.33099929079644,79.61260567208367,0.0
0.085,1.7235479863518364,-0.2796537437202252,1.2022285672402535,0.0,5.567099990774497,5.017994223034615,81.91820235476014,79.61260567208367,0.0
0.08600000000000001,1.7205542330216832,-0.29908836904817704,0.3855710684316396,0.0,5.542292597158607,4.931269845894814,80.34715718357891,79.61260567208367,0.0
0.08700000000000001,1.678639296258708,-0.301483198573967,1.1637481389073,0.0,5.511362590184881,4.94908392535844,81.76677928188093,79.61260567208367,0.0
0.088,1.6786676401885336,-0.3187596590074222,0.43239535365832027,0.0,5.487183454207314,4.8733707518962746,80.52204700487215,79.61260567208367,0.0
0.089,1.6406795986579574,-0.3264076939682743,1.0456670788348252,0.0,5.458519433722646,4.881763367812136,81.30760540619303,79.61260567208367,0.0
0.09,1.6381823609164226,-0.33967905964947254,0.6359378808332896,0.0,5.434944446753355,4.835142206792274,80.99671991989793,79.61260567208367,0.0
0.091,1.6123372061292414,-0.3541097267117027,0.7775394815027001,0.0,5.410519502099039,4.813317125880293,80.86717116728266,79.61260567208367,0.0
0.092,1.5977317193079101,-0.3616877166577517,0.8297682028583424,0.0,5.3870438160424,4.796909353938981,81.79276871864077,79.61260567208367,0.0
0.093,1.5832664311524245,-0.37898007503432896,0.3451677967137168,0.0,5.366101300919257,4.727411585525562,80.57725712064575,79.61260567208367,0.0
0.094,1.5464321121515703,-0.377733889778061,0.943277081225605,0.0,5.33999325650513,4.737314490007462,81.76085308016692,79.61260567208367,0.0
0.095,1.5418802403895662,-0.3900134896458056,0.3299966273841872,0.0,5.3188495248186225,4.670306719535895,81.02984292416232,79.61260567208367,0.0
0.096,1.5039039243313495,-0.39763171853339085,0.6813293328657011,0.0,5.293834598432564,4.656796631133,80.85730495876207,79.61260567208367,0.0
0.097,1.4888937709915693,-0.40313520211388587,0.7551513226990434,0.0,5.270499356749801,4.648014504465436,82.06991150761918,79.61260567208367,0.0
0.098,1.4784703761504923,-0.4186508229711171,0.12427498991513342,0.0,5.2502711100270485,4.568638921690908,80.64344586527532,79.61260567208367,0.0
0.099,1.435602394017266,-0.4165552321605259,0.8271994091551451,0.0,5.223742458501382,4.583419766052044,81.05975279330991,79.61260567208367,0.0
0.1,1.4321424273380206,-0.4264593968359712,0.6045744739255894,0.0,5.2024551705867985,4.562503590270229,81.70692356627839,79.61260567208367,0.0
0.101,1.4177980446386194,-0.4420562262052798,0.26004590849940246,0.0,5.182821603469365,4.507421692860696,80.75595960159161,79.61260567208367,0.0
0.10200000000000001,1.3867720877334477,-0.4423115733957489,0.7240943515477123,0.0,5.159515323219976,4.513644654302525,80.88442164494612,79.61260567208367,0.0
0.10300000000000001,1.3813528154382673,-0.4515622254313344,0.6471451701418365,0.0,5.1401769853917205,4.5040956575735205,81.99942193531989,79.61260567208367,0.0
0.10400000000000001,1.3726639425986953,-0.46610458176603103,0.0657768623225885,0.0,5.1233247343498505,4.4312882879779325,80.8650172589199,79.61260567208367,0.0
0.105,1.3324198932156621,-0.46335115769848684,0.6204550846542167,0.0,5.100428671241831,4.435244674476126,80.77007095104304,79.61260567208367,0.0
0.106,1.3227119794155746,-0.4693420842613661,0.6563535858030569,0.0,5.080904389257026,4.4355832989409345,81.72175872129071,79.61260567208367,0.0
0.107,1.3191803924407426,-0.48100599010475287,0.15941817018714977,0.0,5.064589518294326,4.379205147460773,81.17380911594971,79.61260567208367,0.0
0.108,1.286878756477705,-0.4837700969767173,0.417780938418991,0.0,5.044455731977363,4.363740446780207,80.665668594065,79.61260567208367,0.0
0.109,1.2693225730600406,-0.48648562108016224,0.6613205701415339,0.0,5.025059920806697,4.373622733159473,80.81528082587346,79.61260567208367,0.0
0.11,1.2688744742813542,-0.4961764720708701,0.5744877026994053,0.0,5.009630757758969,4.3684639270793655,81.80419215176342,79.61260567208367,0.0
0.111,1.2641084336562805,-0.5075777869172053,0.058116174957628663,0.0,4.9963858665311935,4.306865329406294,81.0674086686734,79.61260567208367,0.0
0.112,1.2292158119897196,-0.5052128171863222,0.41195988653674265,0.0,4.977931444840028,4.297979153905944,80.67188524820003,79.61260567208367,0.0
0.113,1.2131161492535238,-0.5071317442528283,0.5991288010122624,0.0,4.960668579442565,4.306608333947342,80.72201998591866,79.61260567208367,0.0
0.114,1.2119325200356017,-0.5150872121241641,0.5629672890145945,0.0,4.946850830784173,4.306768056566965,81.46793573546411,79.61260567208367,0.0
0.115,1.209872666169966,-0.5246172324585501,0.171456113608067,0.0,4.935399576811649,4.263040165517087,81.13711532244058,79.61260567208367,0.0
0.116,1.1846393653261336,-0.5243177800536707,0.32162122361626344,0.0,4.920592419163513,4.245728276584079,80.9018202998452,79.61260567208367,0.0
0.117,1.1669332762141953,-0.5235888437964743,0.4263765886363384,0.0,4.905457599922644,4.240383636625556,80.94025364619094,79.61260567208367,0.0
0.11800000000000001,1.1572077426035656,-0.5269091112712585,0.39388343572239526,0.0,4.891674317394807,4.230330926074114,80.92599265630956,79.61260567208367,0.0
0.11900000000000001,1.1475600177110035,-0.5304961120763247,0.38788006082082593,0.0,4.878625459478424,4.220533713017076,80.8515741890675,79.61260567208367,0.0
0.12,1.1380231781594163,-0.5337225309134455,0.41269960927201477,0.0,4.866220802112004,4.214154094654497,80.76762182406765,79.61260567208367,0.0
0.121,1.1300970414855862,-0.5373240957709264,0.44312563025210494,0.0,4.854782556591919,4.211047145853439,80.63238673759042,79.61260567208367,0.0
0.122,1.1241180567320876,-0.5415876965818176,0.5005453628356491,0.0,4.844610421184363,4.213697404711015,80.53039339251481,79.61260567208367,0.0
0.123,1.1223502421769598,-0.5454277986788252,0.5423641581691441,0.0,4.8361003004258825,4.219225964056454,80.60192880249778,79.61260567208367,0.0
0.124,1.1228197282082149,-0.5499111963267547,0.49670322187351745,0.0,4.829448820398094,4.217840442836659,81.18280421622188,79.61260567208367,0.0
0.125,1.1201062692725445,-0.5527025460010432,0.19056352957008493,0.0,4.823586150738798,4.183012744288878,80.98960497061282,79.61260567208367,0.0
0.126,1.0976632400848065,-0.5497946517454326,0.2733931593893263,0.0,4.814479196325792,4.165695803454391,80.29775089485166,79.61260567208367,0.0
0.127,1.0804727267243772,-0.5443891320415716,0.6124687450422248,0.0,4.80398571504577,4.1873364055634505,80.07335383401926,79.61260567208367,0.0
0.128,1.085338311786763,-0.5467413683169041,0.7200597938390699,0.0,4.7970184432919805,4.213500739354256,80.77846775225862,79.61260567208367,0.0
0.129,1.0987668887075874,-0.5537913007336798,0.3558442139176392,0.0,4.794116302295744,4.1937838007006105,81.19640946660844,79.61260567208367,0.0
0.13,1.08888826877733,-0.5554997538348843,0.1310353187974801,0.0,4.789650112050732,4.155882453110241,80.3133870092022,79.61260567208367,0.0
0.131,1.0648250838960733,-0.5461453332108109,0.5655387341294155,0.0,4.7807943352715245,4.173916250029756,79.7237815510203,79.61260567208367,0.0
0.132,1.0655127988338342,-0.5448857185766617,0.8592297044310029,0.0,4.77458250245867,4.216905781667286,80.3093016722596,79.61260567208367,0.0
0.133,1.0868893732224842,-0.5520966750767634,0.5595026838095944,0.0,4.77409660745221,4.216723748855037,81.19240821823152,79.61260567208367,0.0
0.134,1.090052426020292,-0.556190822224575,0.10215138536215251,0.0,4.774019345286427,4.169065787136487,80.37878479618443,79.61260567208367,0.0
0.135,1.0639120347284061,-0.5462664054839913,0.5013013051446883,0.0,4.768051385852427,4.177552973103855,79.4421732128538,79.61260567208367,0.0
0.136,1.0591352137233445,-0.5408358640482013,0.9713114214023025,0.0,4.763030825568031,4.2325683045192335,79.93218880703782,79.61260567208367,0.0
0.137,1.0854135366443798,-0.5470891774729972,0.7231077929607534,0.0,4.7647560243447,4.246639162742125,80.94842775617157,79.61260567208367,0.0
