timestamp,iq,id,iq_ref,id_ref,vq,vd,omega,omega_ref,r
0.0,0.0,0.0,0.0,0.0,0.0,0.0,0.0,190.71455220966976,0.0
0.001,0.0,0.0,10.0,0.0,0.0,1.0999999999999999,6.115472199294103,190.71455220966976,0.0
0.002,0.5307369851907212,-0.2913212625381807,10.0,0.0,0.14204533887919985,1.9316189316290207,13.317801563642547,190.71455220966976,0.0
0.003,1.0842913387634832,-0.6024330830807904,10.0,0.0,0.384357124667687,2.6386968949419622,20.697939467553027,190.71455220966976,0.0
0.004,1.5590443546685477,-0.8700465084428163,10.0,0.0,0.6994718867930164,3.2526109522886295,28.232747544420146,190.71455220966976,0.0
0.005,1.9399447555359186,-1.0838738622210777,10.0,0.0,1.065311453102468,3.7994935661768023,35.92944872443006,190.71455220966976,0.0
0.006,2.239750732602683,-1.2510087368845633,10.0,0.0,1.4655018868449925,4.299102221838433,43.75633668444442,190.71455220966976,0.0
0.007,2.4770151619816017,-1.382020589851471,10.0,0.0,1.8883740978591532,4.765668027847139,51.58766747378032,190.71455220966976,0.0
0.008,2.6680767290418097,-1.4872241871505252,10.0,0.0,2.325877945545995,5.209220346273558,59.45942083902103,190.71455220966976,0.0
0.009000000000000001,2.8266491704841292,-1.5730794701170803,10.0,0.0,2.772378685460125,5.636635464737965,67.35059094018146,190.71455220966976,0.0
0.01,2.962077666392183,-1.645500646948331,10.0,0.0,3.224078639851053,6.052647735211881,75.20908322432116,190.71455220966976,0.0
0.011,3.0811061533574158,-1.7084279320504514,10.0,0.0,3.678407615443203,6.460489925470405,83.0265951655913,190.71455220966976,0.0
0.012,3.188848746459569,-1.7638278597420747,10.0,0.0,4.133552631697047,6.862319393890706,90.74118064793086,190.71455220966976,0.0
0.013000000000000001,3.288205119878689,-1.8140726097274587,10.0,0.0,4.588339016389012,7.259628641949282,98.35820682563939,190.71455220966976,0.0
0.014,3.3820602099432007,-1.8592355758795645,10.0,0.0,5.041843166194517,7.653355107498287,105.90865295623543,190.71455220966976,0.0
0.015,3.4721069852858886,-1.899829032412081,10.0,0.0,5.493383198131427,8.044092747085895,113.37727610343421,190.71455220966976,0.0
0.016,3.5596145800153947,-1.9360338400176071,10.0,0.0,5.94241958510469,8.43218525824161,120.68508583176356,190.71455220966976,0.0
0.017,3.645144415105338,-1.9685384477868613,10.0,0.0,6.388575043274759,8.817838951066484,127.83962377537456,190.71455220966976,0.0
0.018000000000000002,3.730251927866576,-1.9959253041084188,10.0,0.0,6.83136783302799,9.201036292373047,134.85405702603322,190.71455220966976,0.0
0.019,3.81544967906247,-2.018253592643655,10.0,0.0,7.270383321112213,9.581672501020332,141.68976328564074,190.71455220966976,0.0
0.02,3.9014648862453374,-2.0350875541282063,10.0,0.0,7.705189334130692,9.959536942333155,148.3432823300447,190.71455220966976,0.0
0.021,3.9891051824829464,-2.0457889559126508,10.0,0.0,8.135310004560049,10.334315260302239,154.92060212100432,190.71455220966976,0.0
0.022,4.079618141396171,-2.0489696811670974,10.0,0.0,8.560139305503519,10.705547790999272,161.01925282597162,190.71455220966976,0.0
0.023,4.171109372430197,-2.048468292080302,10.0,0.0,8.979521969370257,11.072981092896333,166.534238406907,190.71455220966976,0.0
0.024,4.266936196769627,-2.039517194249811,10.0,0.0,9.392730090169543,11.435983292623375,171.8647834235234,190.71455220966976,0.0
0.025,4.367255527950721,-2.0225841458509217,10.0,0.0,9.79914449451603,11.793929226271104,177.02637022703064,190.71455220966976,0.0
0.026000000000000002,4.4734353073349595,-1.9962166741499119,10.0,0.0,10.197980960389518,12.146045424568259,181.63161391243256,190.71455220966976,0.0
0.027,4.582366840795821,-1.966358349113627,8.349651303813154,0.0,10.589124658468393,12.31037462215564,184.41301319512596,190.71455220966976,0.0
0.028,4.61314440817037,-1.8796514006915404,7.021967052611893,0.0,10.948347725422046,12.365547272045312,186.52737733425147,190.71455220966976,0.0
0.029,4.577642752426576,-1.7458913373765585,6.006656731803319,0.0,11.263319213188883,12.356930628670007,186.92555601643264,190.71455220966976,0.0
0.03,4.497869617822441,-1.595307017904159,5.845457352645107,0.0,11.530705213332686,12.381513998158622,183.102461494765,190.71455220966976,0.0
0.031,4.453173394161083,-1.424645055705392,7.833125520627968,0.0,11.75654397776383,12.65475197623916,189.76338267361183,190.71455220966976,0.0
0.032,4.529914816464438,-1.3568921308869037,4.512176626565137,0.0,11.981376461451864,12.529180454238034,183.38380885496503,190.71455220966976,0.0
0.033,4.483549669734209,-1.197952331148649,7.775270969435587,0.0,12.154362695847965,12.83666677982556,188.88102656257783,190.71455220966976,0.0
0.034,4.60888474135533,-1.1353471079824273,5.044997372100104,0.0,12.335501762812306,12.783491547812718,182.79717058041106,190.71455220966976,0.0
0.035,4.63147800795293,-1.0086422579660972,8.166099179476074,0.0,12.479897918608792,13.123139771872772,187.44033037348453,190.71455220966976,0.0
0.036000000000000004,4.8088118317232755,-0.9782653764846878,5.877261501301194,0.0,12.641744872768843,13.140998838484707,183.33522534767292,190.71455220966976,0.0
0.037,4.9056069001678475,-0.8705196066292795,8.003607282826968,0.0,12.777644772304805,13.421168987309851,183.90795840463943,190.71455220966976,0.0
0.038,5.083392820977749,-0.8476615048461269,7.785306692394014,0.0,12.926534763272093,13.623047087838545,185.85743894519337,190.71455220966976,0.0
0.039,5.2795408314799035,-0.791302520419837,6.859137554761811,0.0,13.074752657926457,13.700132356228746,180.95007697019264,190.71455220966976,0.0
0.04,5.415205941778652,-0.7094056484242488,9.410463294656946,0.0,13.207412223879153,14.061276727982305,188.7823805368944,190.71455220966976,0.0
0.041,5.604081096579176,-0.8084703345648641,5.5136332280338145,0.0,13.374636354607363,13.92598843850322,193.34834865866463,190.71455220966976,0.0
0.042,5.576116734389531,-0.8184912819748664,3.2043112026587535,0.0,13.511720900668534,13.610859100308698,192.21181457505617,190.71455220966976,0.0
0.043000000000000003,5.360551571895026,-0.802246192810836,3.757605620809123,0.0,13.601696889021994,13.448339281042543,198.60587865150475,190.71455220966976,0.0
0.044,5.170330506673336,-0.8059246221725256,0.4816603181664796,0.0,13.666990374734919,12.963950780615594,196.23192462266428,190.71455220966976,0.0
0.045,4.840422986679016,-0.7337851267714783,1.6134636084567715,0.0,13.66934353304612,12.726175910308147,199.06685475237674,190.71455220966976,0.0
0.046,4.5790157548709445,-0.7299742564530012,0.11247551817347112,0.0,13.647986087714443,12.361442840327443,198.78569811934048,190.71455220966976,0.0
0.047,4.300745918888779,-0.6939572675743011,0.1723423755948943,0.0,13.588367319844384,12.080638177670789,199.90550101417904,190.71455220966976,0.0
0.048,4.049772199615289,-0.697954515441007,-0.4794685598694768,0.0,13.507429829649789,11.774478643777764,199.699486936718,190.71455220966976,0.0
0.049,3.81061260742272,-0.6927855446264144,-0.46631086840943503,0.0,13.403361575817083,11.52260458761828,200.26894154633666,190.71455220966976,0.0
0.05,3.6000357296390524,-0.7100677340661397,-0.8465820665854409,0.0,13.286465472298211,11.26432156361178,200.101218165893,190.71455220966976,0.0
0.051000000000000004,3.4023568892917035,-0.7263181885074943,-0.8565870359258354,0.0,13.157045404824732,11.042518300668744,200.09106844859505,190.71455220966976,0.0
0.052000000000000005,3.2277891322069583,-0.7523497626257778,-0.9452773396661205,0.0,13.021087986412894,10.837523138430479,199.8591801689568,190.71455220966976,0.0
0.053,3.0713655456885984,-0.782207506695342,-0.9207794794398705,0.0,12.88125082972488,10.658474335183321,199.5667414647641,190.71455220966976,0.0
0.054,2.9346711530302185,-0.8164844457301315,-0.8630820198944615,0.0,12.740964394234085,10.502920585867047,199.21369515633342,190.71455220966976,0.0
0.055,2.8165422979763965,-0.8539496067563248,-0.7715502951457522,0.0,12.602929625683274,10.370012313189559,198.81939703496164,190.71455220966976,0.0
0.056,2.715637674347092,-0.8934842284399331,-0.6554496827127831,0.0,12.469381663494733,10.258365361093565,198.4681176151321,190.71455220966976,0.0
0.057,2.630587450250168,-0.933648517556361,-0.5573456268526309,0.0,12.342046527901415,10.162505226422974,198.0984466482433,190.71455220966976,0.0
0.058,2.557657996820421,-0.9728326759930458,-0.44634908779397797,0.0,12.221767506937244,10.081897908034263,197.67976768200407,190.71455220966976,0.0
0.059000000000000004,2.49552962466632,-1.0096429992329692,-0.30666175939770035,0.0,12.109112950202643,10.017683886523665,197.27988099726332,190.71455220966976,0.0
0.06,2.444425639594558,-1.0436260139137281,-0.1723717049032616,0.0,12.004672475372926,9.967000998837442,196.975579460367,190.71455220966976,0.0
0.061,2.403325531356866,-1.0734194744781385,-0.0828312089620673,0.0,11.908545209772834,9.923458878500885,196.6462882006674,190.71455220966976,0.0
0.062,2.3678703553351106,-1.0988365523730388,0.0224970609777424,0.0,11.820174402661895,9.888838016651961,196.01783040091894,190.71455220966976,0.0
0.063,2.3371663153002022,-1.1213754789159196,0.28369317893948853,0.0,11.73940370121792,9.879543343196847,195.23066335560455,190.71455220966976,0.0
0.064,2.321326422938876,-1.1418665255937253,0.6321155901373356,0.0,11.66780922844196,9.900250918754391,194.45706719694897,190.71455220966976,0.0
0.065,2.3239614962897845,-1.165130734320777,0.9814885195923329,0.0,11.607799112992552,9.946226830614442,193.58304909322618,190.71455220966976,0.0
0.066,2.346292814916181,-1.1867295361291574,1.3898126026181639,0.0,11.560530826385744,10.020595965266446,193.27482090696822,190.71455220966976,0.0
0.067,2.3888198601685717,-1.2077860765942905,1.5183240087741607,0.0,11.527526513337897,10.088399709847973,193.94579334310495,190.71455220966976,0.0
0.068,2.434819140807206,-1.2194349711927919,1.1505253793714405,0.0,11.505673819054167,10.099745034952974,195.36306045568503,190.71455220966976,0.0
0.069,2.445352167208933,-1.2235097203848049,0.39540674062124914,0.0,11.487472660174443,10.027686854052803,192.12874785976194,190.71455220966976,0.0
0.07,2.4108600908366755,-1.1898923970508073,1.9984210820818702,0.0,11.460147146034021,10.148796597967818,189.82509636583626,190.71455220966976,0.0
0.07100000000000001,2.46264086105161,-1.1813388258587159,3.1591413874830474,0.0,11.447060438101353,10.360671100769443,191.83446805963553,190.71455220966976,0.0
0.07200000000000001,2.5869819978600983,-1.2013813875632227,2.143256382083756,0.0,11.458760068741533,10.413535211502925,193.48408737674362,190.71455220966976,0.0
0.073,2.6478399501749874,-1.2017734429424543,1.2907513718589723,0.0,11.474418847865707,10.373215209769784,189.41735942182765,190.71455220966976,0.0
0.074,2.648810634463796,-1.159126502779345,3.3370872771953746,0.0,11.47978466493242,10.57261689006301,187.5563532515211,190.71455220966976,0.0
0.075,2.758928844643449,-1.1424704616368269,4.299172351930137,0.0,11.503148373197737,10.825877686924173,191.18580952586612,190.71455220966976,0.0
0.076,2.9186732723978395,-1.1664865215396099,2.4797316415956656,0.0,11.552310117323369,10.829918741090422,189.40497969369548,190.71455220966976,0.0
0.077,2.969879495754326,-1.1435198607545392,3.383242282840728,0.0,11.594193299167678,10.952017201601244,185.05468870455786,190.71455220966976,0.0
0.078,3.0627543108022426,-1.099902794978535,5.614986412460656,0.0,11.639529798251129,11.292846714669448,190.30650103317717,190.71455220966976,0.0
0.079,3.2651879682281835,-1.1205728832581214,2.993160759915928,0.0,11.717125479101567,11.272069709096684,187.16326248043532,190.71455220966976,0.0
0.08,3.319498362349282,-1.0849504290666119,4.6002929335791976,0.0,11.78075872046582,11.460182961015583,185.62167647225323,190.71455220966976,0.0
0.081,3.454823308816369,-1.0355675477918174,5.422014695044409,0.0,11.851764070487235,11.695823643733394,188.37345883529943,190.71455220966976,0.0
0.082,3.614844376352189,-1.0374938659647372,4.069534447265011,0.0,11.939938677590051,11.741761680346906,183.60167816301944,190.71455220966976,0.0
0.083,3.708223801552002,-0.9815175515325882,6.526553523871508,0.0,12.01771296987468,12.06704874881724,187.74777008889063,190.71455220966976,0.0
0.084,3.915726703013954,-0.9761822683124288,4.483175382143704,0.0,12.120211421767973,12.09635122840406,182.33810203074103,190.71455220966976,0.0
0.085,4.012708208285805,-0.9236014072756418,7.271773913007795,0.0,12.209659734548778,12.45155998846857,186.73313809050944,190.71455220966976,0.0
0.08600000000000001,4.242059571970842,-0.9200548976698679,5.11407002431519,0.0,12.325819784611685,12.490700455787252,181.00943538418295,190.71455220966976,0.0
0.08700000000000001,4.358914806852142,-0.8605900727730762,8.072972545733304,0.0,12.427772210757585,12.874038635423181,185.43323550105524,190.71455220966976,0.0
0.088,4.605514351839801,-0.8706246184616808,5.913885654383306,0.0,12.559561660527196,12.936192258847592,181.29268188607242,190.71455220966976,0.0
0.089,4.7534543263026725,-0.8003130176537057,8.078381165110692,0.0,12.676552906116523,13.251187438259,182.28268964149183,190.71455220966976,0.0
0.09,4.972347073112177,-0.8021992590551984,7.667695913082763,0.0,12.814255147650304,13.456963089053438,183.95971675018538,190.71455220966976,0.0
0.091,5.187336020710701,-0.7590642313792689,6.896730713330832,0.0,12.954001014651785,13.553772222701634,178.84171494800552,190.71455220966976,0.0
0.092,5.339371463182371,-0.6913896265609806,9.574459987037406,0.0,13.08244035206469,13.942560892594503,187.0508625539883,190.71455220966976,0.0
0.093,5.550536451648814,-0.7993067383992749,5.506523080602824,0.0,13.249462251075979,13.80935648248791,191.48869402623887,190.71455220966976,0.0
0.094,5.531615856396414,-0.8125027873753856,3.2798659263118504,0.0,13.386833913444471,13.50611470074788,190.40016921783712,190.71455220966976,0.0
0.095,5.325579371893587,-0.7985697249495152,3.827272160431056,0.0,13.478479634045502,13.351890328057506,196.72371577337188,190.71455220966976,0.0
0.096,5.142662473017885,-0.8037628987025236,0.6054072470266534,0.0,13.546248925054487,12.880434255911895,194.50452747565322,190.71455220966976,0.0
0.097,4.821703883042319,-0.7332892160445493,1.6771016432261487,0.0,13.552291642918101,12.646482028706288,197.32702739550652,190.71455220966976,0.0
0.098,4.564666837661912,-0.7296564364207107,0.1997269314411314,0.0,13.534639997342754,12.288365622841345,197.08598103256378,190.71455220966976,0.0
0.099,4.290989117680673,-0.6931825247241371,0.25653582468356095,0.0,13.478966073248058,12.012852597124011,198.23512448028833,190.71455220966976,0.0
0.1,4.043498007129426,-0.6971361616185796,-0.3932416218849024,0.0,13.402107878166454,11.711767118474812,198.02501439759234,190.71455220966976,0.0
0.101,3.8077765403685193,-0.6912701545610037,-0.3612912024161332,0.0,13.302142157582821,11.46657113902781,198.6741824434988,190.71455220966976,0.0
0.10200000000000001,3.600905242065896,-0.7090317074041621,-0.7654715277076556,0.0,13.189665841996169,11.211517473636068,198.49171934879453,190.71455220966976,0.0
0.10300000000000001,3.4057557704653836,-0.7245305416546162,-0.7520116517467663,0.0,13.064459047668121,10.99564166172647,198.5491083558036,190.71455220966976,0.0
0.10400000000000001,3.234257372786894,-0.7508839552160286,-0.8590517167126439,0.0,12.932929238731177,10.793837074697809,198.36779039213184,190.71455220966976,0.0
0.105,3.0798787390950517,-0.7805280089868728,-0.8449251167013778,0.0,12.797369263764237,10.616950957858538,198.12795995540682,190.71455220966976,0.0
0.106,2.9442560294377955,-0.8144705953015877,-0.7991439757962411,0.0,12.66111391856697,10.462466826431326,197.817833739612,190.71455220966976,0.0
0.107,2.826365030896529,-0.851395664839453,-0.715113683198259,0.0,12.526758026532733,10.330202877146807,197.46844912861522,190.71455220966976,0.0
0.108,2.7252359205438,-0.8903807376292906,-0.6079603468893167,0.0,12.396530436084962,10.218621589808702,197.17280033791033,190.71455220966976,0.0
0.109,2.6395590868073646,-0.930011369213789,-0.5247184328192787,0.0,12.272136994694565,10.12167390995173,196.83373513935763,190.71455220966976,0.0
0.11,2.5653093968667617,-0.9686025875813914,-0.41637766283980593,0.0,12.154336857162093,10.040377417054557,196.44405754079398,190.71455220966976,0.0
0.111,2.501896888147384,-1.0050211368635074,-0.27883391686922243,0.0,12.04380721233051,9.975709843110547,196.0766447775792,190.71455220966976,0.0
0.112,2.4496292471560084,-1.0389666609170645,-0.1487484609409231,0.0,11.941233596740759,9.924505340192049,195.792608096016,190.71455220966976,0.0
0.113,2.407433804019365,-1.0688674308185697,-0.05751067902279594,0.0,11.84674652186676,9.881018049793255,195.54851346118335,190.71455220966976,0.0
0.114,2.3713725108855144,-1.0943594010379303,0.016197025878399884,0.0,11.759864534465397,9.84317103848024,194.9743695422048,190.71455220966976,0.0
0.115,2.338744298034191,-1.1160081339712136,0.2606708120423171,0.0,11.68001248559333,9.82980405946972,194.27949051520633,190.71455220966976,0.0
0.116,2.3193491991975983,-1.1366398167889669,0.5724609424861908,0.0,11.608861941488048,9.843447928703743,193.51335583721206,190.71455220966976,0.0
0.117,2.3169344170967663,-1.1590019148396173,0.9275402452079042,0.0,11.548444352674085,9.884624853641515,192.614332536604,190.71455220966976,0.0
0.11800000000000001,2.335100385983837,-1.1797929079236327,1.358054092242594,0.0,11.50024960349403,9.957425652952123,192.24565736211517,190.71455220966976,0.0
0.11900000000000001,2.3748543243169715,-1.2019796955081228,1.5270806279625542,0.0,11.466387045866497,10.02822340434474,192.5299631016455,190.71455220966976,0.0
0.12,2.421148273831089,-1.2158753785893341,1.3667736492776275,0.0,11.444297176404064,10.064536296759579,194.36653707936046,190.71455220966976,0.0
0.121,2.445548499342609,-1.2243074964523388,0.411966811723246,0.0,11.428836159263483,9.989362145331432,191.7313582809339,190.71455220966976,0.0
0.122,2.4106222966542448,-1.1964049316256664,1.7193881502238804,0.0,11.404250225384578,10.077609607493496,189.0736847187473,190.71455220966976,0.0
0.123,2.4443303209782963,-1.183553636264763,3.0646336062264057,0.0,11.389813014268336,10.285419372124199,190.51872254662248,190.71455220966976,0.0
0.124,2.5620976384213288,-1.1984011834493962,2.344072988919287,0.0,11.39936224387071,10.365672992040906,192.74106572718154,190.71455220966976,0.0
0.125,2.635204750559292,-1.202120624964294,1.2126362634646441,0.0,11.416242575599304,10.314739630138492,189.24972616860939,190.71455220966976,0.0
0.126,2.630721960549209,-1.1648120249135496,2.9729543031613233,0.0,11.422200397544072,10.476761167242856,186.0692922485208,190.71455220966976,0.0
0.127,2.7191749626071156,-1.1430124718482109,4.6096238628171005,0.0,11.441739726168114,10.77583214586995,190.15868626340713,190.71455220966976,0.0
0.128,2.8969590748687484,-1.171632870894078,2.5704855148365646,0.0,11.492598459218167,10.787606323294131,190.11997696873277,190.71455220966976,0.0
0.129,2.955186310398597,-1.1556557646108503,2.5957859145831153,0.0,11.537505051024015,10.82183622894715,184.79335480949797,190.71455220966976,0.0
0.13,3.0030817712662023,-1.099286398751772,5.318308968202235,0.0,11.57530311503292,11.151672106775957,188.3700657188586,190.71455220966976,0.0
0.131,3.1916867827728725,-1.1036106628343978,3.5533983784300323,0.0,11.643344323131487,11.210671211154581,188.24425492205788,190.71455220966976,0.0
0.132,3.2779641142465836,-1.0883025461947449,3.6410067497065115,0.0,11.708754185386873,11.290256096296291,182.92591279632865,190.71455220966976,0.0
0.133,3.366862000294596,-1.0277232689963616,6.378064206704538,0.0,11.769070910605464,11.659707721555842,188.42830268829442,190.71455220966976,0.0
0.134,3.5857514067158487,-1.0445696157473119,3.649731755935403,0.0,11.862760016742742,11.647569856810856,183.31778547171945,190.71455220966976,0.0
0.135,3.6588422420995395,-0.9976886116127328,6.278958031602395,0.0,11.940541051869484,11.956661806157165,186.50800436548658,190.71455220966976,0.0
0.136,3.8594574404383097,-0.9767586700584574,4.725914063160657,0.0,12.039619694888556,12.024158801332824,182.65541051567186,190.71455220966976,0.0
0.137,3.962589131627304,-0.9440029113000299,6.732802405007998,0.0,12.132146339075401,12.321763784533053,185.39564922147383,190.71455220966976,0.0
