timestamp,iq,id,iq_ref,id_ref,vq,vd,omega,omega_ref,r
0.0,0.0,0.0,0.0,0.0,0.0,0.0,0.0,463.8621993509969,0.0
0.001,0.0,0.0,10.0,0.0,0.0,1.0999999999999999,6.115472199294103,463.8621993509969,0.0
0.002,0.5307369851907212,-0.2913212625381807,10.0,0.0,0.14204533887919985,1.9316189316290207,13.317801563642547,463.8621993509969,0.0
0.003,1.0842913387634832,-0.6024330830807904,10.0,0.0,0.384357124667687,2.6386968949419622,20.697939467553027,463.8621993509969,0.0
0.004,1.5590443546685477,-0.8700465084428163,10.0,0.0,0.6994718867930164,3.2526109522886295,28.232747544420146,463.8621993509969,0.0
0.005,1.9399447555359186,-1.0838738622210777,10.0,0.0,1.065311453102468,3.7994935661768023,35.92944872443006,463.8621993509969,0.0
0.006,2.239750732602683,-1.2510087368845633,10.0,0.0,1.4655018868449925,4.299102221838433,43.75633668444442,463.8621993509969,0.0
0.007,2.4770151619816017,-1.382020589851471,10.0,0.0,1.8883740978591532,4.765668027847139,51.58766747378032,463.8621993509969,0.0
0.008,2.6680767290418097,-1.4872241871505252,10.0,0.0,2.325877945545995,5.209220346273558,59.45942083902103,463.8621993509969,0.0
0.009000000000000001,2.8266491704841292,-1.5730794701170803,10.0,0.0,2.772378685460125,5.636635464737965,67.35059094018146,463.8621993509969,0.0
0.01,2.962077666392183,-1.645500646948331,10.0,0.0,3.224078639851053,6.052647735211881,75.20908322432116,463.8621993509969,0.0
0.011,3.0811061533574158,-1.7084279320504514,10.0,0.0,3.678407615443203,6.460489925470405,83.0265951655913,463.8621993509969,0.0
0.012,3.188848746459569,-1.7638278597420747,10.0,0.0,4.133552631697047,6.862319393890706,90.74118064793086,463.8621993509969,0.0
0.013000000000000001,3.288205119878689,-1.8140726097274587,10.0,0.0,4.588339016389012,7.259628641949282,98.35820682563939,463.8621993509969,0.0
0.014,3.3820602099432007,-1.8592355758795645,10.0,0.0,5.041843166194517,7.653355107498287,105.90865295623543,463.8621993509969,0.0
0.015,3.4721069852858886,-1.899829032412081,10.0,0.0,5.493383198131427,8.044092747085895,113.37727610343421,463.8621993509969,0.0
0.016,3.5596145800153947,-1.9360338400176071,10.0,0.0,5.94241958510469,8.43218525824161,120.68508583176356,463.8621993509969,0.0
0.017,3.645144415105338,-1.9685384477868613,10.0,0.0,6.388575043274759,8.817838951066484,127.83962377537456,463.8621993509969,0.0
0.018000000000000002,3.730251927866576,-1.9959253041084188,10.0,0.0,6.83136783302799,9.201036292373047,134.85405702603322,463.8621993509969,0.0
0.019,3.81544967906247,-2.018253592643655,10.0,0.0,7.270383321112213,9.581672501020332,141.68976328564074,463.8621993509969,0.0
0.02,3.9014648862453374,-2.0350875541282063,10.0,0.0,7.705189334130692,9.959536942333155,148.3432823300447,463.8621993509969,0.0
0.021,3.9891051824829464,-2.0457889559126508,10.0,0.0,8.135310004560049,10.334315260302239,154.92060212100432,463.8621993509969,0.0
0.022,4.079618141396171,-2.0489696811670974,10.0,0.0,8.560139305503519,10.705547790999272,161.01925282597162,463.8621993509969,0.0
0.023,4.171109372430197,-2.048468292080302,10.0,0.0,8.979521969370257,11.072981092896333,166.534238406907,463.8621993509969,0.0
0.024,4.266936196769627,-2.039517194249811,10.0,0.0,9.392730090169543,11.435983292623375,171.8647834235234,463.8621993509969,0.0
0.025,4.367255527950721,-2.0225841458509217,10.0,0.0,9.79914449451603,11.793929226271104,177.02637022703064,463.8621993509969,0.0
0.026000000000000002,4.4734353073349595,-1.9962166741499119,10.0,0.0,10.197980960389518,12.146045424568259,181.63161391243256,463.8621993509969,0.0
0.027,4.582366840795821,-1.966358349113627,10.0,0.0,10.589124658468391,12.491912978736195,185.74793639675826,463.8621993509969,0.0
0.028,4.700058850757774,-1.9240450691803936,10.0,0.0,10.971384864613876,12.830451341534015,189.43662766964098,463.8621993509969,0.0
0.029,4.820934284790598,-1.879137197786803,10.0,0.0,11.344756153370636,13.161242511022618,192.73598774770625,463.8621993509969,0.0
0.03,4.952016225740939,-1.821000614527957,10.0,0.0,11.707923484756042,13.483081433273819,195.59831968863915,463.8621993509969,0.0
0.031,5.086039273572549,-1.7621311371320891,10.0,0.0,12.061063698547066,13.79562148058647,197.80891551030922,463.8621993509969,0.0
0.032,5.230431844273564,-1.6911110488141978,10.0,0.0,12.40292038074925,14.097678592248165,200.4421589734679,463.8621993509969,0.0
0.033,5.380124186618445,-1.6166151787533525,10.0,0.0,12.733312761073865,14.38869342901298,201.91742172589852,463.8621993509969,0.0
0.034,5.537594793894332,-1.535029134414507,10.0,0.0,13.051537880865839,14.667821176756876,203.18880493813168,463.8621993509969,0.0
0.035,5.698947813469154,-1.4530296333491768,10.0,0.0,13.357649178779205,14.934684535625108,203.60405746232266,463.8621993509969,0.0
0.036000000000000004,5.870474243492053,-1.3603000477825025,10.0,0.0,13.65045542338638,15.188218311291084,204.28541056101804,463.8621993509969,0.0
0.037,6.041188711220851,-1.275010780747051,10.0,0.0,13.930879897581198,15.42861600670124,205.2233356988433,463.8621993509969,0.0
0.038,6.228175208801664,-1.168399557236846,10.0,0.0,14.196427351981786,15.654155009933262,200.35169734043586,463.8621993509969,0.0
0.039,6.404895489618571,-1.0845312562500289,10.0,0.0,14.449814560392067,15.86612549236809,209.64773540576442,463.8621993509969,0.0
0.04,6.534612624563911,-1.0851225869390002,10.0,0.0,14.699963825590459,16.069735965364643,218.170241886545,463.8621993509969,0.0
0.041,6.621487035821765,-1.1484636683301073,10.0,0.0,14.952420817214799,16.26974130369247,220.68166573712315,463.8621993509969,0.0
0.042,6.6704785161669795,-1.2647840534085386,10.0,0.0,15.211794475054209,16.47047148862455,233.10654395573727,463.8621993509969,0.0
0.043000000000000003,6.709376245503157,-1.3867642159960276,10.0,0.0,15.477558399636717,16.673277185423842,235.10815372853793,463.8621993509969,0.0
0.044,6.744196093263161,-1.5028656568708394,10.0,0.0,15.74857785831126,16.87893749904121,248.8181267625822,463.8621993509969,0.0
0.045,6.750563942850831,-1.6564343609015326,10.0,0.0,16.02879294551472,17.090781462187255,251.61117095327992,463.8621993509969,0.0
0.046,6.764566527560506,-1.7840489455190416,10.0,0.0,16.314672837580048,17.307985931916857,266.60539535969383,463.8621993509969,0.0
0.047,6.752169677737121,-1.9446655565152717,10.0,0.0,16.610076868775216,17.533561623207692,270.0627790167984,463.8621993509969,0.0
0.048,6.7291903821171735,-2.110358990489937,10.0,0.0,16.91511817760721,17.768523902508925,283.13731951482634,463.8621993509969,0.0
0.049,6.714097190323873,-2.246352557911731,10.0,0.0,17.22645394156277,18.011924542904307,294.70561782835244,463.8621993509969,0.0
0.05,6.666841209228205,-2.4219663531358275,10.0,0.0,17.548953774962747,18.267165921658286,300.1294548425776,463.8621993509969,0.0
0.051000000000000004,6.612335516543512,-2.59336894353628,10.0,0.0,17.88182590988993,18.53465621226123,310.75154600411304,463.8621993509969,0.0
0.052000000000000005,6.568447424188529,-2.726701034625408,10.0,0.0,18.22111236450049,18.81296732052879,322.35703405819294,463.8621993509969,0.0
0.053,6.5036136539679195,-2.8764091099274185,10.0,0.0,18.569435851849082,19.104068797231378,330.9557012510771,463.8621993509969,0.0
0.054,6.434362099984388,-3.0149932598739144,10.0,0.0,18.925784313874168,19.407861808234543,339.4707232587175,463.8621993509969,0.0
0.055,6.370891759459199,-3.1253006473392393,10.0,0.0,19.28762520191878,19.723199586257838,348.00092263299223,463.8621993509969,0.0
0.056,6.314459991163816,-3.2071523724558277,10.0,0.0,19.65271639484943,20.048760466390505,356.29964302226927,463.8621993509969,0.0
0.057,6.266092078485367,-3.262894600420583,10.0,0.0,20.01916768432525,20.383030530514645,362.98468703488817,463.8621993509969,0.0
0.058,6.234656406121481,-3.2830044001420036,10.0,0.0,20.38405550695561,20.723492962007192,368.0316803659419,463.8621993509969,0.0
0.059000000000000004,6.228510489334133,-3.2600491726267444,10.0,0.0,20.743774617448285,21.0667596267365,372.35801287012686,463.8621993509969,0.0
0.06,6.247959954981508,-3.201438289803519,10.0,0.0,21.095630838529225,21.40947063565305,373.88739853789605,463.8621993509969,0.0
0.061,6.298571070969623,-3.1064761741463998,10.0,0.0,21.436712814499675,21.747723437683817,371.47602194372377,463.8621993509969,0.0
0.062,6.38094735961424,-2.982369480030801,10.0,0.0,21.76480975788002,22.077703876517536,366.2922057853833,463.8621993509969,0.0
0.063,6.53566146196873,-2.7695519558602215,10.0,0.0,22.070926190088084,22.39130117743337,372.07145994459506,463.8621993509969,0.0
0.064,6.708566607552835,-2.560747003310555,10.0,0.0,22.35695033962817,22.686677966487718,365.1882535794375,463.8621993509969,0.0
0.065,6.897199383751794,-2.3667028673086685,10.0,0.0,22.62465294768497,22.962098937664592,356.7297130485294,463.8621993509969,0.0
0.066,7.167218997264825,-2.0824440278168583,10.0,0.0,22.863799361069702,23.20893224280502,357.7888817172531,463.8621993509969,0.0
0.067,7.423387055578651,-1.859201647307153,10.0,0.0,23.082000390168847,23.42951856849048,345.1266644280509,463.8621993509969,0.0
0.068,7.736929428236853,-1.5824320316278497,10.0,0.0,23.27222771500701,23.617938384108047,342.9584987314189,463.8621993509969,0.0
0.069,8.04132723792414,-1.3546495884062866,10.0,0.0,23.43998591632552,23.77619061530866,334.2677598047511,463.8621993509969,0.0
0.07,8.395997401416553,-1.0747195592463576,10.0,0.0,23.578279041856877,23.89942370363377,322.7417355360636,463.8621993509969,0.0
0.07100000000000001,8.726669482066718,-0.8579631993863083,10.0,0.0,23.694022264374595,23.99133556844291,337.9106389559309,463.8621993509969,0.0
0.07200000000000001,8.91385728821635,-0.8925675486457335,10.0,0.0,23.81335639313859,24.06834663115294,344.8606079910171,463.8621993509969,0.0
0.073,8.941721008651788,-1.1508071676799903,10.0,0.0,23.95651852989837,24.148396869281978,362.43451347602996,463.8621993509969,0.0
0.074,8.927907180207171,-1.4305443375681337,10.0,0.0,24.121558169292424,24.236556455607346,368.59250641149885,463.8621993509969,0.0
0.075,8.859340450140312,-1.7499202918046703,10.0,0.0,24.31124378664675,24.33980824926249,387.10067316750514,463.8621993509969,0.0
0.076,8.767176841935807,-2.0562826706616475,10.0,0.0,24.52279212376306,24.461155754889383,396.7190369145668,463.8621993509969,0.0
0.077,8.62162972262067,-2.4016532593838043,10.0,0.0,24.76024751870129,24.606611890707832,408.83095327273656,463.8621993509969,0.0
0.078,8.47560200325128,-2.694417929744825,10.0,0.0,25.017253395580042,24.77587553037574,428.2762610097064,463.8621993509969,0.0
0.079,8.289593068490031,-3.001970310780605,10.0,0.0,25.296388163948027,24.972914099394785,438.0404594767293,463.8621993509969,0.0
0.08,8.078425759776728,-3.30171273584331,10.0,0.0,25.597209455327665,25.19953060295957,447.87571303424875,463.8621993509969,0.0
0.081,7.882675762310951,-3.525181384717318,10.0,0.0,25.912194395051316,25.45298841193994,460.26934286159303,463.8621993509969,0.0
0.082,7.687097883672571,-3.703693402600396,8.454689139300289,0.0,26.238428257179056,25.562170805993233,470.66314816262695,463.8621993509969,0.0
0.083,7.42882948868753,-3.7780615563668647,3.1897770006670267,0.0,26.54935234923481,25.15582486487329,468.9006414389673,463.8621993509969,0.0
0.084,6.932378811891847,-3.6301771347539695,4.020645941617158,0.0,26.77153847005793,25.017277522459427,464.57730381329407,463.8621993509969,0.0
0.085,6.548266677478447,-3.4030334115122844,6.1751637098307945,0.0,26.934144279216895,25.180779619480788,459.83514012123226,463.8621993509969,0.0
0.08600000000000001,6.40692784065939,-3.1747570282978312,8.586516148159346,0.0,27.07400075224092,25.599601828955866,460.1720874567345,463.8621993509969,0.0
0.08700000000000001,6.5229705512986,-2.970040024378938,8.454943599350841,0.0,27.22151769231112,25.937762873495117,460.784383506129,463.8621993509969,0.0
0.088,6.709489142710083,-2.7659716778627548,8.179573733102268,0.0,27.367698694750633,26.208527929839327,444.1157363161763,463.8621993509969,0.0
0.089,6.956989843943203,-2.49073143714832,10.0,0.0,27.498102359567195,26.644475277592797,437.02005378272554,463.8621993509969,0.0
0.09,7.3750347475752625,-2.180316350470863,10.0,0.0,27.62766713555007,26.988154061996383,432.25598737670833,463.8621993509969,0.0
0.091,7.791118059303517,-1.9284473902423138,10.0,0.0,27.75404187761665,27.268832730304116,414.7006633617237,463.8621993509969,0.0
0.092,8.279053970138214,-1.583631112506756,10.0,0.0,27.860435911358714,27.484568888913202,408.44568004769854,463.8621993509969,0.0
0.093,8.739652516009222,-1.2952678124459673,10.0,0.0,27.949492357358146,27.643584354098124,395.03110221048945,463.8621993509969,0.0
0.094,9.248737461652063,-0.9420264299904857,10.0,0.0,28.009571786206635,27.744210558802486,379.51484879506756,463.8621993509969,0.0
0.095,9.72545967874603,-0.6522433710236313,10.0,0.0,28.045362169978922,27.793433491497364,403.7982271621339,463.8621993509969,0.0
0.096,9.909243394403845,-0.8360232340794238,10.0,0.0,28.10560942416926,27.825864182748553,412.048612699547,463.8621993509969,0.0
0.097,9.946584250451117,-1.1755251765288683,10.0,0.0,28.198582437104573,27.85880687328504,428.13026577542144,463.8621993509969,0.0
0.098,9.867541164494192,-1.61780867780922,10.0,0.0,28.33080858351634,27.906820744077145,442.2805614380631,463.8621993509969,0.0
0.099,9.749345145358845,-2.0311156904709944,10.0,0.0,28.495654438746147,27.975466973676525,462.8495205240067,463.8621993509969,0.0
0.1,9.548793875431073,-2.490969560028418,7.734525686420056,0.0,28.697331186937603,27.825409670845872,472.4065305723683,463.8621993509969,0.0
0.101,9.2014684558268,-2.8459654738536226,2.8705773500255525,0.0,28.898285541852047,27.234346482707018,483.83435106027173,463.8621993509969,0.0
0.10200000000000001,8.554549001365645,-3.0461537519861066,-3.043054411018911,0.0,29.03850889391748,26.188312924317234,488.5204750526761,463.8621993509969,0.0
0.10300000000000001,7.598953748261309,-3.0245238861502974,-5.632699164237884,0.0,29.055725386914123,25.133826735026187,489.0991725375713,463.8621993509969,0.0
0.10400000000000001,6.572191029327346,-2.87236339834169,-6.174417638551228,0.0,28.949250256681417,24.25620617587333,486.49590297768475,463.8621993509969,0.0
0.105,5.6638047483673315,-2.661293826095312,-5.0991198948748355,0.0,28.743964535487674,23.669054959876284,480.9176767607423,463.8621993509969,0.0
0.106,4.990868242106366,-2.4573811056391883,-2.4805615605010773,0.0,28.480172561285887,23.462317885583033,473.7557961388069,463.8621993509969,0.0
0.107,4.636168424617786,-2.301056698191793,1.0014427825885424,0.0,28.206929519460314,23.63899783055617,466.4389101686582,463.8621993509969,0.0
0.108,4.619293710022523,-2.208567397295724,4.6341186594862736,0.0,27.9700681972905,24.133769000307883,458.4871165470385,463.8621993509969,0.0
0.109,4.905253441118688,-2.1692019198789394,8.6637662983357,0.0,27.802964814805964,24.930687084805385,456.3683476239139,463.8621993509969,0.0
0.11,5.473430520027012,-2.162545009485084,9.798089277168833,0.0,27.731924973650486,25.65604219251887,457.67564485920093,463.8621993509969,0.0
0.111,6.098222511549971,-2.152007816002751,9.20630620444328,0.0,27.739432105202773,26.162273089278884,440.52363632450795,463.8621993509969,0.0
0.112,6.671745937036661,-2.040650284172661,10.0,0.0,27.784667656709352,26.655016100868302,432.8256111965156,463.8621993509969,0.0
0.113,7.285429261685286,-1.816327022286643,10.0,0.0,27.851091970735048,27.033301497037392,424.95087534118755,463.8621993509969,0.0
0.114,7.828315169919382,-1.6189828802176014,10.0,0.0,27.92923776996635,27.326820168332873,410.5970512656408,463.8621993509969,0.0
0.115,8.402836170507411,-1.308059838389874,10.0,0.0,27.99669276322371,27.541033101439602,398.7523233218992,463.8621993509969,0.0
0.116,8.916174056498269,-1.0539402938819342,10.0,0.0,28.053979630988408,27.68984828310828,391.8762412607923,463.8621993509969,0.0
0.117,9.458449487279074,-0.7300532855526889,10.0,0.0,28.087332954672377,27.774993714860578,395.15979045618303,463.8621993509969,0.0
0.11800000000000001,9.83295298401809,-0.6664789235261228,10.0,0.0,28.12211117942354,27.819187305472553,405.46783317408244,463.8621993509969,0.0
0.11900000000000001,9.915292830729271,-1.0039401400768035,10.0,0.0,28.195587418201626,27.85712701132761,420.56346215705753,463.8621993509969,0.0
0.12,9.901124441772552,-1.4023214931144672,10.0,0.0,28.305957340356045,27.901002291727316,438.4617073060717,463.8621993509969,0.0
0.121,9.79152537200951,-1.859222767706087,10.0,0.0,28.4559531250097,27.963441250086873,451.5335753794326,463.8621993509969,0.0
0.122,9.644948732093901,-2.2781787863623006,10.0,0.0,28.638709376340216,28.04966333076893,474.12243669861937,463.8621993509969,0.0
0.123,9.425515425364528,-2.7246168620699582,1.5660249259285655,0.0,28.856730838747154,27.240473467709034,478.0291378874634,463.8621993509969,0.0
0.124,8.725929682215842,-2.9154234418294234,-0.5289950538581047,0.0,28.988555511623876,26.46265238883908,485.12256700643604,463.8621993509969,0.0
0.125,7.88862855247218,-2.972447728713607,-4.288313289898829,0.0,29.033780215085592,25.46832834581748,488.2075758052383,463.8621993509969,0.0
0.126,6.91660273940877,-2.895595697982599,-6.074271453842382,0.0,28.96602607764973,24.517646789910373,486.75640936101985,463.8621993509969,0.0
0.127,5.9712496764285286,-2.7203588816919746,-5.577630331833375,0.0,28.79147166888208,23.822016659708005,482.51192130994366,463.8621993509969,0.0
0.128,5.213456337763884,-2.522365724594895,-3.641883525884748,0.0,28.544782808853196,23.460363575706694,476.02623133829553,463.8621993509969,0.0
0.129,4.732808023216743,-2.354176642443274,-0.5206788599336711,0.0,28.27007665896135,23.47947534051128,468.8611218598485,463.8621993509969,0.0
0.13,4.580455007482479,-2.238107113088643,3.011886654201338,0.0,28.013666543131656,23.838527822326864,461.1347940428384,463.8621993509969,0.0
0.131,4.738175724825489,-2.1827139737906682,6.902324615787967,0.0,27.813870137037274,24.509783755946035,454.74268448863825,463.8621993509969,0.0
0.132,5.192316997297457,-2.1586112393503227,10.0,0.0,27.699081595518773,25.347396035442806,457.00183873976147,463.8621993509969,0.0
0.133,5.834404263475798,-2.166613350175761,9.124809531232138,0.0,27.680654395637,25.896432340876572,447.7915372424055,463.8621993509969,0.0
0.134,6.401474616708816,-2.1171101426788197,10.0,0.0,27.713448172353875,26.437788285837094,432.4697885261964,463.8621993509969,0.0
0.135,7.022610810956204,-1.9308119647318494,10.0,0.0,27.77710039839591,26.856881831450675,431.8723935113314,463.8621993509969,0.0
0.136,7.592837671440019,-1.7223297271830744,10.0,0.0,27.855226692044198,27.18391765239636,413.15479510087107,463.8621993509969,0.0
0.137,8.14759368094451,-1.4608740746405513,10.0,0.0,27.931568639018046,27.43074162817164,409.819413328669,463.8621993509969,0.0
0.138,8.685332145084473,-1.1765008038684306,10.0,0.0,27.99629228561253,27.606913730106434,391.2134077491236,463.8621993509969,0.0
0.139,9.218248553284207,-0.8698015719230454,10.0,0.0,28.041267594934773,27.718697566246632,383.38722708491525,463.8621993509969,0.0
0.14,9.712719619701721,-0.6105383063720631,10.0,0.0,28.067471790047655,27.774737896481103,402.64086503351456,463.8621993509969,0.0
0.14100000000000001,9.877665657212209,-0.8557664996357199,10.0,0.0,28.126227332587202,27.814595259741427,414.7840184087507,463.8621993509969,0.0
0.14200000000000002,9.922438473810502,-1.200021650622755,10.0,0.0,28.21850884187477,27.853066891478967,428.6919490388634,463.8621993509969,0.0
0.14300000000000002,9.841594130783468,-1.6527011093264372,10.0,0.0,28.351761552354876,27.906260116870484,443.9537102353405,463.8621993509969,0.0
0.14400000000000002,9.723375659613648,-2.0679474489672978,10.0,0.0,28.51815861709957,27.979654879169246,464.52068155147236,463.8621993509969,0.0
0.145,9.519980940320671,-2.530983657763194,6.12524049511601,0.0,28.722036971170812,27.657317560585902,472.8468584140436,463.8621993509969,0.0
0.146,9.085196920415209,-2.843609839038885,1.872305473199928,0.0,28.90305227582897,27.004318846902766,483.3075350296463,463.8621993509969,0.0
0.147,8.384144769320159,-3.0071971804610538,-3.5524861913879278,0.0,29.01553452439667,25.95329169858965,487.49794616559365,463.8621993509969,0.0
