timestamp,iq,id,iq_ref,id_ref,vq,vd,omega,omega_ref,r
0.0,0.0,0.0,0.0,0.0,0.0,0.0,0.0,25.04436716710412,0.0
0.001,0.0,0.0,10.0,0.0,0.0,1.0999999999999999,6.115472199294103,25.04436716710412,0.0
0.002,0.5307369851907212,-0.2913212625381807,9.848727560149687,0.0,0.14204533887919987,1.9149789632454859,13.224718869139306,25.04436716710412,0.0
0.003,1.0762700891372785,-0.5980291380934527,6.412300708206735,0.0,0.3822086938807265,2.231469063156908,18.359301444074095,25.04436716710412,0.0
0.004,1.3605332457890305,-0.7609804504518152,3.9118600779696404,0.0,0.6448622889771097,2.273828671578462,21.777335424583903,25.04436716710412,0.0
0.005,1.4123346555091878,-0.7908987730269241,2.2355134051399386,0.0,0.8871479877656886,2.1759684274559032,23.972572743891227,25.04436716710412,0.0
0.006,1.3174371850277866,-0.7363345881147972,1.1486126897184052,0.0,1.0891178486970683,2.0202839015065415,25.310773278251414,25.04436716710412,0.0
0.007,1.1522648906180202,-0.640929270335502,0.47684836142683884,0.0,1.245373327833773,1.8545597229676591,26.035692232296107,25.04436716710412,0.0
0.008,0.9687942280484225,-0.5355062491373069,0.10447563375257263,0.0,1.35878836204891,1.7053202033736385,26.45069846379848,25.04436716710412,0.0
0.009000000000000001,0.7985810646349889,-0.43726387090193447,-0.11709079496555819,0.0,1.4361855094892229,1.5785863006280645,26.45902619685039,25.04436716710412,0.0
0.01,0.6527928518363334,-0.35558287765834096,-0.1354012517889761,0.0,1.4851670664365053,1.486801588711401,26.02659706625277,25.04436716710412,0.0
0.011,0.5419036056863324,-0.2917312825497567,0.07099101451834855,0.0,1.5138651309678848,1.4427196924916865,25.880776190931332,25.04436716710412,0.0
0.012,0.47290829760069947,-0.24950642394863745,0.13553736194079502,0.0,1.5312789809291176,1.4174325593283965,26.235041087253144,25.04436716710412,0.0
0.013000000000000001,0.4304377748087384,-0.22387090697845133,-0.0535018254216012,0.0,1.5420250742971886,1.3789575548197304,26.269544488062966,25.04436716710412,0.0
0.014,0.3921148390631663,-0.20388592284874954,-0.08300529903610054,0.0,1.5459070647930206,1.3478404875788605,25.855276476392554,25.04436716710412,0.0
0.015,0.3619786302000718,-0.18696505650204362,0.11601961370622116,0.0,1.544627704058342,1.3453428548669455,25.63101714768385,25.04436716710412,0.0
0.016,0.35035589917359905,-0.17904410103020008,0.22228277825477627,0.0,1.542524419687504,1.3536428866499532,25.820628149552597,25.04436716710412,0.0
0.017,0.35093354229196577,-0.17748234687461173,0.11971466749591742,0.0,1.5413688835296535,1.348377694935331,26.086609747930947,25.04436716710412,0.0
0.018000000000000002,0.34792679262505277,-0.17674851314364723,-0.023698557501525608,0.0,1.5397372776472766,1.3291102140288005,25.727612371154684,25.04436716710412,0.0
0.019,0.3373085960215262,-0.1721944443736738,0.1489676788460998,0.0,1.5358484750350962,1.3331716730026169,25.431731253091257,25.04436716710412,0.0
0.02,0.33671838843491925,-0.17106318803562715,0.293034597017942,0.0,1.532675801072031,1.3505175453217515,25.633917292286235,25.04436716710412,0.0
0.021,0.3461888165200203,-0.17425910526840316,0.18604607616863222,0.0,1.5319178451961712,1.3515545073722968,25.93562161323656,25.04436716710412,0.0
0.022,0.34967261426981405,-0.1763785985721113,0.026281371232145356,0.0,1.5315405662040324,1.335619231824054,25.70795686017432,25.04436716710412,0.0
0.023,0.3423578975762415,-0.17415161977471885,0.13347785083256292,0.0,1.529341324955532,1.3354684725506238,25.367273604906703,25.04436716710412,0.0
0.024,0.34037506312184984,-0.17270848705089226,0.30059041408834564,0.0,1.5272104570928917,1.3525682468648654,25.502668342234628,25.04436716710412,0.0
0.025,0.3492042245973634,-0.17508761055628738,0.22831003367307823,0.0,1.5272787883607726,1.3571319533763326,25.85851868693941,25.04436716710412,0.0
0.026000000000000002,0.35411992890006694,-0.17736186859608782,0.042243346122335046,0.0,1.528023034302335,1.3410491546784686,25.72440812643249,25.04436716710412,0.0
0.027,0.34672920992816436,-0.1753634605476242,0.10249821678251081,0.0,1.526842008314226,1.3359998992226108,25.363204647847578,25.04436716710412,0.0
0.028,0.34209219887167264,-0.17255153539186283,0.2799115812675322,0.0,1.5249848316926926,1.3506865521267732,25.38508279290728,25.04436716710412,0.0
0.029,0.34877385377417686,-0.17364804883618168,0.2655653524796496,0.0,1.5249307737541624,1.3595852511170083,25.74728337493554,25.04436716710412,0.0
0.03,0.35509437151472856,-0.17648441131371978,0.07743589938720452,0.0,1.5260730262465942,1.3464094564596414,25.734793060685764,25.04436716710412,0.0
0.031,0.34955948987213603,-0.17531869744674794,0.07677679757627703,0.0,1.5256268818739045,1.3371463020070675,25.356397574640823,25.04436716710412,0.0
0.032,0.3433494971481536,-0.17165480677063502,0.26285423652338025,0.0,1.523907665657523,1.3498677082479849,25.291179198556325,25.04436716710412,0.0
0.033,0.34845510092423976,-0.17193805875442017,0.2929953042511074,0.0,1.523700308311849,1.3619760789611417,25.667251644797375,25.04436716710412,0.0
0.034,0.3558532004969017,-0.1752267550812684,0.0987302363536498,0.0,1.5250834478481736,1.3504195738071862,25.728387513002467,25.04436716710412,0.0
0.035,0.35150544590258814,-0.17449514121854462,0.06132209879212036,0.0,1.5250592584273022,1.338537022670566,25.33013836592166,25.04436716710412,0.0
0.036000000000000004,0.3443387795512587,-0.17029031659243765,0.2575889603443489,0.0,1.5233940182646104,1.350548599604584,25.219254914978144,25.04436716710412,0.0
0.037,0.34873918643337143,-0.17019065566510633,0.3112818083373661,0.0,1.523127545355846,1.3645803280720954,25.612621389686,25.04436716710412,0.0
0.038,0.35687057303845315,-0.17377221475878696,0.10891602875761858,0.0,1.5246858606942864,1.3535346237105386,25.704106296665977,25.04436716710412,0.0
0.039,0.3530287263376198,-0.1732057550489959,0.05657618397201253,0.0,1.5248856479037132,1.3405195131915046,25.287930476238376,25.04436716710412,0.0
0.04,0.34546515347987594,-0.1687160937819127,0.26222846109447023,0.0,1.5232757471980123,1.3527646159239868,25.169916318654543,25.04436716710412,0.0
0.041,0.3498589437680703,-0.16850847194976254,0.31998004837088234,0.0,1.5230734050472647,1.367361417481553,25.57722087216529,25.04436716710412,0.0
0.042,0.3582354206292979,-0.1722082825720142,0.11099923456489658,0.0,1.5247600326541173,1.3560354247250115,25.657142985847685,25.04436716710412,0.0
0.043000000000000003,0.3543209961964432,-0.17159945977379087,0.06491041953626442,0.0,1.5250414296106038,1.343545083945946,25.23039782545625,25.04436716710412,0.0
0.044,0.3470420722935183,-0.16710737429247466,0.27642269314845996,0.0,1.5235576116185723,1.3568206925730575,25.1509330966672,25.04436716710412,0.0
0.045,0.35207917930697413,-0.16703172328021293,0.31508939824735516,0.0,1.5235863355319197,1.3701317023525017,25.565455244317278,25.04436716710412,0.0
0.046,0.35994339594674385,-0.17053223428971168,0.10261744365018427,0.0,1.5253291007530438,1.357541208728418,25.57988702096058,25.04436716710412,0.0
0.047,0.3551939673681579,-0.16957464278035397,0.09004635678996831,0.0,1.5254981999135233,1.3477270202902458,25.146148320139847,25.04436716710412,0.0
0.048,0.3490458358670896,-0.1654941289166959,0.30589789566997755,0.0,1.5242296897042282,1.3634093409366725,25.168153147170575,25.04436716710412,0.0
0.049,0.35571524897520407,-0.16597595907521034,0.2936576223539493,0.0,1.5247500690365794,1.3730965162870612,25.60020210714497,25.04436716710412,0.0
0.05,0.36222132830926623,-0.16880856150874277,0.07207479296634328,0.0,1.5264938959368366,1.356966328940504,25.47005511810429,25.04436716710412,0.0
0.051000000000000004,0.35520115640227684,-0.1668302202619532,0.13289140797668086,0.0,1.5262043778509313,1.3523664786667506,25.007529554651715,25.04436716710412,0.0
0.052000000000000005,0.3509999518172493,-0.16358195101405965,0.3645225658274932,0.0,1.5251463003414398,1.3734608536105521,25.223764036359572,25.04436716710412,0.0
0.053,0.36103307054952527,-0.16557887233734586,0.25461135628100984,0.0,1.5265556121153183,1.3767877835740012,25.685913094627985,25.04436716710412,0.0
0.054,0.36528440813692886,-0.16750612382786584,0.017121367871564985,0.0,1.5283487141588787,1.3545308491416281,25.318837568952347,25.04436716710412,0.0
0.055,0.3546019977417762,-0.16341957159947657,0.1979144266909017,0.0,1.5272680192948174,1.3581586332304108,24.874802979666686,25.04436716710412,0.0
0.056,0.35362655928857195,-0.1610151441881798,0.42162736320810623,0.0,1.5264345508330817,1.3841165359785088,25.33237223629511,25.04436716710412,0.0
0.057,0.3666911563735393,-0.1652811884649042,0.18996268420198403,0.0,1.5287735286368818,1.3782281974858996,25.690415659968043,25.04436716710412,0.0
0.058,0.3669878196312668,-0.16617053089778472,0.004480487436878955,0.0,1.530344942035891,1.3551742087813308,25.142167743502988,25.04436716710412,0.0
0.059000000000000004,0.35533901052446965,-0.16020983224420976,0.2776264399054177,0.0,1.5287892449483205,1.3677679726606349,24.885165933013177,25.04436716710412,0.0
0.06,0.3587829300415745,-0.15897527839315276,0.40771935749123267,0.0,1.5285723000203562,1.3900302326150564,25.414011935613104,25.04436716710412,0.0
0.061,0.3706414441490231,-0.16411098642612676,0.13959990850617932,0.0,1.5311805490027686,1.3779805061603771,25.51539912872474,25.04436716710412,0.0
0.062,0.3673904956036122,-0.1638289181361559,0.08419599233415431,0.0,1.5322406158492456,1.3644595304414042,25.011510734956385,25.04436716710412,0.0
0.063,0.3600098470070768,-0.15859548295442877,0.3364687535398099,0.0,1.5312697212520872,1.3814800637334832,25.08684067398716,25.04436716710412,0.0
0.064,0.36689810974634585,-0.15884282554734855,0.2983790489555911,0.0,1.5321775114808909,1.3891573437330338,25.58495842443778,25.04436716710412,0.0
0.065,0.37236902710536546,-0.16114971074152556,0.04391426115694558,0.0,1.5340135346321995,1.368014526861401,25.200313309094625,25.04436716710412,0.0
0.066,0.36263786661257374,-0.15760853470131891,0.23467735740861773,0.0,1.5331390755648493,1.3738233192855294,24.76415181139771,25.04436716710412,0.0
0.067,0.3633587212804676,-0.15541809354497796,0.4555602598141394,0.0,1.5327274048798514,1.4011766692442051,25.320910717864784,25.04436716710412,0.0
0.068,0.37734175139909626,-0.16053355793518304,0.17441537107299565,0.0,1.5356768417537074,1.3910878255865615,25.546558126532183,25.04436716710412,0.0
0.069,0.3755907564565495,-0.1609534817976812,0.05656975714501555,0.0,1.5373174875553854,1.3724836810822683,24.970132250287026,25.04436716710412,0.0
0.07,0.3661078904019125,-0.1547175018481466,0.34552504443576487,0.0,1.5362434972933936,1.3898931586664194,25.002138529637055,25.04436716710412,0.0
0.07100000000000001,0.3725806567552787,-0.15452270441078003,0.32994419113542134,0.0,1.5370587858974005,1.4000440097705942,25.518030431674493,25.04436716710412,0.0
0.07200000000000001,0.3790501752003074,-0.15746704057709193,0.06726160747099841,0.0,1.5391334557040917,1.3798751095892492,25.11890336254807,25.04436716710412,0.0
0.073,0.3702266234116469,-0.15419926901630493,0.2660797800797699,0.0,1.5385948702786303,1.3874626771115202,24.727270569962165,25.04436716710412,0.0
0.074,0.3722800839630831,-0.15216752234014563,0.4650671423441423,0.0,1.5386780857291726,1.4138239412834666,25.33082630798843,25.04436716710412,0.0
0.075,0.38585335138255694,-0.15751423935815195,0.16042468192216625,0.0,1.541997562390597,1.4005843315035835,25.40428826053728,25.04436716710412,0.0
0.076,0.3823114417621355,-0.1572395800914997,0.12009449471340938,0.0,1.5435774507183793,1.388136077111529,24.84996783964759,25.04436716710412,0.0
0.077,0.3755778317167125,-0.15168291702868814,0.3991986984328205,0.0,1.543146038429935,1.4089006792814727,25.12883565272878,25.04436716710412,0.0
0.078,0.3843505447773059,-0.15277648549418854,0.25892010703597806,0.0,1.5450100867491625,1.4082916583776122,25.548842613557092,25.04436716710412,0.0
0.079,0.3857359037882917,-0.1540814599672653,0.04387187215729327,0.0,1.5467594396534647,1.3856127621127705,24.892793345175157,25.04436716710412,0.0
0.08,0.37488250191877154,-0.14809770549075185,0.3734122445675503,0.0,1.5453947049037056,1.4049843418745152,24.883489320891066,25.04436716710412,0.0
0.081,0.38233639086908733,-0.14785915070599603,0.3796730351717265,0.0,1.5461371981235383,1.4187471116242372,25.417172128294833,25.04436716710412,0.0
0.082,0.3907355200761971,-0.15210507798100578,0.10910358185793556,0.0,1.5486511565444587,1.400533240627132,25.00923186227249,25.04436716710412,0.0
0.083,0.3837611303803921,-0.14929692256714894,0.31342506791742375,0.0,1.5487409756553028,1.410424384730121,24.731268072827504,25.04436716710412,0.0
0.084,0.38770075567846773,-0.1475428335051174,0.4555379535826827,0.0,1.549646059022676,1.4324214962167323,25.34229429802908,25.04436716710412,0.0
0.085,0.39909983365401663,-0.15269567087210528,0.14704556967264443,0.0,1.553244698202962,1.4157396114803333,25.125777758387436,25.04436716710412,0.0
0.08600000000000001,0.39345922929372507,-0.15078790455916874,0.25448973358063404,0.0,1.554553902323487,1.4167240182639698,24.674306039270466,25.04436716710412,0.0
0.08700000000000001,0.39309784916887536,-0.14718655197834443,0.48392620441745565,0.0,1.555453555589561,1.4418878207043966,25.347077764011384,25.04436716710412,0.0
0.088,0.4050700168961352,-0.15144030355061985,0.1445132360779236,0.0,1.5592835499718292,1.4236748647504238,25.21531890176775,25.04436716710412,0.0
0.089,0.39842281629033316,-0.1494868213596855,0.20868314985310538,0.0,1.5606518287637483,1.4189699377726517,24.686655519314474,25.04436716710412,0.0
0.09,0.3949879839305814,-0.14435570154361888,0.47659195755763895,0.0,1.5608678986208395,1.4440119606351096,25.292131256882147,25.04436716710412,0.0
0.091,0.40623781789688934,-0.14769924439695137,0.17137644787602224,0.0,1.5639856646904946,1.4290467639951168,25.220856699817126,25.04436716710412,0.0
0.092,0.40101278425176645,-0.1465106533368163,0.20524883108140246,0.0,1.565130954044037,1.4233552329161232,24.671102440984434,25.04436716710412,0.0
0.093,0.39767084014474363,-0.14150993375094528,0.48385860775894546,0.0,1.5650543681104818,1.4489710989981799,25.27087419794087,25.04436716710412,0.0
0.094,0.40936627226480454,-0.1450353415812503,0.18170765897236002,0.0,1.5679848294356797,1.4346751007710998,25.17548534523374,25.04436716710412,0.0
0.095,0.40469114876811374,-0.14412634658517276,0.22809090354462952,0.0,1.5690574012777785,1.4308566327958983,24.658857313863063,25.04436716710412,0.0
0.096,0.40261652817716775,-0.1395104400431631,0.49026001776237793,0.0,1.5691422093684864,1.4560834959506948,25.28230603242436,25.04436716710412,0.0
0.097,0.4143482188596388,-0.14340412003829014,0.17615626982852778,0.0,1.5722156868304875,1.4403118180031993,25.08802112830851,25.04436716710412,0.0
0.098,0.40908916672522844,-0.14200806585953943,0.27286218227440723,0.0,1.5732121459919253,1.4408991560866486,24.67634758693081,25.04436716710412,0.0
0.099,0.4091918447310831,-0.1379596116890108,0.48237914876499144,0.0,1.573736323628594,1.463543328365415,25.309263491390638,25.04436716710412,0.0
0.1,0.4198774420723591,-0.14215370055856683,0.16327223329221202,0.0,1.5769743350468277,1.4456041818855772,24.966795392390285,25.04436716710412,0.0
0.101,0.41361964101842635,-0.13953419196031752,0.3352820005395269,0.0,1.5777645438407515,1.4526901088368247,24.780112991875203,25.04436716710412,0.0
0.10200000000000001,0.41666929769114763,-0.13653506197628595,0.43126574254935696,0.0,1.5788806152381476,1.4675865376764092,25.32739786061599,25.04436716710412,0.0
0.10300000000000001,0.42389799137455575,-0.14014570597141468,0.15479300124384554,0.0,1.5818018845190664,1.4489684320696234,24.847562825255956,25.04436716710412,0.0
0.10400000000000001,0.4168223652345441,-0.13608165740355171,0.3966785623423435,0.0,1.5820860645287986,1.462727008897732,24.9680509535374,25.04436716710412,0.0
0.105,0.42266736116170656,-0.13478523565946932,0.33719766033728865,0.0,1.5836157183141981,1.465462685399075,25.31917087212242,25.04436716710412,0.0
0.106,0.4244449344481134,-0.13674385012398158,0.15888966399459553,0.0,1.5854943861797293,1.4489216059489447,24.68196028537921,25.04436716710412,0.0
0.107,0.41769386421541926,-0.13109450202512332,0.4811190261834506,0.0,1.5848900648781745,1.4722112044930413,25.09364316494996,25.04436716710412,0.0
0.108,0.4276913671435245,-0.1331431778284355,0.2747848264196166,0.0,1.586956983380538,1.4660251194322451,25.03106566052868,25.04436716710412,0.0
0.109,0.4266056567364052,-0.13392452031756608,0.30620659369601144,0.0,1.5882640624423572,1.46640347429987,24.609598245068575,25.04436716710412,0.0
0.11,0.4281547483743447,-0.13052481256209586,0.5212879906464186,0.0,1.589096487806763,1.4900381803944505,25.25750800132031,25.04436716710412,0.0
0.111,0.43968722521020787,-0.1353900098825499,0.19520170417838906,0.0,1.5927783100269917,1.472119271399461,24.803190815789325,25.04436716710412,0.0
0.112,0.43404613122436564,-0.13236818660326935,0.42477206045702987,0.0,1.5939190065917725,1.4856098826881252,24.95978312014975,25.04436716710412,0.0
0.113,0.4402134796601587,-0.1310533159978663,0.34732174874636035,0.0,1.59618027709514,1.4863154453856453,25.20863833321567,25.04436716710412,0.0
0.114,0.44081452993162046,-0.1326342666389398,0.22125143055228513,0.0,1.5984730300944956,1.474078904934006,24.639288741469066,25.04436716710412,0.0
0.115,0.4361190052236064,-0.1270701480142556,0.5099770106819379,0.0,1.5986849911936254,1.496838329044265,25.13790854461198,25.04436716710412,0.0
0.116,0.4459172752249184,-0.12973794645473974,0.2597316953354016,0.0,1.6015007976085678,1.485804001416771,24.81763165004435,25.04436716710412,0.0
0.117,0.4428203362253981,-0.12847390651581592,0.42213749778981446,0.0,1.6027658682415806,1.4969604246069308,24.877899349591047,25.04436716710412,0.0
0.11800000000000001,0.44896922917327575,-0.1269125979125037,0.39366832619159736,0.0,1.6048609705833332,1.5016646980267676,25.19584524103533,25.04436716710412,0.0
0.11900000000000001,0.4515949709864511,-0.1294015337260505,0.23318059973014432,0.0,1.6075063860584164,1.4885117534740466,24.62576284542184,25.04436716710412,0.0
0.12,0.4470442550922991,-0.12403283457763334,0.522407840753712,0.0,1.6079565192662593,1.5108853548678023,25.12677208235108,25.04436716710412,0.0
0.121,0.4566619674415686,-0.12666031526282875,0.2710791731366212,0.0,1.6109417091595484,1.4994247280774902,24.756667492487335,25.04436716710412,0.0
0.122,0.4534524951611056,-0.12495834708309686,0.4590084648146625,0.0,1.612268826077855,1.513043410790636,24.960829449681118,25.04436716710412,0.0
0.123,0.4605503891657786,-0.12419907157058636,0.3577628633920011,0.0,1.6147585989510667,1.5116037647877072,25.030052350178508,25.04436716710412,0.0
0.124,0.4604138803629603,-0.1254888127423427,0.323294561312562,0.0,1.617004894220683,1.507863998366236,24.60328296422641,25.04436716710412,0.0
0.125,0.46023963254239425,-0.12094827615869691,0.5410900963173886,0.0,1.6181402268852714,1.529042832157435,25.19234266915797,25.04436716710412,0.0
0.126,0.4697841994568226,-0.12503462395406956,0.2450804888310696,0.0,1.6217748132858483,1.5124266588236353,24.65426648319648,25.04436716710412,0.0
0.127,0.4647571688265041,-0.12106437473732559,0.518019588650891,0.0,1.6229067328211924,1.531467377556797,25.08611459706824,25.04436716710412,0.0
0.128,0.47313216681921944,-0.12212614642477815,0.30167805741537046,0.0,1.6259860296541047,1.5212187368505692,24.747477490334816,25.04436716710412,0.0
0.129,0.4698120388413336,-0.12056656621106035,0.4739655075497747,0.0,1.6275503611927205,1.5338668887828897,24.958170169627024,25.04436716710412,0.0
0.13,0.47650361423522614,-0.11937753411332752,0.3694811378784416,0.0,1.630107877042093,1.5314212289375424,24.933451999435306,25.04436716710412,0.0
0.131,0.4757572711819965,-0.12025649116078213,0.382949374650989,0.0,1.6322736509181905,1.5321512498931544,24.68717029921285,25.04436716710412,0.0
0.132,0.47784139323968733,-0.11628087764762807,0.5096621934411305,0.0,1.633849742445318,1.5465918569831265,25.122274809949708,25.04436716710412,0.0
0.133,0.48428496858638326,-0.11981574697675251,0.2913308616442446,0.0,1.6371408772900655,1.5337744857636961,24.6157881281658,25.04436716710412,0.0
