timestamp,iq,id,iq_ref,id_ref,vq,vd,omega,omega_ref,r
0.0,0.0,0.0,0.0,0.0,0.0,0.0,0.0,56.77964764579407,0.0
0.001,0.0,0.0,10.0,0.0,0.0,1.0999999999999999,6.115472199294103,56.77964764579407,0.0
0.002,0.5307369851907212,-0.2913212625381807,10.0,0.0,0.14204533887919985,1.9316189316290207,13.317801563642547,56.77964764579407,0.0
0.003,1.0842913387634832,-0.6024330830807904,10.0,0.0,0.384357124667687,2.6386968949419622,20.697939467553027,56.77964764579407,0.0
0.004,1.5590443546685477,-0.8700465084428163,10.0,0.0,0.6994718867930164,3.2526109522886295,28.232747544420146,56.77964764579407,0.0
0.005,1.9399447555359186,-1.0838738622210777,10.0,0.0,1.065311453102468,3.7994935661768023,35.92944872443006,56.77964764579407,0.0
0.006,2.239750732602683,-1.2510087368845633,10.0,0.0,1.4655018868449925,4.299102221838433,43.75633668444442,56.77964764579407,0.0
0.007,2.4770151619816017,-1.382020589851471,7.73897672124445,0.0,1.888374097859153,4.516955467184029,50.21068137141757,56.77964764579407,0.0
0.008,2.5489535981287506,-1.4211094210100912,4.577494040501639,0.0,2.293734065204236,4.4246171633199305,54.42732373012201,56.77964764579407,0.0
0.009000000000000001,2.416490307255628,-1.3452759596057726,2.49269610030614,0.0,2.6405916363623385,4.199626086320186,57.026941513293146,56.77964764579407,0.0
0.01,2.163092942637063,-1.198135167538501,1.1904142700455822,0.0,2.914837190191301,3.935965929408834,58.57047578625946,56.77964764579407,0.0
0.011,1.8670743777926724,-1.0257098760879555,0.4007388521577724,0.0,3.117796798807345,3.6822829343931565,59.514083143978475,56.77964764579407,0.0
0.012,1.5786024655052155,-0.8606069002053306,-0.09840918168358015,0.0,3.258655072627633,3.456026394900158,58.81475298955341,56.77964764579407,0.0
0.013000000000000001,1.3232516576677786,-0.7158758623878468,0.23090484209135798,0.0,3.3485324807154946,3.3329012294313864,58.14216197033081,56.77964764579407,0.0
0.014,1.1465697301519464,-0.6094143811117307,0.5535752084572909,0.0,3.4068461788854956,3.28015842532915,58.840014169027484,56.77964764579407,0.0
0.015,1.0411096419954158,-0.5412281076713747,0.18404544387662058,0.0,3.4476183515625953,3.2044800841086634,59.5266124906839,56.77964764579407,0.0
0.016,0.952338964838343,-0.4899127387334411,-0.18672336540048717,0.0,3.471782645001166,3.112067696508973,58.62749406296494,56.77964764579407,0.0
0.017,0.8667733780016051,-0.4425692492952761,0.24435738428728437,0.0,3.4795946401870927,3.090964055352006,57.80905686521471,56.77964764579407,0.0
0.018000000000000002,0.8235979584575178,-0.41398378398476376,0.6432818909681957,0.0,3.481844105448955,3.1162165063488323,58.25580691851713,56.77964764579407,0.0
0.019,0.8205107364302701,-0.40415947983639977,0.40514527158975344,0.0,3.485599050481099,3.10889222580128,58.996672565251444,56.77964764579407,0.0
0.02,0.8128579767442701,-0.3980913847601298,0.012542199028022782,0.0,3.4876768255383674,3.0626818273688805,58.2453858797637,56.77964764579407,0.0
0.021,0.7849951121855128,-0.38428658471713834,0.3735281594321973,0.0,3.483467936192702,3.0679231201601267,57.37205162937931,56.77964764579407,0.0
0.022,0.7792794532261945,-0.37682932434511335,0.804271244788543,0.0,3.4795218144202367,3.116341368362776,57.95551212499223,56.77964764579407,0.0
0.023,0.8030975765221536,-0.3816157900188936,0.5007823521900985,0.0,3.4814132134731177,3.1191548203763713,58.76210375379188,56.77964764579407,0.0
0.024,0.8107732647103667,-0.38404656481936816,0.0776619767102984,0.0,3.4836163383933845,3.077761570249361,57.89839942116021,56.77964764579407,0.0
0.025,0.7912101882864526,-0.3742564259471423,0.49832662527247207,0.0,3.480358602784974,3.093460968012225,57.04581446276625,56.77964764579407,0.0
0.026000000000000002,0.794159709862391,-0.36964802183203593,0.9219574362997274,0.0,3.4785875574497513,3.1491373170277464,57.94029808152852,56.77964764579407,0.0
0.027,0.8236625847592169,-0.37784738957043595,0.46310912256125025,0.0,3.4835092660419784,3.1411434829637983,58.622475262119885,56.77964764579407,0.0
0.028,0.8270963556558039,-0.37900668428502793,0.1035922561023086,0.0,3.4871849491098086,3.0994001449427118,57.46141250908064,56.77964764579407,0.0
0.029,0.8069360800820289,-0.3661508286194963,0.677305983989066,0.0,3.4848929929983936,3.131154355784729,56.851833672027,56.77964764579407,0.0
0.03,0.8181859683239073,-0.3628402961148893,0.9813735422535568,0.0,3.4857700535634697,3.1857751535992866,58.040453488706405,56.77964764579407,0.0
0.031,0.8480869371306279,-0.3733922138637514,0.3744555754847305,0.0,3.493215304130915,3.1620433180753604,58.207376249010686,56.77964764579407,0.0
0.032,0.8433318742638808,-0.37140028619613763,0.2767169093004236,0.0,3.497218214868297,3.1375691841513946,57.00841311802747,56.77964764579407,0.0
0.033,0.8305535699215401,-0.3584482611192036,0.8739108200696978,0.0,3.496968617657758,3.1839695343890164,57.29040540379847,56.77964764579407,0.0
0.034,0.8512502440711547,-0.3583365924867722,0.7278070996041553,0.0,3.5015012518932367,3.201257124323039,58.407128996769174,56.77964764579407,0.0
0.035,0.8647639414284587,-0.3617174625164094,0.15317048960905066,0.0,3.507682394088154,3.154240688824594,57.21215894100141,56.77964764579407,0.0
0.036000000000000004,0.844088569202605,-0.350197854847437,0.746330404540858,0.0,3.5072428129698507,3.1859473957563518,56.49836792518404,56.77964764579407,0.0
0.037,0.8561442472464815,-0.34510309564344166,1.1060387096556439,0.0,3.5095726332208055,3.246542909989326,57.81652565564839,56.77964764579407,0.0
0.038,0.889052395332291,-0.35639073544604916,0.4365910643249258,0.0,3.519021610840289,3.220576191277571,57.656983883954844,56.77964764579407,0.0
0.039,0.8842114655854505,-0.3536658172960028,0.5075885877900916,0.0,3.5245164014321175,3.2135168299864283,56.31973658639758,56.77964764579407,0.0
0.04,0.8808436802846299,-0.3428251326744368,1.1808113471626875,0.0,3.527590550708776,3.2813794592655365,57.592178604632544,56.77964764579407,0.0
0.041,0.9142807065711688,-0.3491409863866373,0.536465028456822,0.0,3.537946698740239,3.2614411671485013,57.900574517876485,56.77964764579407,0.0
0.042,0.9115249275248909,-0.3474783155921295,0.3710578031140269,0.0,3.545027350432333,3.233418493403624,56.52323149998568,56.77964764579407,0.0
0.043000000000000003,0.8985569143962164,-0.3315223159708752,1.0622934735175151,0.0,3.546859136330337,3.287995071853946,57.27105591964934,56.77964764579407,0.0
0.044,0.9227804642629484,-0.3325349949633395,0.6834671809471298,0.0,3.554236356168957,3.285919651545632,57.82082886638646,56.77964764579407,0.0
0.045,0.9266901561957375,-0.33323775084801577,0.39816889537264877,0.0,3.560735488350272,3.2570071161505822,56.326376000985874,56.77964764579407,0.0
0.046,0.9159154505557159,-0.3183700135917619,1.1499280445210218,0.0,3.5620509751169167,3.3184065513149665,57.15209707374348,56.77964764579407,0.0
0.047,0.9445150985884946,-0.3216915288846228,0.7333430138627266,0.0,3.5698889007781123,3.317201938435674,57.481670529327715,56.77964764579407,0.0
0.048,0.9503617112416141,-0.3236655932638721,0.5615360572352708,0.0,3.5770065045140482,3.3018115335764775,56.089863353330884,56.77964764579407,0.0
0.049,0.9476496108428396,-0.31123659760023514,1.2643374881583185,0.0,3.580486377223678,3.368054953715,57.250779987824465,56.77964764579407,0.0
0.05,0.9803588043995184,-0.31758692564008306,0.6791678474912237,0.0,3.591065430717218,3.353000212032801,56.907420284434046,56.77964764579407,0.0
0.051000000000000004,0.9808189079298738,-0.3161904797877788,0.8495699728000337,0.0,3.598863992369031,3.365381260606044,56.09094485257937,56.77964764579407,0.0
0.052000000000000005,0.9912829982776638,-0.3064570281719317,1.2646947166595193,0.0,3.606064087493767,3.4201173121556447,57.468133149922984,56.77964764579407,0.0
0.053,1.0196109227707628,-0.3149733872857975,0.5692157129464226,0.0,3.619051912279672,3.3864343994249624,56.33174205947756,56.77964764579407,0.0
0.054,1.0117786855846056,-0.3047809529508848,1.1418903140322985,0.0,3.6261663319459414,3.4285123819379213,56.90759870217758,56.77964764579407,0.0
0.055,1.0328250730549264,-0.3011518639501515,0.8526824821184545,0.0,3.6364798324501457,3.4271609756512342,57.02511236306387,56.77964764579407,0.0
0.056,1.0353793736485126,-0.3006617553311397,0.7914710045026123,0.0,3.645609221217179,3.423064366634442,55.88136932682853,56.77964764579407,0.0
0.057,1.0385131713063773,-0.2872047927135502,1.3723253058099352,0.0,3.6519406454040855,3.484477270579567,57.33653346295403,56.77964764579407,0.0
0.058,1.0686963925092614,-0.295038986193331,0.6391743795755874,0.0,3.664776548475764,3.4506380652942776,56.01762233178624,56.77964764579407,0.0
0.059000000000000004,1.0620653058904639,-0.28432932845574377,1.3062501982995596,0.0,3.6716885364258145,3.5032074719067645,56.96330873256451,56.77964764579407,0.0
0.06,1.0883491173418722,-0.2843734378418601,0.8315703870427196,0.0,3.6832782148519554,3.489368069101669,56.226389748051616,56.77964764579407,0.0
0.061,1.0879536340833005,-0.2801018880068679,1.2055624582765927,0.0,3.6918546735792646,3.524263841640953,56.584238830219306,56.77964764579407,0.0
0.062,1.1096998958813427,-0.2745373145616846,1.0285920053484956,0.0,3.7024936761071503,3.530924968634238,56.59606103606073,56.77964764579407,0.0
0.063,1.116650668728214,-0.27564740825069095,1.024516768525116,0.0,3.7129126471218172,3.538758189264516,55.98413732829268,56.77964764579407,0.0
0.064,1.128192260579452,-0.264174429792356,1.3384337255841545,0.0,3.7217999145307394,3.580221535202795,56.87547708904129,56.77964764579407,0.0
0.065,1.1497146693155957,-0.2706780209100202,0.8918055507773786,0.0,3.734774914600124,3.5639069554463374,55.73964684248252,56.77964764579407,0.0
0.066,1.1522666519229396,-0.25827465036839437,1.4701206820898784,0.0,3.7433915500161685,3.6185367858654622,56.97564317056896,56.77964764579407,0.0
0.067,1.1795574928900237,-0.26371727868517514,0.8501625627989113,0.0,3.7573322277527827,3.591610279668841,55.569246394232096,56.77964764579407,0.0
0.068,1.177330160280405,-0.250874494819754,1.5654649634829623,0.0,3.7657190545877093,3.6541712521304275,56.98687689230083,56.77964764579407,0.0
0.069,1.2079530253002195,-0.2565258997249186,0.8545774219835287,0.0,3.7802733783635247,3.6225733679792937,55.38406256987429,56.77964764579407,0.0
0.07,1.2043099985666337,-0.243125009402613,1.6699404339559962,0.0,3.78868186936214,3.693096472943714,56.94772010151597,56.77964764579407,0.0
0.07100000000000001,1.2384068992493908,-0.2506373902383277,0.8864309435779367,0.0,3.804262192552487,3.659281353107803,55.36101206942195,56.77964764579407,0.0
0.07200000000000001,1.2353896708505068,-0.2363083044775351,1.693971315388666,0.0,3.813251648198164,3.7277431775081826,56.83829343505572,56.77964764579407,0.0
0.073,1.2680176536262358,-0.24410658340823538,0.9547441746791672,0.0,3.8291894422592962,3.697248125447622,55.41915386499559,56.77964764579407,0.0
0.074,1.2671416090774594,-0.22898970595981955,1.6779188975172143,0.0,3.838743112399628,3.7587604936466334,56.6307485986466,56.77964764579407,0.0
0.075,1.2962045460307503,-0.2364061103327076,1.0736105211631868,0.0,3.854459625601327,3.7381656399021033,55.57125207501881,56.77964764579407,0.0
0.076,1.3001811769026972,-0.2217734279759644,1.6154427386848322,0.0,3.8648612430054343,3.7866997505167346,56.2912762642987,56.77964764579407,0.0
0.077,1.323678076060001,-0.2277288013317172,1.2603143578598408,0.0,3.879877527623294,3.7843932751457663,55.844139028452965,56.77964764579407,0.0
0.078,1.3359845539419761,-0.21533691606292682,1.4932380619561205,0.0,3.891738875129146,3.811873223457078,55.774067454260674,56.77964764579407,0.0
0.079,1.35082962086661,-0.21883005669399408,1.5383296509675999,0.0,3.9056702470376496,3.8389122568552523,56.43983003710579,56.77964764579407,0.0
0.08,1.374952706344282,-0.21258917935968302,1.2088465356319231,0.0,3.920190957182034,3.825441376794122,55.02493945070122,56.77964764579407,0.0
0.081,1.3762908001603593,-0.20338398938417368,1.9338389107851388,0.0,3.9309623461819054,3.8979076887087625,56.455685790056194,56.77964764579407,0.0
0.082,1.4137504821147422,-0.2124720875724776,1.22170535966503,0.0,3.9489949701737217,3.874512709880361,55.599925530395716,56.77964764579407,0.0
0.083,1.4195513146104477,-0.19717515992627732,1.6613827106492525,0.0,3.9611112908605506,3.9104828406984624,55.61878415943624,56.77964764579407,0.0
0.084,1.4372597720086615,-0.2005952089523928,1.6635620309925696,0.0,3.9761421672298427,3.9380206202425136,56.39787348704415,56.77964764579407,0.0
0.085,1.4621740810203412,-0.19545038324969877,1.2778351087761122,0.0,3.9918236025990526,3.9192924654045407,55.028038131112396,56.77964764579407,0.0
0.08600000000000001,1.4631518735240194,-0.18220979967314543,1.9802688818888066,0.0,4.0026590630111505,3.9852718397665607,55.867117871534326,56.77964764579407,0.0
0.08700000000000001,1.4958692030588268,-0.19162052033552412,1.5698543094204391,0.0,4.020176499926868,3.9899777537071497,56.176242748615536,56.77964764579407,0.0
0.088,1.5151643075001309,-0.1819445392386081,1.4213259198516195,0.0,4.035254319417788,3.9819355546241706,54.82138781509574,56.77964764579407,0.0
0.089,1.5184238708346236,-0.1720541350799326,2.1183359849185006,0.0,4.047028952404832,4.054196147529243,55.8245232931113,56.77964764579407,0.0
0.09,1.5560107225196604,-0.1826711946832711,1.6263194894375494,0.0,4.066118961981633,4.05521427123693,56.16377488290678,56.77964764579407,0.0
0.091,1.5749093740446565,-0.17268573736876425,1.462852422168682,0.0,4.082197212070895,4.043275387935866,54.84649102630144,56.77964764579407,0.0
0.092,1.5770015513594344,-0.16009044622734037,2.140825916666276,0.0,4.094188121368712,4.1103088200518805,55.87797097060131,56.77964764579407,0.0
0.093,1.6071513677170954,-0.17657265857554394,1.63410271126827,0.0,4.113622279218065,4.106023154321123,57.078601868768025,56.77964764579407,0.0
0.094,1.6140614640544366,-0.17890961057315213,1.0307977199551732,0.0,4.130776697305662,4.042354541524387,56.15950296475145,56.77964764579407,0.0
0.095,1.5814683536297305,-0.16579677765969758,1.496548618773889,0.0,4.138383031164369,4.047688223709365,56.49600518078289,56.77964764579407,0.0
0.096,1.5669584253497213,-0.17225592899587994,1.3311339354082803,0.0,4.146603734831819,4.031666207909864,57.731214805608666,56.77964764579407,0.0
0.097,1.554466369597867,-0.17000737967570156,0.7040134513972454,0.0,4.152088234613991,3.951968384499406,56.550900633324204,56.77964764579407,0.0
0.098,1.50905713920028,-0.15443341250171982,1.2964580076641747,0.0,4.147363851180964,3.957098994223898,56.99876877698756,56.77964764579407,0.0
0.099,1.4928842345914306,-0.16196593836133855,1.0703327245205616,0.0,4.144609284579987,3.9317708051271705,57.693183399547415,56.77964764579407,0.0
0.1,1.478453469349732,-0.15864021159429553,0.7139900557031011,0.0,4.139156200526464,3.8731891926720303,56.65164758932615,56.77964764579407,0.0
0.101,1.4432045908563902,-0.1534720941632779,1.2360379613784114,0.0,4.127855027983039,3.8846421983513633,57.64020799790779,56.77964764579407,0.0
0.10200000000000001,1.4369533366009688,-0.16477756543203714,0.7331521535664571,0.0,4.120124556275764,3.8336170174755146,57.162575404133555,56.77964764579407,0.0
0.10300000000000001,1.413889085954641,-0.1583932548447986,0.968139172870178,0.0,4.107249284774346,3.8202732927465934,56.96064479406282,56.77964764579407,0.0
0.10400000000000001,1.3980828747494072,-0.1669185827034425,1.067294506422857,0.0,4.095328797120501,3.8170416705642927,57.902824708040626,56.77964764579407,0.0
0.105,1.3954606512772054,-0.17294758381993813,0.5849727788114898,0.0,4.0848551328580385,3.7590246009319497,56.81876722675248,56.77964764579407,0.0
0.106,1.366551372242279,-0.1705753721316906,1.12661032364598,0.0,4.069305894761716,3.7733190175036233,57.847672938608845,56.77964764579407,0.0
0.107,1.3650638655944602,-0.183630535827635,0.6014772147896483,0.0,4.058200812255631,3.7213225841268662,57.01771583333039,56.77964764579407,0.0
0.108,1.3426679038453484,-0.17982708395626668,1.0140750855535117,0.0,4.042457663319666,3.726501063435688,57.58672724190465,56.77964764579407,0.0
0.109,1.337194923546699,-0.1931762502969263,0.7214985853052782,0.0,4.030313120024368,3.693656054400448,57.2274523354538,56.77964764579407,0.0
0.11,1.324017573395047,-0.19232270311040234,0.8966579916341058,0.0,4.015871148301151,3.686469170351551,57.43166834857885,56.77964764579407,0.0
0.111,1.3147514750993312,-0.2044124727102753,0.7880297780437302,0.0,4.003493095473217,3.665743577288003,57.439776382376174,56.77964764579407,0.0
0.112,1.3061928014047128,-0.20582229688416231,0.7773744737792492,0.0,3.990314471584851,3.6466157300382798,57.35130382716892,56.77964764579407,0.0
0.113,1.292459519103233,-0.215089921068781,0.8158941895691274,0.0,3.9775462657789187,3.63385160122044,57.55933512915255,56.77964764579407,0.0
0.114,1.2859934034650164,-0.21766421900237598,0.704081663743727,0.0,3.964968964202644,3.6089764296022877,57.36388811790086,56.77964764579407,0.0
0.115,1.2699402144373215,-0.22563993431487417,0.7959627646485028,0.0,3.9520134613272204,3.5982572809827644,57.58591863042853,56.77964764579407,0.0
0.116,1.2635210419484464,-0.22819743788048252,0.6768847985383248,0.0,3.9394831621164794,3.573842686739986,57.459273671285004,56.77964764579407,0.0
0.117,1.2475885608992772,-0.23612650312917427,0.7334110178551787,0.0,3.9266110555442335,3.5597135669768853,57.444979610855874,56.77964764579407,0.0
0.11800000000000001,1.239325476895505,-0.23776553457450555,0.7339047284191256,0.0,3.913714250459403,3.545948808931659,57.758396872738906,56.77964764579407,0.0
0.11900000000000001,1.2280361351325761,-0.24781013929078155,0.5674086052081613,0.0,3.90181916628287,3.5151105322775122,57.28622835635577,56.77964764579407,0.0
0.12,1.2124002271422805,-0.24654792199597508,0.7984270562941118,0.0,3.8877904729089834,3.514850622183993,58.12486178562744,56.77964764579407,0.0
0.121,1.2063830763520693,-0.25694205748137694,0.36565820025994467,0.0,3.8762946349394753,3.4638046025948395,57.05985648276055,56.77964764579407,0.0
0.122,1.1810005580628538,-0.2531880946966285,0.8953587633237232,0.0,3.8603269015468276,3.482040257168921,58.14470316951345,56.77964764579407,0.0
0.123,1.1832307147288519,-0.2633773345517206,0.3392848647100808,0.0,3.8489378629627575,3.4298912960520354,57.12112488998756,56.77964764579407,0.0
0.124,1.1575804636221523,-0.26381653022499824,0.8476592320310887,0.0,3.8334192512509198,3.44614407576828,57.85088865378886,56.77964764579407,0.0
0.125,1.1605912439779535,-0.2711145793648346,0.4720649400504937,0.0,3.821876172130538,3.4122329122004347,57.45439928635571,56.77964764579407,0.0
0.126,1.142896095738704,-0.27725897801364474,0.6635621073614513,0.0,3.80869918792538,3.407355762511221,57.38862207975119,56.77964764579407,0.0
0.127,1.1379498249401365,-0.28034271384079124,0.6903609663241413,0.0,3.7966299541263147,3.4030486704886505,58.118120635432604,56.77964764579407,0.0
0.128,1.1326991196722198,-0.29106427249944344,0.31222695858704763,0.0,3.786485468599079,3.3566307497192076,57.11927116963163,56.77964764579407,0.0
0.129,1.1091050025952072,-0.28800510685240377,0.8082554562491585,0.0,3.7722699157398614,3.3747274931199813,57.98302211518703,56.77964764579407,0.0
0.13,1.1122230398758175,-0.29567539978830537,0.3643462387775276,0.0,3.762159916386063,3.335223782724617,57.51668255302678,56.77964764579407,0.0
0.131,1.091327880621147,-0.2997405276684336,0.5901456707853256,0.0,3.749481007065564,3.330266121019804,57.302377162915775,56.77964764579407,0.0
0.132,1.0846873134147907,-0.301837398988889,0.6920710706696126,0.0,3.737764227073081,3.334011645020769,58.23907112881774,56.77964764579407,0.0
0.133,1.0837109764834065,-0.3116081363455593,0.2091298528883927,0.0,3.7286474898759727,3.2821091420580006,57.271872470379805,56.77964764579407,0.0
0.134,1.0567826716984485,-0.309398184941217,0.6878069338615038,0.0,3.7149113740742536,3.2949214569136838,57.552738545774844,56.77964764579407,0.0
0.135,1.0567821971298637,-0.3137586744807648,0.5396429871641765,0.0,3.704331854701668,3.283724892911884,58.01136492091152,56.77964764579407,0.0
0.136,1.0489736135491636,-0.322884390607746,0.2980126268446648,0.0,3.694650854744734,3.2483512726530255,57.265255525087404,56.77964764579407,0.0
