timestamp,iq,id,iq_ref,id_ref,vq,vd,omega,omega_ref,r
0.0,0.0,0.0,0.0,0.0,0.0,0.0,0.0,221.34162703942766,0.0
0.001,0.0,0.0,10.0,0.0,0.0,1.0999999999999999,6.115472199294103,221.34162703942766,0.0
0.002,0.5307369851907212,-0.2913212625381807,10.0,0.0,0.14204533887919985,1.9316189316290207,13.317801563642547,221.34162703942766,0.0
0.003,1.0842913387634832,-0.6024330830807904,10.0,0.0,0.384357124667687,2.6386968949419622,20.697939467553027,221.34162703942766,0.0
0.004,1.5590443546685477,-0.8700465084428163,10.0,0.0,0.6994718867930164,3.2526109522886295,28.232747544420146,221.34162703942766,0.0
0.005,1.9399447555359186,-1.0838738622210777,10.0,0.0,1.065311453102468,3.7994935661768023,35.92944872443006,221.34162703942766,0.0
0.006,2.239750732602683,-1.2510087368845633,10.0,0.0,1.4655018868449925,4.299102221838433,43.75633668444442,221.34162703942766,0.0
0.007,2.4770151619816017,-1.382020589851471,10.0,0.0,1.8883740978591532,4.765668027847139,51.58766747378032,221.34162703942766,0.0
0.008,2.6680767290418097,-1.4872241871505252,10.0,0.0,2.325877945545995,5.209220346273558,59.45942083902103,221.34162703942766,0.0
0.009000000000000001,2.8266491704841292,-1.5730794701170803,10.0,0.0,2.772378685460125,5.636635464737965,67.35059094018146,221.34162703942766,0.0
0.01,2.962077666392183,-1.645500646948331,10.0,0.0,3.224078639851053,6.052647735211881,75.20908322432116,221.34162703942766,0.0
0.011,3.0811061533574158,-1.7084279320504514,10.0,0.0,3.678407615443203,6.460489925470405,83.0265951655913,221.34162703942766,0.0
0.012,3.188848746459569,-1.7638278597420747,10.0,0.0,4.133552631697047,6.862319393890706,90.74118064793086,221.34162703942766,0.0
0.013000000000000001,3.288205119878689,-1.8140726097274587,10.0,0.0,4.588339016389012,7.259628641949282,98.35820682563939,221.34162703942766,0.0
0.014,3.3820602099432007,-1.8592355758795645,10.0,0.0,5.041843166194517,7.653355107498287,105.90865295623543,221.34162703942766,0.0
0.015,3.4721069852858886,-1.899829032412081,10.0,0.0,5.493383198131427,8.044092747085895,113.37727610343421,221.34162703942766,0.0
0.016,3.5596145800153947,-1.9360338400176071,10.0,0.0,5.94241958510469,8.43218525824161,120.68508583176356,221.34162703942766,0.0
0.017,3.645144415105338,-1.9685384477868613,10.0,0.0,6.388575043274759,8.817838951066484,127.83962377537456,221.34162703942766,0.0
0.018000000000000002,3.730251927866576,-1.9959253041084188,10.0,0.0,6.83136783302799,9.201036292373047,134.85405702603322,221.34162703942766,0.0
0.019,3.81544967906247,-2.018253592643655,10.0,0.0,7.270383321112213,9.581672501020332,141.68976328564074,221.34162703942766,0.0
0.02,3.9014648862453374,-2.0350875541282063,10.0,0.0,7.705189334130692,9.959536942333155,148.3432823300447,221.34162703942766,0.0
0.021,3.9891051824829464,-2.0457889559126508,10.0,0.0,8.135310004560049,10.334315260302239,154.92060212100432,221.34162703942766,0.0
0.022,4.079618141396171,-2.0489696811670974,10.0,0.0,8.560139305503519,10.705547790999272,161.01925282597162,221.34162703942766,0.0
0.023,4.171109372430197,-2.048468292080302,10.0,0.0,8.979521969370257,11.072981092896333,166.534238406907,221.34162703942766,0.0
0.024,4.266936196769627,-2.039517194249811,10.0,0.0,9.392730090169543,11.435983292623375,171.8647834235234,221.34162703942766,0.0
0.025,4.367255527950721,-2.0225841458509217,10.0,0.0,9.79914449451603,11.793929226271104,177.02637022703064,221.34162703942766,0.0
0.026000000000000002,4.4734353073349595,-1.9962166741499119,10.0,0.0,10.197980960389518,12.146045424568259,181.63161391243256,221.34162703942766,0.0
0.027,4.582366840795821,-1.966358349113627,10.0,0.0,10.589124658468391,12.491912978736195,185.74793639675826,221.34162703942766,0.0
0.028,4.700058850757774,-1.9240450691803936,10.0,0.0,10.971384864613876,12.830451341534015,189.43662766964098,221.34162703942766,0.0
0.029,4.820934284790598,-1.879137197786803,10.0,0.0,11.344756153370636,13.161242511022618,192.73598774770625,221.34162703942766,0.0
0.03,4.952016225740939,-1.821000614527957,10.0,0.0,11.707923484756042,13.483081433273819,195.59831968863915,221.34162703942766,0.0
0.031,5.086039273572549,-1.7621311371320891,10.0,0.0,12.061063698547066,13.79562148058647,197.80891551030922,221.34162703942766,0.0
0.032,5.230431844273564,-1.6911110488141978,10.0,0.0,12.40292038074925,14.097678592248165,200.4421589734679,221.34162703942766,0.0
0.033,5.380124186618445,-1.6166151787533525,10.0,0.0,12.733312761073865,14.38869342901298,201.91742172589852,221.34162703942766,0.0
0.034,5.537594793894332,-1.535029134414507,10.0,0.0,13.051537880865839,14.667821176756876,203.18880493813168,221.34162703942766,0.0
0.035,5.698947813469154,-1.4530296333491768,10.0,0.0,13.357649178779205,14.934684535625108,203.60405746232266,221.34162703942766,0.0
0.036000000000000004,5.870474243492053,-1.3603000477825025,10.0,0.0,13.65045542338638,15.188218311291084,204.28541056101804,221.34162703942766,0.0
0.037,6.041188711220851,-1.275010780747051,10.0,0.0,13.930879897581198,15.42861600670124,205.2233356988433,221.34162703942766,0.0
0.038,6.228175208801664,-1.168399557236846,10.0,0.0,14.196427351981786,15.654155009933262,200.35169734043586,221.34162703942766,0.0
0.039,6.404895489618571,-1.0845312562500289,10.0,0.0,14.449814560392067,15.86612549236809,209.64773540576442,221.34162703942766,0.0
0.04,6.534612624563911,-1.0851225869390002,10.0,0.0,14.699963825590459,16.069735965364643,218.170241886545,221.34162703942766,0.0
0.041,6.621487035821765,-1.1484636683301073,6.732068509375,0.0,14.952420817214799,15.910268839723717,217.45679474344513,221.34162703942766,0.0
0.042,6.497935243049234,-1.1727971595583142,7.127640403884761,0.0,15.165728670333804,15.882645790429205,228.24169950242796,221.34162703942766,0.0
0.043000000000000003,6.366606869690255,-1.2267906570754739,1.6661872997633411,0.0,15.360639383026061,15.287610874119341,226.32534534626126,221.34162703942766,0.0
0.044,5.970629200802248,-1.1318746923038479,2.574527194778357,0.0,15.465574841718059,14.968346700046657,231.89919818247768,221.34162703942766,0.0
0.045,5.606348429601938,-1.1092181106654095,-0.3179749347603522,0.0,15.526547272801077,14.400354964194188,230.60594015915638,221.34162703942766,0.0
0.046,5.164970055574933,-1.014486505892732,0.2360109457030113,0.0,15.514429376481932,14.030031926612576,233.44905878557444,221.34162703942766,0.0
0.047,4.786047147950271,-0.9892718716151545,-1.3066226849674862,0.0,15.464664672313738,13.557567581077286,232.70836078698474,221.34162703942766,0.0
0.048,4.401415444752533,-0.9421163504235437,-1.04994102314821,0.0,15.367695043020529,13.209554777061024,233.80220022775015,221.34162703942766,0.0
0.049,4.077629948293823,-0.934621776422359,-1.7214664754141387,0.0,15.245268248326802,12.841981761728109,233.6067757932009,221.34162703942766,0.0
0.05,3.7750517312107323,-0.9295133020218451,-1.7464057456772517,0.0,15.09783984512511,12.532941052167379,233.48363965948386,221.34162703942766,0.0
0.051000000000000004,3.513466044661299,-0.9391650702179744,-1.8062578050192872,0.0,14.935362990533097,12.259475882767168,233.05487916982915,221.34162703942766,0.0
0.052000000000000005,3.287823617382716,-0.9586939722384886,-1.7090100814959488,0.0,14.763838966000554,12.03061012516391,232.47555368626467,221.34162703942766,0.0
0.053,3.09968365086607,-0.9871311269420954,-1.5306866061820816,0.0,14.589513566158145,11.84456061796107,231.81808082250754,221.34162703942766,0.0
0.054,2.9473415579054043,-1.022871649767017,-1.3067147121343123,0.0,14.417662841543383,11.69741342564689,231.10260798806635,221.34162703942766,0.0
0.055,2.82723922076733,-1.0635131334995716,-1.0465881044001062,0.0,14.252395628141013,11.585857924168515,230.36500526801137,221.34162703942766,0.0
0.056,2.735783135389668,-1.1066361378654337,-0.7680205266584532,0.0,14.096836701573967,11.50583156499215,229.69121885658205,221.34162703942766,0.0
0.057,2.669462755274642,-1.1494386251080475,-0.5146232391153376,0.0,13.953108075299014,11.449720655887912,229.1571133615918,221.34162703942766,0.0
0.058,2.623165705570617,-1.1885845393202554,-0.3257253548418504,0.0,13.822019246432054,11.407522241127552,228.42681384861433,221.34162703942766,0.0
0.059000000000000004,2.5889005728335657,-1.2228351296793352,-0.03142746644498384,0.0,13.703195564773127,11.390224767941485,227.40743270691843,221.34162703942766,0.0
0.06,2.570187719241862,-1.2535630795201271,0.41760504772805973,0.0,13.597562072540384,11.410941034150914,226.3754891752861,221.34162703942766,0.0
0.061,2.5745180003480095,-1.2848346722519282,0.8832381921856367,0.0,13.507696151853946,11.465088185807138,225.06926676917212,221.34162703942766,0.0
0.062,2.603819506241635,-1.3135192326032297,1.4990729979451864,0.0,13.435074124113102,11.564739664580834,224.16154932668437,221.34162703942766,0.0
0.063,2.66411316275396,-1.3418155958401923,1.9247324963164951,0.0,13.382505201376265,11.681488702308904,223.53197836088037,221.34162703942766,0.0
0.064,2.7423941309964506,-1.364860010364834,2.217614466003964,0.0,13.349119996651261,11.80125839573084,225.3686313997178,221.34162703942766,0.0
0.065,2.826914143098602,-1.3789402081098316,1.2590179029823498,0.0,13.332368659347651,11.78882376606002,224.69962507880211,221.34162703942766,0.0
0.066,2.8392818478771864,-1.3674988657996974,1.5599410830464473,0.0,13.314649643175754,11.818129733658566,220.56318319226602,221.34162703942766,0.0
0.067,2.8633706026367016,-1.3311921891108591,3.635946464786109,0.0,13.297753804368234,12.065558477095024,219.67271117809355,221.34162703942766,0.0
0.068,3.005429641883379,-1.327020511327676,4.097871630485687,0.0,13.307194605995846,12.301220869947105,222.85663871594141,221.34162703942766,0.0
0.069,3.1688186645270275,-1.3454970260789583,2.490757744796617,0.0,13.34133170014638,12.316307122495614,220.30474227043646,221.34162703942766,0.0
0.07,3.228070545378323,-1.3181427507873775,3.777074815239005,0.0,13.370369974707124,12.485980659142665,215.03737849152756,221.34162703942766,0.0
0.07100000000000001,3.3497562430704795,-1.276857769343553,6.473799190172457,0.0,13.409203970270596,12.912574272181724,220.6055410458762,221.34162703942766,0.0
0.07200000000000001,3.6100548088955375,-1.3034435280902905,3.6970787729336485,0.0,13.490151210858208,12.940569448563785,218.5960635596826,221.34162703942766,0.0
0.073,3.7074079893325687,-1.2749077102121167,4.729273150827908,0.0,13.56239844747119,13.10706255291733,213.53990192048434,221.34162703942766,0.0
0.074,3.8514144266126187,-1.2069246390594939,7.335371221616467,0.0,13.636877491210226,13.525612738208189,219.38050422263308,221.34162703942766,0.0
0.075,4.113051361462066,-1.2230474004921077,4.434681298710043,0.0,13.748216983573565,13.537278938655632,212.96171012598995,221.34162703942766,0.0
0.076,4.221373402143714,-1.1583411799411392,7.727877516165983,0.0,13.84231023487037,13.940871896317397,216.89255733859824,221.34162703942766,0.0
0.077,4.486556737350958,-1.1361347905659818,5.806944606870135,0.0,13.965557816177917,14.041193354679578,211.5475567654266,221.34162703942766,0.0
0.078,4.636171190728323,-1.090298598469367,8.577385596195962,0.0,14.08169286795406,14.453959506735659,215.2837356822252,221.34162703942766,0.0
0.079,4.928752652370177,-1.0666477302337756,6.76987505136869,0.0,14.22534779617324,14.57984416269266,209.45493945649574,221.34162703942766,0.0
0.08,5.110982848567527,-1.0128438087523581,9.80314004006274,0.0,14.361543774485602,15.042120593115209,214.29117965240195,221.34162703942766,0.0
0.081,5.43480695280219,-1.0101875082181178,7.455524415979889,0.0,14.530593644165034,15.149420260286842,208.90052825604843,221.34162703942766,0.0
0.082,5.640101078362699,-0.9267619808225513,10.0,0.0,14.684318248585509,15.546919305422987,210.0606532890311,221.34162703942766,0.0
0.083,5.931378928409422,-0.9207560090850538,9.80250310096326,0.0,14.862593895460392,15.84288386950379,211.82770200130253,221.34162703942766,0.0
0.084,6.229874782607663,-0.8713484746655787,9.014117995208803,0.0,15.04726366498709,16.012410383760034,213.58865245408833,221.34162703942766,0.0
0.085,6.396012375646971,-0.9022731840471123,8.211172514669293,0.0,15.234314902362911,16.087720895049188,220.45663833322308,221.34162703942766,0.0
0.08600000000000001,6.424454344555051,-1.0069111012284546,4.786029462163963,0.0,15.4213929909262,15.804001957327316,225.58987404980678,221.34162703942766,0.0
0.08700000000000001,6.258536778502842,-0.9941035227731547,2.176929133768323,0.0,15.558936164059071,15.333148468590315,225.05378500376773,221.34162703942766,0.0
0.088,5.903792803947784,-0.9620106367237518,2.407852077144449,0.0,15.632237529324074,15.011989834636175,228.66882569441108,221.34162703942766,0.0
0.089,5.589008197858935,-0.9302323506958374,0.5270597452729371,0.0,15.662918212064595,14.552159681588535,229.89870034979452,221.34162703942766,0.0
0.09,5.208526936604582,-0.90482997063526,-0.17344831552245132,0.0,15.642071332279906,14.121837741428028,231.19677849224135,221.34162703942766,0.0
0.091,4.845278075276235,-0.865610231821979,-0.9210389012740015,0.0,15.576216798988781,13.69338598561396,231.91997574800678,221.34162703942766,0.0
0.092,4.483690502733918,-0.8504468704503981,-1.3884210162425061,0.0,15.472826771082623,13.293399969629538,232.05896659123175,221.34162703942766,0.0
0.093,4.153034625503509,-0.8369517128786642,-1.565089833373034,0.0,15.338444310649463,12.941070074488195,232.4098980351045,221.34162703942766,0.0
0.094,3.8582374392620573,-0.8440537241570782,-1.8512382652661792,0.0,15.183183279561831,12.609946415194976,232.12258759887098,221.34162703942766,0.0
0.095,3.5927981378980274,-0.8582709376182597,-1.8153926527438502,0.0,15.01182885902158,12.329463871706338,231.7488989072433,221.34162703942766,0.0
0.096,3.3657248251983565,-0.8845965170709431,-1.732621025608168,0.0,14.832315267791673,12.090964234755567,231.23630218836718,221.34162703942766,0.0
0.097,3.175075209229377,-0.9201131864118608,-1.5752694176595003,0.0,14.650546649822662,11.893544887609464,230.67147054714613,221.34162703942766,0.0
0.098,3.018706479315546,-0.9621564498204028,-1.3861520321261613,0.0,14.47148255121747,11.732214073841083,230.06631826185222,221.34162703942766,0.0
0.099,2.8918370523656503,-1.008795817605911,-1.1708228017034505,0.0,14.298901678918279,11.603296922745539,229.38765456897357,221.34162703942766,0.0
0.1,2.7907449154828954,-1.0570334518649447,-0.911951230559588,0.0,14.135526924830085,11.506187420838833,228.71128310473915,221.34162703942766,0.0
0.101,2.713406359217989,-1.1052165297583578,-0.647462059095492,0.0,13.98359645818573,11.4364528066839,228.1070581214387,221.34162703942766,0.0
0.10200000000000001,2.6568437264339586,-1.1510477014639768,-0.41300387826538243,0.0,13.844445174899,11.387092619500287,227.66779061003797,221.34162703942766,0.0
0.10300000000000001,2.616864635359372,-1.1912798899737074,-0.25663175827111395,0.0,13.718240230241594,11.347441747787798,226.92249906939693,221.34162703942766,0.0
0.10400000000000001,2.585063492555897,-1.2257004817432464,0.060205291749710454,0.0,13.604074636088235,11.335522157880803,225.96572149503453,221.34162703942766,0.0
0.105,2.5690931801565435,-1.2566254541734887,0.49235313437484507,0.0,13.503191183409147,11.359184582673624,224.94669657281497,221.34162703942766,0.0
0.106,2.574976438891544,-1.2876697646376463,0.9658149001507508,0.0,13.417867942904,11.417344873943502,223.65864683793578,221.34162703942766,0.0
0.107,2.606207350296584,-1.3158730683017255,1.5866695696052666,0.0,13.349684975874766,11.52133964035092,222.88168619991578,221.34162703942766,0.0
0.108,2.66856560086675,-1.3440070050580686,1.959749297010386,0.0,13.301532482195753,11.636399758286016,222.81142734639744,221.34162703942766,0.0
0.109,2.746024612128611,-1.3655699408782822,1.9801807206998583,0.0,13.271791833250811,11.725758365658391,224.6838762241824,221.34162703942766,0.0
0.11,2.812820170272353,-1.3746020007285469,1.0105337899598301,0.0,13.254739007162923,11.689768649497543,222.4577671658452,221.34162703942766,0.0
0.111,2.8096963780487076,-1.3525890186448548,2.1124269178642483,0.0,13.23328074344003,11.787588908446914,218.40214597596187,221.34162703942766,0.0
0.112,2.8619841067587766,-1.3305407098808355,4.169632323440576,0.0,13.221545147841166,12.082972090383066,219.66413767226248,221.34162703942766,0.0
0.113,3.0362025627768503,-1.3423571602926874,3.555411368961922,0.0,13.24204172262874,12.240865882642414,222.9952627834065,221.34162703942766,0.0
0.114,3.1695322935344925,-1.3484214368978957,1.8733124559501237,0.0,13.276826925085953,12.193207196444915,218.06253749667798,221.34162703942766,0.0
0.115,3.1892393476425083,-1.2987311593516575,4.372465994741884,0.0,13.29784116538155,12.444686298865797,214.86779977553797,221.34162703942766,0.0
0.116,3.341163056056656,-1.2654897698879723,6.0345731279507815,0.0,13.338742241824141,12.814444626954733,219.54604025520126,221.34162703942766,0.0
0.117,3.576759177066748,-1.2941361596564034,3.7134087559614017,0.0,13.416012560200523,12.854971741401144,216.2484679705127,221.34162703942766,0.0
0.11800000000000001,3.677683125330945,-1.2613381096893477,5.413126488994829,0.0,13.485714308789847,13.100608097495156,213.9480689132387,221.34162703942766,0.0
0.11900000000000001,3.861346345132323,-1.2117221761312946,6.637261598893723,0.0,13.567879745937924,13.427114962901742,217.56824869543982,221.34162703942766,0.0
0.12,4.08477009974768,-1.2214556920373476,4.86490549123304,0.0,13.676046171997108,13.49924718173114,211.9656260629353,221.34162703942766,0.0
0.121,4.215443498276479,-1.1589769686089806,7.759976817250217,0.0,13.773639182597122,13.899024391929991,216.20671069345687,221.34162703942766,0.0
0.122,4.47978213739087,-1.1457399453911785,5.690783665449147,0.0,13.90061932783735,13.984250705893377,210.45869253200271,221.34162703942766,0.0
0.123,4.626105697287599,-1.0898424768571382,8.673622091250474,0.0,14.017407738643325,14.409004356143107,214.95301564001034,221.34162703942766,0.0
0.124,4.917035926808399,-1.074537147174854,6.490346651240837,0.0,14.163868061813968,14.502433710141073,208.40524939042598,221.34162703942766,0.0
0.125,5.0867492333065645,-1.0075624687869018,9.893593552523033,0.0,14.29781112674149,14.981596913177848,213.34419647448001,221.34162703942766,0.0
0.126,5.40906019511877,-1.0131643086654027,7.5040943161454905,0.0,14.467562154650453,15.095603644654988,208.49733952175026,221.34162703942766,0.0
0.127,5.619971980044759,-0.9284083677736008,10.0,0.0,14.622359581019353,15.493652236639345,209.04115167784107,221.34162703942766,0.0
0.128,5.91050181086546,-0.9255190707158332,9.90594502990386,0.0,14.80201186068235,15.802221444972012,211.20425909096977,221.34162703942766,0.0
0.129,6.212905765733933,-0.8818425417393021,8.92576500282409,0.0,14.989780307995485,15.960660570432584,212.31388085028837,221.34162703942766,0.0
0.13,6.379949017088006,-0.9015515103453544,8.461231585056183,0.0,15.177220574959794,16.065385034294472,219.94921388192952,221.34162703942766,0.0
0.131,6.423506951477349,-1.0078090692245507,4.657489200810588,0.0,15.367880503404503,15.761493810107979,224.1951005400202,221.34162703942766,0.0
0.132,6.251994946026375,-0.990514722256163,2.5060111367593203,0.0,15.506120362830783,15.32773443792492,224.38677442726052,221.34162703942766,0.0
0.133,5.91278790612965,-0.9662964857465153,2.379722719260835,0.0,15.584669236549757,14.994395697952612,227.810620721618,221.34162703942766,0.0
0.134,5.599387041624832,-0.9283671175317159,0.6031096352601946,0.0,15.618099300761063,14.539163188980904,229.3944650904719,221.34162703942766,0.0
0.135,5.218066089674212,-0.9065989860271189,-0.26934092967719936,0.0,15.600647906870716,14.093404802093907,230.200212792156,221.34162703942766,0.0
0.136,4.848679082538575,-0.860195440362727,-0.7608006380465389,0.0,15.535479104972659,13.68196041350074,231.35039050531262,221.34162703942766,0.0
0.137,4.492062809850278,-0.8484895878573075,-1.435977129283693,0.0,15.43485913608614,13.271322686549045,231.26405045089575,221.34162703942766,0.0
0.138,4.15829080559827,-0.8319622029317038,-1.492031336189941,0.0,15.301536437576345,12.925421295297392,231.6675833091886,221.34162703942766,0.0
