timestamp,iq,id,iq_ref,id_ref,vq,vd,omega,omega_ref,r
0.0,0.0,0.0,0.0,0.0,0.0,0.0,0.0,383.1840105410761,0.0
0.001,0.0,0.0,10.0,0.0,0.0,1.0999999999999999,6.115472199294103,383.1840105410761,0.0
0.002,0.5307369851907212,-0.2913212625381807,10.0,0.0,0.14204533887919985,1.9316189316290207,13.317801563642547,383.1840105410761,0.0
0.003,1.0842913387634832,-0.6024330830807904,10.0,0.0,0.384357124667687,2.6386968949419622,20.697939467553027,383.1840105410761,0.0
0.004,1.5590443546685477,-0.8700465084428163,10.0,0.0,0.6994718867930164,3.2526109522886295,28.232747544420146,383.1840105410761,0.0
0.005,1.9399447555359186,-1.0838738622210777,10.0,0.0,1.065311453102468,3.7994935661768023,35.92944872443006,383.1840105410761,0.0
0.006,2.239750732602683,-1.2510087368845633,10.0,0.0,1.4655018868449925,4.299102221838433,43.75633668444442,383.1840105410761,0.0
0.007,2.4770151619816017,-1.382020589851471,10.0,0.0,1.8883740978591532,4.765668027847139,51.58766747378032,383.1840105410761,0.0
0.008,2.6680767290418097,-1.4872241871505252,10.0,0.0,2.325877945545995,5.209220346273558,59.45942083902103,383.1840105410761,0.0
0.009000000000000001,2.8266491704841292,-1.5730794701170803,10.0,0.0,2.772378685460125,5.636635464737965,67.35059094018146,383.1840105410761,0.0
0.01,2.962077666392183,-1.645500646948331,10.0,0.0,3.224078639851053,6.052647735211881,75.20908322432116,383.1840105410761,0.0
0.011,3.0811061533574158,-1.7084279320504514,10.0,0.0,3.678407615443203,6.460489925470405,83.0265951655913,383.1840105410761,0.0
0.012,3.188848746459569,-1.7638278597420747,10.0,0.0,4.133552631697047,6.862319393890706,90.74118064793086,383.1840105410761,0.0
0.013000000000000001,3.288205119878689,-1.8140726097274587,10.0,0.0,4.588339016389012,7.259628641949282,98.35820682563939,383.1840105410761,0.0
0.014,3.3820602099432007,-1.8592355758795645,10.0,0.0,5.041843166194517,7.653355107498287,105.90865295623543,383.1840105410761,0.0
0.015,3.4721069852858886,-1.899829032412081,10.0,0.0,5.493383198131427,8.044092747085895,113.37727610343421,383.1840105410761,0.0
0.016,3.5596145800153947,-1.9360338400176071,10.0,0.0,5.94241958510469,8.43218525824161,120.68508583176356,383.1840105410761,0.0
0.017,3.645144415105338,-1.9685384477868613,10.0,0.0,6.388575043274759,8.817838951066484,127.83962377537456,383.1840105410761,0.0
0.018000000000000002,3.730251927866576,-1.9959253041084188,10.0,0.0,6.83136783302799,9.201036292373047,134.85405702603322,383.1840105410761,0.0
0.019,3.81544967906247,-2.018253592643655,10.0,0.0,7.270383321112213,9.581672501020332,141.68976328564074,383.1840105410761,0.0
0.02,3.9014648862453374,-2.0350875541282063,10.0,0.0,7.705189334130692,9.959536942333155,148.3432823300447,383.1840105410761,0.0
0.021,3.9891051824829464,-2.0457889559126508,10.0,0.0,8.135310004560049,10.334315260302239,154.92060212100432,383.1840105410761,0.0
0.022,4.079618141396171,-2.0489696811670974,10.0,0.0,8.560139305503519,10.705547790999272,161.01925282597162,383.1840105410761,0.0
0.023,4.171109372430197,-2.048468292080302,10.0,0.0,8.979521969370257,11.072981092896333,166.534238406907,383.1840105410761,0.0
0.024,4.266936196769627,-2.039517194249811,10.0,0.0,9.392730090169543,11.435983292623375,171.8647834235234,383.1840105410761,0.0
0.025,4.367255527950721,-2.0225841458509217,10.0,0.0,9.79914449451603,11.793929226271104,177.02637022703064,383.1840105410761,0.0
0.026000000000000002,4.4734353073349595,-1.9962166741499119,10.0,0.0,10.197980960389518,12.146045424568259,181.63161391243256,383.1840105410761,0.0
0.027,4.582366840795821,-1.966358349113627,10.0,0.0,10.589124658468391,12.491912978736195,185.74793639675826,383.1840105410761,0.0
0.028,4.700058850757774,-1.9240450691803936,10.0,0.0,10.971384864613876,12.830451341534015,189.43662766964098,383.1840105410761,0.0
0.029,4.820934284790598,-1.879137197786803,10.0,0.0,11.344756153370636,13.161242511022618,192.73598774770625,383.1840105410761,0.0
0.03,4.952016225740939,-1.821000614527957,10.0,0.0,11.707923484756042,13.483081433273819,195.59831968863915,383.1840105410761,0.0
0.031,5.086039273572549,-1.7621311371320891,10.0,0.0,12.061063698547066,13.79562148058647,197.80891551030922,383.1840105410761,0.0
0.032,5.230431844273564,-1.6911110488141978,10.0,0.0,12.40292038074925,14.097678592248165,200.4421589734679,383.1840105410761,0.0
0.033,5.380124186618445,-1.6166151787533525,10.0,0.0,12.733312761073865,14.38869342901298,201.91742172589852,383.1840105410761,0.0
0.034,5.537594793894332,-1.535029134414507,10.0,0.0,13.051537880865839,14.667821176756876,203.18880493813168,383.1840105410761,0.0
0.035,5.698947813469154,-1.4530296333491768,10.0,0.0,13.357649178779205,14.934684535625108,203.60405746232266,383.1840105410761,0.0
0.036000000000000004,5.870474243492053,-1.3603000477825025,10.0,0.0,13.65045542338638,15.188218311291084,204.28541056101804,383.1840105410761,0.0
0.037,6.041188711220851,-1.275010780747051,10.0,0.0,13.930879897581198,15.42861600670124,205.2233356988433,383.1840105410761,0.0
0.038,6.228175208801664,-1.168399557236846,10.0,0.0,14.196427351981786,15.654155009933262,200.35169734043586,383.1840105410761,0.0
0.039,6.404895489618571,-1.0845312562500289,10.0,0.0,14.449814560392067,15.86612549236809,209.64773540576442,383.1840105410761,0.0
0.04,6.534612624563911,-1.0851225869390002,10.0,0.0,14.699963825590459,16.069735965364643,218.170241886545,383.1840105410761,0.0
0.041,6.621487035821765,-1.1484636683301073,10.0,0.0,14.952420817214799,16.26974130369247,220.68166573712315,383.1840105410761,0.0
0.042,6.6704785161669795,-1.2647840534085386,10.0,0.0,15.211794475054209,16.47047148862455,233.10654395573727,383.1840105410761,0.0
0.043000000000000003,6.709376245503157,-1.3867642159960276,10.0,0.0,15.477558399636717,16.673277185423842,235.10815372853793,383.1840105410761,0.0
0.044,6.744196093263161,-1.5028656568708394,10.0,0.0,15.74857785831126,16.87893749904121,248.8181267625822,383.1840105410761,0.0
0.045,6.750563942850831,-1.6564343609015326,10.0,0.0,16.02879294551472,17.090781462187255,251.61117095327992,383.1840105410761,0.0
0.046,6.764566527560506,-1.7840489455190416,10.0,0.0,16.314672837580048,17.307985931916857,266.60539535969383,383.1840105410761,0.0
0.047,6.752169677737121,-1.9446655565152717,10.0,0.0,16.610076868775216,17.533561623207692,270.0627790167984,383.1840105410761,0.0
0.048,6.7291903821171735,-2.110358990489937,10.0,0.0,16.91511817760721,17.768523902508925,283.13731951482634,383.1840105410761,0.0
0.049,6.714097190323873,-2.246352557911731,10.0,0.0,17.22645394156277,18.011924542904307,294.70561782835244,383.1840105410761,0.0
0.05,6.666841209228205,-2.4219663531358275,10.0,0.0,17.548953774962747,18.267165921658286,300.1294548425776,383.1840105410761,0.0
0.051000000000000004,6.612335516543512,-2.59336894353628,10.0,0.0,17.88182590988993,18.53465621226123,310.75154600411304,383.1840105410761,0.0
0.052000000000000005,6.568447424188529,-2.726701034625408,10.0,0.0,18.22111236450049,18.81296732052879,322.35703405819294,383.1840105410761,0.0
0.053,6.5036136539679195,-2.8764091099274185,10.0,0.0,18.569435851849082,19.104068797231378,330.9557012510771,383.1840105410761,0.0
0.054,6.434362099984388,-3.0149932598739144,10.0,0.0,18.925784313874168,19.407861808234543,339.4707232587175,383.1840105410761,0.0
0.055,6.370891759459199,-3.1253006473392393,10.0,0.0,19.28762520191878,19.723199586257838,348.00092263299223,383.1840105410761,0.0
0.056,6.314459991163816,-3.2071523724558277,10.0,0.0,19.65271639484943,20.048760466390505,356.29964302226927,383.1840105410761,0.0
0.057,6.266092078485367,-3.262894600420583,10.0,0.0,20.01916768432525,20.383030530514645,362.98468703488817,383.1840105410761,0.0
0.058,6.234656406121481,-3.2830044001420036,10.0,0.0,20.38405550695561,20.723492962007192,368.0316803659419,383.1840105410761,0.0
0.059000000000000004,6.228510489334133,-3.2600491726267444,10.0,0.0,20.743774617448285,21.0667596267365,372.35801287012686,383.1840105410761,0.0
0.06,6.247959954981508,-3.201438289803519,10.0,0.0,21.095630838529225,21.40947063565305,373.88739853789605,383.1840105410761,0.0
0.061,6.298571070969623,-3.1064761741463998,10.0,0.0,21.436712814499675,21.747723437683817,371.47602194372377,383.1840105410761,0.0
0.062,6.38094735961424,-2.982369480030801,10.0,0.0,21.76480975788002,22.077703876517536,366.2922057853833,383.1840105410761,0.0
0.063,6.53566146196873,-2.7695519558602215,10.0,0.0,22.070926190088084,22.39130117743337,372.07145994459506,383.1840105410761,0.0
0.064,6.708566607552835,-2.560747003310555,10.0,0.0,22.35695033962817,22.686677966487718,365.1882535794375,383.1840105410761,0.0
0.065,6.897199383751794,-2.3667028673086685,10.0,0.0,22.62465294768497,22.962098937664592,356.7297130485294,383.1840105410761,0.0
0.066,7.167218997264825,-2.0824440278168583,10.0,0.0,22.863799361069702,23.20893224280502,357.7888817172531,383.1840105410761,0.0
0.067,7.423387055578651,-1.859201647307153,10.0,0.0,23.082000390168847,23.42951856849048,345.1266644280509,383.1840105410761,0.0
0.068,7.736929428236853,-1.5824320316278497,10.0,0.0,23.27222771500701,23.617938384108047,342.9584987314189,383.1840105410761,0.0
0.069,8.04132723792414,-1.3546495884062866,10.0,0.0,23.43998591632552,23.77619061530866,334.2677598047511,383.1840105410761,0.0
0.07,8.395997401416553,-1.0747195592463576,10.0,0.0,23.578279041856877,23.89942370363377,322.7417355360636,383.1840105410761,0.0
0.07100000000000001,8.726669482066718,-0.8579631993863083,10.0,0.0,23.694022264374595,23.99133556844291,337.9106389559309,383.1840105410761,0.0
0.07200000000000001,8.91385728821635,-0.8925675486457335,10.0,0.0,23.81335639313859,24.06834663115294,344.8606079910171,383.1840105410761,0.0
0.073,8.941721008651788,-1.1508071676799903,10.0,0.0,23.95651852989837,24.148396869281978,362.43451347602996,383.1840105410761,0.0
0.074,8.927907180207171,-1.4305443375681337,10.0,0.0,24.121558169292424,24.236556455607346,368.59250641149885,383.1840105410761,0.0
0.075,8.859340450140312,-1.7499202918046703,10.0,0.0,24.31124378664675,24.33980824926249,387.10067316750514,383.1840105410761,0.0
0.076,8.767176841935807,-2.0562826706616475,4.8774190887547455,0.0,24.52279212376306,23.89767185465241,391.7996105425312,383.1840105410761,0.0
0.077,8.349165633571596,-2.2652963298142317,2.4417944012271704,0.0,24.688899866424947,23.349270623537397,399.16741525934424,383.1840105410761,0.0
0.078,7.787717565940864,-2.3546520870667775,-1.4019420043620388,0.0,24.791295708415383,22.531444707416266,405.36121458661813,383.1840105410761,0.0
0.079,7.029962824936977,-2.3580081178566155,-4.720613708454406,0.0,24.801144980409035,21.556762984546157,406.0776355871415,383.1840105410761,0.0
0.08,6.158366938122958,-2.2574830770635534,-5.307760459176752,0.0,24.701449838121178,20.73743293576339,405.77368210866155,383.1840105410761,0.0
0.081,5.354477558310063,-2.1377302281201387,-5.381680435612623,0.0,24.517623642207973,20.067518520640675,403.87256681026486,383.1840105410761,0.0
0.082,4.679446367247986,-2.0237515470942053,-4.638008349106165,0.0,24.273848497950404,19.594970593937674,400.97985985907417,383.1840105410761,0.0
0.083,4.178946984335802,-1.928208987076109,-3.3696133666908006,0.0,23.997826180656567,19.325691292889566,396.9432872408308,383.1840105410761,0.0
0.084,3.8614568129317277,-1.8656111065150667,-1.4889198245666568,0.0,23.716547823725755,19.2798489550517,392.3126549235451,383.1840105410761,0.0
0.085,3.7376018014369095,-1.8391585588039505,0.735109890251497,0.0,23.456529267261633,19.446748498063695,387.73328254360354,383.1840105410761,0.0
0.08600000000000001,3.799254922328037,-1.8472648936688687,2.9793033601970027,0.0,23.24035874305738,19.787556822260935,382.5758354848095,383.1840105410761,0.0
0.08700000000000001,4.021148925569924,-1.876381155684563,5.564108640156692,0.0,23.08300782916635,20.310762098566435,380.1774126816844,383.1840105410761,0.0
0.088,4.402422472071117,-1.910686090978028,6.793386020313144,0.0,22.99719491455709,20.835563064787188,383.10029289987466,383.1840105410761,0.0
0.089,4.83119773976566,-1.9393176339505775,5.332783087630037,0.0,22.975249808404886,21.082991002546834,374.39537868669373,383.1840105410761,0.0
0.09,5.138826283658693,-1.8959340235966031,9.773126512764325,0.0,22.975183494075207,21.776974054855614,366.79097934644034,383.1840105410761,0.0
0.091,5.6760860703193625,-1.8469571712161497,10.0,0.0,23.039568498751052,22.32608252875139,369.7539348489726,383.1840105410761,0.0
0.092,6.194158381301531,-1.804953442883658,10.0,0.0,23.148295208756124,22.772834564511374,358.5580084303663,383.1840105410761,0.0
0.093,6.678350307243859,-1.7133946207199497,10.0,0.0,23.281173018182013,23.13770367895205,357.18362615896035,383.1840105410761,0.0
0.094,7.152048840108951,-1.5375706132311615,10.0,0.0,23.418824905507243,23.432108743535494,346.08942099718485,383.1840105410761,0.0
0.095,7.56635157567713,-1.3815410237679902,10.0,0.0,23.556747095792236,23.670002174809273,344.70909232434894,383.1840105410761,0.0
0.096,7.99381845672184,-1.1546118372829373,10.0,0.0,23.681264495557386,23.855020152424938,330.15026363005194,383.1840105410761,0.0
0.097,8.389187007364097,-0.9473687531971042,10.0,0.0,23.79130450572299,23.99477220049535,331.7781492513189,383.1840105410761,0.0
0.098,8.75852745957208,-0.7664367922343915,10.0,0.0,23.886485634814036,24.094879280538823,340.7569394241695,383.1840105410761,0.0
0.099,8.907177478172063,-0.9188114922480115,10.0,0.0,24.00072989561145,24.181835667963135,351.33619956796736,383.1840105410761,0.0
0.1,8.932110141869193,-1.2135566203381583,10.0,0.0,24.143143586161337,24.27026474990408,366.0464292741062,383.1840105410761,0.0
0.101,8.925580432342628,-1.4951126173012241,10.0,0.0,24.30818252423536,24.365059887390807,375.70428404866374,383.1840105410761,0.0
0.10200000000000001,8.841589159655928,-1.8451603446796339,10.0,0.0,24.501886772292654,24.476053147836538,389.5652181898154,383.1840105410761,0.0
0.10300000000000001,8.751952604323204,-2.144336602869264,3.0546226966836576,0.0,24.71672883271587,23.840346112038365,398.1420879250235,383.1840105410761,0.0
0.10400000000000001,8.227496175749529,-2.313157818611852,-1.3833929447598408,0.0,24.86209455466673,22.927759879926477,400.8269144426185,383.1840105410761,0.0
0.105,7.450662136076148,-2.3014407856941888,-2.9022352425727718,0.0,24.898687995432947,22.078483526954212,405.4003326281,383.1840105410761,0.0
0.106,6.622590655183399,-2.2505801801389858,-5.411107556183762,0.0,24.841216960543417,21.14032614433819,405.9604093128645,383.1840105410761,0.0
0.107,5.760274222330466,-2.1431620372653075,-5.918909886283901,0.0,24.68436990122069,20.346041956124797,404.5500117872614,383.1840105410761,0.0
0.108,4.990989415868222,-2.024401171870945,-5.427371135944195,0.0,24.451789615244245,19.75064693102117,401.9871760659454,383.1840105410761,0.0
0.109,4.384037905088644,-1.9228727720429624,-4.333984930534892,0.0,24.17294734002796,19.365962293043,398.768905068859,383.1840105410761,0.0
0.11,3.965021988360538,-1.8497753261605177,-2.8806983772695256,0.0,23.8764953934867,19.180811785878426,394.50116531140384,383.1840105410761,0.0
0.111,3.728408436731634,-1.8114220104204748,-0.8600000462452222,0.0,23.58768570061051,19.214112417168103,389.80587729488565,383.1840105410761,0.0
0.112,3.6807302931721533,-1.8055301924975684,1.4214252944757773,0.0,23.3308224733368,19.448830280485517,385.1598650700548,383.1840105410761,0.0
0.113,3.807264392739839,-1.8314657955371534,3.7246728616014035,0.0,23.126029189635783,19.850537481332385,380.1987666593458,383.1840105410761,0.0
0.114,4.086685149603633,-1.8713319825688948,6.235074505773228,0.0,22.986011878932647,20.415235396652754,379.4260358135402,383.1840105410761,0.0
0.115,4.508974542376732,-1.9138306643261394,6.659019675951385,0.0,22.920742283954844,20.887334116012262,381.7256822464962,383.1840105410761,0.0
0.116,4.921262350900037,-1.9374360235830346,5.523779742419172,0.0,22.91138112311146,21.13545139453788,370.1842348050154,383.1840105410761,0.0
0.117,5.237955585076818,-1.8688196050731163,10.0,0.0,22.919983946576316,21.830844079121597,366.5046571464377,383.1840105410761,0.0
0.11800000000000001,5.781106249324258,-1.8104909242467515,10.0,0.0,22.99153576544725,22.35621593429217,367.90907515894673,383.1840105410761,0.0
0.11900000000000001,6.284886373545669,-1.7726086101579808,10.0,0.0,23.104885820206647,22.78622147881089,355.08716718637174,383.1840105410761,0.0
0.12,6.775475527922262,-1.6536561099970961,10.0,0.0,23.23719547206518,23.135634468614477,355.0869805617043,383.1840105410761,0.0
0.121,7.2307184311632415,-1.4950111884733177,10.0,0.0,23.374954041352197,23.41816629681081,342.4696054370651,383.1840105410761,0.0
0.122,7.657815108387338,-1.3104601139027294,10.0,0.0,23.50847576754263,23.643792593653977,341.57021290903276,383.1840105410761,0.0
0.123,8.062651421830786,-1.1153608195218547,10.0,0.0,23.631592539162146,23.81994740572533,329.88389203708863,383.1840105410761,0.0
0.124,8.471717511054251,-0.8830308445671613,10.0,0.0,23.736407810525627,23.94984950707135,328.54366277000764,383.1840105410761,0.0
0.125,8.78166622031711,-0.7988568634394251,10.0,0.0,23.836795926712863,24.047239228292426,347.0281784042403,383.1840105410761,0.0
0.126,8.893506552495543,-0.9973726018191176,10.0,0.0,23.959562674436526,24.13572583956314,352.67102855518056,383.1840105410761,0.0
0.127,8.92508382392278,-1.263444195677073,10.0,0.0,24.106184126455478,24.225285367943926,367.71584732088314,383.1840105410761,0.0
0.128,8.87635111253207,-1.601448528222873,10.0,0.0,24.281619146752064,24.32622745965578,377.37142813786716,383.1840105410761,0.0
0.129,8.815152573273899,-1.8980052731062833,8.811777833339992,0.0,24.478846072801893,24.310158918098004,393.7767306849729,383.1840105410761,0.0
0.13,8.625063649516688,-2.216093441336508,0.5031993583481498,0.0,24.68676758314746,23.43365630893919,394.7706072131756,383.1840105410761,0.0
0.131,7.978223444752929,-2.275731613874444,-0.10960487247418982,0.0,24.78962599883945,22.75052496437672,401.6012610504674,383.1840105410761,0.0
0.132,7.266562404682468,-2.2985205006468816,-3.709104296213991,0.0,24.815795834325588,21.827990013896652,404.6152644489751,383.1840105410761,0.0
0.133,6.429645530532067,-2.2366945584797557,-5.430418534546844,0.0,24.740066448708998,20.93192021578983,404.7904702083294,383.1840105410761,0.0
0.134,5.592595822293074,-2.1266480036715976,-5.734086010896526,0.0,24.57081616023617,20.185400478081682,403.24806584503,383.1840105410761,0.0
0.135,4.860947488985024,-2.012410588599262,-5.163524382286367,0.0,24.332373276729925,19.634516958789174,400.5771894566446,383.1840105410761,0.0
0.136,4.294423889102299,-1.9151066207231593,-4.002017977249348,0.0,24.0531252673294,19.291938703997285,397.14995990821575,383.1840105410761,0.0
0.137,3.9131857356237214,-1.8479722063983077,-2.4280626967063244,0.0,23.76113248749277,19.153484451437702,392.74195542761123,383.1840105410761,0.0
0.138,3.714925486811229,-1.8168094467581533,-0.3196399052694163,0.0,23.481737000966678,19.233859546237642,388.119651916208,383.1840105410761,0.0
0.139,3.7060767205786096,-1.816407432992399,1.9421554366808795,0.0,23.238585978655365,19.504961604402606,383.42672382748214,383.1840105410761,0.0
0.14,3.8645047511015433,-1.846084401966794,4.2861923481797515,0.0,23.050128751116503,19.94234889034546,379.0563251433313,383.1840105410761,0.0
0.14100000000000001,4.175412853061903,-1.8838783152268899,6.512668544232606,0.0,22.928116535694684,20.506008126480552,379.7434334666708,383.1840105410761,0.0
0.14200000000000002,4.604481918063206,-1.924778464759528,6.203520153306915,0.0,22.87879254274456,20.900740616367074,379.7854460880784,383.1840105410761,0.0
0.14300000000000002,4.976455348131966,-1.934608872716832,6.216499487133095,0.0,22.874546541458063,21.218960281942508,367.45616637975655,383.1840105410761,0.0
0.14400000000000002,5.328692177479594,-1.8530810668164288,10.0,0.0,22.893480744129143,21.885962326981293,366.96392059903025,383.1840105410761,0.0
0.145,5.864552413353231,-1.793466122299165,10.0,0.0,22.971479365199095,22.394900325002013,365.7366331698247,383.1840105410761,0.0
