timestamp,iq,id,iq_ref,id_ref,vq,vd,omega,omega_ref,r
0.0,0.0,0.0,0.0,0.0,0.0,0.0,0.0,152.45533491606332,0.0
0.001,0.0,0.0,10.0,0.0,0.0,1.0999999999999999,6.115472199294103,152.45533491606332,0.0
0.002,0.5307369851907212,-0.2913212625381807,10.0,0.0,0.14204533887919985,1.9316189316290207,13.317801563642547,152.45533491606332,0.0
0.003,1.0842913387634832,-0.6024330830807904,10.0,0.0,0.384357124667687,2.6386968949419622,20.697939467553027,152.45533491606332,0.0
0.004,1.5590443546685477,-0.8700465084428163,10.0,0.0,0.6994718867930164,3.2526109522886295,28.232747544420146,152.45533491606332,0.0
0.005,1.9399447555359186,-1.0838738622210777,10.0,0.0,1.065311453102468,3.7994935661768023,35.92944872443006,152.45533491606332,0.0
0.006,2.239750732602683,-1.2510087368845633,10.0,0.0,1.4655018868449925,4.299102221838433,43.75633668444442,152.45533491606332,0.0
0.007,2.4770151619816017,-1.382020589851471,10.0,0.0,1.8883740978591532,4.765668027847139,51.58766747378032,152.45533491606332,0.0
0.008,2.6680767290418097,-1.4872241871505252,10.0,0.0,2.325877945545995,5.209220346273558,59.45942083902103,152.45533491606332,0.0
0.009000000000000001,2.8266491704841292,-1.5730794701170803,10.0,0.0,2.772378685460125,5.636635464737965,67.35059094018146,152.45533491606332,0.0
0.01,2.962077666392183,-1.645500646948331,10.0,0.0,3.224078639851053,6.052647735211881,75.20908322432116,152.45533491606332,0.0
0.011,3.0811061533574158,-1.7084279320504514,10.0,0.0,3.678407615443203,6.460489925470405,83.0265951655913,152.45533491606332,0.0
0.012,3.188848746459569,-1.7638278597420747,10.0,0.0,4.133552631697047,6.862319393890706,90.74118064793086,152.45533491606332,0.0
0.013000000000000001,3.288205119878689,-1.8140726097274587,10.0,0.0,4.588339016389012,7.259628641949282,98.35820682563939,152.45533491606332,0.0
0.014,3.3820602099432007,-1.8592355758795645,10.0,0.0,5.041843166194517,7.653355107498287,105.90865295623543,152.45533491606332,0.0
0.015,3.4721069852858886,-1.899829032412081,10.0,0.0,5.493383198131427,8.044092747085895,113.37727610343421,152.45533491606332,0.0
0.016,3.5596145800153947,-1.9360338400176071,10.0,0.0,5.94241958510469,8.43218525824161,120.68508583176356,152.45533491606332,0.0
0.017,3.645144415105338,-1.9685384477868613,10.0,0.0,6.388575043274759,8.817838951066484,127.83962377537456,152.45533491606332,0.0
0.018000000000000002,3.730251927866576,-1.9959253041084188,10.0,0.0,6.83136783302799,9.201036292373047,134.85405702603322,152.45533491606332,0.0
0.019,3.81544967906247,-2.018253592643655,10.0,0.0,7.270383321112213,9.581672501020332,141.68976328564074,152.45533491606332,0.0
0.02,3.9014648862453374,-2.0350875541282063,8.421006363122244,0.0,7.70518933413069,9.785847642276604,147.4198863812992,152.45533491606332,0.0
0.021,3.9072435201824582,-2.0000992917440032,5.606299300640656,0.0,8.112915211495842,9.719482532543646,150.88454705024066,152.45533491606332,0.0
0.022,3.765293829615077,-1.8765615677578578,3.8896768448281516,0.0,8.459992723136546,9.555517374307723,153.05845607796317,152.45533491606332,0.0
0.023,3.5430942208106786,-1.701616796014053,2.796691119347895,0.0,8.73795742013763,9.362616737877568,151.977406663104,152.45533491606332,0.0
0.024,3.294670416691118,-1.5185291230575988,3.341995109307071,0.0,8.950445387487822,9.312820553305956,150.3188683341099,152.45533491606332,0.0
0.025,3.140213777734723,-1.3544121332959476,4.1926289396236545,0.0,9.12048294750161,9.391875457605765,154.7894394438686,152.45533491606332,0.0
0.026000000000000002,3.0792757477672708,-1.2628903265457025,1.9340023394662622,0.0,9.272996013099096,9.228231980063347,152.54208581350204,152.45533491606332,0.0
0.027,2.94293880027467,-1.1412322705468285,3.0568116456751486,0.0,9.381426256290215,9.256687130443986,150.76890576561863,152.45533491606332,0.0
0.028,2.9035546842051745,-1.0333429239288758,3.9602659611213027,0.0,9.4712077426323,9.384260555035377,154.23453897712287,152.45533491606332,0.0
0.029,2.9330911984829386,-0.9924122659783899,2.209657314758587,0.0,9.561344943890942,9.302810433816234,150.56969194909414,152.45533491606332,0.0
0.03,2.896808656415073,-0.9124854716011159,4.060937258442645,0.0,9.625940772099808,9.463952369883977,152.3521527245783,152.45533491606332,0.0
0.031,2.9703063594712082,-0.867988484201673,3.1707386926154113,0.0,9.6960958104244,9.490557480731152,151.46759409956712,152.45533491606332,0.0
0.032,2.999750749267789,-0.8349443336953856,3.622895413285964,0.0,9.75870596931955,9.577652903411028,149.6686280077075,152.45533491606332,0.0
0.033,3.0722515989300216,-0.7792516110155973,4.550245528299335,0.0,9.81796889660346,9.752106095592323,151.69386822542782,152.45533491606332,0.0
0.034,3.179659648122792,-0.7787761636576155,3.545240086345528,0.0,9.889255478394528,9.784126284604245,148.00061345332242,152.45533491606332,0.0
0.035,3.249801943535668,-0.7289096993212414,5.436414687025639,0.0,9.951134864304262,10.031510801384945,151.6020117611227,152.45533491606332,0.0
0.036000000000000004,3.3994871031755225,-0.7394767627225969,3.644248764674905,0.0,10.0332258049186,10.028530863006907,147.56420592347501,152.45533491606332,0.0
0.037,3.4671466570935583,-0.685660393098936,5.712062973424629,0.0,10.100784186341087,10.2734935353795,150.49519727515775,152.45533491606332,0.0
0.038,3.6167505671260267,-0.6934503555567653,4.2661686739923175,0.0,10.187478056425189,10.305209429067641,147.61800017166556,152.45533491606332,0.0
0.039,3.7071848840935475,-0.6399278932372452,5.753140573182392,0.0,10.262708758389959,10.511997236534505,148.46819299520976,152.45533491606332,0.0
0.04,3.8442911012720193,-0.6439950290388423,5.367915580618824,0.0,10.352077780466315,10.634207524557308,149.59221074431872,152.45533491606332,0.0
0.041,3.978283309481622,-0.6084641954184844,4.834537947781792,0.0,10.44078186608106,10.68494631556776,144.8863136596097,152.45533491606332,0.0
0.042,4.062377092769121,-0.5677070185732549,7.263176702700839,0.0,10.521561441118601,11.004055281328577,148.28616611850615,152.45533491606332,0.0
0.043000000000000003,4.2636880291464285,-0.5907358712335837,5.604942161228188,0.0,10.629114700789561,11.071335855737255,150.59105204692978,152.45533491606332,0.0
0.044,4.389287633441845,-0.5557515394315209,4.471142025707708,0.0,10.728562126909463,11.022705182070913,149.24382488169044,152.45533491606332,0.0
0.045,4.380825755514598,-0.5611026137021062,5.176870708671102,0.0,10.814140204538525,11.080037277479324,153.41897604702783,152.45533491606332,0.0
0.046,4.375842162162199,-0.6131759160355086,3.0796587146927665,0.0,10.902568236459489,10.902906941432041,155.77703511180408,152.45533491606332,0.0
0.047,4.2739332545103945,-0.5931926803061713,1.8674121803472308,0.0,10.961721542630066,10.651117587251532,154.6112428815277,152.45533491606332,0.0
0.048,4.083967110062978,-0.5719219119164367,2.428749215830784,0.0,10.987640630599959,10.524169225165476,159.05479002660925,152.45533491606332,0.0
0.049,3.9429905770064537,-0.5645470685763572,0.1409810921845418,0.0,10.997674448480746,10.168847501320833,156.06162228890403,152.45533491606332,0.0
0.05,3.7058047375951517,-0.5169683466553945,1.601502087308745,0.0,10.966012801211084,10.058276999353543,159.062293268254,152.45533491606332,0.0
0.051000000000000004,3.5592720628357997,-0.5279332458461465,0.035097014111857394,0.0,10.928142194601858,9.782434350682527,157.28147748001933,152.45533491606332,0.0
0.052000000000000005,3.3751052709029743,-0.5023767165169737,0.8772434825896283,0.0,10.863553516568325,9.65748208884723,158.3898811216874,152.45533491606332,0.0
0.053,3.245591250415348,-0.5240914005164967,0.263696199699349,0.0,10.79557266068786,9.475059393923711,157.91360596736388,152.45533491606332,0.0
0.054,3.117357141455534,-0.531212686329233,0.4472510663481093,0.0,10.716713815502496,9.343218002845472,158.5175801027207,152.45533491606332,0.0
0.055,3.007864117925786,-0.5606712284265101,0.08464154680312452,0.0,10.63572594250042,9.185714162038757,158.14762037609276,152.45533491606332,0.0
0.056,2.899581354809956,-0.5777976181428337,0.21269855551680017,0.0,10.548675790165701,9.064390457873905,158.5178662821168,152.45533491606332,0.0
0.057,2.804204886992143,-0.6094389145857451,-0.03304971115576105,0.0,10.461507561359523,8.927589813299742,158.25310776513868,152.45533491606332,0.0
0.058,2.7102753857677726,-0.6319315026730052,0.041351818842552124,0.0,10.37153386270172,8.815772541725424,158.37882660041672,152.45533491606332,0.0
0.059000000000000004,2.625561838818169,-0.6624581430775263,-0.0807425156399999,0.0,10.282508811315887,8.700344430501907,158.17149862523047,152.45533491606332,0.0
0.06,2.544406330264108,-0.6881827182219289,-0.03424016513854866,0.0,10.193367890808126,8.601972797633595,158.1323715077399,152.45533491606332,0.0
0.061,2.4708930776478875,-0.7174068520002729,-0.07144697231002439,0.0,10.10626130802848,8.507241366409701,157.94544361902211,152.45533491606332,0.0
0.062,2.4022990088344884,-0.7444507974204476,-0.03288411498072463,0.0,10.021074833062851,8.424696617451488,157.81672738415287,152.45533491606332,0.0
0.063,2.340218242052288,-0.7724086539148242,-0.022139922226997566,0.0,9.93895745545814,8.348826872180055,157.62814308858552,152.45533491606332,0.0
0.064,2.2833623480517997,-0.7990074902645595,0.020424143831456743,0.0,9.860111134520283,8.28254030968642,157.45983792032757,152.45533491606332,0.0
0.065,2.2321390655915847,-0.8251257962750295,0.05453169791778656,0.0,9.785127814724506,8.22338996376789,157.27721425532332,152.45533491606332,0.0
0.066,2.1857850259173413,-0.8497555854447598,0.09762473702731533,0.0,9.714175886065016,8.171642190762386,157.1159850627255,152.45533491606332,0.0
0.067,2.1440160344601864,-0.8728817594286093,0.13163283185959385,0.0,9.64744195421745,8.125415010895484,156.9856200409091,152.45533491606332,0.0
0.068,2.1060378830401802,-0.8936682338188742,0.1515124915193371,0.0,9.584813948011044,8.082743744186395,157.01273628853008,152.45533491606332,0.0
0.069,2.0713864982867394,-0.9101639987123328,0.09238035398418631,0.0,9.525788285148751,8.034805342610788,156.9373491590716,152.45533491606332,0.0
0.07,2.033962805747846,-0.9228243035669444,0.08525377628334185,0.0,9.469099024300192,7.989335705066513,156.619615276413,152.45533491606332,0.0
0.07100000000000001,1.9969525337140253,-0.9319149795737077,0.20247791400915283,0.0,9.414405097094264,7.959406919116991,156.1644318740658,152.45533491606332,0.0
0.07200000000000001,1.96753044077334,-0.9418238403760621,0.3929786456027222,0.0,9.363186751942166,7.949650785642999,155.7450597654004,152.45533491606332,0.0
0.073,1.9503533798374537,-0.9549088886773127,0.5697674514420439,0.0,9.317454894662992,7.954885448101126,155.14541158287247,152.45533491606332,0.0
0.074,1.9450408765458769,-0.9688002332631935,0.8426907760379239,0.0,9.278216886778983,7.98368974098539,154.75305033744328,152.45533491606332,0.0
0.075,1.955949852247636,-0.9836052780172813,1.0158942445387171,0.0,9.247272750448897,8.02075983972185,154.5607629064561,152.45533491606332,0.0
0.076,1.9744648352219862,-0.9992881727397904,1.090983680128386,0.0,9.22470710559739,8.055628759811349,155.25193614446295,152.45533491606332,0.0
0.077,1.9953474026743099,-1.0081730399177917,0.7174310488409628,0.0,9.208705423682348,8.040800607019218,156.3199693206955,152.45533491606332,0.0
0.078,1.9856003379748486,-1.010841931670276,0.14476811667836742,0.0,9.19302582410059,7.967878707881252,154.1520265491888,152.45533491606332,0.0
0.079,1.9425736339073632,-0.9868994972991199,1.211772586100457,0.0,9.168961637864854,8.02841362645739,152.6208803165148,152.45533491606332,0.0
0.08,1.9580396187357687,-0.9818336090727551,1.975690248432937,0.0,9.15303953874912,8.151718007342895,153.66025010632475,152.45533491606332,0.0
0.081,2.0249922783469407,-0.9950274624713724,1.4439562016253533,0.0,9.152542070389623,8.18775968574717,155.34096209652347,152.45533491606332,0.0
0.082,2.058612369710743,-1.001060415808491,0.5747439347213934,0.0,9.156230203039597,8.126822757129803,153.19881138965115,152.45533491606332,0.0
0.083,2.034214632449852,-0.9773294959584375,1.6383845234216725,0.0,9.150785098845962,8.201060874077577,150.86012040538358,152.45533491606332,0.0
0.084,2.065523030159415,-0.9633675714187193,2.8236821606622557,0.0,9.152009814265599,8.38338910200001,152.98865643493218,152.45533491606332,0.0
0.085,2.167257960153168,-0.9798030334730352,1.754080930699268,0.0,9.173292401006885,8.407220108681612,154.63704438554896,152.45533491606332,0.0
0.08600000000000001,2.2058998544619306,-0.9776317573680816,0.9080698606960216,0.0,9.194426634750117,8.345197808894426,151.1646922144598,152.45533491606332,0.0
0.08700000000000001,2.186953941797122,-0.9379449692173427,2.657152373256642,0.0,9.202901381204773,8.494820818878203,150.01779549246703,152.45533491606332,0.0
0.088,2.2625648825460187,-0.9232901808333056,3.2549761284889853,0.0,9.224275795171605,8.670092127849989,152.94820187241552,152.45533491606332,0.0
0.089,2.370114017232157,-0.9421912058575743,1.7848442689512165,0.0,9.263265559275442,8.651206709811818,151.33207592469827,152.45533491606332,0.0
0.09,2.3923157377675395,-0.9226055497947693,2.6041398327234924,0.0,9.29412437274793,8.74156594268615,148.45766846572718,152.45533491606332,0.0
0.091,2.454357773423665,-0.8921655996765295,4.0813202267124,0.0,9.327780690208224,8.973669414604526,152.5818828124029,152.45533491606332,0.0
0.092,2.587845435112039,-0.9109166761062345,2.0179475744111395,0.0,9.383648741022771,8.93012215295491,150.17360303103675,152.45533491606332,0.0
0.093,2.6067001769185745,-0.8820819020440612,3.244904783944486,0.0,9.42621592467977,9.051376297141555,148.96915963134992,152.45533491606332,0.0
0.094,2.6877554831569372,-0.8457810519324336,3.881988236635032,0.0,9.472947058618075,9.213843816707705,151.5966826869333,152.45533491606332,0.0
0.095,2.790378265905308,-0.8506693839800371,2.5768132311346483,0.0,9.532152556145519,9.204319659539191,147.98812368461475,152.45533491606332,0.0
0.096,2.8271702094763715,-0.8088019258272716,4.4257648446084055,0.0,9.579830784486083,9.415084009412054,150.47107636306137,152.45533491606332,0.0
0.097,2.9535617040203146,-0.8004074620708079,3.204131090915114,0.0,9.6433129085482,9.443135373126562,147.95091913482582,152.45533491606332,0.0
0.098,3.0102682239457943,-0.7761929387605817,4.509253862845263,0.0,9.70067230364899,9.625535853078722,149.52154042166913,152.45533491606332,0.0
0.099,3.1375839082900483,-0.7545585677628941,3.7532811643675514,0.0,9.768398171658278,9.685786339915277,147.59741996973426,152.45533491606332,0.0
0.1,3.208450881163431,-0.738628507345607,4.763920539798276,0.0,9.833840538614366,9.858992212978638,148.98287579607955,152.45533491606332,0.0
0.101,3.340367470353455,-0.7118309528773051,4.105917217825468,0.0,9.907270825793839,9.925132821177785,146.30910012137244,152.45533491606332,0.0
0.10200000000000001,3.418016743425986,-0.6936464103310893,5.504267403125935,0.0,9.978239820939882,10.145178696731664,149.05732275111248,152.45533491606332,0.0
0.10300000000000001,3.57386917058975,-0.6816091366713994,4.164136209905422,0.0,10.0629742494496,10.172551676880207,144.98992209586908,152.45533491606332,0.0
0.10400000000000001,3.6508901717207705,-0.6425443934074818,6.272490665729066,0.0,10.137795784100769,10.444067318084901,148.4266031088955,152.45533491606332,0.0
0.105,3.82238197569665,-0.6539996415485981,4.59443747728753,0.0,10.233937454135454,10.472150264921403,146.01044985488144,152.45533491606332,0.0
0.106,3.9189914655042797,-0.6000372633890787,5.86696295490638,0.0,10.31722283777136,10.654885292661135,145.46631795219565,152.45533491606332,0.0
0.107,4.047078076180312,-0.59792406202969,6.208919075887952,0.0,10.410760357449714,10.839441842245973,147.68001421734797,152.45533491606332,0.0
0.108,4.206452741307632,-0.5807414737498826,5.149824150298945,0.0,10.511530827421529,10.878726138758315,145.3288266761547,152.45533491606332,0.0
0.109,4.302625066856208,-0.5273867799978439,6.396683003294665,0.0,10.600455489617472,11.062919266542954,148.86110963984393,152.45533491606332,0.0
0.11,4.393734799428802,-0.5948515834379013,4.666483774212246,0.0,10.706861673688211,11.0257346967122,154.08936562554848,152.45533491606332,0.0
0.111,4.389978370615906,-0.6144426070189875,2.0360154742651195,0.0,10.800389146928321,10.73218398606338,151.60417788278818,152.45533491606332,0.0
0.112,4.21742513859893,-0.5745854432169606,3.2871209159780226,0.0,10.850628603525502,10.66021066662508,154.86557262029115,152.45533491606332,0.0
0.113,4.093985300469625,-0.5881504257069587,1.6323211701842602,0.0,10.890537502231055,10.417772448209943,155.56171614927075,152.45533491606332,0.0
0.114,3.9252314290521784,-0.5485361415153526,1.2531855933623834,0.0,10.897718468138564,10.195740552989031,155.1033632642997,152.45533491606332,0.0
0.115,3.736024654221804,-0.5361636125716127,1.4558817523655447,0.0,10.881013312591334,10.041843083656692,156.43641118066833,152.45533491606332,0.0
0.116,3.593442691644592,-0.5267011786099232,0.7495470315351804,0.0,10.84967178321924,9.835733012956682,156.66740346274483,152.45533491606332,0.0
0.117,3.430586629481705,-0.5322048973324054,0.5919302050301156,0.0,10.801553433113451,9.653313639894359,157.01847568794796,152.45533491606332,0.0
0.11800000000000001,3.2879531057743367,-0.5283067720136563,0.37076268470970675,0.0,10.739521149739721,9.475633237143676,157.30501938475578,152.45533491606332,0.0
0.11900000000000001,3.146946099809668,-0.5419321611309376,0.17899399161886942,0.0,10.667461828484381,9.304719200712933,157.08942935931904,152.45533491606332,0.0
0.12,3.019398330882196,-0.5500031198153937,0.24044805990468188,0.0,10.586268587275622,9.164988454764464,157.38718023032843,152.45533491606332,0.0
0.121,2.9076377262105946,-0.5742427703612691,0.042254171257338324,0.0,10.501807247566092,9.019713779680496,157.1924776868347,152.45533491606332,0.0
0.122,2.803886857917425,-0.5932574939705996,0.092234015296484,0.0,10.413113797410682,8.898295149330286,157.33883644205665,152.45533491606332,0.0
0.123,2.7113115098022638,-0.6221026914381094,-0.02978037757441898,0.0,10.324130653721129,8.775373434953101,157.15652500997945,152.45533491606332,0.0
0.124,2.6245484533953265,-0.6471220657151491,0.014363437525019673,0.0,10.234217332158611,8.670539723957932,157.16519713563983,152.45533491606332,0.0
0.125,2.5465024105519225,-0.677111648946363,-0.03707124750093671,0.0,10.145860632065492,8.56881623255089,157.00676618695223,152.45533491606332,0.0
0.126,2.473822964441953,-0.7049359217829388,-0.0033700858660283828,0.0,10.058928027020691,8.479865173548998,156.92766521561865,152.45533491606332,0.0
0.127,2.4078440109129264,-0.7344613406394371,-0.008542903194787232,0.0,9.974763129926028,8.396740828847403,156.7678942606757,152.45533491606332,0.0
0.128,2.346873237006882,-0.7625051601545635,0.02821698083056745,0.0,9.893491854028774,8.323654739916947,156.63877829175922,152.45533491606332,0.0
0.129,2.29150870562838,-0.7905119061592046,0.050940531531841415,0.0,9.815839400693559,8.257362514739274,156.47834548385805,152.45533491606332,0.0
0.13,2.2408456348684527,-0.817071466621079,0.09092682980448075,0.0,9.741964454364854,8.19912481651863,156.33552132925533,152.45533491606332,0.0
0.131,2.1948940129276906,-0.8425172810083624,0.1235370429739211,0.0,9.672186676824943,8.147058701658976,156.19361864192905,152.45533491606332,0.0
0.132,2.1529366858290953,-0.8661005356534479,0.1571055493784037,0.0,9.606519765420144,8.100743643865538,156.07851088547446,152.45533491606332,0.0
0.133,2.114509400542642,-0.8875828722310627,0.17842766791158793,0.0,9.544915263853564,8.05831057679609,156.0310960993452,152.45533491606332,0.0
0.134,2.078945775546272,-0.905869181865625,0.16637744914339514,0.0,9.487024576430727,8.015949346923831,156.06755025537095,152.45533491606332,0.0
0.135,2.0444870281501473,-0.919392769624527,0.11202821773744875,0.0,9.431991566320077,7.969612083993149,155.91555915267713,152.45533491606332,0.0
0.136,2.0074278730474413,-0.9292348560835851,0.15342152671821707,0.0,9.378775524560336,7.931233922233757,155.53375982780554,152.45533491606332,0.0
0.137,1.9728915994942735,-0.9385148211182116,0.3135369400365917,0.0,9.327965646089842,7.911999133389364,154.9917632289689,152.45533491606332,0.0
