timestamp,iq,id,iq_ref,id_ref,vq,vd,omega,omega_ref,r
0.0,0.0,0.0,0.0,0.0,0.0,0.0,0.0,470.0011539491875,0.0
0.001,0.0,0.0,10.0,0.0,0.0,1.0999999999999999,6.115472199294103,470.0011539491875,0.0
0.002,0.5307369851907212,-0.2913212625381807,10.0,0.0,0.14204533887919985,1.9316189316290207,13.317801563642547,470.0011539491875,0.0
0.003,1.0842913387634832,-0.6024330830807904,10.0,0.0,0.384357124667687,2.6386968949419622,20.697939467553027,470.0011539491875,0.0
0.004,1.5590443546685477,-0.8700465084428163,10.0,0.0,0.6994718867930164,3.2526109522886295,28.232747544420146,470.0011539491875,0.0
0.005,1.9399447555359186,-1.0838738622210777,10.0,0.0,1.065311453102468,3.7994935661768023,35.92944872443006,470.0011539491875,0.0
0.006,2.239750732602683,-1.2510087368845633,10.0,0.0,1.4655018868449925,4.299102221838433,43.75633668444442,470.0011539491875,0.0
0.007,2.4770151619816017,-1.382020589851471,10.0,0.0,1.8883740978591532,4.765668027847139,51.58766747378032,470.0011539491875,0.0
0.008,2.6680767290418097,-1.4872241871505252,10.0,0.0,2.325877945545995,5.209220346273558,59.45942083902103,470.0011539491875,0.0
0.009000000000000001,2.8266491704841292,-1.5730794701170803,10.0,0.0,2.772378685460125,5.636635464737965,67.35059094018146,470.0011539491875,0.0
0.01,2.962077666392183,-1.645500646948331,10.0,0.0,3.224078639851053,6.052647735211881,75.20908322432116,470.0011539491875,0.0
0.011,3.0811061533574158,-1.7084279320504514,10.0,0.0,3.678407615443203,6.460489925470405,83.0265951655913,470.0011539491875,0.0
0.012,3.188848746459569,-1.7638278597420747,10.0,0.0,4.133552631697047,6.862319393890706,90.74118064793086,470.0011539491875,0.0
0.013000000000000001,3.288205119878689,-1.8140726097274587,10.0,0.0,4.588339016389012,7.259628641949282,98.35820682563939,470.0011539491875,0.0
0.014,3.3820602099432007,-1.8592355758795645,10.0,0.0,5.041843166194517,7.653355107498287,105.90865295623543,470.0011539491875,0.0
0.015,3.4721069852858886,-1.899829032412081,10.0,0.0,5.493383198131427,8.044092747085895,113.37727610343421,470.0011539491875,0.0
0.016,3.5596145800153947,-1.9360338400176071,10.0,0.0,5.94241958510469,8.43218525824161,120.68508583176356,470.0011539491875,0.0
0.017,3.645144415105338,-1.9685384477868613,10.0,0.0,6.388575043274759,8.817838951066484,127.83962377537456,470.0011539491875,0.0
0.018000000000000002,3.730251927866576,-1.9959253041084188,10.0,0.0,6.83136783302799,9.201036292373047,134.85405702603322,470.0011539491875,0.0
0.019,3.81544967906247,-2.018253592643655,10.0,0.0,7.270383321112213,9.581672501020332,141.68976328564074,470.0011539491875,0.0
0.02,3.9014648862453374,-2.0350875541282063,10.0,0.0,7.705189334130692,9.959536942333155,148.3432823300447,470.0011539491875,0.0
0.021,3.9891051824829464,-2.0457889559126508,10.0,0.0,8.135310004560049,10.334315260302239,154.92060212100432,470.0011539491875,0.0
0.022,4.079618141396171,-2.0489696811670974,10.0,0.0,8.560139305503519,10.705547790999272,161.01925282597162,470.0011539491875,0.0
0.023,4.171109372430197,-2.048468292080302,10.0,0.0,8.979521969370257,11.072981092896333,166.534238406907,470.0011539491875,0.0
0.024,4.266936196769627,-2.039517194249811,10.0,0.0,9.392730090169543,11.435983292623375,171.8647834235234,470.0011539491875,0.0
0.025,4.367255527950721,-2.0225841458509217,10.0,0.0,9.79914449451603,11.793929226271104,177.02637022703064,470.0011539491875,0.0
0.026000000000000002,4.4734353073349595,-1.9962166741499119,10.0,0.0,10.197980960389518,12.146045424568259,181.63161391243256,470.0011539491875,0.0
0.027,4.582366840795821,-1.966358349113627,10.0,0.0,10.589124658468391,12.491912978736195,185.74793639675826,470.0011539491875,0.0
0.028,4.700058850757774,-1.9240450691803936,10.0,0.0,10.971384864613876,12.830451341534015,189.43662766964098,470.0011539491875,0.0
0.029,4.820934284790598,-1.879137197786803,10.0,0.0,11.344756153370636,13.161242511022618,192.73598774770625,470.0011539491875,0.0
0.03,4.952016225740939,-1.821000614527957,10.0,0.0,11.707923484756042,13.483081433273819,195.59831968863915,470.0011539491875,0.0
0.031,5.086039273572549,-1.7621311371320891,10.0,0.0,12.061063698547066,13.79562148058647,197.80891551030922,470.0011539491875,0.0
0.032,5.230431844273564,-1.6911110488141978,10.0,0.0,12.40292038074925,14.097678592248165,200.4421589734679,470.0011539491875,0.0
0.033,5.380124186618445,-1.6166151787533525,10.0,0.0,12.733312761073865,14.38869342901298,201.91742172589852,470.0011539491875,0.0
0.034,5.537594793894332,-1.535029134414507,10.0,0.0,13.051537880865839,14.667821176756876,203.18880493813168,470.0011539491875,0.0
0.035,5.698947813469154,-1.4530296333491768,10.0,0.0,13.357649178779205,14.934684535625108,203.60405746232266,470.0011539491875,0.0
0.036000000000000004,5.870474243492053,-1.3603000477825025,10.0,0.0,13.65045542338638,15.188218311291084,204.28541056101804,470.0011539491875,0.0
0.037,6.041188711220851,-1.275010780747051,10.0,0.0,13.930879897581198,15.42861600670124,205.2233356988433,470.0011539491875,0.0
0.038,6.228175208801664,-1.168399557236846,10.0,0.0,14.196427351981786,15.654155009933262,200.35169734043586,470.0011539491875,0.0
0.039,6.404895489618571,-1.0845312562500289,10.0,0.0,14.449814560392067,15.86612549236809,209.64773540576442,470.0011539491875,0.0
0.04,6.534612624563911,-1.0851225869390002,10.0,0.0,14.699963825590459,16.069735965364643,218.170241886545,470.0011539491875,0.0
0.041,6.621487035821765,-1.1484636683301073,10.0,0.0,14.952420817214799,16.26974130369247,220.68166573712315,470.0011539491875,0.0
0.042,6.6704785161669795,-1.2647840534085386,10.0,0.0,15.211794475054209,16.47047148862455,233.10654395573727,470.0011539491875,0.0
0.043000000000000003,6.709376245503157,-1.3867642159960276,10.0,0.0,15.477558399636717,16.673277185423842,235.10815372853793,470.0011539491875,0.0
0.044,6.744196093263161,-1.5028656568708394,10.0,0.0,15.74857785831126,16.87893749904121,248.8181267625822,470.0011539491875,0.0
0.045,6.750563942850831,-1.6564343609015326,10.0,0.0,16.02879294551472,17.090781462187255,251.61117095327992,470.0011539491875,0.0
0.046,6.764566527560506,-1.7840489455190416,10.0,0.0,16.314672837580048,17.307985931916857,266.60539535969383,470.0011539491875,0.0
0.047,6.752169677737121,-1.9446655565152717,10.0,0.0,16.610076868775216,17.533561623207692,270.0627790167984,470.0011539491875,0.0
0.048,6.7291903821171735,-2.110358990489937,10.0,0.0,16.91511817760721,17.768523902508925,283.13731951482634,470.0011539491875,0.0
0.049,6.714097190323873,-2.246352557911731,10.0,0.0,17.22645394156277,18.011924542904307,294.70561782835244,470.0011539491875,0.0
0.05,6.666841209228205,-2.4219663531358275,10.0,0.0,17.548953774962747,18.267165921658286,300.1294548425776,470.0011539491875,0.0
0.051000000000000004,6.612335516543512,-2.59336894353628,10.0,0.0,17.88182590988993,18.53465621226123,310.75154600411304,470.0011539491875,0.0
0.052000000000000005,6.568447424188529,-2.726701034625408,10.0,0.0,18.22111236450049,18.81296732052879,322.35703405819294,470.0011539491875,0.0
0.053,6.5036136539679195,-2.8764091099274185,10.0,0.0,18.569435851849082,19.104068797231378,330.9557012510771,470.0011539491875,0.0
0.054,6.434362099984388,-3.0149932598739144,10.0,0.0,18.925784313874168,19.407861808234543,339.4707232587175,470.0011539491875,0.0
0.055,6.370891759459199,-3.1253006473392393,10.0,0.0,19.28762520191878,19.723199586257838,348.00092263299223,470.0011539491875,0.0
0.056,6.314459991163816,-3.2071523724558277,10.0,0.0,19.65271639484943,20.048760466390505,356.29964302226927,470.0011539491875,0.0
0.057,6.266092078485367,-3.262894600420583,10.0,0.0,20.01916768432525,20.383030530514645,362.98468703488817,470.0011539491875,0.0
0.058,6.234656406121481,-3.2830044001420036,10.0,0.0,20.38405550695561,20.723492962007192,368.0316803659419,470.0011539491875,0.0
0.059000000000000004,6.228510489334133,-3.2600491726267444,10.0,0.0,20.743774617448285,21.0667596267365,372.35801287012686,470.0011539491875,0.0
0.06,6.247959954981508,-3.201438289803519,10.0,0.0,21.095630838529225,21.40947063565305,373.88739853789605,470.0011539491875,0.0
0.061,6.298571070969623,-3.1064761741463998,10.0,0.0,21.436712814499675,21.747723437683817,371.47602194372377,470.0011539491875,0.0
0.062,6.38094735961424,-2.982369480030801,10.0,0.0,21.76480975788002,22.077703876517536,366.2922057853833,470.0011539491875,0.0
0.063,6.53566146196873,-2.7695519558602215,10.0,0.0,22.070926190088084,22.39130117743337,372.07145994459506,470.0011539491875,0.0
0.064,6.708566607552835,-2.560747003310555,10.0,0.0,22.35695033962817,22.686677966487718,365.1882535794375,470.0011539491875,0.0
0.065,6.897199383751794,-2.3667028673086685,10.0,0.0,22.62465294768497,22.962098937664592,356.7297130485294,470.0011539491875,0.0
0.066,7.167218997264825,-2.0824440278168583,10.0,0.0,22.863799361069702,23.20893224280502,357.7888817172531,470.0011539491875,0.0
0.067,7.423387055578651,-1.859201647307153,10.0,0.0,23.082000390168847,23.42951856849048,345.1266644280509,470.0011539491875,0.0
0.068,7.736929428236853,-1.5824320316278497,10.0,0.0,23.27222771500701,23.617938384108047,342.9584987314189,470.0011539491875,0.0
0.069,8.04132723792414,-1.3546495884062866,10.0,0.0,23.43998591632552,23.77619061530866,334.2677598047511,470.0011539491875,0.0
0.07,8.395997401416553,-1.0747195592463576,10.0,0.0,23.578279041856877,23.89942370363377,322.7417355360636,470.0011539491875,0.0
0.07100000000000001,8.726669482066718,-0.8579631993863083,10.0,0.0,23.694022264374595,23.99133556844291,337.9106389559309,470.0011539491875,0.0
0.07200000000000001,8.91385728821635,-0.8925675486457335,10.0,0.0,23.81335639313859,24.06834663115294,344.8606079910171,470.0011539491875,0.0
0.073,8.941721008651788,-1.1508071676799903,10.0,0.0,23.95651852989837,24.148396869281978,362.43451347602996,470.0011539491875,0.0
0.074,8.927907180207171,-1.4305443375681337,10.0,0.0,24.121558169292424,24.236556455607346,368.59250641149885,470.0011539491875,0.0
0.075,8.859340450140312,-1.7499202918046703,10.0,0.0,24.31124378664675,24.33980824926249,387.10067316750514,470.0011539491875,0.0
0.076,8.767176841935807,-2.0562826706616475,10.0,0.0,24.52279212376306,24.461155754889383,396.7190369145668,470.0011539491875,0.0
0.077,8.62162972262067,-2.4016532593838043,10.0,0.0,24.76024751870129,24.606611890707832,408.83095327273656,470.0011539491875,0.0
0.078,8.47560200325128,-2.694417929744825,10.0,0.0,25.017253395580042,24.77587553037574,428.2762610097064,470.0011539491875,0.0
0.079,8.289593068490031,-3.001970310780605,10.0,0.0,25.296388163948027,24.972914099394785,438.0404594767293,470.0011539491875,0.0
0.08,8.078425759776728,-3.30171273584331,10.0,0.0,25.597209455327665,25.19953060295957,447.87571303424875,470.0011539491875,0.0
0.081,7.882675762310951,-3.525181384717318,10.0,0.0,25.912194395051316,25.45298841193994,460.26934286159303,470.0011539491875,0.0
0.082,7.687097883672571,-3.703693402600396,10.0,0.0,26.238428257179056,25.732155000670204,470.03446400235384,470.0011539491875,0.0
0.083,7.512516260295773,-3.813976142857688,6.622501480908399,0.0,26.570301373216513,25.6617516794252,474.4730738696296,470.0011539491875,0.0
0.084,7.1896133517555505,-3.771929088907956,4.358477348066091,0.0,26.85621884218868,25.450081836192364,469.60075631208133,470.0011539491875,0.0
0.085,6.813182778691576,-3.5549353864015383,6.798640103211296,0.0,27.06892874320414,25.617407202526064,464.1383944683415,470.0011539491875,0.0
0.08600000000000001,6.661266994171257,-3.3192216759761157,9.588448619889661,0.0,27.253341619629683,26.0846947621777,464.8921988943784,470.0011539491875,0.0
0.08700000000000001,6.785957825597947,-3.1071163281515615,9.262635957419313,0.0,27.445067513221403,26.44472222616606,466.1115091532691,470.0011539491875,0.0
0.088,6.978049320582143,-2.886526003134288,8.691877275933154,0.0,27.63147968157912,26.708511048641995,449.83281259214033,470.0011539491875,0.0
0.089,7.212285055079411,-2.5961894614165058,10.0,0.0,27.79589839900988,27.090318276323462,440.6129324452943,470.0011539491875,0.0
0.09,7.600388044427502,-2.2471181927652952,10.0,0.0,27.946561493331252,27.39695645425587,437.26118359298727,470.0011539491875,0.0
0.091,7.989876612646883,-1.9605063840041832,10.0,0.0,28.084785509736527,27.64903441121653,418.46472523321506,470.0011539491875,0.0
0.092,8.456945097345455,-1.59214092827773,10.0,0.0,28.196740838155037,27.842244326487002,412.28422946421836,470.0011539491875,0.0
0.093,8.908580634428066,-1.2807630632054048,10.0,0.0,28.28625371465805,27.982319558840167,398.10320004180494,470.0011539491875,0.0
0.094,9.413371794658214,-0.9120825874035221,10.0,0.0,28.343381753058598,28.066327883353832,389.95020174910167,470.0011539491875,0.0
0.095,9.880216085334341,-0.6277205539450934,10.0,0.0,28.375604801148043,28.10134321888411,404.5598106716788,470.0011539491875,0.0
0.096,10.00917266368143,-0.8845651520110129,10.0,0.0,28.439203604103408,28.126562544958887,421.04836130949036,470.0011539491875,0.0
0.097,10.030465394045603,-1.23559830817113,10.0,0.0,28.535009660567667,28.154567184165135,433.97974180872313,470.0011539491875,0.0
0.098,9.932077273666948,-1.693449449985212,10.0,0.0,28.670888869344072,28.20038758564248,450.641984649941,470.0011539491875,0.0
0.099,9.799491037415587,-2.112957583418022,10.0,0.0,28.839329580650038,28.268814472633597,470.39832158232707,470.0011539491875,0.0
0.1,9.580301231816101,-2.584809514446029,7.099349905608291,0.0,29.045477540603287,28.050956247926536,480.3566209902797,470.0011539491875,0.0
0.101,9.184718498762244,-2.9268034329149013,2.016645531221064,0.0,29.242125693811786,27.386729864026755,491.1849775313902,470.0011539491875,0.0
0.10200000000000001,8.480325027660275,-3.1001163905281595,-3.6093709751562173,0.0,29.368330879462235,26.314083616370866,495.1076862729653,470.0011539491875,0.0
0.10300000000000001,7.491127873261347,-3.0560476446148988,-5.821790669181542,0.0,29.36807023015545,25.27598426303944,495.0040650241333,470.0011539491875,0.0
0.10400000000000001,6.465965681629167,-2.887353123456137,-6.020009155515008,0.0,29.245910000577883,24.444864813089616,491.7719831045632,470.0011539491875,0.0
0.105,5.58766405102591,-2.6687129852070077,-4.621676487283726,0.0,29.030490378967265,23.92680162099582,485.68886959691315,470.0011539491875,0.0
0.106,4.966571709451913,-2.464907329286031,-1.7369968899359485,0.0,28.76457417953951,23.801871356243396,478.150558227465,470.0011539491875,0.0
0.107,4.679278546050775,-2.3104182813140897,1.9506647520053457,0.0,28.49780083486159,24.065029807221887,470.42407692908955,470.0011539491875,0.0
0.108,4.735187948818663,-2.223832926780954,5.809676171394055,0.0,28.27604117123039,24.65378675240961,462.5961294661572,470.0011539491875,0.0
0.109,5.103846452328615,-2.1845369905398164,9.797700147690529,0.0,28.131876469039877,25.521591218555738,462.4332483577324,470.0011539491875,0.0
0.11,5.737232535637311,-2.185795555100574,9.954819757817486,0.0,28.089440085147128,26.199615801090353,460.20623056011254,470.0011539491875,0.0
0.111,6.36393625569917,-2.1617029500350773,10.0,0.0,28.116387025694298,26.746389369147316,442.2196037281283,470.0011539491875,0.0
0.112,6.98935637944106,-2.008916834251284,10.0,0.0,28.17875108230689,27.178199295620484,438.35525003096564,470.0011539491875,0.0
0.113,7.590554177271364,-1.76872244027727,10.0,0.0,28.253166203726245,27.51318707858369,422.4665694771703,470.0011539491875,0.0
0.114,8.136057195143726,-1.5302598006166246,10.0,0.0,28.329809644877038,27.768124241404845,414.8488429672262,470.0011539491875,0.0
0.115,8.704121738973418,-1.2036834221837691,10.0,0.0,28.390743682963873,27.948199962416425,397.2038677589202,470.0011539491875,0.0
0.116,9.227312766610206,-0.9195097370529748,10.0,0.0,28.435598547763114,28.06449114753378,392.0902655905636,470.0011539491875,0.0
0.117,9.751858813406853,-0.6202681805341266,10.0,0.0,28.457522210228408,28.121170545748058,407.2632113303569,470.0011539491875,0.0
0.11800000000000001,9.979316571192218,-0.7803188844029556,10.0,0.0,28.50351943925935,28.15459947749901,416.7447575573147,470.0011539491875,0.0
0.11900000000000001,10.007906123631596,-1.1689291486391706,10.0,0.0,28.5894064605896,28.188414965787494,437.6325648330389,470.0011539491875,0.0
0.12,9.947207460527494,-1.603598829541049,10.0,0.0,28.71401389087251,28.234400355845995,447.32178537017484,470.0011539491875,0.0
0.121,9.81514372272261,-2.053803023295313,10.0,0.0,28.875934881636933,28.302167974454438,467.79428852425224,470.0011539491875,0.0
0.122,9.632043135910248,-2.4886954079897436,7.969299825254803,0.0,29.071776655564605,28.174794338227816,482.35505832274924,470.0011539491875,0.0
0.123,9.269750159400921,-2.895548163864797,0.5653758822706827,0.0,29.275701767776155,27.323638832583722,488.77716304478116,470.0011539491875,0.0
0.124,8.50015538888779,-3.0330507905875104,-2.833436569701213,0.0,29.385175579582892,26.359193753429476,494.20222278271444,470.0011539491875,0.0
0.125,7.543394453331677,-3.0141483721726146,-5.787977127003124,0.0,29.383803210000664,25.308676981793884,494.60840148940963,470.0011539491875,0.0
0.126,6.520198930018603,-2.8660078939327542,-6.237138955752938,0.0,29.261409971790865,24.44619615298304,491.6353042348463,470.0011539491875,0.0
0.127,5.6249368623231035,-2.656614268508877,-4.966931831327848,0.0,29.043456080506733,23.89018535741993,485.7522931309446,470.0011539491875,0.0
0.128,4.976116967773051,-2.456373926910425,-2.182937671194594,0.0,28.771763997473116,23.723935106378683,478.34991756680853,470.0011539491875,0.0
0.129,4.654598859351291,-2.3039952895150924,1.4347624746972425,0.0,28.495856850941227,23.94612653956586,470.7874991099182,470.0011539491875,0.0
0.13,4.675735098861745,-2.216522779204138,5.208108251535099,0.0,28.26166137262098,24.491858981343995,462.6411304525307,470.0011539491875,0.0
0.131,5.005473127395862,-2.1800580937805614,9.35489281519541,0.0,28.102322296017107,25.34195165460291,461.3763272946908,470.0011539491875,0.0
0.132,5.6185476668429,-2.1783671067944264,10.0,0.0,28.044105032685273,26.05645427851362,461.91119380012407,470.0011539491875,0.0
0.133,6.255619638791326,-2.162729199156871,9.885538156221127,0.0,28.061456498107418,26.610695867516483,443.6943530657606,470.0011539491875,0.0
0.134,6.871387585667638,-2.038764322310825,10.0,0.0,28.119017218510944,27.063620110977844,437.565949972478,470.0011539491875,0.0
0.135,7.483664582677148,-1.8001719198810475,10.0,0.0,28.191108775721435,27.41467059349334,425.6842255283972,470.0011539491875,0.0
0.136,8.026149822775556,-1.5803851400812716,10.0,0.0,28.26930560370875,27.684274577037613,414.37991228500545,470.0011539491875,0.0
0.137,8.601476678526248,-1.2508003553962412,10.0,0.0,28.33258668873442,27.876876743294584,399.1591442136179,470.0011539491875,0.0
0.138,9.119627142392986,-0.9792689825231533,10.0,0.0,28.38222727871402,28.005303518960613,393.6968672446662,470.0011539491875,0.0
0.139,9.656649614112501,-0.6613921980439209,10.0,0.0,28.407495354698273,28.071960708807506,398.7767925564886,470.0011539491875,0.0
0.14,9.946672228557619,-0.7306066036311571,10.0,0.0,28.44769469452819,28.107946724396378,415.4203442780459,470.0011539491875,0.0
0.14100000000000001,9.989476015848114,-1.112915590506187,10.0,0.0,28.52883454643438,28.14254588195184,430.9804906133872,470.0011539491875,0.0
0.14200000000000002,9.962571602043495,-1.5078197045948347,10.0,0.0,28.644936691586494,28.185186632333796,446.20399500755883,470.0011539491875,0.0
0.14300000000000002,9.82588465998665,-1.9837617497214377,10.0,0.0,28.802097281084635,28.249940041680972,460.79018561701145,470.0011539491875,0.0
0.14400000000000002,9.656857778027865,-2.4136077230225332,10.0,0.0,28.99254078917953,28.341160256638133,484.2939249410359,470.0011539491875,0.0
0.145,9.42072847099048,-2.858986818801559,-0.7105744303313468,0.0,29.217755208763336,27.288423568527154,486.7274555056733,470.0011539491875,0.0
0.146,8.582146322328223,-2.9915403190661896,-2.0946027282148805,0.0,29.325301611648985,26.408227366004247,491.4475182056995,470.0011539491875,0.0
0.147,7.650365377886373,-2.9881733216345174,-4.669097720793117,0.0,29.33237784927364,25.45156134021941,493.6591589696905,470.0011539491875,0.0
