timestamp,iq,id,iq_ref,id_ref,vq,vd,omega,omega_ref,r
0.0,0.0,0.0,0.0,0.0,0.0,0.0,0.0,167.24144455398866,0.0
0.001,0.0,0.0,10.0,0.0,0.0,1.0999999999999999,6.115472199294103,167.24144455398866,0.0
0.002,0.5307369851907212,-0.2913212625381807,10.0,0.0,0.14204533887919985,1.9316189316290207,13.317801563642547,167.24144455398866,0.0
0.003,1.0842913387634832,-0.6024330830807904,10.0,0.0,0.384357124667687,2.6386968949419622,20.697939467553027,167.24144455398866,0.0
0.004,1.5590443546685477,-0.8700465084428163,10.0,0.0,0.6994718867930164,3.2526109522886295,28.232747544420146,167.24144455398866,0.0
0.005,1.9399447555359186,-1.0838738622210777,10.0,0.0,1.065311453102468,3.7994935661768023,35.92944872443006,167.24144455398866,0.0
0.006,2.239750732602683,-1.2510087368845633,10.0,0.0,1.4655018868449925,4.299102221838433,43.75633668444442,167.24144455398866,0.0
0.007,2.4770151619816017,-1.382020589851471,10.0,0.0,1.8883740978591532,4.765668027847139,51.58766747378032,167.24144455398866,0.0
0.008,2.6680767290418097,-1.4872241871505252,10.0,0.0,2.325877945545995,5.209220346273558,59.45942083902103,167.24144455398866,0.0
0.009000000000000001,2.8266491704841292,-1.5730794701170803,10.0,0.0,2.772378685460125,5.636635464737965,67.35059094018146,167.24144455398866,0.0
0.01,2.962077666392183,-1.645500646948331,10.0,0.0,3.224078639851053,6.052647735211881,75.20908322432116,167.24144455398866,0.0
0.011,3.0811061533574158,-1.7084279320504514,10.0,0.0,3.678407615443203,6.460489925470405,83.0265951655913,167.24144455398866,0.0
0.012,3.188848746459569,-1.7638278597420747,10.0,0.0,4.133552631697047,6.862319393890706,90.74118064793086,167.24144455398866,0.0
0.013000000000000001,3.288205119878689,-1.8140726097274587,10.0,0.0,4.588339016389012,7.259628641949282,98.35820682563939,167.24144455398866,0.0
0.014,3.3820602099432007,-1.8592355758795645,10.0,0.0,5.041843166194517,7.653355107498287,105.90865295623543,167.24144455398866,0.0
0.015,3.4721069852858886,-1.899829032412081,10.0,0.0,5.493383198131427,8.044092747085895,113.37727610343421,167.24144455398866,0.0
0.016,3.5596145800153947,-1.9360338400176071,10.0,0.0,5.94241958510469,8.43218525824161,120.68508583176356,167.24144455398866,0.0
0.017,3.645144415105338,-1.9685384477868613,10.0,0.0,6.388575043274759,8.817838951066484,127.83962377537456,167.24144455398866,0.0
0.018000000000000002,3.730251927866576,-1.9959253041084188,10.0,0.0,6.83136783302799,9.201036292373047,134.85405702603322,167.24144455398866,0.0
0.019,3.81544967906247,-2.018253592643655,10.0,0.0,7.270383321112213,9.581672501020332,141.68976328564074,167.24144455398866,0.0
0.02,3.9014648862453374,-2.0350875541282063,10.0,0.0,7.705189334130692,9.959536942333155,148.3432823300447,167.24144455398866,0.0
0.021,3.9891051824829464,-2.0457889559126508,10.0,0.0,8.135310004560049,10.334315260302239,154.92060212100432,167.24144455398866,0.0
0.022,4.079618141396171,-2.0489696811670974,9.440089527883224,0.0,8.56013930550352,10.643957639066429,160.715915283284,167.24144455398866,0.0
0.023,4.143038188460705,-2.030814865167689,6.607688239450429,0.0,8.971421077216588,10.653082597454137,164.62750959781445,167.24144455398866,0.0
0.024,4.061219453386549,-1.9250765890278765,4.678030431746947,0.0,9.331037505381731,10.528119152540128,165.862137585635,167.24144455398866,0.0
0.025,3.8770019823296074,-1.7639835783872018,4.074509507520211,0.0,9.625533097829884,10.423968705811648,162.49382993869983,167.24144455398866,0.0
0.026000000000000002,3.6942616933762613,-1.5843507669086045,5.806139477140681,0.0,9.862015407204133,10.574456625975655,167.5184246989986,167.24144455398866,0.0
0.027,3.6543509854443386,-1.4673216716012085,3.2910722955412046,0.0,10.07882140528833,10.442133070371511,168.5427495757255,167.24144455398866,0.0
0.028,3.522398120805534,-1.3342603208695762,2.765896806960375,0.0,10.247247990376293,10.326219546239258,163.10901280809225,167.24144455398866,0.0
0.029,3.4027118099382494,-1.1717820024823928,5.524089508235971,0.0,10.37069856302696,10.559238950604161,168.22378456248626,167.24144455398866,0.0
0.03,3.46032374250187,-1.1070644876014533,2.956880230953988,0.0,10.499611875396013,10.463792348593199,164.2313755380719,167.24144455398866,0.0
0.031,3.4144655124342633,-1.016210391844689,4.983185433320341,0.0,10.596742420942634,10.644967927686427,165.9975882020491,167.24144455398866,0.0
0.032,3.500009715878756,-0.9477237002852315,4.112517664851137,0.0,10.695652474729942,10.691834052190147,164.60369445636863,167.24144455398866,0.0
0.033,3.540535087425153,-0.9040025094006827,4.8358420386675665,0.0,10.785233671507186,10.828574579591066,164.32249630182207,167.24144455398866,0.0
0.034,3.644486110734387,-0.8411874144129108,5.005630598462512,0.0,10.873058352806986,10.961013312920347,164.00055005315636,167.24144455398866,0.0
0.035,3.7409778819608825,-0.822027139524224,5.19901266780369,0.0,10.963864960021857,11.098990198474437,163.78346080202812,167.24144455398866,0.0
0.036000000000000004,3.8702233754710655,-0.7685511467156265,5.3421371308874175,0.0,11.053697838610594,11.232807839866554,161.88578187471325,167.24144455398866,0.0
0.037,3.98156435624594,-0.7517976184535249,6.344533221337606,0.0,11.146621065298921,11.460104277346879,164.272698921447,167.24144455398866,0.0
0.038,4.159983951156483,-0.7266141773690302,5.180762154296152,0.0,11.250378969829775,11.517411869836527,159.73883281370598,167.24144455398866,0.0
0.039,4.265820973507197,-0.6784901318071535,7.522721325569481,0.0,11.344450032555546,11.838759836531306,162.9526908295983,167.24144455398866,0.0
0.04,4.47572100709767,-0.6924179986933321,5.958679854867221,0.0,11.463262091491314,11.919885325867755,162.5434807959818,167.24144455398866,0.0
0.041,4.621190989477819,-0.6357306878642026,6.210264509255548,0.0,11.571930610607087,12.034191501127967,157.98712910534155,167.24144455398866,0.0
0.042,4.7429396269604,-0.5988402927926497,8.58098350906214,0.0,11.677671824987723,12.39425950390929,167.05201597099355,167.24144455398866,0.0
0.043000000000000003,4.934089305496655,-0.7049319866301873,4.050434362066091,0.0,11.820884708481278,12.18701825341876,168.89018076096755,167.24144455398866,0.0
0.044,4.876496419180079,-0.6946023938691304,3.114864605009301,0.0,11.92685500643433,11.965461948800531,168.32408160901525,167.24144455398866,0.0
0.045,4.707083441709107,-0.6821986334520844,3.3870878104351854,0.0,11.998811526411984,11.834018053265485,173.87104906470918,167.24144455398866,0.0
0.046,4.557696721534841,-0.6808567211023393,0.5473080374810149,0.0,12.050404432084067,11.422554601646949,171.48395283628795,167.24144455398866,0.0
0.047,4.284234825367678,-0.6142925072375653,1.698431068868636,0.0,12.048383057625465,11.241005058316306,173.74498086583844,167.24144455398866,0.0
0.048,4.077498704463309,-0.6109583178567146,0.5028816909748941,0.0,12.028707747586413,10.954393024328485,173.53986282335032,167.24144455398866,0.0
0.049,3.862427173073007,-0.5795290259848231,0.5424565295253392,0.0,11.97891488494038,10.73237389599892,174.1874056799338,167.24144455398866,0.0
0.05,3.6664454319888913,-0.5850914412391688,0.14922548997415275,0.0,11.912825554322698,10.503333507706921,174.14552324556033,167.24144455398866,0.0
0.051000000000000004,3.4888822025111965,-0.5825059514614377,0.10112592024516731,0.0,11.830101089909487,10.306801720739381,174.6862461734527,167.24144455398866,0.0
0.052000000000000005,3.327937133522247,-0.6018026385544741,-0.24368355989566037,0.0,11.738144383718852,10.100130944203084,174.36807525971577,167.24144455398866,0.0
0.053,3.1758948290869276,-0.6144963733954469,-0.15586441008446394,0.0,11.635919614455227,9.933154978779985,174.65033690030046,167.24144455398866,0.0
0.054,3.0439384960345404,-0.6415699453850683,-0.37108415383992854,0.0,11.530070881146111,9.76109654325303,174.36569447572572,167.24144455398866,0.0
0.055,2.919444144127818,-0.6663705642864788,-0.30000544076992863,0.0,11.42005850997446,9.618004749202331,174.39065892054356,167.24144455398866,0.0
0.056,2.811135303098179,-0.6976248973776336,-0.3839798068443976,0.0,11.309928166965923,9.478941959034836,174.17314354082555,167.24144455398866,0.0
0.057,2.710628669405466,-0.7288582156504391,-0.344539106853762,0.0,11.200027700920588,9.357923275538859,174.0094341639656,167.24144455398866,0.0
0.058,2.6213755330370656,-0.7617668993865628,-0.3303643145235604,0.0,11.092323035158435,9.247994012607956,173.7997963523033,167.24144455398866,0.0
0.059000000000000004,2.5408356272947206,-0.7949237151711307,-0.291128926675555,0.0,10.987714072578344,9.150428212401875,173.56134737802077,167.24144455398866,0.0
0.06,2.468703816502699,-0.827774741511127,-0.23510346777460933,0.0,10.887091470975209,9.065057642688721,173.30832181172482,167.24144455398866,0.0
0.061,2.4046432414984853,-0.8599905122174917,-0.16925945720399804,0.0,10.79120929707537,8.99116980150287,173.04629657377484,167.24144455398866,0.0
0.062,2.3481543552338797,-0.8910730038924864,-0.09629535842686776,0.0,10.70062347282412,8.928023309544463,172.7907025362324,167.24144455398866,0.0
0.063,2.2986944608972077,-0.9205268842889837,-0.02399091947808696,0.0,10.61571068372902,8.874232431167757,172.56648330824876,167.24144455398866,0.0
0.064,2.2554907373783255,-0.9476362387654633,0.034868306971131524,0.0,10.536597575894204,8.82733864288284,172.44619607739557,167.24144455398866,0.0
0.065,2.2177649873122136,-0.9704365105312811,0.04296440716365879,0.0,10.462943336363852,8.781242696671708,172.31464588499233,167.24144455398866,0.0
0.066,2.180885239254178,-0.9895794199482753,0.05800749005524164,0.0,10.393922643483638,8.737644214030526,171.95758895479594,167.24144455398866,0.0
0.067,2.145257113682401,-1.0043400356219134,0.18937451114536552,0.0,10.328876410257255,8.709353748188752,171.4432084422843,167.24144455398866,0.0
0.068,2.1171469766538724,-1.0185269825102854,0.40454712851823427,0.0,10.268918711770313,8.702478857126053,170.94353905825488,167.24144455398866,0.0
0.069,2.1015424503194833,-1.0350476777320088,0.6173608754902733,0.0,10.215944701031308,8.712988867840622,170.22057509024066,167.24144455398866,0.0
0.07,2.099370781985234,-1.0510840358510734,0.9490515541348667,0.0,10.17091788487854,8.751591151844446,169.7759704131646,167.24144455398866,0.0
0.07100000000000001,2.115909253921056,-1.0681909495612734,1.1460086340811362,0.0,10.135975375668353,8.798337949243962,169.52097323880974,167.24144455398866,0.0
0.07200000000000001,2.1407573457339706,-1.0853544472032424,1.250711934410353,0.0,10.110918712722663,8.843895702839207,170.04549497638857,167.24144455398866,0.0
0.073,2.1692628985478173,-1.0939264528641142,0.9604105613969423,0.0,10.093694777077335,8.846524700854191,171.49214371073907,167.24144455398866,0.0
0.074,2.1704940945413633,-1.09741337955417,0.19457920265418593,0.0,10.078753976677334,8.765979593740422,168.99681954006684,167.24144455398866,0.0
0.075,2.126643618608375,-1.0693310921739074,1.4246875381295214,0.0,10.054128824727234,8.839801012100311,167.013136950635,167.24144455398866,0.0
0.076,2.1492660025088512,-1.0607948786553476,2.4188119088789835,0.0,10.038690169194894,8.99790340386851,168.2580707155618,167.24144455398866,0.0
0.077,2.2369632061377596,-1.0751445249317093,1.7861787647998528,0.0,10.042269441618187,9.049700332790277,170.16590000437228,167.24144455398866,0.0
0.078,2.28545584894529,-1.0803686446353746,0.803019565890772,0.0,10.051101636395972,8.99039709695045,167.435881310364,167.24144455398866,0.0
0.079,2.26766369383035,-1.0506476715055328,2.166084545331151,0.0,10.049798739870672,9.100118207390633,164.82540357942415,167.24144455398866,0.0
0.08,2.3212815499700956,-1.0341243997818115,3.4954838205467276,0.0,10.058077893883612,9.325264301887058,167.70411961270983,167.24144455398866,0.0
0.081,2.451271195867211,-1.055012948469463,2.051499053316674,0.0,10.090506715017778,9.34282870270039,169.0450744625717,167.24144455398866,0.0
0.082,2.495897217490483,-1.0475859051887173,1.362985329299907,0.0,10.120423233872106,9.296973917656672,164.564685854382,167.24144455398866,0.0
0.083,2.4922129114678815,-0.9961356234844724,3.6299472203908305,0.0,10.137177361781966,9.515798742141644,165.13157646732708,167.24144455398866,0.0
0.084,2.6088614734312094,-0.9860544592853562,3.3676005947849026,0.0,10.17354413410448,9.650020564365352,167.89947963984423,167.24144455398866,0.0
0.085,2.7095654233019904,-0.9921518605679965,1.977068657667771,0.0,10.220467937200192,9.614210885905965,163.3415528061682,167.24144455398866,0.0
0.08600000000000001,2.728911222658011,-0.9488091133107674,4.295030991983986,0.0,10.254289715929273,9.854434733317586,164.46851378536127,167.24144455398866,0.0
0.08700000000000001,2.868246847413367,-0.9374613444459975,3.759279810073731,0.0,10.307936874424055,9.976772659778135,166.21712591555425,167.24144455398866,0.0
0.088,2.9698971349718817,-0.9401490660638708,2.8952169313615848,0.0,10.368862236782027,9.99276392921899,161.564408973287,167.24144455398866,0.0
0.089,3.0251076618873327,-0.8905962475973859,5.2783457583022315,0.0,10.419816502600796,10.278976752617034,165.10542486187342,167.24144455398866,0.0
0.09,3.193628729145341,-0.896059589046561,3.5291980109301697,0.0,10.495393119921568,10.307440967647594,161.7562931661049,167.24144455398866,0.0
0.091,3.2662752017770003,-0.8687665326138645,5.25861537269326,0.0,10.563201627391233,10.542037908857932,164.00542227006545,167.24144455398866,0.0
0.092,3.4256518938320033,-0.8507497886402202,4.1664110435522215,0.0,10.645980066962185,10.605714385471321,161.39601448323782,167.24144455398866,0.0
0.093,3.5096020365313696,-0.8292747789638937,5.529569237673546,0.0,10.724666226612726,10.824529754248848,163.31332764110468,167.24144455398866,0.0
0.094,3.670289527807971,-0.8019638023164899,4.610193827868957,0.0,10.814575849841512,10.897733202480522,160.05576230604103,167.24144455398866,0.0
0.095,3.7625850019420786,-0.7766907731446346,6.310833317880256,0.0,10.900307932128156,11.16032573896921,163.2266291286396,167.24144455398866,0.0
0.096,3.94670771543004,-0.7629340905035964,4.76554806083447,0.0,11.002465555036212,11.19891391312021,158.74263076899322,167.24144455398866,0.0
0.097,4.042083240656444,-0.7154810006236895,7.092535378507606,0.0,11.09318396000818,11.506630409021392,162.312168312434,167.24144455398866,0.0
0.098,4.239633586114723,-0.7251680116402015,5.357059369202759,0.0,11.207142276183689,11.557698078881247,160.02362595522354,167.24144455398866,0.0
0.099,4.3622340703061955,-0.6627415332755442,6.573508733795647,0.0,11.307847744997352,11.754708453764447,158.51810081114868,167.24144455398866,0.0
0.1,4.508433735153987,-0.6547654250481069,7.413504743261473,0.0,11.417930597296598,12.007467447144665,161.30315211428484,167.24144455398866,0.0
0.101,4.711809865615211,-0.6432146836969821,6.080362016090433,0.0,11.541090243237594,12.070003788631059,163.6178788536841,167.24144455398866,0.0
0.10200000000000001,4.812715827343723,-0.6315606196033287,4.959234303393854,0.0,11.657021119096335,12.019543944952478,163.08228766617464,167.24144455398866,0.0
0.10300000000000001,4.7840409223066285,-0.6576650185881436,5.268621466026722,0.0,11.759300947530612,12.035130337415572,169.437972754935,167.24144455398866,0.0
0.10400000000000001,4.750463610181007,-0.7034382299513021,2.0688136396370744,0.0,11.857685441627869,11.707720096230041,168.96481311399313,167.24144455398866,0.0
0.105,4.557604434947497,-0.6545538899626533,2.288159774507966,0.0,11.907655452684466,11.499894217826915,169.71557477876706,167.24144455398866,0.0
0.106,4.354158715963778,-0.6459143514962659,1.888037639873216,0.0,11.931384368963672,11.292091469547104,172.627088147368,167.24144455398866,0.0
0.107,4.173104698342112,-0.6196256518176377,0.37842451963895485,0.0,11.929154757206991,10.963267150592317,171.35115493352635,167.24144455398866,0.0
0.108,3.925940925237058,-0.5957395345181933,0.9752940227644049,0.0,11.89190108882435,10.773231553768824,172.40748286793865,167.24144455398866,0.0
0.109,3.744033861229462,-0.5875975754448464,0.3954696724187503,0.0,11.838712473272547,10.546262915529926,172.99251268386863,167.24144455398866,0.0
0.11,3.560832465490109,-0.5944656069378913,0.0454440831549654,0.0,11.768982758507004,10.322300791135431,172.8947924678868,167.24144455398866,0.0
0.111,3.389080711203522,-0.5954626106648462,0.03777071200690241,0.0,11.683870792873602,10.13347877178431,173.2991309389705,167.24144455398866,0.0
0.112,3.2354620341607827,-0.6143334981130771,-0.22497538738477552,0.0,11.590453649450463,9.941382957515192,173.0656705052982,167.24144455398866,0.0
0.113,3.092576513629827,-0.6300658841893912,-0.16648743006171074,0.0,11.488710492536638,9.782397367118106,173.2895324139693,167.24144455398866,0.0
0.114,2.9679857747606095,-0.6574376945676975,-0.3388992629970802,0.0,11.384096667555339,9.621861964943529,173.0431783231363,167.24144455398866,0.0
0.115,2.8512132595311854,-0.6833721445030272,-0.27373955527204474,0.0,11.27646975624381,9.487409475953932,173.03903712393043,167.24144455398866,0.0
0.116,2.749405498855452,-0.7147073325380467,-0.329644881368532,0.0,11.169347813348981,9.358869490306317,172.85105394023134,167.24144455398866,0.0
0.117,2.655740832265303,-0.7461293466724187,-0.291749383381414,0.0,11.0632271358533,9.246483902691681,172.68477117049449,167.24144455398866,0.0
0.11800000000000001,2.572341168929438,-0.7788227294712754,-0.263041264678046,0.0,10.959762019312251,9.145741060467488,172.48334776054378,167.24144455398866,0.0
0.11900000000000001,2.497576992197971,-0.8116150752002841,-0.2147485917682439,0.0,10.859849354405092,9.057141166451753,172.26357447902475,167.24144455398866,0.0
0.12,2.430988870522923,-0.8440384628111435,-0.15508325025909242,0.0,10.764306615766982,8.980067307800727,172.03273011224255,167.24144455398866,0.0
0.121,2.3720336763422436,-0.8755975117847902,-0.08757392245052742,0.0,10.673758026638573,8.91379512393797,171.80126463595624,167.24144455398866,0.0
0.122,2.3201407277264785,-0.9057855682691782,-0.01743938512705201,0.0,10.588642173760272,8.857253677782067,171.5869381309645,167.24144455398866,0.0
0.123,2.27463157010557,-0.9339988109921896,0.04626893159905521,0.0,10.5091853376889,8.808648438272705,171.48029072872245,167.24144455398866,0.0
0.124,2.2350461571181945,-0.9584729330437196,0.05720417097274755,0.0,10.43522368227217,8.761423136123392,171.37964638514867,167.24144455398866,0.0
0.125,2.196894870577978,-0.9792531676772069,0.06614432444803597,0.0,10.365976746771349,8.71619905052543,171.186622904328,167.24144455398866,0.0
0.126,2.1600956187707276,-0.9950953106946664,0.12320428135497785,0.0,10.300666929646397,8.67842627849559,170.75903131525334,167.24144455398866,0.0
0.127,2.1265007258126296,-1.009017624149505,0.30182420827966405,0.0,10.239483850080816,8.660304840056206,170.25110485568672,167.24144455398866,0.0
0.128,2.10375724049725,-1.023499569729208,0.5256908350459928,0.0,10.184060725507072,8.662882201634355,169.69441240195195,167.24144455398866,0.0
0.129,2.0941408445901932,-1.0406329592871773,0.7795073834337445,0.0,10.136177502944099,8.686171037348927,169.00836426259903,167.24144455398866,0.0
0.13,2.1006436414250533,-1.0564645724774566,1.1048622560241008,0.0,10.09698162976423,8.734782066125906,168.7232257106303,167.24144455398866,0.0
0.131,2.1236672875419176,-1.0750869216152745,1.2326137204420557,0.0,10.068456589053305,8.782943943962763,168.9025955481748,167.24144455398866,0.0
0.132,2.1520768386509674,-1.0884605538453398,1.126317291727945,0.0,10.048885116251082,8.80757219398128,170.4711879678183,167.24144455398866,0.0
0.133,2.1668445220677093,-1.0956984070421991,0.3097236477678873,0.0,10.03439604326029,8.737677785504513,169.01422175880026,167.24144455398866,0.0
0.134,2.1286946178132014,-1.078495409720095,1.0204789802287955,0.0,10.0124017284835,8.764017099888804,166.8063213471657,167.24144455398866,0.0
0.135,2.1284234820781456,-1.0637140694929963,2.1287804181143093,0.0,9.993786859171061,8.899976982088097,166.92517485999355,167.24144455398866,0.0
0.136,2.1981242607818734,-1.070149957126657,2.0725163586403332,0.0,9.991485226051767,8.99553753120046,169.20561740527472,167.24144455398866,0.0
0.137,2.2645303415623284,-1.0807364122614105,0.9126533574868849,0.0,10.000069962344126,8.947681911458709,167.9898924819629,167.24144455398866,0.0
