timestamp,iq,id,iq_ref,id_ref,vq,vd,omega,omega_ref,r
0.0,0.0,0.0,0.0,0.0,0.0,0.0,0.0,181.16212920431246,0.0
0.001,0.0,0.0,10.0,0.0,0.0,1.0999999999999999,6.115472199294103,181.16212920431246,0.0
0.002,0.5307369851907212,-0.2913212625381807,10.0,0.0,0.14204533887919985,1.9316189316290207,13.317801563642547,181.16212920431246,0.0
0.003,1.0842913387634832,-0.6024330830807904,10.0,0.0,0.384357124667687,2.6386968949419622,20.697939467553027,181.16212920431246,0.0
0.004,1.5590443546685477,-0.8700465084428163,10.0,0.0,0.6994718867930164,3.2526109522886295,28.232747544420146,181.16212920431246,0.0
0.005,1.9399447555359186,-1.0838738622210777,10.0,0.0,1.065311453102468,3.7994935661768023,35.92944872443006,181.16212920431246,0.0
0.006,2.239750732602683,-1.2510087368845633,10.0,0.0,1.4655018868449925,4.299102221838433,43.75633668444442,181.16212920431246,0.0
0.007,2.4770151619816017,-1.382020589851471,10.0,0.0,1.8883740978591532,4.765668027847139,51.58766747378032,181.16212920431246,0.0
0.008,2.6680767290418097,-1.4872241871505252,10.0,0.0,2.325877945545995,5.209220346273558,59.45942083902103,181.16212920431246,0.0
0.009000000000000001,2.8266491704841292,-1.5730794701170803,10.0,0.0,2.772378685460125,5.636635464737965,67.35059094018146,181.16212920431246,0.0
0.01,2.962077666392183,-1.645500646948331,10.0,0.0,3.224078639851053,6.052647735211881,75.20908322432116,181.16212920431246,0.0
0.011,3.0811061533574158,-1.7084279320504514,10.0,0.0,3.678407615443203,6.460489925470405,83.0265951655913,181.16212920431246,0.0
0.012,3.188848746459569,-1.7638278597420747,10.0,0.0,4.133552631697047,6.862319393890706,90.74118064793086,181.16212920431246,0.0
0.013000000000000001,3.288205119878689,-1.8140726097274587,10.0,0.0,4.588339016389012,7.259628641949282,98.35820682563939,181.16212920431246,0.0
0.014,3.3820602099432007,-1.8592355758795645,10.0,0.0,5.041843166194517,7.653355107498287,105.90865295623543,181.16212920431246,0.0
0.015,3.4721069852858886,-1.899829032412081,10.0,0.0,5.493383198131427,8.044092747085895,113.37727610343421,181.16212920431246,0.0
0.016,3.5596145800153947,-1.9360338400176071,10.0,0.0,5.94241958510469,8.43218525824161,120.68508583176356,181.16212920431246,0.0
0.017,3.645144415105338,-1.9685384477868613,10.0,0.0,6.388575043274759,8.817838951066484,127.83962377537456,181.16212920431246,0.0
0.018000000000000002,3.730251927866576,-1.9959253041084188,10.0,0.0,6.83136783302799,9.201036292373047,134.85405702603322,181.16212920431246,0.0
0.019,3.81544967906247,-2.018253592643655,10.0,0.0,7.270383321112213,9.581672501020332,141.68976328564074,181.16212920431246,0.0
0.02,3.9014648862453374,-2.0350875541282063,10.0,0.0,7.705189334130692,9.959536942333155,148.3432823300447,181.16212920431246,0.0
0.021,3.9891051824829464,-2.0457889559126508,10.0,0.0,8.135310004560049,10.334315260302239,154.92060212100432,181.16212920431246,0.0
0.022,4.079618141396171,-2.0489696811670974,10.0,0.0,8.560139305503519,10.705547790999272,161.01925282597162,181.16212920431246,0.0
0.023,4.171109372430197,-2.048468292080302,10.0,0.0,8.979521969370257,11.072981092896333,166.534238406907,181.16212920431246,0.0
0.024,4.266936196769627,-2.039517194249811,10.0,0.0,9.392730090169543,11.435983292623375,171.8647834235234,181.16212920431246,0.0
0.025,4.367255527950721,-2.0225841458509217,8.2433475562836,0.0,9.79914449451603,11.6006974574623,175.58599955724662,181.16212920431246,0.0
0.026000000000000002,4.380825367004713,-1.9489043595435005,6.438500785892643,0.0,10.173453428901931,11.608125536962016,178.13513521096004,181.16212920431246,0.0
0.027,4.303395373664385,-1.8124819156700331,5.194202898969457,0.0,10.496804606836207,11.542070399750688,178.754352323312,181.16212920431246,0.0
0.028,4.168514165889696,-1.6531220733906942,4.908672111603488,0.0,10.765049795043932,11.510053119234705,174.0983193126817,181.16212920431246,0.0
0.029,4.064072200852,-1.475705890420033,7.307326715834943,0.0,10.985346554675306,11.784909204006617,181.36775862336813,181.16212920431246,0.0
0.03,4.118043063965833,-1.4014482812204436,3.6705507663011683,0.0,11.204705071638484,11.62329624118054,176.91861160975174,181.16212920431246,0.0
0.031,4.02634553578969,-1.2552147796407815,5.937559449054974,0.0,11.37062333154097,11.796145577662163,180.07924793012214,181.16212920431246,0.0
0.032,4.07340192716608,-1.151325480893542,4.368070101611677,0.0,11.527269211254973,11.766894713106405,176.38336690282006,181.16212920431246,0.0
0.033,4.057412477921373,-1.0522150548337592,6.26379823827764,0.0,11.655462162662893,11.982687914815996,179.07825211115224,181.16212920431246,0.0
0.034,4.1738162447961615,-0.9761809324338875,4.937194405043151,0.0,11.785042489897593,12.011873079624293,174.7705457741557,181.16212920431246,0.0
0.035,4.2246064974266435,-0.9071434404645613,7.154963407842992,0.0,11.897749517997024,12.303895499194947,178.60689719823682,181.16212920431246,0.0
0.036000000000000004,4.40774665746995,-0.8719057287529197,5.262340015863184,0.0,12.025202311874992,12.32798260139425,173.38462985471028,181.16212920431246,0.0
0.037,4.498948303282356,-0.7977959384493134,7.951248681122475,0.0,12.134518836768814,12.668911680420804,177.00607543824728,181.16212920431246,0.0
0.038,4.71243160758737,-0.7988379036201578,6.18208642701463,0.0,12.267852331147736,12.742611422414203,175.306891440979,181.16212920431246,0.0
0.039,4.85896972852453,-0.7232342262455478,7.090230803282103,0.0,12.386895626125188,12.925877683316614,171.90921247627531,181.16212920431246,0.0
0.04,5.012165710983589,-0.6970050666897649,8.881599452914319,0.0,12.510232046917748,13.275304578462274,178.10906503204322,181.16212920431246,0.0
0.041,5.255393432737985,-0.7218565259214591,5.812203816753058,0.0,12.659173467256666,13.221352130130178,180.8953413136608,181.16212920431246,0.0
0.042,5.287551707556959,-0.7318035778997665,4.421733554850787,0.0,12.788671161853777,13.064326163205,180.44226687537048,181.16212920431246,0.0
0.043000000000000003,5.177674902805241,-0.7448691998654868,4.655469397285365,0.0,12.890854238195104,12.987976238989749,187.21146029262772,181.16212920431246,0.0
0.044,5.067354731316811,-0.7725643429585736,1.2103793777735916,0.0,12.97809982400136,12.55921880507573,185.59833719888667,181.16212920431246,0.0
0.045,4.7945477626397235,-0.7074128901838828,1.9725788446983756,0.0,13.006301496599436,12.329260079530172,187.6035981448707,181.16212920431246,0.0
0.046,4.552665130221363,-0.7012205498264286,0.9055336823007831,0.0,13.008657486471577,12.023999451145249,188.5659023952514,181.16212920431246,0.0
0.047,4.310714651133764,-0.6653937845738498,0.3503438252010307,0.0,12.976372793743803,11.723295778304491,188.9295426253333,181.16212920431246,0.0
0.048,4.057806387585739,-0.6593397291819418,0.09084957594987353,0.0,12.91693852456415,11.451841938827808,189.28736438674386,181.16212920431246,0.0
0.049,3.8353892091729613,-0.6480046466038911,-0.16931365657971487,0.0,12.835115979825122,11.197503850285003,189.80276916690588,181.16212920431246,0.0
0.05,3.6260864637801307,-0.6589082113792344,-0.5134224462866563,0.0,12.737354623656787,10.945966111789197,189.5865031962322,181.16212920431246,0.0
0.051000000000000004,3.4325044697383564,-0.6666508626036136,-0.48953320086901675,0.0,12.62495828524263,10.735075908309808,189.81697793436217,181.16212920431246,0.0
0.052000000000000005,3.263228780441307,-0.6896695201872103,-0.6913190572344989,0.0,12.505167186143904,10.528284260564828,189.6277133082689,181.16212920431246,0.0
0.053,3.107685270776674,-0.7140033867152265,-0.6813425852274317,0.0,12.3791225709228,10.348724967339038,189.4842638388112,181.16212920431246,0.0
0.054,2.970657949975971,-0.7444405554853717,-0.6928391968435585,0.0,12.250831237800663,10.18667032010731,189.2325831396828,181.16212920431246,0.0
0.055,2.849250424172432,-0.7778847587750539,-0.6477033866330615,0.0,12.122538063941729,10.045056464156234,188.9396429447663,181.16212920431246,0.0
0.056,2.74318675996485,-0.8139390233053538,-0.5790084265793514,0.0,11.99654434893902,9.922332691722978,188.66494758721223,181.16212920431246,0.0
0.057,2.65134927203207,-0.8513691938733223,-0.5166889316313159,0.0,11.874634404310424,9.814491606907051,188.3776056601724,181.16212920431246,0.0
0.058,2.5708741551025076,-0.8887768478041129,-0.4451727326700059,0.0,11.75787188588981,9.720421111029045,188.03995867878996,181.16212920431246,0.0
0.059000000000000004,2.5002055649902863,-0.924956556883833,-0.3451275367235569,0.0,11.646984261182912,9.641340016204325,187.68353591681353,181.16212920431246,0.0
0.06,2.4393954813630505,-0.9595850181257957,-0.23213022286035123,0.0,11.54272462311005,9.576489944254748,187.34288915169844,181.16212920431246,0.0
0.061,2.3881318443119373,-0.9921302025736557,-0.12361443977667008,0.0,11.445639627326363,9.523536577932765,187.07907885164542,181.16212920431246,0.0
0.062,2.3456929731516842,-1.0208531300069823,-0.05087878622348807,0.0,11.355801864662036,9.47724145218174,186.87348792054522,181.16212920431246,0.0
0.063,2.3082163038671593,-1.045943409382391,-0.005196907835713471,0.0,11.272791067145999,9.434587757736205,186.45941924989006,181.16212920431246,0.0
0.064,2.2732519171432295,-1.0666311516923352,0.14886452703608777,0.0,11.195840728797355,9.407859607882429,185.81920653108475,181.16212920431246,0.0
0.065,2.2469136230765825,-1.0847273581378067,0.4224001131710229,0.0,11.125696314584097,9.40720510778538,185.25785643477178,181.16212920431246,0.0
0.066,2.2351005881391917,-1.105433992309074,0.6621178890229116,0.0,11.064597659476842,9.424271266661519,184.41645262260204,181.16212920431246,0.0
0.067,2.2377917616184213,-1.124175204387797,1.050276560924888,0.0,11.013169952754877,9.473407060857925,183.89048838948523,181.16212920431246,0.0
0.068,2.261262360255936,-1.1437447630496536,1.285975085631565,0.0,10.97376383545677,9.531976901845875,183.57455301500838,181.16212920431246,0.0
0.069,2.2944089869350934,-1.1624838215664475,1.4198185347630314,0.0,10.946020914837487,9.589703518214279,183.94501533429226,181.16212920431246,0.0
0.07,2.332217082144249,-1.1708966132954437,1.2067585138212897,0.0,10.927562964422004,9.610280719882798,185.6406602763501,181.16212920431246,0.0
0.07100000000000001,2.3455867459315116,-1.1749619818013892,0.3141507320719934,0.0,10.91337159183328,9.5298055684954,182.86520063364827,181.16212920431246,0.0
0.07200000000000001,2.3056107205655083,-1.1438501384690816,1.6848498391295519,0.0,10.889088884913077,9.620192834009826,180.45600750531906,181.16212920431246,0.0
0.073,2.3390799544485925,-1.1321502995385018,2.8965076202840896,0.0,10.875297311387293,9.814607091156414,182.02136286688523,181.16212920431246,0.0
0.074,2.4495189170537235,-1.1478907647106718,2.1052376028752806,0.0,10.884174770486997,9.877230891961519,184.05462537137961,181.16212920431246,0.0
0.075,2.511211602799084,-1.150986928984305,1.059681388957415,0.0,10.898610037175619,9.821699769433268,180.55828217527156,181.16212920431246,0.0
0.076,2.501577959582454,-1.1138594607201338,2.8138914573018527,0.0,10.901933681790752,9.978260583095055,177.8148991051229,181.16212920431246,0.0
0.077,2.5849220960213377,-1.0951607398901853,4.219055293368083,0.0,10.9188954587019,10.24725940969557,181.61952551413012,181.16212920431246,0.0
0.078,2.7451117941654086,-1.1227765114349189,2.312168125766292,0.0,10.964285662660204,10.250457879098834,181.4749385763887,181.16212920431246,0.0
0.079,2.7933868017175767,-1.1076061024973323,2.381333500916241,0.0,11.003511790464424,10.280844231050814,176.49207618349763,181.16212920431246,0.0
0.08,2.834417085393529,-1.0566358997315228,4.919465227569922,0.0,11.03639892246856,10.586586815639592,179.91308069328414,181.16212920431246,0.0
0.081,3.007852534184797,-1.0618537077698393,3.2214534577869482,0.0,11.097655260643029,10.634213646496963,180.10744648180466,181.16212920431246,0.0
0.082,3.0825816051150543,-1.04838007559647,3.134817390751769,0.0,11.156014370466334,10.684167735095587,174.8810964064721,181.16212920431246,0.0
0.083,3.1491816753727653,-0.9904595745954109,5.810802756396454,0.0,11.20729645937879,11.023608359688902,179.84672481646047,181.16212920431246,0.0
0.084,3.3471545366675732,-1.002039956084066,3.3411425952807887,0.0,11.289247448833096,11.014699645295105,175.7348570003389,181.16212920431246,0.0
0.085,3.4096203948580754,-0.9658968984067662,5.451349225381304,0.0,11.358020927743198,11.266804716420328,177.362134693379,181.16212920431246,0.0
0.08600000000000001,3.579190096264295,-0.9369795683554132,4.6757103239705895,0.0,11.442308090145938,11.376126274295073,176.232464774645,181.16212920431246,0.0
0.08700000000000001,3.6878596587785144,-0.9217325670670224,5.289841927634269,0.0,11.52771069525467,11.547997303177231,175.37417198329302,181.16212920431246,0.0
0.088,3.839550580782191,-0.8729764288620163,5.776867895520448,0.0,11.616549437551084,11.743053724317626,175.71092340398235,181.16212920431246,0.0
0.089,3.9876181089887717,-0.8696962123247682,5.663004243179087,0.0,11.716136685294838,11.895322597254523,174.66424643814838,181.16212920431246,0.0
0.09,4.146039761187665,-0.8178024234108525,6.251321553757712,0.0,11.815316580942751,12.09223114189936,173.71235398095496,181.16212920431246,0.0
0.091,4.300438115486131,-0.8120556405533952,6.801765534587998,0.0,11.924156133265178,12.318632883979202,175.42396572001027,181.16212920431246,0.0
0.092,4.498824291990827,-0.7779769160740646,6.003341299903362,0.0,12.041060712699194,12.419668805587161,170.68965046517036,181.16212920431246,0.0
0.093,4.633377078863113,-0.7344517603357338,8.47522371471474,0.0,12.15193144646418,12.789365956162914,174.4430365470242,181.16212920431246,0.0
0.094,4.882998700952485,-0.7484509189948497,6.665721600360699,0.0,12.290659980920132,12.88330355776943,173.79632890028046,181.16212920431246,0.0
0.095,5.052350653831712,-0.6848898765381658,7.062733426772894,0.0,12.417777715834312,13.027354076113948,172.28488160091868,181.16212920431246,0.0
0.096,5.177686238685489,-0.6832554413758144,7.9072295524877205,0.0,12.547044551648229,13.24654237687482,180.28478898172904,181.16212920431246,0.0
0.097,5.286297474087989,-0.783828132091864,3.916049264308376,0.0,12.696382874287234,12.998569858138382,182.55990212236713,181.16212920431246,0.0
0.098,5.177548431270387,-0.7643865358215146,2.764514964808781,0.0,12.802845810291798,12.716619960540287,182.08209400227912,181.16212920431246,0.0
0.099,4.955683586472252,-0.7447895796818235,2.9942193768731213,0.0,12.868506213723432,12.53361181712415,187.91511480243864,181.16212920431246,0.0
0.1,4.7638034199310395,-0.7317063311171701,0.010179120812101594,0.0,12.908056574689574,12.063817225976985,184.7636974388461,181.16212920431246,0.0
0.101,4.440531570262203,-0.66600883469486,1.549872120263037,0.0,12.889576548323578,11.877804864339527,188.27470318989603,181.16212920431246,0.0
0.10200000000000001,4.21683611631697,-0.6672971253628904,-0.27675649511776657,0.0,12.855141975368145,11.5135934399801,186.72946700423242,181.16212920431246,0.0
0.10300000000000001,3.95646814010765,-0.6294844523160061,0.44018821971483924,0.0,12.783557440330465,11.305893428390045,187.9702536706915,181.16212920431246,0.0
0.10400000000000001,3.7537859407625556,-0.6438054178510497,-0.2482863581784942,0.0,12.700314790576881,11.048594675904502,187.65466269564416,181.16212920431246,0.0
0.105,3.559037852071484,-0.64775131662635,-0.15541620556814006,0.0,12.599957369760036,10.84519746402079,188.20503055598192,181.16212920431246,0.0
0.106,3.3900979554362762,-0.6729412989063245,-0.5010291492537138,0.0,12.492027408899538,10.62979401365521,187.9993462713279,181.16212920431246,0.0
0.107,3.2294660896464142,-0.6943389562434342,-0.4665591775968623,0.0,12.375451941572823,10.448365844829786,188.10136810164036,181.16212920431246,0.0
0.108,3.0877539212706457,-0.7246441447789722,-0.586962481726367,0.0,12.25551079826177,10.273815902846847,187.92805727953362,181.16212920431246,0.0
0.109,2.9572570564388276,-0.7557763977485806,-0.5679663514252073,0.0,12.133230271024834,10.120957981553268,187.75660674777788,181.16212920431246,0.0
0.11,2.8413790454193224,-0.7898475995750767,-0.5481858609819925,0.0,12.01132851405345,9.984585304874926,187.56828343019475,181.16212920431246,0.0
0.111,2.7385865604877453,-0.8253166291211514,-0.5180857444492526,0.0,11.89154054634317,9.862921321313713,187.3361704156453,181.16212920431246,0.0
0.112,2.647023201457799,-0.8611222057539917,-0.46376964928786046,0.0,11.775148900181954,9.75616275328401,187.05611740510497,181.16212920431246,0.0
0.113,2.5660556662608265,-0.8965080442116524,-0.38268302602561466,0.0,11.6632549482979,9.664808040329753,186.7473837650576,181.16212920431246,0.0
0.114,2.495574538028915,-0.9311472379485258,-0.2841687516093838,0.0,11.556871373233307,9.588368356189214,186.4268841646693,181.16212920431246,0.0
0.115,2.4352548113598025,-0.9645483625950578,-0.1765665010188009,0.0,11.456809919034868,9.525715746428364,186.1275727765406,181.16212920431246,0.0
0.116,2.3844588821064434,-0.9959878765642878,-0.07656524267673204,0.0,11.363613684570339,9.474230723086652,185.90943428907002,181.16212920431246,0.0
0.117,2.3422230460647926,-1.0235486046174098,-0.014969049789016253,0.0,11.27730585616424,9.42848812993893,185.74004110942272,181.16212920431246,0.0
0.11800000000000001,2.3044248421481486,-1.0474739359013,0.02394842098353145,0.0,11.197410730444679,9.386089417191894,185.32786739010044,181.16212920431246,0.0
0.11900000000000001,2.2691032511635894,-1.0667020041945559,0.188377898786793,0.0,11.123141080221789,9.36114652396737,184.7551590104022,181.16212920431246,0.0
0.12,2.2427322729998425,-1.0846280565563482,0.4388017905750168,0.0,11.055583690775597,9.359720880049847,184.17023470650807,181.16212920431246,0.0
0.121,2.2301534622435817,-1.104421783499038,0.7011828875001238,0.0,10.996637525322356,9.379159702724888,183.33531089536712,181.16212920431246,0.0
0.122,2.2334657841875907,-1.1228172223259683,1.0969129761600542,0.0,10.947355419683475,9.43117638184904,182.8761353227605,181.16212920431246,0.0
0.123,2.258209835137164,-1.14255203474848,1.3093607012788864,0.0,10.910190067499105,9.489786408988351,182.58174855925927,181.16212920431246,0.0
0.124,2.291818739647046,-1.1603143085146468,1.44235788948003,0.0,10.884358755237153,9.547874572659639,183.58355283825415,181.16212920431246,0.0
0.125,2.329027907067928,-1.1691701690710512,0.9172415136431717,0.0,10.86771591249207,9.534721096142338,184.3278510845251,181.16212920431246,0.0
0.126,2.3236170356601344,-1.168164492781953,0.5134351717055736,0.0,10.851222823372405,9.483018436676558,181.4416748691112,181.16212920431246,0.0
0.127,2.294372314593965,-1.1378877397055958,1.9537278227645278,0.0,10.827888391142615,9.600469799884447,179.6765288648907,181.16212920431246,0.0
0.128,2.3451509891681637,-1.1322063493251333,2.851156828268994,0.0,10.818310353045506,9.78227874622965,181.7142164847943,181.16212920431246,0.0
0.129,2.451898106428849,-1.1511965764992715,1.826792145512386,0.0,10.83001675228559,9.812060192819418,183.03061599548803,181.16212920431246,0.0
0.13,2.494386746983182,-1.1493354899534616,1.1499075222537591,0.0,10.843136034468865,9.772214193654962,179.20338622847407,181.16212920431246,0.0
0.131,2.4894611699128912,-1.1083315586522429,3.0831098355191235,0.0,10.846466966939683,9.958052523200333,177.82414158719126,181.16212920431246,0.0
0.132,2.588500498448279,-1.0955764296581019,3.8061120323317406,0.0,10.867055614241618,10.17489474964539,181.04868676082478,181.16212920431246,0.0
0.133,2.7252993312867835,-1.1171359357980117,2.1949738699498598,0.0,10.909768716423196,10.173598920019112,179.51711051387937,181.16212920431246,0.0
0.134,2.7651979925746684,-1.0966582221394137,2.9772121803268936,0.0,10.94561278186014,10.275840714925636,175.37481227966677,181.16212920431246,0.0
0.135,2.840782128159853,-1.0582582081288754,5.106234466679652,0.0,10.984077395839476,10.589897536978741,180.17152075726582,181.16212920431246,0.0
0.136,3.0239107312847344,-1.0778508983343225,2.717786312350591,0.0,11.052640426688887,10.572987313396862,178.2489617173701,181.16212920431246,0.0
0.137,3.070339578183435,-1.0506755111502417,3.7081975071678803,0.0,11.109470912602866,10.694178241103693,175.02047716872846,181.16212920431246,0.0
