timestamp,iq,id,iq_ref,id_ref,vq,vd,omega,omega_ref,r
0.0,0.0,0.0,0.0,0.0,0.0,0.0,0.0,161.99789861346514,0.0
0.001,0.0,0.0,10.0,0.0,0.0,1.0999999999999999,6.115472199294103,161.99789861346514,0.0
0.002,0.5307369851907212,-0.2913212625381807,10.0,0.0,0.14204533887919985,1.9316189316290207,13.317801563642547,161.99789861346514,0.0
0.003,1.0842913387634832,-0.6024330830807904,10.0,0.0,0.384357124667687,2.6386968949419622,20.697939467553027,161.99789861346514,0.0
0.004,1.5590443546685477,-0.8700465084428163,10.0,0.0,0.6994718867930164,3.2526109522886295,28.232747544420146,161.99789861346514,0.0
0.005,1.9399447555359186,-1.0838738622210777,10.0,0.0,1.065311453102468,3.7994935661768023,35.92944872443006,161.99789861346514,0.0
0.006,2.239750732602683,-1.2510087368845633,10.0,0.0,1.4655018868449925,4.299102221838433,43.75633668444442,161.99789861346514,0.0
0.007,2.4770151619816017,-1.382020589851471,10.0,0.0,1.8883740978591532,4.765668027847139,51.58766747378032,161.99789861346514,0.0
0.008,2.6680767290418097,-1.4872241871505252,10.0,0.0,2.325877945545995,5.209220346273558,59.45942083902103,161.99789861346514,0.0
0.009000000000000001,2.8266491704841292,-1.5730794701170803,10.0,0.0,2.772378685460125,5.636635464737965,67.35059094018146,161.99789861346514,0.0
0.01,2.962077666392183,-1.645500646948331,10.0,0.0,3.224078639851053,6.052647735211881,75.20908322432116,161.99789861346514,0.0
0.011,3.0811061533574158,-1.7084279320504514,10.0,0.0,3.678407615443203,6.460489925470405,83.0265951655913,161.99789861346514,0.0
0.012,3.188848746459569,-1.7638278597420747,10.0,0.0,4.133552631697047,6.862319393890706,90.74118064793086,161.99789861346514,0.0
0.013000000000000001,3.288205119878689,-1.8140726097274587,10.0,0.0,4.588339016389012,7.259628641949282,98.35820682563939,161.99789861346514,0.0
0.014,3.3820602099432007,-1.8592355758795645,10.0,0.0,5.041843166194517,7.653355107498287,105.90865295623543,161.99789861346514,0.0
0.015,3.4721069852858886,-1.899829032412081,10.0,0.0,5.493383198131427,8.044092747085895,113.37727610343421,161.99789861346514,0.0
0.016,3.5596145800153947,-1.9360338400176071,10.0,0.0,5.94241958510469,8.43218525824161,120.68508583176356,161.99789861346514,0.0
0.017,3.645144415105338,-1.9685384477868613,10.0,0.0,6.388575043274759,8.817838951066484,127.83962377537456,161.99789861346514,0.0
0.018000000000000002,3.730251927866576,-1.9959253041084188,10.0,0.0,6.83136783302799,9.201036292373047,134.85405702603322,161.99789861346514,0.0
0.019,3.81544967906247,-2.018253592643655,10.0,0.0,7.270383321112213,9.581672501020332,141.68976328564074,161.99789861346514,0.0
0.02,3.9014648862453374,-2.0350875541282063,10.0,0.0,7.705189334130692,9.959536942333155,148.3432823300447,161.99789861346514,0.0
0.021,3.9891051824829464,-2.0457889559126508,10.0,0.0,8.135310004560049,10.334315260302239,154.92060212100432,161.99789861346514,0.0
0.022,4.079618141396171,-2.0489696811670974,6.784010353533919,0.0,8.560139305503519,10.351788929888007,158.88539906652454,161.99789861346514,0.0
0.023,4.003703100545561,-1.9573320950938178,4.832736876243215,0.0,8.93412110159062,10.236773760654922,161.47114556831383,161.99789861346514,0.0
0.024,3.829279835912298,-1.7886559197766445,3.545131155800084,0.0,9.241565197721542,10.06696180217917,161.23288129165618,161.99789861346514,0.0
0.025,3.5981415053099512,-1.6135742081243811,3.6719134673469958,0.0,9.483711461863221,9.995378544358605,158.376523721288,161.99789861346514,0.0
0.026000000000000002,3.434230252274282,-1.4378051478065124,5.136306001452855,0.0,9.676900994290232,10.130702448898337,163.65451677532036,161.99789861346514,0.0
0.027,3.3980256761647394,-1.340284608801782,2.4807432928181274,0.0,9.855334395241172,9.967400483777611,161.62159867825537,161.99789861346514,0.0
0.028,3.2638016659260143,-1.213649444500204,3.5009653407027215,0.0,9.98663959690182,9.991454702982873,159.977646804476,161.99789861346514,0.0
0.029,3.2233088290716667,-1.090580814925603,4.343143795682298,0.0,10.094948502706739,10.11178340195417,162.67723055031595,161.99789861346514,0.0
0.03,3.249133309372928,-1.033315409601353,2.986558603393811,0.0,10.199390879538376,10.070018344705618,158.92874611127945,161.99789861346514,0.0
0.031,3.23252984114666,-0.9486908774222078,4.891492347933919,0.0,10.28047646847553,10.268067220995285,161.63020674343454,161.99789861346514,0.0
0.032,3.3298322415753425,-0.9073597658995098,3.5444389505566805,0.0,10.36955820920223,10.276325258663382,158.5566511438442,161.99789861346514,0.0
0.033,3.363216784389219,-0.8575722810763784,5.115629225048064,0.0,10.445494267407751,10.476267855099925,160.78699287244456,161.99789861346514,0.0
0.034,3.491496544977634,-0.8205028897130577,4.0125674181580875,0.0,10.53025122123464,10.512984167973974,157.3765464197652,161.99789861346514,0.0
0.035,3.5523787013882333,-0.7847517838070919,5.76400416643477,0.0,10.606642183230225,10.752778965723351,160.3129436961916,161.99789861346514,0.0
0.036000000000000004,3.7133036776727737,-0.7638455529364598,4.312655077394297,0.0,10.697431354464477,10.781977686792938,155.91576253364477,161.99789861346514,0.0
0.037,3.7916099053075123,-0.7203945618912639,6.572067019465922,0.0,10.777490933975997,11.073379822120305,159.7996322001269,161.99789861346514,0.0
0.038,3.9778064258658343,-0.7242143983878566,4.652114850358241,0.0,10.87953946099418,11.090160288858455,156.03499887172165,161.99789861346514,0.0
0.039,4.072873765360604,-0.6645484003901603,6.594060511978295,0.0,10.966459723839645,11.339685663955049,157.2805077765252,161.99789861346514,0.0
0.04,4.237455688489333,-0.6679535512704289,6.018479967945916,0.0,11.07061172448703,11.473063873217555,158.4349635634264,161.99789861346514,0.0
0.041,4.389808566613381,-0.6282662184490324,5.476881424995706,0.0,11.173286687876775,11.534586429971995,153.45519078086454,161.99789861346514,0.0
0.042,4.491695395619359,-0.5781271843659337,8.052194894602644,0.0,11.266727990182057,11.879240672066807,158.10514371060654,161.99789861346514,0.0
0.043000000000000003,4.69721098868613,-0.6302939551394693,5.766145978760231,0.0,11.391530321592217,11.89996725779665,163.74797361883762,161.99789861346514,0.0
0.044,4.755748839768406,-0.6667770664593464,2.9272302745909666,0.0,11.509416552971791,11.637297172105953,162.00583739465722,161.99789861346514,0.0
0.045,4.616882784037135,-0.6390354378943086,3.7982189988692454,0.0,11.58583074238899,11.552741279475839,165.38306937208708,161.99789861346514,0.0
0.046,4.491164649196209,-0.6580687809559884,2.075751302568097,0.0,11.648519007623891,11.298541395489742,167.14825420722303,161.99789861346514,0.0
0.047,4.311805440559965,-0.6160787876809048,1.1416553290625409,0.0,11.67470922524581,11.00897677790472,166.21562542501434,161.99789861346514,0.0
0.048,4.079144280313631,-0.5907886344810713,1.5657924520513964,0.0,11.666961942427815,10.830782822644958,167.54129131363266,161.99789861346514,0.0
0.049,3.9050146448582486,-0.5761728321532749,0.8475255807405628,0.0,11.640815155641578,10.60321045585292,168.5591231066128,161.99789861346514,0.0
0.05,3.717596819216824,-0.5796753952073943,0.27299743931902,0.0,11.595057250813996,10.358639884684207,168.42632910991375,161.99789861346514,0.0
0.051000000000000004,3.533450735244327,-0.5652074105343727,0.27511013270405194,0.0,11.527791575407722,10.158310148816733,169.09501777131416,161.99789861346514,0.0
0.052000000000000005,3.3651719709813346,-0.5770344679013883,-0.1302053895746429,0.0,11.448665150112431,9.943350187840075,168.66640401431653,161.99789861346514,0.0
0.053,3.2059518334058694,-0.5801572382936022,0.017416434915660695,0.0,11.356180605418476,9.778096563838947,169.04339917831408,161.99789861346514,0.0
0.054,3.0708262611613093,-0.6033196346563139,-0.24153615273160334,0.0,11.25893578868978,9.603430456453584,168.7301759247949,161.99789861346514,0.0
0.055,2.9444794524410485,-0.6226888267138238,-0.1522472990853161,0.0,11.155847830058118,9.46146467114823,168.8867984492766,161.99789861346514,0.0
0.056,2.8354329269855683,-0.6522770861595801,-0.2994475596842765,0.0,11.051933105377547,9.317033401020801,168.6325428522969,161.99789861346514,0.0
0.057,2.732643431118455,-0.6800434618800426,-0.23866620358274204,0.0,10.946725144887079,9.195028116506043,168.5637814096991,161.99789861346514,0.0
0.058,2.6422903910397753,-0.7117083659368678,-0.2699443102461796,0.0,10.843042927683232,9.079565098549704,168.36482316997933,161.99789861346514,0.0
0.059000000000000004,2.559239762865081,-0.743142640040553,-0.23413443595144257,0.0,10.74132375151497,8.977764066606097,168.17458040531903,161.99789861346514,0.0
0.06,2.4847374490347005,-0.7751541811705278,-0.20077987153983257,0.0,10.642803316552438,8.886646871821952,167.95817200430605,161.99789861346514,0.0
0.061,2.4177155666144516,-0.8068296009609137,-0.15217840494175006,0.0,10.548187386373383,8.80642935262956,167.73145730470532,161.99789861346514,0.0
0.062,2.357782588943877,-0.8378255660672297,-0.09615664205378494,0.0,10.458104099256788,8.736370780309764,167.49884652726038,161.99789861346514,0.0
0.063,2.3044151775678348,-0.8676643479728601,-0.03486073246927113,0.0,10.372995589978428,8.675763154410362,167.27206064027106,161.99789861346514,0.0
0.064,2.2570874288386396,-0.8958934305755069,0.025790590757329035,0.0,10.293143980305198,8.623436504878596,167.07145238938654,161.99789861346514,0.0
0.065,2.2151322525459602,-0.9219076260788279,0.07535917844037954,0.0,10.218624137325452,8.577345182650456,166.9952146692733,161.99789861346514,0.0
0.066,2.178050285302974,-0.9438178969995403,0.06350487793891091,0.0,10.149097134267112,8.530270814048961,166.8982497943665,161.99789861346514,0.0
0.067,2.140796237284766,-0.9619377440418065,0.06298380358329858,0.0,10.0835894751199,8.484739532437256,166.63097207689523,161.99789861346514,0.0
0.068,2.1041818668539323,-0.9754126372020852,0.15029192768463462,0.0,10.021380493503449,8.450474757733913,166.18485385708595,161.99789861346514,0.0
0.069,2.0723445349258123,-0.9886199932327195,0.33148148515306586,0.0,9.963283992810073,8.43560929522756,165.63494261724998,161.99789861346514,0.0
0.07,2.0524084930966016,-1.002005112438222,0.5700666650332069,0.0,9.910850885487699,8.442727794396562,165.08840974168902,161.99789861346514,0.0
0.07100000000000001,2.0463144855277604,-1.01885385646974,0.8124279915314458,0.0,9.866092449465876,8.468636007446715,164.47707974075865,161.99789861346514,0.0
0.07200000000000001,2.055513656921658,-1.0344474915833526,1.0933011807236936,0.0,9.829947490773431,8.51487714420682,164.1901390063739,161.99789861346514,0.0
0.073,2.0784016266164613,-1.0518894478126797,1.2148491439869846,0.0,9.803803820460331,8.561015530536217,164.98483069167634,161.99789861346514,0.0
0.074,2.106132269421175,-1.0636967113748694,0.7876339805536534,0.0,9.786012735241028,8.548895072579494,166.15208522432684,161.99789861346514,0.0
0.075,2.0996892072468194,-1.0670649708625648,0.162464848119785,0.0,9.769041148656008,8.472697142230349,163.77812617102228,161.99789861346514,0.0
0.076,2.056037597475228,-1.0410007357669968,1.3316420991964932,0.0,9.743246179239188,8.542020281653528,162.08361388977153,161.99789861346514,0.0
0.077,2.0759198325174877,-1.0350137184754398,2.178041087058806,0.0,9.726565091155248,8.680620164394425,163.22493536013755,161.99789861346514,0.0
0.078,2.1522349024276255,-1.0488855599689517,1.5951099844090701,0.0,9.726997872890996,8.722909703543051,165.0051419276957,161.99789861346514,0.0
0.079,2.19205749041846,-1.0541671073972818,0.674934267487695,0.0,9.732058582170215,8.662006215135648,162.51536781696151,161.99789861346514,0.0
0.08,2.1701861564489793,-1.0269922494710217,1.9146466308198185,0.0,9.727480821834597,8.756073336249205,160.07391644057432,161.99789861346514,0.0
0.081,2.2132493752217224,-1.0122878301357818,3.154612140742323,0.0,9.731421812096285,8.959319384271302,162.4997591886507,161.99789861346514,0.0
0.082,2.3292319605557377,-1.0305543081083401,1.9366721609522788,0.0,9.757449664904343,8.983934421442212,164.11119171966817,161.99789861346514,0.0
0.083,2.3729201949933265,-1.026145048792408,1.1098229643815127,0.0,9.78266855284421,8.926270848417161,160.0297211916886,161.99789861346514,0.0
0.084,2.360072402323723,-0.9801351506033129,3.1702400025890665,0.0,9.794582198479949,9.113660027195172,159.59940097207803,161.99789861346514,0.0
0.085,2.457957988399431,-0.9668927471181975,3.4093850888082198,0.0,9.823046832028437,9.27830754936596,162.48728707502542,161.99789861346514,0.0
0.08600000000000001,2.5674951230528698,-0.9810866195957715,1.9605481527189217,0.0,9.866823504446543,9.256503039891387,159.54407077113748,161.99789861346514,0.0
0.08700000000000001,2.592006887639954,-0.9520170514327636,3.456694583086166,0.0,9.900702467452671,9.418720202549324,158.6011315763936,161.99789861346514,0.0
0.088,2.694005608136859,-0.927496978683148,3.9621318508288175,0.0,9.945008738103155,9.597765438781316,161.5097803172697,161.99789861346514,0.0
0.089,2.811534870577214,-0.9386946522042802,2.5126886633527272,0.0,10.004265850126613,9.586935423491884,157.83682583119392,161.99789861346514,0.0
0.09,2.8496917994876885,-0.9000261932541672,4.39077663421333,0.0,10.052148742199053,9.801176260047422,159.56398460162114,161.99789861346514,0.0
0.091,2.981126512124781,-0.8844910222783333,3.5515363891181586,0.0,10.115345244501968,9.873607746384604,159.46082206434147,161.99789861346514,0.0
0.092,3.055773723446512,-0.8732792173405886,3.628488423249231,0.0,10.178387298374908,9.955076014404703,156.22947895112497,161.99789861346514,0.0
0.093,3.1421241921214844,-0.8230069860266492,5.301844176480881,0.0,10.237854146267416,10.20924919408323,159.88794821172996,161.99789861346514,0.0
0.094,3.296315979706201,-0.8374617372097117,3.4937090501957386,0.0,10.318884372281795,10.212225727211905,155.559648660838,161.99789861346514,0.0
0.095,3.3641626200312316,-0.7884119162025137,5.722241325167987,0.0,10.386569201184988,10.480306318579041,159.35561969142876,161.99789861346514,0.0
0.096,3.5282743459545594,-0.7917485517896239,3.850678599092977,0.0,10.475151134459226,10.482816287633492,154.5739668078037,161.99789861346514,0.0
0.097,3.5996084685487304,-0.7398665763418986,6.315744358962112,0.0,10.549385487656366,10.777600677730156,158.5310109129999,161.99789861346514,0.0
0.098,3.778677710417257,-0.7502186874157166,4.371891183368669,0.0,10.647332396516056,10.792871281843299,154.62502832945268,161.99789861346514,0.0
0.099,3.868689145471505,-0.6931731156721602,6.398611177982408,0.0,10.730633140898556,11.050676682157258,156.70999096134506,161.99789861346514,0.0
0.1,4.033089225115066,-0.7002442910242915,5.4090089385574185,0.0,10.83273263588038,11.144724276184938,156.23929100738872,161.99789861346514,0.0
0.101,4.164883742017181,-0.6505589127898244,5.701944991596354,0.0,10.928490837407475,11.268842652473765,152.8241053491104,161.99789861346514,0.0
0.10200000000000001,4.278713148318965,-0.629255160696712,7.50127575337906,0.0,11.025238497462842,11.573918745027958,156.49497369490157,161.99789861346514,0.0
0.10300000000000001,4.4919070236869745,-0.6358850447622404,5.720870829669107,0.0,11.143761325536229,11.62201111287888,156.95485292900386,161.99789861346514,0.0
0.10400000000000001,4.615410578419701,-0.581740808643748,5.541361669462576,0.0,11.249218942773686,11.66375111609951,156.85732659463156,161.99789861346514,0.0
0.105,4.640515357240528,-0.6191236662828792,5.641530556837063,0.0,11.35295835531095,11.723150059812117,162.92447412830606,161.99789861346514,0.0
0.106,4.650465629813246,-0.673231199853872,2.598691034851404,0.0,11.457841721082161,11.450425531920231,163.0081122181858,161.99789861346514,0.0
0.107,4.5001056112073154,-0.6361371903186888,2.5467698538643266,0.0,11.520342881102483,11.256817963478316,163.28289332012525,161.99789861346514,0.0
0.108,4.318510873605467,-0.6280804578354934,2.396529355827999,0.0,11.556717867798785,11.09128584585864,167.42666453125292,161.99789861346514,0.0
0.109,4.162538787506192,-0.6108078084388413,0.27035609108628567,0.0,11.571082719954688,10.728908766624237,164.98967101497882,161.99789861346514,0.0
0.11,3.90925743228784,-0.5700020064471523,1.4589351252081992,0.0,11.543457467246443,10.582512535142722,168.56914862911182,161.99789861346514,0.0
0.111,3.740431937337896,-0.5719331696250876,-0.39651618201476646,0.0,11.504575602630357,10.248045958295101,165.94225284116214,161.99789861346514,0.0
0.112,3.5146204308918856,-0.5388984212683137,0.8774881696831027,0.0,11.432482132840093,10.124983855189187,167.36757416413693,161.99789861346514,0.0
0.113,3.3717254588316536,-0.5623030757010274,0.11113075268899397,0.0,11.358196659189433,9.923439587890671,166.94838117923328,161.99789861346514,0.0
0.114,3.2298639699373433,-0.5684372729490944,0.2712224194831352,0.0,11.271626021326949,9.774070671532012,167.54211235147386,161.99789861346514,0.0
0.115,3.106194292312849,-0.5988602277797817,-0.08108530401724234,0.0,11.18206073867374,9.602811866419735,167.14822007386675,161.99789861346514,0.0
0.116,2.9855674371787897,-0.6184024489225038,0.06435762018229507,0.0,11.086171518552014,9.47127646973882,167.4797200490825,161.99789861346514,0.0
0.117,2.881508719780521,-0.6513018718792801,-0.15621058178174607,0.0,10.990141195088192,9.327828949618258,167.28660392473662,161.99789861346514,0.0
0.11800000000000001,2.7802877782521187,-0.678130900214795,-0.11253957272152881,0.0,10.891991350846032,9.206226358573772,167.34442447131133,161.99789861346514,0.0
0.11900000000000001,2.6886960883417963,-0.7099215523535309,-0.1949151045873423,0.0,10.794724913375546,9.08653390008853,167.17338057585766,161.99789861346514,0.0
0.12,2.6021907280243313,-0.7391983795836955,-0.16114797648443568,0.0,10.698118418277517,8.982221855850558,167.07092274727862,161.99789861346514,0.0
0.121,2.5239510832264473,-0.7699984564844481,-0.16064930353304607,0.0,10.603836608452271,8.886138856594794,166.89032030522517,161.99789861346514,0.0
0.122,2.452372069289727,-0.7998674240611943,-0.11927229942392614,0.0,10.512352265348412,8.801873755089638,166.71421867819598,161.99789861346514,0.0
0.123,2.3880988267097774,-0.8296137651928608,-0.07838468655663577,0.0,10.424563254253137,8.727324863343345,166.51449732522346,161.99789861346514,0.0
0.124,2.3304854366847607,-0.8583784777089806,-0.023689997187960277,0.0,10.340964910058215,8.662754239840993,166.31677895561253,161.99789861346514,0.0
0.125,2.2792994381343523,-0.886009199728977,0.03198038419602822,0.0,10.26202107022959,8.606911965268226,166.12907555105454,161.99789861346514,0.0
0.126,2.23392662411526,-0.9118958170399275,0.08452031709913088,0.0,10.187958607610554,8.558461372531971,165.98855102495648,161.99789861346514,0.0
0.127,2.1936037327049895,-0.9353333414201925,0.11487605603324846,0.0,10.11877659348852,8.514245114676099,165.95523093609955,161.99789861346514,0.0
0.128,2.157237177355,-0.954199572872093,0.09196277723536683,0.0,10.053932065209008,8.468305355310896,165.88313182394356,161.99789861346514,0.0
0.129,2.120138582829084,-0.9692421019845033,0.08916000120858047,0.0,9.99244402970877,8.42411312632365,165.4946248587119,161.99789861346514,0.0
0.13,2.083241222316999,-0.980839606068817,0.24844622137194827,0.0,9.933810875017983,8.399428552374411,165.00492137625943,161.99789861346514,0.0
0.131,2.0562548097557025,-0.9928392118956866,0.46322773497023295,0.0,9.87977656000146,8.395981756421815,164.54095329874175,161.99789861346514,0.0
0.132,2.042222723587186,-1.0084838124494147,0.6697812268763053,0.0,9.832401906893974,8.409322942889439,163.85017590176122,161.99789861346514,0.0
0.133,2.0421369039419606,-1.0231347533021795,0.9966471524836127,0.0,9.792553995232268,8.450351381596587,163.5857063039798,161.99789861346514,0.0
0.134,2.0599487121001965,-1.0402428412002744,1.113003874469173,0.0,9.762529098867706,8.490862608335325,163.2212562790691,161.99789861346514,0.0
0.135,2.0823287759631395,-1.0546446386561676,1.282995310268481,0.0,9.740970931654644,8.539572024538458,164.66234893487285,161.99789861346514,0.0
0.136,2.109688552076431,-1.0658092110478887,0.5358044791525323,0.0,9.72752360777173,8.494578001885394,164.67677185965863,161.99789861346514,0.0
0.137,2.0860080223638793,-1.0605474601002451,0.5018042842977093,0.0,9.710231175683642,8.459348992015986,162.44298831404882,161.99789861346514,0.0
