timestamp,iq,id,iq_ref,id_ref,vq,vd,omega,omega_ref,r
0.0,0.0,0.0,0.0,0.0,0.0,0.0,0.0,443.7850366150669,0.0
0.001,0.0,0.0,10.0,0.0,0.0,1.0999999999999999,6.115472199294103,443.7850366150669,0.0
0.002,0.5307369851907212,-0.2913212625381807,10.0,0.0,0.14204533887919985,1.9316189316290207,13.317801563642547,443.7850366150669,0.0
0.003,1.0842913387634832,-0.6024330830807904,10.0,0.0,0.384357124667687,2.6386968949419622,20.697939467553027,443.7850366150669,0.0
0.004,1.5590443546685477,-0.8700465084428163,10.0,0.0,0.6994718867930164,3.2526109522886295,28.232747544420146,443.7850366150669,0.0
0.005,1.9399447555359186,-1.0838738622210777,10.0,0.0,1.065311453102468,3.7994935661768023,35.92944872443006,443.7850366150669,0.0
0.006,2.239750732602683,-1.2510087368845633,10.0,0.0,1.4655018868449925,4.299102221838433,43.75633668444442,443.7850366150669,0.0
0.007,2.4770151619816017,-1.382020589851471,10.0,0.0,1.8883740978591532,4.765668027847139,51.58766747378032,443.7850366150669,0.0
0.008,2.6680767290418097,-1.4872241871505252,10.0,0.0,2.325877945545995,5.209220346273558,59.45942083902103,443.7850366150669,0.0
0.009000000000000001,2.8266491704841292,-1.5730794701170803,10.0,0.0,2.772378685460125,5.636635464737965,67.35059094018146,443.7850366150669,0.0
0.01,2.962077666392183,-1.645500646948331,10.0,0.0,3.224078639851053,6.052647735211881,75.20908322432116,443.7850366150669,0.0
0.011,3.0811061533574158,-1.7084279320504514,10.0,0.0,3.678407615443203,6.460489925470405,83.0265951655913,443.7850366150669,0.0
0.012,3.188848746459569,-1.7638278597420747,10.0,0.0,4.133552631697047,6.862319393890706,90.74118064793086,443.7850366150669,0.0
0.013000000000000001,3.288205119878689,-1.8140726097274587,10.0,0.0,4.588339016389012,7.259628641949282,98.35820682563939,443.7850366150669,0.0
0.014,3.3820602099432007,-1.8592355758795645,10.0,0.0,5.041843166194517,7.653355107498287,105.90865295623543,443.7850366150669,0.0
0.015,3.4721069852858886,-1.899829032412081,10.0,0.0,5.493383198131427,8.044092747085895,113.37727610343421,443.7850366150669,0.0
0.016,3.5596145800153947,-1.9360338400176071,10.0,0.0,5.94241958510469,8.43218525824161,120.68508583176356,443.7850366150669,0.0
0.017,3.645144415105338,-1.9685384477868613,10.0,0.0,6.388575043274759,8.817838951066484,127.83962377537456,443.7850366150669,0.0
0.018000000000000002,3.730251927866576,-1.9959253041084188,10.0,0.0,6.83136783302799,9.201036292373047,134.85405702603322,443.7850366150669,0.0
0.019,3.81544967906247,-2.018253592643655,10.0,0.0,7.270383321112213,9.581672501020332,141.68976328564074,443.7850366150669,0.0
0.02,3.9014648862453374,-2.0350875541282063,10.0,0.0,7.705189334130692,9.959536942333155,148.3432823300447,443.7850366150669,0.0
0.021,3.9891051824829464,-2.0457889559126508,10.0,0.0,8.135310004560049,10.334315260302239,154.92060212100432,443.7850366150669,0.0
0.022,4.079618141396171,-2.0489696811670974,10.0,0.0,8.560139305503519,10.705547790999272,161.01925282597162,443.7850366150669,0.0
0.023,4.171109372430197,-2.048468292080302,10.0,0.0,8.979521969370257,11.072981092896333,166.534238406907,443.7850366150669,0.0
0.024,4.266936196769627,-2.039517194249811,10.0,0.0,9.392730090169543,11.435983292623375,171.8647834235234,443.7850366150669,0.0
0.025,4.367255527950721,-2.0225841458509217,10.0,0.0,9.79914449451603,11.793929226271104,177.02637022703064,443.7850366150669,0.0
0.026000000000000002,4.4734353073349595,-1.9962166741499119,10.0,0.0,10.197980960389518,12.146045424568259,181.63161391243256,443.7850366150669,0.0
0.027,4.582366840795821,-1.966358349113627,10.0,0.0,10.589124658468391,12.491912978736195,185.74793639675826,443.7850366150669,0.0
0.028,4.700058850757774,-1.9240450691803936,10.0,0.0,10.971384864613876,12.830451341534015,189.43662766964098,443.7850366150669,0.0
0.029,4.820934284790598,-1.879137197786803,10.0,0.0,11.344756153370636,13.161242511022618,192.73598774770625,443.7850366150669,0.0
0.03,4.952016225740939,-1.821000614527957,10.0,0.0,11.707923484756042,13.483081433273819,195.59831968863915,443.7850366150669,0.0
0.031,5.086039273572549,-1.7621311371320891,10.0,0.0,12.061063698547066,13.79562148058647,197.80891551030922,443.7850366150669,0.0
0.032,5.230431844273564,-1.6911110488141978,10.0,0.0,12.40292038074925,14.097678592248165,200.4421589734679,443.7850366150669,0.0
0.033,5.380124186618445,-1.6166151787533525,10.0,0.0,12.733312761073865,14.38869342901298,201.91742172589852,443.7850366150669,0.0
0.034,5.537594793894332,-1.535029134414507,10.0,0.0,13.051537880865839,14.667821176756876,203.18880493813168,443.7850366150669,0.0
0.035,5.698947813469154,-1.4530296333491768,10.0,0.0,13.357649178779205,14.934684535625108,203.60405746232266,443.7850366150669,0.0
0.036000000000000004,5.870474243492053,-1.3603000477825025,10.0,0.0,13.65045542338638,15.188218311291084,204.28541056101804,443.7850366150669,0.0
0.037,6.041188711220851,-1.275010780747051,10.0,0.0,13.930879897581198,15.42861600670124,205.2233356988433,443.7850366150669,0.0
0.038,6.228175208801664,-1.168399557236846,10.0,0.0,14.196427351981786,15.654155009933262,200.35169734043586,443.7850366150669,0.0
0.039,6.404895489618571,-1.0845312562500289,10.0,0.0,14.449814560392067,15.86612549236809,209.64773540576442,443.7850366150669,0.0
0.04,6.534612624563911,-1.0851225869390002,10.0,0.0,14.699963825590459,16.069735965364643,218.170241886545,443.7850366150669,0.0
0.041,6.621487035821765,-1.1484636683301073,10.0,0.0,14.952420817214799,16.26974130369247,220.68166573712315,443.7850366150669,0.0
0.042,6.6704785161669795,-1.2647840534085386,10.0,0.0,15.211794475054209,16.47047148862455,233.10654395573727,443.7850366150669,0.0
0.043000000000000003,6.709376245503157,-1.3867642159960276,10.0,0.0,15.477558399636717,16.673277185423842,235.10815372853793,443.7850366150669,0.0
0.044,6.744196093263161,-1.5028656568708394,10.0,0.0,15.74857785831126,16.87893749904121,248.8181267625822,443.7850366150669,0.0
0.045,6.750563942850831,-1.6564343609015326,10.0,0.0,16.02879294551472,17.090781462187255,251.61117095327992,443.7850366150669,0.0
0.046,6.764566527560506,-1.7840489455190416,10.0,0.0,16.314672837580048,17.307985931916857,266.60539535969383,443.7850366150669,0.0
0.047,6.752169677737121,-1.9446655565152717,10.0,0.0,16.610076868775216,17.533561623207692,270.0627790167984,443.7850366150669,0.0
0.048,6.7291903821171735,-2.110358990489937,10.0,0.0,16.91511817760721,17.768523902508925,283.13731951482634,443.7850366150669,0.0
0.049,6.714097190323873,-2.246352557911731,10.0,0.0,17.22645394156277,18.011924542904307,294.70561782835244,443.7850366150669,0.0
0.05,6.666841209228205,-2.4219663531358275,10.0,0.0,17.548953774962747,18.267165921658286,300.1294548425776,443.7850366150669,0.0
0.051000000000000004,6.612335516543512,-2.59336894353628,10.0,0.0,17.88182590988993,18.53465621226123,310.75154600411304,443.7850366150669,0.0
0.052000000000000005,6.568447424188529,-2.726701034625408,10.0,0.0,18.22111236450049,18.81296732052879,322.35703405819294,443.7850366150669,0.0
0.053,6.5036136539679195,-2.8764091099274185,10.0,0.0,18.569435851849082,19.104068797231378,330.9557012510771,443.7850366150669,0.0
0.054,6.434362099984388,-3.0149932598739144,10.0,0.0,18.925784313874168,19.407861808234543,339.4707232587175,443.7850366150669,0.0
0.055,6.370891759459199,-3.1253006473392393,10.0,0.0,19.28762520191878,19.723199586257838,348.00092263299223,443.7850366150669,0.0
0.056,6.314459991163816,-3.2071523724558277,10.0,0.0,19.65271639484943,20.048760466390505,356.29964302226927,443.7850366150669,0.0
0.057,6.266092078485367,-3.262894600420583,10.0,0.0,20.01916768432525,20.383030530514645,362.98468703488817,443.7850366150669,0.0
0.058,6.234656406121481,-3.2830044001420036,10.0,0.0,20.38405550695561,20.723492962007192,368.0316803659419,443.7850366150669,0.0
0.059000000000000004,6.228510489334133,-3.2600491726267444,10.0,0.0,20.743774617448285,21.0667596267365,372.35801287012686,443.7850366150669,0.0
0.06,6.247959954981508,-3.201438289803519,10.0,0.0,21.095630838529225,21.40947063565305,373.88739853789605,443.7850366150669,0.0
0.061,6.298571070969623,-3.1064761741463998,10.0,0.0,21.436712814499675,21.747723437683817,371.47602194372377,443.7850366150669,0.0
0.062,6.38094735961424,-2.982369480030801,10.0,0.0,21.76480975788002,22.077703876517536,366.2922057853833,443.7850366150669,0.0
0.063,6.53566146196873,-2.7695519558602215,10.0,0.0,22.070926190088084,22.39130117743337,372.07145994459506,443.7850366150669,0.0
0.064,6.708566607552835,-2.560747003310555,10.0,0.0,22.35695033962817,22.686677966487718,365.1882535794375,443.7850366150669,0.0
0.065,6.897199383751794,-2.3667028673086685,10.0,0.0,22.62465294768497,22.962098937664592,356.7297130485294,443.7850366150669,0.0
0.066,7.167218997264825,-2.0824440278168583,10.0,0.0,22.863799361069702,23.20893224280502,357.7888817172531,443.7850366150669,0.0
0.067,7.423387055578651,-1.859201647307153,10.0,0.0,23.082000390168847,23.42951856849048,345.1266644280509,443.7850366150669,0.0
0.068,7.736929428236853,-1.5824320316278497,10.0,0.0,23.27222771500701,23.617938384108047,342.9584987314189,443.7850366150669,0.0
0.069,8.04132723792414,-1.3546495884062866,10.0,0.0,23.43998591632552,23.77619061530866,334.2677598047511,443.7850366150669,0.0
0.07,8.395997401416553,-1.0747195592463576,10.0,0.0,23.578279041856877,23.89942370363377,322.7417355360636,443.7850366150669,0.0
0.07100000000000001,8.726669482066718,-0.8579631993863083,10.0,0.0,23.694022264374595,23.99133556844291,337.9106389559309,443.7850366150669,0.0
0.07200000000000001,8.91385728821635,-0.8925675486457335,10.0,0.0,23.81335639313859,24.06834663115294,344.8606079910171,443.7850366150669,0.0
0.073,8.941721008651788,-1.1508071676799903,10.0,0.0,23.95651852989837,24.148396869281978,362.43451347602996,443.7850366150669,0.0
0.074,8.927907180207171,-1.4305443375681337,10.0,0.0,24.121558169292424,24.236556455607346,368.59250641149885,443.7850366150669,0.0
0.075,8.859340450140312,-1.7499202918046703,10.0,0.0,24.31124378664675,24.33980824926249,387.10067316750514,443.7850366150669,0.0
0.076,8.767176841935807,-2.0562826706616475,10.0,0.0,24.52279212376306,24.461155754889383,396.7190369145668,443.7850366150669,0.0
0.077,8.62162972262067,-2.4016532593838043,10.0,0.0,24.76024751870129,24.606611890707832,408.83095327273656,443.7850366150669,0.0
0.078,8.47560200325128,-2.694417929744825,10.0,0.0,25.017253395580042,24.77587553037574,428.2762610097064,443.7850366150669,0.0
0.079,8.289593068490031,-3.001970310780605,10.0,0.0,25.296388163948027,24.972914099394785,438.0404594767293,443.7850366150669,0.0
0.08,8.078425759776728,-3.30171273584331,9.581469416617281,0.0,25.597209455327658,25.153492238787468,447.52047730007496,443.7850366150669,0.0
0.081,7.860535359240473,-3.514202996296026,4.804106098094384,0.0,25.90638293590777,24.846626305147016,456.00655695530764,443.7850366150669,0.0
0.082,7.391860445312997,-3.553400043057543,0.4388510670756327,0.0,26.156139247605065,24.218335229228444,456.8634721949472,443.7850366150669,0.0
0.083,6.718561012179464,-3.3942242141848293,-0.12039090854293732,0.0,26.300189508897155,23.729361013569015,454.22185679948956,443.7850366150669,0.0
0.084,6.096928095443126,-3.1528356743745443,1.0960485873416461,0.0,26.355976341403693,23.50473663641789,449.53371185243344,443.7850366150669,0.0
0.085,5.676955075422099,-2.9104220659845232,3.382634308496039,0.0,26.35947044141966,23.58749411763562,443.3231207674314,443.7850366150669,0.0
0.08600000000000001,5.525545556739127,-2.7095462802855863,6.492549009473404,0.0,26.351218679212828,23.994005337484055,439.0847268234542,443.7850366150669,0.0
0.08700000000000001,5.6758544383615455,-2.5509366058703873,8.658749079378131,0.0,26.369004908882843,24.54817504764142,441.8955862961349,443.7850366150669,0.0
0.088,6.019092256835029,-2.437996258467125,7.272213846227098,0.0,26.429592145131373,24.838272462188513,431.7498500828557,443.7850366150669,0.0
0.089,6.314474789155487,-2.2845566923813863,10.0,0.0,26.497381450414366,25.39028098778177,418.5875345242467,443.7850366150669,0.0
0.09,6.806661829545483,-2.0766299983733187,10.0,0.0,26.59225513704836,25.81540298068659,419.7347948920495,443.7850366150669,0.0
0.091,7.294797248909495,-1.876132718908718,10.0,0.0,26.7001782205084,26.158727117238175,402.9708459428136,443.7850366150669,0.0
0.092,7.786070201547376,-1.6364287500300576,10.0,0.0,26.807278945495597,26.429352477884073,399.7747748421949,443.7850366150669,0.0
0.093,8.282577601341629,-1.3560205881582639,10.0,0.0,26.902284275931557,26.63392229051313,381.93714887761917,443.7850366150669,0.0
0.094,8.763517298568221,-1.0794180207919117,10.0,0.0,26.980623853795244,26.779597362225882,376.4764610561323,443.7850366150669,0.0
0.095,9.229334292373654,-0.8181745194968109,10.0,0.0,27.039726221575034,26.872108412207396,380.98754480199057,443.7850366150669,0.0
0.096,9.60804922911414,-0.6956311075642989,10.0,0.0,27.091302117275387,26.924278120865345,389.50260086620295,443.7850366150669,0.0
0.097,9.688012724131408,-1.0006335517412888,10.0,0.0,27.177713097250283,26.971379613143036,408.2218908748166,443.7850366150669,0.0
0.098,9.685291730820445,-1.358203938955671,10.0,0.0,27.296475846607265,27.023510998404827,417.4020321562063,443.7850366150669,0.0
0.099,9.591081074903986,-1.780652912936031,10.0,0.0,27.451469142820418,27.092641482293825,435.37689105488846,443.7850366150669,0.0
0.1,9.46664461243723,-2.16626339778394,10.0,0.0,27.636068821394634,27.18310415172744,452.16175716998447,443.7850366150669,0.0
0.101,9.261726154841426,-2.6047222770236047,2.7627381405778433,0.0,27.855629170922676,26.508178383249536,458.3168725558105,443.7850366150669,0.0
0.10200000000000001,8.659729349827904,-2.7939277068130757,-0.46013791174261076,0.0,28.00216891713456,25.704727943386736,466.3721536504137,443.7850366150669,0.0
0.10300000000000001,7.847612672993881,-2.853064384563558,-4.713649629397665,0.0,28.05832262499364,24.643931860114147,468.8471423662511,443.7850366150669,0.0
0.10400000000000001,6.862121072341928,-2.763148633022329,-6.201765044828213,0.0,27.992299254292504,23.673956086737302,467.783986733382,443.7850366150669,0.0
0.105,5.906637386578834,-2.5955539858054983,-5.910176729576815,0.0,27.81834438964537,22.936579711887397,464.6269335958536,443.7850366150669,0.0
0.106,5.126655757538025,-2.4101270173956846,-4.540069130620479,0.0,27.569326353925042,22.479584583127316,459.15720369508074,443.7850366150669,0.0
0.107,4.587670043709625,-2.2513177784112774,-1.958925851034194,0.0,27.283895862296557,22.365100460666856,452.5497581569955,443.7850366150669,0.0
0.108,4.340950163745443,-2.142019817319466,1.2571497025891416,0.0,27.005125324254614,22.583227909050063,445.90715359127597,443.7850366150669,0.0
0.109,4.388338509321734,-2.090503433646018,4.557230815686812,0.0,26.771470762262027,23.074833808882243,438.775028678734,443.7850366150669,0.0
0.11,4.695848594079169,-2.079883393024212,8.173393351321138,0.0,26.609689205820256,23.825338504453185,437.25717321106254,443.7850366150669,0.0
0.111,5.24233262122636,-2.0931439322915577,8.997599719196902,0.0,26.540701134305376,24.48207750779423,438.81429020857314,443.7850366150669,0.0
0.112,5.815599707184529,-2.095831606557446,8.268748684506537,0.0,26.544448809052664,24.920233586971065,422.708027215685,443.7850366150669,0.0
0.113,6.32566941949289,-1.993488733460939,10.0,0.0,26.580352731459634,25.462299983261786,416.6815659070593,443.7850366150669,0.0
0.114,6.919630770792808,-1.8118300701110852,10.0,0.0,26.64791387701745,25.876202567489283,410.6011906418151,443.7850366150669,0.0
0.115,7.449228776563459,-1.6569204191687263,10.0,0.0,26.734885691472087,26.203154840728054,396.634771807186,443.7850366150669,0.0
0.116,8.003834079515496,-1.388797343103307,10.0,0.0,26.817911109947357,26.45039846482139,388.37766098115037,443.7850366150669,0.0
0.117,8.496097874234621,-1.1656756124999754,10.0,0.0,26.89549618937873,26.63261730396334,379.57573930187596,443.7850366150669,0.0
0.11800000000000001,9.01563299839679,-0.8636671686109776,10.0,0.0,26.9525549332594,26.752146541423574,371.7378558790888,443.7850366150669,0.0
0.11900000000000001,9.481371886623826,-0.6265013960393957,10.0,0.0,26.99279257595404,26.8193928030625,384.10128260975694,443.7850366150669,0.0
0.12,9.625054908501152,-0.8786199507577601,10.0,0.0,27.065835779287845,26.872790459282765,400.5777458005092,443.7850366150669,0.0
0.121,9.66843617587454,-1.2054599876122616,10.0,0.0,27.170345646417104,26.924817561022085,411.09263248074546,443.7850366150669,0.0
0.122,9.599954898096069,-1.6260976142821546,10.0,0.0,27.312608975572516,26.990059692529762,428.1450539654196,443.7850366150669,0.0
0.123,9.500232397367128,-2.00808117898222,10.0,0.0,27.484982000813464,27.073288606104615,444.7056638450521,443.7850366150669,0.0
0.124,9.315715993185488,-2.4474894161524188,6.068515089006709,0.0,27.692955685329526,26.752268170089515,453.69330777959686,443.7850366150669,0.0
0.125,8.905972584937913,-2.728466548140325,1.475610410089014,0.0,27.874543359939437,26.06146909142192,463.72314099696,443.7850366150669,0.0
0.126,8.207405363792107,-2.866685500849241,-3.7386872424114914,0.0,27.98128667269969,25.003009953339763,467.0815542066832,443.7850366150669,0.0
0.127,7.250967932197499,-2.8157995667006506,-5.65085902318926,0.0,27.964530098092283,24.00109758624525,467.498224813901,443.7850366150669,0.0
0.128,6.271088660434028,-2.6703928467865627,-6.0963262087864925,0.0,27.833772064387098,23.166043471369562,465.189308776815,443.7850366150669,0.0
0.129,5.41365636948577,-2.4869943407968216,-5.155910911860962,0.0,27.61386465410513,22.59383807841538,460.6285318456031,443.7850366150669,0.0
0.13,4.774429194598258,-2.313955229617044,-3.0439573985603863,0.0,27.341527128386065,22.341513883550377,454.3371397934148,443.7850366150669,0.0
0.131,4.408481961570826,-2.184471502377278,-0.0037824042497085486,0.0,27.058678116867814,22.434349993725267,447.75205248220664,443.7850366150669,0.0
0.132,4.343040691709667,-2.1087571724583407,3.2490910926829724,0.0,26.806363878500203,22.82057099380479,440.5267201580987,443.7850366150669,0.0
0.133,4.547705136141687,-2.0864444057372187,6.894340419306609,0.0,26.616205902937175,23.48821965941274,436.0352335149998,443.7850366150669,0.0
0.134,5.014350430491773,-2.087044157642573,9.21758177185675,0.0,26.512117691868053,24.239907378483686,438.5255533863113,443.7850366150669,0.0
0.135,5.607695714861811,-2.1075096388875236,8.025016668488554,0.0,26.495852279230796,24.691001401307417,427.8071486034543,443.7850366150669,0.0
0.136,6.104546943841064,-2.051592192813252,10.0,0.0,26.519967236259053,25.275813115740966,415.89690024451556,443.7850366150669,0.0
0.137,6.70640119078062,-1.897196203586466,10.0,0.0,26.583727484673616,25.723569866245317,415.8980187194008,443.7850366150669,0.0
0.138,7.256135397383613,-1.7389076735500095,10.0,0.0,26.67001960488543,26.078474746283753,399.0961423093043,443.7850366150669,0.0
0.139,7.79558640965346,-1.5123936289902866,10.0,0.0,26.759839341478685,26.352676081055872,396.42727683025146,443.7850366150669,0.0
0.14,8.309753058723077,-1.2632476120097345,10.0,0.0,26.84295631646758,26.557275434735153,379.1733331611849,443.7850366150669,0.0
0.14100000000000001,8.81689910112634,-0.9841800086196263,10.0,0.0,26.910015553122403,26.699082152371727,369.2334332353828,443.7850366150669,0.0
0.14200000000000002,9.286549603822461,-0.7426099631166593,10.0,0.0,26.960767508903963,26.78682402703759,381.72216671918943,443.7850366150669,0.0
0.14300000000000002,9.579843509366171,-0.7745054770336703,10.0,0.0,27.021142663559864,26.843301085232177,394.12281641346425,443.7850366150669,0.0
0.14400000000000002,9.669038634288905,-1.055667818278404,10.0,0.0,27.111736910967384,26.893289428386822,405.1911599838608,443.7850366150669,0.0
0.145,9.62891715973033,-1.4628618736313028,10.0,0.0,27.24025029062598,26.95264367541743,422.11061251458415,443.7850366150669,0.0
0.146,9.552238304546545,-1.8408464437406205,10.0,0.0,27.39935411918028,27.02694729503548,437.52282306798975,443.7850366150669,0.0
0.147,9.387391405518299,-2.281115393195213,9.41987086776882,0.0,27.594627665579864,27.063283101342975,449.50351190160137,443.7850366150669,0.0
