timestamp,iq,id,iq_ref,id_ref,vq,vd,omega,omega_ref,r
0.0,0.0,0.0,0.0,0.0,0.0,0.0,0.0,174.29545417576918,0.0
0.001,0.0,0.0,10.0,0.0,0.0,1.0999999999999999,6.115472199294103,174.29545417576918,0.0
0.002,0.5307369851907212,-0.2913212625381807,10.0,0.0,0.14204533887919985,1.9316189316290207,13.317801563642547,174.29545417576918,0.0
0.003,1.0842913387634832,-0.6024330830807904,10.0,0.0,0.384357124667687,2.6386968949419622,20.697939467553027,174.29545417576918,0.0
0.004,1.5590443546685477,-0.8700465084428163,10.0,0.0,0.6994718867930164,3.2526109522886295,28.232747544420146,174.29545417576918,0.0
0.005,1.9399447555359186,-1.0838738622210777,10.0,0.0,1.065311453102468,3.7994935661768023,35.92944872443006,174.29545417576918,0.0
0.006,2.239750732602683,-1.2510087368845633,10.0,0.0,1.4655018868449925,4.299102221838433,43.75633668444442,174.29545417576918,0.0
0.007,2.4770151619816017,-1.382020589851471,10.0,0.0,1.8883740978591532,4.765668027847139,51.58766747378032,174.29545417576918,0.0
0.008,2.6680767290418097,-1.4872241871505252,10.0,0.0,2.325877945545995,5.209220346273558,59.45942083902103,174.29545417576918,0.0
0.009000000000000001,2.8266491704841292,-1.5730794701170803,10.0,0.0,2.772378685460125,5.636635464737965,67.35059094018146,174.29545417576918,0.0
0.01,2.962077666392183,-1.645500646948331,10.0,0.0,3.224078639851053,6.052647735211881,75.20908322432116,174.29545417576918,0.0
0.011,3.0811061533574158,-1.7084279320504514,10.0,0.0,3.678407615443203,6.460489925470405,83.0265951655913,174.29545417576918,0.0
0.012,3.188848746459569,-1.7638278597420747,10.0,0.0,4.133552631697047,6.862319393890706,90.74118064793086,174.29545417576918,0.0
0.013000000000000001,3.288205119878689,-1.8140726097274587,10.0,0.0,4.588339016389012,7.259628641949282,98.35820682563939,174.29545417576918,0.0
0.014,3.3820602099432007,-1.8592355758795645,10.0,0.0,5.041843166194517,7.653355107498287,105.90865295623543,174.29545417576918,0.0
0.015,3.4721069852858886,-1.899829032412081,10.0,0.0,5.493383198131427,8.044092747085895,113.37727610343421,174.29545417576918,0.0
0.016,3.5596145800153947,-1.9360338400176071,10.0,0.0,5.94241958510469,8.43218525824161,120.68508583176356,174.29545417576918,0.0
0.017,3.645144415105338,-1.9685384477868613,10.0,0.0,6.388575043274759,8.817838951066484,127.83962377537456,174.29545417576918,0.0
0.018000000000000002,3.730251927866576,-1.9959253041084188,10.0,0.0,6.83136783302799,9.201036292373047,134.85405702603322,174.29545417576918,0.0
0.019,3.81544967906247,-2.018253592643655,10.0,0.0,7.270383321112213,9.581672501020332,141.68976328564074,174.29545417576918,0.0
0.02,3.9014648862453374,-2.0350875541282063,10.0,0.0,7.705189334130692,9.959536942333155,148.3432823300447,174.29545417576918,0.0
0.021,3.9891051824829464,-2.0457889559126508,10.0,0.0,8.135310004560049,10.334315260302239,154.92060212100432,174.29545417576918,0.0
0.022,4.079618141396171,-2.0489696811670974,10.0,0.0,8.560139305503519,10.705547790999272,161.01925282597162,174.29545417576918,0.0
0.023,4.171109372430197,-2.048468292080302,10.0,0.0,8.979521969370257,11.072981092896333,166.534238406907,174.29545417576918,0.0
0.024,4.266936196769627,-2.039517194249811,7.355808375714228,0.0,9.392730090169543,11.145122213951938,170.04482699983433,174.29545417576918,0.0
0.025,4.229741591609978,-1.9480083661851186,5.643020351009917,0.0,9.761855050885645,11.094454943318244,172.9401442152955,174.29545417576918,0.0
0.026000000000000002,4.108546122913778,-1.787397907020198,4.208914842884065,0.0,10.072248726239279,10.958102725677719,171.8486762167914,174.29545417576918,0.0
0.027,3.916533678773682,-1.619488745413809,4.779116621725894,0.0,10.321103909108436,10.963397762258914,169.81429532767322,174.29545417576918,0.0
0.028,3.814837308897502,-1.4477222210978598,5.841118654765944,0.0,10.528387851290113,11.113433495559875,175.31023909289166,174.29545417576918,0.0
0.029,3.8035849175299883,-1.3598286482314976,3.0829989229854986,0.0,10.721996344811574,10.955401658274315,170.51296644118042,174.29545417576918,0.0
0.03,3.6949370830927606,-1.212740691537237,5.519460126187006,0.0,10.865140065744633,11.139964521613855,173.65814988610688,174.29545417576918,0.0
0.031,3.7406075428465186,-1.12191081847238,3.953241446620399,0.0,11.00390529444814,11.117626575011116,171.1078554156705,174.29545417576918,0.0
0.032,3.724811062813053,-1.0390191147017556,5.260264669439571,0.0,11.118350416936906,11.273028004645994,171.81542406906593,174.29545417576918,0.0
0.033,3.812590824274654,-0.9557981584904496,4.931280643808897,0.0,11.228565781994748,11.365261589957587,170.74317663493306,174.29545417576918,0.0
0.034,3.8772400126160482,-0.9142416660437769,5.50292713628369,0.0,11.333243964470942,11.519230694569403,171.0263154717736,174.29545417576918,0.0
0.035,4.001404545351228,-0.8485071239518656,5.3940491049033845,0.0,11.436036004455058,11.63756605187362,168.7750630352737,174.29545417576918,0.0
0.036000000000000004,4.100752734776587,-0.8190854709997186,6.5748792345582885,0.0,11.537803339767365,11.87564051651223,171.24811748695606,174.29545417576918,0.0
0.037,4.280507435169259,-0.7853827210060675,5.368825375605233,0.0,11.649788302042518,11.936830507287878,166.49899342901503,174.29545417576918,0.0
0.038,4.387290973242682,-0.7328224695880008,7.82135201204329,0.0,11.751249167011675,12.274989821627052,170.13209202781286,174.29545417576918,0.0
0.039,4.607899120372816,-0.7416925888457826,6.046436334123939,0.0,11.877881192550369,12.346514239290132,168.6931696355766,174.29545417576918,0.0
0.04,4.753914389767538,-0.6753062901812985,6.821920375643996,0.0,11.991611263255827,12.512746220925052,165.13481977838504,174.29545417576918,0.0
0.041,4.899009906579072,-0.6499512412652659,8.692701648213617,0.0,12.108466332660116,12.857258756879165,172.57550115760975,174.29545417576918,0.0
0.042,5.111109036065935,-0.7195952956784795,4.989560488782855,0.0,12.256001545194001,12.731072256839775,175.73491339374408,174.29545417576918,0.0
0.043000000000000003,5.097527683197237,-0.7224593747907919,3.3954597785359413,0.0,12.37578319462878,12.497553201635283,174.76611441728602,174.29545417576918,0.0
0.044,4.93575287587743,-0.7119696293963327,3.8751526643498035,0.0,12.45905226081512,12.385730856713206,180.45423831923145,174.29545417576918,0.0
0.045,4.792703590494189,-0.7234696764722084,0.9695028719424652,0.0,12.524182088522904,11.983116920197983,178.89684011075337,174.29545417576918,0.0
0.046,4.525808176909003,-0.6592938882639843,1.7021881168316613,0.0,12.53536320263473,11.764857237607488,180.62238629804395,174.29545417576918,0.0
0.047,4.2975067194208805,-0.6531663966645771,0.7761457019636255,0.0,12.523567970882471,11.482794322790687,181.26622140504716,174.29545417576918,0.0
0.048,4.0748108633907965,-0.6232065112330334,0.38452047616923934,0.0,12.48151165834228,11.216153355180065,181.68050568854585,174.29545417576918,0.0
0.049,3.8500752661416415,-0.6229729593577669,0.10352781929212895,0.0,12.41727078844308,10.967471870215054,181.86294602223848,174.29545417576918,0.0
0.05,3.6509807518494752,-0.6165322195665135,-0.0633672660188771,0.0,12.333879711179017,10.741338954540836,182.35776203152852,174.29545417576918,0.0
0.051000000000000004,3.4661161532622544,-0.6314940655071406,-0.3913983492214945,0.0,12.23792466052532,10.513409915110124,182.08740501466764,174.29545417576918,0.0
0.052000000000000005,3.294060559630152,-0.6421370386980119,-0.3341393491800364,0.0,12.12979331958551,10.32533454470736,182.3330245656787,174.29545417576918,0.0
0.053,3.1444264016943504,-0.6672354872951036,-0.5373248285846621,0.0,12.016321975313176,10.137069785952589,182.08908096398883,174.29545417576918,0.0
0.054,3.005335395229581,-0.6922192464798078,-0.4932892956219268,0.0,11.897868518616946,9.976963801197769,181.9688451644261,174.29545417576918,0.0
0.055,2.883727301028988,-0.723297951162813,-0.5099053057271354,0.0,11.77841862903814,9.830740933105032,181.77060912725184,174.29545417576918,0.0
0.056,2.7753428409888086,-0.7565965309131674,-0.48553883665482767,0.0,11.659643498333649,9.700748044225099,181.57614877730163,174.29545417576918,0.0
0.057,2.6791949430132465,-0.791468216551341,-0.4611156076950427,0.0,11.54324949143431,9.583812245834478,181.3335401901126,174.29545417576918,0.0
0.058,2.593086945498883,-0.8265672861764259,-0.4101921742439574,0.0,11.430313486188219,9.480798372729833,181.05570310224957,174.29545417576918,0.0
0.059000000000000004,2.5165880217393957,-0.8612909343023726,-0.33887611957725117,0.0,11.321838304753879,9.39168161972827,180.75676241582227,174.29545417576918,0.0
0.06,2.4494050745007843,-0.8952670266621403,-0.2540188587641312,0.0,11.21868909984113,9.315875296984856,180.44794815777593,174.29545417576918,0.0
0.061,2.391105939749515,-0.9280053816838094,-0.1611366695610288,0.0,11.121535641274098,9.25244422957897,180.1516509349309,174.29545417576918,0.0
0.062,2.341095456496487,-0.9589059313154444,-0.07155002573013247,0.0,11.030826098732447,9.199484793796662,179.94649255524405,174.29545417576918,0.0
0.063,2.2988206962832693,-0.9862120440940292,-0.02548121968145667,0.0,10.946586233776058,9.151072168356386,179.76626001192736,174.29545417576918,0.0
0.064,2.2600941284100333,-1.0100071454141364,0.009926993615307467,0.0,10.868273492788706,9.10634820923058,179.49013238890663,174.29545417576918,0.0
0.065,2.2240663827673584,-1.0288652525844413,0.09604402299429626,0.0,10.795156070763039,9.070959949359304,179.02742052984345,174.29545417576918,0.0
0.066,2.19192453502682,-1.0466413725331811,0.28008028898514237,0.0,10.727578357075473,9.054356918032823,178.3084707961446,174.29545417576918,0.0
0.067,2.17174770198129,-1.0618678422444634,0.5994249896308133,0.0,10.666595262092763,9.067842006038951,177.73083821557788,174.29545417576918,0.0
0.068,2.168581790687378,-1.0822172066039866,0.8538874395160905,0.0,10.615145150791376,9.098824180138996,177.0092365318867,174.29545417576918,0.0
0.069,2.181445064697741,-1.1000333093167696,1.1875504578005032,0.0,10.573694545684944,9.15427481395725,176.67730216007888,174.29545417576918,0.0
0.07,2.2102058031214664,-1.1194700455407045,1.3296991638613158,0.0,10.543893944428483,9.209300002880376,177.1597883776566,174.29545417576918,0.0
0.07100000000000001,2.244710391853441,-1.1317330321695613,1.0598127130535766,0.0,10.523730483356914,9.2212257187598,178.69432211293469,174.29545417576918,0.0
0.07200000000000001,2.2529616671986368,-1.137685081604151,0.24855716604288425,0.0,10.507308035551965,9.142840676880379,176.3013788495921,174.29545417576918,0.0
0.073,2.211714302030672,-1.1113257093632716,1.4249695509759417,0.0,10.481730276898729,9.212789535143076,174.09966502700578,174.29545417576918,0.0
0.074,2.232887283564842,-1.101691548287647,2.5277843537567395,0.0,10.464909015941172,9.379989734550296,175.19190726784328,174.29545417576918,0.0
0.075,2.3255319425493646,-1.1147317658275648,1.9726987024172522,0.0,10.468020666560236,9.446721035572931,177.3036260141729,174.29545417576918,0.0
0.076,2.3839221541778017,-1.1199504003261116,0.8867576108684077,0.0,10.477937929839104,9.38769123130895,174.7020244437599,174.29545417576918,0.0
0.077,2.3682398967245044,-1.090686947824558,2.183492693394991,0.0,10.47768932024353,9.491365354228812,171.5839259450941,174.29545417576918,0.0
0.078,2.420018268292706,-1.0702864523018254,3.7696572250346425,0.0,10.485881563917012,9.740305508105195,174.50432585959723,174.29545417576918,0.0
0.079,2.5631698519300796,-1.090426270687531,2.307368550944801,0.0,10.520567983588437,9.773228581010574,176.18832532415334,174.29545417576918,0.0
0.08,2.6200112392130492,-1.0841543714405915,1.4464401071829052,0.0,10.55418676148224,9.721427709754899,171.32586073948102,174.29545417576918,0.0
0.081,2.6175832787669187,-1.0295361079995367,3.9073683338819487,0.0,10.57331828447505,9.958315682310587,171.8226302179015,174.29545417576918,0.0
0.082,2.7455468247622927,-1.0174508280666466,3.683711834250388,0.0,10.61344225426594,10.110116243019572,174.66707911678793,174.29545417576918,0.0
0.083,2.85888824614505,-1.0248285734906768,2.2577711353969803,0.0,10.665666287944608,10.08494431186704,169.91048254241588,174.29545417576918,0.0
0.084,2.8894372214185133,-0.979557270367623,4.67991913891654,0.0,10.705097104342386,10.345980691507062,171.41457475139242,174.29545417576918,0.0
0.085,3.043716801772973,-0.9686492044257787,3.956681828672035,0.0,10.765941302842013,10.464413666574508,172.62627221128437,174.29545417576918,0.0
0.08600000000000001,3.148834685234203,-0.96772428322123,3.3675249183709077,0.0,10.832551718325337,10.509492705577308,167.760572517484,174.29545417576918,0.0
0.08700000000000001,3.223754516795714,-0.9150822935909957,5.865723581853942,0.0,10.891227626513333,10.830228301677149,172.3632902182484,174.29545417576918,0.0
0.088,3.415085916493916,-0.9269048021310204,3.5836863710469493,0.0,10.977936399328216,10.828454593511017,167.5745688981755,174.29545417576918,0.0
0.089,3.4846013880379516,-0.8855620500550279,6.04525588385934,0.0,11.051130996231239,11.12338876408756,171.29841078782354,174.29545417576918,0.0
0.09,3.671719868845464,-0.8773315224046032,4.2133053729147765,0.0,11.146007619980827,11.150130847791337,166.6194992254927,174.29545417576918,0.0
0.091,3.754091932471625,-0.8369223660840561,6.629520703582967,0.0,11.229708087807078,11.460599834791841,170.70038277066212,174.29545417576918,0.0
0.092,3.954557308220721,-0.8325760807428221,4.625029645049325,0.0,11.336011407726424,11.482508329433397,165.596884564045,174.29545417576918,0.0
0.093,4.048269921697163,-0.7789181813897416,7.263764444475118,0.0,11.428016339042568,11.81485831139999,169.67954805617615,174.29545417576918,0.0
0.094,4.25760157715256,-0.7882266903712315,5.268591759605482,0.0,11.545616290405246,11.855228089006292,166.1698730765722,174.29545417576918,0.0
0.095,4.377107208010531,-0.722993790199409,7.104685060399424,0.0,11.64822452028357,12.114190571084434,166.75182969241988,174.29545417576918,0.0
0.096,4.5544108866085,-0.7226561576778184,6.889142997309081,0.0,11.767083364806224,12.297138719657521,168.59052260351277,174.29545417576918,0.0
0.097,4.737102368634033,-0.6872525185490534,6.026845857485199,0.0,11.888460115754972,12.362657646839013,164.26913767477473,174.29545417576918,0.0
0.098,4.8577288263777145,-0.6245724069469075,8.287801486864165,0.0,11.997710308442047,12.679648451495611,168.94169868772718,174.29545417576918,0.0
0.099,5.035736392040862,-0.6971572702059392,6.005058535268356,0.0,12.136345698400584,12.68377934634041,175.6486809246211,174.29545417576918,0.0
0.1,5.072502819595548,-0.7390440009839716,2.6380351493328833,0.0,12.265412330600745,12.351551316385263,173.59583562968456,174.29545417576918,0.0
0.101,4.888257598143292,-0.699495619555318,3.6714539822619954,0.0,12.343580307320442,12.233433696762493,177.21471455236528,174.29545417576918,0.0
0.10200000000000001,4.726591805211798,-0.7135060856609596,1.8328219171556732,0.0,12.404056359491802,11.938301706290927,178.64534523377915,174.29545417576918,0.0
0.10300000000000001,4.512625549934843,-0.6663389272715567,1.0740076658686366,0.0,12.423643115314974,11.635566903244289,178.230745659606,174.29545417576918,0.0
0.10400000000000001,4.259260348689478,-0.644964054202541,1.2419545381168522,0.0,12.409118150797466,11.416857064129031,179.68365364317407,174.29545417576918,0.0
0.105,4.057332979530486,-0.628009331467154,0.4616185516587623,0.0,12.372523428049986,11.150727643835715,180.21948706275674,174.29545417576918,0.0
0.106,3.840741071636494,-0.6283107840990141,0.13446151299755016,0.0,12.31317794256478,10.901173615085572,180.4187188483769,174.29545417576918,0.0
0.107,3.6427076251698387,-0.6209918361953081,-0.02638702653860525,0.0,12.234003503957355,10.675836431731955,180.8970882822824,174.29545417576918,0.0
0.108,3.4580297098047725,-0.633952740200799,-0.3315880845564867,0.0,12.141711679794952,10.451486128091846,180.63710649409637,174.29545417576918,0.0
0.109,3.2871494765450824,-0.6434288054021046,-0.26501371364674586,0.0,12.03712676581686,10.267666910284662,180.94937740666774,174.29545417576918,0.0
0.11,3.1393457512469456,-0.6681047425181988,-0.4876884022414134,0.0,11.927238013886624,10.081160770856082,180.69135830237286,174.29545417576918,0.0
0.111,3.001317903830171,-0.6920067759669744,-0.4226378913600133,0.0,11.812069987514754,9.925403699223104,180.66815193467374,174.29545417576918,0.0
0.112,2.881705008869333,-0.722780785168935,-0.47476168509950023,0.0,11.695989177294505,9.779098549667596,180.46438709751249,174.29545417576918,0.0
0.113,2.7733944440767027,-0.7551475568863846,-0.4345685957363039,0.0,11.580138537937625,9.651476344990545,180.2918260718855,174.29545417576918,0.0
0.114,2.6780378158215608,-0.789428566835382,-0.4082518018839796,0.0,11.466557985425943,9.536930336735773,180.0808299872018,174.29545417576918,0.0
0.115,2.5929317606768634,-0.8243005444795406,-0.3606075176564558,0.0,11.356373994781325,9.43586667716518,179.83037938169156,174.29545417576918,0.0
0.116,2.5173196802078066,-0.8588628665420202,-0.2907314669605534,0.0,11.250555172894536,9.348567175521609,179.56326612709813,174.29545417576918,0.0
0.117,2.4509023239264405,-0.8927843909703143,-0.20985295917712987,0.0,11.149974027498558,9.274163405589192,179.28684559051825,174.29545417576918,0.0
0.11800000000000001,2.3931137334121613,-0.9254936303104009,-0.12155660503468191,0.0,11.055269420732063,9.211738283382012,179.0223792357155,174.29545417576918,0.0
0.11900000000000001,2.3433144004210016,-0.9563823026304847,-0.03659267823277057,0.0,10.966863423983305,9.15944832184957,178.85148164802385,174.29545417576918,0.0
0.12,2.300975687147195,-0.9836930241275713,0.003295840890510604,0.0,10.884764323397661,9.111244119761249,178.69908166830058,174.29545417576918,0.0
0.121,2.2618780403398446,-1.0074457165974926,0.03545955582683158,0.0,10.808394401618468,9.066666905291026,178.47998386738553,174.29545417576918,0.0
0.122,2.2254544244118812,-1.0261279946469641,0.10316315936819409,0.0,10.737021274230916,9.029651800614092,178.0138981520137,174.29545417576918,0.0
0.123,2.1925208460942667,-1.0425031109315084,0.2990215772916649,0.0,10.67069838912523,9.013326741057929,177.46170029383015,174.29545417576918,0.0
0.124,2.1709783837581047,-1.058995634556212,0.5434580452028288,0.0,10.611025713010367,9.018971661311605,176.8431309267641,174.29545417576918,0.0
0.125,2.1633711771869604,-1.0776788710288219,0.8272659612259017,0.0,10.559775027308103,9.047480696111315,176.1058337426362,174.29545417576918,0.0
0.126,2.173153138600994,-1.0949642911640356,1.1778107576211796,0.0,10.518214877506178,9.102583519482826,175.79422204751833,174.29545417576918,0.0
0.127,2.2005665831197785,-1.1146306508314452,1.318628926462626,0.0,10.48831147038366,9.157086936862672,175.84470320259862,174.29545417576918,0.0
0.128,2.234027626575011,-1.1277323661694534,1.277895858654186,0.0,10.468093270801887,9.19385427231005,177.73508470254822,174.29545417576918,0.0
0.129,2.2557354199810726,-1.1372684713094332,0.2983088034115968,0.0,10.454491579135045,9.1155225620158,175.997750791005,174.29545417576918,0.0
0.13,2.215796541412728,-1.1166427324425985,1.1499527930308546,0.0,10.43205269327871,9.151750917571414,173.61063775329953,174.29545417576918,0.0
0.131,2.2199422341704476,-1.1009719218908467,2.3503574761082815,0.0,10.413962999791547,9.304785209239123,173.83415297280703,174.29545417576918,0.0
0.132,2.3004521272919254,-1.1076090456121088,2.243212878384151,0.0,10.413872496534731,9.408102518495133,176.282571178295,174.29545417576918,0.0
0.133,2.3743194174301894,-1.1176597292869221,0.9991326056149084,0.0,10.425161978496206,9.35798135948849,174.70725092150496,174.29545417576918,0.0
0.134,2.365100517493885,-1.0970987025376577,1.7826747665525684,0.0,10.427948176581715,9.414384456903868,171.06594942665885,174.29545417576918,0.0
0.135,2.3934335927643176,-1.0713189248786275,3.6356205614667307,0.0,10.4334658993252,9.658205652938332,172.9755134317467,174.29545417576918,0.0
0.136,2.530052520401572,-1.08228520592415,2.6940379663630334,0.0,10.464278058089386,9.741348206945757,175.65205762886353,174.29545417576918,0.0
0.137,2.6101621885533124,-1.0844681640219953,1.34219983327367,0.0,10.500453718958198,9.67252547851974,171.27926279056615,174.29545417576918,0.0
