timestamp,iq,id,iq_ref,id_ref,vq,vd,omega,omega_ref,r
0.0,0.0,0.0,0.0,0.0,0.0,0.0,0.0,43.898731164184525,0.0
0.001,0.0,0.0,10.0,0.0,0.0,1.0999999999999999,6.115472199294103,43.898731164184525,0.0
0.002,0.5307369851907212,-0.2913212625381807,10.0,0.0,0.14204533887919985,1.9316189316290207,13.317801563642547,43.898731164184525,0.0
0.003,1.0842913387634832,-0.6024330830807904,10.0,0.0,0.384357124667687,2.6386968949419622,20.697939467553027,43.898731164184525,0.0
0.004,1.5590443546685477,-0.8700465084428163,10.0,0.0,0.6994718867930164,3.2526109522886295,28.232747544420146,43.898731164184525,0.0
0.005,1.9399447555359186,-1.0838738622210777,8.73981519024045,0.0,1.0653114531024686,3.660873237103252,35.15484546998899,43.898731164184525,0.0
0.006,2.1731321666748578,-1.2142922459125842,5.366205084397981,0.0,1.4476010399307202,3.6845563753056716,39.962277305046385,43.898731164184525,0.0
0.007,2.162752156808882,-1.2080442000933174,3.0018537054606655,0.0,1.7920385130193544,3.5212312829426415,42.91532979783816,43.898731164184525,0.0
0.008,1.984292632203685,-1.1058575398061339,1.535161472728241,0.0,2.074521677389425,3.290516562921496,44.68156138176799,43.898731164184525,0.0
0.009000000000000001,1.7296558878417265,-0.9587251362737214,0.6442173785874914,0.0,2.290522355534679,3.054010149945077,45.783021335930314,43.898731164184525,0.0
0.01,1.463380125327667,-0.8029114376697128,0.074644499788872,0.0,2.445604141756651,2.835754836787312,46.08927336783956,43.898731164184525,0.0
0.011,1.2155005990269119,-0.663763479177708,-0.10038693820230127,0.0,2.5496040795925676,2.665879494444421,45.618462769306944,43.898731164184525,0.0
0.012,1.013857972949844,-0.5483943124923233,0.11782104501278245,0.0,2.6149173606601317,2.56884676625845,45.24090874306446,43.898731164184525,0.0
0.013000000000000001,0.8761196526165332,-0.4653400511551575,0.29317628234522597,0.0,2.6560137637221066,2.518290424248146,45.76362334539575,43.898731164184525,0.0
0.014,0.7900796528544441,-0.4118929100168786,0.013170059367468179,0.0,2.6828962493650157,2.4524321366146875,46.13118534353956,43.898731164184525,0.0
0.015,0.7172672837896751,-0.37182227450000555,-0.1929354814979889,0.0,2.6966313591848152,2.383125339642948,45.323193172129365,43.898731164184525,0.0
0.016,0.6526892519032398,-0.335690623588828,0.196815984127662,0.0,2.698488503080399,2.373431909794697,44.80203393538762,43.898731164184525,0.0
0.017,0.6242331183653641,-0.31666295539262335,0.44836257478650365,0.0,2.697458862609129,2.391150542007349,45.17193182938979,43.898731164184525,0.0
0.018000000000000002,0.6231546449974682,-0.3114026874292164,0.2506816211333651,0.0,2.6979156966122395,2.382568046878263,45.660424405137086,43.898731164184525,0.0
0.019,0.6167369994249516,-0.3081429654709238,-0.011181599149807653,0.0,2.6971626309663512,2.3487564962470793,45.06052922564745,43.898731164184525,0.0
0.02,0.5968248072923892,-0.2988672097472129,0.277148009980381,0.0,2.692115980911908,2.354711848000432,44.45362175756072,43.898731164184525,0.0
0.021,0.5943491491093134,-0.29492432652299705,0.5750528380899849,0.0,2.687828571440818,2.3895264350525744,44.90354668213826,43.898731164184525,0.0
0.022,0.612205584100645,-0.2998864213014474,0.3400422206216752,0.0,2.688036620879922,2.389611641818904,45.45771594370904,43.898731164184525,0.0
0.023,0.6172075720324484,-0.30241977247371477,0.04736774204104133,0.0,2.6884614337329147,2.359493392060741,44.8925578408289,43.898731164184525,0.0
0.024,0.6028791488572122,-0.2962789569528621,0.32000852671466773,0.0,2.6851311171057755,2.3669728260921925,44.28391108488159,43.898731164184525,0.0
0.025,0.6028829727564988,-0.2934211580824786,0.6204801054813532,0.0,2.6826288258239606,2.40355304601471,44.778636234819714,43.898731164184525,0.0
0.026000000000000002,0.6221825465380768,-0.2987188529837965,0.364318479805938,0.0,2.6846461100904295,2.402919605327852,45.37002239142259,43.898731164184525,0.0
0.027,0.6268835057596902,-0.3009511926561727,0.053912489232121,0.0,2.686590902276512,2.3706440846533985,44.71801115826108,43.898731164184525,0.0
0.028,0.6112294322214727,-0.2936017004019933,0.37172530587211017,0.0,2.684282895631859,2.3816230226825557,44.11671044414,43.898731164184525,0.0
0.029,0.6125857324480972,-0.29039791024246836,0.6701958701330959,0.0,2.6830246614595796,2.4206211663863293,44.76146210220871,43.898731164184525,0.0
0.03,0.6330350174081676,-0.29634449426279363,0.3391927317184972,0.0,2.6864782272187373,2.4139627630909404,45.32375867688525,43.898731164184525,0.0
0.031,0.6346633797656854,-0.29746536735676016,0.043794169253221216,0.0,2.6889844262725733,2.3791571192042453,44.47958206605743,43.898731164184525,0.0
0.032,0.6172155860282633,-0.2879150921465685,0.4600739656484001,0.0,2.6866977020282947,2.3987629637744186,43.930105102863315,43.898731164184525,0.0
0.033,0.622597846007291,-0.28532556993416974,0.7344987078586707,0.0,2.6864108899742,2.441436948607257,44.81951951500197,43.898731164184525,0.0
0.034,0.645332815820598,-0.29353539350097335,0.28058361828116807,0.0,2.6913491334232713,2.424692922396099,45.167396304575874,43.898731164184525,0.0
0.035,0.642358741960367,-0.29308279751853145,0.09395857209030334,0.0,2.693987266112583,2.3946820167885035,44.226269998028414,43.898731164184525,0.0
0.036000000000000004,0.6267525999197076,-0.28220293508758715,0.5612463370255945,0.0,2.6921682360646244,2.4228908545012593,44.062897333235306,43.898731164184525,0.0
0.037,0.6371751547562426,-0.28077682409864063,0.6412910077316408,0.0,2.6933039192082626,2.4509263991138317,44.880389723407475,43.898731164184525,0.0
0.038,0.6534059055526846,-0.2870779221484504,0.2227282270533264,0.0,2.6978369703941625,2.4277484479585913,44.67194319689768,43.898731164184525,0.0
0.039,0.6452918242972916,-0.2841162187298948,0.3192193699810928,0.0,2.699210122989409,2.42319610701236,43.74000595960125,43.898731164184525,0.0
0.04,0.6411238327251783,-0.27798610940478063,0.7867752406751412,0.0,2.699346031238931,2.4700798880277226,44.45737838817694,43.898731164184525,0.0
0.041,0.6643510868598748,-0.282601541098089,0.42250255414737037,0.0,2.7047257253445527,2.464946649670968,45.15319711666384,43.898731164184525,0.0
0.042,0.6670777856522363,-0.2838598969791485,0.06204853037912794,0.0,2.7091463910339195,2.42478982448541,44.098618160838996,43.898731164184525,0.0
0.043000000000000003,0.6475320716755475,-0.27212646322745926,0.5873391383250055,0.0,2.7078060463642974,2.452654551024433,43.79096278856435,43.898731164184525,0.0
0.044,0.6570942827148403,-0.26900880918918585,0.74224450821853,0.0,2.709160601208847,2.4881381546973307,44.71993304861183,43.898731164184525,0.0
0.045,0.6765582169663114,-0.27673743587376776,0.2695473593505179,0.0,2.7148093864119183,2.464617702755708,44.42491650951294,43.898731164184525,0.0
0.046,0.6695529276626218,-0.27366043605283585,0.41179377544667795,0.0,2.7171254916533707,2.465353472953733,43.528907573973335,43.898731164184525,0.0
0.047,0.6689672315921477,-0.2674864384689772,0.8634964791185924,0.0,2.718635193654466,2.5145064835737645,44.55774151042543,43.898731164184525,0.0
0.048,0.6935563415555358,-0.2737859335417513,0.3424894074301359,0.0,2.7256639109512992,2.4943566993527764,44.777055173149414,43.898731164184525,0.0
0.049,0.6887966786278789,-0.2723703873331433,0.2240493359784952,0.0,2.729756073062675,2.4698758821624507,43.74030571941834,43.898731164184525,0.0
0.05,0.6763500754822808,-0.2603493747889296,0.7440083172916951,0.0,2.729682781326103,2.507953781278002,44.21819983969106,43.898731164184525,0.0
0.051000000000000004,0.6923952266672251,-0.2609283372874609,0.5018665704002685,0.0,2.733608504675024,2.508491946675353,44.84554634096265,43.898731164184525,0.0
0.052000000000000005,0.6958274186079859,-0.26247806101395565,0.1787251679966929,0.0,2.737360152213718,2.4760276414707474,43.62321234134703,43.898731164184525,0.0
0.053,0.6816949482008702,-0.2513283512042984,0.7926473560328785,0.0,2.736248239161754,2.5195366799126777,43.96993082909895,43.898731164184525,0.0
0.054,0.7009184034568011,-0.25245406772990653,0.6185761155077735,0.0,2.739833747175093,2.531040660084872,44.72008647678694,43.898731164184525,0.0
0.055,0.7108123889660791,-0.257312096332209,0.23528473853775445,0.0,2.7447342283853144,2.500435350126269,43.563621004427105,43.898731164184525,0.0
0.056,0.6994541359824104,-0.2481029173195163,0.8168685763152455,0.0,2.7450225405012345,2.5425361028930684,43.927471510255934,43.898731164184525,0.0
0.057,0.7188785344376286,-0.2490777364033834,0.6346559199401169,0.0,2.7496914185715946,2.5523461146558306,44.60341472348034,43.898731164184525,0.0
0.058,0.7276441769960487,-0.2535493818894804,0.2896374777349552,0.0,2.755356542823827,2.524742134273662,43.45812319460903,43.898731164184525,0.0
0.059000000000000004,0.7177600247663262,-0.24389433585398726,0.8666893218663659,0.0,2.756587985093855,2.5685658648022933,44.023402621361214,43.898731164184525,0.0
0.06,0.7378660923716559,-0.24582870973224752,0.5828028939185069,0.0,2.762387987776706,2.568821832030603,44.39975292997262,43.898731164184525,0.0
0.061,0.7418753594528428,-0.24835803601470763,0.3896175219549225,0.0,2.76789246906639,2.5509807174649732,43.32997036738593,43.898731164184525,0.0
0.062,0.7362712335591592,-0.23851947247680544,0.9301964112162526,0.0,2.7699548555185505,2.5975262405423742,44.15092705334081,43.898731164184525,0.0
0.063,0.7579994343386244,-0.24278171978531168,0.5171961093472518,0.0,2.7770327884725488,2.5863414845143695,43.94178052011134,43.898731164184525,0.0
0.064,0.757234711307633,-0.24241508532004133,0.6213388824027196,0.0,2.7822015002640827,2.5928701069805613,43.290804813264806,43.898731164184525,0.0
0.065,0.763193496567464,-0.23540481707244057,0.952905999335182,0.0,2.786738739960498,2.6340305799024106,44.38799903181061,43.898731164184525,0.0
0.066,0.7837702400293648,-0.24257893327036556,0.39941621138602024,0.0,2.795797558443705,2.6051253277297746,43.53255881201663,43.898731164184525,0.0
0.067,0.7755417956736774,-0.23527736118727804,0.8307980448046874,0.0,2.8001850557702093,2.634114278492012,43.9335869191041,43.898731164184525,0.0
0.068,0.7892614394562728,-0.23253759274644498,0.6299354337117569,0.0,2.806804339632625,2.632642933096625,44.13755658119799,43.898731164184525,0.0
0.069,0.7899656346142083,-0.23304588874151447,0.5255623484946773,0.0,2.8126978708131274,2.6225679723345214,43.185229043136374,43.898731164184525,0.0
0.07,0.78799015352577,-0.22280828881442147,1.0088611387359672,0.0,2.8158633338474375,2.6685208034166985,44.26592498310421,43.898731164184525,0.0
0.07100000000000001,0.8095071319188857,-0.22861786516958418,0.46484123056285087,0.0,2.8240489630848744,2.6431330974585068,43.39926922570682,43.898731164184525,0.0
0.07200000000000001,0.8033955601302788,-0.22242649654110994,0.903163728646326,0.0,2.828138112490063,2.6756458415714697,43.93926331312224,43.898731164184525,0.0
0.073,0.8197268962845975,-0.22125857869806387,0.6327613634492375,0.0,2.8350030640895802,2.6693311783662788,43.74830100505998,43.898731164184525,0.0
0.074,0.8193259409707516,-0.2208444275072945,0.7297468190716134,0.0,2.840516176756071,2.6779143188580563,43.37211864521926,43.898731164184525,0.0
0.075,0.8271862056471182,-0.2134322701258013,0.9231041241816256,0.0,2.8455250964050354,2.705621266905646,44.125846943694356,43.898731164184525,0.0
0.076,0.8411948554254868,-0.21870378813233346,0.5439688171489794,0.0,2.8534578074483954,2.685957606459824,43.195047658346866,43.898731164184525,0.0
0.077,0.8376854691844096,-0.20992640544110008,1.0164052948811009,0.0,2.857612654066736,2.725339067768082,44.05760622718899,43.898731164184525,0.0
0.078,0.8563529035156248,-0.21300305118302165,0.5835372598299936,0.0,2.865716367012592,2.7067695073355615,43.226722043143276,43.898731164184525,0.0
0.079,0.8530076492310903,-0.20713511402729812,1.0056994430632635,0.0,2.8704765130760608,2.7421884470616593,43.96599541449578,43.898731164184525,0.0
0.08,0.8711149257759709,-0.207912446240134,0.6353901148838993,0.0,2.8784467244207628,2.7275606065266498,43.241387671814756,43.898731164184525,0.0
0.081,0.868692746764,-0.2036773143599161,1.0042674211481086,0.0,2.8836834927485406,2.7599196806072332,43.903091233290134,43.898731164184525,0.0
0.082,0.8863201650168304,-0.2030378925265246,0.6733720397193639,0.0,2.8916045065687284,2.7475160212948024,43.225080721933054,43.898731164184525,0.0
0.083,0.8843537925217444,-0.19973423204490637,1.0191137998204185,0.0,2.8971360446410106,2.7788779518780244,43.870886668499836,43.898731164184525,0.0
0.084,0.9020759394035922,-0.19846487833827392,0.6964892714938745,0.0,2.905144029661473,2.766741627611267,43.16238576333276,43.898731164184525,0.0
0.085,0.9001743061425251,-0.19524214107062227,1.0581031780859314,0.0,2.910795776190838,2.800009910409159,43.90227507151376,43.898731164184525,0.0
0.08600000000000001,0.918856197692728,-0.1945216626724683,0.688123084922136,0.0,2.919162151095935,2.784128565863127,43.023281966132146,43.898731164184525,0.0
0.08700000000000001,0.9157986861820343,-0.18997545024088508,1.1363741295934686,0.0,2.9246108754724274,2.8242025542893714,44.01077862151693,43.898731164184525,0.0
0.088,0.936949036588294,-0.19140432482219633,0.641505327327754,0.0,2.9337247645821543,2.799538823954903,42.81156394004629,43.898731164184525,0.0
0.089,0.93120101475786,-0.18403969544035653,1.2519843403044542,0.0,2.9386364937696454,2.851198020920359,44.0357538439209,43.898731164184525,0.0
0.09,0.9561520392527614,-0.18917562805988292,0.6385191615697856,0.0,2.948861568616902,2.821794418404695,42.798576093868085,43.898731164184525,0.0
0.091,0.95065146528804,-0.17952082560186317,1.2681095872993575,0.0,2.9540103881312865,2.87259785562399,43.98519747881109,43.898731164184525,0.0
0.092,0.9739745247897026,-0.18577990799364957,0.6739342316815907,0.0,2.964509716503839,2.8445600954127137,42.8425725802244,43.898731164184525,0.0
0.093,0.9697614675627614,-0.17480211079667418,1.2558082668145367,0.0,2.969885187502425,2.891020608370603,43.8658041714524,43.898731164184525,0.0
0.094,0.9904544363405886,-0.18117832189303734,0.7445217411278556,0.0,2.98018032388951,2.868994001817867,42.95465818313206,43.898731164184525,0.0
0.095,0.9892501328263674,-0.17023612006917926,1.2095354650985515,0.0,2.985975881671026,2.9068033475270987,43.656501893526354,43.898731164184525,0.0
0.096,1.0060484576854696,-0.1757183242210985,0.8610359026079868,0.0,2.995685282720261,2.8965663665602452,43.10542507510883,43.898731164184525,0.0
0.097,1.0101884206938148,-0.16612632391533932,1.144507372707504,0.0,3.0022901034927356,2.9227034684485282,43.40511006811628,43.898731164184525,0.0
0.098,1.0222574251540855,-0.17058132569615136,0.9996010871644634,0.0,3.0114341225757384,2.9268267452539543,43.45119468806827,43.898731164184525,0.0
0.099,1.0326044821566425,-0.16305710878198865,0.9810341419496307,0.0,3.019203853552617,2.9298413089432573,42.8339712079955,43.898731164184525,0.0
0.1,1.0354444579578752,-0.16241213733735382,1.3002934815479041,0.0,3.0265023631109704,2.9684266594011657,43.81925621748986,43.898731164184525,0.0
0.101,1.058270834746237,-0.16438916286811983,0.8084457262676733,0.0,3.037153479282109,2.9441049776036037,42.743304805301364,43.898731164184525,0.0
0.10200000000000001,1.0552312811545153,-0.15401825176311984,1.3579756959507523,0.0,3.0431467451795204,2.989209964483826,43.52888068122118,43.898731164184525,0.0
0.10300000000000001,1.0755811475897938,-0.160896642917305,0.9688862628204766,0.0,3.0539115153132244,2.9798397610808087,43.21939608876426,43.898731164184525,0.0
0.10400000000000001,1.08182752174909,-0.15121194255481846,1.1304219098031385,0.0,3.0615286871418386,2.993659268037688,42.86254639537675,43.898731164184525,0.0
0.105,1.088579355126972,-0.15271392006984524,1.3192086041849747,0.0,3.0700281570135584,3.025329483463943,43.7383929551301,43.898731164184525,0.0
0.106,1.1095616588937118,-0.15328456857438988,0.8828887063988409,0.0,3.080892453001081,3.002559033553889,42.7579946027724,43.898731164184525,0.0
0.107,1.107050917464091,-0.1422370815506076,1.3844952481918138,0.0,3.087172344341185,3.0431779814036064,43.238515619064344,43.898731164184525,0.0
0.108,1.1251946982697392,-0.14841346755307516,1.150836895497043,0.0,3.09767601866276,3.04762361608509,43.547663032426385,43.898731164184525,0.0
0.109,1.13754274637178,-0.14213642748442823,0.999773870133604,0.0,3.1068216507527486,3.037217857984384,42.51665956983199,43.898731164184525,0.0
0.11,1.1364184256924372,-0.1354524647530842,1.5290963173743286,0.0,3.1133396783239067,3.0887504941086097,43.38848838702685,43.898731164184525,0.0
0.111,1.161810257402638,-0.1437101116387603,1.0982843365484753,0.0,3.12533434753511,3.080294782319364,43.35232599479226,43.898731164184525,0.0
0.112,1.1702198399389507,-0.13478338932916545,1.1218295843596915,0.0,3.134219462723356,3.0801110699357603,42.47522191968226,43.898731164184525,0.0
0.113,1.1723045736579087,-0.13065360631199685,1.574616714359713,0.0,3.1418326862456247,3.1302601472475113,43.377905608009655,43.898731164184525,0.0
0.114,1.198628989047725,-0.1383942942273237,1.1284831257577652,0.0,3.154592268647699,3.1196782347784096,43.37655902006595,43.898731164184525,0.0
0.115,1.2060785454729892,-0.1289328486858372,1.1343781411708047,0.0,3.163899535673939,3.1159840523249973,42.44769517598691,43.898731164184525,0.0
0.116,1.2066440976669046,-0.12278012851370651,1.6133204230923006,0.0,3.171324472988694,3.166227000499707,43.179083470461435,43.898731164184525,0.0
0.117,1.2320260935184648,-0.13097226593496425,1.254822752792268,0.0,3.1839938737075046,3.16517761701447,43.80314952373826,43.898731164184525,0.0
0.11800000000000001,1.2412581907011733,-0.12870664512111796,0.9437455425583168,0.0,3.194960256342174,3.134104884795321,43.100131245556284,43.898731164184525,0.0
0.11900000000000001,1.2261847426875352,-0.12241424646952603,1.3032406808355885,0.0,3.2010532198479256,3.151641701627721,43.567715095179274,43.898731164184525,0.0
0.12,1.225719636071204,-0.13032301018158166,1.0727589167141462,0.0,3.2092234566811833,3.1389866149389842,44.400911987175924,43.898731164184525,0.0
0.121,1.219572054370686,-0.1281031538916686,0.6511386624859071,0.0,3.214987889333231,3.085012233199449,43.50389308228832,43.898731164184525,0.0
0.122,1.1891821710774804,-0.11655060745368717,1.1035964957486704,0.0,3.213529859000842,3.0942797084455065,43.8048144640619,43.898731164184525,0.0
0.123,1.1806644768429329,-0.12229997218685978,0.9540749718631081,0.0,3.2138923348113253,3.0821357347065463,44.515145192231806,43.898731164184525,0.0
0.124,1.1738336496813337,-0.12064574090815094,0.5927454674976816,0.0,3.212764706578875,3.0336575897266203,43.60799773633947,43.898731164184525,0.0
0.125,1.1469168102195153,-0.1130237183698542,1.0492265297222998,0.0,3.206080146505252,3.0466332523789896,44.09550815517619,43.898731164184525,0.0
0.126,1.1431235762608547,-0.1214581059058758,0.8035035503940232,0.0,3.2023656115585744,3.026196641751237,44.33451061314068,43.898731164184525,0.0
0.127,1.1351966394631647,-0.11888676694335382,0.6796445269222173,0.0,3.1966116778825504,2.997099006611134,43.655463672799016,43.898731164184525,0.0
0.128,1.1172012506529405,-0.11879430694445747,1.0216006720069042,0.0,3.1885389168498657,3.0110897312126212,44.50031876588802,43.898731164184525,0.0
0.129,1.1187932127264044,-0.12811877152521595,0.5931572494453683,0.0,3.1836991200844706,2.971970699601892,43.988974758320865,43.898731164184525,0.0
0.13,1.1030083863534328,-0.1227670225118041,0.8479268172875816,0.0,3.174749462797259,2.9703409286857165,43.92262994432762,43.898731164184525,0.0
0.131,1.0956448784760215,-0.13028862100727623,0.880860236482774,0.0,3.1674126874717867,2.969706287168272,44.64189306332092,43.898731164184525,0.0
0.132,1.0964025928554557,-0.13372461157082005,0.5137970579947582,0.0,3.161048868504153,2.9275381647838796,43.727544096666136,43.898731164184525,0.0
0.133,1.0759742489951938,-0.1310977827249178,0.9726834119973344,0.0,3.1507813081161578,2.945353298434748,44.55481372321818,43.898731164184525,0.0
0.134,1.078472499430612,-0.14158442909561675,0.5524877731309754,0.0,3.1445018165212844,2.9090706878799075,43.96785838461098,43.898731164184525,0.0
