timestamp,iq,id,iq_ref,id_ref,vq,vd,omega,omega_ref,r
0.0,0.0,0.0,0.0,0.0,0.0,0.0,0.0,386.73026090469165,0.0
0.001,0.0,0.0,10.0,0.0,0.0,1.0999999999999999,6.115472199294103,386.73026090469165,0.0
0.002,0.5307369851907212,-0.2913212625381807,10.0,0.0,0.14204533887919985,1.9316189316290207,13.317801563642547,386.73026090469165,0.0
0.003,1.0842913387634832,-0.6024330830807904,10.0,0.0,0.384357124667687,2.6386968949419622,20.697939467553027,386.73026090469165,0.0
0.004,1.5590443546685477,-0.8700465084428163,10.0,0.0,0.6994718867930164,3.2526109522886295,28.232747544420146,386.73026090469165,0.0
0.005,1.9399447555359186,-1.0838738622210777,10.0,0.0,1.065311453102468,3.7994935661768023,35.92944872443006,386.73026090469165,0.0
0.006,2.239750732602683,-1.2510087368845633,10.0,0.0,1.4655018868449925,4.299102221838433,43.75633668444442,386.73026090469165,0.0
0.007,2.4770151619816017,-1.382020589851471,10.0,0.0,1.8883740978591532,4.765668027847139,51.58766747378032,386.73026090469165,0.0
0.008,2.6680767290418097,-1.4872241871505252,10.0,0.0,2.325877945545995,5.209220346273558,59.45942083902103,386.73026090469165,0.0
0.009000000000000001,2.8266491704841292,-1.5730794701170803,10.0,0.0,2.772378685460125,5.636635464737965,67.35059094018146,386.73026090469165,0.0
0.01,2.962077666392183,-1.645500646948331,10.0,0.0,3.224078639851053,6.052647735211881,75.20908322432116,386.73026090469165,0.0
0.011,3.0811061533574158,-1.7084279320504514,10.0,0.0,3.678407615443203,6.460489925470405,83.0265951655913,386.73026090469165,0.0
0.012,3.188848746459569,-1.7638278597420747,10.0,0.0,4.133552631697047,6.862319393890706,90.74118064793086,386.73026090469165,0.0
0.013000000000000001,3.288205119878689,-1.8140726097274587,10.0,0.0,4.588339016389012,7.259628641949282,98.35820682563939,386.73026090469165,0.0
0.014,3.3820602099432007,-1.8592355758795645,10.0,0.0,5.041843166194517,7.653355107498287,105.90865295623543,386.73026090469165,0.0
0.015,3.4721069852858886,-1.899829032412081,10.0,0.0,5.493383198131427,8.044092747085895,113.37727610343421,386.73026090469165,0.0
0.016,3.5596145800153947,-1.9360338400176071,10.0,0.0,5.94241958510469,8.43218525824161,120.68508583176356,386.73026090469165,0.0
0.017,3.645144415105338,-1.9685384477868613,10.0,0.0,6.388575043274759,8.817838951066484,127.83962377537456,386.73026090469165,0.0
0.018000000000000002,3.730251927866576,-1.9959253041084188,10.0,0.0,6.83136783302799,9.201036292373047,134.85405702603322,386.73026090469165,0.0
0.019,3.81544967906247,-2.018253592643655,10.0,0.0,7.270383321112213,9.581672501020332,141.68976328564074,386.73026090469165,0.0
0.02,3.9014648862453374,-2.0350875541282063,10.0,0.0,7.705189334130692,9.959536942333155,148.3432823300447,386.73026090469165,0.0
0.021,3.9891051824829464,-2.0457889559126508,10.0,0.0,8.135310004560049,10.334315260302239,154.92060212100432,386.73026090469165,0.0
0.022,4.079618141396171,-2.0489696811670974,10.0,0.0,8.560139305503519,10.705547790999272,161.01925282597162,386.73026090469165,0.0
0.023,4.171109372430197,-2.048468292080302,10.0,0.0,8.979521969370257,11.072981092896333,166.534238406907,386.73026090469165,0.0
0.024,4.266936196769627,-2.039517194249811,10.0,0.0,9.392730090169543,11.435983292623375,171.8647834235234,386.73026090469165,0.0
0.025,4.367255527950721,-2.0225841458509217,10.0,0.0,9.79914449451603,11.793929226271104,177.02637022703064,386.73026090469165,0.0
0.026000000000000002,4.4734353073349595,-1.9962166741499119,10.0,0.0,10.197980960389518,12.146045424568259,181.63161391243256,386.73026090469165,0.0
0.027,4.582366840795821,-1.966358349113627,10.0,0.0,10.589124658468391,12.491912978736195,185.74793639675826,386.73026090469165,0.0
0.028,4.700058850757774,-1.9240450691803936,10.0,0.0,10.971384864613876,12.830451341534015,189.43662766964098,386.73026090469165,0.0
0.029,4.820934284790598,-1.879137197786803,10.0,0.0,11.344756153370636,13.161242511022618,192.73598774770625,386.73026090469165,0.0
0.03,4.952016225740939,-1.821000614527957,10.0,0.0,11.707923484756042,13.483081433273819,195.59831968863915,386.73026090469165,0.0
0.031,5.086039273572549,-1.7621311371320891,10.0,0.0,12.061063698547066,13.79562148058647,197.80891551030922,386.73026090469165,0.0
0.032,5.230431844273564,-1.6911110488141978,10.0,0.0,12.40292038074925,14.097678592248165,200.4421589734679,386.73026090469165,0.0
0.033,5.380124186618445,-1.6166151787533525,10.0,0.0,12.733312761073865,14.38869342901298,201.91742172589852,386.73026090469165,0.0
0.034,5.537594793894332,-1.535029134414507,10.0,0.0,13.051537880865839,14.667821176756876,203.18880493813168,386.73026090469165,0.0
0.035,5.698947813469154,-1.4530296333491768,10.0,0.0,13.357649178779205,14.934684535625108,203.60405746232266,386.73026090469165,0.0
0.036000000000000004,5.870474243492053,-1.3603000477825025,10.0,0.0,13.65045542338638,15.188218311291084,204.28541056101804,386.73026090469165,0.0
0.037,6.041188711220851,-1.275010780747051,10.0,0.0,13.930879897581198,15.42861600670124,205.2233356988433,386.73026090469165,0.0
0.038,6.228175208801664,-1.168399557236846,10.0,0.0,14.196427351981786,15.654155009933262,200.35169734043586,386.73026090469165,0.0
0.039,6.404895489618571,-1.0845312562500289,10.0,0.0,14.449814560392067,15.86612549236809,209.64773540576442,386.73026090469165,0.0
0.04,6.534612624563911,-1.0851225869390002,10.0,0.0,14.699963825590459,16.069735965364643,218.170241886545,386.73026090469165,0.0
0.041,6.621487035821765,-1.1484636683301073,10.0,0.0,14.952420817214799,16.26974130369247,220.68166573712315,386.73026090469165,0.0
0.042,6.6704785161669795,-1.2647840534085386,10.0,0.0,15.211794475054209,16.47047148862455,233.10654395573727,386.73026090469165,0.0
0.043000000000000003,6.709376245503157,-1.3867642159960276,10.0,0.0,15.477558399636717,16.673277185423842,235.10815372853793,386.73026090469165,0.0
0.044,6.744196093263161,-1.5028656568708394,10.0,0.0,15.74857785831126,16.87893749904121,248.8181267625822,386.73026090469165,0.0
0.045,6.750563942850831,-1.6564343609015326,10.0,0.0,16.02879294551472,17.090781462187255,251.61117095327992,386.73026090469165,0.0
0.046,6.764566527560506,-1.7840489455190416,10.0,0.0,16.314672837580048,17.307985931916857,266.60539535969383,386.73026090469165,0.0
0.047,6.752169677737121,-1.9446655565152717,10.0,0.0,16.610076868775216,17.533561623207692,270.0627790167984,386.73026090469165,0.0
0.048,6.7291903821171735,-2.110358990489937,10.0,0.0,16.91511817760721,17.768523902508925,283.13731951482634,386.73026090469165,0.0
0.049,6.714097190323873,-2.246352557911731,10.0,0.0,17.22645394156277,18.011924542904307,294.70561782835244,386.73026090469165,0.0
0.05,6.666841209228205,-2.4219663531358275,10.0,0.0,17.548953774962747,18.267165921658286,300.1294548425776,386.73026090469165,0.0
0.051000000000000004,6.612335516543512,-2.59336894353628,10.0,0.0,17.88182590988993,18.53465621226123,310.75154600411304,386.73026090469165,0.0
0.052000000000000005,6.568447424188529,-2.726701034625408,10.0,0.0,18.22111236450049,18.81296732052879,322.35703405819294,386.73026090469165,0.0
0.053,6.5036136539679195,-2.8764091099274185,10.0,0.0,18.569435851849082,19.104068797231378,330.9557012510771,386.73026090469165,0.0
0.054,6.434362099984388,-3.0149932598739144,10.0,0.0,18.925784313874168,19.407861808234543,339.4707232587175,386.73026090469165,0.0
0.055,6.370891759459199,-3.1253006473392393,10.0,0.0,19.28762520191878,19.723199586257838,348.00092263299223,386.73026090469165,0.0
0.056,6.314459991163816,-3.2071523724558277,10.0,0.0,19.65271639484943,20.048760466390505,356.29964302226927,386.73026090469165,0.0
0.057,6.266092078485367,-3.262894600420583,10.0,0.0,20.01916768432525,20.383030530514645,362.98468703488817,386.73026090469165,0.0
0.058,6.234656406121481,-3.2830044001420036,10.0,0.0,20.38405550695561,20.723492962007192,368.0316803659419,386.73026090469165,0.0
0.059000000000000004,6.228510489334133,-3.2600491726267444,10.0,0.0,20.743774617448285,21.0667596267365,372.35801287012686,386.73026090469165,0.0
0.06,6.247959954981508,-3.201438289803519,10.0,0.0,21.095630838529225,21.40947063565305,373.88739853789605,386.73026090469165,0.0
0.061,6.298571070969623,-3.1064761741463998,10.0,0.0,21.436712814499675,21.747723437683817,371.47602194372377,386.73026090469165,0.0
0.062,6.38094735961424,-2.982369480030801,10.0,0.0,21.76480975788002,22.077703876517536,366.2922057853833,386.73026090469165,0.0
0.063,6.53566146196873,-2.7695519558602215,10.0,0.0,22.070926190088084,22.39130117743337,372.07145994459506,386.73026090469165,0.0
0.064,6.708566607552835,-2.560747003310555,10.0,0.0,22.35695033962817,22.686677966487718,365.1882535794375,386.73026090469165,0.0
0.065,6.897199383751794,-2.3667028673086685,10.0,0.0,22.62465294768497,22.962098937664592,356.7297130485294,386.73026090469165,0.0
0.066,7.167218997264825,-2.0824440278168583,10.0,0.0,22.863799361069702,23.20893224280502,357.7888817172531,386.73026090469165,0.0
0.067,7.423387055578651,-1.859201647307153,10.0,0.0,23.082000390168847,23.42951856849048,345.1266644280509,386.73026090469165,0.0
0.068,7.736929428236853,-1.5824320316278497,10.0,0.0,23.27222771500701,23.617938384108047,342.9584987314189,386.73026090469165,0.0
0.069,8.04132723792414,-1.3546495884062866,10.0,0.0,23.43998591632552,23.77619061530866,334.2677598047511,386.73026090469165,0.0
0.07,8.395997401416553,-1.0747195592463576,10.0,0.0,23.578279041856877,23.89942370363377,322.7417355360636,386.73026090469165,0.0
0.07100000000000001,8.726669482066718,-0.8579631993863083,10.0,0.0,23.694022264374595,23.99133556844291,337.9106389559309,386.73026090469165,0.0
0.07200000000000001,8.91385728821635,-0.8925675486457335,10.0,0.0,23.81335639313859,24.06834663115294,344.8606079910171,386.73026090469165,0.0
0.073,8.941721008651788,-1.1508071676799903,10.0,0.0,23.95651852989837,24.148396869281978,362.43451347602996,386.73026090469165,0.0
0.074,8.927907180207171,-1.4305443375681337,10.0,0.0,24.121558169292424,24.236556455607346,368.59250641149885,386.73026090469165,0.0
0.075,8.859340450140312,-1.7499202918046703,10.0,0.0,24.31124378664675,24.33980824926249,387.10067316750514,386.73026090469165,0.0
0.076,8.767176841935807,-2.0562826706616475,6.6583376365225675,0.0,24.52279212376306,24.09357289490687,393.44066251373545,386.73026090469165,0.0
0.077,8.444188636657941,-2.312182833084954,3.421238947316974,0.0,24.713647485810167,23.60505874401911,401.1336973580206,386.73026090469165,0.0
0.078,7.937217220017416,-2.4326895843753347,-0.5693128393588838,0.0,24.847262637581498,22.830428808560228,408.07524379740727,386.73026090469165,0.0
0.079,7.210063275780583,-2.454119730292132,-4.253535887979382,0.0,24.89120552916775,21.856181584042517,409.2093565365707,386.73026090469165,0.0
0.08,6.338259063174539,-2.356123912952277,-5.045383213879878,0.0,24.822335567777053,21.022119319716662,409.24271984056173,386.73026090469165,0.0
0.081,5.516367954943397,-2.2294856384268438,-5.287189455234105,0.0,24.66399612406844,20.327586052173714,407.5140507865068,386.73026090469165,0.0
0.082,4.814046962513509,-2.102311442502115,-4.63069282702479,0.0,24.439314519169933,19.830341256615753,404.6748914350562,386.73026090469165,0.0
0.083,4.285122072119751,-1.9912784011187423,-3.390559456603148,0.0,24.176434702612553,19.541361012607034,400.5296885672262,386.73026090469165,0.0
0.084,3.943274382657779,-1.9140347752215805,-1.4559522993134673,0.0,23.903558374875196,19.487710261877982,395.7554792093908,386.73026090469165,0.0
0.085,3.804623811783739,-1.8755973555605094,0.8409001965572358,0.0,23.649148924934913,19.6572777423225,391.0404484817273,386.73026090469165,0.0
0.08600000000000001,3.8612144061708906,-1.8755236775028814,3.1553136846186156,0.0,23.437513437643382,20.008453017365245,385.7909156372538,386.73026090469165,0.0
0.08700000000000001,4.086668925892065,-1.8987805485131615,5.789473559529739,0.0,23.284718019176985,20.545726576308734,383.6891159341549,386.73026090469165,0.0
0.088,4.476635292746635,-1.9294223202813126,6.8707848607845525,0.0,23.204067524635974,21.065954126743353,386.47737931410575,386.73026090469165,0.0
0.089,4.906315838635992,-1.952751057674496,5.479181986715002,0.0,23.185764577988095,21.31883924714093,376.83510033383044,386.73026090469165,0.0
0.09,5.221230533852153,-1.9009723219708312,10.0,0.0,23.188651489743417,22.025467760021108,370.0245476684015,386.73026090469165,0.0
0.091,5.77126972648094,-1.8459408725062327,10.0,0.0,23.256376889527175,22.55915876841896,372.39138857054076,386.73026090469165,0.0
0.092,6.287603517913234,-1.798334575780201,10.0,0.0,23.366012472027105,22.994956890824135,360.42259187735783,386.73026090469165,0.0
0.093,6.776109076058758,-1.6903030123470528,10.0,0.0,23.496856899507186,23.349566485757105,359.46505392464746,386.73026090469165,0.0
0.094,7.244876301000419,-1.5159755449898977,10.0,0.0,23.6319821379576,23.63512022478265,347.2285671249481,386.73026090469165,0.0
0.095,7.669877760233182,-1.3398727260158037,10.0,0.0,23.76452219105194,23.8635686254845,345.7228297551399,386.73026090469165,0.0
0.096,8.089516553956132,-1.1258243960881358,10.0,0.0,23.884868790804738,24.040515938708403,332.7522323211093,386.73026090469165,0.0
0.097,8.498872815090396,-0.8981149203234224,10.0,0.0,23.987967902869794,24.170970379797655,333.9866036213483,386.73026090469165,0.0
0.098,8.820727540004928,-0.8008484305108658,10.0,0.0,24.08538032871554,24.26737883085523,349.303266840469,386.73026090469165,0.0
0.099,8.960538693943187,-0.9618530316826557,10.0,0.0,24.20137552810949,24.351726999707555,354.49905840173403,386.73026090469165,0.0
0.1,8.982204158325082,-1.2522279545505994,10.0,0.0,24.344537219953043,24.438254782071425,372.8490170765798,386.73026090469165,0.0
0.101,8.945146015370696,-1.576553206404129,10.0,0.0,24.51480754932382,24.53473900575206,379.6117811887869,386.73026090469165,0.0
0.10200000000000001,8.871800308118338,-1.8979850023464813,9.917146680244663,0.0,24.709813513160725,24.637185421196836,399.35432144817463,386.73026090469165,0.0
0.10300000000000001,8.754095442587516,-2.2239326534777684,-0.0803640548840363,0.0,24.92820344582342,23.66220422195009,399.63562269640295,386.73026090469165,0.0
0.10400000000000001,8.060206431111794,-2.3017497071852104,-0.3500682969153077,0.0,25.03255666469168,22.952018519229156,405.2338390929881,386.73026090469165,0.0
0.105,7.32714978648453,-2.309366940454337,-3.3342122770908436,0.0,25.055515716523548,22.071425254062383,409.1905050583026,386.73026090469165,0.0
0.106,6.497660492505867,-2.261782281547178,-5.537147701284217,0.0,24.98280905184309,21.152619019627352,409.1301480337599,386.73026090469165,0.0
0.107,5.649141062507506,-2.153297623132641,-5.730968060303537,0.0,24.81403496435063,20.404174101277608,407.56133114386205,386.73026090469165,0.0
0.108,4.9105588464565075,-2.039346707559371,-5.154870317746318,0.0,24.575844039643535,19.851764070750715,404.91297659709153,386.73026090469165,0.0
0.109,4.338940297797358,-1.9415262152806239,-4.012520201285057,0.0,24.296610459359524,19.506165704382955,401.3793256131998,386.73026090469165,0.0
0.11,3.952806644128535,-1.8727702998723277,-2.3921853564242728,0.0,24.004155454695027,19.370775664810633,396.8466670516796,386.73026090469165,0.0
0.111,3.754403159515121,-1.8384836442604608,-0.22702013713406277,0.0,23.724322973576513,19.45960700117319,392.1639058121048,386.73026090469165,0.0
0.112,3.749617716333506,-1.8362071722072713,2.0600240335792073,0.0,23.481449328836376,19.740037526277032,387.2866386816803,386.73026090469165,0.0
0.113,3.915000311249825,-1.8632784723415445,4.493093821021577,0.0,23.29390670881593,20.1946649294354,382.91875840764163,386.73026090469165,0.0
0.114,4.238919464329538,-1.8984289420508542,6.715148983011412,0.0,23.174176929780064,20.771193419330743,383.8830119971799,386.73026090469165,0.0
0.115,4.680156394212796,-1.9373268442827725,6.261494677317399,0.0,23.128000242185728,21.160676686330365,382.9338006444959,386.73026090469165,0.0
0.116,5.054949278803773,-1.9426624233336525,6.774064956261366,0.0,23.125587484724065,21.53069838360519,370.492461772231,386.73026090469165,0.0
0.117,5.439192006370227,-1.8625716790272397,10.0,0.0,23.151554835071842,22.17468501624178,370.71181826636956,386.73026090469165,0.0
0.11800000000000001,5.976907729975261,-1.7950396961263786,10.0,0.0,23.232696502972466,22.669304067891208,367.9336687302032,386.73026090469165,0.0
0.11900000000000001,6.469319468039247,-1.7440697011175568,10.0,0.0,23.350254529626007,23.07378724721477,355.68294364640184,386.73026090469165,0.0
0.12,6.969136674284335,-1.583395399019873,10.0,0.0,23.479340598265892,23.399522135965018,355.1076768038413,386.73026090469165,0.0
0.121,7.406987648999704,-1.4347460238604137,10.0,0.0,23.613346860670248,23.662426707547972,343.4305199036362,386.73026090469165,0.0
0.122,7.8491641911777545,-1.2165206805519362,10.0,0.0,23.737724659980124,23.868180538320637,336.98043422638176,386.73026090469165,0.0
0.123,8.240670826462454,-1.039500769509182,10.0,0.0,23.852950125654672,24.027152801487503,333.3721682841448,386.73026090469165,0.0
0.124,8.65623745552789,-0.7976472587170558,10.0,0.0,23.947716584001732,24.139953122060767,335.5953623417872,386.73026090469165,0.0
0.125,8.886398401533315,-0.8419244547021685,10.0,0.0,24.05157545523771,24.22978801864149,351.4828281029417,386.73026090469165,0.0
0.126,8.944227567514748,-1.1096301894106069,10.0,0.0,24.183036787866225,24.316965713889807,361.33832441095586,386.73026090469165,0.0
0.127,8.959040640513138,-1.381669724807006,10.0,0.0,24.337317048303255,24.40752062650616,373.8155809326043,386.73026090469165,0.0
0.128,8.88819117930115,-1.7338060595319114,10.0,0.0,24.521239375423978,24.512389645367872,385.5216698936426,386.73026090469165,0.0
0.129,8.810733089315733,-2.0345917384872183,6.525773534239979,0.0,24.726821433056646,24.250810979108163,398.83766149102956,386.73026090469165,0.0
0.13,8.481141268789735,-2.298691980783254,-0.2532962703168913,0.0,24.911730588163078,23.360473490752035,400.9765100433635,386.73026090469165,0.0
0.131,7.776843349493989,-2.3320634613791134,-1.465183037870565,0.0,24.990144939365848,22.586320673274106,406.83887652037873,386.73026090469165,0.0
0.132,7.000706033115311,-2.3200440927104515,-4.597452432535064,0.0,24.981646728341033,21.643325932535387,408.5985905374562,386.73026090469165,0.0
0.133,6.1384175043509215,-2.2322647535312345,-5.695992737401431,0.0,24.870163330721798,20.791354470179694,408.01176000243225,386.73026090469165,0.0
0.134,5.324259581637922,-2.1132244056763776,-5.615392460866876,0.0,24.67241448175667,20.1142177339759,405.86269606108726,386.73026090469165,0.0
0.135,4.645345095707798,-2.0004706509229666,-4.732184841758337,0.0,24.415514334523365,19.64790563605775,402.86690304321456,386.73026090469165,0.0
0.136,4.149474245118127,-1.9092913105307119,-3.395654754207216,0.0,24.128770802325946,19.388477615353185,398.82722999949016,386.73026090469165,0.0
0.137,3.8409309465752246,-1.8522453137846786,-1.496787923292998,0.0,23.83939555503968,19.35080914835821,394.1452578096357,386.73026090469165,0.0
0.138,3.725943792089456,-1.8310589666687755,0.7700482025847784,0.0,23.573430947567246,19.52789646287952,389.5158085042736,386.73026090469165,0.0
0.139,3.7973098143575883,-1.8436200309095194,3.0569173792700237,0.0,23.353365112831835,19.88056569938371,384.3344597687107,386.73026090469165,0.0
0.14,4.0296871675205495,-1.8766429299261167,5.671549758411279,0.0,23.194079693469803,20.415854450077383,382.0227991040468,386.73026090469165,0.0
0.14100000000000001,4.421516172602045,-1.914173046156516,6.874454708749687,0.0,23.108049774908515,20.947081587483957,384.9282745217823,386.73026090469165,0.0
0.14200000000000002,4.857673715599217,-1.9445010437098518,5.4397368637110075,0.0,23.08670634051257,21.20267596715723,375.99729493943767,386.73026090469165,0.0
0.14300000000000002,5.173204073268474,-1.9012789833178905,10.0,0.0,23.087998980904906,21.916205924952116,368.694814590869,386.73026090469165,0.0
0.14400000000000002,5.724138653406405,-1.8542118274407047,10.0,0.0,23.15577018649493,22.455462019405378,371.3854430974478,386.73026090469165,0.0
