timestamp,iq,id,iq_ref,id_ref,vq,vd,omega,omega_ref,r
0.0,0.0,0.0,0.0,0.0,0.0,0.0,0.0,234.99653001962943,0.0
0.001,0.0,0.0,10.0,0.0,0.0,1.0999999999999999,6.115472199294103,234.99653001962943,0.0
0.002,0.5307369851907212,-0.2913212625381807,10.0,0.0,0.14204533887919985,1.9316189316290207,13.317801563642547,234.99653001962943,0.0
0.003,1.0842913387634832,-0.6024330830807904,10.0,0.0,0.384357124667687,2.6386968949419622,20.697939467553027,234.99653001962943,0.0
0.004,1.5590443546685477,-0.8700465084428163,10.0,0.0,0.6994718867930164,3.2526109522886295,28.232747544420146,234.99653001962943,0.0
0.005,1.9399447555359186,-1.0838738622210777,10.0,0.0,1.065311453102468,3.7994935661768023,35.92944872443006,234.99653001962943,0.0
0.006,2.239750732602683,-1.2510087368845633,10.0,0.0,1.4655018868449925,4.299102221838433,43.75633668444442,234.99653001962943,0.0
0.007,2.4770151619816017,-1.382020589851471,10.0,0.0,1.8883740978591532,4.765668027847139,51.58766747378032,234.99653001962943,0.0
0.008,2.6680767290418097,-1.4872241871505252,10.0,0.0,2.325877945545995,5.209220346273558,59.45942083902103,234.99653001962943,0.0
0.009000000000000001,2.8266491704841292,-1.5730794701170803,10.0,0.0,2.772378685460125,5.636635464737965,67.35059094018146,234.99653001962943,0.0
0.01,2.962077666392183,-1.645500646948331,10.0,0.0,3.224078639851053,6.052647735211881,75.20908322432116,234.99653001962943,0.0
0.011,3.0811061533574158,-1.7084279320504514,10.0,0.0,3.678407615443203,6.460489925470405,83.0265951655913,234.99653001962943,0.0
0.012,3.188848746459569,-1.7638278597420747,10.0,0.0,4.133552631697047,6.862319393890706,90.74118064793086,234.99653001962943,0.0
0.013000000000000001,3.288205119878689,-1.8140726097274587,10.0,0.0,4.588339016389012,7.259628641949282,98.35820682563939,234.99653001962943,0.0
0.014,3.3820602099432007,-1.8592355758795645,10.0,0.0,5.041843166194517,7.653355107498287,105.90865295623543,234.99653001962943,0.0
0.015,3.4721069852858886,-1.899829032412081,10.0,0.0,5.493383198131427,8.044092747085895,113.37727610343421,234.99653001962943,0.0
0.016,3.5596145800153947,-1.9360338400176071,10.0,0.0,5.94241958510469,8.43218525824161,120.68508583176356,234.99653001962943,0.0
0.017,3.645144415105338,-1.9685384477868613,10.0,0.0,6.388575043274759,8.817838951066484,127.83962377537456,234.99653001962943,0.0
0.018000000000000002,3.730251927866576,-1.9959253041084188,10.0,0.0,6.83136783302799,9.201036292373047,134.85405702603322,234.99653001962943,0.0
0.019,3.81544967906247,-2.018253592643655,10.0,0.0,7.270383321112213,9.581672501020332,141.68976328564074,234.99653001962943,0.0
0.02,3.9014648862453374,-2.0350875541282063,10.0,0.0,7.705189334130692,9.959536942333155,148.3432823300447,234.99653001962943,0.0
0.021,3.9891051824829464,-2.0457889559126508,10.0,0.0,8.135310004560049,10.334315260302239,154.92060212100432,234.99653001962943,0.0
0.022,4.079618141396171,-2.0489696811670974,10.0,0.0,8.560139305503519,10.705547790999272,161.01925282597162,234.99653001962943,0.0
0.023,4.171109372430197,-2.048468292080302,10.0,0.0,8.979521969370257,11.072981092896333,166.534238406907,234.99653001962943,0.0
0.024,4.266936196769627,-2.039517194249811,10.0,0.0,9.392730090169543,11.435983292623375,171.8647834235234,234.99653001962943,0.0
0.025,4.367255527950721,-2.0225841458509217,10.0,0.0,9.79914449451603,11.793929226271104,177.02637022703064,234.99653001962943,0.0
0.026000000000000002,4.4734353073349595,-1.9962166741499119,10.0,0.0,10.197980960389518,12.146045424568259,181.63161391243256,234.99653001962943,0.0
0.027,4.582366840795821,-1.966358349113627,10.0,0.0,10.589124658468391,12.491912978736195,185.74793639675826,234.99653001962943,0.0
0.028,4.700058850757774,-1.9240450691803936,10.0,0.0,10.971384864613876,12.830451341534015,189.43662766964098,234.99653001962943,0.0
0.029,4.820934284790598,-1.879137197786803,10.0,0.0,11.344756153370636,13.161242511022618,192.73598774770625,234.99653001962943,0.0
0.03,4.952016225740939,-1.821000614527957,10.0,0.0,11.707923484756042,13.483081433273819,195.59831968863915,234.99653001962943,0.0
0.031,5.086039273572549,-1.7621311371320891,10.0,0.0,12.061063698547066,13.79562148058647,197.80891551030922,234.99653001962943,0.0
0.032,5.230431844273564,-1.6911110488141978,10.0,0.0,12.40292038074925,14.097678592248165,200.4421589734679,234.99653001962943,0.0
0.033,5.380124186618445,-1.6166151787533525,10.0,0.0,12.733312761073865,14.38869342901298,201.91742172589852,234.99653001962943,0.0
0.034,5.537594793894332,-1.535029134414507,10.0,0.0,13.051537880865839,14.667821176756876,203.18880493813168,234.99653001962943,0.0
0.035,5.698947813469154,-1.4530296333491768,10.0,0.0,13.357649178779205,14.934684535625108,203.60405746232266,234.99653001962943,0.0
0.036000000000000004,5.870474243492053,-1.3603000477825025,10.0,0.0,13.65045542338638,15.188218311291084,204.28541056101804,234.99653001962943,0.0
0.037,6.041188711220851,-1.275010780747051,10.0,0.0,13.930879897581198,15.42861600670124,205.2233356988433,234.99653001962943,0.0
0.038,6.228175208801664,-1.168399557236846,10.0,0.0,14.196427351981786,15.654155009933262,200.35169734043586,234.99653001962943,0.0
0.039,6.404895489618571,-1.0845312562500289,10.0,0.0,14.449814560392067,15.86612549236809,209.64773540576442,234.99653001962943,0.0
0.04,6.534612624563911,-1.0851225869390002,10.0,0.0,14.699963825590459,16.069735965364643,218.170241886545,234.99653001962943,0.0
0.041,6.621487035821765,-1.1484636683301073,10.0,0.0,14.952420817214799,16.26974130369247,220.68166573712315,234.99653001962943,0.0
0.042,6.6704785161669795,-1.2647840534085386,10.0,0.0,15.211794475054209,16.47047148862455,233.10654395573727,234.99653001962943,0.0
0.043000000000000003,6.709376245503157,-1.3867642159960276,6.193161645429063,0.0,15.477558399636717,16.254524966421037,233.34282368861264,234.99653001962943,0.0
0.044,6.53711027772825,-1.4056139936097183,6.091558842301544,0.0,15.696004953452256,16.132979797846414,242.94125980086173,234.99653001962943,0.0
0.045,6.324448817297211,-1.4480607256101297,1.212893488364676,0.0,15.884932977772689,15.531466741578686,240.72350149858292,234.99653001962943,0.0
0.046,5.880732617066726,-1.3600598541961415,2.264502924714546,0.0,15.984712330858763,15.22014365232867,249.78447772802699,234.99653001962943,0.0
0.047,5.505269250619796,-1.3222992588223503,-2.4138646670914623,0.0,16.04010778293425,14.461658086156962,244.71780159536087,234.99653001962943,0.0
0.048,4.936843884789852,-1.2110579158404862,0.022260683484281785,0.0,16.00225619141075,14.158090242868191,246.68562034381324,234.99653001962943,0.0
0.049,4.557725640345948,-1.1677618164611756,-1.0785395939837423,0.0,15.93418281720882,13.771663493959238,248.10709759266095,234.99653001962943,0.0
0.05,4.1988149016629945,-1.1535356658016616,-1.9203838941379114,0.0,15.833142189957432,13.37116621108939,247.49325037977934,234.99653001962943,0.0
0.051000000000000004,3.856722836233585,-1.1297350968422635,-1.7384274912986069,0.0,15.699680096065261,13.063089260905665,247.4982117754465,234.99653001962943,0.0
0.052000000000000005,3.5714983545773986,-1.1272095399654252,-1.865925006690353,0.0,15.548716710977077,12.784583277957495,247.10221112789708,234.99653001962943,0.0
0.053,3.3265406846539394,-1.1343532408493018,-1.7889814939983228,0.0,15.385810128768885,12.552663415220382,246.40554203813392,234.99653001962943,0.0
0.054,3.1233392584186346,-1.149725550823496,-1.5547370693017868,0.0,15.217621735596124,12.372544912312506,245.57652864421993,234.99653001962943,0.0
0.055,2.9635798706438874,-1.173220853677019,-1.2460303585907004,0.0,15.050671091664,12.24077623270227,244.72028939780154,234.99653001962943,0.0
0.056,2.8449905731359375,-1.202825042104664,-0.9151483291632232,0.0,14.890260151862563,12.150246541637877,243.9523252504406,234.99653001962943,0.0
0.057,2.7625364492720044,-1.2348631963630878,-0.6207242077908632,0.0,14.740065492018998,12.089690619406428,243.12883319929426,234.99653001962943,0.0
0.058,2.707570182314106,-1.2661108608741478,-0.29030121401434617,0.0,14.601951567490264,12.058794859642182,241.92676533761676,234.99653001962943,0.0
0.059000000000000004,2.6753542091883937,-1.2975585444311104,0.24143036364453385,0.0,14.477706227984132,12.075357621380448,240.66642405390803,234.99653001962943,0.0
0.06,2.675315888542007,-1.3292934976802868,0.8149020651561112,0.0,14.370718066624287,12.135286199923808,239.2994535457951,234.99653001962943,0.0
0.061,2.70685463658053,-1.3623925816395708,1.4553580839509181,0.0,14.283745128957786,12.23976890403846,238.01281829265818,234.99653001962943,0.0
0.062,2.772150185629592,-1.3933126493119965,2.0685128277890916,0.0,14.218987972073776,12.37928138269423,237.36916396558573,234.99653001962943,0.0
0.063,2.8655136604824167,-1.4208463441605663,2.366613651865756,0.0,14.17737728450037,12.515409414262761,238.564039264861,234.99653001962943,0.0
0.064,2.9667643546539706,-1.4346552191055693,1.7335009097757994,0.0,14.15478410813661,12.55093622243609,238.98353957761748,234.99653001962943,0.0
0.065,3.009206537550124,-1.4322281074111851,1.4838806578176849,0.0,14.137597859190736,12.555867798684353,234.13302497335872,234.99653001962943,0.0
0.066,3.0331765002629782,-1.3881282611102552,3.917773010409773,0.0,14.117796680788116,12.826599679648467,232.17415652597106,234.99653001962943,0.0
0.067,3.189850909587836,-1.3797657764431188,4.925430969040185,0.0,14.12656993347179,13.13778722120072,235.84069694935602,234.99653001962943,0.0
0.068,3.398442265158223,-1.4072532104982824,3.0837190880504406,0.0,14.168691857635064,13.18469014235145,233.80858579642086,234.99653001962943,0.0
0.069,3.4898372611874526,-1.3844606643529103,4.111654106750105,0.0,14.20850982708054,13.354637398662778,227.61196518406106,234.99653001962943,0.0
0.07,3.626318904172121,-1.333783652311578,7.283810061285687,0.0,14.255994179349507,13.836130500331421,233.59767359592695,234.99653001962943,0.0
0.07100000000000001,3.9233856492956494,-1.3577900300337793,4.304944419589768,0.0,14.350026878228293,13.883513421394447,230.7738796945419,234.99653001962943,0.0
0.07200000000000001,4.0452075734913056,-1.3251361979022025,5.759067873533166,0.0,14.435562614013815,14.114873812379496,226.69633605710766,234.99653001962943,0.0
0.073,4.236919157758678,-1.2551684584269536,7.880841631875507,0.0,14.528310902298326,14.530635561695357,231.457205869057,234.99653001962943,0.0
0.074,4.513122391772177,-1.2669185413024424,5.535799967406564,0.0,14.655352723197026,14.606458404334274,224.8011670179756,234.99653001962943,0.0
0.075,4.670655115520027,-1.1929944682262605,8.965773022963806,0.0,14.769023497402618,15.07358403028302,229.7723763094322,234.99653001962943,0.0
0.076,4.982608720561832,-1.1826170182380724,6.532409914337476,0.0,14.917637478014582,15.17065492923586,222.55804422058796,234.99653001962943,0.0
0.077,5.163677442064679,-1.1098378807785079,10.0,0.0,15.053195219839965,15.661850653548866,227.72760553515778,234.99653001962943,0.0
0.078,5.500664612966946,-1.1039411393561127,7.746590187974813,0.0,15.224395909732243,15.799673697849485,221.3838941460246,234.99653001962943,0.0
0.079,5.727604431747317,-1.0199339149985365,10.0,0.0,15.383077007800242,16.189650175795474,223.48937910821368,234.99653001962943,0.0
0.08,6.02649525642375,-1.001989054092196,10.0,0.0,15.563753781399923,16.50335442510681,224.34529364226304,234.99653001962943,0.0
0.081,6.343854744525917,-0.9387728907877291,9.77244872473107,0.0,15.750958973216337,16.74680465112293,219.21589024562724,234.99653001962943,0.0
0.082,6.613817182525823,-0.881702320712129,10.0,0.0,15.938143067377455,16.985414253452376,229.63202872993662,234.99653001962943,0.0
0.083,6.759721322564319,-1.0065857897493136,7.290633455115452,0.0,16.14477759965025,16.905225641250766,237.2263988913397,234.99653001962943,0.0
0.084,6.734625241118669,-1.052135988471807,3.47114968569681,0.0,16.326491504644704,16.4648894046688,236.13468229569136,234.99653001962943,0.0
0.085,6.439997480847955,-1.0434402695577472,4.005626460760358,0.0,16.444588364413747,16.215903558010975,245.42721153041592,234.99653001962943,0.0
0.08600000000000001,6.162975300134859,-1.0542941684648646,-0.7449449717097831,0.0,16.527257839609025,15.50324451894922,241.20164234471233,234.99653001962943,0.0
0.08700000000000001,5.671400158692265,-0.9624917846362633,1.3057884978911831,0.0,16.520187662168386,15.194507771045522,246.0613040351434,234.99653001962943,0.0
0.088,5.306907902364266,-0.9633631570498455,-1.2346900874794908,0.0,16.483964702485224,14.65115609788301,244.98745980550302,234.99653001962943,0.0
0.089,4.892478547981414,-0.9167126726762956,-0.7976772705180402,0.0,16.391888604448894,14.273935798206729,246.68840905902545,234.99653001962943,0.0
0.09,4.53916522834538,-0.9206118249368872,-1.7650706876732123,0.0,16.272193497840973,13.849166686253893,246.70460618561967,234.99653001962943,0.0
0.091,4.19640699320982,-0.9182759439190755,-1.8902500126302257,0.0,16.121695052263995,13.484979455930384,246.93217041861502,234.99653001962943,0.0
0.092,3.8905950535156366,-0.9314147161358137,-2.1233885331177555,0.0,15.95129635196638,13.147979391092472,246.61625213901505,234.99653001962943,0.0
0.093,3.616112670615474,-0.9518609346648921,-2.081626614511627,0.0,15.76635521153077,12.861699601682217,246.21296123363604,234.99653001962943,0.0
0.094,3.381850941546397,-0.9806627930164052,-1.9921454739621884,0.0,15.574243948431072,12.618002949812396,245.61053517304873,234.99653001962943,0.0
0.095,3.1843961109459955,-1.017121482589179,-1.797072495202729,0.0,15.380696583723852,12.419405467152995,244.76886491305225,234.99653001962943,0.0
0.096,3.023323913880681,-1.0596003826985496,-1.4739607141387188,0.0,15.190952299337717,12.270647955789434,243.94388044263906,234.99653001962943,0.0
0.097,2.9005614024502755,-1.106600228029655,-1.150941983162216,0.0,15.010051886239166,12.161985864007079,243.15609892586457,234.99653001962943,0.0
0.098,2.8102233029730073,-1.1560484742636246,-0.8386469138373238,0.0,14.84134461390466,12.085931776237281,242.4298416580799,234.99653001962943,0.0
0.099,2.7468299659848125,-1.2035526709895936,-0.5498513963294984,0.0,14.686633639204143,12.035326812317548,241.8367152280181,234.99653001962943,0.0
0.1,2.7047929045487535,-1.2456650170228625,-0.3216900333824846,0.0,14.5464905816781,12.000511185456915,240.8349060978454,234.99653001962943,0.0
0.101,2.6753793180894103,-1.282837129309667,0.12083077092171379,0.0,14.420548076109815,12.004373614269896,239.6598772965868,234.99653001962943,0.0
0.10200000000000001,2.669374741200736,-1.3170889442772915,0.6617116987814287,0.0,14.310982042503229,12.050693611259442,238.39909425900362,234.99653001962943,0.0
0.10300000000000001,2.6912024758243716,-1.3517487197766869,1.2580775751792843,0.0,14.220474669111514,12.139155345737052,236.88961784900522,234.99653001962943,0.0
0.10400000000000001,2.7442319720963075,-1.383666196362237,1.993884901884726,0.0,14.151028531176152,12.279080349357677,236.2976253413704,234.99653001962943,0.0
0.105,2.833828201652336,-1.4138448981240872,2.276870202484723,0.0,14.105519989824327,12.412513258333203,237.0837102786312,234.99653001962943,0.0
0.106,2.931765124446972,-1.4311659551255436,1.862955931264307,0.0,14.079509122757779,12.469814500223896,238.47028635791244,234.99653001962943,0.0
0.107,2.9836307315109094,-1.4364047749030515,1.1349303282408565,0.0,14.062232526192469,12.438115010049405,233.67211013205656,234.99653001962943,0.0
0.108,2.989040700226735,-1.3922576223932959,3.5472626400445266,0.0,14.038605065292401,12.680418179076375,230.60646659240103,234.99653001962943,0.0
0.109,3.1232551860676017,-1.381394526753751,5.123985044144574,0.0,14.040817198389782,13.030734932688267,234.49424724257975,234.99653001962943,0.0
0.11,3.3443993443840307,-1.416603784677671,3.185117546825714,0.0,14.08182144286663,13.094214862946231,234.49810142782812,234.99653001962943,0.0
0.111,3.445979905706518,-1.4028051549279232,3.1881747401195417,0.0,14.123203314069888,13.166209770699286,228.07781299750502,234.99653001962943,0.0
0.112,3.5317839237029194,-1.3403935209412225,6.467506125502334,0.0,14.160919195487079,13.587416618890154,231.02432473391565,234.99653001962943,0.0
0.113,3.786764711344855,-1.3404650436215129,5.033972310154159,0.0,14.23761615741634,13.752602490400871,232.3607528349864,234.99653001962943,0.0
0.114,3.9527414757985677,-1.3301085415365388,4.392116031465206,0.0,14.322022079847596,13.836962982237656,225.18666502123654,234.99653001962943,0.0
0.115,4.0765684902225425,-1.2524843169727264,8.077258588324074,0.0,14.39798835953824,14.321151057233156,230.00901597931437,234.99653001962943,0.0
0.116,4.3782152818365745,-1.256588293414876,5.715958249688308,0.0,14.51600449841364,14.435979612946335,225.17011889704932,234.99653001962943,0.0
0.117,4.546438177917072,-1.2188301638512036,8.233670902046633,0.0,14.629507444956392,14.836200271468803,227.47284194534873,234.99653001962943,0.0
0.11800000000000001,4.841789019806027,-1.1826651142661664,7.157546258639734,0.0,14.768081588538395,15.033391957847973,224.00355834477344,234.99653001962943,0.0
0.11900000000000001,5.0476889967140055,-1.154070574459564,9.002117775675941,0.0,14.909733737517245,15.41869051421449,226.06376847945293,234.99653001962943,0.0
0.12,5.356131797072387,-1.1083568848369,8.061340323737959,0.0,15.071007966774435,15.625823486688361,220.79441367145373,234.99653001962943,0.0
0.121,5.582345731698158,-1.0662426760899955,10.0,0.0,15.232692644287358,16.029231818943515,224.8528049276941,234.99653001962943,0.0
0.122,5.906043069042018,-1.0290581823628864,8.893519736194094,0.0,15.414880535051994,16.23402379218161,219.4673715200275,234.99653001962943,0.0
0.123,6.163585843023749,-0.9522746040340042,10.0,0.0,15.591254485385068,16.544240257064512,219.5360587365257,234.99653001962943,0.0
0.124,6.439937970559036,-0.914566712909135,10.0,0.0,15.777632654932678,16.80218436156531,227.9805162802287,234.99653001962943,0.0
0.125,6.665195753798088,-0.9381638352973556,7.638350763265297,0.0,15.974140180349556,16.771175621649032,230.55824651887676,234.99653001962943,0.0
0.126,6.680227833259938,-0.9873740431063938,6.393868478948795,0.0,16.15307323086823,16.650240998450183,233.96045357335385,234.99653001962943,0.0
0.127,6.556274174689889,-1.0618550192973513,4.703125716173006,0.0,16.30972031931807,16.399541484798245,241.98609082954948,234.99653001962943,0.0
0.128,6.349857305205113,-1.0665946259302137,0.6204114799759877,0.0,16.425409294525437,15.77885181206019,239.80471814763686,234.99653001962943,0.0
0.129,5.90866699626671,-1.013614381867209,1.6630159396522233,0.0,16.461585182025004,15.433780402331408,243.022923226419,234.99653001962943,0.0
0.13,5.5451934146845385,-0.9970063194811118,-0.02635053180674607,0.0,16.458339255379897,14.966147556752869,244.7323953973699,234.99653001962943,0.0
0.131,5.156609786559707,-0.9667568427777506,-0.9784452710596026,0.0,16.405493275027933,14.496226109742365,245.79936443636456,234.99653001962943,0.0
0.132,4.760570688212828,-0.9464654301654741,-1.6199581347242749,0.0,16.309010187389802,14.046645206324033,246.13336164645168,234.99653001962943,0.0
0.133,4.3848942348295,-0.9286374827717474,-1.898325056036057,0.0,16.175459158086465,13.64553287066477,246.50606396473097,234.99653001962943,0.0
0.134,4.045476174184082,-0.927501552525083,-2.1997715546267194,0.0,16.01520532529434,13.274380442146406,246.271711527789,234.99653001962943,0.0
0.135,3.7401992905048833,-0.9358840810561871,-2.195347151237327,0.0,15.834795070370472,12.958005299157668,245.90897881924874,234.99653001962943,0.0
0.136,3.4789273984447595,-0.9563581339668908,-2.1231052849633953,0.0,15.642956647174989,12.688816145521471,245.3222412744784,234.99653001962943,0.0
0.137,3.2593655618015744,-0.9871379053163019,-1.9329936251267057,0.0,15.44656418525476,12.46909101195879,244.57504625219474,234.99653001962943,0.0
0.138,3.080782834724968,-1.0263991007930655,-1.6551812763105342,0.0,15.251849389959236,12.297805868943765,243.69770747414282,234.99653001962943,0.0
0.139,2.941035079745626,-1.0725463468414194,-1.3035236618297077,0.0,15.064161145002311,12.173668400582377,242.86050305856074,234.99653001962943,0.0
