timestamp,iq,id,iq_ref,id_ref,vq,vd,omega,omega_ref,r
0.0,0.0,0.0,0.0,0.0,0.0,0.0,0.0,404.290065123994,0.0
0.001,0.0,0.0,10.0,0.0,0.0,1.0999999999999999,6.115472199294103,404.290065123994,0.0
0.002,0.5307369851907212,-0.2913212625381807,10.0,0.0,0.14204533887919985,1.9316189316290207,13.317801563642547,404.290065123994,0.0
0.003,1.0842913387634832,-0.6024330830807904,10.0,0.0,0.384357124667687,2.6386968949419622,20.697939467553027,404.290065123994,0.0
0.004,1.5590443546685477,-0.8700465084428163,10.0,0.0,0.6994718867930164,3.2526109522886295,28.232747544420146,404.290065123994,0.0
0.005,1.9399447555359186,-1.0838738622210777,10.0,0.0,1.065311453102468,3.7994935661768023,35.92944872443006,404.290065123994,0.0
0.006,2.239750732602683,-1.2510087368845633,10.0,0.0,1.4655018868449925,4.299102221838433,43.75633668444442,404.290065123994,0.0
0.007,2.4770151619816017,-1.382020589851471,10.0,0.0,1.8883740978591532,4.765668027847139,51.58766747378032,404.290065123994,0.0
0.008,2.6680767290418097,-1.4872241871505252,10.0,0.0,2.325877945545995,5.209220346273558,59.45942083902103,404.290065123994,0.0
0.009000000000000001,2.8266491704841292,-1.5730794701170803,10.0,0.0,2.772378685460125,5.636635464737965,67.35059094018146,404.290065123994,0.0
0.01,2.962077666392183,-1.645500646948331,10.0,0.0,3.224078639851053,6.052647735211881,75.20908322432116,404.290065123994,0.0
0.011,3.0811061533574158,-1.7084279320504514,10.0,0.0,3.678407615443203,6.460489925470405,83.0265951655913,404.290065123994,0.0
0.012,3.188848746459569,-1.7638278597420747,10.0,0.0,4.133552631697047,6.862319393890706,90.74118064793086,404.290065123994,0.0
0.013000000000000001,3.288205119878689,-1.8140726097274587,10.0,0.0,4.588339016389012,7.259628641949282,98.35820682563939,404.290065123994,0.0
0.014,3.3820602099432007,-1.8592355758795645,10.0,0.0,5.041843166194517,7.653355107498287,105.90865295623543,404.290065123994,0.0
0.015,3.4721069852858886,-1.899829032412081,10.0,0.0,5.493383198131427,8.044092747085895,113.37727610343421,404.290065123994,0.0
0.016,3.5596145800153947,-1.9360338400176071,10.0,0.0,5.94241958510469,8.43218525824161,120.68508583176356,404.290065123994,0.0
0.017,3.645144415105338,-1.9685384477868613,10.0,0.0,6.388575043274759,8.817838951066484,127.83962377537456,404.290065123994,0.0
0.018000000000000002,3.730251927866576,-1.9959253041084188,10.0,0.0,6.83136783302799,9.201036292373047,134.85405702603322,404.290065123994,0.0
0.019,3.81544967906247,-2.018253592643655,10.0,0.0,7.270383321112213,9.581672501020332,141.68976328564074,404.290065123994,0.0
0.02,3.9014648862453374,-2.0350875541282063,10.0,0.0,7.705189334130692,9.959536942333155,148.3432823300447,404.290065123994,0.0
0.021,3.9891051824829464,-2.0457889559126508,10.0,0.0,8.135310004560049,10.334315260302239,154.92060212100432,404.290065123994,0.0
0.022,4.079618141396171,-2.0489696811670974,10.0,0.0,8.560139305503519,10.705547790999272,161.01925282597162,404.290065123994,0.0
0.023,4.171109372430197,-2.048468292080302,10.0,0.0,8.979521969370257,11.072981092896333,166.534238406907,404.290065123994,0.0
0.024,4.266936196769627,-2.039517194249811,10.0,0.0,9.392730090169543,11.435983292623375,171.8647834235234,404.290065123994,0.0
0.025,4.367255527950721,-2.0225841458509217,10.0,0.0,9.79914449451603,11.793929226271104,177.02637022703064,404.290065123994,0.0
0.026000000000000002,4.4734353073349595,-1.9962166741499119,10.0,0.0,10.197980960389518,12.146045424568259,181.63161391243256,404.290065123994,0.0
0.027,4.582366840795821,-1.966358349113627,10.0,0.0,10.589124658468391,12.491912978736195,185.74793639675826,404.290065123994,0.0
0.028,4.700058850757774,-1.9240450691803936,10.0,0.0,10.971384864613876,12.830451341534015,189.43662766964098,404.290065123994,0.0
0.029,4.820934284790598,-1.879137197786803,10.0,0.0,11.344756153370636,13.161242511022618,192.73598774770625,404.290065123994,0.0
0.03,4.952016225740939,-1.821000614527957,10.0,0.0,11.707923484756042,13.483081433273819,195.59831968863915,404.290065123994,0.0
0.031,5.086039273572549,-1.7621311371320891,10.0,0.0,12.061063698547066,13.79562148058647,197.80891551030922,404.290065123994,0.0
0.032,5.230431844273564,-1.6911110488141978,10.0,0.0,12.40292038074925,14.097678592248165,200.4421589734679,404.290065123994,0.0
0.033,5.380124186618445,-1.6166151787533525,10.0,0.0,12.733312761073865,14.38869342901298,201.91742172589852,404.290065123994,0.0
0.034,5.537594793894332,-1.535029134414507,10.0,0.0,13.051537880865839,14.667821176756876,203.18880493813168,404.290065123994,0.0
0.035,5.698947813469154,-1.4530296333491768,10.0,0.0,13.357649178779205,14.934684535625108,203.60405746232266,404.290065123994,0.0
0.036000000000000004,5.870474243492053,-1.3603000477825025,10.0,0.0,13.65045542338638,15.188218311291084,204.28541056101804,404.290065123994,0.0
0.037,6.041188711220851,-1.275010780747051,10.0,0.0,13.930879897581198,15.42861600670124,205.2233356988433,404.290065123994,0.0
0.038,6.228175208801664,-1.168399557236846,10.0,0.0,14.196427351981786,15.654155009933262,200.35169734043586,404.290065123994,0.0
0.039,6.404895489618571,-1.0845312562500289,10.0,0.0,14.449814560392067,15.86612549236809,209.64773540576442,404.290065123994,0.0
0.04,6.534612624563911,-1.0851225869390002,10.0,0.0,14.699963825590459,16.069735965364643,218.170241886545,404.290065123994,0.0
0.041,6.621487035821765,-1.1484636683301073,10.0,0.0,14.952420817214799,16.26974130369247,220.68166573712315,404.290065123994,0.0
0.042,6.6704785161669795,-1.2647840534085386,10.0,0.0,15.211794475054209,16.47047148862455,233.10654395573727,404.290065123994,0.0
0.043000000000000003,6.709376245503157,-1.3867642159960276,10.0,0.0,15.477558399636717,16.673277185423842,235.10815372853793,404.290065123994,0.0
0.044,6.744196093263161,-1.5028656568708394,10.0,0.0,15.74857785831126,16.87893749904121,248.8181267625822,404.290065123994,0.0
0.045,6.750563942850831,-1.6564343609015326,10.0,0.0,16.02879294551472,17.090781462187255,251.61117095327992,404.290065123994,0.0
0.046,6.764566527560506,-1.7840489455190416,10.0,0.0,16.314672837580048,17.307985931916857,266.60539535969383,404.290065123994,0.0
0.047,6.752169677737121,-1.9446655565152717,10.0,0.0,16.610076868775216,17.533561623207692,270.0627790167984,404.290065123994,0.0
0.048,6.7291903821171735,-2.110358990489937,10.0,0.0,16.91511817760721,17.768523902508925,283.13731951482634,404.290065123994,0.0
0.049,6.714097190323873,-2.246352557911731,10.0,0.0,17.22645394156277,18.011924542904307,294.70561782835244,404.290065123994,0.0
0.05,6.666841209228205,-2.4219663531358275,10.0,0.0,17.548953774962747,18.267165921658286,300.1294548425776,404.290065123994,0.0
0.051000000000000004,6.612335516543512,-2.59336894353628,10.0,0.0,17.88182590988993,18.53465621226123,310.75154600411304,404.290065123994,0.0
0.052000000000000005,6.568447424188529,-2.726701034625408,10.0,0.0,18.22111236450049,18.81296732052879,322.35703405819294,404.290065123994,0.0
0.053,6.5036136539679195,-2.8764091099274185,10.0,0.0,18.569435851849082,19.104068797231378,330.9557012510771,404.290065123994,0.0
0.054,6.434362099984388,-3.0149932598739144,10.0,0.0,18.925784313874168,19.407861808234543,339.4707232587175,404.290065123994,0.0
0.055,6.370891759459199,-3.1253006473392393,10.0,0.0,19.28762520191878,19.723199586257838,348.00092263299223,404.290065123994,0.0
0.056,6.314459991163816,-3.2071523724558277,10.0,0.0,19.65271639484943,20.048760466390505,356.29964302226927,404.290065123994,0.0
0.057,6.266092078485367,-3.262894600420583,10.0,0.0,20.01916768432525,20.383030530514645,362.98468703488817,404.290065123994,0.0
0.058,6.234656406121481,-3.2830044001420036,10.0,0.0,20.38405550695561,20.723492962007192,368.0316803659419,404.290065123994,0.0
0.059000000000000004,6.228510489334133,-3.2600491726267444,10.0,0.0,20.743774617448285,21.0667596267365,372.35801287012686,404.290065123994,0.0
0.06,6.247959954981508,-3.201438289803519,10.0,0.0,21.095630838529225,21.40947063565305,373.88739853789605,404.290065123994,0.0
0.061,6.298571070969623,-3.1064761741463998,10.0,0.0,21.436712814499675,21.747723437683817,371.47602194372377,404.290065123994,0.0
0.062,6.38094735961424,-2.982369480030801,10.0,0.0,21.76480975788002,22.077703876517536,366.2922057853833,404.290065123994,0.0
0.063,6.53566146196873,-2.7695519558602215,10.0,0.0,22.070926190088084,22.39130117743337,372.07145994459506,404.290065123994,0.0
0.064,6.708566607552835,-2.560747003310555,10.0,0.0,22.35695033962817,22.686677966487718,365.1882535794375,404.290065123994,0.0
0.065,6.897199383751794,-2.3667028673086685,10.0,0.0,22.62465294768497,22.962098937664592,356.7297130485294,404.290065123994,0.0
0.066,7.167218997264825,-2.0824440278168583,10.0,0.0,22.863799361069702,23.20893224280502,357.7888817172531,404.290065123994,0.0
0.067,7.423387055578651,-1.859201647307153,10.0,0.0,23.082000390168847,23.42951856849048,345.1266644280509,404.290065123994,0.0
0.068,7.736929428236853,-1.5824320316278497,10.0,0.0,23.27222771500701,23.617938384108047,342.9584987314189,404.290065123994,0.0
0.069,8.04132723792414,-1.3546495884062866,10.0,0.0,23.43998591632552,23.77619061530866,334.2677598047511,404.290065123994,0.0
0.07,8.395997401416553,-1.0747195592463576,10.0,0.0,23.578279041856877,23.89942370363377,322.7417355360636,404.290065123994,0.0
0.07100000000000001,8.726669482066718,-0.8579631993863083,10.0,0.0,23.694022264374595,23.99133556844291,337.9106389559309,404.290065123994,0.0
0.07200000000000001,8.91385728821635,-0.8925675486457335,10.0,0.0,23.81335639313859,24.06834663115294,344.8606079910171,404.290065123994,0.0
0.073,8.941721008651788,-1.1508071676799903,10.0,0.0,23.95651852989837,24.148396869281978,362.43451347602996,404.290065123994,0.0
0.074,8.927907180207171,-1.4305443375681337,10.0,0.0,24.121558169292424,24.236556455607346,368.59250641149885,404.290065123994,0.0
0.075,8.859340450140312,-1.7499202918046703,10.0,0.0,24.31124378664675,24.33980824926249,387.10067316750514,404.290065123994,0.0
0.076,8.767176841935807,-2.0562826706616475,10.0,0.0,24.52279212376306,24.461155754889383,396.7190369145668,404.290065123994,0.0
0.077,8.62162972262067,-2.4016532593838043,10.0,0.0,24.76024751870129,24.606611890707832,408.83095327273656,404.290065123994,0.0
0.078,8.47560200325128,-2.694417929744825,4.519778116504728,0.0,25.017253395580042,24.173051123191264,422.48252006212044,404.290065123994,0.0
0.079,7.992172499038281,-2.868344893818846,-2.4879298275684754,0.0,25.221406927363784,23.144218333370866,422.5143125158795,404.290065123994,0.0
0.08,7.12989762866691,-2.7927647212601623,-2.6860685283668646,0.0,25.29220873836492,22.376981938762505,424.31206126225186,404.290065123994,0.0
0.081,6.297081379129932,-2.6675044877235052,-3.7851628629356178,0.0,25.26618390484166,21.657617413665875,424.4551467337576,404.290065123994,0.0
0.082,5.531664494278442,-2.5139036363281546,-4.058356414786125,0.0,25.155181610842945,21.064394205207,422.0186948475243,404.290065123994,0.0
0.083,4.892997537100987,-2.3483348952993035,-3.0174167689047637,0.0,24.979280672398996,20.699227581200617,417.647541372283,404.290065123994,0.0
0.084,4.445363838911547,-2.2090565640475024,-0.9654147937670174,0.0,24.77078823637139,20.61115138378587,412.5817092174975,404.290065123994,0.0
0.085,4.235035211863316,-2.110620923571986,1.4845848426906887,0.0,24.56490228706528,20.778673314762216,407.3943116518406,404.290065123994,0.0
0.08600000000000001,4.253503990465023,-2.062482627324619,4.047241160240677,0.0,24.392046269604965,21.162111804359576,401.9048745966611,404.290065123994,0.0
0.08700000000000001,4.478661563246096,-2.044940294146569,6.81581159310376,0.0,24.273371429163298,21.7442543824707,401.2325168206283,404.290065123994,0.0
0.088,4.888957352754416,-2.046618150359561,7.182565964153823,0.0,24.225138318092128,22.226091534095318,402.5824426615249,404.290065123994,0.0
0.089,5.304021444638169,-2.0375475761098,6.524679268330206,0.0,24.228897691560924,22.53733248698713,389.2219875280976,404.290065123994,0.0
0.09,5.668592040376187,-1.938142156257192,10.0,0.0,24.25256133253074,23.17073730476621,385.6293507979048,404.290065123994,0.0
0.091,6.214123204857945,-1.828967751972976,10.0,0.0,24.326183960908736,23.65205207541204,384.0668748577389,404.290065123994,0.0
0.092,6.715545678278316,-1.747622606213786,10.0,0.0,24.432719581522864,24.042896471399683,370.0814107520396,404.290065123994,0.0
0.093,7.226616731362131,-1.5656618180044002,10.0,0.0,24.54848384442889,24.354106398744953,368.6346476920939,404.290065123994,0.0
0.094,7.688036019551058,-1.3858615856394372,10.0,0.0,24.665834256100794,24.600126348476344,355.49053738541227,404.290065123994,0.0
0.095,8.151016534014284,-1.1481343199880394,10.0,0.0,24.771699624680636,24.78696568069273,347.8104283387391,404.290065123994,0.0
0.096,8.567592942175231,-0.950104958479443,10.0,0.0,24.866256432514707,24.924514016792394,347.1460447336232,404.290065123994,0.0
0.097,9.003070472948536,-0.698944979363787,10.0,0.0,24.93946508908769,25.01402643576203,353.59552383290895,404.290065123994,0.0
0.098,9.144443240641024,-0.8981656598630283,10.0,0.0,25.038729996546415,25.09071224935356,371.5878582252119,404.290065123994,0.0
0.099,9.180818964259776,-1.1999146985457863,10.0,0.0,25.166937182068533,25.167068370410686,378.1388404678806,404.290065123994,0.0
0.1,9.159934969698853,-1.5212393915103881,10.0,0.0,25.32228748698345,25.251270594552203,396.842894485782,404.290065123994,0.0
0.101,9.06724724765071,-1.89229906389427,10.0,0.0,25.508126300853583,25.352574436250727,405.00193656943503,404.290065123994,0.0
0.10200000000000001,8.95157347289627,-2.2331774066234584,6.167120108173323,0.0,25.719297638482935,25.052512225068,420.525877111674,404.290065123994,0.0
0.10300000000000001,8.57973695251,-2.495899548231977,-1.7572082828229565,0.0,25.904836273380717,24.009971324170095,421.83619090118594,404.290065123994,0.0
0.10400000000000001,7.764672529946016,-2.5039327555769493,-2.587826435350852,0.0,25.96582338609081,23.164052385261833,426.54067186328143,404.290065123994,0.0
0.105,6.907580870082489,-2.45834336058967,-5.1625729837914704,0.0,25.93102472811701,22.220037551071567,427.7790550457861,404.290065123994,0.0
0.106,6.012542867572198,-2.3503821832667557,-6.016654474261722,0.0,25.79388461696591,21.388626099713115,426.1756877932535,404.290065123994,0.0
0.107,5.19916755635622,-2.2126505665884366,-5.433827074688008,0.0,25.57324650573269,20.77981451544187,423.23546142786796,404.290065123994,0.0
0.108,4.562370781961773,-2.083868626729628,-4.15316785503399,0.0,25.30100234997799,20.40677841071186,419.11011689627566,404.290065123994,0.0
0.109,4.132452760241558,-1.9886608364358536,-2.2386961069606546,0.0,25.00949396179202,20.28252981561619,413.8172282213936,404.290065123994,0.0
0.11,3.924069129379858,-1.93153556397059,0.3124765995063896,0.0,24.729379850846836,20.421662540619707,408.6773122820058,404.290065123994,0.0
0.111,3.9420194568556983,-1.9174317607209181,2.8385620976201604,0.0,24.490210257863723,20.767169887425247,402.8867722875003,404.290065123994,0.0
0.112,4.15216936948746,-1.9358790049855852,5.7478650232378365,0.0,24.31167859376108,21.326035019973993,399.2049160097415,404.290065123994,0.0
0.113,4.553924703730221,-1.9627981921337267,7.639644653259768,0.0,24.20966324746723,21.948071615263444,401.9475370491942,404.290065123994,0.0
0.114,5.045642405350493,-1.9976716621988388,6.2917594142814295,0.0,24.183619985167383,22.28044644997094,394.0787125239975,404.290065123994,0.0
0.115,5.4239503178386235,-1.9627240501098588,10.0,0.0,24.189225560537828,22.96166809843902,384.1727363340633,404.290065123994,0.0
0.116,5.991855593283175,-1.8929212833190927,10.0,0.0,24.25506391499195,23.47955923256614,386.878904304292,404.290065123994,0.0
0.117,6.524331370884882,-1.8120865450098373,10.0,0.0,24.35791375386726,23.899351805944214,373.82100876099645,404.290065123994,0.0
0.11800000000000001,7.021789983045289,-1.6823873047424165,10.0,0.0,24.478999297146522,24.238054416310387,371.7317993469032,404.290065123994,0.0
0.11900000000000001,7.510763350060521,-1.4751675717804837,10.0,0.0,24.60034936891133,24.506182835717787,358.1074403317142,404.290065123994,0.0
0.12,7.950565389687143,-1.2822515361341842,10.0,0.0,24.717228708848936,24.71614492967217,356.55726313490635,404.290065123994,0.0
0.121,8.392561452759713,-1.0456877150702946,10.0,0.0,24.81932346422765,24.87257720168315,342.319621202295,404.290065123994,0.0
0.122,8.823368407172431,-0.8009808567735917,10.0,0.0,24.90229985506759,24.980606917676226,351.22554763034043,404.290065123994,0.0
0.123,9.089839148991189,-0.8140313237548233,10.0,0.0,24.991664198373748,25.061127589098056,364.3066528364384,404.290065123994,0.0
0.124,9.190159307161231,-1.0365130311926354,10.0,0.0,25.104486657639818,25.134162117727797,371.9738238991344,404.290065123994,0.0
0.125,9.17462230926557,-1.3798075784227808,10.0,0.0,25.2488679069632,25.213887710771406,390.10423792702784,404.290065123994,0.0
0.126,9.125639027872541,-1.7073203986467047,10.0,0.0,25.41937705541093,25.30531166041726,399.55082346299076,404.290065123994,0.0
0.127,9.007239078034154,-2.083158865736949,8.514237671347924,0.0,25.620044787156157,25.253744435459858,411.56856244285626,404.290065123994,0.0
0.128,8.796334584648909,-2.3753608246122435,2.4325832082265517,0.0,25.82387285403651,24.5952918332899,423.196274066541,404.290065123994,0.0
0.129,8.20348269595361,-2.534878539156461,-3.5703346930412767,0.0,25.956097783022923,23.486667536339333,424.34813078535444,404.290065123994,0.0
0.13,7.28736067971867,-2.47938180078073,-4.346843709061613,0.0,25.956537971048885,22.571586252131823,426.6669630059701,404.290065123994,0.0
0.131,6.3770825256102555,-2.38215746602895,-5.730028798189204,0.0,25.855286302412555,21.694641222293384,426.5499595421724,404.290065123994,0.0
0.132,5.519825666524663,-2.2550452090131783,-5.894126010472145,0.0,25.663455192731792,20.976242159073642,424.12273247200403,404.290065123994,0.0
0.133,4.797995035219747,-2.1215743443001434,-4.878839148868053,0.0,25.40555661514886,20.49465121895977,420.5461040527691,404.290065123994,0.0
0.134,4.275369281265274,-2.0097287333784273,-3.2530853285383508,0.0,25.114320492758583,20.254380093341158,415.78434902774876,404.290065123994,0.0
0.135,3.9669122926844618,-1.9366328784121705,-0.987150655065717,0.0,24.8212587821084,20.270711755128424,410.4892574239041,404.290065123994,0.0
0.136,3.882704759641951,-1.9043268932423563,1.5984032238575017,0.0,24.55631370888294,20.52403391836763,405.14113719290896,404.290065123994,0.0
0.137,4.007546541527084,-1.9116746869380454,4.263952618665934,0.0,24.344326676462174,20.978309581262277,399.6280501526559,404.290065123994,0.0
0.138,4.318647879403125,-1.9390287848329226,7.067116288505857,0.0,24.201901386404423,21.61467875501218,399.3238725046569,404.290065123994,0.0
0.139,4.7939039283261105,-1.9766277336475728,7.26886703869872,0.0,24.141217886118103,22.11816227620136,400.58875107499466,404.290065123994,0.0
0.14,5.246932745424201,-1.9910396066058094,6.673440894019828,0.0,24.13816040451659,22.45263410243483,387.0665419002729,404.290065123994,0.0
0.14100000000000001,5.64090327802278,-1.9059124640593077,10.0,0.0,24.15934774928888,23.086422290574546,384.0375510669016,404.290065123994,0.0
0.14200000000000002,6.197467614569378,-1.8060015478704454,10.0,0.0,24.231656249042604,23.56840243162357,381.9017135146068,404.290065123994,0.0
0.14300000000000002,6.703802682564658,-1.7302929100826685,10.0,0.0,24.337603071931085,23.959284194429053,368.30222497553257,404.290065123994,0.0
0.14400000000000002,7.218513981183063,-1.549330018192597,10.0,0.0,24.45289455708124,24.270117571074767,366.71223148575734,404.290065123994,0.0
0.145,7.678190517859346,-1.375689943433846,10.0,0.0,24.57044945207639,24.51597945252272,354.0990305211296,404.290065123994,0.0
0.146,8.141926255571285,-1.1381135483189881,10.0,0.0,24.676438043001774,24.70259646954384,345.64639973475244,404.290065123994,0.0
0.147,8.556476505318706,-0.9433059413458914,10.0,0.0,24.771436403720834,24.840187473860286,347.89634716847,404.290065123994,0.0
