timestamp,iq,id,iq_ref,id_ref,vq,vd,omega,omega_ref,r
0.0,0.0,0.0,0.0,0.0,0.0,0.0,0.0,337.31599290641975,0.0
0.001,0.0,0.0,10.0,0.0,0.0,1.0999999999999999,6.115472199294103,337.31599290641975,0.0
0.002,0.5307369851907212,-0.2913212625381807,10.0,0.0,0.14204533887919985,1.9316189316290207,13.317801563642547,337.31599290641975,0.0
0.003,1.0842913387634832,-0.6024330830807904,10.0,0.0,0.384357124667687,2.6386968949419622,20.697939467553027,337.31599290641975,0.0
0.004,1.5590443546685477,-0.8700465084428163,10.0,0.0,0.6994718867930164,3.2526109522886295,28.232747544420146,337.31599290641975,0.0
0.005,1.9399447555359186,-1.0838738622210777,10.0,0.0,1.065311453102468,3.7994935661768023,35.92944872443006,337.31599290641975,0.0
0.006,2.239750732602683,-1.2510087368845633,10.0,0.0,1.4655018868449925,4.299102221838433,43.75633668444442,337.31599290641975,0.0
0.007,2.4770151619816017,-1.382020589851471,10.0,0.0,1.8883740978591532,4.765668027847139,51.58766747378032,337.31599290641975,0.0
0.008,2.6680767290418097,-1.4872241871505252,10.0,0.0,2.325877945545995,5.209220346273558,59.45942083902103,337.31599290641975,0.0
0.009000000000000001,2.8266491704841292,-1.5730794701170803,10.0,0.0,2.772378685460125,5.636635464737965,67.35059094018146,337.31599290641975,0.0
0.01,2.962077666392183,-1.645500646948331,10.0,0.0,3.224078639851053,6.052647735211881,75.20908322432116,337.31599290641975,0.0
0.011,3.0811061533574158,-1.7084279320504514,10.0,0.0,3.678407615443203,6.460489925470405,83.0265951655913,337.31599290641975,0.0
0.012,3.188848746459569,-1.7638278597420747,10.0,0.0,4.133552631697047,6.862319393890706,90.74118064793086,337.31599290641975,0.0
0.013000000000000001,3.288205119878689,-1.8140726097274587,10.0,0.0,4.588339016389012,7.259628641949282,98.35820682563939,337.31599290641975,0.0
0.014,3.3820602099432007,-1.8592355758795645,10.0,0.0,5.041843166194517,7.653355107498287,105.90865295623543,337.31599290641975,0.0
0.015,3.4721069852858886,-1.899829032412081,10.0,0.0,5.493383198131427,8.044092747085895,113.37727610343421,337.31599290641975,0.0
0.016,3.5596145800153947,-1.9360338400176071,10.0,0.0,5.94241958510469,8.43218525824161,120.68508583176356,337.31599290641975,0.0
0.017,3.645144415105338,-1.9685384477868613,10.0,0.0,6.388575043274759,8.817838951066484,127.83962377537456,337.31599290641975,0.0
0.018000000000000002,3.730251927866576,-1.9959253041084188,10.0,0.0,6.83136783302799,9.201036292373047,134.85405702603322,337.31599290641975,0.0
0.019,3.81544967906247,-2.018253592643655,10.0,0.0,7.270383321112213,9.581672501020332,141.68976328564074,337.31599290641975,0.0
0.02,3.9014648862453374,-2.0350875541282063,10.0,0.0,7.705189334130692,9.959536942333155,148.3432823300447,337.31599290641975,0.0
0.021,3.9891051824829464,-2.0457889559126508,10.0,0.0,8.135310004560049,10.334315260302239,154.92060212100432,337.31599290641975,0.0
0.022,4.079618141396171,-2.0489696811670974,10.0,0.0,8.560139305503519,10.705547790999272,161.01925282597162,337.31599290641975,0.0
0.023,4.171109372430197,-2.048468292080302,10.0,0.0,8.979521969370257,11.072981092896333,166.534238406907,337.31599290641975,0.0
0.024,4.266936196769627,-2.039517194249811,10.0,0.0,9.392730090169543,11.435983292623375,171.8647834235234,337.31599290641975,0.0
0.025,4.367255527950721,-2.0225841458509217,10.0,0.0,9.79914449451603,11.793929226271104,177.02637022703064,337.31599290641975,0.0
0.026000000000000002,4.4734353073349595,-1.9962166741499119,10.0,0.0,10.197980960389518,12.146045424568259,181.63161391243256,337.31599290641975,0.0
0.027,4.582366840795821,-1.966358349113627,10.0,0.0,10.589124658468391,12.491912978736195,185.74793639675826,337.31599290641975,0.0
0.028,4.700058850757774,-1.9240450691803936,10.0,0.0,10.971384864613876,12.830451341534015,189.43662766964098,337.31599290641975,0.0
0.029,4.820934284790598,-1.879137197786803,10.0,0.0,11.344756153370636,13.161242511022618,192.73598774770625,337.31599290641975,0.0
0.03,4.952016225740939,-1.821000614527957,10.0,0.0,11.707923484756042,13.483081433273819,195.59831968863915,337.31599290641975,0.0
0.031,5.086039273572549,-1.7621311371320891,10.0,0.0,12.061063698547066,13.79562148058647,197.80891551030922,337.31599290641975,0.0
0.032,5.230431844273564,-1.6911110488141978,10.0,0.0,12.40292038074925,14.097678592248165,200.4421589734679,337.31599290641975,0.0
0.033,5.380124186618445,-1.6166151787533525,10.0,0.0,12.733312761073865,14.38869342901298,201.91742172589852,337.31599290641975,0.0
0.034,5.537594793894332,-1.535029134414507,10.0,0.0,13.051537880865839,14.667821176756876,203.18880493813168,337.31599290641975,0.0
0.035,5.698947813469154,-1.4530296333491768,10.0,0.0,13.357649178779205,14.934684535625108,203.60405746232266,337.31599290641975,0.0
0.036000000000000004,5.870474243492053,-1.3603000477825025,10.0,0.0,13.65045542338638,15.188218311291084,204.28541056101804,337.31599290641975,0.0
0.037,6.041188711220851,-1.275010780747051,10.0,0.0,13.930879897581198,15.42861600670124,205.2233356988433,337.31599290641975,0.0
0.038,6.228175208801664,-1.168399557236846,10.0,0.0,14.196427351981786,15.654155009933262,200.35169734043586,337.31599290641975,0.0
0.039,6.404895489618571,-1.0845312562500289,10.0,0.0,14.449814560392067,15.86612549236809,209.64773540576442,337.31599290641975,0.0
0.04,6.534612624563911,-1.0851225869390002,10.0,0.0,14.699963825590459,16.069735965364643,218.170241886545,337.31599290641975,0.0
0.041,6.621487035821765,-1.1484636683301073,10.0,0.0,14.952420817214799,16.26974130369247,220.68166573712315,337.31599290641975,0.0
0.042,6.6704785161669795,-1.2647840534085386,10.0,0.0,15.211794475054209,16.47047148862455,233.10654395573727,337.31599290641975,0.0
0.043000000000000003,6.709376245503157,-1.3867642159960276,10.0,0.0,15.477558399636717,16.673277185423842,235.10815372853793,337.31599290641975,0.0
0.044,6.744196093263161,-1.5028656568708394,10.0,0.0,15.74857785831126,16.87893749904121,248.8181267625822,337.31599290641975,0.0
0.045,6.750563942850831,-1.6564343609015326,10.0,0.0,16.02879294551472,17.090781462187255,251.61117095327992,337.31599290641975,0.0
0.046,6.764566527560506,-1.7840489455190416,10.0,0.0,16.314672837580048,17.307985931916857,266.60539535969383,337.31599290641975,0.0
0.047,6.752169677737121,-1.9446655565152717,10.0,0.0,16.610076868775216,17.533561623207692,270.0627790167984,337.31599290641975,0.0
0.048,6.7291903821171735,-2.110358990489937,10.0,0.0,16.91511817760721,17.768523902508925,283.13731951482634,337.31599290641975,0.0
0.049,6.714097190323873,-2.246352557911731,10.0,0.0,17.22645394156277,18.011924542904307,294.70561782835244,337.31599290641975,0.0
0.05,6.666841209228205,-2.4219663531358275,10.0,0.0,17.548953774962747,18.267165921658286,300.1294548425776,337.31599290641975,0.0
0.051000000000000004,6.612335516543512,-2.59336894353628,10.0,0.0,17.88182590988993,18.53465621226123,310.75154600411304,337.31599290641975,0.0
0.052000000000000005,6.568447424188529,-2.726701034625408,10.0,0.0,18.22111236450049,18.81296732052879,322.35703405819294,337.31599290641975,0.0
0.053,6.5036136539679195,-2.8764091099274185,10.0,0.0,18.569435851849082,19.104068797231378,330.9557012510771,337.31599290641975,0.0
0.054,6.434362099984388,-3.0149932598739144,8.833020515482284,0.0,18.92578431387416,19.27949406493759,338.6006028342145,337.31599290641975,0.0
0.055,6.3107896507578545,-3.090916064915932,4.997723624635624,0.0,19.271006123522525,19.07569924280283,344.8461120924507,337.31599290641975,0.0
0.056,5.986140123729067,-3.0399083180232354,1.7996678036572078,0.0,19.554956189783947,18.64784863592812,344.1916037096171,337.31599290641975,0.0
0.057,5.510237561179567,-2.867539643578426,2.0581658870420476,0.0,19.749275712011766,18.400696230359294,342.2814673333686,337.31599290641975,0.0
0.058,5.1100895037757095,-2.6750755617283914,2.9635793308968035,0.0,19.880000679200855,18.333958776249236,340.6881284143037,337.31599290641975,0.0
0.059000000000000004,4.856796427290625,-2.506852720180223,3.726527435350402,0.0,19.97439953250823,18.385698479159757,340.7361557783863,337.31599290641975,0.0
0.06,4.7394196788778435,-2.363026802389671,3.668312124589437,0.0,20.05039384823445,18.43804944344228,342.6634623122271,337.31599290641975,0.0
0.061,4.684069945908419,-2.2304815827408886,2.65118416361096,0.0,20.11088211383283,18.38637752341166,336.09201187728416,337.31599290641975,0.0
0.062,4.62027103791089,-2.0717985504969003,5.949149191373796,0.0,20.144024679517962,18.725333437157673,328.60510602810456,337.31599290641975,0.0
0.063,4.785726420209651,-1.9563633098155937,9.779710984746753,0.0,20.196637533856673,19.403252081958154,334.6975404067551,337.31599290641975,0.0
0.064,5.192879272257663,-1.9481668706707385,6.7596783204181365,0.0,20.31203371134246,19.604998676800285,331.90680879477105,337.31599290641975,0.0
0.065,5.44141121137874,-1.879522541437928,8.209135967526638,0.0,20.428596018739697,19.964483912949163,321.5377748809918,337.31599290641975,0.0
0.066,5.768628665500642,-1.7494676164315863,10.0,0.0,20.55583102055374,20.448668722761674,326.67862133178176,337.31599290641975,0.0
0.067,6.167058369430614,-1.6697185558841825,10.0,0.0,20.711289155757473,20.838694818558515,316.96414954937876,337.31599290641975,0.0
0.068,6.557779977852193,-1.576472502440783,10.0,0.0,20.880744511747228,21.166269038408974,318.1005281327942,337.31599290641975,0.0
0.069,6.947627183610309,-1.4289471372379734,10.0,0.0,21.05071642448517,21.43905539532419,307.67539527805883,337.31599290641975,0.0
0.07,7.303506062149924,-1.285504743541571,10.0,0.0,21.21666637198627,21.666312103239907,308.42028540914106,337.31599290641975,0.0
0.07100000000000001,7.650677238869112,-1.120128929781586,10.0,0.0,21.371990079952184,21.85280809446043,299.18014450855674,337.31599290641975,0.0
0.07200000000000001,8.000094064296242,-0.9255249396123373,10.0,0.0,21.510678335462554,22.00122271832571,298.0697931936915,337.31599290641975,0.0
0.073,8.25941140964285,-0.8667400340771417,10.0,0.0,21.64581892810123,22.12363396562165,315.19071288606244,337.31599290641975,0.0
0.074,8.356885430810445,-1.0398529869088269,10.0,0.0,21.799316860072473,22.23918917857689,321.3691626401516,337.31599290641975,0.0
0.075,8.40077569044438,-1.251307821246947,10.0,0.0,21.970549422390988,22.354685475085667,333.06460276604565,337.31599290641975,0.0
0.076,8.371808201364662,-1.5376867075125729,8.450783085727418,0.0,22.165595487274366,22.308966864000542,341.69558543103994,337.31599290641975,0.0
0.077,8.259657049531059,-1.7365254966990002,4.091495827984069,0.0,22.35557356250875,21.83534224311413,349.7318881560024,337.31599290641975,0.0
0.078,7.850216189722021,-1.877330037093392,-0.05081448699299074,0.0,22.49269147968257,21.059933612830413,352.2650680179304,337.31599290641975,0.0
0.079,7.221173651235789,-1.867134350636369,-1.4668951690720862,0.0,22.536027171196416,20.326532136048915,357.36025695756786,337.31599290641975,0.0
0.08,6.528995593052769,-1.8468949658815161,-4.2149322794023005,0.0,22.499564770422268,19.452530261796678,358.07401217715545,337.31599290641975,0.0
0.081,5.7702871911034235,-1.7691921995698077,-4.779390081903456,0.0,22.37100351185358,18.70420849135304,358.3908867699858,337.31599290641975,0.0
0.082,5.071336562725629,-1.6944557766087252,-5.14857631695429,0.0,22.17302222323479,18.05219434936837,357.3838107511003,337.31599290641975,0.0
0.083,4.461679875596106,-1.6314151703607591,-4.84571648595836,0.0,21.923450546821734,17.542662665780814,355.5376200541552,337.31599290641975,0.0
0.084,3.974916543496464,-1.5866466840381572,-4.104837408963143,0.0,21.64358874225824,17.185042482729894,353.12231449117854,337.31599290641975,0.0
0.085,3.6213433829644703,-1.5668493414249067,-3.0552478433224106,0.0,21.354221077021762,16.97726961331577,350.52349817040147,337.31599290641975,0.0
0.08600000000000001,3.4015390343383567,-1.5686820436053104,-1.8879147355736903,0.0,21.073412462033495,16.89989075725891,347.41062602283495,337.31599290641975,0.0
0.08700000000000001,3.298880347001826,-1.59129417559642,-0.4324249929545818,0.0,20.81541583043559,16.959693878040287,344.05513657157354,337.31599290641975,0.0
0.088,3.3117727737421374,-1.6284183947551436,1.1779282960245832,0.0,20.59305671686316,17.14785623413045,340.7540236624446,337.31599290641975,0.0
0.089,3.429758827040624,-1.6798564552753934,2.7941044430288153,0.0,20.417036694722636,17.443792744939596,337.15043664464605,337.31599290641975,0.0
0.09,3.6417921201196832,-1.732007833217434,4.597553514545818,0.0,20.293434596845493,17.852607437144894,336.2062152910583,337.31599290641975,0.0
0.091,3.9468021691052306,-1.778736523677647,5.0807619674933076,0.0,20.227692820147805,18.211868116993386,338.6623514669546,337.31599290641975,0.0
0.092,4.249325252241137,-1.8072171440182887,3.8392302939398144,0.0,20.207116870437595,18.357000543911802,331.5893115524695,337.31599290641975,0.0
0.093,4.446367210339117,-1.7693112265891868,7.433017064721864,0.0,20.198657301269645,18.874644610129494,324.94629593180383,337.31599290641975,0.0
0.094,4.82650565626035,-1.734557825991134,10.0,0.0,20.23936428074876,19.546263758511035,330.5097384783482,337.31599290641975,0.0
0.095,5.321166219178425,-1.7660762652343616,8.14699867891337,0.0,20.34697703944086,19.87468043786826,323.9373494326333,337.31599290641975,0.0
0.096,5.689807656922358,-1.7273498760281814,10.0,0.0,20.472095102994356,20.367772931166712,321.1267443915276,337.31599290641975,0.0
0.097,6.141352136837492,-1.6324146108015216,10.0,0.0,20.623954994239472,20.759554489866574,320.29836031427874,337.31599290641975,0.0
0.098,6.531497019097256,-1.5698102439922907,10.0,0.0,20.793869924533322,21.088943389571543,311.94313130496334,337.31599290641975,0.0
0.099,6.935771345732063,-1.4118951751246915,10.0,0.0,20.962987637860937,21.36181616522817,309.91037674089927,337.31599290641975,0.0
0.1,7.278964682782983,-1.2944690359783881,10.0,0.0,21.13114313280403,21.590604910842632,305.8343411530888,337.31599290641975,0.0
0.101,7.647594216189457,-1.0953279440464145,10.0,0.0,21.284630694093213,21.776213016085766,295.0799286058196,337.31599290641975,0.0
0.10200000000000001,7.971992915440748,-0.9416601762252532,10.0,0.0,21.426418266236784,21.926611505349918,301.3914151945779,337.31599290641975,0.0
0.10300000000000001,8.237933634244966,-0.8719387554692215,10.0,0.0,21.562934251487462,22.050139410826063,313.17272645123984,337.31599290641975,0.0
0.10400000000000001,8.348529243943272,-1.0203779855896942,10.0,0.0,21.715176958281496,22.1654600144009,317.81808533723836,337.31599290641975,0.0
0.105,8.36936918916535,-1.2700089399707881,10.0,0.0,21.889702467434333,22.2832863904202,334.6291241636058,337.31599290641975,0.0
0.106,8.361107498131561,-1.5206751517931507,7.028983338457112,0.0,22.08363503703045,22.081088032449077,337.33278303338386,337.31599290641975,0.0
0.107,8.155931716364726,-1.710797238231246,5.676986002298445,0.0,22.256361281259817,21.821979945956667,351.13383150556683,337.31599290641975,0.0
0.108,7.852263199777433,-1.849397470333277,-1.3617166197845112,0.0,22.39924889708385,20.87666975647583,351.10637824916347,337.31599290641975,0.0
0.109,7.147869633014405,-1.8480537695768797,-1.485893845010267,0.0,22.431782922973174,20.171353486149542,354.02432182632356,337.31599290641975,0.0
0.11,6.464573944859075,-1.8067615218967117,-3.111948922789349,0.0,22.386003209003675,19.43031654917082,356.89141312770516,337.31599290641975,0.0
0.111,5.770276161921181,-1.7659973470680834,-4.741248775693006,0.0,22.266626635978913,18.665382700693037,356.84047830432047,337.31599290641975,0.0
0.112,5.085424476580564,-1.698578281122415,-4.911026217979667,0.0,22.075685879903112,18.031012767196138,355.94887614415666,337.31599290641975,0.0
0.113,4.488721308065212,-1.6404161387663367,-4.651553970275129,0.0,21.834678561085482,17.530014304795,354.1980689310963,337.31599290641975,0.0
0.114,4.007393396058635,-1.600993444577027,-3.9449711239917242,0.0,21.563917252972242,17.17712338600191,351.9240647772394,337.31599290641975,0.0
0.115,3.6565087868034167,-1.582138042962439,-2.954049765771453,0.0,21.283263116555318,16.968164977116214,349.55563582610347,337.31599290641975,0.0
0.116,3.4345250860478123,-1.5835478674169194,-1.8922317194003346,0.0,21.010122187597638,16.879837127986573,346.57722986729414,337.31599290641975,0.0
0.117,3.323321840730571,-1.6031627336122822,-0.49564110960441177,0.0,20.757606103659715,16.92604727746531,343.2714623465033,337.31599290641975,0.0
0.11800000000000001,3.3245115184696483,-1.636218629929888,1.097687956390164,0.0,20.538402642996438,17.102442197759355,340.00606877332723,337.31599290641975,0.0
0.11900000000000001,3.431175137800357,-1.6838758927818624,2.7034839843091305,0.0,20.363670760379435,17.38826045101983,336.3798518945918,337.31599290641975,0.0
0.12,3.632793900883493,-1.7338100428856689,4.5259538337951195,0.0,20.240010075233076,17.79132598611098,335.284136839819,337.31599290641975,0.0
0.121,3.930701467139757,-1.7791324453498074,5.09412992184754,0.0,20.173508134880493,18.15523992571193,337.84119624238394,337.31599290641975,0.0
0.122,4.232988596042007,-1.8079782628124983,3.8103481872054186,0.0,20.152767598419505,18.298942017109677,331.3502578631355,337.31599290641975,0.0
0.123,4.4263670615586515,-1.7738536838891747,7.115474727262493,0.0,20.144429162888212,18.78435282255645,323.84828513647807,337.31599290641975,0.0
0.124,4.787650720955908,-1.735307118853579,10.0,0.0,20.181566775090037,19.466827800627442,329.7045627190398,337.31599290641975,0.0
0.125,5.283554766813065,-1.7642511004088366,8.129090915517729,0.0,20.286807427500207,19.799187181640775,324.09741350752546,337.31599290641975,0.0
0.126,5.6498702140114805,-1.732845727634957,10.0,0.0,20.411015921950018,20.298008121198393,319.8170052607247,337.31599290641975,0.0
0.127,6.103554873658654,-1.6403635844275664,10.0,0.0,20.562826678885543,20.69441656731123,320.33052787696005,337.31599290641975,0.0
0.128,6.496810114971831,-1.5773325093296016,10.0,0.0,20.73308860791009,21.02764401455834,310.72383724270685,337.31599290641975,0.0
0.129,6.898128223099521,-1.4271822212449274,10.0,0.0,20.903760867818562,21.304362470502287,310.3757746478185,337.31599290641975,0.0
0.13,7.2444747949629456,-1.3062444943724456,10.0,0.0,21.073236100255453,21.53639136501899,304.5579620729104,337.31599290641975,0.0
0.131,7.611235859831341,-1.1105158977656235,10.0,0.0,21.2286459305423,21.72528464191081,295.37127794450583,337.31599290641975,0.0
0.132,7.931630860843974,-0.9634837614622187,10.0,0.0,21.373187856462344,21.879253734679438,302.22720816676934,337.31599290641975,0.0
0.133,8.208741639125147,-0.8751411001701221,10.0,0.0,21.51042512768814,22.005001875162396,311.367714997984,337.31599290641975,0.0
0.134,8.333852743389688,-1.00265886736823,10.0,0.0,21.66142386684437,22.12090781503337,316.3711776062729,337.31599290641975,0.0
0.135,8.358415934791294,-1.2493278354378048,10.0,0.0,21.83477173488775,22.238872194821322,333.14216644823784,337.31599290641975,0.0
0.136,8.354949824433731,-1.4954971727916981,7.44277051439912,0.0,22.027193191533815,22.081706584072077,335.9779333531515,337.31599290641975,0.0
0.137,8.174538447132235,-1.6958306777012022,6.038267657474968,0.0,22.20423093360685,21.850387251056286,350.6004199321021,337.31599290641975,0.0
0.138,7.894942778629435,-1.8419827214599467,-1.4058199022571554,0.0,22.354506357935378,20.88405043231039,349.84776573272865,337.31599290641975,0.0
0.139,7.187163238635057,-1.8397213354256152,-1.1548105308335108,0.0,22.391410285055102,20.20648653704022,353.0844582610394,337.31599290641975,0.0
0.14,6.516995899556712,-1.8033784116604314,-2.9308414485350847,0.0,22.352892322182,19.469136541246296,356.14505622265,337.31599290641975,0.0
0.14100000000000001,5.827319795017057,-1.7668846166263303,-4.649431062502686,0.0,22.240840267800728,18.699547898493616,356.1408810893366,337.31599290641975,0.0
0.14200000000000002,5.140403480892862,-1.7004302432734182,-4.835592377675142,0.0,22.056089511463828,18.061085099557044,355.404339194491,337.31599290641975,0.0
0.14300000000000002,4.539234427814574,-1.6429386066174436,-4.648204893133069,0.0,21.82030801456833,17.549727174029158,353.7707207656916,337.31599290641975,0.0
