timestamp,iq,id,iq_ref,id_ref,vq,vd,omega,omega_ref,r
0.0,0.0,0.0,0.0,0.0,0.0,0.0,0.0,396.2673920798043,0.0
0.001,0.0,0.0,10.0,0.0,0.0,1.0999999999999999,6.115472199294103,396.2673920798043,0.0
0.002,0.5307369851907212,-0.2913212625381807,10.0,0.0,0.14204533887919985,1.9316189316290207,13.317801563642547,396.2673920798043,0.0
0.003,1.0842913387634832,-0.6024330830807904,10.0,0.0,0.384357124667687,2.6386968949419622,20.697939467553027,396.2673920798043,0.0
0.004,1.5590443546685477,-0.8700465084428163,10.0,0.0,0.6994718867930164,3.2526109522886295,28.232747544420146,396.2673920798043,0.0
0.005,1.9399447555359186,-1.0838738622210777,10.0,0.0,1.065311453102468,3.7994935661768023,35.92944872443006,396.2673920798043,0.0
0.006,2.239750732602683,-1.2510087368845633,10.0,0.0,1.4655018868449925,4.299102221838433,43.75633668444442,396.2673920798043,0.0
0.007,2.4770151619816017,-1.382020589851471,10.0,0.0,1.8883740978591532,4.765668027847139,51.58766747378032,396.2673920798043,0.0
0.008,2.6680767290418097,-1.4872241871505252,10.0,0.0,2.325877945545995,5.209220346273558,59.45942083902103,396.2673920798043,0.0
0.009000000000000001,2.8266491704841292,-1.5730794701170803,10.0,0.0,2.772378685460125,5.636635464737965,67.35059094018146,396.2673920798043,0.0
0.01,2.962077666392183,-1.645500646948331,10.0,0.0,3.224078639851053,6.052647735211881,75.20908322432116,396.2673920798043,0.0
0.011,3.0811061533574158,-1.7084279320504514,10.0,0.0,3.678407615443203,6.460489925470405,83.0265951655913,396.2673920798043,0.0
0.012,3.188848746459569,-1.7638278597420747,10.0,0.0,4.133552631697047,6.862319393890706,90.74118064793086,396.2673920798043,0.0
0.013000000000000001,3.288205119878689,-1.8140726097274587,10.0,0.0,4.588339016389012,7.259628641949282,98.35820682563939,396.2673920798043,0.0
0.014,3.3820602099432007,-1.8592355758795645,10.0,0.0,5.041843166194517,7.653355107498287,105.90865295623543,396.2673920798043,0.0
0.015,3.4721069852858886,-1.899829032412081,10.0,0.0,5.493383198131427,8.044092747085895,113.37727610343421,396.2673920798043,0.0
0.016,3.5596145800153947,-1.9360338400176071,10.0,0.0,5.94241958510469,8.43218525824161,120.68508583176356,396.2673920798043,0.0
0.017,3.645144415105338,-1.9685384477868613,10.0,0.0,6.388575043274759,8.817838951066484,127.83962377537456,396.2673920798043,0.0
0.018000000000000002,3.730251927866576,-1.9959253041084188,10.0,0.0,6.83136783302799,9.201036292373047,134.85405702603322,396.2673920798043,0.0
0.019,3.81544967906247,-2.018253592643655,10.0,0.0,7.270383321112213,9.581672501020332,141.68976328564074,396.2673920798043,0.0
0.02,3.9014648862453374,-2.0350875541282063,10.0,0.0,7.705189334130692,9.959536942333155,148.3432823300447,396.2673920798043,0.0
0.021,3.9891051824829464,-2.0457889559126508,10.0,0.0,8.135310004560049,10.334315260302239,154.92060212100432,396.2673920798043,0.0
0.022,4.079618141396171,-2.0489696811670974,10.0,0.0,8.560139305503519,10.705547790999272,161.01925282597162,396.2673920798043,0.0
0.023,4.171109372430197,-2.048468292080302,10.0,0.0,8.979521969370257,11.072981092896333,166.534238406907,396.2673920798043,0.0
0.024,4.266936196769627,-2.039517194249811,10.0,0.0,9.392730090169543,11.435983292623375,171.8647834235234,396.2673920798043,0.0
0.025,4.367255527950721,-2.0225841458509217,10.0,0.0,9.79914449451603,11.793929226271104,177.02637022703064,396.2673920798043,0.0
0.026000000000000002,4.4734353073349595,-1.9962166741499119,10.0,0.0,10.197980960389518,12.146045424568259,181.63161391243256,396.2673920798043,0.0
0.027,4.582366840795821,-1.966358349113627,10.0,0.0,10.589124658468391,12.491912978736195,185.74793639675826,396.2673920798043,0.0
0.028,4.700058850757774,-1.9240450691803936,10.0,0.0,10.971384864613876,12.830451341534015,189.43662766964098,396.2673920798043,0.0
0.029,4.820934284790598,-1.879137197786803,10.0,0.0,11.344756153370636,13.161242511022618,192.73598774770625,396.2673920798043,0.0
0.03,4.952016225740939,-1.821000614527957,10.0,0.0,11.707923484756042,13.483081433273819,195.59831968863915,396.2673920798043,0.0
0.031,5.086039273572549,-1.7621311371320891,10.0,0.0,12.061063698547066,13.79562148058647,197.80891551030922,396.2673920798043,0.0
0.032,5.230431844273564,-1.6911110488141978,10.0,0.0,12.40292038074925,14.097678592248165,200.4421589734679,396.2673920798043,0.0
0.033,5.380124186618445,-1.6166151787533525,10.0,0.0,12.733312761073865,14.38869342901298,201.91742172589852,396.2673920798043,0.0
0.034,5.537594793894332,-1.535029134414507,10.0,0.0,13.051537880865839,14.667821176756876,203.18880493813168,396.2673920798043,0.0
0.035,5.698947813469154,-1.4530296333491768,10.0,0.0,13.357649178779205,14.934684535625108,203.60405746232266,396.2673920798043,0.0
0.036000000000000004,5.870474243492053,-1.3603000477825025,10.0,0.0,13.65045542338638,15.188218311291084,204.28541056101804,396.2673920798043,0.0
0.037,6.041188711220851,-1.275010780747051,10.0,0.0,13.930879897581198,15.42861600670124,205.2233356988433,396.2673920798043,0.0
0.038,6.228175208801664,-1.168399557236846,10.0,0.0,14.196427351981786,15.654155009933262,200.35169734043586,396.2673920798043,0.0
0.039,6.404895489618571,-1.0845312562500289,10.0,0.0,14.449814560392067,15.86612549236809,209.64773540576442,396.2673920798043,0.0
0.04,6.534612624563911,-1.0851225869390002,10.0,0.0,14.699963825590459,16.069735965364643,218.170241886545,396.2673920798043,0.0
0.041,6.621487035821765,-1.1484636683301073,10.0,0.0,14.952420817214799,16.26974130369247,220.68166573712315,396.2673920798043,0.0
0.042,6.6704785161669795,-1.2647840534085386,10.0,0.0,15.211794475054209,16.47047148862455,233.10654395573727,396.2673920798043,0.0
0.043000000000000003,6.709376245503157,-1.3867642159960276,10.0,0.0,15.477558399636717,16.673277185423842,235.10815372853793,396.2673920798043,0.0
0.044,6.744196093263161,-1.5028656568708394,10.0,0.0,15.74857785831126,16.87893749904121,248.8181267625822,396.2673920798043,0.0
0.045,6.750563942850831,-1.6564343609015326,10.0,0.0,16.02879294551472,17.090781462187255,251.61117095327992,396.2673920798043,0.0
0.046,6.764566527560506,-1.7840489455190416,10.0,0.0,16.314672837580048,17.307985931916857,266.60539535969383,396.2673920798043,0.0
0.047,6.752169677737121,-1.9446655565152717,10.0,0.0,16.610076868775216,17.533561623207692,270.0627790167984,396.2673920798043,0.0
0.048,6.7291903821171735,-2.110358990489937,10.0,0.0,16.91511817760721,17.768523902508925,283.13731951482634,396.2673920798043,0.0
0.049,6.714097190323873,-2.246352557911731,10.0,0.0,17.22645394156277,18.011924542904307,294.70561782835244,396.2673920798043,0.0
0.05,6.666841209228205,-2.4219663531358275,10.0,0.0,17.548953774962747,18.267165921658286,300.1294548425776,396.2673920798043,0.0
0.051000000000000004,6.612335516543512,-2.59336894353628,10.0,0.0,17.88182590988993,18.53465621226123,310.75154600411304,396.2673920798043,0.0
0.052000000000000005,6.568447424188529,-2.726701034625408,10.0,0.0,18.22111236450049,18.81296732052879,322.35703405819294,396.2673920798043,0.0
0.053,6.5036136539679195,-2.8764091099274185,10.0,0.0,18.569435851849082,19.104068797231378,330.9557012510771,396.2673920798043,0.0
0.054,6.434362099984388,-3.0149932598739144,10.0,0.0,18.925784313874168,19.407861808234543,339.4707232587175,396.2673920798043,0.0
0.055,6.370891759459199,-3.1253006473392393,10.0,0.0,19.28762520191878,19.723199586257838,348.00092263299223,396.2673920798043,0.0
0.056,6.314459991163816,-3.2071523724558277,10.0,0.0,19.65271639484943,20.048760466390505,356.29964302226927,396.2673920798043,0.0
0.057,6.266092078485367,-3.262894600420583,10.0,0.0,20.01916768432525,20.383030530514645,362.98468703488817,396.2673920798043,0.0
0.058,6.234656406121481,-3.2830044001420036,10.0,0.0,20.38405550695561,20.723492962007192,368.0316803659419,396.2673920798043,0.0
0.059000000000000004,6.228510489334133,-3.2600491726267444,10.0,0.0,20.743774617448285,21.0667596267365,372.35801287012686,396.2673920798043,0.0
0.06,6.247959954981508,-3.201438289803519,10.0,0.0,21.095630838529225,21.40947063565305,373.88739853789605,396.2673920798043,0.0
0.061,6.298571070969623,-3.1064761741463998,10.0,0.0,21.436712814499675,21.747723437683817,371.47602194372377,396.2673920798043,0.0
0.062,6.38094735961424,-2.982369480030801,10.0,0.0,21.76480975788002,22.077703876517536,366.2922057853833,396.2673920798043,0.0
0.063,6.53566146196873,-2.7695519558602215,10.0,0.0,22.070926190088084,22.39130117743337,372.07145994459506,396.2673920798043,0.0
0.064,6.708566607552835,-2.560747003310555,10.0,0.0,22.35695033962817,22.686677966487718,365.1882535794375,396.2673920798043,0.0
0.065,6.897199383751794,-2.3667028673086685,10.0,0.0,22.62465294768497,22.962098937664592,356.7297130485294,396.2673920798043,0.0
0.066,7.167218997264825,-2.0824440278168583,10.0,0.0,22.863799361069702,23.20893224280502,357.7888817172531,396.2673920798043,0.0
0.067,7.423387055578651,-1.859201647307153,10.0,0.0,23.082000390168847,23.42951856849048,345.1266644280509,396.2673920798043,0.0
0.068,7.736929428236853,-1.5824320316278497,10.0,0.0,23.27222771500701,23.617938384108047,342.9584987314189,396.2673920798043,0.0
0.069,8.04132723792414,-1.3546495884062866,10.0,0.0,23.43998591632552,23.77619061530866,334.2677598047511,396.2673920798043,0.0
0.07,8.395997401416553,-1.0747195592463576,10.0,0.0,23.578279041856877,23.89942370363377,322.7417355360636,396.2673920798043,0.0
0.07100000000000001,8.726669482066718,-0.8579631993863083,10.0,0.0,23.694022264374595,23.99133556844291,337.9106389559309,396.2673920798043,0.0
0.07200000000000001,8.91385728821635,-0.8925675486457335,10.0,0.0,23.81335639313859,24.06834663115294,344.8606079910171,396.2673920798043,0.0
0.073,8.941721008651788,-1.1508071676799903,10.0,0.0,23.95651852989837,24.148396869281978,362.43451347602996,396.2673920798043,0.0
0.074,8.927907180207171,-1.4305443375681337,10.0,0.0,24.121558169292424,24.236556455607346,368.59250641149885,396.2673920798043,0.0
0.075,8.859340450140312,-1.7499202918046703,10.0,0.0,24.31124378664675,24.33980824926249,387.10067316750514,396.2673920798043,0.0
0.076,8.767176841935807,-2.0562826706616475,10.0,0.0,24.52279212376306,24.461155754889383,396.7190369145668,396.2673920798043,0.0
0.077,8.62162972262067,-2.4016532593838043,6.605206793705835,0.0,24.760247518701284,24.233184638015462,405.52427738727965,396.2673920798043,0.0
0.078,8.29039451901351,-2.6128203625865836,2.1100177042746546,0.0,24.970934937923396,23.62621370575193,415.94189947210737,396.2673920798043,0.0
0.079,7.678385694154022,-2.7072357558580626,-3.295538412062232,0.0,25.10813054422477,22.615357945432674,416.9638950502826,396.2673920798043,0.0
0.08,6.802166460388024,-2.6110493136685844,-4.013501230854626,0.0,25.11899635129052,21.78465100033736,418.1326404730003,396.2673920798043,0.0
0.081,5.951901658931595,-2.475351627364218,-4.816526426145454,0.0,25.031740002068588,21.041715122986627,417.1369312665398,396.2673920798043,0.0
0.082,5.191037357683593,-2.3206492008019013,-4.527367214782557,0.0,24.863255409974958,20.47937738877432,414.3678283342836,396.2673920798043,0.0
0.083,4.58956984837989,-2.171727413878892,-3.3238201111992485,0.0,24.640551131373556,20.144476341065335,410.02991701288136,396.2673920798043,0.0
0.084,4.185202716517126,-2.058118715854703,-1.2924896998288897,0.0,24.39561943694796,20.07067155389389,404.89897785798524,396.2673920798043,0.0
0.085,4.007814328687334,-1.9858887108036445,1.186664019837357,0.0,24.160991219672407,20.247616732389258,399.92556029322986,396.2673920798043,0.0
0.08600000000000001,4.0497281730754695,-1.9626010392131583,3.636791120080792,0.0,23.9656809981495,20.62174260837666,394.52575764146496,396.2673920798043,0.0
0.08700000000000001,4.281135105883197,-1.9671737109181737,6.354108790346636,0.0,23.828050256981083,21.188292923174863,393.1916897573762,396.2673920798043,0.0
0.088,4.6879721016143545,-1.9848408813272764,7.051899755615302,0.0,23.76273528343729,21.691570961650964,395.282827666663,396.2673920798043,0.0
0.089,5.11443795504802,-1.9928469562093118,6.016176445103301,0.0,23.754983607628397,21.974239351195656,383.3491210298507,396.2673920798043,0.0
0.09,5.457446707853407,-1.9160850902282525,10.0,0.0,23.767750072348147,22.642977254074513,378.42921327472476,396.2673920798043,0.0
0.091,6.007757796198093,-1.8310186048229968,10.0,0.0,23.83752398614903,23.14917564539861,379.2146897291581,396.2673920798043,0.0
0.092,6.5164455632757585,-1.7673793200997006,10.0,0.0,23.944790691236722,23.561279045475306,365.4538350587113,396.2673920798043,0.0
0.093,7.018411731160786,-1.6195644105815443,10.0,0.0,24.066917818623555,23.892769375256517,365.37191455959186,396.2673920798043,0.0
0.094,7.4852204183404005,-1.4405920395640952,10.0,0.0,24.191772454533083,24.15699409088738,350.45506225480517,396.2673920798043,0.0
0.095,7.930391377842646,-1.2328608655268165,10.0,0.0,24.30950339298082,24.362981079872664,348.0052378916691,396.2673920798043,0.0
0.096,8.345969811513003,-1.0324789865331758,10.0,0.0,24.41609524153339,24.51888054569548,338.6318202960374,396.2673920798043,0.0
0.097,8.77684911807713,-0.7804562865341209,10.0,0.0,24.501899173603025,24.626608310405913,342.9414280034241,396.2673920798043,0.0
0.098,9.011674955873035,-0.8331821311498846,10.0,0.0,24.59821555884445,24.71062164276036,361.08959369316545,396.2673920798043,0.0
0.099,9.080534133900521,-1.0946857634998999,10.0,0.0,24.721539779909538,24.79063902919844,367.97336769949425,396.2673920798043,0.0
0.1,9.08472890734787,-1.3924869969519946,10.0,0.0,24.870676416868154,24.87521426580029,384.4583161435217,396.2673920798043,0.0
0.101,9.010420663313452,-1.7543687930078522,10.0,0.0,25.05018589902271,24.97446149701608,393.7896608763973,396.2673920798043,0.0
0.10200000000000001,8.920613187903996,-2.075597285961968,7.680557099837939,0.0,25.253385472347784,24.835731974162606,410.6986117141274,396.2673920798043,0.0
0.10300000000000001,8.646394561109256,-2.3757789820630246,-0.9182305153703512,0.0,25.45219983769658,23.83778912644903,411.25649148073677,396.2673920798043,0.0
0.10400000000000001,7.895026808771077,-2.4092798619912896,-1.347061392684349,0.0,25.532021761570242,23.078246746178486,416.98981719987444,396.2673920798043,0.0
0.105,7.105178264526574,-2.399221325845911,-4.420948503453884,0.0,25.526465807254194,22.148171185254366,419.31710860969764,396.2673920798043,0.0
0.106,6.235731984424166,-2.318811207382581,-5.815091373664419,0.0,25.41971336460784,21.275671345744406,418.5826833706837,396.2673920798043,0.0
0.107,5.40307625524004,-2.194603119539127,-5.671031667066241,0.0,25.22352739379697,20.59243190975794,416.19166015746737,396.2673920798043,0.0
0.108,4.711255724844138,-2.072383247588919,-4.674762741234706,0.0,24.966433971432465,20.133820506116237,412.96112791475036,396.2673920798043,0.0
0.109,4.213567518266849,-1.9709416445728714,-3.226433978225664,0.0,24.679252373327962,19.89254187269447,408.4738942412304,396.2673920798043,0.0
0.11,3.9129922154235786,-1.9060317659940829,-1.1048821630799566,0.0,24.39053540107824,19.893646756087357,403.38358723684433,396.2673920798043,0.0
0.111,3.8230856624965854,-1.8777684376526118,1.3691093875426894,0.0,24.128340747060996,20.123576974126543,398.33961866241833,396.2673920798043,0.0
0.112,3.932170278403585,-1.8875925906722237,3.8703714089295502,0.0,23.916721870364963,20.54179523852739,392.9689584075841,396.2673920798043,0.0
0.113,4.216166979422589,-1.9166610736617717,6.588685873068855,0.0,23.771185999377284,21.140882968706983,392.05240531781084,396.2673920798043,0.0
0.114,4.661238077738195,-1.9531918656725176,7.0891122855754345,0.0,23.703840190797614,21.647254245699642,394.0679581922925,396.2673920798043,0.0
0.115,5.103287080298831,-1.972769499328801,6.103330187209718,0.0,23.695654322557257,21.93863883989126,381.6292550839012,396.2673920798043,0.0
0.116,5.460685198439762,-1.8979866850097928,10.0,0.0,23.70900361464845,22.603664585260383,377.56150296387204,396.2673920798043,0.0
0.117,6.01436433636209,-1.8150352202402698,10.0,0.0,23.779143719085972,23.107225263183754,377.71427977690405,396.2673920798043,0.0
0.11800000000000001,6.522507752724886,-1.754603655972057,10.0,0.0,23.886807923450277,23.51708489933786,363.98023456533707,396.2673920798043,0.0
0.11900000000000001,7.026997981380838,-1.6031952876056423,10.0,0.0,24.008641066115928,23.846312501324462,363.7285343734606,396.2673920798043,0.0
0.12,7.489537001404331,-1.4308923869593846,10.0,0.0,24.133774419326258,24.10896626746293,349.6289182126769,396.2673920798043,0.0
0.121,7.937929159205062,-1.2175268873315863,10.0,0.0,24.25091263787681,24.31317024515075,345.8544368753298,396.2673920798043,0.0
0.122,8.348891857263197,-1.023862244425461,10.0,0.0,24.357587976617687,24.467945671716457,338.22580241855496,396.2673920798043,0.0
0.123,8.779431916186606,-0.7716212328756304,10.0,0.0,24.443263459299622,24.574661309998678,342.68828089156256,396.2673920798043,0.0
0.124,9.006151817557267,-0.8347373980125172,10.0,0.0,24.540508145822148,24.65863914415934,359.0565955959692,396.2673920798043,0.0
0.125,9.061315619019524,-1.1157523733253885,10.0,0.0,24.666706632741537,24.740142844409046,368.9994802114063,396.2673920798043,0.0
0.126,9.070765696317768,-1.401476668349035,10.0,0.0,24.817055163693432,24.82562815283754,382.179004728461,396.2673920798043,0.0
0.127,8.992584838563296,-1.7666365217992648,10.0,0.0,24.998227713322265,24.92629417864435,393.75285554487624,396.2673920798043,0.0
0.128,8.905111245794213,-2.0812574267958697,7.288548141167901,0.0,25.202306311584024,24.745591438988875,409.02065736731123,396.2673920798043,0.0
0.129,8.606167043202502,-2.3757333908595832,-0.47288542292466307,0.0,25.397152923051106,23.808732786020663,410.6760947253682,396.2673920798043,0.0
0.13,7.879495490017756,-2.415925941277619,-1.4446911284087953,0.0,25.480305428980007,23.032704796358065,416.5243461398969,396.2673920798043,0.0
0.131,7.088142350848053,-2.4053140418326855,-4.571386376274074,0.0,25.475970650906632,22.088158565821086,418.5374209373802,396.2673920798043,0.0
0.132,6.212106803294571,-2.317980220027164,-5.800624063591475,0.0,25.368114126182736,21.2221346662434,417.7718443100851,396.2673920798043,0.0
0.133,5.381100603534432,-2.1914399986083604,-5.63288027224673,0.0,25.17139477783545,20.545322024570265,415.3689466817997,396.2673920798043,0.0
0.134,4.69378125697681,-2.068819198286646,-4.622447004123976,0.0,24.914443214334373,20.093283999933508,412.1160309702283,396.2673920798043,0.0
0.135,4.201484483785903,-1.9679780309054922,-3.1544755372425133,0.0,24.628116684311024,19.859406601671473,407.65814523271484,396.2673920798043,0.0
0.136,3.906905671320171,-1.9041826506359993,-1.0394402000149006,0.0,24.34102598730797,19.865739164298848,402.6118084178644,396.2673920798043,0.0
0.137,3.8216740914514657,-1.8771651019571842,1.4202840440297306,0.0,24.08094363971599,20.098578400096727,397.57213223352636,396.2673920798043,0.0
0.138,3.933757881732665,-1.8876261343140293,3.9270747346615202,0.0,23.87157433950904,20.520093678355042,392.1901838428189,396.2673920798043,0.0
0.139,4.21996102513326,-1.9177150349252527,6.658821012385106,0.0,23.72849866589228,21.123583174538865,391.4229649597208,396.2673920798043,0.0
0.14,4.667729160791537,-1.9550887503285181,7.090874725134997,0.0,23.663889728943815,21.62623213587946,393.44865220702303,396.2673920798043,0.0
0.14100000000000001,5.108279991179114,-1.9740703493663783,6.106218500211687,0.0,23.6577208205644,21.915539675536046,380.9940934411574,396.2673920798043,0.0
0.14200000000000002,5.4638361492498335,-1.8982791880450183,10.0,0.0,23.672572713252855,22.578756428531072,377.01122312904903,396.2673920798043,0.0
0.14300000000000002,6.015465753284842,-1.8147942433188171,10.0,0.0,23.743835659665294,23.081075185634422,377.1286393076217,396.2673920798043,0.0
0.14400000000000002,6.521733439470581,-1.7542929290722729,10.0,0.0,23.852383892026975,23.49011521222859,363.43134749690694,396.2673920798043,0.0
0.145,7.024911628647614,-1.6025950105964548,10.0,0.0,23.974899545922018,23.81881913545189,363.1724215377006,396.2673920798043,0.0
0.146,7.485846950777816,-1.4309915419149313,10.0,0.0,24.100674624379685,24.08123312819982,349.19121627678913,396.2673920798043,0.0
