timestamp,iq,id,iq_ref,id_ref,vq,vd,omega,omega_ref,r
0.0,0.0,0.0,0.0,0.0,0.0,0.0,0.0,21.95246326150585,0.0
0.001,0.0,0.0,10.0,0.0,0.0,1.0999999999999999,6.115472199294103,21.95246326150585,0.0
0.002,0.5307369851907212,-0.2913212625381807,8.27247494907569,0.0,0.14204533887919985,1.7415911760273461,12.255301192071796,21.95246326150585,0.0
0.003,0.9926860099007091,-0.5521364108384011,5.299532073381185,0.0,0.3598217151608567,1.9779722796565347,16.53822491487745,21.95246326150585,0.0
0.004,1.2144137523699212,-0.6795370736545967,3.2122125954446417,0.0,0.5908644856040463,1.9928466353103809,19.38001040564018,21.95246326150585,0.0
0.005,1.2390193647239516,-0.693740071044241,1.8170443786219326,0.0,0.8005787376530004,1.8962531834377778,21.188170066939406,21.95246326150585,0.0
0.006,1.1437884441899093,-0.6390229042505812,0.9206074799179846,0.0,0.9735013009885995,1.7563555826504083,22.293806416168103,21.95246326150585,0.0
0.007,0.9941797637217101,-0.5525050162265212,0.3643758737570141,0.0,1.106172051897192,1.6110235362308305,22.896043779396077,21.95246326150585,0.0
0.008,0.8328026787816522,-0.4596900334834422,0.05382138696412453,0.0,1.2016980538514692,1.4811484845971856,23.240255425982838,21.95246326150585,0.0
0.009000000000000001,0.6848042180806948,-0.3745987841727714,-0.13116235797402553,0.0,1.2662520628502112,1.37123693107477,23.103033029265415,21.95246326150585,0.0
0.01,0.5590423096727928,-0.3041096414263967,-0.07405685729290978,0.0,1.306456622387843,1.2992572016466342,22.751995604759657,21.95246326150585,0.0
0.011,0.4673627675771528,-0.25140559520153805,0.09346653152743134,0.0,1.3303501993716271,1.2651795494249425,22.771495014304936,21.95246326150585,0.0
0.012,0.41170644330724915,-0.21666043896733944,0.07552650922680093,0.0,1.3451517267113506,1.2384557840312589,23.079926442400417,21.95246326150585,0.0
0.013000000000000001,0.37404751133299063,-0.19421448064210853,-0.08996383662988544,0.0,1.3536791209243002,1.201445929364156,22.97195288100482,21.95246326150585,0.0
0.014,0.3388752005747973,-0.1762042405706295,-0.04617195212707709,0.0,1.3558961234246336,1.1789541752025932,22.630802738645567,21.95246326150585,0.0
0.015,0.31466695742603246,-0.16243599374951792,0.11761972428115275,0.0,1.3543078455091702,1.178823645905879,22.472370079180543,21.95246326150585,0.0
0.016,0.3064837315859646,-0.1564491148131825,0.19163698583691796,0.0,1.3523444682407961,1.1857093961652618,22.679478978494892,21.95246326150585,0.0
0.017,0.3074110106003458,-0.15570210702526555,0.080812379009853,0.0,1.35124370165789,1.1785955213553516,22.839670673254403,21.95246326150585,0.0
0.018000000000000002,0.3036630873147638,-0.1548685666980536,-0.008155542487388256,0.0,1.3494574048941699,1.163826276423273,22.51329484452661,21.95246326150585,0.0
0.019,0.2953384635978228,-0.15101473183519243,0.14942405604630143,0.0,1.3459572268819702,1.1694569907377173,22.30020195479562,21.95246326150585,0.0
0.02,0.29626908103333627,-0.15058883561648775,0.2524931139788973,0.0,1.3433618278670068,1.1837508020516692,22.50818562231886,21.95246326150585,0.0
0.021,0.3044838580636373,-0.1536244495522502,0.14294405660914866,0.0,1.3427935263800557,1.1823802861437538,22.74933407784792,21.95246326150585,0.0
0.022,0.3062232100843061,-0.15529653927377254,0.014401120681197699,0.0,1.3422985771810179,1.1679365783475868,22.493245779903397,21.95246326150585,0.0
0.023,0.2993523534963759,-0.1528829630025189,0.13703744446948346,0.0,1.3401265378352138,1.1704363591320024,22.217199756934647,21.95246326150585,0.0
0.024,0.2989388762652711,-0.15196811383064276,0.2724130909995703,0.0,1.3383451828562385,1.1861106897133658,22.414494144852394,21.95246326150585,0.0
0.025,0.3072975680372315,-0.1547157811792462,0.1691455882072313,0.0,1.3386207883333618,1.1864026790990096,22.687995514265502,21.95246326150585,0.0
0.026000000000000002,0.309829203269599,-0.15628995987559374,0.025039580973080955,0.0,1.3390437151844496,1.1716791513681282,22.492713707660087,21.95246326150585,0.0
0.027,0.3026893940604598,-0.15392285414556764,0.11727797981424604,0.0,1.337675873160074,1.1708682484056423,22.193692555722095,21.95246326150585,0.0
0.028,0.3002428979090772,-0.1522382518850552,0.26437626284107996,0.0,1.3362020898505316,1.1854577951660674,22.31962812562842,21.95246326150585,0.0
0.029,0.30744948312467485,-0.1540252424325262,0.19773682924669178,0.0,1.336548054530812,1.1888224990586158,22.633498256495525,21.95246326150585,0.0
0.03,0.31119230504469664,-0.15574422291572976,0.03399141386324245,0.0,1.3373671110799972,1.1742000831146553,22.508426498454646,21.95246326150585,0.0
0.031,0.3042362788727285,-0.15374712153303163,0.09096766051419364,0.0,1.336405149422939,1.169829246803565,22.18970912766847,21.95246326150585,0.0
0.032,0.3000303674826692,-0.15121656051942944,0.24795388724565648,0.0,1.3348439096028089,1.1828911104230162,22.22158702352154,21.95246326150585,0.0
0.033,0.3059406152104698,-0.15220836653235797,0.22932370169896388,0.0,1.334879384398194,1.1901792946571002,22.540840098441013,21.95246326150585,0.0
0.034,0.311239788227171,-0.15461702115090148,0.06381339586987572,0.0,1.3358951640853607,1.178198569607022,22.51868131809311,21.95246326150585,0.0
0.035,0.3060995926324746,-0.15349988528183658,0.06923060547795551,0.0,1.3354643218070197,1.1703869043914321,22.187675484432738,21.95246326150585,0.0
0.036000000000000004,0.30073513890551484,-0.15036254225140624,0.2323814000788718,0.0,1.3339614608602977,1.1817444247336053,22.14307402919694,21.95246326150585,0.0
0.037,0.30536564105273034,-0.15071422049338878,0.25277602001986066,0.0,1.3338146960793873,1.1918648074209253,22.47202838906595,21.95246326150585,0.0
0.038,0.3116613780950719,-0.15357042778258562,0.08310318880975348,0.0,1.3350053120646912,1.1814442916757149,22.515976037624384,21.95246326150585,0.0
0.039,0.3076545373271121,-0.1528995934439564,0.05549423676935167,0.0,1.3349324610268032,1.1713483425461122,22.170150244840748,21.95246326150585,0.0
0.04,0.3014877053414103,-0.14932425603513774,0.2262302633278206,0.0,1.3334707214081596,1.1819500387782638,22.083064483753684,21.95246326150585,0.0
0.041,0.30544084195510524,-0.14933303676241053,0.2684671316488741,0.0,1.3332520446286835,1.193787573327704,22.42529162693913,21.95246326150585,0.0
0.042,0.3123766066152699,-0.15245509245251507,0.09262527640181784,0.0,1.3345823273007384,1.1839311112373843,22.49996164309409,21.95246326150585,0.0
0.043000000000000003,0.3088725340832323,-0.15196041507648028,0.049815284508456625,0.0,1.3347083004282903,1.172697448692629,22.139959731919017,21.95246326150585,0.0
0.044,0.3022951823746765,-0.14812730754096445,0.22794127539186082,0.0,1.3332816149334659,1.183310176593833,22.040300253661105,21.95246326150585,0.0
0.045,0.30611508326576675,-0.148011813220807,0.27689264459926444,0.0,1.3330844974783818,1.1958363912443093,22.39412204539409,21.95246326150585,0.0
0.046,0.3133315762367549,-0.15126256611521027,0.09556516089388878,0.0,1.3345184509954395,1.1858991205666662,22.467975661171245,21.95246326150585,0.0
0.047,0.30987149973218875,-0.150777042370661,0.053483229008658095,0.0,1.334729366952183,1.1747360079833833,22.09845656180893,21.95246326150585,0.0
0.048,0.30336975209461303,-0.1468881121846994,0.23678284568678448,0.0,1.3333799529719133,1.1859746668826372,22.019120727484793,21.95246326150585,0.0
0.049,0.307547448151804,-0.14682856551907528,0.2757841881890637,0.0,1.333321685448237,1.1978871059597422,22.379632232605537,21.95246326150585,0.0
0.05,0.3145185818631881,-0.14999745732056236,0.09125674591769478,0.0,1.3348096621494587,1.187189394554215,22.41480048082979,21.95246326150585,0.0
0.051000000000000004,0.3105727367654851,-0.14931554433945254,0.06904924961232922,0.0,1.3349723706940686,1.177616456086347,22.04061480202598,21.95246326150585,0.0
0.052000000000000005,0.3047563962135632,-0.14565036296121342,0.25526057360903215,0.0,1.333765163715635,1.190322741932152,22.02446054700243,21.95246326150585,0.0
0.053,0.3099321343608395,-0.14590818693180005,0.26261772826584184,0.0,1.3340143184701727,1.1999573576660962,22.3931006203584,21.95246326150585,0.0
0.054,0.31602426657710864,-0.14866995213803064,0.07389131799933168,0.0,1.3355032352556304,1.1872015734638983,22.338072809269054,21.95246326150585,0.0
0.055,0.3107154757634687,-0.1474046327594463,0.09754912806637261,0.0,1.335400879158616,1.1810047708821685,21.94899145724205,21.95246326150585,0.0
0.056,0.30619266917794585,-0.14430005600705822,0.2921245221225117,0.0,1.3343602281641533,1.1970285490106864,22.056635482479834,21.95246326150585,0.0
0.057,0.3134985434172512,-0.1454309107400007,0.23726078729388078,0.0,1.3351814598701364,1.202516245223017,22.452194885855597,21.95246326150585,0.0
0.058,0.31813473906838013,-0.14749910998548768,0.03448376936250164,0.0,1.3366855313964279,1.185343537581316,22.23466406200102,21.95246326150585,0.0
0.059000000000000004,0.3101361845686971,-0.14489484247505818,0.14042717328483867,0.0,1.336014773587318,1.1846462554186612,21.826926561124704,21.95246326150585,0.0
0.06,0.3076215453749652,-0.14250775787628234,0.3455512907268079,0.0,1.3351048267120929,1.2056524693370683,22.122759870102154,21.95246326150585,0.0
0.061,0.31795241439129984,-0.14530437393230144,0.19593167015211993,0.0,1.3367179945283805,1.2047961257547422,22.50277546554832,21.95246326150585,0.0
0.062,0.32015088799963926,-0.14669483790194,0.0004207503886116126,0.0,1.3382091960809077,1.1840382049372848,22.096869940858564,21.95246326150585,0.0
0.063,0.3099250703366804,-0.14228339934022316,0.20192944593996304,0.0,1.33697632251495,1.1907730867441186,21.76692696675542,21.95246326150585,0.0
0.064,0.3106608759218224,-0.1406928285471394,0.3687562959390393,0.0,1.3364093760846498,1.212863862767063,22.218519514201073,21.95246326150585,0.0
0.065,0.32201032931970414,-0.14502705321385237,0.1402994596892606,0.0,1.3386008723209435,1.2046492642393003,22.453738821110292,21.95246326150585,0.0
0.066,0.32065567791292193,-0.14538751708347397,0.017677050638606806,0.0,1.339748067859823,1.1865338847435942,21.972046736755388,21.95246326150585,0.0
0.067,0.3112532858460103,-0.1400797028317272,0.2583272580635635,0.0,1.3383815416888556,1.1990632262718917,21.83833117964379,21.95246326150585,0.0
0.068,0.3152514638139331,-0.13946324247943714,0.3263263574379823,0.0,1.3383898697915801,1.2147425563900571,22.270903382659494,21.95246326150585,0.0
0.069,0.3238865626199718,-0.1435406692464588,0.10685585471859466,0.0,1.3404199796437437,1.2031231609248176,22.255946788571354,21.95246326150585,0.0
0.07,0.3200119273105554,-0.14285842790512102,0.11129931649200975,0.0,1.34096931814895,1.1960647626856842,21.822051831184712,21.95246326150585,0.0
0.07100000000000001,0.3155464371086476,-0.13950365534680334,0.3295509094885419,0.0,1.3403956804117203,1.2141828363019846,22.029453272523387,21.95246326150585,0.0
0.07200000000000001,0.3238746877697377,-0.14084563242503378,0.22508028870902907,0.0,1.3418723790140326,1.2157966920924808,22.448422532121583,21.95246326150585,0.0
0.073,0.32659230077069096,-0.142350318282372,0.010636066203773775,0.0,1.3435148890086877,1.194637018972882,22.017118565119922,21.95246326150585,0.0
0.074,0.316312166485967,-0.13793390070269976,0.22564149666846345,0.0,1.3423763278995804,1.2027105946422065,21.708341610176,21.95246326150585,0.0
0.075,0.3179096822844488,-0.13628001944538193,0.3824711906537234,0.0,1.3420212177058082,1.2246856405867397,22.20235463764577,21.95246326150585,0.0
0.076,0.329251726054096,-0.1409058437862769,0.13296576315743958,0.0,1.3444245026159378,1.2141821272963211,22.32846910764998,21.95246326150585,0.0
0.077,0.32665216303870426,-0.1409382951518191,0.06614846969389282,0.0,1.3454944191128135,1.2005138181893202,21.855009677708416,21.95246326150585,0.0
0.078,0.3194407841917889,-0.13591861544257602,0.30385272050264883,0.0,1.3445380237676294,1.2159022282093124,21.941740309755797,21.95246326150585,0.0
0.079,0.3254735001782268,-0.13617308007646495,0.26059463399645894,0.0,1.3452942968657826,1.2217850131220407,22.390581156070567,21.95246326150585,0.0
0.08,0.3297963037401433,-0.1381999707414006,0.031793031893426804,0.0,1.3467836344721977,1.202004370255094,21.967766802120078,21.95246326150585,0.0
0.081,0.3206553105574218,-0.13466292091363735,0.24304717346252913,0.0,1.345736629643574,1.2109254343148332,21.66752161157794,21.95246326150585,0.0
0.082,0.32322932428178686,-0.13327969007813933,0.39601918523287766,0.0,1.345569646810159,1.2331895199232763,22.178184895005852,21.95246326150585,0.0
0.083,0.3349175958024846,-0.13823672193996578,0.13843032718392106,0.0,1.3482048766340853,1.2220860344544116,22.23653534172198,21.95246326150585,0.0
0.084,0.3320912582130749,-0.13823571819179287,0.10641438302369666,0.0,1.3494165541978156,1.2118383350877333,21.760655126708006,21.95246326150585,0.0
0.085,0.32658268915990685,-0.13379989986493468,0.34627257187866156,0.0,1.3489943640900321,1.2300188128496978,22.000602337811298,21.95246326150585,0.0
0.08600000000000001,0.3344189858609814,-0.13495186717908111,0.22581757556396104,0.0,1.3506035153570486,1.2297733140138716,22.36310528981529,21.95246326150585,0.0
0.08700000000000001,0.33582809684645526,-0.13627738048696061,0.04045967927887012,0.0,1.3521614884045057,1.210451822318725,21.83584639399334,21.95246326150585,0.0
0.088,0.326553670374207,-0.13140513909409163,0.305255295864971,0.0,1.3510823132914078,1.2252336519069629,21.766997121565353,21.95246326150585,0.0
0.089,0.33201360739731267,-0.13089184772645332,0.341534593478369,0.0,1.3515814990119321,1.2390788102594157,22.23254012210456,21.95246326150585,0.0
0.09,0.3399276777219064,-0.13492729363627445,0.10596232460277882,0.0,1.3538643139594062,1.224497680430753,21.970750173376235,21.95246326150585,0.0
0.091,0.3345560613087784,-0.13310438656724072,0.23667442984823728,0.0,1.3542198601925748,1.2290070178541501,21.624861320196352,21.95246326150585,0.0
0.092,0.3359662622098472,-0.1310986097167257,0.41289487585127366,0.0,1.3547883791618998,1.2509692659031546,22.200030297029816,21.95246326150585,0.0
0.093,0.34695708874908476,-0.13552468177035998,0.12283471707930221,0.0,1.3580031967335975,1.235928430208939,22.139770024176347,21.95246326150585,0.0
0.094,0.34178768747866084,-0.1343275724299982,0.15109178587933186,0.0,1.3592165062307275,1.2294005814021762,21.642380628011548,21.95246326150585,0.0
0.095,0.33754656904795716,-0.12989836276785996,0.40288731029667435,0.0,1.359180457928037,1.2514766144383835,22.111345646610413,21.95246326150585,0.0
0.096,0.3473873825390986,-0.13240595448312917,0.166815977146196,0.0,1.3616757449445376,1.2417307367816426,22.241070756822687,21.95246326150585,0.0
0.097,0.3443640614361879,-0.1322905528812444,0.09906734708689083,0.0,1.3629091454003532,1.2285483130734383,21.731733793839588,21.95246326150585,0.0
0.098,0.33753259878550856,-0.12686699698768886,0.35594312325510286,0.0,1.3621055263074955,1.2464625211412783,21.99512043097254,21.95246326150585,0.0
0.099,0.34477586314390196,-0.1278588777135337,0.2238232329939594,0.0,1.3633370323694856,1.2445379270967099,22.278397802838025,21.95246326150585,0.0
0.1,0.34511767242523794,-0.129075968171724,0.07892520164789557,0.0,1.364376889563962,1.2283461921399794,21.69726766751976,21.95246326150585,0.0
0.101,0.3377565433251277,-0.1240527652348833,0.37204222524688896,0.0,1.363128864315684,1.2483826116015446,21.907653578639206,21.95246326150585,0.0
0.10200000000000001,0.3462466923975597,-0.12533678936923334,0.2672973665158328,0.0,1.3642007582225368,1.2508299542067514,22.262297072130654,21.95246326150585,0.0
0.10300000000000001,0.34918320533769337,-0.12784045322247026,0.08687728166386077,0.0,1.3656727597817375,1.2341028762630257,21.683445810983063,21.95246326150585,0.0
0.10400000000000001,0.34217120042584215,-0.12347836952631745,0.3789930867428841,0.0,1.364819987545537,1.2539333313465095,21.86722994253286,21.95246326150585,0.0
0.105,0.35077819012525585,-0.12457462169008035,0.28795335415771595,0.0,1.3661997466162794,1.257743046146812,22.23888374494084,21.95246326150585,0.0
0.106,0.35429624038725716,-0.1273702818755301,0.09926224811937592,0.0,1.3681190613587404,1.2411632254039675,21.67711622283048,21.95246326150585,0.0
0.107,0.34745233123876434,-0.12308247406732555,0.3828994795613087,0.0,1.367688847091914,1.2603083352376039,21.875878690768147,21.95246326150585,0.0
0.108,0.3556753723270026,-0.12397225140391643,0.2842840912998529,0.0,1.3693569188202401,1.2628388740268228,22.21090925286515,21.95246326150585,0.0
0.109,0.35831057825361434,-0.1264090196833781,0.1141843503377582,0.0,1.3713703839920308,1.2473507062456919,21.65721869714899,21.95246326150585,0.0
0.11,0.35185006656099,-0.12192425224842629,0.3939820738394062,0.0,1.3711159937678898,1.2668284571001098,21.91749728565174,21.95246326150585,0.0
0.111,0.3601445252408289,-0.1231121809082157,0.2641924393465723,0.0,1.3730103374785314,1.2662811612457354,22.17109421044501,21.95246326150585,0.0
0.112,0.3612161711861526,-0.12493112398848158,0.13520766746054688,0.0,1.374848721684903,1.253052664318141,21.625560909669257,21.95246326150585,0.0
0.113,0.3556838650461752,-0.12023648560503654,0.41124334136678864,0.0,1.3746458181248957,1.2736038974873405,21.965546217532044,21.95246326150585,0.0
0.114,0.36448628072087064,-0.12218472331497895,0.24111985787513357,0.0,1.3767795807697374,1.2695821882748581,22.06079682892536,21.95246326150585,0.0
0.115,0.3640267294282014,-0.12334480611882592,0.19241121650428117,0.0,1.3784059229601706,1.2626578853311727,21.56221924639002,21.95246326150585,0.0
0.116,0.3614156757241503,-0.11941879125187402,0.4456024479231095,0.0,1.3787337381737887,1.2852093891651977,22.05592026844401,21.95246326150585,0.0
0.117,0.37175224667642964,-0.12267113150827114,0.19771736682673274,0.0,1.381680939826321,1.2745761195606002,21.91922346826452,21.95246326150585,0.0
0.11800000000000001,0.368583422690214,-0.12228675557522993,0.2663981648488908,0.0,1.3831952895979416,1.2757865720231236,21.598075816871052,21.95246326150585,0.0
0.11900000000000001,0.3694364298043821,-0.11904472538525018,0.4305158649919723,0.0,1.3843264700770848,1.2942680342296533,22.148929119644215,21.95246326150585,0.0
0.12,0.3780179103037325,-0.12279414651562645,0.15312455502400718,0.0,1.3876375353552082,1.2779248143817508,21.786155542525247,21.95246326150585,0.0
0.121,0.3720940226818841,-0.11987654554275069,0.3361744207732974,0.0,1.3886247418024085,1.2871938638219493,21.82206797329874,21.95246326150585,0.0
0.122,0.3759006677316336,-0.11795435113272269,0.319522158268622,0.0,1.3902578671735353,1.29149451159815,22.194288760294175,21.95246326150585,0.0
0.123,0.3778280341568948,-0.11980722866533913,0.1309935097830215,0.0,1.3923807832578565,1.2747828345691925,21.6253858577783,21.95246326150585,0.0
0.124,0.37064277203789076,-0.11462015041964364,0.41871573507823356,0.0,1.3920311326484973,1.2942990006162354,21.981562542170185,21.95246326150585,0.0
0.125,0.37856723926404856,-0.11591316250513008,0.24033640007564866,0.0,1.393862165816639,1.2883860918783336,21.932108724012856,21.95246326150585,0.0
0.126,0.3769752605138257,-0.11645303618378104,0.26526685452924276,0.0,1.3949652607779734,1.2880280830057447,21.574955739330058,21.95246326150585,0.0
0.127,0.3777752722866179,-0.113272431550467,0.44761842209239994,0.0,1.395566980109464,1.3075216313214488,22.119288128391126,21.95246326150585,0.0
0.128,0.3870358002774149,-0.11734486532726923,0.17378397889301295,0.0,1.3985376561011575,1.2921700343499085,21.72014640690052,21.95246326150585,0.0
0.129,0.3820689615143499,-0.11469273687746873,0.37567800818437025,0.0,1.3993436463292814,1.3042363098725802,21.89350711201885,21.95246326150585,0.0
0.13,0.3874990013727304,-0.1138757402842315,0.28958721712007496,0.0,1.401212316746102,1.3030406567837582,22.049030074432284,21.95246326150585,0.0
0.131,0.38713853913953067,-0.11504640825793006,0.21086006778409283,0.0,1.4029114982553978,1.2944463087734202,21.574776079868435,21.95246326150585,0.0
0.132,0.3839214604075427,-0.11050250635126432,0.4517639368823916,0.0,1.4030697909232597,1.3145182848474057,22.053271344345884,21.95246326150585,0.0
0.133,0.39267980576579165,-0.11338557232383699,0.21150822381526702,0.0,1.4055820282077836,1.3027661366756849,21.72288251337685,21.95246326150585,0.0
