timestamp,iq,id,iq_ref,id_ref,vq,vd,omega,omega_ref,r
0.0,0.0,0.0,0.0,0.0,0.0,0.0,0.0,371.59190100904954,0.0
0.001,0.0,0.0,10.0,0.0,0.0,1.0999999999999999,6.115472199294103,371.59190100904954,0.0
0.002,0.5307369851907212,-0.2913212625381807,10.0,0.0,0.14204533887919985,1.9316189316290207,13.317801563642547,371.59190100904954,0.0
0.003,1.0842913387634832,-0.6024330830807904,10.0,0.0,0.384357124667687,2.6386968949419622,20.697939467553027,371.59190100904954,0.0
0.004,1.5590443546685477,-0.8700465084428163,10.0,0.0,0.6994718867930164,3.2526109522886295,28.232747544420146,371.59190100904954,0.0
0.005,1.9399447555359186,-1.0838738622210777,10.0,0.0,1.065311453102468,3.7994935661768023,35.92944872443006,371.59190100904954,0.0
0.006,2.239750732602683,-1.2510087368845633,10.0,0.0,1.4655018868449925,4.299102221838433,43.75633668444442,371.59190100904954,0.0
0.007,2.4770151619816017,-1.382020589851471,10.0,0.0,1.8883740978591532,4.765668027847139,51.58766747378032,371.59190100904954,0.0
0.008,2.6680767290418097,-1.4872241871505252,10.0,0.0,2.325877945545995,5.209220346273558,59.45942083902103,371.59190100904954,0.0
0.009000000000000001,2.8266491704841292,-1.5730794701170803,10.0,0.0,2.772378685460125,5.636635464737965,67.35059094018146,371.59190100904954,0.0
0.01,2.962077666392183,-1.645500646948331,10.0,0.0,3.224078639851053,6.052647735211881,75.20908322432116,371.59190100904954,0.0
0.011,3.0811061533574158,-1.7084279320504514,10.0,0.0,3.678407615443203,6.460489925470405,83.0265951655913,371.59190100904954,0.0
0.012,3.188848746459569,-1.7638278597420747,10.0,0.0,4.133552631697047,6.862319393890706,90.74118064793086,371.59190100904954,0.0
0.013000000000000001,3.288205119878689,-1.8140726097274587,10.0,0.0,4.588339016389012,7.259628641949282,98.35820682563939,371.59190100904954,0.0
0.014,3.3820602099432007,-1.8592355758795645,10.0,0.0,5.041843166194517,7.653355107498287,105.90865295623543,371.59190100904954,0.0
0.015,3.4721069852858886,-1.899829032412081,10.0,0.0,5.493383198131427,8.044092747085895,113.37727610343421,371.59190100904954,0.0
0.016,3.5596145800153947,-1.9360338400176071,10.0,0.0,5.94241958510469,8.43218525824161,120.68508583176356,371.59190100904954,0.0
0.017,3.645144415105338,-1.9685384477868613,10.0,0.0,6.388575043274759,8.817838951066484,127.83962377537456,371.59190100904954,0.0
0.018000000000000002,3.730251927866576,-1.9959253041084188,10.0,0.0,6.83136783302799,9.201036292373047,134.85405702603322,371.59190100904954,0.0
0.019,3.81544967906247,-2.018253592643655,10.0,0.0,7.270383321112213,9.581672501020332,141.68976328564074,371.59190100904954,0.0
0.02,3.9014648862453374,-2.0350875541282063,10.0,0.0,7.705189334130692,9.959536942333155,148.3432823300447,371.59190100904954,0.0
0.021,3.9891051824829464,-2.0457889559126508,10.0,0.0,8.135310004560049,10.334315260302239,154.92060212100432,371.59190100904954,0.0
0.022,4.079618141396171,-2.0489696811670974,10.0,0.0,8.560139305503519,10.705547790999272,161.01925282597162,371.59190100904954,0.0
0.023,4.171109372430197,-2.048468292080302,10.0,0.0,8.979521969370257,11.072981092896333,166.534238406907,371.59190100904954,0.0
0.024,4.266936196769627,-2.039517194249811,10.0,0.0,9.392730090169543,11.435983292623375,171.8647834235234,371.59190100904954,0.0
0.025,4.367255527950721,-2.0225841458509217,10.0,0.0,9.79914449451603,11.793929226271104,177.02637022703064,371.59190100904954,0.0
0.026000000000000002,4.4734353073349595,-1.9962166741499119,10.0,0.0,10.197980960389518,12.146045424568259,181.63161391243256,371.59190100904954,0.0
0.027,4.582366840795821,-1.966358349113627,10.0,0.0,10.589124658468391,12.491912978736195,185.74793639675826,371.59190100904954,0.0
0.028,4.700058850757774,-1.9240450691803936,10.0,0.0,10.971384864613876,12.830451341534015,189.43662766964098,371.59190100904954,0.0
0.029,4.820934284790598,-1.879137197786803,10.0,0.0,11.344756153370636,13.161242511022618,192.73598774770625,371.59190100904954,0.0
0.03,4.952016225740939,-1.821000614527957,10.0,0.0,11.707923484756042,13.483081433273819,195.59831968863915,371.59190100904954,0.0
0.031,5.086039273572549,-1.7621311371320891,10.0,0.0,12.061063698547066,13.79562148058647,197.80891551030922,371.59190100904954,0.0
0.032,5.230431844273564,-1.6911110488141978,10.0,0.0,12.40292038074925,14.097678592248165,200.4421589734679,371.59190100904954,0.0
0.033,5.380124186618445,-1.6166151787533525,10.0,0.0,12.733312761073865,14.38869342901298,201.91742172589852,371.59190100904954,0.0
0.034,5.537594793894332,-1.535029134414507,10.0,0.0,13.051537880865839,14.667821176756876,203.18880493813168,371.59190100904954,0.0
0.035,5.698947813469154,-1.4530296333491768,10.0,0.0,13.357649178779205,14.934684535625108,203.60405746232266,371.59190100904954,0.0
0.036000000000000004,5.870474243492053,-1.3603000477825025,10.0,0.0,13.65045542338638,15.188218311291084,204.28541056101804,371.59190100904954,0.0
0.037,6.041188711220851,-1.275010780747051,10.0,0.0,13.930879897581198,15.42861600670124,205.2233356988433,371.59190100904954,0.0
0.038,6.228175208801664,-1.168399557236846,10.0,0.0,14.196427351981786,15.654155009933262,200.35169734043586,371.59190100904954,0.0
0.039,6.404895489618571,-1.0845312562500289,10.0,0.0,14.449814560392067,15.86612549236809,209.64773540576442,371.59190100904954,0.0
0.04,6.534612624563911,-1.0851225869390002,10.0,0.0,14.699963825590459,16.069735965364643,218.170241886545,371.59190100904954,0.0
0.041,6.621487035821765,-1.1484636683301073,10.0,0.0,14.952420817214799,16.26974130369247,220.68166573712315,371.59190100904954,0.0
0.042,6.6704785161669795,-1.2647840534085386,10.0,0.0,15.211794475054209,16.47047148862455,233.10654395573727,371.59190100904954,0.0
0.043000000000000003,6.709376245503157,-1.3867642159960276,10.0,0.0,15.477558399636717,16.673277185423842,235.10815372853793,371.59190100904954,0.0
0.044,6.744196093263161,-1.5028656568708394,10.0,0.0,15.74857785831126,16.87893749904121,248.8181267625822,371.59190100904954,0.0
0.045,6.750563942850831,-1.6564343609015326,10.0,0.0,16.02879294551472,17.090781462187255,251.61117095327992,371.59190100904954,0.0
0.046,6.764566527560506,-1.7840489455190416,10.0,0.0,16.314672837580048,17.307985931916857,266.60539535969383,371.59190100904954,0.0
0.047,6.752169677737121,-1.9446655565152717,10.0,0.0,16.610076868775216,17.533561623207692,270.0627790167984,371.59190100904954,0.0
0.048,6.7291903821171735,-2.110358990489937,10.0,0.0,16.91511817760721,17.768523902508925,283.13731951482634,371.59190100904954,0.0
0.049,6.714097190323873,-2.246352557911731,10.0,0.0,17.22645394156277,18.011924542904307,294.70561782835244,371.59190100904954,0.0
0.05,6.666841209228205,-2.4219663531358275,10.0,0.0,17.548953774962747,18.267165921658286,300.1294548425776,371.59190100904954,0.0
0.051000000000000004,6.612335516543512,-2.59336894353628,10.0,0.0,17.88182590988993,18.53465621226123,310.75154600411304,371.59190100904954,0.0
0.052000000000000005,6.568447424188529,-2.726701034625408,10.0,0.0,18.22111236450049,18.81296732052879,322.35703405819294,371.59190100904954,0.0
0.053,6.5036136539679195,-2.8764091099274185,10.0,0.0,18.569435851849082,19.104068797231378,330.9557012510771,371.59190100904954,0.0
0.054,6.434362099984388,-3.0149932598739144,10.0,0.0,18.925784313874168,19.407861808234543,339.4707232587175,371.59190100904954,0.0
0.055,6.370891759459199,-3.1253006473392393,10.0,0.0,19.28762520191878,19.723199586257838,348.00092263299223,371.59190100904954,0.0
0.056,6.314459991163816,-3.2071523724558277,10.0,0.0,19.65271639484943,20.048760466390505,356.29964302226927,371.59190100904954,0.0
0.057,6.266092078485367,-3.262894600420583,10.0,0.0,20.01916768432525,20.383030530514645,362.98468703488817,371.59190100904954,0.0
0.058,6.234656406121481,-3.2830044001420036,10.0,0.0,20.38405550695561,20.723492962007192,368.0316803659419,371.59190100904954,0.0
0.059000000000000004,6.228510489334133,-3.2600491726267444,7.602338001918508,0.0,20.743774617448288,20.803016806947532,370.5209998693376,371.59190100904954,0.0
0.06,6.1182618567195295,-3.1452287829115595,6.368387261617788,0.0,21.063073510792208,20.81086810741057,365.457656565421,371.59190100904954,0.0
0.061,5.9776422289681035,-2.9475727729204655,8.96140135801235,0.0,21.33063368764618,21.16180089789461,362.75791983800923,371.59190100904954,0.0
0.062,6.048707567088764,-2.7532714665489824,10.0,0.0,21.587134542262206,21.583488753199568,368.6357060726186,371.59190100904954,0.0
0.063,6.229166609123609,-2.606782471019035,7.482286174819712,0.0,21.845983320502548,21.682183560003295,363.53137364610274,371.59190100904954,0.0
0.064,6.30708366244943,-2.409568089657814,10.0,0.0,22.06858800960479,22.09225313752682,353.7101560065243,371.59190100904954,0.0
0.065,6.57877976522557,-2.186585424310511,10.0,0.0,22.28738323817457,22.429291687184303,357.9707646295525,371.59190100904954,0.0
0.066,6.8684428107219935,-1.9987711196123124,10.0,0.0,22.4995730519898,22.725359930756163,345.7645444886772,371.59190100904954,0.0
0.067,7.179995793737382,-1.7976289800747614,10.0,0.0,22.699903216478532,22.98166613367564,345.9733563838709,371.59190100904954,0.0
0.068,7.519119960822844,-1.5613127536921834,10.0,0.0,22.88184762130364,23.198186604202785,333.44379203648214,371.59190100904954,0.0
0.069,7.852748882222377,-1.3416556741085786,10.0,0.0,23.045450516208568,23.377941528476637,332.5661250949033,371.59190100904954,0.0
0.07,8.194182076277654,-1.1198303206689333,10.0,0.0,23.188464395967877,23.52185988768151,322.3230197915366,371.59190100904954,0.0
0.07100000000000001,8.556013338678182,-0.8732709026470032,10.0,0.0,23.306665441223725,23.629300692018333,328.5783286961849,371.59190100904954,0.0
0.07200000000000001,8.766806111390215,-0.8853727186562659,10.0,0.0,23.4275872563289,23.71824862807272,342.9400724487799,371.59190100904954,0.0
0.073,8.844250911763284,-1.0780867003020356,10.0,0.0,23.566389203349946,23.803982951718282,348.22664418660327,371.59190100904954,0.0
0.074,8.832137090432107,-1.370250509155799,10.0,0.0,23.73009526719089,23.897131006051552,366.56555969953615,371.59190100904954,0.0
0.075,8.788190147687203,-1.6637610429219374,9.306302012617103,0.0,23.91611005070681,23.925741108212094,372.63691539513155,371.59190100904954,0.0
0.076,8.660141180956305,-1.9661404923363912,6.2601740209585826,0.0,24.11671100018512,23.65560049621252,382.52467439337374,371.59190100904954,0.0
0.077,8.345658273007867,-2.1734691950595737,1.2069667879942454,0.0,24.290020156321052,22.940455154858252,391.00183325977775,371.59190100904954,0.0
0.078,7.725953278422623,-2.254264154249123,-3.225711967715042,0.0,24.381298021191583,21.942115392779527,393.0657603259785,371.59190100904954,0.0
0.079,6.88329508743086,-2.1902269511645294,-4.472414093984698,0.0,24.35576208143598,21.046422298126394,395.1951733669474,371.59190100904954,0.0
0.08,6.032695845303061,-2.0968774291744436,-5.7731533380481395,0.0,24.233582350802564,20.19226995810288,394.87972685110947,371.59190100904954,0.0
0.081,5.229411559701598,-1.9839514564728011,-5.848308338549765,0.0,24.026716997452866,19.495910500398715,392.8200232405125,371.59190100904954,0.0
0.082,4.551227200161851,-1.8795719711919987,-5.030737755565918,0.0,23.760549750013844,19.00575220395659,389.9100174699073,371.59190100904954,0.0
0.083,4.047564553044432,-1.8002306102966077,-3.7589160348718904,0.0,23.464299642828816,18.71833874344879,386.53659926966816,371.59190100904954,0.0
0.084,3.7255729364262944,-1.7546357861274857,-2.2216539173585046,0.0,23.164711183261876,18.61680468534963,382.31330294465846,371.59190100904954,0.0
0.085,3.572669644370685,-1.7429037663702607,-0.21721977420974437,0.0,22.8840935899101,18.714179767634853,377.94143057442096,371.59190100904954,0.0
0.08600000000000001,3.591151273286197,-1.757890824217164,1.9052211152552907,0.0,22.643041160682763,18.983617726664782,373.4926683482784,371.59190100904954,0.0
0.08700000000000001,3.7592106814398,-1.7978587914348239,4.110594554934277,0.0,22.457284376096624,19.405071597731286,369.4124726581459,371.59190100904954,0.0
0.088,4.0645203645854835,-1.8423631489502015,6.172486683509584,0.0,22.336744456730266,19.93865533191453,370.12235883466815,371.59190100904954,0.0
0.089,4.474585487343603,-1.8863460270418897,5.8322390169922596,0.0,22.2860099757338,20.30672646946822,370.3542574444965,371.59190100904954,0.0
0.09,4.823665339978379,-1.899398213049683,5.728666147723608,0.0,22.27815196827228,20.590628373650254,358.5528127393025,371.59190100904954,0.0
0.091,5.145584839246513,-1.8219551525695226,10.0,0.0,22.290820693462226,21.284316392717887,358.3377142001031,371.59190100904954,0.0
0.092,5.676917035539998,-1.7813305689755496,10.0,0.0,22.36789707444941,21.811961797275387,358.25192655420574,371.59190100904954,0.0
0.093,6.170312977515346,-1.7598718327275686,10.0,0.0,22.48807614264228,22.245590067821503,345.6513817899197,371.59190100904954,0.0
0.094,6.657318359924285,-1.644130628151827,10.0,0.0,22.62708318592963,22.599236785487058,347.056214728949,371.59190100904954,0.0
0.095,7.095970990740771,-1.5066926310422764,10.0,0.0,22.7735934290185,22.88803780014907,334.8971081429145,371.59190100904954,0.0
0.096,7.514956087569891,-1.3272433956854046,10.0,0.0,22.91596771334654,23.12090790331074,333.1002675685339,371.59190100904954,0.0
0.097,7.901967417748383,-1.1506668762139483,10.0,0.0,23.049762654769637,23.3063470292377,324.2378040840187,371.59190100904954,0.0
0.098,8.300625665027583,-0.9234197944554055,10.0,0.0,23.1654906008444,23.44663944281534,323.35264942571314,371.59190100904954,0.0
0.099,8.62573011400247,-0.8001465115997046,10.0,0.0,23.272387403372903,23.552700502728246,335.2386670687249,371.59190100904954,0.0
0.1,8.763966162121696,-0.950068929368661,10.0,0.0,23.396924830423,23.646890216099354,341.94079114854276,371.59190100904954,0.0
0.101,8.78480718959764,-1.2352317790931782,10.0,0.0,23.548296175397187,23.743204548297193,359.09146837886937,371.59190100904954,0.0
0.10200000000000001,8.770926426143678,-1.5182976316642178,10.0,0.0,23.722447434379323,23.846759876027363,365.9431224281627,371.59190100904954,0.0
0.10300000000000001,8.701958414378556,-1.8360295144880698,8.981767453703288,0.0,23.921658948821175,23.852816890449716,381.0599558561189,371.59190100904954,0.0
0.10400000000000001,8.561190980816436,-2.1006149705553834,1.3286701912545036,0.0,24.12748209460024,23.0613257190418,385.9027420972991,371.59190100904954,0.0
0.105,7.9518630760888005,-2.208321257164331,-1.2358313402180876,0.0,24.24277564562692,22.229620178699513,389.2016451316552,371.59190100904954,0.0
0.106,7.200719681508546,-2.184900790421148,-3.061380298622195,0.0,24.259715973308865,21.39398167174094,393.33196825376325,371.59190100904954,0.0
0.107,6.398734422926229,-2.133530798752205,-5.343942532123358,0.0,24.1859819231106,20.491481636643584,393.4824788926414,371.59190100904954,0.0
0.108,5.575478808605898,-2.031661128612738,-5.638103630398342,0.0,24.01867931062377,19.74486436655031,392.2129962095558,371.59190100904954,0.0
0.109,4.851950128357912,-1.928084813307151,-5.209573240860612,0.0,23.783070534394085,19.177614114733665,389.83453237509354,371.59190100904954,0.0
0.11,4.2791442752013955,-1.8446184782988893,-4.202767637289925,0.0,23.50615207690785,18.80576468001785,386.936005085549,371.59190100904954,0.0
0.111,3.8813616472813415,-1.785902555249969,-2.9069450332826623,0.0,23.21411643351336,18.613908803969725,383.1793786075433,371.59190100904954,0.0
0.112,3.6489223135922897,-1.7583181474807907,-1.1445065702647357,0.0,22.929651641229384,18.61453545650545,378.92928609443027,371.59190100904954,0.0
0.113,3.5836213861450217,-1.7594995358998504,0.907165835437973,0.0,22.674101790231163,18.79957125323863,374.7196886475797,371.59190100904954,0.0
0.114,3.6761756905628524,-1.7876363396667985,2.9806866824779616,0.0,22.465693738536267,19.137285071555628,369.9920225977996,371.59190100904954,0.0
0.115,3.906650611691089,-1.8290092458716962,5.360518491480517,0.0,22.31616752548742,19.63700629511137,368.1107571067824,371.59190100904954,0.0
0.116,4.2753620551829155,-1.8714664918246178,6.335962676011783,0.0,22.235822624091796,20.117049807642257,370.9426458967881,371.59190100904954,0.0
0.117,4.672431609202433,-1.9030262462723257,4.92651083213153,0.0,22.21456356461855,20.33626979760112,362.63426490411064,371.59190100904954,0.0
0.11800000000000001,4.95049642697018,-1.862422845803974,9.170277689519661,0.0,22.212570438492524,20.985734320954013,355.4012709367101,371.59190100904954,0.0
0.11900000000000001,5.44638425545889,-1.8188552927584973,10.0,0.0,22.271336680484072,21.567117851981898,359.2266246803921,371.59190100904954,0.0
0.12,5.957142294946131,-1.7973666617689452,10.0,0.0,22.380436577500845,22.036717924942625,349.6533843877245,371.59190100904954,0.0
0.121,6.433757223718462,-1.7351875693494712,10.0,0.0,22.51896167825578,22.42294791853888,347.6220503593089,371.59190100904954,0.0
0.122,6.902865262213574,-1.5788187669785572,10.0,0.0,22.66567849095823,22.737571687904264,339.6531586860494,371.59190100904954,0.0
0.123,7.302151635742637,-1.4509475142974981,10.0,0.0,22.81668384955578,22.996174340900104,336.2862883039814,371.59190100904954,0.0
0.124,7.723656327173353,-1.230089175044967,10.0,0.0,22.955433232802182,23.20164461213403,323.7135575568375,371.59190100904954,0.0
0.125,8.094631816364725,-1.0536552131925112,10.0,0.0,23.08365555243609,23.36385053767246,323.40600929038266,371.59190100904954,0.0
0.126,8.467967251869062,-0.8529869705732533,10.0,0.0,23.19496706559086,23.485300959606874,325.47012660779984,371.59190100904954,0.0
0.127,8.709210688806671,-0.8550358228334476,10.0,0.0,23.309524525798402,23.582934066955225,339.62982985359855,371.59190100904954,0.0
0.128,8.768673831576624,-1.1032623269507567,10.0,0.0,23.44967397765034,23.678131098254177,350.17647015129603,371.59190100904954,0.0
0.129,8.791037718120883,-1.353198432414536,10.0,0.0,23.610338894006812,23.775957975516256,360.84677938393514,371.59190100904954,0.0
0.13,8.729904479309823,-1.6861078775386802,10.0,0.0,23.798840684362872,23.887016951822446,373.6181345904094,371.59190100904954,0.0
0.131,8.666581206276192,-1.9661629886381693,4.738057472414551,0.0,24.007075161083634,23.433360759144804,382.77719311455417,371.59190100904954,0.0
0.132,8.256341558007538,-2.166630782627155,0.04667528928712006,0.0,24.168371477092357,22.62695414711806,386.2270088057637,371.59190100904954,0.0
0.133,7.582336413820096,-2.1871103468166884,-1.8245836342847968,0.0,24.23314557441849,21.82843133751115,391.6932302445652,371.59190100904954,0.0
0.134,6.815969695450566,-2.166845414092236,-4.758707646040695,0.0,24.209156042809735,20.889757454118897,392.7197481385101,371.59190100904954,0.0
0.135,5.974259396948863,-2.0758131254265404,-5.4832450643077575,0.0,24.08388717359665,20.077118595664672,392.36062556276914,371.59190100904954,0.0
0.136,5.197419512900666,-1.9713816630243421,-5.511371021974469,0.0,23.87930416748186,19.414403539234165,390.5771705510649,371.59190100904954,0.0
0.137,4.545184757862219,-1.8779017930432373,-4.8094962115425055,0.0,23.619669485261607,18.938966600773167,387.86678263497805,371.59190100904954,0.0
0.138,4.0566951986133954,-1.8056383297074174,-3.617051069758361,0.0,23.331440395150143,18.65647160939517,384.62211666856405,371.59190100904954,0.0
0.139,3.740712817386648,-1.763209025559407,-2.125020243146504,0.0,23.039840126089103,18.555475313995732,380.524913546959,371.59190100904954,0.0
0.14,3.588177812439895,-1.7523367474992466,-0.16574880772307488,0.0,22.76652859684909,18.64963719759247,376.2734420972307,371.59190100904954,0.0
0.14100000000000001,3.602987301239657,-1.7669610674465586,1.913171506259256,0.0,22.53168180686756,18.91298586627192,371.91468539293686,371.59190100904954,0.0
0.14200000000000002,3.76468353808481,-1.8056069522146139,4.089322014567309,0.0,22.350759366877135,19.327463850694368,367.9331083570656,371.59190100904954,0.0
0.14300000000000002,4.0622966830183955,-1.8486708645591756,6.11669845902279,0.0,22.233727540838217,19.8525312129083,368.66772281565346,371.59190100904954,0.0
0.14400000000000002,4.46356545675344,-1.891102393783207,5.778633011662809,0.0,22.185142462715792,20.214764258981283,368.99673266908235,371.59190100904954,0.0
