timestamp,iq,id,iq_ref,id_ref,vq,vd,omega,omega_ref,r
0.0,0.0,0.0,0.0,0.0,0.0,0.0,0.0,13.640422189232615,0.0
0.001,0.0,0.0,6.956615316508634,0.0,0.0,0.7652276848159496,4.2533584701438665,13.640422189232615,0.0
0.002,0.36925338188588014,-0.20266095833596529,4.923806718627588,0.0,0.09881547389855111,1.1201396302108562,8.012010570467217,13.640422189232615,0.0
0.003,0.6466401113855633,-0.35990767971757703,3.1007647846535664,0.0,0.23851112471535543,1.2424153952716888,10.537597374529238,13.640422189232615,0.0
0.004,0.768059679981495,-0.4298459569365046,1.8689996307695897,0.0,0.3825855302368285,1.2385871160700659,12.206241501055706,13.640422189232615,0.0
0.005,0.7711156376098699,-0.43156698060485954,1.0490193743881249,0.0,0.5113595971173217,1.1725469690244694,13.265773714704578,13.640422189232615,0.0
0.006,0.7051007479816528,-0.39357899222811654,0.5229997523089693,0.0,0.6164563536470807,1.083618084941977,13.915610157243004,13.640422189232615,0.0
0.007,0.6094186445137256,-0.3381948530533974,0.19532965135965252,0.0,0.6964381706901628,0.9931731325222661,14.274600991987418,13.640422189232615,0.0
0.008,0.5088364222062287,-0.28030596810083724,0.009492445959897233,0.0,0.7535633748339312,0.9127126888835,14.466235343472508,13.640422189232615,0.0
0.009000000000000001,0.41739314345355627,-0.22809562545612383,-0.0945828613250469,0.0,0.7917657653580533,0.8454738367153604,14.317745216728168,13.640422189232615,0.0
0.01,0.34066538906879945,-0.18492941911228178,-0.0271110282278324,0.0,0.8151978523415739,0.8047673837247862,14.134861231642892,13.640422189232615,0.0
0.011,0.2867279544560022,-0.1536031961052129,0.05938657389070279,0.0,0.8292018628603458,0.7844806428972482,14.204562751248515,13.640422189232615,0.0
0.012,0.25381134238755715,-0.13322685551060615,0.018894408467732382,0.0,0.8378486630091505,0.7653853159680302,14.374108025948328,13.640422189232615,0.0
0.013000000000000001,0.22987003876914827,-0.11947077635569439,-0.07321508724933096,0.0,0.8424118451490585,0.741641456149308,14.222963648342038,13.640422189232615,0.0
0.014,0.20783490328666135,-0.10808099869804716,-0.003468313037280346,0.0,0.8430290083423119,0.7315059925138341,14.03238750379673,13.640422189232615,0.0
0.015,0.1948501523659015,-0.10058741335759434,0.0879001060897322,0.0,0.8418605122418189,0.7330068211695427,13.982323149927575,13.640422189232615,0.0
0.016,0.19144317630416902,-0.09763842892945382,0.10951327341736017,0.0,0.8407094961832555,0.7359494014219828,14.134579563355889,13.640422189232615,0.0
0.017,0.1918617496369361,-0.09741414875208991,0.028443492961970795,0.0,0.8399726587805634,0.7292687016927321,14.153914076867762,13.640422189232615,0.0
0.018000000000000002,0.18837646142849007,-0.09655601028026119,0.01364131732968249,0.0,0.838549282715088,0.7227524141173961,13.966696421072836,13.640422189232615,0.0
0.019,0.18433085261187795,-0.09457550400394281,0.10398740290874342,0.0,0.8364073411929498,0.7272416729508085,13.870696898305043,13.640422189232615,0.0
0.02,0.1858723222895052,-0.0946973489751801,0.14968441720191544,0.0,0.8349617277159661,0.7349810047124193,14.023775017684631,13.640422189232615,0.0
0.021,0.19061841952609213,-0.09672517110853851,0.06931182922760137,0.0,0.8346564507477989,0.7319972311308158,14.135100958236196,13.640422189232615,0.0
0.022,0.19050500536496193,-0.09740426578978352,0.008702071261783295,0.0,0.8341377463118915,0.7234778962441495,13.952667629518517,13.640422189232615,0.0
0.023,0.18627590815490114,-0.09568188080958613,0.09679628121776351,0.0,0.8326227255362741,0.7265191516288702,13.821338884717973,13.640422189232615,0.0
0.024,0.18684765366419712,-0.09547292221748888,0.1606514866631823,0.0,0.8315575707813614,0.7351427269188704,13.953261454958247,13.640422189232615,0.0
0.025,0.19172066077894034,-0.09727060237684021,0.09156180888578896,0.0,0.83166112343439,0.7340286992668827,14.107945986683463,13.640422189232615,0.0
0.026000000000000002,0.19254034364030373,-0.09812303715833265,0.009544305048672319,0.0,0.8317187090812876,0.7246639659574856,13.962327613637138,13.640422189232615,0.0
0.027,0.1878759859278258,-0.09651719581337401,0.07913443732778969,0.0,0.8306488959367953,0.7252378303097784,13.788471167020399,13.640422189232615,0.0
0.028,0.18692671923168014,-0.09571674083849628,0.1645821708582813,0.0,0.8296714589081944,0.7344084520374063,13.893345698386046,13.640422189232615,0.0
0.029,0.19162558986593795,-0.09717509091078612,0.10961567008392342,0.0,0.8298772508129171,0.7351371070321976,14.065994937665259,13.640422189232615,0.0
0.03,0.1933523274927555,-0.09817973386969356,0.019035322959990386,0.0,0.8302312562514037,0.7262563501094855,13.975840974769932,13.640422189232615,0.0
0.031,0.18905673715020294,-0.09691199717791601,0.06075811655228072,0.0,0.8295122879880856,0.7242841625032334,13.795337531025282,13.640422189232615,0.0
0.032,0.1868353943198468,-0.09565747065430659,0.14946068500667892,0.0,0.8285426772397949,0.7319787432332496,13.82881326380952,13.640422189232615,0.0
0.033,0.19043651457944924,-0.09641665066127413,0.1308389078687909,0.0,0.8285355407053374,0.7354531469888632,14.0112514165103,13.640422189232615,0.0
0.034,0.19323981132122944,-0.09775073856948822,0.03591153924562432,0.0,0.8290157160697209,0.7280512524993008,13.996057838449438,13.640422189232615,0.0
0.035,0.1899577980479722,-0.09707835317641651,0.03995197178388679,0.0,0.8286203811763899,0.7232203406880494,13.808741126845327,13.640422189232615,0.0
0.036000000000000004,0.1866066888768458,-0.0953056125123233,0.1319271382098155,0.0,0.8275932109721472,0.7292456524261507,13.766484205939049,13.640422189232615,0.0
0.037,0.18897258592103677,-0.09550007940648289,0.1517949784958899,0.0,0.8273104077271377,0.735537666970655,13.953269193531542,13.640422189232615,0.0
0.038,0.19282939377959768,-0.09728324439485957,0.05527401465665438,0.0,0.827879289740859,0.7299556254170306,14.013092505498074,13.640422189232615,0.0
0.039,0.1908472172839932,-0.09713922538714126,0.021635655510733598,0.0,0.8277994056571131,0.7225102738455842,13.814657731214822,13.640422189232615,0.0
0.04,0.18653995717987884,-0.09497862607068991,0.11911068723253729,0.0,0.8267467490898646,0.7273140829502623,13.719509227124561,13.640422189232615,0.0
0.041,0.18791585285644544,-0.0948132825646029,0.16589406889874836,0.0,0.8262831572973037,0.7355092460283492,13.908038507834398,13.640422189232615,0.0
0.042,0.19250341611293953,-0.09677299282915702,0.06895326535781221,0.0,0.8269026625559697,0.7312163384117575,14.016327369333503,13.640422189232615,0.0
0.043000000000000003,0.19144604605267662,-0.096942177472702,0.011049782807250885,0.0,0.8270299397352542,0.722176883376733,13.815665816853183,13.640422189232615,0.0
0.044,0.18653025517006452,-0.09466162445767859,0.10962812277120493,0.0,0.8259879910150194,0.7260069170811648,13.693036708684073,13.640422189232615,0.0
0.045,0.1871821255775229,-0.09424582681261481,0.17041653166124582,0.0,0.8254103083264448,0.7349298304677483,13.866083809020324,13.640422189232615,0.0
0.046,0.1920028435569196,-0.0961220609408843,0.08163636529524287,0.0,0.8259932289759465,0.7320052215839964,13.997119006623214,13.640422189232615,0.0
0.047,0.19174501683678688,-0.09655067389561003,0.012551798319892171,0.0,0.8262537817558596,0.7227964330689496,13.815007062606497,13.640422189232615,0.0
0.048,0.1868950961825674,-0.09449197063818104,0.10186192159451146,0.0,0.8253366569184124,0.7255804509181236,13.67298937047283,13.640422189232615,0.0
0.049,0.1870142392953253,-0.0938983409578563,0.1725450958489428,0.0,0.8247449341173658,0.734814797484931,13.828808535909676,13.640422189232615,0.0
0.05,0.1919056443996641,-0.0956006716588067,0.09275164966374932,0.0,0.8253290109270125,0.7330455631616879,13.992148768826747,13.640422189232615,0.0
0.051000000000000004,0.19225187901661528,-0.0962314900324742,0.007564267409272796,0.0,0.8257301233374643,0.7229498106087715,13.816540792528752,13.640422189232615,0.0
0.052000000000000005,0.1870407727885898,-0.09419719826474371,0.09360706952530878,0.0,0.8248514689733922,0.7247970106387533,13.643303967933633,13.640422189232615,0.0
0.053,0.18656819597998503,-0.09335950203134076,0.18019666403585788,0.0,0.8241735963807283,0.7350359249909958,13.799812133083046,13.640422189232615,0.0
0.054,0.1918252633793974,-0.09511998422299354,0.10034868202264713,0.0,0.8247894324859708,0.7339509835001679,13.97478740574618,13.640422189232615,0.0
0.055,0.1926662551973227,-0.09588031789885716,0.009517393525944134,0.0,0.8253012227140349,0.7238032194284639,13.814423097424179,13.640422189232615,0.0
0.056,0.1875216881576802,-0.09396847469542928,0.08795953860502956,0.0,0.8245291514229866,0.7248326719229433,13.629808724248496,13.640422189232615,0.0
0.057,0.18662073866983883,-0.09299845167929467,0.1803728598427118,0.0,0.8238496484107503,0.7351106746974903,13.776482281065897,13.640422189232615,0.0
0.058,0.1917944195750778,-0.09462766191117342,0.10567548051567852,0.0,0.8244548093328603,0.7345739675605534,13.957786396105579,13.640422189232615,0.0
0.059000000000000004,0.19292516372036872,-0.09539529115159795,0.011849780927108033,0.0,0.8250139305631936,0.7245049490211195,13.809511557820418,13.640422189232615,0.0
0.06,0.18785894599908648,-0.0935937586845006,0.08429630638381053,0.0,0.8243043929527653,0.7249747106455792,13.618736556680325,13.640422189232615,0.0
0.061,0.18666908960276854,-0.09256425128717105,0.17990066327937984,0.0,0.8236175547767904,0.7351987783768776,13.750054908016395,13.640422189232615,0.0
0.062,0.19177227639794936,-0.09405803249112925,0.11314516042350711,0.0,0.8241964181979515,0.7354593575229142,13.945016119491452,13.640422189232615,0.0
0.063,0.19329044702797232,-0.09495211479270686,0.012618615383390153,0.0,0.8248268644327345,0.7252454332692584,13.80509359250674,13.640422189232615,0.0
0.064,0.18823209614883266,-0.09322894789423994,0.080933164843005,0.0,0.8241743844368259,0.7252074122584107,13.602134576373686,13.640422189232615,0.0
0.065,0.18677766102892415,-0.09210255677029153,0.18279554903812123,0.0,0.8234766789847742,0.7357390664703223,13.729257633685386,13.640422189232615,0.0
0.066,0.19198339403370135,-0.09356078802076104,0.11834566593774376,0.0,0.8240735788479098,0.7364524987511198,13.937336530179216,13.640422189232615,0.0
0.067,0.19376393705647693,-0.09453879717036999,0.01133707428136238,0.0,0.8247751306467641,0.7258840291364961,13.798205991063341,13.640422189232615,0.0
0.068,0.18857577076589022,-0.09280814184869215,0.07932450582099276,0.0,0.8241495281273894,0.7255797687713352,13.58404689906773,13.640422189232615,0.0
0.069,0.18694397660942308,-0.0915990005169334,0.18696780472044738,0.0,0.8234403608301599,0.7365318784486025,13.71433772492147,13.640422189232615,0.0
0.07,0.19232279520134798,-0.09308369197569513,0.12108323643668814,0.0,0.8240727287041614,0.737386136941535,13.931755549808123,13.640422189232615,0.0
0.07100000000000001,0.1942218214471274,-0.0941093917846575,0.00946099038760681,0.0,0.8248252657044539,0.726443500288897,13.786482116050827,13.640422189232615,0.0
0.07200000000000001,0.18886982150565812,-0.09231769815497753,0.08063710799807283,0.0,0.8242009420420991,0.7262236866552135,13.56526030021397,13.640422189232615,0.0
0.073,0.18723893745003597,-0.0910765696197969,0.19199963480668802,0.0,0.8234984621800387,0.7376274160382097,13.707320219160488,13.640422189232615,0.0
0.074,0.19284055558802968,-0.09265523208607147,0.12030069503414997,0.0,0.8241926673991253,0.7381875290178994,13.927835837070711,13.640422189232615,0.0
0.075,0.19463987382105116,-0.09366957939370733,0.007168749600657387,0.0,0.8249692549734502,0.7268916177973175,13.76654874414784,13.640422189232615,0.0
0.076,0.18909726579020503,-0.09174444840712484,0.08655103051294061,0.0,0.8243166847866834,0.7272940068766354,13.547328599562515,13.640422189232615,0.0
0.077,0.1877475172947012,-0.09055037860380152,0.1970920387023041,0.0,0.8236575141580256,0.7390496343752493,13.712263570739424,13.640422189232615,0.0
0.078,0.19356838070154023,-0.09230192760681263,0.11390613929878182,0.0,0.8244444344304592,0.7386541305851475,13.922990420189194,13.640422189232615,0.0
0.079,0.19491257093808867,-0.0932032347775893,0.005717032264330901,0.0,0.825194740595395,0.7272182741295927,13.735124058026491,13.640422189232615,0.0
0.08,0.18923045692478702,-0.09106126409531987,0.09870319465774363,0.0,0.8244818006515238,0.7289498773135359,13.533870883949422,13.640422189232615,0.0
0.081,0.18855817863462793,-0.0900243581953248,0.20039529474910991,0.0,0.8239206750782574,0.740710425042598,13.731182431829598,13.640422189232615,0.0
0.082,0.19447827949901117,-0.09203104374789184,0.10083191838305211,0.0,0.8248228213050064,0.7386119791622635,13.911318936922731,13.640422189232615,0.0
0.083,0.19493529241360183,-0.09268963938707067,0.008054698359584583,0.0,0.8254772869858309,0.7276126616417558,13.692173316040334,13.640422189232615,0.0
0.084,0.1893438773157581,-0.09028890176208595,0.11710999753270598,0.0,0.8246957072513822,0.7313222033405674,13.526991386324381,13.640422189232615,0.0
0.085,0.1897503782587673,-0.08955927627483126,0.20083527041976468,0.0,0.8243069882329112,0.742601230667189,13.757086404064436,13.640422189232615,0.0
0.08600000000000001,0.19559649585975,-0.09184884134906299,0.08462111940141889,0.0,0.8253441922619876,0.738453666091735,13.901253910989244,13.640422189232615,0.0
0.08700000000000001,0.19493762206942128,-0.0921706921638239,0.009929048721448896,0.0,0.8258754273694924,0.7279015294050666,13.650048303218991,13.640422189232615,0.0
0.088,0.1893995775607954,-0.0894270137980746,0.13543559146671136,0.0,0.8249933021691997,0.7336129664646396,13.514614859195609,13.640422189232615,0.0
0.089,0.19087468705617933,-0.08901287820307957,0.20441038677877263,0.0,0.8247524150631016,0.7447795668655218,13.77902033658999,13.640422189232615,0.0
0.09,0.1968239757442754,-0.09169365472422816,0.07082166660800795,0.0,0.8259513034809781,0.7387812406830645,13.88160929251702,13.640422189232615,0.0
0.091,0.19522978860860105,-0.09172044626723655,0.01711531761164939,0.0,0.8264066097433406,0.7291656782445538,13.617488889816995,13.640422189232615,0.0
0.092,0.19001523821562183,-0.08879991984285107,0.14940485195581787,0.0,0.8255333033135029,0.7362037736158233,13.54852727130869,13.640422189232615,0.0
0.093,0.1922750714021255,-0.08861554027302537,0.18480461038921,0.0,0.8254600605753394,0.7447210797367688,13.794496268818378,13.640422189232615,0.0
0.094,0.1970264518144502,-0.09094588098730357,0.06027937083850807,0.0,0.8265040539973554,0.7378275035234014,13.81340897545446,13.640422189232615,0.0
0.095,0.1945979183514533,-0.09065219518511786,0.049093149658248875,0.0,0.82669868161045,0.7320571048243036,13.569234149663886,13.640422189232615,0.0
0.096,0.19111153635382955,-0.08846964953641205,0.17189244294922262,0.0,0.8260596634289894,0.7408622099153435,13.606405602974531,13.640422189232615,0.0
0.097,0.1948451534943295,-0.08888887194027434,0.15364688215648103,0.0,0.8264329974956909,0.7450423363535906,13.85698422222037,13.640422189232615,0.0
0.098,0.19785871145345038,-0.0903618703000875,0.026191952203683727,0.0,0.8273448483950879,0.734710041663705,13.73596323300644,13.640422189232615,0.0
0.099,0.19310623019716616,-0.08900225780671633,0.08574703637291048,0.0,0.8269679973776876,0.7338806786086729,13.478235501642274,13.640422189232615,0.0
0.1,0.19143831106345338,-0.08757600592111356,0.21623276893089718,0.0,0.826402603574041,0.7469903927892355,13.674335840177658,13.640422189232615,0.0
0.101,0.19785223912692768,-0.0894429018714298,0.11784346315375469,0.0,0.8274243416422068,0.7458827039319926,13.910443497488304,13.640422189232615,0.0
0.10200000000000001,0.19890220325578042,-0.09035414369042712,-0.0029105785841249676,0.0,0.8283147046584182,0.7326375494603562,13.645894095186927,13.640422189232615,0.0
0.10300000000000001,0.19232165619994593,-0.08755770624237987,0.1293094035070203,0.0,0.8274747953883694,0.7372920450023397,13.456822710418738,13.640422189232615,0.0
0.10400000000000001,0.19297501210050905,-0.08672059581557139,0.2256810906792536,0.0,0.8271202088270555,0.7505381112115339,13.745137299307071,13.640422189232615,0.0
0.105,0.19979441483841692,-0.08957001459693335,0.08047664513434236,0.0,0.8284474947130103,0.7447443055198504,13.87417356559306,13.640422189232615,0.0
0.106,0.1985306405906886,-0.08979288151823694,0.013620998227743847,0.0,0.8290586926147313,0.7339677414762833,13.581436677103785,13.640422189232615,0.0
0.107,0.19285393579954338,-0.08661252260329046,0.1605792975936695,0.0,0.8281790461720657,0.7417757228111113,13.52504274897469,13.640422189232615,0.0
0.108,0.19539350433255323,-0.08641517398482182,0.18993005606079638,0.0,0.8281782577482676,0.7501378222193721,13.785552146954755,13.640422189232615,0.0
0.109,0.20008573776000319,-0.08880697235076417,0.05822405749354215,0.0,0.829278829414114,0.7423917154256685,13.751880356735642,13.640422189232615,0.0
0.11,0.19721142885145454,-0.08832021293624143,0.07394537092806852,0.0,0.8294172717147487,0.7389397772556053,13.48171407917614,13.640422189232615,0.0
0.111,0.19475762384339904,-0.0865861464271548,0.21061559080838435,0.0,0.8290107962464587,0.7509645636469018,13.646343656686568,13.640422189232615,0.0
0.112,0.20042164649682787,-0.08786183533799774,0.12824158737863056,0.0,0.8300051134094115,0.7506708007342061,13.898470627333532,13.640422189232615,0.0
0.113,0.2015931985918847,-0.08878116549020293,-0.0004023823258607062,0.0,0.8309589919924331,0.7371065186919568,13.626378701758936,13.640422189232615,0.0
0.114,0.19486819725362708,-0.0859427632837833,0.13578401533617415,0.0,0.8301396369686997,0.7420124618202617,13.442476174846309,13.640422189232615,0.0
0.115,0.19566898210078,-0.08502089386227511,0.22971473893635075,0.0,0.8298197901458682,0.755161054406193,13.74529251957721,13.640422189232615,0.0
0.116,0.2024140418237992,-0.08793247356085881,0.07725786326745401,0.0,0.8311762797249725,0.7485192907706066,13.834588809840058,13.640422189232615,0.0
0.117,0.20066742959978942,-0.08803270334731979,0.03066805192995578,0.0,0.8317148534621327,0.7393366199079251,13.545072104558713,13.640422189232615,0.0
0.11800000000000001,0.19576872281365684,-0.08496686396563398,0.1763799054173674,0.0,0.8309430581094581,0.7481416671264522,13.569010251058064,13.640422189232615,0.0
0.11900000000000001,0.19902927310859192,-0.08508529947186945,0.16512495154943757,0.0,0.831172633313407,0.752886219027209,13.842863349165727,13.640422189232615,0.0
0.12,0.20216238302951894,-0.08666231765682417,0.02617399089627484,0.0,0.8320259938323193,0.7416951805367632,13.653470623954595,13.640422189232615,0.0
0.121,0.1970847615673758,-0.08511411807232541,0.12073986915462093,0.0,0.8314888423141511,0.7440902076222484,13.415574823332248,13.640422189232615,0.0
0.122,0.197177479537293,-0.08402901585361162,0.2419362431247981,0.0,0.831141029408135,0.7585169840101916,13.71636744329885,13.640422189232615,0.0
0.123,0.2044826339430839,-0.08688669701109553,0.09078048060083477,0.0,0.8325958713810249,0.7528245640464635,13.845866793101091,13.640422189232615,0.0
0.124,0.20333628725627745,-0.08726088986652178,0.02397635966102929,0.0,0.8333485715627751,0.7422091242778647,13.535448735760378,13.640422189232615,0.0
0.125,0.19785559189371174,-0.08399320164623324,0.18023512286610854,0.0,0.8326012701167047,0.7511784166892719,13.545314915822102,13.640422189232615,0.0
0.126,0.2010338000948214,-0.08398268961627513,0.1762531055693515,0.0,0.8328571486152894,0.7567710303244897,13.8246206777229,13.640422189232615,0.0
0.127,0.20449224669685373,-0.08580637796884952,0.0347582397340499,0.0,0.8338474114666199,0.7459567083329156,13.638384081903089,13.640422189232615,0.0
0.128,0.19972638882923574,-0.08435111963449886,0.12789691871725037,0.0,0.8334789005333557,0.748541877003596,13.406178898311042,13.640422189232615,0.0
0.129,0.20001960719428843,-0.08326046465587802,0.24634194342248955,0.0,0.8333003380961814,0.7628493310427938,13.727178006719438,13.640422189232615,0.0
0.13,0.20723908995443632,-0.08615169358501673,0.08497483104342349,0.0,0.8348993190386358,0.7559821399056392,13.816863468686998,13.640422189232615,0.0
0.131,0.20541758270181742,-0.08628377370016048,0.038367687265099426,0.0,0.8356372992965034,0.74672101191001,13.515545648845105,13.640422189232615,0.0
