timestamp,iq,id,iq_ref,id_ref,vq,vd,omega,omega_ref,r
0.0,0.0,0.0,0.0,0.0,0.0,0.0,0.0,50.571370247279425,0.0
0.001,0.0,0.0,10.0,0.0,0.0,1.0999999999999999,6.115472199294103,50.571370247279425,0.0
0.002,0.5307369851907212,-0.2913212625381807,10.0,0.0,0.14204533887919985,1.9316189316290207,13.317801563642547,50.571370247279425,0.0
0.003,1.0842913387634832,-0.6024330830807904,10.0,0.0,0.384357124667687,2.6386968949419622,20.697939467553027,50.571370247279425,0.0
0.004,1.5590443546685477,-0.8700465084428163,10.0,0.0,0.6994718867930164,3.2526109522886295,28.232747544420146,50.571370247279425,0.0
0.005,1.9399447555359186,-1.0838738622210777,10.0,0.0,1.065311453102468,3.7994935661768023,35.92944872443006,50.571370247279425,0.0
0.006,2.239750732602683,-1.2510087368845633,8.392996034743177,0.0,1.4655018868449925,4.122331785660182,42.73155854971951,50.571370247279425,0.0
0.007,2.3919935575646534,-1.3354760471943072,5.070339239074052,0.0,1.8655771545490394,4.089734367723293,47.388759728547434,50.571370247279425,0.0
0.008,2.3197477204433663,-1.2934425677329502,2.773564754847409,0.0,2.2169167978451463,3.8904550633752173,50.229924955001295,50.571370247279425,0.0
0.009000000000000001,2.099409377634453,-1.1662450158095192,1.35639659454326,0.0,2.499623150459871,3.636831660338139,51.848764852939006,50.571370247279425,0.0
0.01,1.8178549145596172,-1.003648767369301,0.5342026995178084,0.0,2.7120829157002255,3.389339193526625,52.86504947579119,50.571370247279425,0.0
0.011,1.5365589906801516,-0.8404311458174458,0.0031235958065993774,0.0,2.862219481849092,3.165772194458312,52.987769690567355,50.571370247279425,0.0
0.012,1.2817793515657967,-0.6975974482336094,-0.08240050601436288,0.0,2.9609061609575353,3.000691492812308,52.13365734073157,50.571370247279425,0.0
0.013000000000000001,1.0818791142857869,-0.5814948496444817,0.3290327979690095,0.0,3.0218731531215712,2.9275416634077875,51.94167010737877,50.571370247279425,0.0
0.014,0.9580930138607192,-0.5034054768328328,0.411323416044415,0.0,3.0619996581053592,2.8843586197825406,52.77372653695292,50.571370247279425,0.0
0.015,0.8799045908411496,-0.45507289833823633,-0.02672836163939607,0.0,3.089259518321955,2.807860794820125,52.855070634060944,50.571370247279425,0.0
0.016,0.8041051127725464,-0.41456557803130617,-0.09023741406122254,0.0,3.1021711305718322,2.7466893187433983,51.97327814319705,50.571370247279425,0.0
0.017,0.7432997957007642,-0.37873224473072253,0.3366397524115483,0.0,3.1041378405290567,2.7464483204327657,51.561541856624125,50.571370247279425,0.0
0.018000000000000002,0.7210492159698322,-0.361142706528557,0.5326061796045638,0.0,3.1043072637902607,2.7655551388751074,52.15587816308594,50.571370247279425,0.0
0.019,0.7219458366103455,-0.3570500614046821,0.21959294721559242,0.0,3.106096130987975,2.7460559638968522,52.539995443767,50.571370247279425,0.0
0.02,0.7098683322853246,-0.3519012669474969,0.007848054910186475,0.0,3.10523075302904,2.709861278988647,51.631497518235975,50.571370247279425,0.0
0.021,0.6877621787010232,-0.3391293262630602,0.45149574496613254,0.0,3.0994790188444625,2.7304291214555994,51.141510824057775,50.571370247279425,0.0
0.022,0.6921843873063134,-0.3364458344569187,0.6907876862874488,0.0,3.096191777633207,2.76954313841976,51.87217462218424,50.571370247279425,0.0
0.023,0.71357610017068,-0.343588864242928,0.31244774347516846,0.0,3.097957230434015,2.758097850114787,52.34247515435864,50.571370247279425,0.0
0.024,0.7131471215949892,-0.34445171386580564,0.059586428317176976,0.0,3.0984250922849017,2.724203395453105,51.38923029883129,50.571370247279425,0.0
0.025,0.6961678938009097,-0.33429683437060564,0.5280302555653307,0.0,3.09433105724383,2.74966603186315,50.88044127700001,50.571370247279425,0.0
0.026000000000000002,0.7048752955699565,-0.33287386179675355,0.7793340561837667,0.0,3.093137711159699,2.7940043744510925,51.784381188641845,50.571370247279425,0.0
0.027,0.7296078413928883,-0.34188340726381417,0.3152339909492249,0.0,3.09750281366989,2.777591996967012,52.16590722329894,50.571370247279425,0.0
0.028,0.7273554487017335,-0.3417923022050835,0.1085256038604836,0.0,3.099690051169524,2.7456555342091993,51.15000802565489,50.571370247279425,0.0
0.029,0.7109481727518163,-0.3304067155019221,0.610688824898752,0.0,3.097213415156652,2.776218756089807,50.84332065138117,50.571370247279425,0.0
0.03,0.7223904657697758,-0.3288619513365962,0.7613130079945953,0.0,3.0979846967419737,2.8136022951197512,51.76858622669917,50.571370247279425,0.0
0.031,0.7436301952906861,-0.3368793496354389,0.2867080605413975,0.0,3.1033145655262837,2.7913898750373045,51.78014314010758,50.571370247279425,0.0
0.032,0.7372349771355265,-0.3346509909183978,0.26884187490890965,0.0,3.1055649119820545,2.7756283241887667,50.78824438307901,50.571370247279425,0.0
0.033,0.7278915948301952,-0.3254624221971215,0.7626225120651999,0.0,3.1050256097352253,2.8171263148862127,51.085545555853386,50.571370247279425,0.0
0.034,0.74714802813236,-0.32654576938503566,0.6088301725922727,0.0,3.108901090660707,2.8303539710893535,52.06799028295236,50.571370247279425,0.0
0.035,0.7583407737851102,-0.32974506885343274,0.1026416086860572,0.0,3.114052878583599,2.7874649534409945,51.16169294633447,50.571370247279425,0.0
0.036000000000000004,0.7387418371689598,-0.3201079490209621,0.5498870500044516,0.0,3.11330850977311,2.8059067110181486,50.32912174773958,50.571370247279425,0.0
0.037,0.7436121529253471,-0.3146985881603822,0.9685951342972958,0.0,3.113984095105047,2.8632835667162047,51.48406806672505,50.571370247279425,0.0
0.038,0.7735447839569005,-0.32429457248595206,0.38199499661010283,0.0,3.1214394593580126,2.843033313133221,51.765446253680416,50.571370247279425,0.0
0.039,0.7705342715772382,-0.32345983661888844,0.22936514306841038,0.0,3.1259364810387518,2.815260821493197,50.601322670734206,50.571370247279425,0.0
0.04,0.7568537250114886,-0.3104371737656796,0.8111274103069677,0.0,3.125782405832232,2.8577101841153443,50.92552240298376,50.571370247279425,0.0
0.041,0.7750570525333069,-0.3103729346977449,0.6454860226251475,0.0,3.1300118347396384,2.86972185614418,51.88996869445279,50.571370247279425,0.0
0.042,0.7850979896851816,-0.3133382109827958,0.15007689241889866,0.0,3.1353463107412223,2.827194243603515,50.61438998039822,50.571370247279425,0.0
0.043000000000000003,0.7665491427129136,-0.3019332555953622,0.7874360521149946,0.0,3.1346103800331147,2.866657221324178,50.402375516800895,50.571370247279425,0.0
0.044,0.7831461658688431,-0.29961593097698613,0.8951332312184437,0.0,3.137753484013735,2.905562245289507,51.463691026644376,50.571370247279425,0.0
0.045,0.8060913417103359,-0.30852280233211343,0.3555522685030533,0.0,3.145475709088076,2.878102200455633,50.780772561174444,50.571370247279425,0.0
0.046,0.7986003961283861,-0.303366123802593,0.694917478099069,0.0,3.149023403819796,2.8979398210677254,50.17458513198799,50.571370247279425,0.0
0.047,0.8086163068978518,-0.2978670741815004,1.0019790438452112,0.0,3.1536467624665283,2.9453549095874356,51.43041873147786,50.571370247279425,0.0
0.048,0.8335079865186048,-0.30655432306740843,0.36547175925829267,0.0,3.1635598819742174,2.9127664825072372,50.79010136879876,50.571370247279425,0.0
0.049,0.823620204078035,-0.2999147606509313,0.6834431293826487,0.0,3.1684056224684474,2.927106706510044,50.16236967756495,50.571370247279425,0.0
0.05,0.8301983400509857,-0.2917358021321107,1.001398980696696,0.0,3.17336752150063,2.971470439323867,51.41072688205488,50.571370247279425,0.0
0.051000000000000004,0.8522765414390385,-0.29880091945060666,0.3688268121039777,0.0,3.1831285564012,2.9367686709082292,50.612644266375135,50.571370247279425,0.0
0.052000000000000005,0.8409420108732214,-0.29037362873413053,0.7674553797528938,0.0,3.18744565781815,2.958155627327641,50.35715634434853,50.571370247279425,0.0
0.053,0.8508870026538184,-0.2830518558852252,0.8973414797955042,0.0,3.192748622629134,2.9869294891734817,51.40796872733124,50.571370247279425,0.0
0.054,0.8658907126953905,-0.2878696654893674,0.36356930350363326,0.0,3.2010018539285463,2.9517915027365356,50.27419129599761,50.571370247279425,0.0
0.055,0.8534534120600961,-0.276909465254368,0.9334298086832649,0.0,3.203662163332432,2.990533155576203,50.67730523212405,50.571370247279425,0.0
0.056,0.8713258273166666,-0.27436496694183343,0.7308134907715996,0.0,3.209760314267867,2.9955899353656363,51.16000654214581,50.571370247279425,0.0
0.057,0.8767413192687589,-0.27653292671515084,0.48357647281205585,0.0,3.2160182486468916,2.975163963511073,49.92195386132542,50.571370247279425,0.0
0.058,0.8711368125782224,-0.26443044580243164,1.10909697708179,0.0,3.218254839904426,3.0293566585846143,50.89518010564742,50.571370247279425,0.0
0.059000000000000004,0.8969588996393241,-0.269175605828198,0.6192457563371103,0.0,3.226330033955522,3.015318429308316,50.35324291391168,50.571370247279425,0.0
0.06,0.8967669787040182,-0.2671566186236033,0.8923956255386583,0.0,3.231924345481115,3.0387158723578698,50.20120665749094,50.571370247279425,0.0
0.061,0.9123120410094693,-0.26171483845023646,0.9721153896469111,0.0,3.2387205642120813,3.064658801551966,51.066050717393345,50.571370247279425,0.0
0.062,0.9273803061595562,-0.26731392765015394,0.5347465549945706,0.0,3.2481017716030838,3.0382772317034545,49.85253081644755,50.571370247279425,0.0
0.063,0.9209992311626876,-0.25584444518113936,1.1486948997757884,0.0,3.2525890673065447,3.08823254675251,50.8065434796638,50.571370247279425,0.0
0.064,0.944568643183153,-0.25867063746272295,0.6693368358438175,0.0,3.2620487409202292,3.0721157433144546,50.075517625710454,50.571370247279425,0.0
0.065,0.9429103152841437,-0.2544034043067398,1.039808289036181,0.0,3.2684531092587656,3.104520138261149,50.47061118492014,50.571370247279425,0.0
0.066,0.9618566896521967,-0.2510033641496655,0.8432691000549319,0.0,3.2771261481723997,3.1068998207676906,50.50841844997725,50.571370247279425,0.0
0.067,0.9659974144162624,-0.2521052023471851,0.8249949854993981,0.0,3.285325054048622,3.109598062223278,49.803831319261164,50.571370247279425,0.0
0.068,0.9730580203650478,-0.24180123373147988,1.1849639401376233,0.0,3.291829438553078,3.1518904368699663,50.82565433379832,50.571370247279425,0.0
0.069,0.9940402950062291,-0.24868442153099612,0.6715095920038567,0.0,3.3027728124158617,3.1282869005102905,49.70843432602488,50.571370247279425,0.0
0.07,0.9911939311375246,-0.23801711961079403,1.2387489551031223,0.0,3.3090192601671817,3.1761918513670864,50.75646670879868,50.571370247279425,0.0
0.07100000000000001,1.0142990349241148,-0.24150176852364724,0.7128817991010273,0.0,3.319921542628666,3.1538431460669,49.68345544077491,50.571370247279425,0.0
0.07200000000000001,1.0111024173761785,-0.23298204359584035,1.2582665811779608,0.0,3.3265267100827947,3.200653216099503,50.70187962742239,50.571370247279425,0.0
0.073,1.0346774104624026,-0.23511408991803612,0.747749394052788,0.0,3.3374720901394914,3.1792068420547572,49.621189724008,50.571370247279425,0.0
0.074,1.0317042003285888,-0.2271314802546341,1.2975961509926996,0.0,3.3442788872598466,3.2271507616003796,50.70159781223124,50.571370247279425,0.0
0.075,1.0561383378357379,-0.22945997879411123,0.7560898312315596,0.0,3.355535357558707,3.2031993189332257,49.4934605244948,50.571370247279425,0.0
0.076,1.0524896589153319,-0.22056855595047958,1.3709375723276267,0.0,3.36226969506277,3.2564626783371677,50.75278953250583,50.571370247279425,0.0
0.077,1.0790235006746314,-0.2245344503313233,0.7394588754698479,0.0,3.374182097367151,3.226506792103079,49.30813527452019,50.571370247279425,0.0
0.078,1.073762819978708,-0.21367613127514878,1.4744183541902602,0.0,3.3806735967776973,3.288742077644804,50.7246867533283,50.571370247279425,0.0
0.079,1.1035018510852543,-0.22044689904361092,0.7646094497257167,0.0,3.393592842446453,3.2566505100664287,49.30556575488066,50.571370247279425,0.0
0.08,1.0992284032661201,-0.20825649888558345,1.4868279938735238,0.0,3.4006023550954287,3.316369622284842,50.635823144228596,50.571370247279425,0.0
0.081,1.127115782356806,-0.2154822988439853,0.8210547702300646,0.0,3.4137995696983534,3.2872501883258853,49.365546089584036,50.571370247279425,0.0
0.082,1.1246994571839675,-0.20240222226053728,1.468251539129298,0.0,3.4212540530213245,3.3407564655983855,50.46811788753456,50.571370247279425,0.0
0.083,1.1492904476103305,-0.20933739426497622,0.9179981637514846,0.0,3.4342073854255735,3.319928552296754,49.503011769031296,50.571370247279425,0.0
0.084,1.1508701518526614,-0.19659591272037713,1.411234807785598,0.0,3.4423116785692827,3.3623094706008465,50.191705606516216,50.571370247279425,0.0
0.085,1.1706146749810356,-0.2022689453454381,1.0706845354507704,0.0,3.4545950826332343,3.356713729490031,49.71349933822892,50.571370247279425,0.0
0.08600000000000001,1.1790833803379457,-0.1913486004857693,1.318366378684923,0.0,3.4638326039188936,3.3828222960178227,49.81203938225503,50.571370247279425,0.0
0.08700000000000001,1.1921609608396797,-0.19536658763843928,1.2766896653221125,0.0,3.4753084117641566,3.3988286543175263,50.21951408825782,50.571370247279425,0.0
0.088,1.20957614203482,-0.18842825008240827,1.0764708739109348,0.0,3.4864338776521753,3.3909897635237383,49.09172952167139,50.571370247279425,0.0
0.089,1.2103891063673178,-0.18293626951031539,1.655159564460229,0.0,3.495128173384642,3.450789978008041,50.40275499127614,50.571370247279425,0.0
0.09,1.2420289012842558,-0.18969364870559652,1.0013329822178867,0.0,3.5097312925094926,3.4242995418674704,49.40576035532564,50.571370247279425,0.0
0.091,1.2428564719500228,-0.17615225007439433,1.5114863991126746,0.0,3.5186679284664186,3.4647989681102285,49.80325419672604,50.571370247279425,0.0
0.092,1.26152064357164,-0.18130058895985263,1.32042063891801,0.0,3.531462574715638,3.473978564362321,50.1540719229763,50.571370247279425,0.0
0.093,1.277252919110355,-0.17351615878601362,1.1491847590359097,0.0,3.5429879452571713,3.465050467836001,48.96613232797843,50.571370247279425,0.0
0.094,1.2777012957754204,-0.1664727746640957,1.7592069357278555,0.0,3.551771041140244,3.52709051757363,50.11948671181938,50.571370247279425,0.0
0.095,1.309558413382196,-0.1751170188721597,1.1870485791619818,0.0,3.5669011331128795,3.5112674317665435,49.695980047677466,50.571370247279425,0.0
0.096,1.3170215722573135,-0.1628357770433555,1.4075558132289567,0.0,3.577498528264292,3.5280146667502583,49.07423264496663,50.571370247279425,0.0
0.097,1.3262462216479303,-0.16269827919078195,1.7334008906075038,0.0,3.588818595053442,3.576844724077498,50.18781954542496,50.571370247279425,0.0
0.098,1.3564610571758593,-0.16675488955381335,1.1804429473968836,0.0,3.604337263014859,3.5546085724098098,49.51692150635022,50.571370247279425,0.0
0.099,1.3591870475460635,-0.1529701395442713,1.5264364543435436,0.0,3.614523560408686,3.5797390573158276,49.07537954179705,50.571370247279425,0.0
0.1,1.3712572560135898,-0.15421608568503253,1.7621673436749543,0.0,3.6264791781293115,3.6245451231998893,50.102664410353825,50.571370247279425,0.0
0.101,1.4008460444487683,-0.15730567404219764,1.253211967765822,0.0,3.6420472359241596,3.6045896793810934,49.55981449210595,50.571370247279425,0.0
0.10200000000000001,1.404585195626835,-0.1438174546582477,1.5347524844414941,0.0,3.652548343541838,3.6241301775718413,49.019245161806644,50.571370247279425,0.0
0.10300000000000001,1.4135618606573295,-0.14528588715373503,1.8205584004458748,0.0,3.664249799985167,3.6704399406574337,50.53495122382083,50.571370247279425,0.0
0.10400000000000001,1.4370862332064802,-0.15905571572496258,1.0630695596733661,0.0,3.6809120839106018,3.62460912710368,50.44638432289693,50.571370247279425,0.0
0.105,1.421608228321687,-0.14983290368878177,1.1086028693791417,0.0,3.690172850478425,3.5995490000360224,49.831612183172425,50.571370247279425,0.0
0.106,1.399174621503223,-0.14675244853517655,1.4233865198824656,0.0,3.695754905736168,3.614404747491405,50.99141089634796,50.571370247279425,0.0
0.107,1.3961184397706912,-0.15409817054587105,0.8392867568040137,0.0,3.703103164186385,3.561046159205753,50.84495868937819,50.571370247279425,0.0
0.108,1.3696846650981755,-0.1419158382212231,0.9097769758679106,0.0,3.702967224187198,3.5302303307181546,50.25014983873287,50.571370247279425,0.0
0.109,1.342326365597664,-0.1386752620896251,1.2103936052760371,0.0,3.6995286552879403,3.537590493321983,51.3027535777239,50.571370247279425,0.0
0.11,1.3362101641575994,-0.14534240492068584,0.6767779024760765,0.0,3.697935751011724,3.4825660883368266,50.7979740147015,50.571370247279425,0.0
0.111,1.3094127297140459,-0.1350266951358794,0.9269016463130537,0.0,3.6897982971599728,3.468621158047022,50.517820685707,50.571370247279425,0.0
0.112,1.291564267483449,-0.139072763420505,1.0675138064260288,0.0,3.6816283202735756,3.4699184320760112,51.572772978236955,50.571370247279425,0.0
0.113,1.2887987422410094,-0.14461328676930785,0.5300236328514762,0.0,3.6749740653642364,3.409864663473492,50.539315839131625,50.571370247279425,0.0
0.114,1.2598141866118295,-0.13705340982285463,1.0470727464856193,0.0,3.662092867387983,3.4205617963425796,51.04255928907386,50.571370247279425,0.0
0.115,1.2547521462440143,-0.14835800303647795,0.790739131096559,0.0,3.6528886065192276,3.3958008861821627,51.08304983671629,50.571370247279425,0.0
0.116,1.2457451646850497,-0.14699829065334835,0.7653770613809732,0.0,3.6418660664270237,3.3733092970038947,50.57404913803118,50.571370247279425,0.0
0.117,1.230671308896389,-0.1526431112560408,1.0198506218160124,0.0,3.6303311488163414,3.381778379400407,51.554660625723905,50.571370247279425,0.0
0.11800000000000001,1.2328802891780104,-0.161299677666344,0.5197119741852041,0.0,3.6216924053054855,3.3302933485635955,50.55325655606962,50.571370247279425,0.0
0.11900000000000001,1.2097968464081184,-0.1578064680043879,1.0205951459244447,0.0,3.6082982143351168,3.3457527503345097,51.38466082277737,50.571370247279425,0.0
0.12,1.2100535209190952,-0.17009694981282497,0.5967601068155901,0.0,3.5991762677344212,3.3064370381880206,50.750074520393525,50.571370247279425,0.0
0.121,1.1944329028332368,-0.16714426505734592,0.9122662152763716,0.0,3.586587244437962,3.3108055596524424,51.1830529413644,50.571370247279425,0.0
0.122,1.1904876249698066,-0.17871511907846493,0.6896601778500837,0.0,3.5769962964074664,3.286114375823392,50.94421194199891,50.571370247279425,0.0
0.123,1.1812618440728837,-0.1778783925689814,0.8053522605856354,0.0,3.565687576340863,3.2788607881693994,51.04503546651175,50.571370247279425,0.0
0.124,1.1731316458787386,-0.18768608826447403,0.750203846136892,0.0,3.555871583307119,3.2647805048498153,51.12768124977513,50.571370247279425,0.0
0.125,1.1676167910032107,-0.18869926509091817,0.7033178444802446,0.0,3.545642533738744,3.247046006575437,50.9672015349706,50.571370247279425,0.0
0.126,1.1554469385790436,-0.19604236801373942,0.7795993890055982,0.0,3.5354605488530155,3.2402054183039186,51.26783152808008,50.571370247279425,0.0
0.127,1.1518587242268943,-0.1982144749053999,0.6223197796428508,0.0,3.525778204357562,3.215240122950318,50.92660805858682,50.571370247279425,0.0
0.128,1.136704434449697,-0.20379713508776837,0.7893791362764059,0.0,3.5151599363274393,3.2133835377378226,51.367057549963505,50.571370247279425,0.0
0.129,1.1343943505601213,-0.20674173933447593,0.5611975175612238,0.0,3.5056859164443916,3.1839827789486366,50.913709532227884,50.571370247279425,0.0
0.13,1.1174605631723105,-0.2112229740396639,0.7844481335795497,0.0,3.4946827124458344,3.185253693772997,51.401469904167996,50.571370247279425,0.0
0.131,1.1160046148753178,-0.21460411323806122,0.532266951040608,0.0,3.4852340332943417,3.1553155769143912,50.95752698860986,50.571370247279425,0.0
0.132,1.0990562916808522,-0.21896419583583537,0.7503768414063733,0.0,3.4741822080659075,3.155790059660541,51.33581958226886,50.571370247279425,0.0
0.133,1.0971686152461015,-0.2219437534523362,0.5535860512269766,0.0,3.4645671641467697,3.131321986961719,51.098879717249595,50.571370247279425,0.0
0.134,1.082640655241355,-0.22761799421385448,0.6667808890369081,0.0,3.454061188257265,3.1243377560379253,51.12770508563071,50.571370247279425,0.0
