timestamp,iq,id,iq_ref,id_ref,vq,vd,omega,omega_ref,r
0.0,0.0,0.0,0.0,0.0,0.0,0.0,0.0,413.14665754575435,0.0
0.001,0.0,0.0,10.0,0.0,0.0,1.0999999999999999,6.115472199294103,413.14665754575435,0.0
0.002,0.5307369851907212,-0.2913212625381807,10.0,0.0,0.14204533887919985,1.9316189316290207,13.317801563642547,413.14665754575435,0.0
0.003,1.0842913387634832,-0.6024330830807904,10.0,0.0,0.384357124667687,2.6386968949419622,20.697939467553027,413.14665754575435,0.0
0.004,1.5590443546685477,-0.8700465084428163,10.0,0.0,0.6994718867930164,3.2526109522886295,28.232747544420146,413.14665754575435,0.0
0.005,1.9399447555359186,-1.0838738622210777,10.0,0.0,1.065311453102468,3.7994935661768023,35.92944872443006,413.14665754575435,0.0
0.006,2.239750732602683,-1.2510087368845633,10.0,0.0,1.4655018868449925,4.299102221838433,43.75633668444442,413.14665754575435,0.0
0.007,2.4770151619816017,-1.382020589851471,10.0,0.0,1.8883740978591532,4.765668027847139,51.58766747378032,413.14665754575435,0.0
0.008,2.6680767290418097,-1.4872241871505252,10.0,0.0,2.325877945545995,5.209220346273558,59.45942083902103,413.14665754575435,0.0
0.009000000000000001,2.8266491704841292,-1.5730794701170803,10.0,0.0,2.772378685460125,5.636635464737965,67.35059094018146,413.14665754575435,0.0
0.01,2.962077666392183,-1.645500646948331,10.0,0.0,3.224078639851053,6.052647735211881,75.20908322432116,413.14665754575435,0.0
0.011,3.0811061533574158,-1.7084279320504514,10.0,0.0,3.678407615443203,6.460489925470405,83.0265951655913,413.14665754575435,0.0
0.012,3.188848746459569,-1.7638278597420747,10.0,0.0,4.133552631697047,6.862319393890706,90.74118064793086,413.14665754575435,0.0
0.013000000000000001,3.288205119878689,-1.8140726097274587,10.0,0.0,4.588339016389012,7.259628641949282,98.35820682563939,413.14665754575435,0.0
0.014,3.3820602099432007,-1.8592355758795645,10.0,0.0,5.041843166194517,7.653355107498287,105.90865295623543,413.14665754575435,0.0
0.015,3.4721069852858886,-1.899829032412081,10.0,0.0,5.493383198131427,8.044092747085895,113.37727610343421,413.14665754575435,0.0
0.016,3.5596145800153947,-1.9360338400176071,10.0,0.0,5.94241958510469,8.43218525824161,120.68508583176356,413.14665754575435,0.0
0.017,3.645144415105338,-1.9685384477868613,10.0,0.0,6.388575043274759,8.817838951066484,127.83962377537456,413.14665754575435,0.0
0.018000000000000002,3.730251927866576,-1.9959253041084188,10.0,0.0,6.83136783302799,9.201036292373047,134.85405702603322,413.14665754575435,0.0
0.019,3.81544967906247,-2.018253592643655,10.0,0.0,7.270383321112213,9.581672501020332,141.68976328564074,413.14665754575435,0.0
0.02,3.9014648862453374,-2.0350875541282063,10.0,0.0,7.705189334130692,9.959536942333155,148.3432823300447,413.14665754575435,0.0
0.021,3.9891051824829464,-2.0457889559126508,10.0,0.0,8.135310004560049,10.334315260302239,154.92060212100432,413.14665754575435,0.0
0.022,4.079618141396171,-2.0489696811670974,10.0,0.0,8.560139305503519,10.705547790999272,161.01925282597162,413.14665754575435,0.0
0.023,4.171109372430197,-2.048468292080302,10.0,0.0,8.979521969370257,11.072981092896333,166.534238406907,413.14665754575435,0.0
0.024,4.266936196769627,-2.039517194249811,10.0,0.0,9.392730090169543,11.435983292623375,171.8647834235234,413.14665754575435,0.0
0.025,4.367255527950721,-2.0225841458509217,10.0,0.0,9.79914449451603,11.793929226271104,177.02637022703064,413.14665754575435,0.0
0.026000000000000002,4.4734353073349595,-1.9962166741499119,10.0,0.0,10.197980960389518,12.146045424568259,181.63161391243256,413.14665754575435,0.0
0.027,4.582366840795821,-1.966358349113627,10.0,0.0,10.589124658468391,12.491912978736195,185.74793639675826,413.14665754575435,0.0
0.028,4.700058850757774,-1.9240450691803936,10.0,0.0,10.971384864613876,12.830451341534015,189.43662766964098,413.14665754575435,0.0
0.029,4.820934284790598,-1.879137197786803,10.0,0.0,11.344756153370636,13.161242511022618,192.73598774770625,413.14665754575435,0.0
0.03,4.952016225740939,-1.821000614527957,10.0,0.0,11.707923484756042,13.483081433273819,195.59831968863915,413.14665754575435,0.0
0.031,5.086039273572549,-1.7621311371320891,10.0,0.0,12.061063698547066,13.79562148058647,197.80891551030922,413.14665754575435,0.0
0.032,5.230431844273564,-1.6911110488141978,10.0,0.0,12.40292038074925,14.097678592248165,200.4421589734679,413.14665754575435,0.0
0.033,5.380124186618445,-1.6166151787533525,10.0,0.0,12.733312761073865,14.38869342901298,201.91742172589852,413.14665754575435,0.0
0.034,5.537594793894332,-1.535029134414507,10.0,0.0,13.051537880865839,14.667821176756876,203.18880493813168,413.14665754575435,0.0
0.035,5.698947813469154,-1.4530296333491768,10.0,0.0,13.357649178779205,14.934684535625108,203.60405746232266,413.14665754575435,0.0
0.036000000000000004,5.870474243492053,-1.3603000477825025,10.0,0.0,13.65045542338638,15.188218311291084,204.28541056101804,413.14665754575435,0.0
0.037,6.041188711220851,-1.275010780747051,10.0,0.0,13.930879897581198,15.42861600670124,205.2233356988433,413.14665754575435,0.0
0.038,6.228175208801664,-1.168399557236846,10.0,0.0,14.196427351981786,15.654155009933262,200.35169734043586,413.14665754575435,0.0
0.039,6.404895489618571,-1.0845312562500289,10.0,0.0,14.449814560392067,15.86612549236809,209.64773540576442,413.14665754575435,0.0
0.04,6.534612624563911,-1.0851225869390002,10.0,0.0,14.699963825590459,16.069735965364643,218.170241886545,413.14665754575435,0.0
0.041,6.621487035821765,-1.1484636683301073,10.0,0.0,14.952420817214799,16.26974130369247,220.68166573712315,413.14665754575435,0.0
0.042,6.6704785161669795,-1.2647840534085386,10.0,0.0,15.211794475054209,16.47047148862455,233.10654395573727,413.14665754575435,0.0
0.043000000000000003,6.709376245503157,-1.3867642159960276,10.0,0.0,15.477558399636717,16.673277185423842,235.10815372853793,413.14665754575435,0.0
0.044,6.744196093263161,-1.5028656568708394,10.0,0.0,15.74857785831126,16.87893749904121,248.8181267625822,413.14665754575435,0.0
0.045,6.750563942850831,-1.6564343609015326,10.0,0.0,16.02879294551472,17.090781462187255,251.61117095327992,413.14665754575435,0.0
0.046,6.764566527560506,-1.7840489455190416,10.0,0.0,16.314672837580048,17.307985931916857,266.60539535969383,413.14665754575435,0.0
0.047,6.752169677737121,-1.9446655565152717,10.0,0.0,16.610076868775216,17.533561623207692,270.0627790167984,413.14665754575435,0.0
0.048,6.7291903821171735,-2.110358990489937,10.0,0.0,16.91511817760721,17.768523902508925,283.13731951482634,413.14665754575435,0.0
0.049,6.714097190323873,-2.246352557911731,10.0,0.0,17.22645394156277,18.011924542904307,294.70561782835244,413.14665754575435,0.0
0.05,6.666841209228205,-2.4219663531358275,10.0,0.0,17.548953774962747,18.267165921658286,300.1294548425776,413.14665754575435,0.0
0.051000000000000004,6.612335516543512,-2.59336894353628,10.0,0.0,17.88182590988993,18.53465621226123,310.75154600411304,413.14665754575435,0.0
0.052000000000000005,6.568447424188529,-2.726701034625408,10.0,0.0,18.22111236450049,18.81296732052879,322.35703405819294,413.14665754575435,0.0
0.053,6.5036136539679195,-2.8764091099274185,10.0,0.0,18.569435851849082,19.104068797231378,330.9557012510771,413.14665754575435,0.0
0.054,6.434362099984388,-3.0149932598739144,10.0,0.0,18.925784313874168,19.407861808234543,339.4707232587175,413.14665754575435,0.0
0.055,6.370891759459199,-3.1253006473392393,10.0,0.0,19.28762520191878,19.723199586257838,348.00092263299223,413.14665754575435,0.0
0.056,6.314459991163816,-3.2071523724558277,10.0,0.0,19.65271639484943,20.048760466390505,356.29964302226927,413.14665754575435,0.0
0.057,6.266092078485367,-3.262894600420583,10.0,0.0,20.01916768432525,20.383030530514645,362.98468703488817,413.14665754575435,0.0
0.058,6.234656406121481,-3.2830044001420036,10.0,0.0,20.38405550695561,20.723492962007192,368.0316803659419,413.14665754575435,0.0
0.059000000000000004,6.228510489334133,-3.2600491726267444,10.0,0.0,20.743774617448285,21.0667596267365,372.35801287012686,413.14665754575435,0.0
0.06,6.247959954981508,-3.201438289803519,10.0,0.0,21.095630838529225,21.40947063565305,373.88739853789605,413.14665754575435,0.0
0.061,6.298571070969623,-3.1064761741463998,10.0,0.0,21.436712814499675,21.747723437683817,371.47602194372377,413.14665754575435,0.0
0.062,6.38094735961424,-2.982369480030801,10.0,0.0,21.76480975788002,22.077703876517536,366.2922057853833,413.14665754575435,0.0
0.063,6.53566146196873,-2.7695519558602215,10.0,0.0,22.070926190088084,22.39130117743337,372.07145994459506,413.14665754575435,0.0
0.064,6.708566607552835,-2.560747003310555,10.0,0.0,22.35695033962817,22.686677966487718,365.1882535794375,413.14665754575435,0.0
0.065,6.897199383751794,-2.3667028673086685,10.0,0.0,22.62465294768497,22.962098937664592,356.7297130485294,413.14665754575435,0.0
0.066,7.167218997264825,-2.0824440278168583,10.0,0.0,22.863799361069702,23.20893224280502,357.7888817172531,413.14665754575435,0.0
0.067,7.423387055578651,-1.859201647307153,10.0,0.0,23.082000390168847,23.42951856849048,345.1266644280509,413.14665754575435,0.0
0.068,7.736929428236853,-1.5824320316278497,10.0,0.0,23.27222771500701,23.617938384108047,342.9584987314189,413.14665754575435,0.0
0.069,8.04132723792414,-1.3546495884062866,10.0,0.0,23.43998591632552,23.77619061530866,334.2677598047511,413.14665754575435,0.0
0.07,8.395997401416553,-1.0747195592463576,10.0,0.0,23.578279041856877,23.89942370363377,322.7417355360636,413.14665754575435,0.0
0.07100000000000001,8.726669482066718,-0.8579631993863083,10.0,0.0,23.694022264374595,23.99133556844291,337.9106389559309,413.14665754575435,0.0
0.07200000000000001,8.91385728821635,-0.8925675486457335,10.0,0.0,23.81335639313859,24.06834663115294,344.8606079910171,413.14665754575435,0.0
0.073,8.941721008651788,-1.1508071676799903,10.0,0.0,23.95651852989837,24.148396869281978,362.43451347602996,413.14665754575435,0.0
0.074,8.927907180207171,-1.4305443375681337,10.0,0.0,24.121558169292424,24.236556455607346,368.59250641149885,413.14665754575435,0.0
0.075,8.859340450140312,-1.7499202918046703,10.0,0.0,24.31124378664675,24.33980824926249,387.10067316750514,413.14665754575435,0.0
0.076,8.767176841935807,-2.0562826706616475,10.0,0.0,24.52279212376306,24.461155754889383,396.7190369145668,413.14665754575435,0.0
0.077,8.62162972262067,-2.4016532593838043,10.0,0.0,24.76024751870129,24.606611890707832,408.83095327273656,413.14665754575435,0.0
0.078,8.47560200325128,-2.694417929744825,8.966767132893537,0.0,25.01725339558004,24.662219914994033,427.6751823527485,413.14665754575435,0.0
0.079,8.233645464936956,-2.9765480733404104,-0.6006326551823689,0.0,25.282226156291436,23.721041018543083,428.4387931613466,413.14665754575435,0.0
0.08,7.467891988661839,-2.9783682885379426,-1.1353594156373497,0.0,25.423962673522375,23.019144659046212,430.3927872976355,413.14665754575435,0.0
0.081,6.681985305191855,-2.88117561941408,-2.284817781300603,0.0,25.470626507324923,22.359310635022638,431.9963098791393,413.14665754575435,0.0
0.082,5.936993432996454,-2.741362146857141,-3.275075595386351,0.0,25.432233000054836,21.746782659995677,430.2275094230756,413.14665754575435,0.0
0.083,5.269511291801523,-2.566741360556574,-2.5614838861277267,0.0,25.31861589424158,21.34603891471321,425.9181613269376,413.14665754575435,0.0
0.084,4.775483197264702,-2.398463121976747,-0.534524875870547,0.0,25.159521726100614,21.23750567640046,421.02083149577334,413.14665754575435,0.0
0.085,4.523189448613106,-2.2698464412251047,1.8353983002113914,0.0,24.993018598445595,21.38715033577764,415.58116204740475,413.14665754575435,0.0
0.08600000000000001,4.508079367836347,-2.190219846355858,4.530887979379183,0.0,24.850657490865693,21.777124020798166,410.1655123201679,413.14665754575435,0.0
0.08700000000000001,4.720532283011998,-2.1438620784806064,7.26852429525346,0.0,24.75722677402825,22.364528403036047,410.27438002201836,413.14665754575435,0.0
0.088,5.124584618559269,-2.1240988488146986,7.242813219565599,0.0,24.730169189513838,22.811323466123547,410.2893723517125,413.14665754575435,0.0
0.089,5.517852348085137,-2.090922204051398,7.263889906658962,0.0,24.747045071132316,23.17408988389563,395.8370584403294,413.14665754575435,0.0
0.09,5.912966054034984,-1.9681054716909108,10.0,0.0,24.785331932254138,23.76349876108972,393.74756172534296,413.14665754575435,0.0
0.091,6.44971113334041,-1.836060544802458,10.0,0.0,24.86543422034906,24.215343514079063,388.57757747643154,413.14665754575435,0.0
0.092,6.944319407925213,-1.7294481853133608,10.0,0.0,24.972303844658505,24.580974561167697,376.14883013611797,413.14665754575435,0.0
0.093,7.462874572654515,-1.510113877380027,10.0,0.0,25.081988960968093,24.86863448060403,371.98614816420417,413.14665754575435,0.0
0.094,7.9179586910711315,-1.327092624024114,10.0,0.0,25.191532562800532,25.09362321834916,361.470082312726,413.14665754575435,0.0
0.095,8.396187198589356,-1.0613191195371554,10.0,0.0,25.285215805264247,25.259013147860173,349.131451354036,413.14665754575435,0.0
0.096,8.823735333580066,-0.8478424563953504,10.0,0.0,25.36524501853195,25.37498439889266,356.6143715091542,413.14665754575435,0.0
0.097,9.177031671189074,-0.7419235425926924,10.0,0.0,25.439352121689275,25.4527743303616,364.55497147678574,413.14665754575435,0.0
0.098,9.283050010940038,-0.9841292226671392,10.0,0.0,25.541529321623965,25.522066925002854,381.58382481573676,413.14665754575435,0.0
0.099,9.281216133795755,-1.33003746611424,10.0,0.0,25.676045911007748,25.59590989005683,390.8472419893733,413.14665754575435,0.0
0.1,9.241957119660166,-1.6597148359851834,10.0,0.0,25.837300566209887,25.68012037032726,408.49304709436336,413.14665754575435,0.0
0.101,9.121953067006338,-2.0517667698182382,8.96276060214639,0.0,26.03067974294178,25.670746789977528,417.38413902292154,413.14665754575435,0.0
0.10200000000000001,8.929511653440686,-2.374168273065962,4.4748398230956274,0.0,26.235327289984426,25.218318108584597,430.119629231804,413.14665754575435,0.0
0.10300000000000001,8.444286439996883,-2.596317548336052,-2.0626349982061107,0.0,26.395479619430745,24.2088043868257,433.1287722543664,413.14665754575435,0.0
0.10400000000000001,7.602473373159954,-2.593071859868858,-3.767027656573431,0.0,26.436086825272454,23.28189601119756,436.75514427047153,413.14665754575435,0.0
0.105,6.694392584123501,-2.5172730140596764,-5.816298531873157,0.0,26.371637056812837,22.33483408014275,436.78199423179063,413.14665754575435,0.0
0.106,5.787165979831253,-2.3816742389646546,-6.066076879393069,0.0,26.20476819529134,21.559764574455052,434.3588802484865,413.14665754575435,0.0
0.107,5.007842193016972,-2.228857522897068,-5.066642114768331,0.0,25.961625418336745,21.03460409127454,430.67173509357207,413.14665754575435,0.0
0.108,4.434973717643871,-2.095943643622862,-3.398320312789285,0.0,25.67718851120007,20.766388723710964,425.62120300928535,413.14665754575435,0.0
0.109,4.089310363619607,-2.0050176923256173,-0.9977997252812374,0.0,25.385701042170748,20.776219532985113,419.89536129255674,413.14665754575435,0.0
0.11,3.9884060378707593,-1.9559983082202854,1.7976340956150434,0.0,25.11986252823316,21.047053871144556,414.27173380614215,413.14665754575435,0.0
0.111,4.116426930397953,-1.9539705843531052,4.598197076218462,0.0,24.907958443720933,21.52923717231623,408.6024152362832,413.14665754575435,0.0
0.112,4.445729198744986,-1.9736192498967569,7.478298784242645,0.0,24.76764472822557,22.195874252403232,408.61378636043713,413.14665754575435,0.0
0.113,4.945170309058128,-2.0066421994906527,7.517941934018855,0.0,24.711462130088343,22.70573048287617,409.09004915894,413.14665754575435,0.0
0.114,5.413295883146758,-2.0134863977320254,7.320376618635554,0.0,24.712306047122745,23.090354812251547,394.6450997390478,413.14665754575435,0.0
0.115,5.849434655058966,-1.9182395744339875,10.0,0.0,24.740982412846048,23.690041316327296,392.2658309865647,413.14665754575435,0.0
0.116,6.410644662592914,-1.799923446629642,10.0,0.0,24.814697486579085,24.148458859644535,387.3258345834144,413.14665754575435,0.0
0.117,6.919246257322488,-1.7027002922736671,10.0,0.0,24.917371421569438,24.518072080658442,374.8905403860336,413.14665754575435,0.0
0.11800000000000001,7.445366435188523,-1.4909237240532884,10.0,0.0,25.024416094201463,24.808204169452033,370.75178263174416,413.14665754575435,0.0
0.11900000000000001,7.905393580043956,-1.3123028762035096,10.0,0.0,25.132238980868376,25.03468573247403,360.3432329726951,413.14665754575435,0.0
0.12,8.385830859433668,-1.0505440190207107,10.0,0.0,25.224920469359187,25.201053598576202,348.01513550911346,413.14665754575435,0.0
0.121,8.81453227566411,-0.8396810318468848,10.0,0.0,25.304393255593837,25.31770004392578,355.6653417603982,413.14665754575435,0.0
0.122,9.164344930755028,-0.7415808480461576,10.0,0.0,25.378901017393645,25.396436745466175,363.57943925166586,413.14665754575435,0.0
0.123,9.263368301854067,-0.9952331660399598,10.0,0.0,25.482714429984824,25.467356108762523,382.542842982246,413.14665754575435,0.0
0.124,9.269336596809596,-1.3269591627503114,10.0,0.0,25.61719177410473,25.541898598254235,389.05564485513884,413.14665754575435,0.0
0.125,9.220547318118859,-1.6718879600258503,10.0,0.0,25.780300540495027,25.627861076814316,409.86605570281085,413.14665754575435,0.0
0.126,9.111096498295527,-2.04516852629423,7.825551019653203,0.0,25.973306252419054,25.493900493712914,415.2345287874289,413.14665754575435,0.0
0.127,8.847683688699588,-2.3551239256055796,5.1204357649274215,0.0,26.163977623102106,25.144699252755007,426.195665452236,413.14665754575435,0.0
0.128,8.407055564249596,-2.570755206033615,-0.49062264654094534,0.0,26.32128161947504,24.305154965840476,434.27505368087196,413.14665754575435,0.0
0.129,7.653088903150721,-2.625443246625298,-4.741600722210089,0.0,26.382760159180034,23.232328554522155,435.98218045654045,413.14665754575435,0.0
0.13,6.702595340988531,-2.5295451216464,-5.823519339152192,0.0,26.319712529629097,22.293445996426076,435.77832556398226,413.14665754575435,0.0
0.131,5.786195606408917,-2.3837053982530207,-5.947908573055379,0.0,26.15399801890016,21.53058233680671,433.5038195499593,413.14665754575435,0.0
0.132,5.00811658431864,-2.2317486880974475,-5.0142271860859475,0.0,25.913311752399004,21.00780713206619,429.88687966845646,413.14665754575435,0.0
0.133,4.437241648689571,-2.0979330040199695,-3.373159466561546,0.0,25.631216433926948,20.739436909125892,424.9177874676445,413.14665754575435,0.0
0.134,4.091521725311651,-2.006765829832801,-1.0063246653744553,0.0,25.34180339268825,20.745955769783034,419.2139535845459,413.14665754575435,0.0
0.135,3.9885579034206917,-1.9567644421876944,1.7849193157869205,0.0,25.07739506074005,21.014118751340703,413.61199383010205,413.14665754575435,0.0
0.136,4.114129850598148,-1.9539428891674504,4.581245830165364,0.0,24.866433503186652,21.49386552590937,407.9655826366624,413.14665754575435,0.0
0.137,4.440931388640626,-1.973174932488167,7.456262175976099,0.0,24.726686519140948,22.15813755044833,407.9785280585458,413.14665754575435,0.0
0.138,4.9379001180649125,-2.006015820921643,7.501470759906492,0.0,24.670761613248185,22.666831910046817,408.51002333216036,413.14665754575435,0.0
0.139,5.404146446693279,-2.013024302149142,7.282089465235155,0.0,24.671741157955232,23.048162905988136,394.09828200799467,413.14665754575435,0.0
0.14,5.8371991998470625,-1.918083060084038,10.0,0.0,24.700242226346283,23.649649389016254,391.7074602465734,413.14665754575435,0.0
0.14100000000000001,6.397637969688035,-1.80077456463072,10.0,0.0,24.77408731412181,24.10934048808205,386.93869169356526,413.14665754575435,0.0
0.14200000000000002,6.905674908393505,-1.704877955969975,10.0,0.0,24.877141461028224,24.480167310459617,374.4128006978179,413.14665754575435,0.0
0.14300000000000002,7.430877637647712,-1.4948278815927116,10.0,0.0,24.984826333386863,24.771524934459162,370.4857898334742,413.14665754575435,0.0
0.14400000000000002,7.890532835036525,-1.3166800160393954,10.0,0.0,25.093382716442505,24.999205238874392,359.89659661894854,413.14665754575435,0.0
0.145,8.369867560420658,-1.0562156268145912,10.0,0.0,25.186981887474904,25.166842883335303,347.77100670238775,413.14665754575435,0.0
