timestamp,iq,id,iq_ref,id_ref,vq,vd,omega,omega_ref,r
0.0,0.0,0.0,0.0,0.0,0.0,0.0,0.0,125.61503242276673,0.0
0.001,0.0,0.0,10.0,0.0,0.0,1.0999999999999999,6.115472199294103,125.61503242276673,0.0
0.002,0.5307369851907212,-0.2913212625381807,10.0,0.0,0.14204533887919985,1.9316189316290207,13.317801563642547,125.61503242276673,0.0
0.003,1.0842913387634832,-0.6024330830807904,10.0,0.0,0.384357124667687,2.6386968949419622,20.697939467553027,125.61503242276673,0.0
0.004,1.5590443546685477,-0.8700465084428163,10.0,0.0,0.6994718867930164,3.2526109522886295,28.232747544420146,125.61503242276673,0.0
0.005,1.9399447555359186,-1.0838738622210777,10.0,0.0,1.065311453102468,3.7994935661768023,35.92944872443006,125.61503242276673,0.0
0.006,2.239750732602683,-1.2510087368845633,10.0,0.0,1.4655018868449925,4.299102221838433,43.75633668444442,125.61503242276673,0.0
0.007,2.4770151619816017,-1.382020589851471,10.0,0.0,1.8883740978591532,4.765668027847139,51.58766747378032,125.61503242276673,0.0
0.008,2.6680767290418097,-1.4872241871505252,10.0,0.0,2.325877945545995,5.209220346273558,59.45942083902103,125.61503242276673,0.0
0.009000000000000001,2.8266491704841292,-1.5730794701170803,10.0,0.0,2.772378685460125,5.636635464737965,67.35059094018146,125.61503242276673,0.0
0.01,2.962077666392183,-1.645500646948331,10.0,0.0,3.224078639851053,6.052647735211881,75.20908322432116,125.61503242276673,0.0
0.011,3.0811061533574158,-1.7084279320504514,10.0,0.0,3.678407615443203,6.460489925470405,83.0265951655913,125.61503242276673,0.0
0.012,3.188848746459569,-1.7638278597420747,10.0,0.0,4.133552631697047,6.862319393890706,90.74118064793086,125.61503242276673,0.0
0.013000000000000001,3.288205119878689,-1.8140726097274587,10.0,0.0,4.588339016389012,7.259628641949282,98.35820682563939,125.61503242276673,0.0
0.014,3.3820602099432007,-1.8592355758795645,10.0,0.0,5.041843166194517,7.653355107498287,105.90865295623543,125.61503242276673,0.0
0.015,3.4721069852858886,-1.899829032412081,10.0,0.0,5.493383198131427,8.044092747085895,113.37727610343421,125.61503242276673,0.0
0.016,3.5596145800153947,-1.9360338400176071,8.67062329176532,0.0,5.942419585104689,8.285953820335797,119.84426481175025,125.61503242276673,0.0
0.017,3.5758476212354813,-1.929960244712207,5.4948366137174665,0.0,6.369708297145967,8.211579098868206,124.12992822678659,125.61503242276673,0.0
0.018000000000000002,3.424714666201165,-1.8226554996278166,3.3668559481590985,0.0,6.735087879830127,8.001837669786536,127.177185589021,125.61503242276673,0.0
0.019,3.1659437663396073,-1.6516698733416064,1.827605735379354,0.0,7.025219989897067,7.728524094565688,128.0578358208551,125.61503242276673,0.0
0.02,2.8548650639482265,-1.4603904157401333,1.3628525854814146,0.0,7.239676647361929,7.5074556917770785,125.40722323916482,125.61503242276673,0.0
0.021,2.578754830026204,-1.2759036915587705,2.690236968162575,0.0,7.392200053717508,7.507860947315232,126.82191691427136,125.61503242276673,0.0
0.022,2.445261540656821,-1.1510703255667627,1.970821285694262,0.0,7.517624841974035,7.442991608528214,129.4962618576769,125.61503242276673,0.0
0.023,2.3298877507311984,-1.0550263344572361,0.5948365196423886,0.0,7.614703712164083,7.2643436990026515,127.06471515439618,125.61503242276673,0.0
0.024,2.173566203897396,-0.9492547331442969,1.7961130439664523,0.0,7.6735354681492405,7.27521036503728,124.87089212649009,125.61503242276673,0.0
0.025,2.11871211832972,-0.8708138957495068,2.9004659608822645,0.0,7.719999939039046,7.404810329628567,127.95742075302596,125.61503242276673,0.0
0.026000000000000002,2.152491825738413,-0.8501233621458706,1.3337777643117388,0.0,7.773286408976548,7.338453205387154,127.27193760721211,125.61503242276673,0.0
0.027,2.118055124950391,-0.8100442184663003,1.659950285374209,0.0,7.810406719027444,7.339732134006981,124.12376531610695,125.61503242276673,0.0
0.028,2.1112078453090604,-0.7581796086869015,3.248949101993384,0.0,7.8386385752962955,7.516532179140065,127.42918790749398,125.61503242276673,0.0
0.029,2.1950418479516394,-0.7583011202122026,1.5780962514525974,0.0,7.8822592628171435,7.46950139057395,125.96439510183696,125.61503242276673,0.0
0.03,2.192902047195831,-0.7331052290373364,2.3069990274904084,0.0,7.914042039584809,7.529497301595661,124.18774265050119,125.61503242276673,0.0
0.031,2.233553252247061,-0.6963891959141947,3.2095981508809452,0.0,7.9448593250460835,7.674175744441357,126.86151458976376,125.61503242276673,0.0
0.032,2.3152181157485052,-0.7033367381467226,1.860247359579693,0.0,7.9881941162226076,7.641436870336923,123.97886945676022,125.61503242276673,0.0
0.033,2.3296975295523805,-0.6712751627636542,3.3179315557415254,0.0,8.020325292156576,7.7893680453679845,125.73740744331819,125.61503242276673,0.0
0.034,2.416449893007165,-0.6613507269877105,2.437438812257027,0.0,8.063265395818727,7.804890210902436,124.3417822656101,125.61503242276673,0.0
0.035,2.4503558044510854,-0.6472858694249637,3.1479839026826353,0.0,8.102015815693967,7.907256931007038,124.34306665088104,125.61503242276673,0.0
0.036000000000000004,2.5281033026925037,-0.6220988790564331,3.1600613677660245,0.0,8.144497945227233,7.989271925651503,124.86226639611242,125.61503242276673,0.0
0.037,2.5906932854857074,-0.6220965322882503,2.90798915541688,0.0,8.1911849730308,8.03337749265077,122.86478598369746,125.61503242276673,0.0
0.038,2.650566269830459,-0.5863556101699742,3.934231826015052,0.0,8.233682376788614,8.187188493169767,124.70981344916244,125.61503242276673,0.0
0.039,2.745002867221624,-0.5970900994656437,3.0207702830186047,0.0,8.28884934326625,8.209335641707472,122.24973490827978,125.61503242276673,0.0
0.04,2.8037150827247346,-0.5613800678126114,4.284462528604806,0.0,8.336678879575105,8.37741155675219,124.35413353543734,125.61503242276673,0.0
0.041,2.9063125189945214,-0.5729070424106791,3.244872203899317,0.0,8.398158121279858,8.395772379915204,122.34534233851471,125.61503242276673,0.0
0.042,2.9675544141318224,-0.5335188371129613,4.281964703203152,0.0,8.45087754880171,8.537210489000467,123.20250652388196,125.61503242276673,0.0
0.043000000000000003,3.0575925095521654,-0.5386632068354769,3.877507869508373,0.0,8.51342860720236,8.605623781685061,123.57385309660626,125.61503242276673,0.0
0.044,3.141157225190459,-0.5074299268036266,3.712246376407832,0.0,8.573078784530676,8.65102491727114,120.54105173689337,125.61503242276673,0.0
0.045,3.1949236627785416,-0.48778409480012286,5.279386863123012,0.0,8.629455348964697,8.866810364522813,123.7462335848227,125.61503242276673,0.0
0.046,3.3330674216621174,-0.497259932914478,3.695483927537783,0.0,8.7030116021931,8.86209604660988,121.90913210465006,125.61503242276673,0.0
0.047,3.3950791279427768,-0.45399260840812405,4.651093670805274,0.0,8.763886634230529,8.98072503682432,120.78757561973211,125.61503242276673,0.0
0.048,3.4786746653669605,-0.4492458008685254,5.260146481294593,0.0,8.830447586501364,9.142442950888356,123.60888918798024,125.61503242276673,0.0
0.049,3.604248249988859,-0.4457145625909049,3.8695511295183938,0.0,8.906183266816376,9.122612013038628,124.20133474746778,125.61503242276673,0.0
0.05,3.6231650854054713,-0.44983793736410016,3.587465326527611,0.0,8.972851168922745,9.094389136144544,124.51148163684871,125.61503242276673,0.0
0.051000000000000004,3.5915098945360304,-0.47215979684075804,3.4434273896963257,0.0,9.032444163923765,9.066303261478776,129.07645627369018,125.61503242276673,0.0
0.052000000000000005,3.554785233906424,-0.48181895950305553,1.1263258327663563,0.0,9.084108561256196,8.797267642646263,126.887776653855,125.61503242276673,0.0
0.053,3.3963206515793303,-0.43428844836372527,2.207938200373066,0.0,9.09837800912018,8.719514258885965,128.21465926852542,125.61503242276673,0.0
0.054,3.2854896440238655,-0.4376112311093576,1.518500624580267,0.0,9.104285985035151,8.574915666282655,129.50825409837037,125.61503242276673,0.0
0.055,3.1775339019579287,-0.41523952209851234,0.8327709929017564,0.0,9.092649188279644,8.387598668356162,128.3369130593029,125.61503242276673,0.0
0.056,3.0364655970145487,-0.40519501826696924,1.3912227060701299,0.0,9.062563193075679,8.300574631435184,129.49817669762456,125.61503242276673,0.0
0.057,2.9488593604585516,-0.4057681043027881,0.7717594441607236,0.0,9.026946878202265,8.153744925715918,129.1744109500174,125.61503242276673,0.0
0.058,2.841793748481128,-0.4141414833037125,0.898048532691794,0.0,8.981124565074012,8.049024146390702,129.5948638393053,125.61503242276673,0.0
0.059000000000000004,2.7598112740464322,-0.4200580143387378,0.6480237738824579,0.0,8.929979489949904,7.929375015398891,129.68456155857626,125.61503242276673,0.0
0.06,2.671867624798915,-0.436626769501558,0.5624796228888829,0.0,8.87374740699659,7.818520657645529,129.50990611195712,125.61503242276673,0.0
0.061,2.5940255857083203,-0.44653096553746674,0.6108586093065496,0.0,8.81297687057559,7.72698884519554,129.8261404125599,125.61503242276673,0.0
0.062,2.523399982154693,-0.47040618488844044,0.41063037910722455,0.0,8.751657438719935,7.623014661162339,129.52530905258746,125.61503242276673,0.0
0.063,2.455814194663776,-0.4832269482536671,0.5219432927952417,0.0,8.687244063423195,7.544280835743036,129.91757139717734,125.61503242276673,0.0
0.064,2.394893320226254,-0.510647741464448,0.28278673075619487,0.0,8.624286722733734,7.445584142688033,129.42923602746217,125.61503242276673,0.0
0.065,2.332987245925377,-0.5243832563135064,0.4888123795668271,0.0,8.558992145509004,7.381716231287862,129.892925360678,125.61503242276673,0.0
0.066,2.281143572185891,-0.5535174819161975,0.21418878357980198,0.0,8.496907644534533,7.290520544626888,129.34039915120786,125.61503242276673,0.0
0.067,2.2250666567805064,-0.5679578644986788,0.45319822103045615,0.0,8.433209124819463,7.23692327457121,129.73045936435508,125.61503242276673,0.0
0.068,2.1800465027061966,-0.5963187113048294,0.21701384504096133,0.0,8.373496019393183,7.158336951610359,129.27501662506484,125.61503242276673,0.0
0.069,2.130730351665725,-0.6124863669518112,0.4081353726631045,0.0,8.313390425866551,7.109997737275007,129.49314167167364,125.61503242276673,0.0
0.07,2.090482383713753,-0.638055912443132,0.26029175686963324,0.0,8.257112443706625,7.046241986971336,129.20899110856652,125.61503242276673,0.0
0.07100000000000001,2.047889542560808,-0.6560282740920652,0.3664274515651944,0.0,8.201807949058793,7.000670108903788,129.3129846321219,125.61503242276673,0.0
0.07200000000000001,2.011100696358476,-0.6778515932432774,0.2774511676939557,0.0,8.14969755755913,6.946897065676145,129.19650001465692,125.61503242276673,0.0
0.073,1.9723603897092743,-0.6958780940193352,0.2998788005075421,0.0,8.099185582780528,6.900540635338899,129.1479115841773,125.61503242276673,0.0
0.074,1.9361250893751802,-0.7129214616347561,0.2888442241332423,0.0,8.050783667875994,6.855929050798468,129.12467591601973,125.61503242276673,0.0
0.075,1.9008136623777536,-0.7291298383022993,0.26536562327950364,0.0,8.004373273765145,6.81198803685783,129.02102181954444,125.61503242276673,0.0
0.076,1.8660977518798736,-0.7430612122140416,0.2831327775493673,0.0,7.959580185034936,6.773454893763189,128.9559916688492,125.61503242276673,0.0
0.077,1.83395715471049,-0.7560767555607191,0.2822382604361606,0.0,7.916705486897299,6.737207994263492,128.893920209428,125.61503242276673,0.0
0.078,1.8032653080323022,-0.7683629818065542,0.2804851122801575,0.0,7.875714898077033,6.703169110936881,128.8147433392089,125.61503242276673,0.0
0.079,1.7746218910612892,-0.778210271710442,0.28807643822528606,0.0,7.836379819433103,6.672131491796456,128.91226526389113,125.61503242276673,0.0
0.08,1.748322569207251,-0.7859567442520109,0.20634314747292182,0.0,7.798628125820053,6.633804042697704,128.8304164571609,125.61503242276673,0.0
0.081,1.7183523027312568,-0.7912301411479861,0.21511371049409078,0.0,7.7613214655915765,6.600350000081195,128.53382287935028,125.61503242276673,0.0
0.082,1.6897591725822978,-0.7954849525120377,0.3342225948335682,0.0,7.724815362405382,6.582370509002242,128.23048473862028,125.61503242276673,0.0
0.083,1.669424882874143,-0.8019967987612289,0.45973714204003535,0.0,7.690835675403682,6.577104708628291,127.91638990461803,125.61503242276673,0.0
0.084,1.657498127109129,-0.8120164733359168,0.5937709842226462,0.0,7.6607644228054825,6.583564696996661,127.48019704569253,125.61503242276673,0.0
0.085,1.6557766163896814,-0.8210209788281155,0.7932157674561355,0.0,7.635236593162332,6.607040247623716,127.26760455621938,125.61503242276673,0.0
0.08600000000000001,1.664222007955481,-0.8339416051394561,0.8829862908581851,0.0,7.6159403253855285,6.63254956178621,127.5929816444018,125.61503242276673,0.0
0.08700000000000001,1.6776747474225866,-0.8441138637358514,0.7005182545506239,0.0,7.602114357985147,6.631213781101199,128.75250317959458,125.61503242276673,0.0
0.088,1.675729691399847,-0.8501510976663205,0.08938277938595518,0.0,7.590099782402687,6.563577243396786,127.70043728502276,125.61503242276673,0.0
0.089,1.6354060893488713,-0.8380079510655626,0.5945616780493075,0.0,7.571126892142646,6.567600081174561,126.40330006409093,125.61503242276673,0.0
0.09,1.6229177735282028,-0.8295064833670567,1.2352476121019806,0.0,7.553639844705559,6.635717488627481,126.35166684465742,125.61503242276673,0.0
0.091,1.6528678503161331,-0.8354970167187497,1.25369787759983,0.0,7.5454572161031415,6.687477728850755,127.87309177961711,125.61503242276673,0.0
0.092,1.6850283301294444,-0.8461596655365317,0.4704048165514776,0.0,7.544381860419736,6.643658790809582,127.62678292113144,125.61503242276673,0.0
0.093,1.6661551616904666,-0.8400071864749981,0.5734417408106687,0.0,7.538248747315606,6.6256788566096,125.82023385500374,125.61503242276673,0.0
0.094,1.6499662042087466,-0.8228254339439983,1.474664259552149,0.0,7.5291024841140946,6.708579765976772,125.24884891814955,125.61503242276673,0.0
0.095,1.6873762143555389,-0.8224815798556195,1.7640185630254144,0.0,7.529294931745037,6.800815715590755,127.09289820473532,125.61503242276673,0.0
0.096,1.7422880112042904,-0.8362589729921847,0.8272152619128423,0.0,7.540210681360195,6.772239211297427,127.32283200037142,125.61503242276673,0.0
0.097,1.7386982684920163,-0.8300218268079861,0.6951703683187453,0.0,7.546353345572877,6.743399016777559,124.98513926930822,125.61503242276673,0.0
0.098,1.7231787304485122,-0.8040485233791367,1.8703156653849304,0.0,7.546203031996967,6.850314791501828,124.69473833546911,125.61503242276673,0.0
0.099,1.774189320203805,-0.8000390667988171,2.0247190731774616,0.0,7.55657802006153,6.945990519029079,126.7708786572092,125.61503242276673,0.0
0.1,1.8343502484003547,-0.8115964239101363,0.9750904499629949,0.0,7.576794485920411,6.910025393774481,125.93085916960419,125.61503242276673,0.0
0.101,1.8301228693008518,-0.798084269612557,1.3919419262971227,0.0,7.589790882124099,6.937094997243035,123.06573709060888,125.61503242276673,0.0
0.10200000000000001,1.8446857673268733,-0.7765516188511984,2.849995919116358,0.0,7.601961129013498,7.11733051185802,125.53752728334965,125.61503242276673,0.0
0.10300000000000001,1.9414936244646337,-0.7885056592226689,1.6148758741401439,0.0,7.632468173623932,7.1198125195199795,126.82656980674656,125.61503242276673,0.0
0.10400000000000001,1.9669108727834819,-0.7844783421992159,0.9582392386018879,0.0,7.6596101692632255,7.063390382673644,123.5131415506695,125.61503242276673,0.0
0.105,1.9494616080887754,-0.7441882324592054,2.6359722753613903,0.0,7.674004112752783,7.208615251074406,124.27656313676971,125.61503242276673,0.0
0.106,2.021563888091152,-0.735799195187234,2.267646175171256,0.0,7.700961255730952,7.27535808214833,126.2098222488708,125.61503242276673,0.0
0.107,2.0731090380726775,-0.7386027798159804,1.295068720859674,0.0,7.732289252200575,7.22987314174236,122.66197346819396,125.61503242276673,0.0
0.108,2.0708000795398727,-0.7038525298074284,3.098523700743817,0.0,7.752085391635412,7.4009447542927465,124.11899118930792,125.61503242276673,0.0
0.109,2.162407007669507,-0.7014371766255093,2.3849752525214267,0.0,7.787090892031875,7.450264088748684,124.98482964548917,125.61503242276673,0.0
0.11,2.21126470911231,-0.7030530279596113,1.9583580522035766,0.0,7.823729673012856,7.453901354368522,121.677741318338,125.61503242276673,0.0
0.111,2.2384976445422393,-0.6690153029827188,3.6512751268234527,0.0,7.853307994196927,7.648818775852977,124.71278975996945,125.61503242276673,0.0
0.112,2.346745603307223,-0.6795674658465715,2.1427733326356955,0.0,7.900921340575826,7.63270297309069,122.2514710067174,125.61503242276673,0.0
0.113,2.3736622958456675,-0.660219890028628,3.4070683234222185,0.0,7.939928017071996,7.775239195579339,123.65763743898178,125.61503242276673,0.0
0.114,2.464171183765214,-0.6477448378145235,2.723559057127875,0.0,7.988108868182042,7.809906683522732,122.87234807266475,125.61503242276673,0.0
0.115,2.5061967536515537,-0.6394742377845838,3.1436305837874103,0.0,8.03415336749427,7.8952507445699815,122.39477852401603,125.61503242276673,0.0
0.116,2.577977935709055,-0.6101265847409831,3.4146178970992755,0.0,8.0809822871455,7.9947970643139765,123.21531078040931,125.61503242276673,0.0
0.117,2.6464984681427595,-0.6119877284296116,3.02834898532621,0.0,8.133581149142197,8.037052743873405,121.33606576712137,125.61503242276673,0.0
0.11800000000000001,2.7064811719256574,-0.5758747640466089,4.010761158526636,0.0,8.18115465537615,8.18635787775456,122.94912833397908,125.61503242276673,0.0
0.11900000000000001,2.797620989794822,-0.5854000743714689,3.2308889159856586,0.0,8.240310238154386,8.2204542275317,121.184764961054,125.61503242276673,0.0
0.12,2.861817346840939,-0.5492962370626975,4.157373277065323,0.0,8.292893222425297,8.360618301656745,122.23981401085956,125.61503242276673,0.0
0.121,2.950356012411885,-0.5564055957005887,3.6636009362816147,0.0,8.355377383504878,8.419347176057025,122.07015216679201,125.61503242276673,0.0
0.122,3.0273717098250246,-0.523511382935202,3.783880660875136,0.0,8.413796558925963,8.489033732178626,120.25143035756304,125.61503242276673,0.0
0.123,3.087196081850056,-0.5131739106242693,4.746877586141661,0.0,8.472534292590545,8.656509890814933,122.78334764751484,125.61503242276673,0.0
0.124,3.2057327745485424,-0.507495168864312,3.509235788918276,0.0,8.541624581881818,8.654900847530254,120.01477221416143,125.61503242276673,0.0
0.125,3.257461771893408,-0.467500804070206,4.949526107681039,0.0,8.59930234520574,8.826665267758349,121.01252075984436,125.61503242276673,0.0
0.126,3.3642483536041143,-0.4745018054191886,4.4966769514687925,0.0,8.66955882801641,8.91157547791033,122.29040142806993,125.61503242276673,0.0
0.127,3.461018022041851,-0.45116573721421627,3.8909829273029795,0.0,8.738643706045172,8.923345666521012,119.24577590441504,125.61503242276673,0.0
0.128,3.5130207009240157,-0.4101874065678262,5.476988254313939,0.0,8.797722859443077,9.11661225229371,123.17917884122853,125.61503242276673,0.0
0.129,3.606094448276344,-0.4681220977700214,3.5346453217225746,0.0,8.877003355417163,9.05722423355383,125.97940198589438,125.61503242276673,0.0
0.13,3.5997859516849653,-0.47133951476557445,2.130890053758373,0.0,8.94219156887734,8.878338088233777,124.25521083136366,125.61503242276673,0.0
0.131,3.4884784251146534,-0.4501047235744311,3.0065838469377684,0.0,8.980604345258516,8.84640399167794,127.15685470719134,125.61503242276673,0.0
0.132,3.415924286217311,-0.46286824642031965,1.540343686179678,0.0,9.013598769770947,8.658329106813627,127.2792789556767,125.61503242276673,0.0
0.133,3.293785016336959,-0.42963198907774947,1.4624890966078987,0.0,9.020702639809565,8.511169327939538,126.77655753759508,125.61503242276673,0.0
0.134,3.163881815093218,-0.4210520107162377,1.7022345545004258,0.0,9.011768709910575,8.419654419658624,129.22507044132257,125.61503242276673,0.0
0.135,3.0743641275333604,-0.41609769503481403,0.44187772245112233,0.0,8.99411750723204,8.203908816730703,127.34545930777368,125.61503242276673,0.0
0.136,2.9299718247935376,-0.4007296010260865,1.3643790203754986,0.0,8.955015917344433,8.137039341345673,129.30350368657471,125.61503242276673,0.0
0.137,2.8506164335968607,-0.40902016034598543,0.3484721183369017,0.0,8.914203181372352,7.959257052311134,127.81009617698247,125.61503242276673,0.0
