timestamp,iq,id,iq_ref,id_ref,vq,vd,omega,omega_ref,r
0.0,0.0,0.0,0.0,0.0,0.0,0.0,0.0,81.85080308156384,0.0
0.001,0.0,0.0,10.0,0.0,0.0,1.0999999999999999,6.115472199294103,81.85080308156384,0.0
0.002,0.5307369851907212,-0.2913212625381807,10.0,0.0,0.14204533887919985,1.9316189316290207,13.317801563642547,81.85080308156384,0.0
0.003,1.0842913387634832,-0.6024330830807904,10.0,0.0,0.384357124667687,2.6386968949419622,20.697939467553027,81.85080308156384,0.0
0.004,1.5590443546685477,-0.8700465084428163,10.0,0.0,0.6994718867930164,3.2526109522886295,28.232747544420146,81.85080308156384,0.0
0.005,1.9399447555359186,-1.0838738622210777,10.0,0.0,1.065311453102468,3.7994935661768023,35.92944872443006,81.85080308156384,0.0
0.006,2.239750732602683,-1.2510087368845633,10.0,0.0,1.4655018868449925,4.299102221838433,43.75633668444442,81.85080308156384,0.0
0.007,2.4770151619816017,-1.382020589851471,10.0,0.0,1.8883740978591532,4.765668027847139,51.58766747378032,81.85080308156384,0.0
0.008,2.6680767290418097,-1.4872241871505252,10.0,0.0,2.325877945545995,5.209220346273558,59.45942083902103,81.85080308156384,0.0
0.009000000000000001,2.8266491704841292,-1.5730794701170803,10.0,0.0,2.772378685460125,5.636635464737965,67.35059094018146,81.85080308156384,0.0
0.01,2.962077666392183,-1.645500646948331,8.971094216239551,0.0,3.2240786398510535,5.9394680989982325,74.58897065710333,81.85080308156384,0.0
0.011,3.0271730129128236,-1.6782358609366281,5.4245226820232215,0.0,3.6637685239993174,5.871547451187185,79.34054329584913,81.85080308156384,0.0
0.012,2.8920280436315675,-1.5994311658354274,3.0738389605074694,0.0,4.043701486350635,5.646795262633643,82.19769616803416,81.85080308156384,0.0
0.013000000000000001,2.6272479893363263,-1.4432717492256382,1.6417935935502532,0.0,4.346776444735401,5.376267792300115,84.15468189959111,81.85080308156384,0.0
0.014,2.3160215463002647,-1.2561941976744517,0.640261939591503,0.0,4.573474223743807,5.098839644763541,84.97423512474532,81.85080308156384,0.0
0.015,2.0010166461052874,-1.076744696488661,0.19925100658258366,0.0,4.731890740482786,4.864866478381159,83.77127039464862,81.85080308156384,0.0
0.016,1.728677276454591,-0.9161104594982125,0.7815286985000838,0.0,4.835193017852541,4.765400217411551,83.15039815098362,81.85080308156384,0.0
0.017,1.5548919540261514,-0.8017093573982297,1.0789688696383883,0.0,4.907240662527265,4.72949944395254,84.71045350697041,81.85080308156384,0.0
0.018000000000000002,1.4531715686169135,-0.731937121381775,0.27034468739092743,0.0,4.9619625304478046,4.621921839719032,85.21768577441327,81.85080308156384,0.0
0.019,1.3449424233568599,-0.6692346366373172,-0.016940273258996497,0.0,4.9942549001912155,4.517947080976425,83.4909506600638,81.85080308156384,0.0
0.02,1.2469474770975921,-0.6064988351287833,0.8300258081307372,0.0,5.006646643767531,4.533335306277708,82.70519213806688,81.85080308156384,0.0
0.021,1.2177570765203094,-0.5743016848777256,1.2143611785641695,0.0,5.01642370700381,4.584462107941185,84.18865304568443,81.85080308156384,0.0
0.022,1.2284877954935771,-0.568578819169838,0.44925222511418594,0.0,5.030028200357452,4.541976314085274,84.39867048782547,81.85080308156384,0.0
0.023,1.2046859759287785,-0.5537038174997851,0.31876482998105127,0.0,5.036444643463512,4.501122532362036,82.68824770829518,81.85080308156384,0.0
0.024,1.1767365851598848,-0.5278529435968076,1.1656017734788828,0.0,5.035439217974017,4.5622891256467515,82.6778090749517,81.85080308156384,0.0
0.025,1.2003203878043667,-0.5220385219144735,1.1625510302167457,0.0,5.040269916715913,4.60556085366165,84.1911501760401,81.85080308156384,0.0
0.026000000000000002,1.2274675351759456,-0.5268321022696364,0.3824770087277831,0.0,5.049530156441003,4.5564604956336545,83.07030830117233,81.85080308156384,0.0
0.027,1.2087512166108372,-0.5143314154501315,0.9307028939655804,0.0,5.051531325037083,4.583632051487893,81.49531714410229,81.85080308156384,0.0
0.028,1.219765998071393,-0.5031689271941477,1.7217533318752183,0.0,5.0549466655190205,4.688421068787685,83.36417367742729,81.85080308156384,0.0
0.029,1.2758061073761748,-0.5166293329183937,0.7721913592540832,0.0,5.070091643194969,4.664656132829351,83.75815494336665,81.85080308156384,0.0
0.03,1.2779335436786532,-0.5139687685819636,0.5561272076663755,0.0,5.08091836337324,4.630837134385784,81.74623363571325,81.85080308156384,0.0
0.031,1.26444011604679,-0.4910478337059417,1.5631335559515789,0.0,5.0847858144963265,4.715919599034178,82.59511743265614,81.85080308156384,0.0
0.032,1.3048530516778856,-0.49107043097275804,1.131248513969213,0.0,5.097006462020056,4.73072278703339,83.76750074441945,81.85080308156384,0.0
0.033,1.3217445920447919,-0.4926548773202453,0.5258898814590012,0.0,5.109659426716889,4.681543181744709,81.39486397816609,81.85080308156384,0.0
0.034,1.3046974774525435,-0.4699061999452944,1.716767655619661,0.0,5.113610935440452,4.7776410729461665,82.16576137618607,81.85080308156384,0.0
0.035,1.3512191616676572,-0.4701805582844113,1.3281693736634472,0.0,5.1270347486028545,4.80458188073346,83.26689053870572,81.85080308156384,0.0
0.036000000000000004,1.375732090554326,-0.47586563701517626,0.763443917832201,0.0,5.14243287630474,4.769705966401008,81.08687383953253,81.85080308156384,0.0
0.037,1.3694177847652913,-0.4557604805388151,1.8610915598391111,0.0,5.150535181803486,4.8671856543767245,82.28282261464766,81.85080308156384,0.0
0.038,1.4187618628638776,-0.4586603292212736,1.2587969769507095,0.0,5.1680952604697605,4.873007731918213,82.51854578566969,81.85080308156384,0.0
0.039,1.4335923071868206,-0.4593989172050582,1.1342579643986357,0.0,5.184533785214951,4.871189355925801,80.5280330478974,81.85080308156384,0.0
0.04,1.4433389306111348,-0.44001967182162727,2.142742033621446,0.0,5.197007517014364,4.9824514836137315,82.72398590301967,81.85080308156384,0.0
0.041,1.5014205316011082,-0.45114846044128465,1.036033777845752,0.0,5.220778047604625,4.945720513010603,81.14550960855158,81.85080308156384,0.0
0.042,1.5006006626895136,-0.43884179733451745,1.832324859809919,0.0,5.237033407247608,5.0143697956908015,81.79921418580322,81.85080308156384,0.0
0.043000000000000003,1.540228111893204,-0.43061609573340953,1.5059884601417028,0.0,5.257746398649257,5.029552553182613,82.05232960644156,81.85080308156384,0.0
0.044,1.5556810923790072,-0.430002515051907,1.3774154845737567,0.0,5.277921129800967,5.033105117388214,80.41366477632178,81.85080308156384,0.0
0.045,1.5698327657489526,-0.4084094695142555,2.211119282686067,0.0,5.2940645450557415,5.129910891570626,82.52544148680177,81.85080308156384,0.0
0.046,1.6204532913929126,-0.4183216776194175,1.1484845433936943,0.0,5.319580469550225,5.087996829469852,80.28687627916948,81.85080308156384,0.0
0.047,1.6190896688836385,-0.39747823119150955,2.2834064152337836,0.0,5.335961494197058,5.188949723056397,82.25561172662114,81.85080308156384,0.0
0.048,1.671400331094397,-0.40057727144115596,1.2949906050573787,0.0,5.361349034629603,5.15560266284289,80.16836249192315,81.85080308156384,0.0
0.049,1.6727357822812985,-0.383636959446749,2.355439628302782,0.0,5.378968690275663,5.255038820344294,82.1489911359886,81.85080308156384,0.0
0.05,1.7267236648440278,-0.38559607565975995,1.362143425725811,0.0,5.405154902010631,5.220500942574213,79.8237336469737,81.85080308156384,0.0
0.051000000000000004,1.7282691281209843,-0.3680205936214065,2.5450428645791634,0.0,5.423315810608747,5.332457251919436,82.03867573600441,81.85080308156384,0.0
0.052000000000000005,1.788127926529486,-0.3738738681193281,1.4356930935194006,0.0,5.451675874296727,5.2946075387926745,79.60479449729742,81.85080308156384,0.0
0.053,1.7919402790407042,-0.35358506686969415,2.6750937987155585,0.0,5.471124659420795,5.410985607837416,81.89323191316282,81.85080308156384,0.0
0.054,1.8528301758111263,-0.3629134398730469,1.5304508024668673,0.0,5.501495381979796,5.372706246731137,79.64111356152144,81.85080308156384,0.0
0.055,1.8595210381586704,-0.3389305330872362,2.6786068734879844,0.0,5.522269692695796,5.4789083958756715,81.51821693394598,81.85080308156384,0.0
0.056,1.9141696936537267,-0.3485040403681472,1.7433810487518915,0.0,5.552879702123407,5.456266916265189,79.93866983816203,81.85080308156384,0.0
0.057,1.9291910182746266,-0.324173081828775,2.552275929077885,0.0,5.575392422135068,5.536175421488386,80.77870678790394,81.85080308156384,0.0
0.058,1.9722597638673351,-0.33022457416368045,2.1429784171435267,0.0,5.604553694410118,5.552645324305405,80.60869785678517,81.85080308156384,0.0
0.059000000000000004,2.0047161304532493,-0.3115859083243052,2.2404039349506997,0.0,5.630335061573683,5.582054633277831,79.46709992399045,81.85080308156384,0.0
0.06,2.0283120882723455,-0.30852060996133734,2.8350399329237956,0.0,5.656328426756602,5.6732658609741025,81.24726591327176,81.85080308156384,0.0
0.061,2.088985424544599,-0.30963888920022464,1.9509923099660589,0.0,5.688997241890762,5.648325596502199,79.47803855911042,81.85080308156384,0.0
0.062,2.1031971053325047,-0.28580107721167614,2.8593336322712655,0.0,5.713271806953189,5.736947710150106,80.12735678118912,81.85080308156384,0.0
0.063,2.151883928077938,-0.29305342545502355,2.55190898423566,0.0,5.745017263300815,5.7710215107383735,80.98056825746323,81.85080308156384,0.0
0.064,2.1947316523469254,-0.2804599537422068,2.1340055943396106,0.0,5.775537748701664,5.757740969052236,78.8609294860499,81.85080308156384,0.0
0.065,2.2070851724268623,-0.2589544736520243,3.223723716001418,0.0,5.799438463301023,5.871958147390453,79.91829654179956,81.85080308156384,0.0
0.066,2.2694976258039263,-0.27217316670557545,2.7143652535242278,0.0,5.8340399353110595,5.903475232594998,80.76793508975864,81.85080308156384,0.0
0.067,2.316010957408471,-0.2611289384821254,2.3003746594627428,0.0,5.866985916605431,5.89036303381537,80.36064763043741,81.85080308156384,0.0
0.068,2.320687072895776,-0.2557054480559211,2.5189199436346197,0.0,5.894839938227754,5.909987300855105,80.84348525392566,81.85080308156384,0.0
0.069,2.320023414241693,-0.27377150793985194,2.2875743101668755,0.0,5.923912485883314,5.9029208344367525,83.19136604204289,81.85080308156384,0.0
0.07,2.3124606808038455,-0.27895165516322074,1.1002282865034738,0.0,5.949760287727214,5.771998927249117,81.81514356434008,81.85080308156384,0.0
0.07100000000000001,2.2400583777248713,-0.2530786598832956,1.7886961205271168,0.0,5.957033287714935,5.752247538948177,82.22123203848265,81.85080308156384,0.0
0.07200000000000001,2.196207775826508,-0.25847552312539557,1.5819475938866394,0.0,5.962456233783219,5.7096711163834435,83.90501175874238,81.85080308156384,0.0
0.073,2.1620001515930407,-0.2525290982019561,0.7195156469849933,0.0,5.962371167614203,5.582418934435935,82.1955978642259,81.85080308156384,0.0
0.074,2.0836063339561166,-0.23505791012082733,1.5707746464166092,0.0,5.947707023427648,5.578427517170496,83.54860538088751,81.85080308156384,0.0
0.075,2.0527744457898893,-0.24711865027679059,0.8772928650925695,0.0,5.935611545231172,5.491180810794901,83.00816411486798,81.85080308156384,0.0
0.076,2.0043599988353016,-0.236911235304042,1.1359398877692921,0.0,5.9147575211682195,5.45185248782824,82.8540184177119,81.85080308156384,0.0
0.077,1.9660469459936423,-0.2477155227087492,1.2029805829858524,0.0,5.893346612979144,5.422889892342041,83.81993014280677,81.85080308156384,0.0
0.078,1.9451730677739256,-0.2534929701148021,0.7003334498259881,0.0,5.871708012400976,5.340633870061557,82.75573051134928,81.85080308156384,0.0
0.079,1.8968961755452667,-0.2570881015597042,1.2233839912568756,0.0,5.844345359637452,5.332103340203254,84.26330780138296,81.85080308156384,0.0
0.08,1.881885677913239,-0.2689062561108665,0.4454702990418442,0.0,5.820129964850631,5.232056972313707,82.686719790817,81.85080308156384,0.0
0.081,1.8280176237069667,-0.26901576823142526,1.225405137232298,0.0,5.788225337541286,5.238941051843899,84.28046280568813,81.85080308156384,0.0
0.082,1.818810277649891,-0.28471716456577434,0.4042370325554865,0.0,5.761925639391467,5.144292548317998,82.68390868621428,81.85080308156384,0.0
0.083,1.770234271269768,-0.2869136519071287,1.1941830362459074,0.0,5.728875660348248,5.156835954023665,84.14252239105328,81.85080308156384,0.0
0.084,1.7662042793331854,-0.30365203576544186,0.4419589907315151,0.0,5.702204277130916,5.074133455260178,82.79074764260793,81.85080308156384,0.0
0.085,1.7240750529230842,-0.3107532134885036,1.1084469193437496,0.0,5.670543528069924,5.082463895639542,83.7793456630225,81.85080308156384,0.0
0.08600000000000001,1.7207629297531017,-0.32555146151197867,0.5948624833218776,0.0,5.644438693458318,5.023579091110938,83.10421433672815,81.85080308156384,0.0
0.08700000000000001,1.6891206451822773,-0.3392040309856815,0.9198940339174086,0.0,5.616409662016885,5.012309128570852,83.40989333689629,81.85080308156384,0.0
0.088,1.6791320885078727,-0.3497248075291527,0.7514636312800136,0.0,5.59107729719063,4.978367917733042,83.65184430446526,81.85080308156384,0.0
0.089,1.657238968860208,-0.36672273092972685,0.6124777352665154,0.0,5.566648611571852,4.933991804555771,83.11430674860645,81.85080308156384,0.0
0.09,1.6321468711998275,-0.37111437793387103,0.8686114765254915,0.0,5.540538285133672,4.923716204179141,84.4955537116232,81.85080308156384,0.0
0.091,1.6191726064797352,-0.38628568518256,0.15154048871652281,0.0,5.5176363586289625,4.831594233267385,82.90409066586072,81.85080308156384,0.0
0.092,1.5692780391786592,-0.3842173513665814,0.9367391357547947,0.0,5.487433197891301,4.845295487604548,83.58493214103048,81.85080308156384,0.0
0.093,1.5640673734821133,-0.3956602012494147,0.5789771075752499,0.0,5.462899875486397,4.807474718417708,83.72220738728828,81.85080308156384,0.0
0.094,1.54094781078509,-0.4111154031530142,0.49162544138910524,0.0,5.438623452113863,4.767442676150086,83.06134389477948,81.85080308156384,0.0
0.095,1.5165209137906175,-0.4154927182708993,0.8099517795113464,0.0,5.413098419495755,4.767331372669704,83.77778851870853,81.85080308156384,0.0
0.096,1.5101667344301646,-0.42815716452581,0.4324596131753746,0.0,5.391464075728281,4.720425985357075,83.67808525367522,81.85080308156384,0.0
0.097,1.4819874206200407,-0.43894764047437806,0.464038423970917,0.0,5.368362935498084,4.686332475975339,83.08934303063498,81.85080308156384,0.0
0.098,1.4579531005646027,-0.4423168801039242,0.7460241360003266,0.0,5.344425269952495,4.686402825792035,83.40408626038518,81.85080308156384,0.0
0.099,1.451560720471473,-0.4529190735199917,0.5731196893370101,0.0,5.32402095482261,4.662695846428934,84.22984782875595,81.85080308156384,0.0
0.1,1.434529922392993,-0.4673016202359683,0.13644845767970626,0.0,5.304762431474,4.594823806461184,83.16647933568733,81.85080308156384,0.0
0.101,1.3953219521022509,-0.4646328517148589,0.6549759416727827,0.0,5.280205166458992,4.597360422462356,83.16808625328127,81.85080308156384,0.0
0.10200000000000001,1.385110814595015,-0.4719805524484747,0.6409996511586351,0.0,5.259192224311511,4.591196128988313,84.33699406196084,81.85080308156384,0.0
0.10300000000000001,1.3777495016759396,-0.48452115671246937,0.03168383701488353,0.0,5.24097013649308,4.517369627042281,83.35253968043311,81.85080308156384,0.0
0.10400000000000001,1.3360660775567155,-0.4835610561101024,0.5088936617900541,0.0,5.216956590152987,4.512201368899638,82.99533290278417,81.85080308156384,0.0
0.105,1.3213388529603893,-0.487988215874332,0.6760517524023211,0.0,5.195324161212726,4.519967034121251,83.32094731994005,81.85080308156384,0.0
0.106,1.3210044836538533,-0.4991363318854818,0.498543101440621,0.0,5.177813562852238,4.503484865792525,84.09062245959248,81.85080308156384,0.0
0.107,1.3095957401451577,-0.5116687585508581,0.09130733783411715,0.0,5.161672893268006,4.445130625066414,83.223310225198,81.85080308156384,0.0
0.108,1.2756711746384504,-0.5092308858608019,0.5112383835950132,0.0,5.140917376307027,4.444880128894905,83.02280867794302,81.85080308156384,0.0
0.109,1.2645768672562163,-0.5140562686057004,0.599769101258715,0.0,5.122767532253835,4.448999327286828,83.14074452305414,81.85080308156384,0.0
0.11,1.2623308074969302,-0.5237221098367579,0.527901764288252,0.0,5.107859581153118,4.442237030690547,83.91028267896806,81.85080308156384,0.0
0.111,1.2562152262314845,-0.5332750802210591,0.12253789035724938,0.0,5.094720363832812,4.3914390692227245,83.39594782341949,81.85080308156384,0.0
0.112,1.2263241639733398,-0.5316710445388408,0.3642538707129772,0.0,5.077543298468863,4.378276239783837,83.17057729856147,81.85080308156384,0.0
0.113,1.2094139569609141,-0.5320754139380114,0.46374139097201184,0.0,5.060828177688154,4.3747996663261635,83.2217419495497,81.85080308156384,0.0
0.114,1.2005473665296453,-0.5377758898276842,0.4244496767980399,0.0,5.0460599202936205,4.365488497251773,83.27465324028886,81.85080308156384,0.0
0.115,1.1919689819273813,-0.542199301683068,0.3837555298412094,0.0,5.032266942276296,4.352403136723796,83.25838333918601,81.85080308156384,0.0
0.116,1.1809579676452138,-0.5456277659976404,0.3778146778164102,0.0,5.018877622963955,4.34012588991874,83.17201764988019,81.85080308156384,0.0
0.117,1.1695749375098583,-0.5482727261394643,0.40778537678615767,0.0,5.005856171874799,4.332235644441942,83.08656882966315,81.85080308156384,0.0
0.11800000000000001,1.1601557864341665,-0.5514493806333491,0.4381521294136841,0.0,4.993670823739787,4.327795190520211,82.95390914460056,81.85080308156384,0.0
0.11900000000000001,1.1527939124670605,-0.555653448280155,0.49345091131461283,0.0,4.982690645922313,4.329075060285604,82.82355351040415,81.85080308156384,0.0
0.12,1.1499407235822816,-0.5591100639674362,0.5489012241244122,0.0,4.973274659912258,4.334915703920434,82.74083724938191,81.85080308156384,0.0
0.121,1.1500246065008526,-0.5639741692135933,0.5813590129573523,0.0,4.965884822286897,4.342208779224411,83.33443633478609,81.85080308156384,0.0
0.122,1.151788900869508,-0.5685095799026308,0.26972313772304024,0.0,4.960413530077801,4.313235805519982,83.5237853155811,81.85080308156384,0.0
0.123,1.1333329435691317,-0.5679644559769833,0.1583188249853662,0.0,4.9524867519804605,4.279522682563014,82.7018447101553,81.85080308156384,0.0
0.124,1.1088593689999242,-0.5594567111089449,0.5607787114123488,0.0,4.941050938700931,4.296280358355964,82.32144045472758,81.85080308156384,0.0
0.125,1.1085834199587528,-0.5597985839029123,0.7462744653945715,0.0,4.932557157784663,4.326384237964275,82.82435408175984,81.85080308156384,0.0
0.126,1.1228294351717094,-0.5663215240355512,0.48508214187648324,0.0,4.928637247607507,4.32047241722948,83.6034144211251,81.85080308156384,0.0
0.127,1.1206388007214534,-0.5704128782821759,0.0780258587982412,0.0,4.924902965940387,4.272978949588682,82.747990894765,81.85080308156384,0.0
0.128,1.0933588013749542,-0.5610406999820329,0.49676574384627903,0.0,4.91572091252042,4.282972244314931,81.98365286830797,81.85080308156384,0.0
0.129,1.088759616144778,-0.5579323295890342,0.8776062592073504,0.0,4.908208194954845,4.3289861724476495,82.35624259609254,81.85080308156384,0.0
0.13,1.110437468634105,-0.5643537840894359,0.6862570001697774,0.0,4.906785585658074,4.342360056736668,83.3359833757705,81.85080308156384,0.0
0.131,1.1212116591005976,-0.5702223838192566,0.18153480738873395,0.0,4.907423957145156,4.299679960625145,82.85908506444517,81.85080308156384,0.0
0.132,1.099144038801504,-0.5633372897524257,0.40990114322258475,0.0,4.9029144355277285,4.294034410280585,81.8626990670532,81.85080308156384,0.0
0.133,1.0881728180883512,-0.5556250041573367,0.9079751820636753,0.0,4.897511810562798,4.341993101798375,81.8907228501221,81.85080308156384,0.0
0.134,1.109243057969408,-0.5583343791302191,0.8935640928436412,0.0,4.897820471349104,4.375622262871229,82.98771600642439,81.85080308156384,0.0
0.135,1.1304596437912795,-0.5656097311376519,0.33369838544389085,0.0,4.902234377135157,4.3423551349520615,82.96608412952111,81.85080308156384,0.0
0.136,1.1158596197370214,-0.5611305075065439,0.33336151341596076,0.0,4.902314711431191,4.320235880058529,81.76210215244703,81.85080308156384,0.0
0.137,1.0992449057680127,-0.548346906338521,0.9362395112441684,0.0,4.898813682916095,4.368338150861382,81.46163500110926,81.85080308156384,0.0
