timestamp,iq,id,iq_ref,id_ref,vq,vd,omega,omega_ref,r
0.0,0.0,0.0,0.0,0.0,0.0,0.0,0.0,347.202884914307,0.0
0.001,0.0,0.0,10.0,0.0,0.0,1.0999999999999999,6.115472199294103,347.202884914307,0.0
0.002,0.5307369851907212,-0.2913212625381807,10.0,0.0,0.14204533887919985,1.9316189316290207,13.317801563642547,347.202884914307,0.0
0.003,1.0842913387634832,-0.6024330830807904,10.0,0.0,0.384357124667687,2.6386968949419622,20.697939467553027,347.202884914307,0.0
0.004,1.5590443546685477,-0.8700465084428163,10.0,0.0,0.6994718867930164,3.2526109522886295,28.232747544420146,347.202884914307,0.0
0.005,1.9399447555359186,-1.0838738622210777,10.0,0.0,1.065311453102468,3.7994935661768023,35.92944872443006,347.202884914307,0.0
0.006,2.239750732602683,-1.2510087368845633,10.0,0.0,1.4655018868449925,4.299102221838433,43.75633668444442,347.202884914307,0.0
0.007,2.4770151619816017,-1.382020589851471,10.0,0.0,1.8883740978591532,4.765668027847139,51.58766747378032,347.202884914307,0.0
0.008,2.6680767290418097,-1.4872241871505252,10.0,0.0,2.325877945545995,5.209220346273558,59.45942083902103,347.202884914307,0.0
0.009000000000000001,2.8266491704841292,-1.5730794701170803,10.0,0.0,2.772378685460125,5.636635464737965,67.35059094018146,347.202884914307,0.0
0.01,2.962077666392183,-1.645500646948331,10.0,0.0,3.224078639851053,6.052647735211881,75.20908322432116,347.202884914307,0.0
0.011,3.0811061533574158,-1.7084279320504514,10.0,0.0,3.678407615443203,6.460489925470405,83.0265951655913,347.202884914307,0.0
0.012,3.188848746459569,-1.7638278597420747,10.0,0.0,4.133552631697047,6.862319393890706,90.74118064793086,347.202884914307,0.0
0.013000000000000001,3.288205119878689,-1.8140726097274587,10.0,0.0,4.588339016389012,7.259628641949282,98.35820682563939,347.202884914307,0.0
0.014,3.3820602099432007,-1.8592355758795645,10.0,0.0,5.041843166194517,7.653355107498287,105.90865295623543,347.202884914307,0.0
0.015,3.4721069852858886,-1.899829032412081,10.0,0.0,5.493383198131427,8.044092747085895,113.37727610343421,347.202884914307,0.0
0.016,3.5596145800153947,-1.9360338400176071,10.0,0.0,5.94241958510469,8.43218525824161,120.68508583176356,347.202884914307,0.0
0.017,3.645144415105338,-1.9685384477868613,10.0,0.0,6.388575043274759,8.817838951066484,127.83962377537456,347.202884914307,0.0
0.018000000000000002,3.730251927866576,-1.9959253041084188,10.0,0.0,6.83136783302799,9.201036292373047,134.85405702603322,347.202884914307,0.0
0.019,3.81544967906247,-2.018253592643655,10.0,0.0,7.270383321112213,9.581672501020332,141.68976328564074,347.202884914307,0.0
0.02,3.9014648862453374,-2.0350875541282063,10.0,0.0,7.705189334130692,9.959536942333155,148.3432823300447,347.202884914307,0.0
0.021,3.9891051824829464,-2.0457889559126508,10.0,0.0,8.135310004560049,10.334315260302239,154.92060212100432,347.202884914307,0.0
0.022,4.079618141396171,-2.0489696811670974,10.0,0.0,8.560139305503519,10.705547790999272,161.01925282597162,347.202884914307,0.0
0.023,4.171109372430197,-2.048468292080302,10.0,0.0,8.979521969370257,11.072981092896333,166.534238406907,347.202884914307,0.0
0.024,4.266936196769627,-2.039517194249811,10.0,0.0,9.392730090169543,11.435983292623375,171.8647834235234,347.202884914307,0.0
0.025,4.367255527950721,-2.0225841458509217,10.0,0.0,9.79914449451603,11.793929226271104,177.02637022703064,347.202884914307,0.0
0.026000000000000002,4.4734353073349595,-1.9962166741499119,10.0,0.0,10.197980960389518,12.146045424568259,181.63161391243256,347.202884914307,0.0
0.027,4.582366840795821,-1.966358349113627,10.0,0.0,10.589124658468391,12.491912978736195,185.74793639675826,347.202884914307,0.0
0.028,4.700058850757774,-1.9240450691803936,10.0,0.0,10.971384864613876,12.830451341534015,189.43662766964098,347.202884914307,0.0
0.029,4.820934284790598,-1.879137197786803,10.0,0.0,11.344756153370636,13.161242511022618,192.73598774770625,347.202884914307,0.0
0.03,4.952016225740939,-1.821000614527957,10.0,0.0,11.707923484756042,13.483081433273819,195.59831968863915,347.202884914307,0.0
0.031,5.086039273572549,-1.7621311371320891,10.0,0.0,12.061063698547066,13.79562148058647,197.80891551030922,347.202884914307,0.0
0.032,5.230431844273564,-1.6911110488141978,10.0,0.0,12.40292038074925,14.097678592248165,200.4421589734679,347.202884914307,0.0
0.033,5.380124186618445,-1.6166151787533525,10.0,0.0,12.733312761073865,14.38869342901298,201.91742172589852,347.202884914307,0.0
0.034,5.537594793894332,-1.535029134414507,10.0,0.0,13.051537880865839,14.667821176756876,203.18880493813168,347.202884914307,0.0
0.035,5.698947813469154,-1.4530296333491768,10.0,0.0,13.357649178779205,14.934684535625108,203.60405746232266,347.202884914307,0.0
0.036000000000000004,5.870474243492053,-1.3603000477825025,10.0,0.0,13.65045542338638,15.188218311291084,204.28541056101804,347.202884914307,0.0
0.037,6.041188711220851,-1.275010780747051,10.0,0.0,13.930879897581198,15.42861600670124,205.2233356988433,347.202884914307,0.0
0.038,6.228175208801664,-1.168399557236846,10.0,0.0,14.196427351981786,15.654155009933262,200.35169734043586,347.202884914307,0.0
0.039,6.404895489618571,-1.0845312562500289,10.0,0.0,14.449814560392067,15.86612549236809,209.64773540576442,347.202884914307,0.0
0.04,6.534612624563911,-1.0851225869390002,10.0,0.0,14.699963825590459,16.069735965364643,218.170241886545,347.202884914307,0.0
0.041,6.621487035821765,-1.1484636683301073,10.0,0.0,14.952420817214799,16.26974130369247,220.68166573712315,347.202884914307,0.0
0.042,6.6704785161669795,-1.2647840534085386,10.0,0.0,15.211794475054209,16.47047148862455,233.10654395573727,347.202884914307,0.0
0.043000000000000003,6.709376245503157,-1.3867642159960276,10.0,0.0,15.477558399636717,16.673277185423842,235.10815372853793,347.202884914307,0.0
0.044,6.744196093263161,-1.5028656568708394,10.0,0.0,15.74857785831126,16.87893749904121,248.8181267625822,347.202884914307,0.0
0.045,6.750563942850831,-1.6564343609015326,10.0,0.0,16.02879294551472,17.090781462187255,251.61117095327992,347.202884914307,0.0
0.046,6.764566527560506,-1.7840489455190416,10.0,0.0,16.314672837580048,17.307985931916857,266.60539535969383,347.202884914307,0.0
0.047,6.752169677737121,-1.9446655565152717,10.0,0.0,16.610076868775216,17.533561623207692,270.0627790167984,347.202884914307,0.0
0.048,6.7291903821171735,-2.110358990489937,10.0,0.0,16.91511817760721,17.768523902508925,283.13731951482634,347.202884914307,0.0
0.049,6.714097190323873,-2.246352557911731,10.0,0.0,17.22645394156277,18.011924542904307,294.70561782835244,347.202884914307,0.0
0.05,6.666841209228205,-2.4219663531358275,10.0,0.0,17.548953774962747,18.267165921658286,300.1294548425776,347.202884914307,0.0
0.051000000000000004,6.612335516543512,-2.59336894353628,10.0,0.0,17.88182590988993,18.53465621226123,310.75154600411304,347.202884914307,0.0
0.052000000000000005,6.568447424188529,-2.726701034625408,10.0,0.0,18.22111236450049,18.81296732052879,322.35703405819294,347.202884914307,0.0
0.053,6.5036136539679195,-2.8764091099274185,10.0,0.0,18.569435851849082,19.104068797231378,330.9557012510771,347.202884914307,0.0
0.054,6.434362099984388,-3.0149932598739144,10.0,0.0,18.925784313874168,19.407861808234543,339.4707232587175,347.202884914307,0.0
0.055,6.370891759459199,-3.1253006473392393,9.55395772547908,0.0,19.287625201918782,19.67413493606054,347.72905069303476,347.202884914307,0.0
0.056,6.291557358520066,-3.1940424778362044,5.41953235053317,0.0,19.64636784142155,19.507730552107606,353.6653261424997,347.202884914307,0.0
0.057,5.999377719448946,-3.1294871866288516,2.386770213518785,0.0,19.944807278240972,19.132927705466553,351.6815810619729,347.202884914307,0.0
0.058,5.566769490858039,-2.9366298714648473,3.3338557923055125,0.0,20.15535373495837,19.004621230962517,348.47252385860895,347.202884914307,0.0
0.059000000000000004,5.247278453343227,-2.73708235392462,4.92568800454447,0.0,20.31199324477584,19.106648668979766,347.9254481754085,347.202884914307,0.0
0.06,5.117639593587111,-2.567264653771262,5.192000213533671,0.0,20.446487075571824,19.23857869924148,351.58004414977444,347.202884914307,0.0
0.061,5.083143001599868,-2.421128912358733,3.3209306339960376,0.0,20.566347771760544,19.16478257023863,347.5505059309481,347.202884914307,0.0
0.062,4.9929242702421455,-2.247781842218089,5.332223533242806,0.0,20.649235965128753,19.359884132996935,337.51759517281425,347.202884914307,0.0
0.063,5.067154902663101,-2.0800695708742576,10.0,0.0,20.726630616289558,20.028039284287168,341.72766314280614,347.202884914307,0.0
0.064,5.44886486767731,-2.013976200533588,8.38633940624922,0.0,20.857508169439274,20.371692165756947,342.59314312763433,347.202884914307,0.0
0.065,5.75519329368401,-1.950354400618516,7.999696831701847,0.0,21.003325791133737,20.637794409921423,330.66561090056615,347.202884914307,0.0
0.066,6.049738187398506,-1.8015031986457701,10.0,0.0,21.145434460857356,21.08643131204864,333.0438215560125,347.202884914307,0.0
0.067,6.437606825064971,-1.6751709145183609,10.0,0.0,21.30578791458705,21.444692258046345,324.4255480445402,347.202884914307,0.0
0.068,6.812494407443566,-1.5586424007002848,10.0,0.0,21.474377303864827,21.745803507132276,323.7641643045817,347.202884914307,0.0
0.069,7.201512810255958,-1.380547280476043,10.0,0.0,21.637793701036934,21.994619421751814,312.5558585844065,347.202884914307,0.0
0.07,7.55214606312819,-1.2277335666848828,10.0,0.0,21.794721492638995,22.200215910838786,314.0765899831455,347.202884914307,0.0
0.07100000000000001,7.907355380863641,-1.0418201649900234,10.0,0.0,21.93759381694103,22.365378837755088,303.3151558973956,347.202884914307,0.0
0.07200000000000001,8.262269673049449,-0.8374143353678213,10.0,0.0,22.062069694262988,22.492824225446878,310.5785638640528,347.202884914307,0.0
0.073,8.44346475256573,-0.9060691533490516,10.0,0.0,22.196438610896106,22.603590346276754,325.02486891677484,347.202884914307,0.0
0.074,8.497203088933949,-1.1371263059654146,10.0,0.0,22.35317698655687,22.712617480481615,333.79514185311655,347.202884914307,0.0
0.075,8.520165391530476,-1.366474235087526,10.0,0.0,22.52806193874932,22.824427268910124,345.07436634347226,347.202884914307,0.0
0.076,8.468411219102329,-1.672234145825261,7.5199305552465425,0.0,22.727979485455307,22.67565951678522,353.34127575621,347.202884914307,0.0
0.077,8.284534154181392,-1.8631825344743096,3.3250919404586465,0.0,22.910975225922215,22.14483767678128,362.30058299194536,347.202884914307,0.0
0.078,7.814110638271105,-1.9904425277877453,-1.3055386581854211,0.0,23.034678323720044,21.267884431222384,363.82567793312177,347.202884914307,0.0
0.079,7.103895457922244,-1.9600887958626851,-2.234314058961771,0.0,23.05370427673729,20.508557266579473,368.25556667139597,347.202884914307,0.0
0.08,6.371131526052306,-1.921312816819997,-4.659785245669761,0.0,22.99093309761308,19.643053217874666,369.0307426411753,347.202884914307,0.0
0.081,5.600339027046097,-1.8398842924863619,-5.265651807828122,0.0,22.839319253644533,18.892891381729562,368.54206386303406,347.202884914307,0.0
0.082,4.898422285473549,-1.756219082336143,-5.234704208244761,0.0,22.619461722585147,18.281550162960787,366.9481101984591,347.202884914307,0.0
0.083,4.3118628345515635,-1.6892359990559294,-4.635179628798812,0.0,22.353924335695503,17.832497912891867,364.5910284617757,347.202884914307,0.0
0.084,3.867380171402394,-1.6449266073391127,-3.630520195931785,0.0,22.06583126023188,17.54934193939898,361.9600058525557,347.202884914307,0.0
0.085,3.5708625165381394,-1.6260104512784819,-2.4625801007042742,0.0,21.77659421171584,17.41229118725894,358.7698351556407,347.202884914307,0.0
0.08600000000000001,3.408468431077414,-1.6306742207722655,-0.9831642546601085,0.0,21.50327796904231,17.425976320445933,355.1494486433787,347.202884914307,0.0
0.08700000000000001,3.3756926402400897,-1.6555107273809553,0.7475633641801611,0.0,21.261347241986854,17.58852859179635,351.6312823934376,347.202884914307,0.0
0.088,3.4662302641880016,-1.6987464828501249,2.4623625143594277,0.0,21.0643723828075,17.87166629709485,347.5733443124703,347.202884914307,0.0
0.089,3.6632554220874374,-1.7489516815499826,4.48762696086144,0.0,20.920498994378235,18.29165645242954,345.562175111558,347.202884914307,0.0
0.09,3.9726820938748078,-1.7961398615945774,5.509618659345062,0.0,20.837700608143273,18.715360013438403,348.0456098055318,347.202884914307,0.0
0.091,4.315057538731044,-1.8324683511517001,4.259474063445925,0.0,20.809076668683524,18.906110524972817,342.92046869026905,347.202884914307,0.0
0.092,4.545620275639433,-1.8127520083954534,6.86486878331768,0.0,20.799858091724435,19.352080309941353,333.3947854580252,347.202884914307,0.0
0.093,4.903256019805785,-1.7657128988812139,10.0,0.0,20.831181212339107,20.034307440864236,339.0072226030802,347.202884914307,0.0
0.094,5.4119678970579566,-1.771434645550035,9.006213616707136,0.0,20.928694517213312,20.458394407371195,335.42349919543113,347.202884914307,0.0
0.095,5.828545401324638,-1.7565992960898755,10.0,0.0,21.05717608234349,20.928341967013203,327.27176014551037,347.202884914307,0.0
0.096,6.294976180249713,-1.6517645651522206,10.0,0.0,21.2084207800163,21.30706345273201,328.8280282437222,347.202884914307,0.0
0.097,6.698184417472717,-1.5645096982615403,10.0,0.0,21.373863468445126,21.62334866134094,318.277886338215,347.202884914307,0.0
0.098,7.100454728874203,-1.4044551355697061,10.0,0.0,21.537656955664758,21.884331966049917,317.74198676532836,347.202884914307,0.0
0.099,7.4570766182688315,-1.2631737513192993,10.0,0.0,21.697229017992694,22.100390584290572,310.7770625015232,347.202884914307,0.0
0.1,7.832124914999275,-1.0549151201836517,10.0,0.0,21.840954100329494,22.27311145319355,301.240198540864,347.202884914307,0.0
0.101,8.162758939754026,-0.8962507049418491,10.0,0.0,21.972208261957668,22.410313483684195,313.6944460225011,347.202884914307,0.0
0.10200000000000001,8.393087377001207,-0.89182109376492,10.0,0.0,22.105156597395048,22.524890939438947,320.8202872464083,347.202884914307,0.0
0.10300000000000001,8.488279627053108,-1.0624035274817163,10.0,0.0,22.25507620868477,22.633137620028727,328.9947788966262,347.202884914307,0.0
0.10400000000000001,8.489712393774028,-1.339065500021976,10.0,0.0,22.42955551954676,22.746345911849723,344.0459862759495,347.202884914307,0.0
0.105,8.478475392469308,-1.5859783400392413,7.400179075697037,0.0,22.622301521181164,22.580951401712213,349.02500251457695,347.202884914307,0.0
0.106,8.266571468970376,-1.8209070489106043,4.8924497803805975,0.0,22.802606501214036,22.224715991081965,357.739161878263,347.202884914307,0.0
0.107,7.91232612710505,-1.9430888980468426,0.4300073288980055,0.0,22.94034815849687,21.493191191178283,364.97922194337735,347.202884914307,0.0
0.108,7.2869574280257705,-1.9921776294566804,-3.3677860739498655,0.0,22.995341112024786,20.540708290674893,365.41605478850516,347.202884914307,0.0
0.109,6.493647510232498,-1.9165623687313087,-3.7683341952557523,0.0,22.940777914155664,19.76390102022593,367.5095853932826,347.202884914307,0.0
0.11,5.742421336500288,-1.8463342112256536,-5.018166502434215,0.0,22.8070213643102,19.00054386439099,367.6519138093858,347.202884914307,0.0
0.111,5.035055853870754,-1.7684963576560806,-5.293820999436615,0.0,22.602444871548194,18.35262103890845,366.2280420393555,347.202884914307,0.0
0.112,4.423812179831817,-1.69835112251653,-4.772136685671949,0.0,22.34659614818448,17.86933781550009,363.95806821348697,347.202884914307,0.0
0.113,3.9488989665251104,-1.6504695702808576,-3.8047016057294822,0.0,22.063438456421768,17.556127074475555,361.38718621371225,347.202884914307,0.0
0.114,3.6240854525526736,-1.627027079943772,-2.6611036188361794,0.0,21.775175601318153,17.393023420539947,358.5466684971108,347.202884914307,0.0
0.115,3.436738081507607,-1.6281017118656378,-1.3542825963634755,0.0,21.499781300746122,17.367078254765847,355.0006696529351,347.202884914307,0.0
0.116,3.3721728033675293,-1.650015170312357,0.3407389783380932,0.0,21.251731647763794,17.494801045389345,351.4444733687353,347.202884914307,0.0
0.117,3.4340412167301433,-1.6879350591651525,2.0764212358936875,0.0,21.04521129233139,17.751470245985065,347.6007101462663,347.202884914307,0.0
0.11800000000000001,3.605758641866459,-1.7382727068278738,3.9943245948086057,0.0,20.890167834856165,18.137162805251698,344.83235115297833,347.202884914307,0.0
0.11900000000000001,3.8872945122414935,-1.7861286186086185,5.4022094290658735,0.0,20.793958752874396,18.575218289533403,346.410108458362,347.202884914307,0.0
0.12,4.229241651176784,-1.826931436914307,4.621258540933488,0.0,20.75518587841478,18.8250650445725,344.80323697666915,347.202884914307,0.0
0.121,4.485187433616244,-1.829253965565242,5.448690761156291,0.0,20.745122416873592,19.120142325088562,334.65890186203166,347.202884914307,0.0
0.122,4.768569549195907,-1.7689299478960792,10.0,0.0,20.758914162308002,19.848462650580114,337.17318051136994,347.202884914307,0.0
0.123,5.282014358328458,-1.7705314120734328,9.476529905378069,0.0,20.84493816698433,20.348590207420322,338.1004299407554,347.202884914307,0.0
0.124,5.734358264774707,-1.7760561136770476,9.103929740420842,0.0,20.97296422941167,20.726932710227302,326.54855930297646,347.202884914307,0.0
0.125,6.149578028330664,-1.6837493208022014,10.0,0.0,21.115812941644705,21.1413865642729,329.2047384750592,347.202884914307,0.0
0.126,6.569890548715324,-1.577415083174757,10.0,0.0,21.27504846984872,21.4776370219347,318.9769967854861,347.202884914307,0.0
0.127,6.960956958184695,-1.4545231827577636,10.0,0.0,21.439530724328932,21.757371806812944,319.8173641558194,347.202884914307,0.0
0.128,7.3423306452157755,-1.2909862783569865,10.0,0.0,21.59877809136902,21.987540897172657,308.3891004190314,347.202884914307,0.0
0.129,7.706719930764739,-1.1130075618108304,10.0,0.0,21.747175340965,22.174348730660327,305.68869112213196,347.202884914307,0.0
0.13,8.043111617328757,-0.9545465199927081,10.0,0.0,21.883762721515623,22.32395631309228,308.7929460341894,347.202884914307,0.0
0.131,8.346715065851708,-0.8347959619270644,10.0,0.0,22.010064171285343,22.442229412864222,313.75310318719283,347.202884914307,0.0
0.132,8.450124083602912,-1.008763411673558,10.0,0.0,22.155896711108053,22.552966390168525,329.4175723387469,347.202884914307,0.0
0.133,8.476017468956787,-1.2611635466400988,10.0,0.0,22.32424403502777,22.665398741513258,336.38422105133697,347.202884914307,0.0
0.134,8.475669227449531,-1.5046273436324977,10.0,0.0,22.511256878009497,22.783719830534835,351.1561813088956,347.202884914307,0.0
0.135,8.41122817509589,-1.808298355200634,3.4827407692698973,0.0,22.722369718897767,22.199096612915934,353.18239533506437,347.202884914307,0.0
0.136,7.9936748738637196,-1.9008335164213093,2.4098386519779442,0.0,22.86105111155393,21.686486813164947,363.3830894971634,347.202884914307,0.0
0.137,7.46028346158567,-1.9854433840577532,-2.8523104749001265,0.0,22.942985118797164,20.725396272209256,363.5014493350319,347.202884914307,0.0
0.138,6.691349424831937,-1.921174413135251,-3.074476038041637,0.0,22.912700985742678,19.97604029531681,366.5938930650098,347.202884914307,0.0
0.139,5.956375974223144,-1.8651184964547862,-4.814607984537616,0.0,22.804986207178757,19.18255638352445,367.0488647882707,347.202884914307,0.0
0.14,5.232429676869716,-1.789773000028186,-5.240553644907695,0.0,22.620967069851883,18.500481040081972,365.9562189827174,347.202884914307,0.0
0.14100000000000001,4.592105675956574,-1.7165283827690647,-4.881764082815161,0.0,22.37983885897921,17.97513380281185,363.99226004154445,347.202884914307,0.0
0.14200000000000002,4.079861593578059,-1.663586243144053,-4.067678363501055,0.0,22.105197556280622,17.614113610737597,361.57323209301074,347.202884914307,0.0
0.14300000000000002,3.7129353461894077,-1.6337999386634163,-3.001867861021238,0.0,21.819171292547868,17.406069052069526,358.8959040746135,347.202884914307,0.0
0.14400000000000002,3.485168389805481,-1.6278904560453107,-1.7801340434256794,0.0,21.540591019278374,17.335344040534036,355.513647772612,347.202884914307,0.0
0.145,3.3811437672514137,-1.6443704193499085,-0.1721135210079754,0.0,21.284668162971975,17.417663461032248,351.9377113900309,347.202884914307,0.0
