timestamp,iq,id,iq_ref,id_ref,vq,vd,omega,omega_ref,r
0.0,0.0,0.0,0.0,0.0,0.0,0.0,0.0,160.13358520552333,0.0
0.001,0.0,0.0,10.0,0.0,0.0,1.0999999999999999,6.115472199294103,160.13358520552333,0.0
0.002,0.5307369851907212,-0.2913212625381807,10.0,0.0,0.14204533887919985,1.9316189316290207,13.317801563642547,160.13358520552333,0.0
0.003,1.0842913387634832,-0.6024330830807904,10.0,0.0,0.384357124667687,2.6386968949419622,20.697939467553027,160.13358520552333,0.0
0.004,1.5590443546685477,-0.8700465084428163,10.0,0.0,0.6994718867930164,3.2526109522886295,28.232747544420146,160.13358520552333,0.0
0.005,1.9399447555359186,-1.0838738622210777,10.0,0.0,1.065311453102468,3.7994935661768023,35.92944872443006,160.13358520552333,0.0
0.006,2.239750732602683,-1.2510087368845633,10.0,0.0,1.4655018868449925,4.299102221838433,43.75633668444442,160.13358520552333,0.0
0.007,2.4770151619816017,-1.382020589851471,10.0,0.0,1.8883740978591532,4.765668027847139,51.58766747378032,160.13358520552333,0.0
0.008,2.6680767290418097,-1.4872241871505252,10.0,0.0,2.325877945545995,5.209220346273558,59.45942083902103,160.13358520552333,0.0
0.009000000000000001,2.8266491704841292,-1.5730794701170803,10.0,0.0,2.772378685460125,5.636635464737965,67.35059094018146,160.13358520552333,0.0
0.01,2.962077666392183,-1.645500646948331,10.0,0.0,3.224078639851053,6.052647735211881,75.20908322432116,160.13358520552333,0.0
0.011,3.0811061533574158,-1.7084279320504514,10.0,0.0,3.678407615443203,6.460489925470405,83.0265951655913,160.13358520552333,0.0
0.012,3.188848746459569,-1.7638278597420747,10.0,0.0,4.133552631697047,6.862319393890706,90.74118064793086,160.13358520552333,0.0
0.013000000000000001,3.288205119878689,-1.8140726097274587,10.0,0.0,4.588339016389012,7.259628641949282,98.35820682563939,160.13358520552333,0.0
0.014,3.3820602099432007,-1.8592355758795645,10.0,0.0,5.041843166194517,7.653355107498287,105.90865295623543,160.13358520552333,0.0
0.015,3.4721069852858886,-1.899829032412081,10.0,0.0,5.493383198131427,8.044092747085895,113.37727610343421,160.13358520552333,0.0
0.016,3.5596145800153947,-1.9360338400176071,10.0,0.0,5.94241958510469,8.43218525824161,120.68508583176356,160.13358520552333,0.0
0.017,3.645144415105338,-1.9685384477868613,10.0,0.0,6.388575043274759,8.817838951066484,127.83962377537456,160.13358520552333,0.0
0.018000000000000002,3.730251927866576,-1.9959253041084188,10.0,0.0,6.83136783302799,9.201036292373047,134.85405702603322,160.13358520552333,0.0
0.019,3.81544967906247,-2.018253592643655,10.0,0.0,7.270383321112213,9.581672501020332,141.68976328564074,160.13358520552333,0.0
0.02,3.9014648862453374,-2.0350875541282063,10.0,0.0,7.705189334130692,9.959536942333155,148.3432823300447,160.13358520552333,0.0
0.021,3.9891051824829464,-2.0457889559126508,9.05733299527175,0.0,8.135310004560049,10.230621889782133,154.20050695598766,160.13358520552333,0.0
0.022,4.029883095992698,-2.0232544114738875,6.188051464795626,0.0,8.546941288785256,10.207806943700358,157.7291971255256,160.13358520552333,0.0
0.023,3.922269182745027,-1.9111923815506415,4.447750260826641,0.0,8.903026472132597,10.077941613109793,160.19153340743665,160.13358520552333,0.0
0.024,3.7306329863282985,-1.740626681383965,3.2160026378519766,0.0,9.19287499736705,9.898585949898864,159.8259508186324,160.13358520552333,0.0
0.025,3.495380106218258,-1.563050385855046,3.4018702761230077,0.0,9.417975368250447,9.822875076819969,156.20642157525202,160.13358520552333,0.0
0.026000000000000002,3.333438641557457,-1.387613016786148,5.250906534115913,0.0,9.595472267095323,9.9942416724454,161.98072449112578,160.13358520552333,0.0
0.027,3.3203420370898438,-1.3009776576028953,2.345283683323008,0.0,9.764580619798787,9.827933634070455,159.95264308414758,160.13358520552333,0.0
0.028,3.1940309653730146,-1.182199555657112,3.361133808025867,0.0,9.887948095772208,9.84973022887277,157.5722777139871,160.13358520552333,0.0
0.029,3.157299580057185,-1.0633735266908388,4.576929568021474,0.0,9.989275401461688,10.00804028581226,161.3923323109729,160.13358520552333,0.0
0.03,3.2032359904285874,-1.0205047306438901,2.654314798474072,0.0,10.092773675000663,9.931586166382562,157.1840583859395,160.13358520552333,0.0
0.031,3.1771820066655048,-0.933310840130433,4.787947029186615,0.0,10.16911406924676,10.130378281641233,159.88620070657691,160.13358520552333,0.0
0.032,3.2720226982876204,-0.8928197088069681,3.4393497138573688,0.0,10.254117550053671,10.136550181889252,156.85548389977214,160.13358520552333,0.0
0.033,3.3037196557551525,-0.8445676268670179,4.987489130317268,0.0,10.326335055104533,10.331848290751825,158.95431548622037,160.13358520552333,0.0
0.034,3.429299363590691,-0.808434197634472,3.9498660342861847,0.0,10.40736846414038,10.37172160621798,155.79684276177179,160.13358520552333,0.0
0.035,3.490601183786426,-0.7756001481201553,5.571969820947991,0.0,10.481035452665013,10.599031175391037,158.4823190584316,160.13358520552333,0.0
0.036000000000000004,3.6458443749096765,-0.753278243702949,4.245744334088993,0.0,10.56793963026374,10.632406912256544,154.23787245506298,160.13358520552333,0.0
0.037,3.7228282878744254,-0.7138621993332073,6.426924763277912,0.0,10.645378417952642,10.917411796759852,158.1154907152126,160.13358520552333,0.0
0.038,3.906491807805822,-0.7164080248528755,4.508296578106218,0.0,10.744248016573849,10.92936601885814,154.1104948109709,160.13358520552333,0.0
0.039,3.9964938745970295,-0.65881830915571,6.57102543417259,0.0,10.828065750560878,11.188034642480021,155.89669069417133,160.13358520552333,0.0
0.04,4.163732972722103,-0.6656390416984055,5.720296437685893,0.0,10.930694751248058,11.297514418838366,156.42746009580023,160.13358520552333,0.0
0.041,4.305486859011118,-0.6207268034043174,5.491972987968673,0.0,11.029000275964576,11.375780291615026,151.62948718925657,160.13358520552333,0.0
0.042,4.407697098987411,-0.5804941660348049,7.976000421403173,0.0,11.121325367759407,11.721750794226141,157.17861455228422,160.13358520552333,0.0
0.043000000000000003,4.625682910021776,-0.6156497048815228,5.230986446421738,0.0,11.243284436282703,11.692608607359308,159.9889373933024,160.13358520552333,0.0
0.044,4.668974904172664,-0.6273623715622139,3.8272715040348593,0.0,11.35107021721339,11.54903578087249,159.04713476439926,160.13358520552333,0.0
0.045,4.578814463958404,-0.6321457489520608,4.309037322897667,0.0,11.4341291822484,11.50798077299127,164.39385900866674,160.13358520552333,0.0
0.046,4.4982364487420305,-0.6590541293797791,1.593072462732494,0.0,11.507688838064944,11.183725346866545,163.7205087088058,160.13358520552333,0.0
0.047,4.294611685659357,-0.6071262751831039,1.8938783776301404,0.0,11.535485837921449,10.981092671963268,164.39548497453552,160.13358520552333,0.0
0.048,4.095970105498989,-0.5981348272486777,1.5137712470751556,0.0,11.53977008957115,10.776497447212755,166.46819968616575,160.13358520552333,0.0
0.049,3.922267074113703,-0.5741368034061622,0.4140677464536182,0.0,11.520616525437504,10.492744773990225,165.68769032955922,160.13358520552333,0.0
0.05,3.704869731010171,-0.5608002113834891,0.7487813735165245,0.0,11.4737760055109,10.305444223087253,166.45945463890206,160.13358520552333,0.0
0.051000000000000004,3.5381485799387935,-0.5550635473328087,0.2996405245113163,0.0,11.412391815361309,10.09560239880753,166.7859626436974,160.13358520552333,0.0
0.052000000000000005,3.3717464299478985,-0.564542327520084,0.06986274773191115,0.0,11.337261894259813,9.896459215973426,166.67395526142442,160.13358520552333,0.0
0.053,3.220206831511942,-0.5704337256618208,0.06046273830938231,0.0,11.250283912978771,9.725986470371941,166.9634427695774,160.13358520552333,0.0
0.054,3.0848333041100697,-0.5917176654182774,-0.15257959140764488,0.0,11.157238774657483,9.5538982370577,166.74267959164175,160.13358520552333,0.0
0.055,2.9592507197345417,-0.6101776071440641,-0.10828894630100327,0.0,11.058107081029165,9.409177056508945,166.87688298378634,160.13358520552333,0.0
0.056,2.84869488380752,-0.6381738427952182,-0.2428236201559324,0.0,10.957311425213177,9.264678420185342,166.65333128323746,160.13358520552333,0.0
0.057,2.745288031955358,-0.6646355626216573,-0.19624523065863286,0.0,10.854776298170822,9.141288246840222,166.60502516878296,160.13358520552333,0.0
0.058,2.653833731504048,-0.6954013412233239,-0.23680657306397634,0.0,10.753275284946112,9.024081951096939,166.41501585003527,160.13358520552333,0.0
0.059000000000000004,2.569610277698157,-0.725847171367519,-0.2046162201352537,0.0,10.653245126999387,8.920742772765863,166.24889672872143,160.13358520552333,0.0
0.06,2.4939730977921624,-0.7572910422590852,-0.18270977471031413,0.0,10.55603843451086,8.827300157192276,166.0456225002042,160.13358520552333,0.0
0.061,2.4255539759995077,-0.7884170663135994,-0.14019303339850087,0.0,10.462317573650907,8.744708642615377,165.8350132067037,160.13358520552333,0.0
0.062,2.3641276386563814,-0.8190859694197575,-0.0919026666600633,0.0,10.372771966520391,8.6719636722281,165.61393749389407,160.13358520552333,0.0
0.063,2.3091225129238304,-0.8487453468280276,-0.036168333138952846,0.0,10.287862265548048,8.60862281164359,165.39433099260526,160.13358520552333,0.0
0.064,2.260089232398694,-0.8770224752522268,0.021027459634632262,0.0,10.207923338967067,8.553702870490614,165.1889418018753,160.13358520552333,0.0
0.065,2.216449754888601,-0.9033973241224524,0.07316848903609241,0.0,10.133104773020367,8.505754595822125,165.03017290364562,160.13358520552333,0.0
0.066,2.17743451099948,-0.9271539669846195,0.10358706116971028,0.0,10.063322718427628,8.461799206719201,164.97871238679127,160.13358520552333,0.0
0.067,2.142042081680799,-0.9462469009509148,0.08086604778420492,0.0,9.997985986691539,8.415960668659714,164.89461967032062,160.13358520552333,0.0
0.068,2.1056959164879396,-0.9614315198044148,0.07530206137155693,0.0,9.93607845305733,8.371431636739057,164.50042315560557,160.13358520552333,0.0
0.069,2.06923325183233,-0.9730394929778039,0.22873193922825896,0.0,9.877033800455022,8.345745112535607,164.0004534320966,160.13358520552333,0.0
0.07,2.042227576667537,-0.9848678018124015,0.44004811871701,0.0,9.822509994932666,8.34103925407903,163.53796159608973,160.13358520552333,0.0
0.07100000000000001,2.0278885225421464,-1.000265975538846,0.6372502728147844,0.0,9.77454350013845,8.35223791527389,162.84344903681375,160.13358520552333,0.0
0.07200000000000001,2.0268193040314224,-1.014744673625586,0.957407914139869,0.0,9.733932195995418,8.390739603369546,162.5490497462857,160.13358520552333,0.0
0.073,2.0434457952917495,-1.0313339654500389,1.080452913996269,0.0,9.70291222619608,8.429823759588546,162.018171713601,160.13358520552333,0.0
0.074,2.0645169168568827,-1.0465167281302397,1.3270460652578482,0.0,9.680406879975148,8.485640741386357,163.36691240558207,160.13358520552333,0.0
0.075,2.095960314976716,-1.0587841909512512,0.6203424472667218,0.0,9.666931359839607,8.450174098313132,163.88693582417477,160.13358520552333,0.0
0.076,2.078485989281332,-1.0564095099773763,0.32279723178385744,0.0,9.650872837874957,8.393480239818153,161.56109219332092,160.13358520552333,0.0
0.077,2.0420860534406344,-1.030197650190272,1.4714439773328083,0.0,9.627891224490437,8.474005758826952,160.155000002522,160.13358520552333,0.0
0.078,2.070454006548182,-1.0252526929722847,2.1742759247622794,0.0,9.614978497649133,8.606521137157927,161.63791957039967,160.13358520552333,0.0
0.079,2.1452808749237424,-1.0392572411622727,1.4177727971746794,0.0,9.618198531198141,8.62630276547251,163.01898667921733,160.13358520552333,0.0
0.08,2.172437901090014,-1.0403522417648603,0.6983852280289091,0.0,9.623055128808089,8.57062162878584,160.1061140292916,160.13358520552333,0.0
0.081,2.151742194435446,-1.0085584475390648,2.155096264754092,0.0,9.618349685617517,8.690974453253729,158.11829952078074,160.13358520552333,0.0
0.082,2.209261060663449,-0.9973530123622033,3.169156375856951,0.0,9.625235409265587,8.889266920458205,160.98588444142868,160.13358520552333,0.0
0.083,2.325037393545226,-1.0199170078444566,1.726840923173926,0.0,9.653855901124112,8.887463204446163,161.67247772190797,160.13358520552333,0.0
0.084,2.3551445264614266,-1.0112888298623972,1.3681553577704362,0.0,9.67825923266274,8.861515630261666,157.77990056909857,160.13358520552333,0.0
0.085,2.356413255666311,-0.9666423813241877,3.3379807805393815,0.0,9.692802646069667,9.06103230992472,158.57105523370973,160.13358520552333,0.0
0.08600000000000001,2.4629444754041847,-0.959892423185518,2.9580287479519396,0.0,9.725547355192338,9.168852938270737,161.20846449032325,160.13358520552333,0.0
0.08700000000000001,2.546984719071392,-0.962928122896449,1.6285753267971788,0.0,9.76620108278693,9.118546504087252,156.79120703604573,160.13358520552333,0.0
0.088,2.5518695675135343,-0.9200359115258003,3.8706278356307138,0.0,9.793010293955836,9.337559465372852,157.45390351772204,160.13358520552333,0.0
0.089,2.674935117979077,-0.9080488275167415,3.566076411670574,0.0,9.838150223009123,9.467942507856044,159.73515636050777,160.13358520552333,0.0
0.09,2.775184649311019,-0.9148927521124478,2.4294342787278627,0.0,9.892687165951017,9.45801932567029,155.27400378589007,160.13358520552333,0.0
0.091,2.812352580311209,-0.8705105251534238,4.708606380233045,0.0,9.935827612168694,9.713531531395596,157.9781980725266,160.13358520552333,0.0
0.092,2.960911954703644,-0.87040031911971,3.3780631082447514,0.0,10.000636933943017,9.76268522836321,156.41897503406258,160.13358520552333,0.0
0.093,3.031894351231569,-0.8566721044758778,4.194820729191365,0.0,10.062371691686186,9.910230788961357,155.69714901337522,160.13358520552333,0.0
0.094,3.149448834374955,-0.8215053306102273,4.600098101456526,0.0,10.128956466736073,10.073387034833216,157.28320774193165,160.13358520552333,0.0
0.095,3.265712325915611,-0.8242753226188575,3.8355725118142305,0.0,10.205854755727756,10.127122105801531,153.4287296763547,160.13358520552333,0.0
0.096,3.3510941274136785,-0.7746096866008945,5.829860099894395,0.0,10.27494580303504,10.401961025908044,157.4319115760886,160.13358520552333,0.0
0.097,3.51742549553622,-0.7908289536302334,3.8552858863217905,0.0,10.366892413355664,10.401636486882348,153.16650718696326,160.13358520552333,0.0
0.098,3.5920918624727447,-0.7345381631441776,6.05765886107006,0.0,10.443257729117887,10.665995845467533,156.399463196469,160.13358520552333,0.0
0.099,3.7530824700800234,-0.7420148956433954,4.478522076407739,0.0,10.539807797642181,10.698864720542641,153.18820327508595,160.13358520552333,0.0
0.1,3.847710597319276,-0.6843773263168145,6.153605856403629,0.0,10.623574846870643,10.929353110688595,154.44400878107214,160.13358520552333,0.0
0.101,3.9979025781891626,-0.6884634161577168,5.5825988676550455,0.0,10.723039875766622,11.050032923557206,155.26304456132243,160.13358520552333,0.0
0.10200000000000001,4.136857494211738,-0.6464128766991579,5.22178638397191,0.0,10.819959962821008,11.120828833757107,150.51876616836736,160.13358520552333,0.0
0.10300000000000001,4.230823766734594,-0.6079513621149384,7.690073770821003,0.0,10.91045737098027,11.460410158215401,154.37642155528474,160.13358520552333,0.0
0.10400000000000001,4.4482962003931625,-0.6287970706417538,5.8188177138647035,0.0,11.028540813853226,11.521579745932891,156.42712318007898,160.13358520552333,0.0
0.105,4.577234613565569,-0.5871416238389102,4.830531521722025,0.0,11.136142314977057,11.486433297487421,155.17521037090825,160.13358520552333,0.0
0.106,4.572640147750042,-0.5979322328814813,5.506071674653542,0.0,11.231072542606663,11.551548698114209,160.03193466492843,160.13358520552333,0.0
0.107,4.570976706552084,-0.6541127201796904,3.0787260330494006,0.0,11.32909323504837,11.346019193209122,161.98054403332472,160.13358520552333,0.0
0.108,4.453440984925925,-0.6304039666262125,2.0859517605732414,0.0,11.393589139991533,11.09882528944928,161.24360179756707,160.13358520552333,0.0
0.109,4.257659094325614,-0.6119619403280664,2.4433227125316304,0.0,11.425124528707132,10.952399564749692,165.7012684358684,160.13358520552333,0.0
0.11,4.104391902131809,-0.600389364886087,0.15881256107751263,0.0,11.437775243045577,10.583801697447404,162.88112362783127,160.13358520552333,0.0
0.111,3.852188366383278,-0.555090851897722,1.541409580872997,0.0,11.407433988545645,10.454469179011632,166.6046965810694,160.13358520552333,0.0
0.112,3.691035935254921,-0.5626227611472621,-0.3850880095015228,0.0,11.368475102799469,10.124499813896925,163.84795239677712,160.13358520552333,0.0
0.113,3.4725954298560495,-0.5282161485822969,0.9561404107320759,0.0,11.296555122641792,10.01284853013111,165.49274719255007,160.13358520552333,0.0
0.114,3.3375960946745233,-0.5541793102428595,0.08015139297533214,0.0,11.223862026031613,9.808064822386505,164.82239138123396,160.13358520552333,0.0
0.115,3.1967997478065704,-0.559684288122827,0.3684412368762833,0.0,11.138305784258188,9.671099553565679,165.41329235261455,160.13358520552333,0.0
0.116,3.0801367012499856,-0.5913092323588689,0.02019367971507524,0.0,11.051032333867182,9.509510029375392,165.0932475387242,160.13358520552333,0.0
0.117,2.9667715414884013,-0.6123706033363608,0.13061946332824093,0.0,10.958327777461413,9.382284961442302,165.45600226215265,160.13358520552333,0.0
0.11800000000000001,2.866878138220824,-0.6461312582903059,-0.1039820689522788,0.0,10.865674228238072,9.241456141036775,165.2628188731696,160.13358520552333,0.0
0.11900000000000001,2.768389380531843,-0.6721863372858287,-0.05868271113721946,0.0,10.770731604036481,9.122608621745039,165.35308240807592,160.13358520552333,0.0
0.12,2.6785568198508787,-0.7037551875203493,-0.15600945061590155,0.0,10.676610513061714,9.003889351139527,165.1824807728636,160.13358520552333,0.0
0.121,2.5930262483099495,-0.7319047084185288,-0.12119758868315111,0.0,10.582810362920332,8.900942507967171,165.1072866836427,160.13358520552333,0.0
0.122,2.5154393487878557,-0.7620384806909765,-0.1333375588538943,0.0,10.491128763216835,8.804906071991825,164.9321434199168,160.13358520552333,0.0
0.123,2.4439805887485004,-0.7908728898572448,-0.09375150913487174,0.0,10.401882127171724,8.720865579423572,164.77373472102985,160.13358520552333,0.0
0.124,2.3796816057812533,-0.8198514834610677,-0.060948654846464834,0.0,10.316055406679055,8.645875226508176,164.58240174346088,160.13358520552333,0.0
0.125,2.3217730895478637,-0.8478121983685752,-0.009770331441352198,0.0,10.234098215647899,8.580829770822724,164.39555423883314,160.13358520552333,0.0
0.126,2.2701950840042127,-0.8748306755651108,0.0410337305394175,0.0,10.156524623493855,8.524264300634009,164.21256195009087,160.13358520552333,0.0
0.127,2.224317573284033,-0.900239699640271,0.09174010746487715,0.0,10.083576651412653,8.475198425214534,164.0685031107674,160.13358520552333,0.0
0.128,2.1834913348513476,-0.9234775944999721,0.12442034807416791,0.0,10.015318967191433,8.430864213947045,164.06324059923367,160.13358520552333,0.0
0.129,2.146942016636254,-0.942361467022827,0.08775504990393612,0.0,9.951298477294507,8.383389832798704,163.98407554507176,160.13358520552333,0.0
0.13,2.1089440788507687,-0.9574571479106632,0.08883267358940428,0.0,9.890404284444873,8.338560312336858,163.65512849699456,160.13358520552333,0.0
0.131,2.071711554119729,-0.9687918091096668,0.21809076471329059,0.0,9.832212414757022,8.310047536765563,163.1908658155799,160.13358520552333,0.0
0.132,2.04262019668507,-0.9804279741427714,0.4196492993200509,0.0,9.778155086022485,8.30227343374862,162.75717601799565,160.13358520552333,0.0
0.133,2.025966237400426,-0.9951840843055327,0.61025828998746,0.0,9.73023289032728,8.310363433734231,162.1027350579686,160.13358520552333,0.0
0.134,2.022013818682373,-1.0098880483714157,0.9177872714765303,0.0,9.689381789145775,8.345042538675024,161.73561471630111,160.13358520552333,0.0
0.135,2.035830028571626,-1.0259225418378741,1.085327147202496,0.0,9.65770046321715,8.385963412243548,161.5012595309918,160.13358520552333,0.0
0.136,2.056835949573473,-1.0419303274063885,1.188827996602467,0.0,9.634879868716116,8.427161271327794,162.3697050019122,160.13358520552333,0.0
0.137,2.081203577180273,-1.0512579342699613,0.7322440631783826,0.0,9.619327078472917,8.408227664056126,163.24677114943592,160.13358520552333,0.0
