timestamp,iq,id,iq_ref,id_ref,vq,vd,omega,omega_ref,r
0.0,0.0,0.0,0.0,0.0,0.0,0.0,0.0,369.80425417616595,0.0
0.001,0.0,0.0,10.0,0.0,0.0,1.0999999999999999,6.115472199294103,369.80425417616595,0.0
0.002,0.5307369851907212,-0.2913212625381807,10.0,0.0,0.14204533887919985,1.9316189316290207,13.317801563642547,369.80425417616595,0.0
0.003,1.0842913387634832,-0.6024330830807904,10.0,0.0,0.384357124667687,2.6386968949419622,20.697939467553027,369.80425417616595,0.0
0.004,1.5590443546685477,-0.8700465084428163,10.0,0.0,0.6994718867930164,3.2526109522886295,28.232747544420146,369.80425417616595,0.0
0.005,1.9399447555359186,-1.0838738622210777,10.0,0.0,1.065311453102468,3.7994935661768023,35.92944872443006,369.80425417616595,0.0
0.006,2.239750732602683,-1.2510087368845633,10.0,0.0,1.4655018868449925,4.299102221838433,43.75633668444442,369.80425417616595,0.0
0.007,2.4770151619816017,-1.382020589851471,10.0,0.0,1.8883740978591532,4.765668027847139,51.58766747378032,369.80425417616595,0.0
0.008,2.6680767290418097,-1.4872241871505252,10.0,0.0,2.325877945545995,5.209220346273558,59.45942083902103,369.80425417616595,0.0
0.009000000000000001,2.8266491704841292,-1.5730794701170803,10.0,0.0,2.772378685460125,5.636635464737965,67.35059094018146,369.80425417616595,0.0
0.01,2.962077666392183,-1.645500646948331,10.0,0.0,3.224078639851053,6.052647735211881,75.20908322432116,369.80425417616595,0.0
0.011,3.0811061533574158,-1.7084279320504514,10.0,0.0,3.678407615443203,6.460489925470405,83.0265951655913,369.80425417616595,0.0
0.012,3.188848746459569,-1.7638278597420747,10.0,0.0,4.133552631697047,6.862319393890706,90.74118064793086,369.80425417616595,0.0
0.013000000000000001,3.288205119878689,-1.8140726097274587,10.0,0.0,4.588339016389012,7.259628641949282,98.35820682563939,369.80425417616595,0.0
0.014,3.3820602099432007,-1.8592355758795645,10.0,0.0,5.041843166194517,7.653355107498287,105.90865295623543,369.80425417616595,0.0
0.015,3.4721069852858886,-1.899829032412081,10.0,0.0,5.493383198131427,8.044092747085895,113.37727610343421,369.80425417616595,0.0
0.016,3.5596145800153947,-1.9360338400176071,10.0,0.0,5.94241958510469,8.43218525824161,120.68508583176356,369.80425417616595,0.0
0.017,3.645144415105338,-1.9685384477868613,10.0,0.0,6.388575043274759,8.817838951066484,127.83962377537456,369.80425417616595,0.0
0.018000000000000002,3.730251927866576,-1.9959253041084188,10.0,0.0,6.83136783302799,9.201036292373047,134.85405702603322,369.80425417616595,0.0
0.019,3.81544967906247,-2.018253592643655,10.0,0.0,7.270383321112213,9.581672501020332,141.68976328564074,369.80425417616595,0.0
0.02,3.9014648862453374,-2.0350875541282063,10.0,0.0,7.705189334130692,9.959536942333155,148.3432823300447,369.80425417616595,0.0
0.021,3.9891051824829464,-2.0457889559126508,10.0,0.0,8.135310004560049,10.334315260302239,154.92060212100432,369.80425417616595,0.0
0.022,4.079618141396171,-2.0489696811670974,10.0,0.0,8.560139305503519,10.705547790999272,161.01925282597162,369.80425417616595,0.0
0.023,4.171109372430197,-2.048468292080302,10.0,0.0,8.979521969370257,11.072981092896333,166.534238406907,369.80425417616595,0.0
0.024,4.266936196769627,-2.039517194249811,10.0,0.0,9.392730090169543,11.435983292623375,171.8647834235234,369.80425417616595,0.0
0.025,4.367255527950721,-2.0225841458509217,10.0,0.0,9.79914449451603,11.793929226271104,177.02637022703064,369.80425417616595,0.0
0.026000000000000002,4.4734353073349595,-1.9962166741499119,10.0,0.0,10.197980960389518,12.146045424568259,181.63161391243256,369.80425417616595,0.0
0.027,4.582366840795821,-1.966358349113627,10.0,0.0,10.589124658468391,12.491912978736195,185.74793639675826,369.80425417616595,0.0
0.028,4.700058850757774,-1.9240450691803936,10.0,0.0,10.971384864613876,12.830451341534015,189.43662766964098,369.80425417616595,0.0
0.029,4.820934284790598,-1.879137197786803,10.0,0.0,11.344756153370636,13.161242511022618,192.73598774770625,369.80425417616595,0.0
0.03,4.952016225740939,-1.821000614527957,10.0,0.0,11.707923484756042,13.483081433273819,195.59831968863915,369.80425417616595,0.0
0.031,5.086039273572549,-1.7621311371320891,10.0,0.0,12.061063698547066,13.79562148058647,197.80891551030922,369.80425417616595,0.0
0.032,5.230431844273564,-1.6911110488141978,10.0,0.0,12.40292038074925,14.097678592248165,200.4421589734679,369.80425417616595,0.0
0.033,5.380124186618445,-1.6166151787533525,10.0,0.0,12.733312761073865,14.38869342901298,201.91742172589852,369.80425417616595,0.0
0.034,5.537594793894332,-1.535029134414507,10.0,0.0,13.051537880865839,14.667821176756876,203.18880493813168,369.80425417616595,0.0
0.035,5.698947813469154,-1.4530296333491768,10.0,0.0,13.357649178779205,14.934684535625108,203.60405746232266,369.80425417616595,0.0
0.036000000000000004,5.870474243492053,-1.3603000477825025,10.0,0.0,13.65045542338638,15.188218311291084,204.28541056101804,369.80425417616595,0.0
0.037,6.041188711220851,-1.275010780747051,10.0,0.0,13.930879897581198,15.42861600670124,205.2233356988433,369.80425417616595,0.0
0.038,6.228175208801664,-1.168399557236846,10.0,0.0,14.196427351981786,15.654155009933262,200.35169734043586,369.80425417616595,0.0
0.039,6.404895489618571,-1.0845312562500289,10.0,0.0,14.449814560392067,15.86612549236809,209.64773540576442,369.80425417616595,0.0
0.04,6.534612624563911,-1.0851225869390002,10.0,0.0,14.699963825590459,16.069735965364643,218.170241886545,369.80425417616595,0.0
0.041,6.621487035821765,-1.1484636683301073,10.0,0.0,14.952420817214799,16.26974130369247,220.68166573712315,369.80425417616595,0.0
0.042,6.6704785161669795,-1.2647840534085386,10.0,0.0,15.211794475054209,16.47047148862455,233.10654395573727,369.80425417616595,0.0
0.043000000000000003,6.709376245503157,-1.3867642159960276,10.0,0.0,15.477558399636717,16.673277185423842,235.10815372853793,369.80425417616595,0.0
0.044,6.744196093263161,-1.5028656568708394,10.0,0.0,15.74857785831126,16.87893749904121,248.8181267625822,369.80425417616595,0.0
0.045,6.750563942850831,-1.6564343609015326,10.0,0.0,16.02879294551472,17.090781462187255,251.61117095327992,369.80425417616595,0.0
0.046,6.764566527560506,-1.7840489455190416,10.0,0.0,16.314672837580048,17.307985931916857,266.60539535969383,369.80425417616595,0.0
0.047,6.752169677737121,-1.9446655565152717,10.0,0.0,16.610076868775216,17.533561623207692,270.0627790167984,369.80425417616595,0.0
0.048,6.7291903821171735,-2.110358990489937,10.0,0.0,16.91511817760721,17.768523902508925,283.13731951482634,369.80425417616595,0.0
0.049,6.714097190323873,-2.246352557911731,10.0,0.0,17.22645394156277,18.011924542904307,294.70561782835244,369.80425417616595,0.0
0.05,6.666841209228205,-2.4219663531358275,10.0,0.0,17.548953774962747,18.267165921658286,300.1294548425776,369.80425417616595,0.0
0.051000000000000004,6.612335516543512,-2.59336894353628,10.0,0.0,17.88182590988993,18.53465621226123,310.75154600411304,369.80425417616595,0.0
0.052000000000000005,6.568447424188529,-2.726701034625408,10.0,0.0,18.22111236450049,18.81296732052879,322.35703405819294,369.80425417616595,0.0
0.053,6.5036136539679195,-2.8764091099274185,10.0,0.0,18.569435851849082,19.104068797231378,330.9557012510771,369.80425417616595,0.0
0.054,6.434362099984388,-3.0149932598739144,10.0,0.0,18.925784313874168,19.407861808234543,339.4707232587175,369.80425417616595,0.0
0.055,6.370891759459199,-3.1253006473392393,10.0,0.0,19.28762520191878,19.723199586257838,348.00092263299223,369.80425417616595,0.0
0.056,6.314459991163816,-3.2071523724558277,10.0,0.0,19.65271639484943,20.048760466390505,356.29964302226927,369.80425417616595,0.0
0.057,6.266092078485367,-3.262894600420583,10.0,0.0,20.01916768432525,20.383030530514645,362.98468703488817,369.80425417616595,0.0
0.058,6.234656406121481,-3.2830044001420036,9.19259896732969,0.0,20.384055506955605,20.634678848413458,367.8949136170401,369.80425417616595,0.0
0.059000000000000004,6.184047631953114,-3.242270835078686,6.756579081844973,0.0,20.732937588958627,20.643015548143694,368.2732882016197,369.80425417616595,0.0
0.06,6.0286616760641545,-3.103358008103723,6.582701449300634,0.0,21.032892057417754,20.70722681278228,362.39472369423584,369.80425417616595,0.0
0.061,5.908283654897585,-2.9073795805592497,9.596079007811877,0.0,21.28910370673469,21.139910428334034,363.77886385077477,369.80425417616595,0.0
0.062,6.027119760146136,-2.7385245906784315,8.964262832796322,0.0,21.546348288063655,21.441037540636486,368.6658185081205,369.80425417616595,0.0
0.063,6.162986913114667,-2.5802816408109557,6.532169860803922,0.0,21.792262947903353,21.46280730889852,359.30297916865925,369.80425417616595,0.0
0.064,6.198186982800329,-2.3530374653840487,10.0,0.0,21.99234868878701,21.910260475214066,353.8268574455696,369.80425417616595,0.0
0.065,6.478124426749855,-2.132370931478653,10.0,0.0,22.195170295238526,22.267857479456882,356.46153371249454,369.80425417616595,0.0
0.066,6.773414993469361,-1.9717448811607192,10.0,0.0,22.398007241273255,22.58029435602092,344.21520114473327,369.80425417616595,0.0
0.067,7.107621241532867,-1.7690702950839707,10.0,0.0,22.591116236395656,22.847961457912223,344.5400338790517,369.80425417616595,0.0
0.068,7.4481278300191684,-1.557540513648001,10.0,0.0,22.77043951209775,23.074059086873795,332.388082375434,369.80425417616595,0.0
0.069,7.796056145743156,-1.3341232756974089,10.0,0.0,22.931979624765585,23.260612231664627,330.44778886613807,369.80425417616595,0.0
0.07,8.1353176765759,-1.1283876216849378,10.0,0.0,23.07562429108386,23.41082458800881,322.30224216257875,369.80425417616595,0.0
0.07100000000000001,8.50248263906343,-0.8811363124362847,10.0,0.0,23.194785438927497,23.523384644785096,328.00271825008275,369.80425417616595,0.0
0.07200000000000001,8.728485285834264,-0.8730950962853549,10.0,0.0,23.314874456980284,23.6154161691482,338.88591241842886,369.80425417616595,0.0
0.073,8.813693183289528,-1.0584464200614425,10.0,0.0,23.452626783440977,23.703140600627904,346.60320991766076,369.80425417616595,0.0
0.074,8.80033977400931,-1.35825484666189,10.0,0.0,23.616501734091862,23.798188775601083,363.2500238435135,369.80425417616595,0.0
0.075,8.768903586834936,-1.6351543612673554,10.0,0.0,23.800954869515575,23.90344407463841,371.5127237565448,369.80425417616595,0.0
0.076,8.675583338749934,-1.9644446569152663,5.903310775581626,0.0,24.010941158675866,23.57593420804596,380.06393050560064,369.80425417616595,0.0
0.077,8.353589748703591,-2.1510527333432905,1.5251106377593606,0.0,24.18441181771149,22.896024926536775,389.78861225479943,369.80425417616595,0.0
0.078,7.745021219507522,-2.240733041524428,-3.5370738176263714,0.0,24.28054323582827,21.85211795267895,390.7180496542758,369.80425417616595,0.0
0.079,6.885487635096432,-2.1673146376115175,-4.21093047214564,0.0,24.253697987235363,20.987175439568595,392.91524077712705,369.80425417616595,0.0
0.08,6.046065631526483,-2.078014552237364,-5.5406358995808915,0.0,24.13395418683867,20.150254706985876,392.9258973700767,369.80425417616595,0.0
0.081,5.25475932922539,-1.9732588571066398,-5.777180627994827,0.0,23.931862567612754,19.45097827498801,391.0317317497105,369.80425417616595,0.0
0.082,4.578186440952328,-1.8734743301161454,-5.042372593547169,0.0,23.670123726091994,18.951124610027744,388.24419156193244,369.80425417616595,0.0
0.083,4.068753525600803,-1.7960871435100725,-3.8330018735158013,0.0,23.377058656970515,18.650037018076336,384.98794377531334,369.80425417616595,0.0
0.084,3.7364321310322985,-1.7506707203505625,-2.356714876197726,0.0,23.07896940088456,18.53151056516161,380.95312688040104,369.80425417616595,0.0
0.085,3.569936679338944,-1.7381553307787438,-0.45079515578392826,0.0,22.797913896494407,18.604907416942687,376.5341353835891,369.80425417616595,0.0
0.08600000000000001,3.5707719078461118,-1.7501547102418364,1.6914017805478103,0.0,22.55374871335806,18.85768466924628,372.2397112076765,369.80425417616595,0.0
0.08700000000000001,3.7230546960425372,-1.7894545158079025,3.814259298188995,0.0,22.36348075858333,19.256117281166553,367.9793970580784,369.80425417616595,0.0
0.088,4.009224510122512,-1.834586100298783,5.962664944168929,0.0,22.23665433671644,19.780820030631876,368.0790457496421,369.80425417616595,0.0
0.089,4.408369259526468,-1.879019296677353,5.930092682652325,0.0,22.179417167739505,20.17425863344371,369.4843544038502,369.80425417616595,0.0
0.09,4.766991382992076,-1.897714919336151,5.230637353271426,0.0,22.168859762470127,20.410558309372764,357.87745845579974,369.80425417616595,0.0
0.091,5.061167658302568,-1.8234904517988266,10.0,0.0,22.1746364176649,21.125023552566415,356.4434237864873,369.80425417616595,0.0
0.092,5.594026076300302,-1.7869851399189778,10.0,0.0,22.24800859202815,21.66525364726626,357.7303948141377,369.80425417616595,0.0
0.093,6.091318273446753,-1.7719096004197779,10.0,0.0,22.366773302198947,22.10942439242631,345.41286010139305,369.80425417616595,0.0
0.094,6.574974509174876,-1.6724561251425518,10.0,0.0,22.507289488983172,22.4728252701288,346.2960673401356,369.80425417616595,0.0
0.095,7.0190550824767275,-1.5334952259029797,10.0,0.0,22.655802980695633,22.769925378033548,334.22885555447067,369.80425417616595,0.0
0.096,7.431199612290465,-1.3687698049898684,10.0,0.0,22.80244494671928,23.01127173177257,334.0437794814139,369.80425417616595,0.0
0.097,7.8249468653958285,-1.1822897154642522,10.0,0.0,22.939691795875778,23.203956894196597,322.8022527109414,369.80425417616595,0.0
0.098,8.21691666879113,-0.9651256967271293,10.0,0.0,23.060459235193207,23.351919019451458,315.1349188613448,369.80425417616595,0.0
0.099,8.572488255315031,-0.7886746005220555,10.0,0.0,23.16670816270918,23.461968499628888,333.6061717341052,369.80425417616595,0.0
0.1,8.71551605050169,-0.9393825747051401,10.0,0.0,23.291679533613497,23.559460582934882,341.05674981633535,369.80425417616595,0.0
0.101,8.776630271788665,-1.1649983521955414,10.0,0.0,23.437213631540093,23.654408308611007,351.973751795182,369.80425417616595,0.0
0.10200000000000001,8.748110565149393,-1.481830059208666,10.0,0.0,23.610284422238188,23.75816298145537,364.94977407668426,369.80425417616595,0.0
0.10300000000000001,8.710146194484237,-1.7560958621843894,8.545449498600544,0.0,23.803424522408093,23.712739594637945,376.2978759423289,369.80425417616595,0.0
0.10400000000000001,8.524010529030559,-2.0574492687055344,2.8064623481165887,0.0,24.003114490566848,23.094524754473255,381.2580503250172,369.80425417616595,0.0
0.105,8.025286022684824,-2.157578593714846,0.21183719528392242,0.0,24.12901466957907,22.383079838877656,388.6463467474884,369.80425417616595,0.0
0.106,7.350361585215751,-2.1990367874879078,-3.6707319416648874,0.0,24.174739447195446,21.42348752226494,390.365414004945,369.80425417616595,0.0
0.107,6.51719801423631,-2.129209104716108,-4.735877168680992,0.0,24.111836888346296,20.570985379905892,391.6088683172106,369.80425417616595,0.0
0.108,5.704591873550925,-2.0359525093930024,-5.575650466224216,0.0,23.960414422488324,19.796774625203838,390.8665562611132,369.80425417616595,0.0
0.109,4.965483938312594,-1.9348928840671116,-5.4151174590250015,0.0,23.736529134913322,19.184074874622905,388.6056211353669,369.80425417616595,0.0
0.11,4.36041980698345,-1.8464151539212748,-4.4726635657438605,0.0,23.46504044697495,18.771487143625315,385.71938481812333,369.80425417616595,0.0
0.111,3.9275260079947745,-1.7822654265999525,-3.188696713541648,0.0,23.173270162026768,18.546388808318547,382.25010609334396,369.80425417616595,0.0
0.112,3.664428965155067,-1.7497712275291464,-1.5785158703237423,0.0,22.88523420741815,18.50351523900206,378.02581011760714,369.80425417616595,0.0
0.113,3.5635522632478405,-1.7477939756273817,0.4514165581302567,0.0,22.621821935620268,18.651781656635524,373.82622169894387,369.80425417616595,0.0
0.114,3.6251906584118667,-1.771322973657155,2.5109910922341117,0.0,22.4021854950678,18.957345089305626,369.1909646678791,369.80425417616595,0.0
0.115,3.8260467184366895,-1.814068542960972,4.834752502849372,0.0,22.239535764480724,19.423928761829018,366.3202895195725,369.80425417616595,0.0
0.116,4.166929189585503,-1.8570608437143892,6.3049297235686,0.0,22.144111071594523,19.930582462988195,368.98391020107726,369.80425417616595,0.0
0.117,4.569270381390735,-1.896435581674164,4.981322822567104,0.0,22.112795516280897,20.175881087038398,363.57809528603735,369.80425417616595,0.0
0.11800000000000001,4.854487974767771,-1.8773719274483773,7.746491868988346,0.0,22.106650629559237,20.68357243391515,352.94024729630905,369.80425417616595,0.0
0.11900000000000001,5.275080813736415,-1.8216346243900008,10.0,0.0,22.145948899403244,21.316701325026344,357.7096408359011,369.80425417616595,0.0
0.12,5.795453036658862,-1.7930598939141653,10.0,0.0,22.24204438405221,21.814877056568925,351.89196132907733,369.80425417616595,0.0
0.121,6.2728278936183015,-1.7607991689591778,10.0,0.0,22.375084960950247,22.225537251385827,344.40701928863444,369.80425417616595,0.0
0.122,6.7556262383978,-1.6130508975595972,10.0,0.0,22.519957797035772,22.560101415054696,342.8660765163679,369.80425417616595,0.0
0.123,7.163005532633364,-1.4945622831791363,10.0,0.0,22.672243501011774,22.835712707047115,333.44170848331214,369.80425417616595,0.0
0.124,7.586645795238374,-1.284817713549427,10.0,0.0,22.814974747273954,23.056464804293686,326.67890132967204,369.80425417616595,0.0
0.125,7.952182619503129,-1.12632093308881,10.0,0.0,22.950170878480193,23.23344216839875,324.56811879916177,369.80425417616595,0.0
0.126,8.344553031830515,-0.8983012646842519,10.0,0.0,23.066047937256435,23.36673603210057,320.5283590824586,369.80425417616595,0.0
0.127,8.645452237788453,-0.8057774549136196,10.0,0.0,23.1757692541345,23.469113006777732,334.0931751790547,369.80425417616595,0.0
0.128,8.73159113115809,-1.0269267845247723,10.0,0.0,23.310007801147414,23.56575812946391,346.3443194821091,369.80425417616595,0.0
0.129,8.771444970221502,-1.2653284180091569,10.0,0.0,23.46449969211482,23.66264006121947,354.43914513853326,369.80425417616595,0.0
0.13,8.725913218022603,-1.5888874901119592,10.0,0.0,23.64643806875751,23.770690020028734,370.05630282602107,369.80425417616595,0.0
0.131,8.673287279858982,-1.867648104934534,5.5971518876815445,0.0,23.84841568052631,23.40714906394232,376.66127671753725,369.80425417616595,0.0
0.132,8.31989288569205,-2.0887609211786833,2.2260947165097402,0.0,24.015376239148218,22.811719280912435,383.14720681587283,369.80425417616595,0.0
0.133,7.7753427417090375,-2.1651289435019963,-1.1502998590551217,0.0,24.112287117898074,22.011202272343784,389.19340807339034,369.80425417616595,0.0
0.134,7.045286915156926,-2.1736719291607525,-4.367292026786121,0.0,24.11963125611531,21.05518349929312,390.20125180221845,369.80425417616595,0.0
0.135,6.203478970377259,-2.088853374063193,-5.075183867460699,0.0,24.021223632288436,20.23510115223259,390.63867292867394,369.80425417616595,0.0
0.136,5.414984192455048,-1.991169678978265,-5.502238618213523,0.0,23.84075151522983,19.525605519443012,389.39416141107,369.80425417616595,0.0
0.137,4.7269226635189465,-1.8966481607948176,-5.075881931760595,0.0,23.59795651654879,18.987983841647633,386.92322059814825,369.80425417616595,0.0
0.138,4.186832058563302,-1.8186075165298021,-4.01160118951954,0.0,23.318039594269,18.645181497801424,384.00576818067856,369.80425417616595,0.0
0.139,3.8176803276603137,-1.7669446438990284,-2.6948901208298217,0.0,23.026931620285836,18.47806889059509,380.1722339525251,369.80425417616595,0.0
0.14,3.6096834560932534,-1.745371814948041,-0.8818028045166937,0.0,22.746366800522058,18.50401737938198,375.9655893868268,369.80425417616595,0.0
0.14100000000000001,3.5669913070886796,-1.751902928086221,1.159906126225847,0.0,22.49738746234805,18.708387814207175,371.8021044669989,369.80425417616595,0.0
0.14200000000000002,3.6771612130072597,-1.78471238147629,3.221670083231472,0.0,22.297286830215498,19.061254606554556,367.25125623523604,369.80425417616595,0.0
0.14300000000000002,3.921614483520004,-1.8281896038870515,5.522624178522205,0.0,22.156937340462218,19.56552380666865,366.02973640070815,369.80425417616595,0.0
0.14400000000000002,4.295965559378257,-1.8719605219129045,6.171129273540732,0.0,22.085429748454402,20.01492307165585,368.58125327119853,369.80425417616595,0.0
