timestamp,iq,id,iq_ref,id_ref,vq,vd,omega,omega_ref,r
0.0,0.0,0.0,0.0,0.0,0.0,0.0,0.0,271.069151890918,0.0
0.001,0.0,0.0,10.0,0.0,0.0,1.0999999999999999,6.115472199294103,271.069151890918,0.0
0.002,0.5307369851907212,-0.2913212625381807,10.0,0.0,0.14204533887919985,1.9316189316290207,13.317801563642547,271.069151890918,0.0
0.003,1.0842913387634832,-0.6024330830807904,10.0,0.0,0.384357124667687,2.6386968949419622,20.697939467553027,271.069151890918,0.0
0.004,1.5590443546685477,-0.8700465084428163,10.0,0.0,0.6994718867930164,3.2526109522886295,28.232747544420146,271.069151890918,0.0
0.005,1.9399447555359186,-1.0838738622210777,10.0,0.0,1.065311453102468,3.7994935661768023,35.92944872443006,271.069151890918,0.0
0.006,2.239750732602683,-1.2510087368845633,10.0,0.0,1.4655018868449925,4.299102221838433,43.75633668444442,271.069151890918,0.0
0.007,2.4770151619816017,-1.382020589851471,10.0,0.0,1.8883740978591532,4.765668027847139,51.58766747378032,271.069151890918,0.0
0.008,2.6680767290418097,-1.4872241871505252,10.0,0.0,2.325877945545995,5.209220346273558,59.45942083902103,271.069151890918,0.0
0.009000000000000001,2.8266491704841292,-1.5730794701170803,10.0,0.0,2.772378685460125,5.636635464737965,67.35059094018146,271.069151890918,0.0
0.01,2.962077666392183,-1.645500646948331,10.0,0.0,3.224078639851053,6.052647735211881,75.20908322432116,271.069151890918,0.0
0.011,3.0811061533574158,-1.7084279320504514,10.0,0.0,3.678407615443203,6.460489925470405,83.0265951655913,271.069151890918,0.0
0.012,3.188848746459569,-1.7638278597420747,10.0,0.0,4.133552631697047,6.862319393890706,90.74118064793086,271.069151890918,0.0
0.013000000000000001,3.288205119878689,-1.8140726097274587,10.0,0.0,4.588339016389012,7.259628641949282,98.35820682563939,271.069151890918,0.0
0.014,3.3820602099432007,-1.8592355758795645,10.0,0.0,5.041843166194517,7.653355107498287,105.90865295623543,271.069151890918,0.0
0.015,3.4721069852858886,-1.899829032412081,10.0,0.0,5.493383198131427,8.044092747085895,113.37727610343421,271.069151890918,0.0
0.016,3.5596145800153947,-1.9360338400176071,10.0,0.0,5.94241958510469,8.43218525824161,120.68508583176356,271.069151890918,0.0
0.017,3.645144415105338,-1.9685384477868613,10.0,0.0,6.388575043274759,8.817838951066484,127.83962377537456,271.069151890918,0.0
0.018000000000000002,3.730251927866576,-1.9959253041084188,10.0,0.0,6.83136783302799,9.201036292373047,134.85405702603322,271.069151890918,0.0
0.019,3.81544967906247,-2.018253592643655,10.0,0.0,7.270383321112213,9.581672501020332,141.68976328564074,271.069151890918,0.0
0.02,3.9014648862453374,-2.0350875541282063,10.0,0.0,7.705189334130692,9.959536942333155,148.3432823300447,271.069151890918,0.0
0.021,3.9891051824829464,-2.0457889559126508,10.0,0.0,8.135310004560049,10.334315260302239,154.92060212100432,271.069151890918,0.0
0.022,4.079618141396171,-2.0489696811670974,10.0,0.0,8.560139305503519,10.705547790999272,161.01925282597162,271.069151890918,0.0
0.023,4.171109372430197,-2.048468292080302,10.0,0.0,8.979521969370257,11.072981092896333,166.534238406907,271.069151890918,0.0
0.024,4.266936196769627,-2.039517194249811,10.0,0.0,9.392730090169543,11.435983292623375,171.8647834235234,271.069151890918,0.0
0.025,4.367255527950721,-2.0225841458509217,10.0,0.0,9.79914449451603,11.793929226271104,177.02637022703064,271.069151890918,0.0
0.026000000000000002,4.4734353073349595,-1.9962166741499119,10.0,0.0,10.197980960389518,12.146045424568259,181.63161391243256,271.069151890918,0.0
0.027,4.582366840795821,-1.966358349113627,10.0,0.0,10.589124658468391,12.491912978736195,185.74793639675826,271.069151890918,0.0
0.028,4.700058850757774,-1.9240450691803936,10.0,0.0,10.971384864613876,12.830451341534015,189.43662766964098,271.069151890918,0.0
0.029,4.820934284790598,-1.879137197786803,10.0,0.0,11.344756153370636,13.161242511022618,192.73598774770625,271.069151890918,0.0
0.03,4.952016225740939,-1.821000614527957,10.0,0.0,11.707923484756042,13.483081433273819,195.59831968863915,271.069151890918,0.0
0.031,5.086039273572549,-1.7621311371320891,10.0,0.0,12.061063698547066,13.79562148058647,197.80891551030922,271.069151890918,0.0
0.032,5.230431844273564,-1.6911110488141978,10.0,0.0,12.40292038074925,14.097678592248165,200.4421589734679,271.069151890918,0.0
0.033,5.380124186618445,-1.6166151787533525,10.0,0.0,12.733312761073865,14.38869342901298,201.91742172589852,271.069151890918,0.0
0.034,5.537594793894332,-1.535029134414507,10.0,0.0,13.051537880865839,14.667821176756876,203.18880493813168,271.069151890918,0.0
0.035,5.698947813469154,-1.4530296333491768,10.0,0.0,13.357649178779205,14.934684535625108,203.60405746232266,271.069151890918,0.0
0.036000000000000004,5.870474243492053,-1.3603000477825025,10.0,0.0,13.65045542338638,15.188218311291084,204.28541056101804,271.069151890918,0.0
0.037,6.041188711220851,-1.275010780747051,10.0,0.0,13.930879897581198,15.42861600670124,205.2233356988433,271.069151890918,0.0
0.038,6.228175208801664,-1.168399557236846,10.0,0.0,14.196427351981786,15.654155009933262,200.35169734043586,271.069151890918,0.0
0.039,6.404895489618571,-1.0845312562500289,10.0,0.0,14.449814560392067,15.86612549236809,209.64773540576442,271.069151890918,0.0
0.04,6.534612624563911,-1.0851225869390002,10.0,0.0,14.699963825590459,16.069735965364643,218.170241886545,271.069151890918,0.0
0.041,6.621487035821765,-1.1484636683301073,10.0,0.0,14.952420817214799,16.26974130369247,220.68166573712315,271.069151890918,0.0
0.042,6.6704785161669795,-1.2647840534085386,10.0,0.0,15.211794475054209,16.47047148862455,233.10654395573727,271.069151890918,0.0
0.043000000000000003,6.709376245503157,-1.3867642159960276,10.0,0.0,15.477558399636717,16.673277185423842,235.10815372853793,271.069151890918,0.0
0.044,6.744196093263161,-1.5028656568708394,10.0,0.0,15.74857785831126,16.87893749904121,248.8181267625822,271.069151890918,0.0
0.045,6.750563942850831,-1.6564343609015326,10.0,0.0,16.02879294551472,17.090781462187255,251.61117095327992,271.069151890918,0.0
0.046,6.764566527560506,-1.7840489455190416,10.0,0.0,16.314672837580048,17.307985931916857,266.60539535969383,271.069151890918,0.0
0.047,6.752169677737121,-1.9446655565152717,7.663538680206212,0.0,16.61007686877522,17.27655087803038,269.0530850970952,271.069151890918,0.0
0.048,6.606642275536927,-2.0422902694471983,6.459854479443745,0.0,16.881929543774778,17.18464312950993,278.40908258131657,271.069151890918,0.0
0.049,6.393054451956711,-2.084887537776359,1.7084564304290861,0.0,17.121115628809218,16.6405338665293,281.5855521841984,271.069151890918,0.0
0.05,5.9114098595825695,-2.043222882471042,0.01505762605537786,0.0,17.276963094275278,16.086839277284575,281.9813454001097,271.069151890918,0.0
0.051000000000000004,5.370741846848716,-1.9320833791753174,-0.2919609169922097,0.0,17.35004765546078,15.641917877296416,284.0865411682707,271.069151890918,0.0
0.052000000000000005,4.872427876201404,-1.8432727646446077,-1.474732693846219,0.0,17.362673847963496,15.171170220046026,284.807781363273,271.069151890918,0.0
0.053,4.396886882029407,-1.749816350966202,-1.9727390860709386,0.0,17.31757055613159,14.753133332047208,284.666309115038,271.069151890918,0.0
0.054,3.9733899372408694,-1.6640991824418507,-2.0379745341946354,0.0,17.22667958028209,14.412023222278744,283.89847323060985,271.069151890918,0.0
0.055,3.6223551892747796,-1.5945226459561108,-1.7823498053774713,0.0,17.103970443712505,14.159084953381683,282.8881143577652,271.069151890918,0.0
0.056,3.354414913749107,-1.5438254018446287,-1.3953599936236047,0.0,16.963357462422774,13.98514531255029,281.25739378247596,271.069151890918,0.0
0.057,3.1630879601127853,-1.5138847489209746,-0.6818821248945746,0.0,16.816625315798383,13.907517567260454,279.315117088899,271.069151890918,0.0
0.058,3.0541238417525984,-1.504151805170958,0.20679656991409345,0.0,16.67603239202419,13.923672043062087,277.4918529953114,271.069151890918,0.0
0.059000000000000004,3.0243784493976786,-1.5140558480963746,1.0542016056639723,0.0,16.552300982366873,14.010661897865974,275.3983810827549,271.069151890918,0.0
0.06,3.0603745983643367,-1.5342287034312831,2.057645270023844,0.0,16.451761672813262,14.174227348635945,273.63323573862687,271.069151890918,0.0
0.061,3.159894358080156,-1.559660312485389,2.914577103610771,0.0,16.38022858773461,14.385023176345447,273.36193278871394,271.069151890918,0.0
0.062,3.305943986742805,-1.5822410861876017,3.0273007695892726,0.0,16.339157962951475,14.556346136142174,275.34098698409144,271.069151890918,0.0
0.063,3.443346551990064,-1.5907395188472455,1.9950553209687882,0.0,16.320035716481865,14.5781017155823,271.11007328406953,271.069151890918,0.0
0.064,3.5025665783067885,-1.55659305790909,4.11010295704823,0.0,16.301160157573438,14.833607029644025,265.3721194341066,271.069151890918,0.0
0.065,3.671238310610541,-1.528429113667921,7.036050206597812,0.0,16.306966116704874,15.34441628720815,269.7813286980143,271.069151890918,0.0
0.066,3.998448349419136,-1.5619627207205073,4.844323806572993,0.0,16.367242741897776,15.500069451484872,270.524662746643,271.069151890918,0.0
0.067,4.188271470954957,-1.5492456365409053,4.478101673701396,0.0,16.435322805668783,15.610209348256737,262.09027071032614,271.069151890918,0.0
0.068,4.338406733468541,-1.462751277571579,8.785086503665745,0.0,16.498221644095036,16.178957166692168,265.9331978519181,271.069151890918,0.0
0.069,4.700656740849709,-1.4612884870916183,6.9149824732597525,0.0,16.612409417159117,16.409992647295585,264.0739418085749,271.069151890918,0.0
0.07,4.948555737515419,-1.4394510149916484,7.914562595754803,0.0,16.73589446695092,16.73435182136417,259.09358213060034,271.069151890918,0.0
0.07100000000000001,5.249463106522205,-1.358586825602579,10.0,0.0,16.870790243058615,17.22740507562301,262.6330575979917,271.069151890918,0.0
0.07200000000000001,5.614065272199951,-1.3612060140386184,8.828631378931934,0.0,17.04259851960328,17.497840495172305,254.59846371523204,271.069151890918,0.0
0.073,5.929413013428522,-1.277329979670196,10.0,0.0,17.21501695478352,17.86793520507095,258.8550672011831,271.069151890918,0.0
0.074,6.252473019705736,-1.2356015690956381,10.0,0.0,17.403451652616077,18.174165478008867,254.67923539281068,271.069151890918,0.0
0.075,6.589980818186771,-1.1295993337448855,10.0,0.0,17.59242294617633,18.434720935666096,250.45041407720797,271.069151890918,0.0
0.076,6.874506985656469,-1.0634232380299395,10.0,0.0,17.78233330797115,18.660195176476776,252.59118980228513,271.069151890918,0.0
0.077,7.168436798805803,-0.9429254570050182,10.0,0.0,17.963207062711973,18.852626011614134,253.17163370144715,271.069151890918,0.0
0.078,7.364496043486663,-0.9550746451663017,10.0,0.0,18.147777914000425,19.02527391992844,265.2714129472428,271.069151890918,0.0
0.079,7.448886585515862,-1.1113273466325588,8.163196307194053,0.0,18.348222776271147,18.989743349155106,271.23306795375777,271.069151890918,0.0
0.08,7.415038560656788,-1.211326928937516,5.180729643308181,0.0,18.53450752227635,18.672674213741587,274.60834845808847,271.069151890918,0.0
0.081,7.15660677425616,-1.2960326157145965,3.4576974254711246,0.0,18.678774509862095,18.274320605402195,280.43178436784063,271.069151890918,0.0
0.082,6.816434082447737,-1.2994295235743278,0.45235314582581765,0.0,18.768306040852135,17.65170618630762,282.9414692898442,271.069151890918,0.0
0.083,6.307431627891778,-1.2888251921830278,-0.9212124891652156,0.0,18.78542253130207,17.031856128252027,284.28943284751415,271.069151890918,0.0
0.084,5.779450543975851,-1.2317126337344482,-1.7273970775661622,0.0,18.73266602878602,16.45374597135798,286.61870883108145,271.069151890918,0.0
0.085,5.259451332183088,-1.204686760345591,-3.0475306387514465,0.0,18.62497244034389,15.8429384365134,286.5560111791404,271.069151890918,0.0
0.08600000000000001,4.746974767402707,-1.1641135704979875,-3.171050405663144,0.0,18.462774665112168,15.333228887568552,286.7505394614733,271.069151890918,0.0
0.08700000000000001,4.295806069522494,-1.1465448588289429,-3.4251284225351455,0.0,18.26429888612401,14.876060922927236,286.27609547498855,271.069151890918,0.0
0.088,3.9023808967057727,-1.1427285319192217,-3.3399758651334785,0.0,18.039709779727154,14.49543482036517,285.30835627724366,271.069151890918,0.0
0.089,3.5746286165569754,-1.154461422279598,-2.9984983101242904,0.0,17.800845754922523,14.19924192198482,284.1334670383303,271.069151890918,0.0
0.09,3.3176200462235648,-1.181360631706705,-2.541696842141737,0.0,17.559090426893697,13.98060871682522,282.8006609161909,271.069151890918,0.0
0.091,3.1271370637952445,-1.220742131812913,-1.992608871324765,0.0,17.3237102840692,13.833878003852522,281.3237432183319,271.069151890918,0.0
0.092,2.997143404300612,-1.2689937774200464,-1.356695935669407,0.0,17.10210895024561,13.755136363828687,280.08296560211755,271.069151890918,0.0
0.093,2.9239875076255037,-1.3198404662042207,-0.8264452646742226,0.0,16.89990420511218,13.72082441091711,278.7268704269991,271.069151890918,0.0
0.094,2.8905122584295695,-1.3707834563355725,-0.2249748624757988,0.0,16.71958400122754,13.733533134760023,277.0497369574814,271.069151890918,0.0
0.095,2.8932224047766764,-1.418999944680421,0.5537860216174098,0.0,16.56336107393228,13.805955090468313,275.32474097227185,271.069151890918,0.0
0.096,2.9368162615041316,-1.466803867811776,1.3737281234086445,0.0,16.434778901598378,13.933150357455796,273.2241278583882,271.069151890918,0.0
0.097,3.022139245147948,-1.5102583496656572,2.4024849206757617,0.0,16.336076426969218,14.130782117559065,271.8177735563401,271.069151890918,0.0
0.098,3.157812728688252,-1.550028268599558,3.098175855045591,0.0,16.270947522077503,14.350948035644118,272.19616512360494,271.069151890918,0.0
0.099,3.320931292262318,-1.578646321017285,2.897709939086308,0.0,16.237098386060065,14.496990004174517,274.0666521864143,271.069151890918,0.0
0.1,3.446046158075226,-1.5909802879081112,1.93249140472668,0.0,16.222308916331237,14.508742033026493,268.2912669646312,271.069151890918,0.0
0.101,3.5026497574093787,-1.5439627910243505,4.847962864881096,0.0,16.20487833213436,14.843218710712346,264.37404518576136,271.069151890918,0.0
0.10200000000000001,3.7114944464046165,-1.525141967328431,6.873524821367571,0.0,16.221038358488038,15.31375488302575,269.13238650199344,271.069151890918,0.0
0.10300000000000001,4.023192306470092,-1.5652173192378696,4.5137218171407785,0.0,16.287232496384696,15.426821172996128,266.8304853334472,271.069151890918,0.0
0.10400000000000001,4.1890374678148525,-1.539551070892685,5.707059066988605,0.0,16.35488980865165,15.674939386137389,259.6854000185556,271.069151890918,0.0
0.105,4.404314085678855,-1.4701422436404916,9.393439243158038,0.0,16.433214902491752,16.276557979719787,266.89822884770183,271.069151890918,0.0
0.106,4.7926060521489315,-1.4960470330964344,5.828734059017076,0.0,16.567412961418764,16.356306501177688,260.0305051336949,271.069151890918,0.0
0.107,4.978786438112435,-1.4350290459815753,9.372982383592786,0.0,16.68919504012166,16.85041742113595,262.0007859380497,271.069151890918,0.0
0.108,5.337331594785101,-1.3843831635315256,8.47852564094405,0.0,16.84324913575174,17.135884568657204,259.2695962301038,271.069151890918,0.0
0.109,5.613896848317632,-1.353540613893982,9.962116051525156,0.0,17.007558314935306,17.5535131972579,258.9876609794988,271.069151890918,0.0
0.11,5.980130633240102,-1.2783963066585953,10.0,0.0,17.189241990761072,17.897621147337148,255.2618341751432,271.069151890918,0.0
0.111,6.298787084153461,-1.2460256416464364,10.0,0.0,17.3843587639332,18.19371795875506,256.67701046772396,271.069151890918,0.0
0.112,6.628866116836481,-1.1401585653955153,10.0,0.0,17.57825186919243,18.446594637262397,248.5455939306345,271.069151890918,0.0
0.113,6.92060872941619,-1.047174566191444,10.0,0.0,17.768873762626534,18.664782061387985,250.42878242669997,271.069151890918,0.0
0.114,7.1943853885116,-0.9477424878496472,10.0,0.0,17.952244520504227,18.853014926069726,257.16877105185563,271.069151890918,0.0
0.115,7.381877748926533,-0.9636142913934505,10.0,0.0,18.13884170823556,19.02287518701637,262.2017134226536,271.069151890918,0.0
0.116,7.453395362961008,-1.1317836894271247,9.243599929085557,0.0,18.342105119036688,19.105213118901254,275.8559295899149,271.069151890918,0.0
0.117,7.466662215468629,-1.271652345321612,2.368624068464925,0.0,18.546979840114254,18.450216077083144,273.24631157955616,271.069151890918,0.0
0.11800000000000001,7.070044314170393,-1.2599559486511895,3.6516614767579227,0.0,18.663182094709555,18.13485072274092,284.4159563854209,271.069151890918,0.0
0.11900000000000001,6.704405491316109,-1.2907467751648845,-2.0666289711194663,0.0,18.73973154329432,17.257053897443992,279.36207317414403,271.069151890918,0.0
0.12,6.086397042956076,-1.1918897522527265,0.3773834216867016,0.0,18.70966418370543,16.865040508313747,283.68263061432754,271.069151890918,0.0
0.121,5.626842467913689,-1.1910007042424402,-1.909030085639147,0.0,18.644292996110412,16.2776470311748,284.4028654022152,271.069151890918,0.0
0.122,5.141452389915943,-1.1646776580577127,-2.4024846146959424,0.0,18.523832934960772,15.759837282696584,285.5840663966001,271.069151890918,0.0
0.123,4.686005713121163,-1.1556083508085957,-3.138234256945232,0.0,18.36290351174273,15.25100982126182,285.48401526976306,271.069151890918,0.0
0.124,4.256877558908304,-1.146852059760741,-3.2323573273151536,0.0,18.16631178576023,14.816625752525988,285.1066681424295,271.069151890918,0.0
0.125,3.8827417206634567,-1.1496268314803482,-3.1840589261634857,0.0,17.946333613302034,14.449138633560686,284.244670941493,271.069151890918,0.0
0.126,3.5675005340926127,-1.165075569054058,-2.8848155162009785,0.0,17.713276159609038,14.159771372470798,283.1084265020828,271.069151890918,0.0
0.127,3.317153640727269,-1.1930279556520067,-2.4370860426075374,0.0,17.4775080003264,13.946678646520729,281.800401629039,271.069151890918,0.0
0.128,3.1305661739699797,-1.232223326728044,-1.8903861034668519,0.0,17.248039351329396,13.804999228216596,280.38786396591814,271.069151890918,0.0
0.129,3.0034556117172864,-1.279485156784522,-1.2773043926564167,0.0,17.03215647299713,13.728629162821134,279.23210757707716,271.069151890918,0.0
0.13,2.9313299973987865,-1.328947012805978,-0.7810557550975163,0.0,16.835193061820345,13.693427061107876,277.8820761293308,271.069151890918,0.0
0.131,2.8967174114704197,-1.3778344588286078,-0.174169273608471,0.0,16.659288782092183,13.706929983345413,276.2136953135242,271.069151890918,0.0
0.132,2.8985905230806934,-1.4243152355412954,0.6085757000687595,0.0,16.506949233538762,13.780973099539562,274.4841093973141,271.069151890918,0.0
0.133,2.9420215096140208,-1.4708324461879143,1.439219083109855,0.0,16.381900036864103,13.911162594254142,272.3841274122237,271.069151890918,0.0
0.134,3.028239461299492,-1.5135083586900793,2.4760603204420173,0.0,16.28660388759714,14.11252465728586,271.12149886976,271.069151890918,0.0
0.135,3.165759146183683,-1.5526018603302765,3.106851121885441,0.0,16.224847085615437,14.328974489052749,271.70394900811505,271.069151890918,0.0
0.136,3.3270987406160275,-1.5794574885909218,2.809278081535942,0.0,16.193474131100867,14.46219055645319,273.6591627944084,271.069151890918,0.0
0.137,3.443758470063822,-1.5897131468505554,1.8057710793543533,0.0,16.179419644903753,14.460318507530719,267.290649482396,271.069151890918,0.0
0.138,3.4921680862169038,-1.5363890175960235,5.027812759445771,0.0,16.160615191633504,14.81752940923029,263.9055147351518,271.069151890918,0.0
0.139,3.709839338720828,-1.5205522793226607,6.792016504625531,0.0,16.178203473942716,15.275521028987841,268.76448028693324,271.069151890918,0.0
0.14,4.018664416241469,-1.5583732659883673,4.385580444774673,0.0,16.24415076591272,15.375328264962937,265.9301261428034,271.069151890918,0.0
0.14100000000000001,4.175413987788964,-1.5320819244543828,5.854147774320751,0.0,16.31021379484784,15.643202071291078,259.2250358625022,271.069151890918,0.0
0.14200000000000002,4.399066701085928,-1.4649462497300507,9.325134074755505,0.0,16.389335890717927,16.23498331688509,266.2839582629793,271.069151890918,0.0
