t,iq,id,vq,vd,ia,ib,va,vb,theta_e,omega,omega_obs,r,omega_ekf
0,0,0,0,0,0,0,0,0,0,-0.144963141214248,0,0,0
0.01,-0.0148220523212482,-0.0243581914553675,-0.0257373383816965,0.061651044589528,-0.0148208846124036,0.024358901972297,-0.0257402938022512,-0.0616498107128294,-1.57084426515748,-0.144963141214248,145.695179409072,-0.144963141214248,-2.70573149801658e-09
0.02,0.00518820684656965,0.0150174650133952,-0.0868547189556102,-0.173910174169597,0.00518748692792554,-0.0150177137102804,-0.0868463818868272,0.173914337642775,-1.57084426515748,-0.144963141214248,148.742637635702,-0.144963141214248,0.936993694511613
0.03,0.0633430225449927,0.0342069908884576,-0.436314750986826,-0.289224788693977,0.0633413826450773,-0.034210027409933,-0.436300885522698,0.289245704576371,-1.57084426515748,-0.144963141214248,145.733734754073,-0.144963141214248,0.24814570973541
0.04,0.0340311194844281,0.0150174650049177,-0.260353002800597,-0.173910174118654,0.0340303995326427,-0.0150190963838063,-0.260344665532459,0.173922654815467,-1.57084426515748,-0.144963141214248,142.98706471002,-0.144963141214248,-10.5164255473316
0.05,-0.0140013190336465,0.0149002173966153,-0.0296084968494379,-0.173205604196326,-0.0140020333095823,-0.0148995461791861,-0.029600193622364,0.173207023380162,-1.57084426515748,-0.144963141214248,140.850765786868,-0.144963141214248,-19.6646056033349
0.06,0.0925376780251402,0.0828842912753623,-0.552918736259826,-0.523376867601719,0.0925337045816042,-0.0828887272848849,-0.552893645794461,0.523403373019185,-1.57084426515748,-0.144963141214248,140.850765786868,-0.144963141214248,-25.8444352072527
0.07,0.00507095923156691,0.0147829697833898,-0.144804788033703,-0.173205604196326,0.00507025055437488,-0.0147832128598857,-0.144796484674264,0.173212545701735,-1.57084426515748,-0.144963141214248,145.733734754073,-0.144963141214248,-44.808639719563
0.08,-0.015877280791358,0.0139622365245088,-0.0204584861385183,-0.168978184636728,-0.0158779500998711,-0.0139614753776224,-0.0204503855775298,0.168979165188891,-1.57084426515748,-0.144963141214248,145.777368186271,-0.144963141214248,-45.362003849186
0.09,-0.0139426952243684,-0.0238305771963866,0.0279896487261623,-0.0571864197114945,-0.0139415528094978,0.023831245558983,0.027992390117323,0.0571850778678561,-1.57084426515748,-0.144963141214248,145.777481636922,-0.144963141214248,-49.3369058346812
0.1,-0.0143530618740071,-0.0240650724277601,0.0304531132413586,-0.0557772798034009,-0.0143519082173476,0.0240657604623923,0.0304557870778288,0.0557758198669265,-1.57084426515748,-0.144963141214248,142.98706471002,-0.144963141214248,-46.7049586521968
0.11,0.0921859351595778,0.0827670436429511,-0.551159118625916,-0.522672297550376,0.0921819673371055,-0.0827714627906314,-0.551134061938508,0.522698718615463,-1.57084426515748,-0.144963141214248,140.881547436718,-0.144963141214248,-49.6400250669762
0.12,-0.0532011040881255,-0.00464105132025594,0.14670517494865,-0.173205604196326,-0.0532008815425943,0.00464360168873985,0.146713477973132,0.173198571191438,-1.57084426515748,-0.144963141214248,142.98706471002,-0.144963141214248,-37.7099609284625
0.13,0.00507095923103375,0.0147829697823234,-0.144804788030502,-0.173205604196326,0.00507025055384177,-0.0147832128588193,-0.144796484671063,0.173212545701735,-1.57084426515748,-0.144963141214248,145.733734754073,-0.144963141214248,-45.059878768245
0.14,-0.0337184591754047,-0.00452380371017604,0.0884031823468728,-0.173205604196326,-0.0337182422729183,0.0045254201126991,0.0884114854383461,0.173201366093498,-1.57084426515748,-0.144963141214248,145.733734754073,-0.144963141214248,-40.6624427666589
0.15,0.00489508780888544,0.0144898507453504,-0.0854470249349467,-0.171796464275417,0.00489439318354222,-0.0144900853911951,-0.0854387891955724,0.171800560268477,-1.57084426515748,-0.144963141214248,145.733734754073,-0.144963141214248,-46.1137387322346
0.16,-0.0527907374498248,-0.0529666088654776,0.202895626591013,0.0595373347840962,-0.0527881982566663,0.0529691395061286,0.202892772235536,-0.0595470611997958,-1.57084426515748,-0.144963141214248,142.98706471002,-0.144963141214248,-38.6071583761101
0.17,0.0147829697816124,-0.00464105132025594,-0.203106780611097,-0.0557772798034009,0.014783192249027,0.00464034264355798,-0.203104106506256,0.0557870163457988,-1.57084426515748,-0.144963141214248,140.850765786868,-0.144963141214248,-47.4569947536216
0.18,-0.0334839639524029,-0.0044065560986751,0.0869954883725172,-0.173910174133605,-0.0334837526708444,0.00440816126001587,0.0870038252415371,0.173906003512511,-1.57084426515748,-0.144963141214248,140.850765786868,-0.144963141214248,-45.7586815466147
0.19,-0.0147634285247661,-0.0244754390755244,-0.0264411853354821,-0.0543681398739458,-0.0147622551953299,0.0244761467819904,-0.0264385789854987,0.0543694073586038,-1.57084426515748,-0.144963141214248,148.740708961105,-0.144963141214248,-48.5498184455219
0.2,-0.0143530618731184,-0.0240650724259827,-0.0282008028513383,0.0609464746501111,-0.014351908216459,0.0240657604606149,-0.0282037244931333,-0.0609451226797693,-1.57084426515748,-0.144963141214248,148.785590358578,-0.144963141214248,-43.6340308191809
0.21,0.0439776252404953,0.0343242384977731,-0.320062689274789,-0.289929358622393,0.0439759797421732,-0.0343263466736766,-0.320048790168312,0.289944701570493,-1.57084426515748,-0.144963141214248,148.785590358578,-0.144963141214248,-45.9541040275892
0.22,-0.0143530618729408,-0.0240650724256275,-0.0282008028524046,0.0609464746479763,-0.0143519082162814,0.0240657604602596,-0.0282037244941995,-0.0609451226776344,-1.57084426515748,-0.144963141214248,142.98706471002,-0.144963141214248,-52.3252029186103
0.23,-0.0143530618706569,-0.0240650724210597,-0.0282008028661149,-0.0564818497724013,-0.0143519082139978,0.0240657604556918,-0.0281980951863182,0.0564832016078136,-1.57084426515748,-0.144963141214248,142.955330068062,-0.144963141214248,-43.5045572629463
0.24,-0.112645643516405,-0.053845965948006,0.38554392121477,0.0637647544205875,-0.112643062099532,0.053851365933835,0.385540863993847,-0.0637832366915993,-1.57084426515748,-0.144963141214248,145.692830964758,-0.144963141214248,-45.7611627409489
0.25,0.00483646399711844,-0.0241823200371289,-0.0850951014100417,0.061651044589528,0.00483762325238676,0.0241820881571778,-0.0850980567623919,-0.0616469651988643,-1.57084426515748,-0.144963141214248,148.785590358578,-0.144963141214248,-33.9531083821576
0.26,-0.0150565475455673,-0.024475439067527,-0.0246815678933996,-0.0543681399123924,-0.0150553742157947,0.0244761608256389,-0.0246789615454363,0.0543693230438715,-1.57084426515748,-0.144963141214248,150.889916391518,-0.144963141214248,-43.3432230421833
0.27,-0.208534649062824,-0.140491951404114,0.962933070947438,0.5271369223216,-0.208527913869105,0.140501948052297,0.962907799760082,-0.527183083150578,-1.57084426515748,-0.144963141214248,148.785590358578,-0.144963141214248,-34.0406332081377
0.28,-0.0736217298918821,-0.0250030533247341,0.268236089055853,-0.051549860117547,-0.073620531201852,0.0250065826011848,0.268238559963522,0.0515370012594236,-1.57084426515748,-0.144963141214248,143.0282647602,-0.144963141214248,-40.0046248486622
0.29,0.0147829697883133,-0.00464105132025594,-0.203106780651323,-0.056481849725726,0.0147831922557279,0.00464034264355766,-0.203104072770554,0.0564915862673163,-1.57084426515748,-0.144963141214248,142.98706471002,-0.144963141214248,-44.8594464096689
0.3,-0.0331908449119113,-0.00411343706234213,0.0855877943359068,-0.175319314045648,-0.0331906476823363,0.00411502817237286,0.0855961987584043,0.175315210905482,-1.57084426515748,-0.144963141214248,145.733734754073,-0.144963141214248,-40.2845271882327
0.31,0.00512958303817967,0.0146657221792997,-0.145156711533001,-0.172501034271863,0.00512887998157844,-0.0146659680662597,-0.145148441949086,0.172507992648718,-1.57084426515748,-0.144963141214248,150.921889281731,-0.144963141214248,-47.7124356632291
0.32,0.0345587337267121,0.0149002173966153,-0.263168390706323,-0.173205604196326,0.0345580193949787,-0.0149018740686015,-0.263160087210878,0.173218219859035,-1.57084426515748,-0.144963141214248,148.785590358578,-0.144963141214248,-38.7643249486378
0.33,-0.00540316077884425,-0.00516866556081708,-0.082631637092425,-0.170387324489921,-0.00540291299527215,0.00516892457355848,-0.0826234689081397,0.170391285519517,-1.57084426515748,-0.144963141214248,145.733734754073,-0.144963141214248,-41.3799391837311
0.34,-0.169745230698222,-0.111473167388352,0.729725100772288,0.411117737952111,-0.169739886662063,0.111481304568678,0.729705391622623,-0.411152719306173,-1.57084426515748,-0.144963141214248,142.98706471002,-0.144963141214248,-45.0035984304267
0.35,0.00460196879601743,0.0144898507638224,-0.142693247118933,-0.171796464338847,0.00460127417101013,-0.0144900713580216,-0.142685011313777,0.171803304622062,-1.57084426515748,-0.144963141214248,142.98706471002,-0.144963141214248,-71.6492044737083
0.36,0.043919001437082,0.0342069908856144,-0.261056849702001,-0.289224788676892,0.0439173615594858,-0.0342090962513235,-0.261042984439253,0.289237302982471,-1.57084426515748,-0.144963141214248,145.733734754073,-0.144963141214248,-90.6309822314339
0.37,-0.00487554653970415,-0.00475829892998005,-0.0854470249792765,-0.0550727098725299,-0.00487531842904264,0.00475853265023029,-0.0854443847855608,0.0550768059997126,-1.57084426515748,-0.144963141214248,148.785590358578,-0.144963141214248,-91.4411155463826
0.38,-0.0340115782027105,-0.0047582989345478,0.0311569602315802,-0.172501034238006,-0.0340113500585702,0.00475992938844763,0.0311652296129018,0.172499540426139,-1.57084426515748,-0.144963141214248,148.785590358578,-0.144963141214248,-89.6008700545155
0.39,0.00507095923313972,0.0147829697865354,-0.144804788043145,-0.172501034263317,0.00507025055594755,-0.0147832128630314,-0.144796518459634,0.172507975769536,-1.57084426515748,-0.144963141214248,143.028264760531,-0.144963141214248,-86.0697975607363
0.4,0.0441534966645983,0.0343242384988389,-0.320766536291521,-0.289929358628797,0.0441518511660741,-0.0343263551057305,-0.320752637184233,0.289944735318171,-1.57084426515748,-0.144963141214248,140.850765786868,-0.144963141214248,-85.1823991074436
0.41,-0.0924595129357425,-0.0241823200371289,0.3820246862714,0.061651044589528,-0.0924583535686769,0.0241867523669962,0.382021730382309,-0.0616693581566078,-1.57084426515748,-0.144963141214248,142.98706471002,-0.144963141214248,-84.2854981971877
0.42,0.00489508780817492,0.0147829697816129,-0.144100941019106,-0.172501034233737,0.00489437913118506,-0.0147832044271208,-0.144092671436406,0.172507941998682,-1.57084426515748,-0.144963141214248,145.733734754073,-0.144963141214248,-93.8861957520971
0.43,0.0436845062233652,0.0340897432811152,-0.2600010792638,-0.288520218777419,0.0436828719666967,-0.0340918374056425,-0.259987247778192,0.288532682471902,-1.57084426515748,-0.144963141214248,148.739812524767,-0.144963141214248,-79.7486543399462
0.44,0.0148415935889362,0.0343242384981283,-0.203458704114664,-0.289929358624527,0.0148399481240927,-0.0343249499403828,-0.203444805142169,0.289939111768511,-1.57084426515748,-0.144963141214248,148.785590358578,-0.144963141214248,-88.124312014889
0.45,0.005305454454899,0.0149002173966153,-0.145860558519116,-0.173205604196326,0.00530474015677894,-0.0149004717142935,-0.145852255158464,0.173212596313644,-1.57084426515748,-0.144963141214248,142.98706471002,-0.144963141214248,-78.3704186068297
0.46,-0.004406556088828,-0.0530838564574369,-0.087558565965946,0.0602419046557968,-0.00440401133060742,0.0530840676395247,-0.0875614537636044,-0.0602377071722952,-1.57084426515748,-0.144963141214248,142.98706471002,-0.144963141214248,-80.0351190361351
0.47,0.0930652922641002,0.0832946579056646,-0.555734124144532,-0.525490577375109,0.0930612991476537,-0.0832991192076783,-0.555708932348147,0.525517217755231,-1.57084426515748,-0.144963141214248,140.850765786868,-0.144963141214248,-77.4683150165464
0.48,-0.00423068466401553,-0.00440655608811856,-0.0886143364926371,-0.173910174165323,-0.00423047341607087,0.00440675889515056,-0.0886059994218324,0.173914421991684,-1.57084426515748,-0.144963141214248,145.733734754073,-0.144963141214248,-85.8344172435128
0.49,0.0635775177710083,0.0343242385016298,-0.437370521484242,-0.289929358645568,0.0635758722501648,-0.0343272862642877,-0.437356622242971,0.289950325139062,-1.57084426515748,-0.144963141214248,148.785590358578,-0.144963141214248,-78.4804317664648
0.5,-0.0440167077950614,-0.0241823200371289,0.0908666468520443,-0.0557772798034009,-0.0440155484836587,0.0241844300982396,0.0908693206190968,0.0557729237410484,-1.57084426515748,-0.144963141214248,148.785590358578,-0.144963141214248,-83.2867214388928
0.51,-0.00511004176889283,-0.004934170350654,-0.0843912544690554,-0.171796464305318,-0.00510980522697394,0.00493441531201947,-0.0843830187308928,0.17180050968647,-1.57084426515748,-0.144963141214248,142.98706471002,-0.144963141214248,-85.493878060412
0.52,0.00565719727394238,0.0153105840244307,-0.147620175917191,-0.175319313956907,0.00565646330311396,-0.0153108552036122,-0.147611771226731,0.175326390424972,-1.57084426515748,-0.144963141214248,140.850765786868,-0.144963141214248,-85.9215621659208
0.53,-0.0044065560952259,-0.00475829893277097,-0.0875585659371406,-0.172501034248684,-0.00440632798510314,0.00475851017038724,-0.0875502964194092,0.172505231464752,-1.57084426515748,-0.144963141214248,140.850765786868,-0.144963141214248,-77.8902836206139
0.54,-0.0044065561036498,-0.00452380371195287,-0.0875585658992136,-0.173205604196326,-0.00440633923484396,0.00452401494983899,-0.0875502626055526,0.173209801411583,-1.57084426515748,-0.144963141214248,145.733734754073,-0.144963141214248,-79.6984439125201
0.55,-0.121419673170002,-0.07274237279713,0.497924824438571,0.177670229082896,-0.121416185880244,0.0727481933738609,0.497916306646575,-0.17769409857951,-1.57084426515748,-0.144963141214248,148.785590358578,-0.144963141214248,-73.3631612249931
0.56,-0.00428930849427933,-0.00452380371159707,-0.0882624128736004,-0.0564818497278706,-0.00428909162560823,0.00452400932882478,-0.0882597051247924,0.0564860808185198,-1.57084426515748,-0.144963141214248,145.733734754073,-0.144963141214248,-72.0669982648016
0.57,0.0343242385002599,0.0147829697833887,-0.262112620208424,-0.172501034244408,0.0343235297894546,-0.0147846152141924,-0.262104350490122,0.172513599296017,-1.57084426515748,-0.144963141214248,140.850765786868,-0.144963141214248,-74.3240678560214
0.58,-0.0819853929246551,-0.053083856480892,0.261549542725344,0.0602419047363384,-0.081982848077292,0.0530877866653875,0.261546654526541,-0.0602544429239259,-1.57084426515748,-0.144963141214248,137.798910182363,-0.144963141214248,-72.8250556176524
0.59,0.0148415935898252,-0.00452380370667569,-0.20345870412,-0.0564818497574444,0.0148418104365138,0.00452309221978308,-0.203455996238825,0.0564916031696696,-1.57084426515748,-0.144963141214248,140.850765786868,-0.144963141214248,-62.6401933028122
0.6,0.0150760888106677,0.0344414861134865,-0.204514474595805,-0.290633928589255,0.015074437724896,-0.0344422087969232,-0.204500541846167,0.290643732344337,-1.57084426515748,-0.144963141214248,145.733734754073,-0.144963141214248,-69.8009161292164
0.61,-0.00505141796903214,-0.004758298934192,-0.0264411853525563,-0.0550727098472192,-0.00505118985816834,0.00475854108543058,-0.0264385452266421,0.0550739773310684,-1.57084426515748,-0.144963141214248,145.733734754073,-0.144963141214248,-69.9456703474918
0.62,0.0147243459820291,0.0340897432843142,-0.144100941066635,-0.288520218796642,0.0147227117586369,-0.0340904491061798,-0.144087109714201,0.288527126428279,-1.57084426515748,-0.144963141214248,143.028264760599,-0.144963141214248,-71.0812630512593
0.63,0.0539241310232118,0.0538655072160659,-0.37942045237995,-0.407357683023864,0.0539215487370359,-0.0538680921887161,-0.379400923883677,0.407375871351003,-1.57084426515748,-0.144963141214248,142.955020225784,-0.144963141214248,-66.094942661249
0.64,-0.00458242751521599,-0.00452380371017604,-0.0868547189354997,-0.173205604196326,-0.00458221064620815,0.00452402337904965,-0.0868464156426475,0.173209767670312,-1.57084426515748,-0.144963141214248,140.850765786868,-0.144963141214248,-55.1472426238427
0.65,0.0831774102910169,0.0538655072157101,-0.496728284553607,-0.407357683021726,0.0831748279712278,-0.0538694945426681,-0.496708755922542,0.407381494894256,-1.57084426515748,-0.144963141214248,140.850765786868,-0.144963141214248,-54.2137132944661
0.66,0.0151347126174867,-0.00428930848894883,-0.204866398093138,-0.17461474406662,0.0151349182225218,0.00428858295067944,-0.204858027112827,0.17462456482565,-1.57084426515748,-0.144963141214248,145.733734754073,-0.144963141214248,-48.5029109768852
0.67,-0.0532597278824289,-0.0533183516899306,0.205359090972627,0.060946474626932,-0.0532571718267564,0.0533209048128109,0.205356169062463,-0.0609563191354611,-1.57084426515748,-0.144963141214248,145.779512588585,-0.144963141214248,-49.6675922647763
0.68,0.00507095923278392,0.0147829697858238,-0.144804788041009,-0.173205604196326,0.00507025055559178,-0.0147832128623198,-0.144796484681569,0.173212545701736,-1.57084426515748,-0.144963141214248,145.692534703644,-0.144963141214248,-54.6430420790885
0.69,0.014782969781256,-0.00464105132025594,-0.203106780608958,-0.0557772798034009,0.0147831922486706,0.004640342643558,-0.203104106504117,0.0557870163457988,-1.57084426515748,-0.144963141214248,140.850765786868,-0.144963141214248,-44.7498568876964
0.7,-0.0149979237344281,0.0142553555353051,-0.025033491413796,-0.170387324438633,-0.014998607095597,-0.0142546365430194,-0.0250253232956958,0.170388524307438,-1.57084426515748,-0.144963141214248,140.850765786868,-0.144963141214248,-51.9108792004044
0.71,-0.0143530618708351,-0.024065072421416,-0.0282008028650454,-0.0564818497702599,-0.0143519082141759,0.0240657604560481,-0.0281980951852487,0.0564832016056722,-1.57084426515748,-0.144963141214248,142.955020225939,-0.144963141214248,-40.7689103048618
0.72,-0.0529079850549311,-0.00440655609725407,0.145297480950829,-0.0571864196864977,-0.0529077737510537,0.00440909241436093,0.145300222207196,0.0571794542974663,-1.57084426515748,-0.144963141214248,145.733734754073,-0.144963141214248,-47.6723743504385
0.73,0.00518820684621402,-0.0238305771889229,-0.145156711533001,0.0595373346825364,0.00518934923910198,0.0238303284473996,-0.145159565488546,-0.0595303760390591,-1.57084426515748,-0.144963141214248,145.733734754073,-0.144963141214248,-34.4094985960002
0.74,-0.0142944380668348,-0.0239478248134155,-0.028552726348661,0.060241904702155,-0.0142932900309013,0.0239485100378531,-0.0285556142141219,-0.0602405358619864,-1.57084426515748,-0.144963141214248,145.733734754073,-0.144963141214248,-43.656630508469
0.75,-0.0430787268636655,0.0150174650130398,0.144593633814802,-0.173910174167461,-0.0430794467268488,-0.0150153998721568,0.144601970617641,0.173903242385589,-1.57084426515748,-0.144963141214248,142.98706471002,-0.144963141214248,-32.8268257600828
0.76,0.0341483670830885,0.0149002173966153,-0.261056849723334,-0.173205604196326,0.0341476527518267,-0.0149018543962966,-0.261048546230316,0.173218118635218,-1.57084426515748,-0.144963141214248,140.850765786868,-0.144963141214248,-40.3222427965079
0.77,0.00512958303817967,0.0149002173966153,-0.145156711533001,-0.173205604196326,0.00512886874026169,-0.0149004632833058,-0.145148408173158,0.173212562572372,-1.57084426515748,-0.144963141214248,142.98706471002,-0.144963141214248,-40.2373626364566
0.78,0.102249688559961,0.102308312366218,-0.611220728757401,-0.640100621977469,0.1022447839495,-0.102313213931304,-0.611190042679387,0.640129922162868,-1.57084426515748,-0.144963141214248,142.98706471002,-0.144963141214248,-46.9904273176449
0.79,0.00501233542987661,-0.0239478248205228,-0.144452864563954,-0.0564818497257325,0.00501348344362612,0.0239475845098526,-0.144450156750581,0.0564887744946275,-1.57084426515748,-0.144963141214248,145.733734754073,-0.144963141214248,-64.6248342220664
