t,iq,id,vq,vd,ia,ib,va,vb,theta_e,omega,omega_obs,r,omega_ekf
0,0,0,0,0,0,0,0,0,0,-0.144963141214248,0,0,0
0.01,-0.014235814260453,0.0147829697844562,0.0297492662407888,-0.0557772798034009,-0.00566592588938255,0.01972541221679,0.0333793105975367,-0.0536837536705974,2.61705109019401,-0.144963141214248,-0.144963141214248,-0.144963141214248,-2.19105398129311e-09
0.02,-0.00446517989508601,-0.0928112557797381,-0.0285527263782154,0.415345157714854,0.082569353564457,-0.0426165329755383,-0.34520383739745,0.232725522594495,2.61705109019401,-0.144963141214248,-0.144963141214248,-0.144963141214248,1.00589290779336
0.03,-0.00464105132025594,-0.00487554654528491,-0.027848879358281,-0.0536635699604837,0.00654436093189975,0.00157532582836478,0.060395869003469,-0.00277088970037334,2.61705109019401,-0.144963141214248,-0.144963141214248,-0.144963141214248,-5.43624617644431
0.04,0.00507095923402848,-0.111707662633991,-0.144452864563958,0.529250632394257,0.0941493535240983,-0.0603342004977038,-0.385750460663172,0.390089020697334,2.61705109019401,-0.144963141214248,-0.144963141214248,-0.144963141214248,-6.38477140833096
0.05,-0.0144116856786916,-0.0241823200371289,0.0308050367290811,0.178374799032681,0.028148701232893,0.000363187803842209,-0.169820617080331,0.0626695877781637,2.61705109019401,-0.144963141214248,-0.144963141214248,-0.144963141214248,-23.0039569932365
0.06,-0.00464105132025594,-0.00516866555921598,-0.027848879358281,-0.052959000105548,0.00679807115698554,0.00142852706128942,0.0597860260114124,-0.00241802966363975,2.61705109019401,-0.144963141214248,-0.144963141214248,-0.144963141214248,-26.8527975247163
0.07,0.00507095923156691,-0.0237719533908396,-0.0861508719463445,0.060241904685704,0.0180362816165804,-0.0162945678369163,-0.00899684185562779,0.104738324666293,2.61705109019401,-0.144963141214248,-0.144963141214248,-0.144963141214248,-34.9347789575632
0.08,-0.0143530618741849,-0.0240650724281156,0.0304531132424257,0.0609464746629283,0.0280178573856037,0.000371165265889321,-0.0680038562329437,0.00416418268620424,2.61705109019401,-0.144963141214248,-0.144963141214248,-0.144963141214248,-33.7053582170166
0.09,-0.00469967512704634,-0.0919318986714839,-0.0274969558579161,0.410413167998077,0.0819256618557591,-0.0419731684429419,-0.341463682858285,0.229341675969559,2.61705109019401,-0.144963141214248,-0.144963141214248,-0.144963141214248,-37.6169743124502
0.1,-0.00464105132025594,-0.0920491463040184,-0.027848879358281,0.411822307982102,0.0819977862137101,-0.0420826300117582,-0.342507120069895,0.230352004841816,2.61705109019401,-0.144963141214248,-0.144963141214248,-0.144963141214248,-37.2385441489828
0.11,-0.0143530618717234,0.0631085273121436,0.0304531132276491,-0.287815648764522,-0.0474355678814489,0.0440291210946294,0.233868463995146,-0.170501558138187,2.61705109019401,-0.144963141214248,-0.144963141214248,-0.144963141214248,-34.3546606262327
0.12,0.0147829697868912,-0.00358582283273901,-0.144452864555424,-0.0607092693194977,-0.00429982962726662,-0.0145912914536175,0.124891470908441,0.0946275116121146,2.61705109019401,-0.144963141214248,-0.144963141214248,-0.144963141214248,-34.128083263075
0.13,-0.00464105132025594,-0.0429614792611031,-0.027848879358281,0.175556519190858,0.039509778058352,-0.0174987283949209,-0.138006410100968,0.112026257113972,2.61705109019401,-0.144963141214248,-0.144963141214248,-0.144963141214248,-35.4805054676649
0.14,-0.00464105132025594,-0.00358582282953681,-0.027848879358281,-0.0607092693344644,0.00542803589439172,0.00222124043076651,0.0664942996377905,-0.00629949048069403,2.61705109019401,-0.144963141214248,-0.144963141214248,-0.144963141214248,-25.347556497615
0.15,-0.00452380370560883,0.0827670436397526,-0.0285527263654118,-0.40594854310082,-0.0693737202248973,0.0453666755999298,0.365669902586536,-0.178591713612165,2.61705109019401,-0.144963141214248,-0.144963141214248,-0.144963141214248,-33.0213154564698
0.16,0.00512958303817967,-0.0241823200371289,-0.086502795445643,0.061651044589528,0.0183621161995536,-0.0165508281725659,-0.010040278998353,0.10574865349746,2.61705109019401,-0.144963141214248,-0.144963141214248,-0.144963141214248,-38.9288694856658
0.17,-0.00481692274276032,-0.00382031801523555,-0.0271450323490142,-0.0593001296163642,0.005719083319765,0.00225602757714541,0.0649221156226828,-0.00620298773347322,2.61705109019401,-0.144963141214248,-0.144963141214248,-0.144963141214248,-31.4725070575062
0.18,-0.00464105132025594,-0.00487554654183679,-0.027848879358281,-0.0543681399288434,0.00654436092891522,0.00157532583009165,0.0610057120937,-0.00312374979391147,2.61705109019401,-0.144963141214248,-0.144963141214248,-0.144963141214248,-36.8959725608252
0.19,0.00507095923050059,-0.0240650724217708,-0.0861508719399433,0.0609464746248005,0.0182899918569147,-0.0164413666115827,-0.00960668492373579,0.105091184739635,2.61705109019401,-0.144963141214248,-0.144963141214248,-0.144963141214248,-32.3510980553672
0.2,-0.00469967512582905,-0.00452380370910972,-0.0274969558652236,-0.0564818497428177,0.00626926839976575,0.00180222640602941,0.0626589922793987,-0.00448693868406326,2.61705109019401,-0.144963141214248,-0.144963141214248,-0.144963141214248,-32.6619199688836
0.21,-0.0143530618708348,0.0646913701145008,0.030453113222315,-0.295565918357291,-0.0488056032073945,0.0448218344997358,0.24057673793913,-0.174383019132848,2.61705109019401,-0.144963141214248,-0.144963141214248,-0.144963141214248,-34.0752216066402
0.22,0.0243191089205465,-0.0431959745022435,-0.202051010149745,0.176965659157802,0.0252090272437728,-0.0426827391027169,-0.0519828374035423,0.26351326311813,2.61705109019401,-0.144963141214248,-0.144963141214248,-0.144963141214248,-34.9623468921423
0.23,0.0147829697805461,-0.00464105132025594,-0.144452864517334,-0.0550727098344004,-0.00338647278143859,-0.0151197670283098,0.120012726394101,0.0974503921963468,2.61705109019401,-0.144963141214248,-0.144963141214248,-0.144963141214248,-23.8299662725034
0.24,-0.00458242751432757,-0.0436063411421434,-0.028200802853471,0.17837479903877,0.0400385808421689,-0.0178724277554607,-0.140269533432591,0.113742306132351,2.61705109019401,-0.144963141214248,-0.144963141214248,-0.144963141214248,-29.7189299175048
0.25,-0.00469967512846819,-0.00505141797774166,-0.0274969558493806,0.0630601845317985,0.00672594684394195,0.00153798860576451,-0.0408110488434974,0.0553816553243124,2.61705109019401,-0.144963141214248,-0.144963141214248,-0.144963141214248,-28.6210922047817
0.26,-0.0144116856786916,0.0146657221722968,0.0308050367290811,-0.0550727098578966,-0.00547636252845361,0.019818918850264,0.032240720504105,-0.0542447195618918,2.61705109019401,-0.144963141214248,-0.144963141214248,-0.144963141214248,-31.6289063602368
0.27,0.00507095922978953,0.0145484745462744,-0.0861508719356747,-0.0543681398568541,-0.0151321036978365,0.00289692540665179,0.090204297662586,0.047339751266468,2.61705109019401,-0.144963141214248,-0.144963141214248,-0.144963141214248,-26.9493647897638
0.28,0.00501233542566465,0.0143726031402977,-0.0857989484513112,-0.170387324405757,-0.0149505178107612,0.00285958819377532,0.190448874425085,-0.0110691509937062,2.61705109019401,-0.144963141214248,-0.144963141214248,-0.144963141214248,-24.4459966398314
0.29,-0.0144116856786916,0.151395979393961,0.0308050367290811,-0.758938086316316,-0.123823732323791,0.0882956543334057,0.641473948660866,-0.406751942022148,2.61705109019401,-0.144963141214248,-0.144963141214248,-0.144963141214248,-15.8457347230841
0.3,0.00512958303817967,0.0146657221708758,-0.086502795445643,-0.171796464296778,-0.015262947560563,0.0029049028731443,0.192021058582386,-0.0111656538404558,2.61705109019401,-0.144963141214248,-0.144963141214248,-0.144963141214248,-22.8247574965174
0.31,-0.0144116856786916,0.0149002173966153,0.0308050367290811,-0.172501034271863,-0.00567933071992469,0.0199363578705219,0.133881232386829,-0.113054733325617,2.61705109019401,-0.144963141214248,-0.144963141214248,-0.144963141214248,-22.3759252230366
0.32,-0.00458242751364317,0.0432741395661178,-0.0282008028575795,-0.285701938925871,-0.03516113418327,0.0256387292986941,0.261413769426686,-0.11867486819856,2.61705109019401,-0.144963141214248,-0.144963141214248,-0.144963141214248,-17.0988970609132
0.33,-0.00464105132025594,0.043391387208827,-0.027848879358281,-0.16968275456332,-0.0352332585501168,0.0257481908724522,0.160816694814435,-0.060875183339919,2.61705109019401,-0.144963141214248,-0.144963141214248,-0.144963141214248,-5.46291039444688
0.34,-0.00458242751346527,-0.0436063411404188,-0.0282008028586474,0.178374799028407,0.0400385808402444,-0.0178724277553433,-0.140269533421028,0.113742306131641,2.61705109019401,-0.144963141214248,-0.144963141214248,-0.144963141214248,-10.5419060645121
0.35,-0.00458242751557125,-0.00475829892962534,-0.0282008028460051,-0.0550727098746614,0.00641351707876862,0.00158330329358634,0.0617918041678878,-0.00317200122561257,2.61705109019401,-0.144963141214248,-0.144963141214248,-0.144963141214248,-13.800307660353
0.36,0.00524683065211573,-0.0733872346711152,-0.0868547189470741,0.298621403243931,0.0608928889213754,-0.0412949333862442,-0.214974582956122,0.224731869928568,2.61705109019401,-0.144963141214248,-0.144963141214248,-0.144963141214248,-11.9176345008023
0.37,0.00512958303817967,-0.0241823200371289,-0.086502795445643,0.061651044589528,0.0183621161995536,-0.0165508281725659,-0.010040278998353,0.10574865349746,2.61705109019401,-0.144963141214248,-0.144963141214248,-0.144963141214248,-25.1378576048213
0.38,0.0439190014361925,0.0442121204719221,-0.261056849697729,-0.173205604196326,-0.0602633110065625,-0.0158721022647396,0.280660252624617,0.139214520420118,2.61705109019401,-0.144963141214248,-0.144963141214248,-0.144963141214248,-19.4923989475439
0.39,-0.00464105132025594,-0.0434890935338404,-0.027848879358281,0.177670229116439,0.0399664565047598,-0.0177629661995261,-0.139835939389406,0.113084837404854,2.61705109019401,-0.144963141214248,-0.144963141214248,-0.144963141214248,-27.3865480128642
0.4,-0.00458242751293211,0.0834119055203122,-0.028200802861848,-0.408766822942642,-0.0699025230075996,0.0457403749614362,0.367933025908694,-0.180307762634742,2.61705109019401,-0.144963141214248,-0.144963141214248,-0.144963141214248,-24.2976394634012
0.41,-0.00458242751503809,-0.0433718459226931,-0.0282008028492057,0.176965659177015,0.0398356126552673,-0.0177549887370258,-0.13904984731915,0.113036585979126,2.61705109019401,-0.144963141214248,-0.144963141214248,-0.144963141214248,-13.5363695597101
0.42,0.00507095923067849,0.0158381983166343,-0.0861508719410112,-0.177433023971863,-0.0162484287830591,0.00354284003563454,0.196723554230159,-0.0142931432179881,2.61705109019401,-0.144963141214248,-0.144963141214248,-0.144963141214248,-25.952979771912
0.43,0.0244949803388653,-0.130897188509783,-0.144452864549023,0.644565246930496,0.101031051686044,-0.0867571588791324,-0.485561443306357,0.447840454181215,2.61705109019401,-0.144963141214248,-0.144963141214248,-0.144963141214248,-21.764141411042
0.44,0.00489508780746332,-0.0242995676524871,-0.0854470249285438,0.0623556145542555,0.01858103932152,-0.0164065794872881,-0.0111788691228505,0.105187687590859,2.61705109019401,-0.144963141214248,-0.144963141214248,-0.144963141214248,-28.9431168974933
0.45,0.0342656146967672,-0.0241823200371289,-0.203106780634249,0.061651044589528,0.00377031791397689,-0.0417696259948899,0.0483568922809768,0.206675655575384,2.61705109019401,-0.144963141214248,-0.144963141214248,-0.144963141214248,-48.2032258381373
0.46,-0.00446517989668498,-0.0925767605461782,-0.0285527263718163,0.413936017768311,0.0823663853657878,-0.0424990939492682,-0.34398415121169,0.232019802396961,2.61705109019401,-0.144963141214248,-0.144963141214248,-0.144963141214248,-45.1282780138374
0.47,0.00507095923242866,0.0142553555333542,-0.0861508719515177,-0.169682754488551,-0.0148783934749474,0.00275012663779836,0.19001528038885,-0.0104116822644349,2.61705109019401,-0.144963141214248,-0.144963141214248,-0.144963141214248,-35.1837283391849
0.48,-0.00469967512829028,-0.0433718459057941,-0.0274969558504486,0.177670229044462,0.0398943321513166,-0.017653504631881,-0.140012188340645,0.112780228700855,2.61705109019401,-0.144963141214248,-0.144963141214248,-0.144963141214248,-40.9529965317321
0.49,0.015017465008472,-0.0045238037083992,-0.145860558523382,-0.0564818497470874,-0.00360539589897685,-0.0152640157129259,0.121937408595253,0.0979631066712343,2.61705109019401,-0.144963141214248,-0.144963141214248,-0.144963141214248,-31.9815064979502
0.5,-0.0337184591627156,0.130916729725386,0.0884031822897422,-0.637282341998956,-0.0964286975255757,0.0947503609693303,0.507328290552469,-0.395679051337996,2.61705109019401,-0.144963141214248,-0.144963141214248,-0.144963141214248,-42.0799402505396
0.51,-0.0142944380665323,-0.072742372798909,0.0301011897368852,0.295098553484377,0.0701213114244454,-0.0240579600999195,-0.270498787862772,0.121735958766992,2.61705109019401,-0.144963141214248,-0.144963141214248,-0.144963141214248,-50.7687725222137
0.52,-0.00464105132025594,-0.0440167077738683,-0.027848879358281,0.180488508822844,0.040423134922856,-0.01802720398775,-0.142275311605754,0.114496277695354,2.61705109019401,-0.144963141214248,-0.144963141214248,-0.144963141214248,-39.1731076005878
0.53,0.00512958303817967,0.0146657221715852,-0.144804788035836,-0.171796464301042,-0.0152629475611771,0.00290490287349959,0.221219644223682,0.0392978471928134,2.61705109019401,-0.144963141214248,-0.144963141214248,-0.144963141214248,-47.6697287357663
0.54,-0.0141185666579339,-0.0727423728085494,0.0290454193064634,0.295098553530722,0.0700332321724244,-0.0242101862400066,-0.269970040908886,0.122649784713498,2.61705109019401,-0.144963141214248,-0.144963141214248,-0.144963141214248,-41.6620926601771
0.55,-0.00469967512669135,-0.0924595129333074,-0.0274969558600471,0.413231447818531,0.0823823402925427,-0.0422374062423887,-0.343903055172281,0.230753116319021,2.61705109019401,-0.144963141214248,-0.144963141214248,-0.144963141214248,-41.8944659257867
0.56,-0.0337184591782468,-0.0042306846899499,0.0884031823596687,-0.0571864196523403,0.0205486369486016,0.0270663389074961,0.00522416204043171,-0.10515758353512,2.61705109019401,-0.144963141214248,-0.144963141214248,-0.144963141214248,-42.6380932691895
0.57,-0.0044065560938027,-0.00452380370702932,-0.0292565733554881,0.0609464746376095,0.00612246962182728,0.00154851616632309,-0.0381002745310934,0.0558461183603046,2.61705109019401,-0.144963141214248,-0.144963141214248,-0.144963141214248,-44.2161573243525
0.58,-0.0336598353730333,0.0439190014493909,0.0880512588698314,-0.171796464343137,-0.0211568581900493,0.0511297423930284,0.104601550696823,-0.162251548347572,2.61705109019401,-0.144963141214248,-0.144963141214248,-0.144963141214248,-41.9346312572104
0.59,0.00512958303817967,-0.0239478248099684,-0.086502795445643,0.0602419046814409,0.0181591480056226,-0.0164333891508847,-0.00882059284267354,0.105042933324724,2.61705109019401,-0.144963141214248,-0.144963141214248,-0.144963141214248,-40.1963386170189
0.6,-0.0141185666552708,-0.0241823200371289,0.0293973427781976,0.061651044589528,0.028001902461065,0.000109477570542599,-0.0680849522760977,0.00543086871138566,2.61705109019401,-0.144963141214248,-0.144963141214248,-0.144963141214248,-42.7706375621418
0.61,-0.0144116856786916,0.0149002173966153,0.0308050367290811,-0.173205604196326,-0.00567933071992469,0.0199363578705219,0.134491075439065,-0.113407593397171,2.61705109019401,-0.144963141214248,-0.144963141214248,-0.144963141214248,-41.2707177773028
0.62,0.0149588412014773,0.130564986966567,-0.14550863502179,-0.635168632528457,-0.120502628618861,0.0524413886888557,0.622645602202926,-0.192157249853682,2.61705109019401,-0.144963141214248,-0.144963141214248,-0.144963141214248,-30.4205195468544
0.63,-0.00481692274169373,-0.0431959744896868,-0.0271450323532827,0.176965659107498,0.0398008255203103,-0.0174639412709427,-0.139578594285784,0.112122759964319,2.61705109019401,-0.144963141214248,-0.144963141214248,-0.144963141214248,-21.3726063082985
0.64,0.024553604144971,0.0440362490568023,-0.144804788043145,-0.173205604196326,-0.0504125791012244,0.000801608298019264,0.222439330371941,0.0385921270328147,2.61705109019401,-0.144963141214248,-0.144963141214248,-0.144963141214248,-34.3783470003666
0.65,-0.00464105132025594,-0.0426683602221713,-0.027848879358281,0.174147379259252,0.0392560678116267,-0.0173519296153247,-0.136786723924931,0.111320536929457,2.61705109019401,-0.144963141214248,-0.144963141214248,-0.144963141214248,-31.0275330963173
0.66,-0.00440655609938453,0.0440362490562686,-0.0289046498310551,-0.289929358654108,-0.0359088600783724,0.0258681799799408,0.265425325903113,-0.120182811419373,2.61705109019401,-0.144963141214248,-0.144963141214248,-0.144963141214248,-36.2267408339225
0.67,-0.00458242751275421,0.04380175381941,-0.028200802862916,-0.171796464271134,-0.0356178126132924,0.0259029670927915,0.162822472926322,-0.0616291548565551,2.61705109019401,-0.144963141214248,-0.144963141214248,-0.144963141214248,-32.8133230942696
0.68,0.00507095923278392,-0.0245926866748992,-0.0861508719536503,0.0637647544013838,0.0187466702852065,-0.0167056044083438,-0.0120460571939619,0.106502625077145,2.61705109019401,-0.144963141214248,-0.144963141214248,-0.144963141214248,-36.3487461026579
0.69,0.00507095923050005,-0.0240650724217697,-0.08615087193994,0.0609464746247939,0.018289991856914,-0.0164413666115816,-0.00960668492373178,0.105091184739629,2.61705109019401,-0.144963141214248,-0.144963141214248,-0.144963141214248,-31.8226824137752
0.7,-0.00458242751468229,-0.0436063411428529,-0.0282008028513416,0.178374799043033,0.0400385808429606,-0.0178724277555089,-0.140269533437347,0.113742306132643,2.61705109019401,-0.144963141214248,-0.144963141214248,-0.144963141214248,-35.5432499443085
0.71,-0.00446517989668661,-0.00487554655168173,-0.0285527263718098,-0.0543681398696827,0.00645628166957357,0.00142309967694401,0.0613582100684999,-0.00251453243022639,2.61705109019401,-0.144963141214248,-0.144963141214248,-0.144963141214248,-27.2573008142633
0.72,-0.00458242751450547,-0.00475829893175689,-0.028200802852403,-0.0550727098618524,0.00641351708007983,0.00158330329159634,0.0617918041600051,-0.00317200121365985,2.61705109019401,-0.144963141214248,-0.144963141214248,-0.144963141214248,-31.9361298116115
0.73,0.00512958303817967,0.0141381078921688,-0.086502795445643,-0.168978184382343,-0.014806269108988,0.00264066506554933,0.189581686185977,-0.00975421344577146,2.61705109019401,-0.144963141214248,-0.144963141214248,-0.144963141214248,-28.7737772134551
0.74,-0.00464105132025594,-0.00464105132025594,-0.027848879358281,0.061651044589528,0.00634139273981369,0.00169276484897846,-0.0394151136441573,0.054980543803333,2.61705109019401,-0.144963141214248,-0.144963141214248,-0.144963141214248,-34.649657949637
0.75,-0.00464105132025594,-0.00411343704634574,-0.027848879358281,-0.0578909897168067,0.0058847142923906,0.0019570026541711,0.0640549274982583,-0.00488805023464072,2.61705109019401,-0.144963141214248,-0.144963141214248,-0.144963141214248,-28.1935398717364
0.76,0.0247294755611305,-0.043606341141841,-0.145508635029099,0.178374799036953,0.0253587032918223,-0.0432434517200522,-0.0815198641389556,0.215278525520478,2.61705109019401,-0.144963141214248,-0.144963141214248,-0.144963141214248,-33.4716009530284
0.77,0.00501233543023241,-0.0239478248212344,-0.0857989484787318,0.0602419047491409,0.0182178675233934,-0.016331905064437,-0.00917309090393125,0.104433716064923,2.61705109019401,-0.144963141214248,-0.144963141214248,-0.144963141214248,-19.0739172066338
0.78,-0.00458242751399843,-0.0919318986773456,-0.0282008028554468,0.410413168030099,0.0818669423502587,-0.0420746525423824,-0.341111184868008,0.229950893305806,2.61705109019401,-0.144963141214248,-0.144963141214248,-0.144963141214248,-24.4476558476891
0.79,-0.00446517990780134,-0.0922836415254206,-0.028552726327328,0.412526877923648,0.0821126751403604,-0.0423522951691522,-0.342764465133187,0.23131408221748,2.61705109019401,-0.144963141214248,-0.144963141214248,-0.144963141214248,-10.1393457062242
