t,iq,id,vq,vd,ia,ib,va,vb,theta_e,omega,omega_obs,r
0,0,0,0,0,0,0,0,0,0,-0.144963141214248,0,0
0.01,-0.00468990449312559,0.0443098268176614,-0.027555609771376,-0.291221070224169,-0.0360037508198308,0.0262504453994465,0.265867750343448,-0.121997388085553,2.61705109019401,-0.144963141214248,142.98706471002,-0.144963141214248
0.02,-0.0144116856786916,-0.0230586970590831,0.0308050367290811,-0.0610615545272411,0.0271761452910304,0.000925916456693997,0.0374243867176535,-0.0572440303260592,2.61705109019401,-0.144963141214248,142.98706471002,-0.144963141214248
0.03,-0.0144116856786916,0.0635579764966039,0.0308050367290811,-0.406887969708084,-0.0477952304968351,0.0443049546010225,0.336755694023336,-0.230439520750907,2.61705109019401,-0.144963141214248,145.733734754073,-0.144963141214248
0.04,-0.00468990449339219,0.0927233200521465,-0.0275556097697756,-0.523729152460754,-0.0779082253912395,0.0504967098139845,0.467115963781229,-0.238441215287495,2.61705109019401,-0.144963141214248,142.98706471002,-0.144963141214248
0.05,-0.0047387576667062,0.00512958303817967,-0.0272623401802031,-0.0557772798034009,-0.00206668232178836,0.00667062744801079,0.0619316498652836,-0.00433715106168855,2.61705109019401,-0.144963141214248,142.98706471002,-0.144963141214248
0.06,-0.00464105132025594,-0.0432839101941747,-0.027848879358281,0.0598896196687661,0.0397888593213077,-0.017660207047592,-0.0378905059186985,0.0540983935695564,2.61705109019401,-0.144963141214248,142.98706471002,-0.144963141214248
0.07,-0.0143139793318858,-0.0241823200371289,0.030218497548869,-0.0551901381620779,0.028099768306113,0.000278617721171848,0.0326361093546182,-0.0537958484518428,2.61705109019401,-0.144963141214248,142.98706471002,-0.144963141214248
0.08,-0.00473875766723936,0.0053249957321465,-0.0272623401770025,-0.0569515630881817,-0.00223582248716956,0.00676849330221027,0.062948055017685,-0.00492525122244985,2.61705109019401,-0.144963141214248,145.733734754073,-0.144963141214248
0.09,0.00508072986459915,-0.0240357605163874,-0.0862095258544706,0.0610639029460701,0.0182597275385658,-0.01643514374064,-0.00967895059903244,0.105200762860168,2.61705109019401,-0.144963141214248,145.733734754073,-0.144963141214248
0.1,-0.02408461368979,0.180121644363972,0.0888724136330304,-0.991093883435133,-0.143842976181585,0.111054372215558,0.813336154150647,-0.57327976768671,2.61705109019401,-0.144963141214248,142.98706471002,-0.144963141214248
0.11,0.024524292233776,0.00512958303817967,-0.144570172348522,-0.173205604196326,-0.0167220934076954,-0.0186581114740356,0.222321831018197,0.0383890545678354,2.61705109019401,-0.144963141214248,142.98706471002,-0.144963141214248
0.12,-0.00464105132025594,-0.0437235887540002,-0.027848879358281,0.061651044589528,0.0401694246926314,-0.0178804052177012,-0.0394151136441573,0.054980543803333,2.61705109019401,-0.144963141214248,142.98706471002,-0.144963141214248
0.13,-0.00454334497240605,0.00522728938602956,-0.0281421489515209,-0.0563644214509981,-0.00224911825926738,0.00655042020937701,0.0628804749815078,-0.00386967947190681,2.61705109019401,-0.144963141214248,142.98706471002,-0.144963141214248
0.14,-0.0239869073410734,0.0441144141238943,0.0885791440351213,-0.290046786940589,-0.0261703579389222,0.0428551703138884,0.206689172615067,-0.221930145082305,2.61705109019401,-0.144963141214248,142.98706471002,-0.144963141214248
0.15,-0.0241334668652368,0.00522728938196386,0.0891656832354065,-0.0563644214265663,0.00756193324226153,0.023506721227297,0.00413080566264044,-0.105405898858489,2.61705109019401,-0.144963141214248,142.98706471002,-0.144963141214248
0.16,-0.00464105132025594,0.0437724419240927,-0.027848879358281,-0.288872503716551,-0.035563081840266,0.0259390292682255,0.263981814265523,-0.120567347246524,2.61705109019401,-0.144963141214248,142.98706471002,-0.144963141214248
0.17,-0.0240846136929889,0.131512738460933,0.088872413652234,-0.756824376409145,-0.101769361464788,0.0867102419630085,0.610563333090686,-0.455953790334785,2.61705109019401,-0.144963141214248,142.98706471002,-0.144963141214248
0.18,-0.00464105132025594,-0.0434793228932068,-0.027848879358281,0.0610639029631586,0.0399579994913402,-0.0177580729038667,-0.0389069110810222,0.0546864937323611,2.61705109019401,-0.144963141214248,142.98706471002,-0.144963141214248
0.19,0.0439190014384364,-0.130682234534968,-0.260998195791871,0.526667209141732,0.0911171319732832,-0.103462038310508,-0.325146572879507,0.48967143426635,2.61705109019401,-0.144963141214248,142.98706471002,-0.144963141214248
0.2,-0.00449449180324621,-0.043283910202971,-0.0284354185256907,0.176730802468427,0.0397154599403534,-0.017787062173234,-0.138729066898998,0.11312203837095,2.61705109019401,-0.144963141214248,142.98706471002,-0.144963141214248
0.21,-0.00454334497540543,-0.0433816165470234,-0.0281421489425182,0.0604767613303815,0.0398244964834077,-0.0177937100583764,-0.0382518343372085,0.0546462842099402,2.61705109019401,-0.144963141214248,142.98706471002,-0.144963141214248
0.22,-0.00468990449277014,-0.0433816165464007,-0.0275556097735098,0.0604767613282434,0.0398978958716145,-0.0176668549365206,-0.03854558268589,0.054138603104887,2.61705109019401,-0.144963141214248,142.98706471002,-0.144963141214248
0.23,-0.00444563862984332,0.00454334496694182,-0.0287286881141964,-0.0534287132765554,-0.00170606061263277,0.00612331964720231,0.0606332104763238,-0.00189174799721371,2.61705109019401,-0.144963141214248,140.850765786868,-0.144963141214248
0.24,-0.0241334668644371,0.00498302352010417,0.0891656832306056,-0.0557772798034009,0.00777335844407519,0.0233843889122363,0.00362260310468283,-0.105111848784966,2.61705109019401,-0.144963141214248,142.98706471002,-0.144963141214248
0.25,-0.0143628325059108,-0.0242800263826905,0.0305117671427096,0.061651044589528,0.028208804851408,0.00027196983688858,-0.0686430741137605,0.00446627466281294,2.61705109019401,-0.144963141214248,142.98706471002,-0.144963141214248
0.26,-0.00444563862877701,0.0441144141261827,-0.0287286881189973,-0.29004678695434,-0.0359569429719511,0.0259411543425861,0.265438841908259,-0.120393925718772,2.61705109019401,-0.144963141214248,142.98706471002,-0.144963141214248
0.27,-0.00473875766617332,-0.043283910197372,-0.0272623401834021,0.0598896196815751,0.0398377922504102,-0.0175756369672918,-0.0381842542832575,0.0535907124669078,2.61705109019401,-0.144963141214248,142.98706471002,-0.144963141214248
0.28,0.0147536578774724,-0.0628251789134427,-0.0859162562696962,0.294159126827172,0.0469896896560872,-0.0442339529354567,-0.211582240791859,0.22168479958856,2.61705109019401,-0.144963141214248,142.98706471002,-0.144963141214248
0.29,-0.043528176061456,0.0634602701499771,0.147233060138293,-0.406300828067836,-0.0331286487173352,0.0694579054745289,0.277938444688388,-0.33092016839488,2.61705109019401,-0.144963141214248,142.98706471002,-0.144963141214248
0.3,-0.0531033977266358,0.0442121204719221,0.205007167456939,-0.290633928589255,-0.0116729163242645,0.0681059870438991,0.148888328431388,-0.322998892897249,2.61705109019401,-0.144963141214248,142.98706471002,-0.144963141214248
0.31,-0.0143628325053776,0.024573145408423,0.030511767139509,-0.172618462556072,-0.0140762350889578,0.0247384324192424,0.134129747041717,-0.112859702762868,2.61705109019401,-0.144963141214248,142.98706471002,-0.144963141214248
0.32,-0.0240846136903232,0.00512958303817967,0.088872413636231,-0.0557772798034009,0.00762203685816989,0.0234155032593874,0.00376947728489214,-0.104858008224431,2.61705109019401,-0.144963141214248,142.98706471002,-0.144963141214248
0.33,-0.0144116856786916,-0.0241823200371289,0.0308050367290811,-0.0557772798034009,0.028148701232893,0.000363187803842209,0.0328505635745534,-0.0545975796439836,2.61705109019401,-0.144963141214248,142.98706471002,-0.144963141214248
0.34,-0.0142162729843684,-0.0240357605163866,0.0299252279555591,-0.0557772798034009,0.027923980254509,0.000267447028322912,0.0332911861103726,-0.0538360579706908,2.61705109019401,-0.144963141214248,140.882810270703,-0.144963141214248
0.35,-0.00473875766759543,-0.0432839101909725,-0.027262340174865,0.0598896196559375,0.0398377922455833,-0.0175756369628559,-0.0381842542653423,0.0535907124466787,2.61705109019401,-0.144963141214248,140.850765786868,-0.144963141214248
0.36,-0.00454334497273964,0.00522728938569598,-0.0281421489505197,-0.0563644214489935,-0.00224911825881158,0.00655042020949868,0.0628804749792713,-0.00386967947176953,2.61705109019401,-0.144963141214248,142.98706471002,-0.144963141214248
0.37,0.00498302351663836,-0.0240357605155876,-0.0856229866673249,-0.0557772798034009,0.0183086604652321,-0.0163505736565694,0.0911596103279411,0.0461771180668274,2.61705109019401,-0.144963141214248,142.98706471002,-0.144963141214248
0.38,-0.00473875766810584,-0.0432839101886757,-0.027262340171801,0.0598896196467362,0.0398377922438509,-0.0175756369612639,-0.0381842542589125,0.0535907124394185,2.61705109019401,-0.144963141214248,142.98706471002,-0.144963141214248
0.39,-0.0143628325046777,-0.0631671511228436,0.0305117671353071,0.17849222733379,0.0618676966382851,-0.0192033343773086,-0.169775383392134,0.0629822383402707,2.61705109019401,-0.144963141214248,142.98706471002,-0.144963141214248
0.4,-0.00454334497647121,0.0056669679289957,-0.0281421489393192,-0.0587129879192446,-0.00262968361396252,0.00677061837456144,0.064913285195712,-0.00504587974770979,2.61705109019401,-0.144963141214248,142.98706471002,-0.144963141214248
0.41,0.0149002173966153,-0.0626297662351143,-0.086502795445643,0.176143660861268,0.0467471501143386,-0.0442629422126337,-0.109139778056417,0.163088416901128,2.61705109019401,-0.144963141214248,142.98706471002,-0.144963141214248
0.42,0.0163169593866373,0.0247685580991904,-0.0821037517140989,-0.173792745821626,-0.0296103137574484,-0.00171870681723213,0.191545834681932,-0.0159730323280439,2.61705109019401,-0.144963141214248,142.98706471002,98.4543877369495
0.43,0.405823298078361,0.00512958303817967,0.968681154961593,-0.0557772798034009,-0.207682833874053,-0.348692848219441,-0.436853042409651,-0.866379653649267,2.61705109019401,-0.144963141214248,154.001211586931,99.9559006865147
0.44,0.415545079264727,-0.0627274725761475,0.968974424543696,0.176730802472703,-0.153817739454258,-0.391091487693227,-0.638248130056503,-0.750189666978831,2.61705109019401,-0.144963141214248,116.81892882988,99.9559006865147
0.45,0.415642785609489,0.111922616568259,1.02733507104682,-0.639396051996993,-0.30503569015823,-0.303708454044982,0.038925466878271,-1.20943353167523,2.61705109019401,-0.144963141214248,78.0557848691885,99.9559006865147
0.46,0.415642785609756,-0.024377732726831,1.08598898713311,0.062825327848681,-0.18706042872732,-0.371969884650208,-0.598259628695991,-0.9085177591364,2.61705109019401,-0.144963141214248,49.0311121422686,99.9559006865147
0.47,0.454383350836164,-0.0429419379937686,0.970147502881185,0.174969377567938,-0.190394018388125,-0.414799177093908,-0.63731101904569,-0.752087179412104,2.61705109019401,-0.144963141214248,27.9778862546052,99.9559006865147
0.48,0.454578763526222,0.0440167077815106,0.969267694126867,-0.289459645325839,-0.265759255322113,-0.371418013865223,-0.234882172164798,-0.983919262109102,2.61705109019401,-0.144963141214248,9.97193818800439,99.9559006865147
0.49,0.444710422822402,-0.0631671511254877,1.08686879588742,0.17849222734968,-0.16804365225314,-0.416555854700922,-0.698816155386202,-0.851351417259217,2.61705109019401,-0.144963141214248,-0.144963141214248,99.9559006865147
0.5,0.425462273142038,-0.0438212950995617,1.2030035497172,0.0622381862233742,-0.175148741811557,-0.390206829788026,-0.656354221247047,-1.0100941880378,2.61705109019401,-0.144963141214248,-0.144963141214248,99.9559006865147
0.51,0.464251691538918,-0.0241823200371289,1.02880141897494,-0.0557772798034009,-0.211573699157678,-0.413945633536411,-0.466962247933521,-0.91841696610635,2.61705109019401,-0.144963141214248,-0.144963141214248,99.9559006865147
0.52,0.45462761669918,0.00522728938409704,1.14493617280151,-0.17379274583231,-0.232209400076937,-0.39088667019456,-0.422975706083019,-1.07804188710684,2.61705109019401,-0.144963141214248,-0.144963141214248,99.9559006865147
0.53,0.444905835513881,-0.0628251789134427,1.20329681930036,0.059889619678368,-0.168437513393442,-0.416553729621576,-0.654468285134889,-1.01152422889231,2.61705109019401,-0.144963141214248,-0.144963141214248,99.9559006865147
0.54,0.464349397884657,0.0633137106305641,1.08657552630159,-0.640570335215548,-0.28735513860782,-0.37021076913744,0.0102732889794178,-1.26129742259678,2.61705109019401,-0.144963141214248,-0.144963141214248,99.9559006865147
0.55,0.474217738589546,-0.0445052395256087,0.968974424537825,-0.0522544299682523,-0.198974280891882,-0.432749830134886,-0.440049132026174,-0.864869193729738,2.61705109019401,-0.144963141214248,-0.144963141214248,99.9559006865147
0.56,0.464349397884657,-0.111678350703219,1.02792161021423,0.177317944061675,-0.135890125561415,-0.457849638098074,-0.66827804140767,-0.800917567171549,2.61705109019401,-0.144963141214248,-0.144963141214248,99.9559006865147
0.57,0.405285913173413,0.0149490705700187,0.795652102585655,-0.173792745837656,0.377872242752417,-0.147284467222355,0.808580129162998,-0.0972849504163654,-1.90558698194755,27.932108420222,-0.144963141214248,99.9559006865147
0.58,0.43464666942142,0.0732797576797725,0.736411647321239,-0.406887969697413,0.421971320913632,-0.127388596236647,0.78175699805524,0.310991849067662,-1.6969600263561,27.932108420222,-0.144963141214248,99.9559006865147
0.59,0.375974010096514,0.00488531717027841,1.03026776694359,-0.0546029965164917,0.375016947873778,0.0272508972209026,1.02183697401225,0.142416141546561,-1.48526501555933,27.932108420222,-0.144963141214248,99.9559006865147
0.6,0.337233444877656,0.0341483670714713,1.14552271198065,-0.288872503655684,0.302011937092392,0.153887287231271,0.806663256311209,0.863112969401579,-0.998629209928746,35.8669329919321,-0.144963141214248,99.9559006865147
0.61,0.327560516866559,0.0240846136699531,1.20388335847631,-0.287111078715699,0.237922287565114,0.226426469091626,0.596225030949759,1.08456609978666,-0.73675482588727,35.8669329919321,-10.1694921212702,99.9559006865147
0.62,0.308165807671195,-0.0153398959815754,1.32031138187292,-0.0510801466311751,0.125827806662385,0.281724760177197,0.552155118710273,1.20039828863802,-0.469788093603165,35.8669329919321,-47.050123518309,99.9559006865147
0.63,0.317643322986348,-0.0729377854814571,1.0285081494007,0.17849222733486,-0.110159759387467,0.306727939060732,0.0550329932710631,1.04242978576701,0.119089313598855,48.9899120912987,-96.2456396908673,99.9559006865147
0.64,0.239771367162678,0.00512958303817967,1.37925856755085,-0.0557772798034009,-0.106411962421854,0.214925836945527,-0.687726128433104,1.19687011549921,0.481118459191908,48.9899120912987,-104.213239254798,99.9559006865147
0.65,0.20107965509771,-0.0143628325067992,1.55316742877114,0.0610639029663592,-0.160083901924452,0.122525356544981,-1.12250224840373,1.07519605857239,0.846215659990218,48.9899120912987,-60.3417958621341,99.9559006865147
0.66,0.317789882508123,0.00517843621016099,1.02792161021423,-0.173205604196326,-0.299093572395285,0.107518652232697,-1.02878528463577,0.167999571985526,1.24199341283427,48.9899120912987,-10.2632484082063,99.9559006865147
0.67,0.298395173307461,-0.0142162729904105,1.14434963364263,-0.0569515630540145,-0.297682804373181,-0.0250345731228973,-1.14152944205692,-0.0984382926992059,1.60709061363271,48.9899120912987,-0.144963141214248,99.9559006865147
0.68,0.259214929529667,0.0147048047079784,1.20359008889367,-0.289459645336503,-0.224153456026486,-0.131010835902807,-0.843074270246717,-0.906444572607379,2.15638548836175,56.9247366630098,-0.144963141214248,99.9559006865147
0.69,0.268985563888191,0.0144116856741336,1.20359008889314,-0.170857037686546,-0.156884436026305,-0.218970783432234,-0.503619301742622,-1.10643067036353,2.57342975749857,56.9247366630098,-0.144963141214248,99.9559006865147
0.7,0.278609638729704,-0.0239380541754434,1.14581598155637,0.0604767613325,-0.017363100337966,-0.279096549562076,-0.228599130965975,-1.12440835089964,2.99375172388672,56.9247366630098,4.69515180629423,99.9559006865147
0.71,0.0939446493677499,0.102249688553436,1.96198522384848,-0.522554869227259,-0.0570673597200997,-0.126585593211395,1.25201045417111,-1.59841153417983,-2.73742497890326,61.8077056302154,27.8986981000842,99.9559006865147
0.72,0.210459464082871,-0.0142162729886358,1.43761921407145,-0.0563644214340399,0.169322260336219,-0.125798492019461,1.1301685070519,-0.890306182354738,-2.27721840890878,61.8077056302154,59.9287497867363,99.9559006865147
0.73,0.151884511105127,-0.00473875766546171,1.61328769274663,-0.0551901381716928,0.150867153162951,-0.0181786312565644,1.60321249202329,-0.188289235857015,-1.72190212753704,64.8595612347199,85.869408973694,99.9559006865147
0.74,0.356041916006104,0.141185666465903,0.621449971804423,-0.756824376364304,0.38259052797696,-0.0179923948108542,0.342189146038619,0.917545526090284,-1.24026749563581,64.8595612347199,101.787014049217,99.9559006865147
0.75,0.200591123379675,0.00449449179202948,1.32089792106466,-0.0528415716341699,0.128500449003676,0.154092938972044,0.781699653632212,1.06607185549427,-0.67267910749607,67.9114168392234,106.975168576873,99.9559006865147
0.76,0.239624807640636,-0.0436747355811304,1.14522944238895,0.061651044589528,-0.00186271679120353,0.243565312084971,0.257462407339238,1.11761551341263,-0.172636486523327,67.9114168392234,101.787014049217,99.9559006865147
0.77,0.25906837001159,-0.0533965167665184,1.14581598156383,0.178492227346472,-0.12684599330716,0.232115708915142,-0.164501051000008,1.14790815967571,0.296871354394285,64.8595612347199,82.9139190387091,99.9559006865147
0.78,0.277681428440378,-0.00454334497416067,1.09156110929714,-0.0563644214404542,-0.198227093224605,0.194508707249745,-0.806641315324607,0.737571956995178,0.778505530070367,64.8595612347199,64.9080844241445,99.9559006865147
0.79,0.171132660785314,-0.0340018075687011,1.26283054415218,0.061651044589528,-0.172374888188103,-0.0270075624138729,-1.25927434261582,0.113004267937789,1.53007944091398,77.9825403340865,64.8109245939697,99.9559006865147
0.8,0.200346857513992,-0.0145093920251426,0.911493586806629,-0.0551901381642094,-0.151412112230927,-0.131999083490909,-0.695364522531037,-0.591890776195558,2.21550842601915,85.9173649057966,61.8077056302154,99.9559006865147
0.81,0.132294389217786,0.0149490705699298,1.20329681929716,-0.0557772798034009,-0.0528237884111385,-0.122208541057109,-0.297025227350826,-1.16739468672344,2.84612436405502,85.9173649057966,67.9114168392234,99.9559006865147
0.82,0.240064486201267,-0.0244265859041461,1.14288328566807,0.180253652265116,0.0363004409326661,-0.238557946046878,-0.123360587702134,-1.15041546808801,-3.09198603601158,67.9114168392234,74.8965039470341,99.9559006865147
0.83,0.278707345074379,-0.0143139793317068,1.08657552630159,-0.0563644214457994,0.158899216722872,-0.229420385161334,0.619964269602301,-0.894129535793878,-2.58715596026719,67.9114168392234,72.79438580643,99.9559006865147
0.84,0.0837831896414671,-0.0241334668635487,1.55346069827111,0.061651044589528,0.087119740740749,0.00349254386038629,1.49411451450744,-0.429724109063174,-1.81118343771873,85.9173649057966,80.6852636577699,99.9559006865147
0.85,0.171328073478925,0.0440655609509145,1.08598898711818,-0.172618462551803,0.175174863660348,0.024674877213421,0.937849551939496,0.574114476113084,-1.1791149765258,85.9173649057966,85.9173649057966,99.9559006865147
0.86,0.171328073479103,-0.0341483670905972,1.32060465146656,0.0628253278807133,0.0795901380736181,0.155514724892653,0.869090437296249,0.996305916422583,-0.669768723561399,77.9825403340865,87.7484782684987,99.9559006865147
0.87,0.152226483326912,0.0336598353321106,1.37749894999675,-0.286523937063557,0.0480951639926062,0.148299500812335,-0.153177131140712,1.39861935144915,-0.0959933112702268,77.9825403340865,87.7484782684987,99.9559006865147
