t,iq,id,vq,vd,ia,ib,va,vb,theta_e,omega,omega_obs,r
0,0,0,0,0,0,0,0,0,0,-0.144963141214248,0,0
0.001,0.082757272873627,-0.0143628324939609,-0.435786865046842,0.061651044589528,-0.082800272821379,-0.0141128307378333,0.435971070694406,0.0603346381766486,1.5677762099521,-0.144963141214248,715.866139510319,-0.0362407862989784
0.002,-0.0240846089796599,-0.00454334026278689,0.0891656690870889,0.0610638746406625,0.0240707777430196,-0.0046160577653153,-0.0889808426867131,0.0613328864854835,1.5677762099521,-0.144963141214248,715.820361675407,-0.144963141214248
0.003,-0.00459219344751759,0.0147536437784002,0.0305117389284804,-0.0551900816831361,0.0046367301649244,0.014739707553986,-0.0306782800200495,-0.0550976811094842,1.5677762099521,-0.144963141214248,715.820361675407,-0.144963141214248
0.004,0.00478756152113991,-0.0147048469790114,-0.0263823199997124,0.0628254971723221,-0.0048319499757493,-0.0146903209436246,0.0265719397355659,0.0627455330856797,1.5677762099521,-0.144963141214248,718.82643944589,-0.144963141214248
0.005,-0.06306940724566,-0.0726934539351871,0.264247397412842,0.295333184556059,0.0628495772236665,-0.0728835991026271,-0.263354252930529,0.296129894476878,1.5677762099521,-0.144963141214248,718.872217279912,-0.144963141214248
0.006,-0.0237425359343689,-0.0043478619184159,0.0287516568154102,0.0598891968463404,0.0237292966243124,-0.0044195472134379,-0.0285706535949205,0.0599757569497034,1.5677762099521,-0.144963141214248,718.872217279912,-0.144963141214248
0.007,0.0633135839899988,0.0536895513644947,-0.377718897470054,-0.288871996331869,-0.0631511467734084,0.0538805206413484,0.376844749009074,-0.290011432386795,1.5677762099521,-0.144963141214248,718.872217279912,-0.144963141214248
0.008,-0.0240845808605003,-0.00454331214362727,0.0305116685989209,0.0610637056656668,0.0240707497089112,-0.0046160295613609,-0.0303271102033356,0.0611555758457747,1.5677762099521,-0.144963141214248,718.872217279912,-0.144963141214248
0.009,-0.00473879518489229,0.0148024735319789,-0.0275554971568743,-0.0551899127081403,0.00478347870505167,0.014788094331171,0.0273886917571297,-0.055272881706381,1.5677762099521,-0.144963141214248,718.872217279912,-0.144963141214248
0.01,-0.0242311943134509,-0.00478767414922193,0.0310984330017341,0.061651044589528,0.0242166244925371,-0.00486083324161607,-0.0309120981007009,0.0617446841854095,1.5677762099521,-0.144963141214248,718.872217279912,-0.144963141214248
0.011,-0.0334641881925287,-0.0337085712940466,0.087111670066315,0.0610636211517361,0.0333622319082937,-0.0338094831691942,-0.0869268537988682,0.0613264296901056,1.5677762099521,-0.144963141214248,718.872217279912,-0.144963141214248
0.012,0.063411236469588,0.0149002173966153,-0.37801182955161,-0.0557772798034009,-0.0633659469503991,0.015091658495593,0.377841651963887,-0.0569186635860654,1.5677762099521,-0.144963141214248,718.872217279912,-0.144963141214248
0.013,-0.00464105132025594,0.0149002173966153,-0.027848879358281,-0.0557772798034009,0.00468603048362416,0.0148861329474848,0.0276802987059917,-0.0558611321701058,1.5677762099521,-0.144963141214248,718.872217279912,-0.144963141214248
0.014,-0.0045921676723618,0.0147535664529329,-0.0281423318892471,-0.055189771904544,0.00463670415635457,0.0147396303067151,0.0279755242384563,-0.0552745132101918,1.5677762099521,-0.144963141214248,718.872217279912,-0.144963141214248
0.015,0.00517846903007764,-0.0142650277029977,-0.0867962620478555,0.0610635085192719,-0.00522152739835001,-0.0142493230888714,0.0869802848594231,0.0608010955817145,1.5677762099521,-0.144963141214248,715.866139509329,-0.144963141214248
0.016,0.0146557757171063,0.0146557757171063,-0.143689308165706,-0.0546021513200898,-0.0146114467909161,0.014699970966518,0.143523748237348,-0.0550358601443062,1.5677762099521,-0.144963141214248,715.820361675407,-0.144963141214248
0.017,-0.0339040637156589,-0.0338062823558476,0.147525879414394,0.178491776569402,0.033801810326975,-0.0339085222588358,-0.146986141414093,0.178936507264694,1.5677762099521,-0.144963141214248,715.820361675407,-0.144963141214248
0.018,-0.0240356409654672,-0.00468994434414319,0.0302180190974441,0.061651044589528,0.0240213671913657,-0.00476251328917683,-0.030031688211582,0.0617420252365906,1.5677762099521,-0.144963141214248,715.820361675407,-0.144963141214248
0.019,0.00522737376511991,-0.0144116856786916,-0.0870898411666941,0.061651044589528,-0.00527087483390902,-0.0143958326979349,0.0872756370642638,0.0613877423305897,1.5677762099521,-0.144963141214248,718.826439446279,-0.144963141214248
0.02,0.0249642379998946,-0.0141671971413218,-0.204984775347452,0.0604756908418228,-0.0250069106749122,-0.0140917377300822,0.205166483879096,0.0598563380080143,1.5677762099521,-0.144963141214248,718.872217279912,-0.144963141214248
0.021,0.0827567573394088,0.0342458859075753,-0.435784332942645,-0.172030194105822,-0.0826529535035296,0.0344956644242699,0.435262795029788,-0.173345527156628,1.5677762099521,-0.144963141214248,718.872217279912,-0.144963141214248
0.022,-0.0230086625455705,-0.00400532017899514,0.0838812164054112,0.0581246452896217,0.0229964610968838,-0.00407479065618298,-0.0837052909076164,0.0583777108986561,1.5677762099521,-0.144963141214248,718.872217279912,-0.144963141214248
0.023,0.209139190817679,0.121741433726096,-1.01938744907871,-0.639392333439735,-0.208770564232534,0.122372502350766,1.01745176349204,-0.642468081983569,1.5677762099521,-0.144963141214248,718.872217279912,-0.144963141214248
0.024,-0.0242801342041075,-0.00488558673770234,0.0900461392499588,0.0628266237084278,0.0242652684529928,-0.00495889318752465,-0.0898559851340991,0.0630982866328707,1.5677762099521,-0.144963141214248,718.872217279912,-0.144963141214248
0.025,-0.0436257698990584,-0.0532496759750814,0.206179570415426,0.295332057914222,0.0434647509427697,-0.0533811878494639,-0.205286694156891,0.295953396484436,1.5677762099521,-0.144963141214248,715.866139509974,-0.144963141214248
0.026,-0.0243779671053441,-0.00498343368963244,0.0903398168141774,0.0634145821360735,0.0243628053992792,-0.00505703515956253,-0.0901478856585359,0.0636871293183127,1.5677762099521,-0.144963141214248,715.820361675407,-0.144963141214248
0.027,-0.0628246304713531,-0.0724974366076735,0.263071617847931,0.410996647667073,0.0626053935600085,-0.0726868434157252,-0.261829162085806,0.411789279112685,1.5677762099521,-0.144963141214248,715.820361675407,-0.144963141214248
0.028,0.0246219352999895,0.0343436532033637,-0.203223328670222,-0.172617702004679,-0.0245181013226305,0.0344178575858958,0.202701077023512,-0.173230672037863,1.5677762099521,-0.144963141214248,715.820361675407,-0.144963141214248
0.029,0.0146556234012889,0.0146556234012889,-0.0853281412603735,-0.0546014190773081,-0.0146112949358043,0.0146998181913844,0.0851628497024556,-0.0548588706296714,1.5677762099521,-0.144963141214248,715.820361675407,-0.144963141214248
0.03,-0.0339529543955646,-0.0339529543955646,0.148112868903805,0.179079368982457,0.0338502578178882,-0.034055341284989,-0.147571353631464,0.179525869772153,1.5677762099521,-0.144963141214248,715.820361675407,-0.144963141214248
0.031,-0.0339529543955646,-0.0339529543955646,0.148112868903805,0.179079368982457,0.0338502578178882,-0.034055341284989,-0.147571353631464,0.179525869772153,1.5677762099521,-0.144963141214248,718.826439445757,-0.144963141214248
0.032,-0.0339529543955646,-0.0339529543955646,0.148112868903805,0.179079368982457,0.0338502578178882,-0.034055341284989,-0.147571353631464,0.179525869772153,1.5677762099521,-0.144963141214248,718.872217279912,-0.144963141214248
0.033,-0.0339040262249271,-0.0338061698836523,0.147525429294544,0.178491325987213,0.0338017731760929,-0.0339084096739271,-0.146985692657105,0.178936055325148,1.5677762099521,-0.144963141214248,718.872217279912,-0.144963141214248
0.034,-0.0240355284932052,-0.0046899818348972,0.0302175689773272,0.061651044589528,0.0240212546063903,-0.004762550440081,-0.0300312380935179,0.0617420238771773,1.5677762099521,-0.144963141214248,718.872217279912,-0.144963141214248
0.035,0.00493385160359929,-0.0145095513959818,-0.0853278036571493,0.0622391439275703,-0.00497764957646252,-0.0144945844387798,0.0855153837165941,0.0619811605376464,1.5677762099521,-0.144963141214248,718.872217279912,-0.144963141214248
0.036,-0.0339040191929156,-0.0338061487876177,0.147525344867065,0.178491241473015,0.0338017662078258,-0.0339083885567513,-0.146985608485253,0.178935970556355,1.5677762099521,-0.144963141214248,715.866139509875,-0.144963141214248
0.037,-0.0242312575837817,-0.00478786396021406,0.0310988128186971,0.061651044589528,0.0242166871893287,-0.00486102324282606,-0.0309124779159317,0.0617446853324993,1.5677762099521,-0.144963141214248,715.820361675407,-0.144963141214248
0.038,-0.0339529543955646,-0.0339529543955646,0.089752742977172,0.0622392284415003,0.0338502578178882,-0.034055341284989,-0.0895643641990028,0.0625100079551103,1.5677762099521,-0.144963141214248,715.820361675407,-0.144963141214248
0.039,-0.0339040121653474,-0.0338061277049129,0.147525260492933,0.178491157012218,0.0338017592439617,-0.0339083674529186,-0.146985524366586,0.178935885841123,1.5677762099521,-0.144963141214248,715.820361675407,-0.144963141214248
0.04,-0.023252373126929,-0.00424949472648754,0.0263977625788394,0.0592980840229744,0.0232394331322457,-0.00431970012341792,-0.0262185553204806,0.0593775377973135,1.5677762099521,-0.144963141214248,715.820361675407,-0.144963141214248
0.041,0.160480794408653,0.0729856074467552,-0.844302387014474,-0.405120911416995,-0.160259637800816,0.0734699446056377,0.843075025903747,-0.407668951826199,1.5677762099521,-0.144963141214248,715.820361675407,-0.144963141214248
0.042,-0.0332676647243624,-0.0334145125110485,0.0862266422055096,0.17613788656027,0.0331665974269156,-0.0335148322043319,-0.0856942927754639,0.176397497413282,1.5677762099521,-0.144963141214248,718.826439445857,-0.144963141214248
0.043,0.10215060413528,0.0729855558786707,-0.552501658749887,-0.405708954358837,-0.101929713700899,0.0732937293155016,0.551273852455105,-0.407375721131765,1.5677762099521,-0.144963141214248,720.67586394182,-0.144963141214248
0.044,-0.0338060925448555,-0.0337081846443829,0.0888712036931064,0.0610626917622927,0.0337041358690742,-0.0338101291108172,-0.08868638220808,0.0613308142939642,1.5677762099521,-0.144963141214248,718.899683980258,-0.144963141214248
0.045,-0.00439626984916637,0.0150960425734869,-0.0290244338894058,-0.0569540418001352,0.00444184154288843,0.0150826964988058,0.0288522939226184,-0.0570414391068009,1.5677762099521,-0.144963141214248,718.872217279912,-0.144963141214248
0.046,0.0438204514015154,0.0535421271261501,-0.260701127642794,-0.288280292122719,-0.0436585483220676,0.0536742256267855,0.259829299860266,-0.289066324075822,1.5677762099521,-0.144963141214248,718.872217279912,-0.144963141214248
0.047,-0.0335123055953224,-0.0336102275509318,0.0874015355752973,0.177314057118357,0.0334106461007891,-0.0337112851945386,-0.0868656286199798,0.177577210917245,1.5677762099521,-0.144963141214248,718.872217279912,-0.144963141214248
0.048,0.053542084934081,0.0340987428608268,-0.319060944055216,-0.172028673277461,-0.0534388587216769,0.0342602904585147,0.318539943058214,-0.172991488598367,1.5677762099521,-0.144963141214248,715.866139509029,-0.144963141214248
0.049,-0.0340019200613769,-0.0340508857271893,0.0897528977076712,0.0622395382203602,0.0338989274967757,-0.0341534200518003,-0.0895645179932294,0.0625103181998609,1.5677762099521,-0.144963141214248,718.826439445689,-0.144963141214248
0.05,-0.0435277167147354,-0.0531514470437224,0.147230992016381,0.177902325377994,0.0433669948680221,-0.0532826632344595,-0.146693035569694,0.178346168168463,1.5677762099521,-0.144963141214248,718.872217279912,-0.144963141214248
0.051,-0.00454311061261586,0.0149002173966153,-0.0284368254257231,-0.0557772798034009,0.00458809022264751,0.0148864287394158,0.0282682420920768,-0.0558629078332274,1.5677762099521,-0.144963141214248,718.872217279912,-0.144963141214248
0.052,0.0148022720010121,0.0149002173966153,-0.144568737323334,-0.0557772798034009,-0.0147572041654072,0.0149448539664605,0.144399624364366,-0.0562136392431592,1.5677762099521,-0.144963141214248,718.872217279912,-0.144963141214248
0.053,-0.00346565042302847,0.0156348429573825,-0.0337289023491003,-0.0598975236446029,0.00351285359852702,0.0156243050006061,0.033547851281771,-0.0599991155502069,1.5677762099521,-0.144963141214248,718.872217279912,-0.144963141214248
0.054,0.228678716128881,0.160725072052327,-1.19504689668976,-0.873655109512898,-0.228192265469042,0.161414974449972,1.19240291011937,-0.877260300939619,1.5677762099521,-0.144963141214248,718.872217279912,-0.144963141214248
0.055,-0.00464105132025594,0.0146553187696545,-0.027848879358281,-0.0551886171975731,0.00468529086228045,0.0146412354373963,0.0276820765331397,-0.055272472248903,1.5677762099521,-0.144963141214248,718.872217279912,-0.144963141214248
0.056,-0.00464105132025594,-0.0339529543955646,-0.027848879358281,0.061651044589528,0.00453848842096168,-0.0339668160473915,0.0280349454271838,0.061566656685148,1.5677762099521,-0.144963141214248,718.872217279912,-0.144963141214248
0.057,-0.00478800456045545,-0.0339529543955646,-0.0272607644892271,0.061651044589528,0.00468544099097368,-0.0339672598626727,0.0274468332402568,0.0615684328580694,1.5677762099521,-0.144963141214248,715.866139509074,-0.144963141214248
0.058,-0.0338059941233535,-0.0339529543955646,0.0888708098048962,0.061651044589528,0.0337032982158967,-0.0340548974484704,-0.0886842114300843,0.0619191632484008,1.5677762099521,-0.144963141214248,715.820361675407,-0.144963141214248
0.059,-0.00473902952302642,-0.0338059870914089,-0.0275547937813947,0.0610622692983703,0.0046369100346536,-0.033820145318658,0.0277390830240191,0.0609787722505829,1.5677762099521,-0.144963141214248,715.820361675407,-0.144963141214248
0.06,-0.0240353457142246,-0.00469004276122405,0.0302168374858945,-0.0551884763939771,0.024021071644239,-0.00476261081411696,-0.0303833750742226,-0.055096966463106,1.5677762099521,-0.144963141214248,715.820361675407,-0.144963141214248
0.061,0.00512958303817967,-0.0144116856786916,-0.086502795445643,0.061651044589528,-0.00517308455294822,-0.0143961280369074,0.0866885940204637,0.0613895152745642,1.5677762099521,-0.144963141214248,715.820361675407,-0.144963141214248
0.062,0.00517857916715546,-0.0142646972917642,-0.0867969232097293,0.0610621848373053,-0.00522163653704653,-0.0142489923465185,0.0869809420206136,0.0607997699090016,1.5677762099521,-0.144963141214248,715.820361675407,-0.144963141214248
0.063,0.0149002173966153,0.0149002173966153,-0.145156711533001,-0.0557772798034009,-0.0148551491143256,0.0149451497725498,0.144987595892548,-0.0562154149912735,1.5677762099521,-0.144963141214248,715.820361675407,-0.144963141214248
0.064,0.014655213311698,0.014655213311698,-0.143685932000105,-0.0545994476133578,-0.0146108860866001,0.0146994068651471,0.143520380252642,-0.0550331462535055,1.5677762099521,-0.144963141214248,715.820361675407,-0.144963141214248
0.065,-0.0339039512345773,-0.0338059449126026,0.147524528948154,0.178490424716036,0.0338016988655228,-0.0339081844774242,-0.14698479503676,0.178935151338934,1.5677762099521,-0.144963141214248,715.820361675407,-0.144963141214248
0.066,-0.0242803310470667,-0.00488607884510024,0.0316875888758966,0.0622400170270805,0.0242654638088346,-0.0049593858871661,-0.0314994725251144,0.0623354332537978,1.5677762099521,-0.144963141214248,715.820361675407,-0.144963141214248
0.067,-0.0434295416866893,-0.0531511682005731,0.205001596429291,0.177901367870818,0.0432688211298457,-0.0532820878929769,-0.204463379408687,0.178519684375828,1.5677762099521,-0.144963141214248,715.820361675407,-0.144963141214248
0.068,0.0144101155110588,0.0142140747568362,-0.142508802048969,-0.0528321361673059,-0.0143671216916958,0.0142575300992489,0.142348593148815,-0.0532622878027776,1.5677762099521,-0.144963141214248,715.820361675407,-0.144963141214248
0.069,-0.0823650133947072,-0.121104463100533,0.380374723364137,0.527830000769529,0.0819988886922526,-0.121352662383708,-0.378778882794296,0.52897636793699,1.5677762099521,-0.144963141214248,715.820361675407,-0.144963141214248
0.07,0.00488450865536303,0.0340003522244166,-0.0850315939087153,-0.170849263916255,-0.00478180149900595,0.0340149489285639,0.084515222162788,-0.171105289708288,1.5677762099521,-0.144963141214248,715.820361675407,-0.144963141214248
0.071,-0.0435275198717315,-0.0531511025684656,0.205589767476639,0.294740353651134,0.0433667990662699,-0.0532823181662858,-0.204698680921224,0.295359913648763,1.5677762099521,-0.144963141214248,715.820361675407,-0.144963141214248
0.072,-0.0042979143682589,0.0150962956548993,-0.0296144900575521,-0.0569555626290342,0.00434348727487027,0.0150832466236569,0.0294423428067104,-0.0570447419646267,1.5677762099521,-0.144963141214248,715.820361675407,-0.144963141214248
0.073,0.0634102358289265,0.053541557653386,-0.378006680756507,-0.288277250253469,-0.0632482451291707,0.0537328195045753,0.377134327182996,-0.289417558158592,1.5677762099521,-0.144963141214248,715.820361675407,-0.144963141214248
0.074,-0.0047390998165267,-0.0338058816511584,-0.027260286226885,0.178490171280243,0.0046369806462747,-0.0338200400911827,0.0277992222580889,0.178407028142581,1.5677762099521,-0.144963141214248,715.820361675407,-0.144963141214248
0.075,-0.0241823200371289,-0.00464105132025594,0.0894589528164431,0.061651044589528,0.0241681932565107,-0.00471406347553002,-0.089272351759376,0.0619209395063157,1.5677762099521,-0.144963141214248,715.820361675407,-0.144963141214248
0.076,-0.0240842621648428,-0.00454299344796983,0.0888703034000611,0.0610617905445154,0.0240704319772039,-0.00461570990466022,-0.0886854846409194,0.0613299103613109,1.5677762099521,-0.144963141214248,715.820361675407,-0.144963141214248
0.077,-0.00449395747981526,0.0149982799569091,-0.0287318956965934,-0.0563665620198128,0.00453923347395198,0.0149846393004691,0.028561531318823,-0.0564530785075289,1.5677762099521,-0.144963141214248,715.820361675407,-0.144963141214248
0.078,0.0244256836342972,0.0342453516168836,-0.202633216217628,-0.172026983420703,-0.0243221474337794,0.034318963745665,0.202112751298587,-0.17263817394204,1.5677762099521,-0.144963141214248,715.820361675407,-0.144963141214248
0.079,-0.0233487085785012,-0.00410165567055566,0.0269782667439851,0.0587043517934739,0.0233362146350194,-0.00417215268559092,-0.0268008499761889,0.0587855614632995,1.5677762099521,-0.144963141214248,715.820361675407,-0.144963141214248
0.08,0.141231927686375,0.102247466876903,-0.728457681483144,-0.522543743723398,-0.140922484763774,0.102673536847411,0.726876218553446,-0.524741384605508,1.5677762099521,-0.144963141214248,715.820361675407,-0.144963141214248
0.081,0.00512958303817967,-0.0144116856786916,-0.086502795445643,0.061651044589528,-0.00517308455294822,-0.0143961280369074,0.0866885940204637,0.0613895152745642,1.5677762099521,-0.144963141214248,715.820361675407,-0.144963141214248
0.082,0.00517862603390259,-0.0140683847086311,-0.0867972045546402,0.0598827755295014,-0.00522109051754245,-0.0140526805171358,0.0869776614157412,0.0596203651302589,1.5677762099521,-0.144963141214248,715.820361675407,-0.144963141214248
0.083,0.0148021267171618,0.0537865734714507,-0.144567865172514,-0.289455026206438,-0.0146396177218151,0.0538310322593743,0.143693019192669,-0.289890317313296,1.5677762099521,-0.144963141214248,715.820361675407,-0.144963141214248
0.084,-0.0041996221666806,0.0149983127640765,-0.0299099401187125,-0.0563667591662086,0.00424489960222938,0.0149855610331721,0.0297395697730081,-0.0564568334794178,1.5677762099521,-0.144963141214248,715.820361675407,-0.144963141214248
0.085,0.0827551076005858,0.0342452860025488,-0.435776230065181,-0.172026589127912,-0.0826513055840108,0.0344950595395828,0.435254703076716,-0.173341897723559,1.5677762099521,-0.144963141214248,715.820361675407,-0.144963141214248
0.086,-0.023642743948008,-0.00444484183330285,0.0868087642705942,0.0604719731783148,0.0236292122028286,-0.00451622530304254,-0.0866257362278575,0.0607338696054194,1.5677762099521,-0.144963141214248,715.820361675407,-0.144963141214248
