,Unnamed: 0,t,iq,id,vq,vd,ia,ib,va,vb,theta_e,omega,omega_obs,r,omega_ekf,omega_meta
0,167,0.0,0.0244949803358414,-0.0922836415141623,-0.144452864536921,0.412526877869525,0.0676089561085828,-0.0674188668450858,-0.284719791815732,0.331631866964117,2.61705109019401,-0.144963141214248,-0.144963141214248,-0.144963141214248,34.2396511217991,45.868156
1,168,0.01,-0.0045238037072716,-0.0434890935280316,-0.0285527263554296,0.178374799031995,0.03990773698919,-0.0178644502930666,-0.14009328441613,0.114046914791826,2.61705109019401,-0.144963141214248,-0.144963141214248,-0.144963141214248,19.284122160238,36.885056
2,169,0.02,-0.0046410513202559,-0.0046410513202559,-0.027848879358281,-0.0557772798034009,0.0063413927398136,0.0016927648489784,0.0622253982203578,-0.0038294699498561,2.61705109019401,-0.144963141214248,-0.144963141214248,247.970897504955,28.1877795626885,38.681107
3,170,0.03,-0.0046410513202559,-0.0046410513202559,-0.027848879358281,-0.0557772798034009,0.0063413927398136,0.0016927648489784,0.0622253982203578,-0.0038294699498561,2.61705109019401,-0.144963141214248,-0.144963141214248,247.970897504955,17.836765645562,60.436512
4,171,0.04,-0.0046410513202559,-0.0046410513202559,-0.027848879358281,-0.0557772798034009,0.0063413927398136,0.0016927648489784,0.0622253982203578,-0.0038294699498561,2.61705109019401,-0.144963141214248,-0.144963141214248,247.970897504955,26.675699621835,67.09096
5,172,0.05,-0.0046410513202559,-0.0046410513202559,-0.027848879358281,-0.0557772798034009,0.0063413927398136,0.0016927648489784,0.0622253982203578,-0.0038294699498561,2.61705109019401,-0.144963141214248,-0.144963141214248,247.970897504955,17.3730827791416,60.9281
6,173,0.06,-0.0046410513202559,-0.0046410513202559,-0.027848879358281,-0.0557772798034009,0.0063413927398136,0.0016927648489784,0.0622253982203578,-0.0038294699498561,2.61705109019401,-0.144963141214248,-0.144963141214248,247.970897504955,26.6883753233208,89.49714
7,174,0.07,-0.0046410513202559,-0.0046410513202559,-0.027848879358281,-0.0557772798034009,0.0063413927398136,0.0016927648489784,0.0622253982203578,-0.0038294699498561,2.61705109019401,-0.144963141214248,-0.144963141214248,247.970897504955,18.1211967208697,78.73795
8,175,0.08,-0.0046410513202559,-0.0046410513202559,-0.027848879358281,-0.0557772798034009,0.0063413927398136,0.0016927648489784,0.0622253982203578,-0.0038294699498561,2.61705109019401,-0.144963141214248,-0.144963141214248,247.970897504955,27.5283181765402,80.77344
9,176,0.09,-0.0046410513202559,-0.0046410513202559,-0.027848879358281,-0.0557772798034009,0.0063413927398136,0.0016927648489784,0.0622253982203578,-0.0038294699498561,2.61705109019401,-0.144963141214248,-0.144963141214248,247.970897504955,19.5943227325056,82.36177
10,177,0.1,-0.0046410513202559,-0.0046410513202559,-0.027848879358281,-0.0557772798034009,0.0063413927398136,0.0016927648489784,0.0622253982203578,-0.0038294699498561,2.61705109019401,-0.144963141214248,-0.144963141214248,247.970897504955,28.8175768973708,82.87372
11,178,0.1100000000000001,-0.0046410513202559,-0.0046410513202559,-0.027848879358281,-0.0557772798034009,0.0063413927398136,0.0016927648489784,0.0622253982203578,-0.0038294699498561,2.61705109019401,-0.144963141214248,-0.144963141214248,247.970897504955,21.513947938872,83.44865
12,179,0.1200000000000001,-0.0046410513202559,-0.0046410513202559,-0.027848879358281,-0.0557772798034009,0.0063413927398136,0.0016927648489784,0.0622253982203578,-0.0038294699498561,2.61705109019401,-0.144963141214248,-0.144963141214248,247.970897504955,30.2689986910163,84.031654
13,180,0.1300000000000001,-0.0046410513202559,-0.0046410513202559,-0.027848879358281,-0.0557772798034009,0.0063413927398136,0.0016927648489784,0.0622253982203578,-0.0038294699498561,2.61705109019401,-0.144963141214248,-0.144963141214248,247.970897504955,23.5869631536801,85.1378
14,181,0.1400000000000001,-0.0046410513202559,-0.0046410513202559,-0.027848879358281,-0.0557772798034009,0.0063413927398136,0.0016927648489784,0.0622253982203578,-0.0038294699498561,2.61705109019401,-0.144963141214248,-0.144963141214248,247.970897504955,31.5647646901414,86.22225
15,182,0.1500000000000001,-0.0046410513202559,-0.0046410513202559,-0.027848879358281,-0.0557772798034009,0.0063413927398136,0.0016927648489784,0.0622253982203578,-0.0038294699498561,2.61705109019401,-0.144963141214248,-0.144963141214248,247.970897504955,25.4480640166537,86.88454
16,183,0.1600000000000001,-0.0046410513202559,-0.0046410513202559,-0.027848879358281,-0.0557772798034009,0.0063413927398136,0.0016927648489784,0.0622253982203578,-0.0038294699498561,2.61705109019401,-0.144963141214248,-0.144963141214248,247.970897504955,32.3740436945925,88.213554
17,184,0.1700000000000001,-0.0046410513202559,-0.0046410513202559,-0.027848879358281,-0.0557772798034009,0.0063413927398136,0.0016927648489784,0.0622253982203578,-0.0038294699498561,2.61705109019401,-0.144963141214248,-0.144963141214248,247.970897504955,26.7253952816019,88.57095
18,185,0.1800000000000001,-0.0046410513202559,-0.0046410513202559,-0.027848879358281,-0.0557772798034009,0.0063413927398136,0.0016927648489784,0.0622253982203578,-0.0038294699498561,2.61705109019401,-0.144963141214248,-0.144963141214248,247.970897504955,32.4324409363824,88.90296
19,186,0.1900000000000001,-0.0046410513202559,-0.0046410513202559,-0.027848879358281,-0.0557772798034009,0.0063413927398136,0.0016927648489784,0.0622253982203578,-0.0038294699498561,2.61705109019401,-0.144963141214248,-0.144963141214248,247.970897504955,27.1615940344639,89.186134
20,187,0.2000000000000001,-0.0046410513202559,-0.0046410513202559,-0.027848879358281,-0.0557772798034009,0.0063413927398136,0.0016927648489784,0.0622253982203578,-0.0038294699498561,2.61705109019401,-0.144963141214248,-0.144963141214248,247.970897504955,31.6275647065997,89.40152
21,188,0.2099999999999999,-0.0046410513202559,-0.0046410513202559,-0.027848879358281,-0.0557772798034009,0.0063413927398136,0.0016927648489784,0.0622253982203578,-0.0038294699498561,2.61705109019401,-0.144963141214248,-0.144963141214248,247.970897504955,26.7025692549167,89.599655
22,189,0.2199999999999999,-0.0046410513202559,-0.0046410513202559,-0.027848879358281,-0.0557772798034009,0.0063413927398136,0.0016927648489784,0.0622253982203578,-0.0038294699498561,2.61705109019401,-0.144963141214248,-0.144963141214248,247.970897504955,30.0317073733354,89.78425
23,190,0.2299999999999999,-0.0046410513202559,-0.0046410513202559,-0.027848879358281,-0.0557772798034009,0.0063413927398136,0.0016927648489784,0.0622253982203578,-0.0038294699498561,2.61705109019401,-0.144963141214248,-0.144963141214248,247.970897504955,25.477956743651,89.97972
24,191,0.24,-0.0046410513202559,-0.0046410513202559,-0.027848879358281,-0.0557772798034009,0.0063413927398136,0.0016927648489784,0.0622253982203578,-0.0038294699498561,2.61705109019401,-0.144963141214248,-0.144963141214248,247.970897504955,27.842521810115,90.17425
25,192,0.25,-0.0046410513202559,-0.0046410513202559,-0.027848879358281,-0.0557772798034009,0.0063413927398136,0.0016927648489784,0.0622253982203578,-0.0038294699498561,2.61705109019401,-0.144963141214248,-0.144963141214248,247.970897504955,23.7017063968017,90.344574
26,193,0.26,-0.0046410513202559,-0.0046410513202559,-0.027848879358281,-0.0557772798034009,0.0063413927398136,0.0016927648489784,0.0622253982203578,-0.0038294699498561,2.61705109019401,-0.144963141214248,-0.144963141214248,247.970897504955,25.285905502561,90.51362
27,194,0.27,-0.0046410513202559,-0.0046410513202559,-0.027848879358281,-0.0557772798034009,0.0063413927398136,0.0016927648489784,0.0622253982203578,-0.0038294699498561,2.61705109019401,-0.144963141214248,-0.144963141214248,247.970897504955,21.5862325762565,90.63802
28,195,0.28,-0.0046410513202559,-0.0046410513202559,-0.027848879358281,-0.0557772798034009,0.0063413927398136,0.0016927648489784,0.0622253982203578,-0.0038294699498561,2.61705109019401,-0.144963141214248,-0.144963141214248,247.970897504955,22.5554152431855,90.734566
29,196,0.29,-0.0046410513202559,-0.0046410513202559,-0.027848879358281,-0.0557772798034009,0.0063413927398136,0.0016927648489784,0.0622253982203578,-0.0038294699498561,2.61705109019401,-0.144963141214248,-0.144963141214248,247.970897504955,19.3046134818857,90.81202
30,197,0.3,-0.0046410513202559,-0.0046410513202559,-0.027848879358281,-0.0557772798034009,0.0063413927398136,0.0016927648489784,0.0622253982203578,-0.0038294699498561,2.61705109019401,-0.144963141214248,-0.144963141214248,247.970897504955,19.7949813104582,90.875145
31,198,0.31,-0.0046410513202559,-0.0046410513202559,-0.027848879358281,-0.0557772798034009,0.0063413927398136,0.0016927648489784,0.0622253982203578,-0.0038294699498561,2.61705109019401,-0.144963141214248,-0.144963141214248,247.970897504955,16.9825073481578,90.929726
32,199,0.32,-0.0046410513202559,-0.0046410513202559,-0.027848879358281,-0.0557772798034009,0.0063413927398136,0.0016927648489784,0.0622253982203578,-0.0038294699498561,2.61705109019401,-0.144963141214248,-0.144963141214248,247.970897504955,17.1018640544784,90.9786
33,200,0.33,-0.0046410513202559,-0.0046410513202559,-0.027848879358281,-0.0557772798034009,0.0063413927398136,0.0016927648489784,0.0622253982203578,-0.0038294699498561,2.61705109019401,-0.144963141214248,-0.144963141214248,247.970897504955,14.7016475165743,91.023315
34,201,0.3399999999999998,-0.0046410513202559,-0.0046410513202559,-0.027848879358281,-0.0557772798034009,0.0063413927398136,0.0016927648489784,0.0622253982203578,-0.0038294699498561,2.61705109019401,-0.144963141214248,-0.144963141214248,247.970897504955,14.5347628801849,91.06521
35,202,0.3500000000000001,-0.0046410513202559,-0.0046410513202559,-0.027848879358281,-0.0557772798034009,0.0063413927398136,0.0016927648489784,0.0622253982203578,-0.0038294699498561,2.61705109019401,-0.144963141214248,-0.144963141214248,247.970897504955,12.507034936251,91.10253
36,203,0.3599999999999999,-0.0046410513202559,-0.0046410513202559,-0.027848879358281,-0.0557772798034009,0.0063413927398136,0.0016927648489784,0.0622253982203578,-0.0038294699498561,2.61705109019401,-0.144963141214248,-0.144963141214248,247.970897504955,12.1213516768748,91.13611
37,204,0.3700000000000001,-0.0046410513202559,-0.0046410513202559,-0.027848879358281,-0.0557772798034009,0.0063413927398136,0.0016927648489784,0.0622253982203578,-0.0038294699498561,2.61705109019401,-0.144963141214248,-0.144963141214248,247.970897504955,10.4146457529718,91.16475
38,205,0.3799999999999999,-0.0046410513202559,-0.0046410513202559,-0.027848879358281,-0.0557772798034009,0.0063413927398136,0.0016927648489784,0.0622253982203578,-0.0038294699498561,2.61705109019401,-0.144963141214248,-0.144963141214248,247.970897504955,9.86399345498438,91.18845
39,206,0.3900000000000001,-0.0046410513202559,-0.0046410513202559,-0.027848879358281,-0.0557772798034009,0.0063413927398136,0.0016927648489784,0.0622253982203578,-0.0038294699498561,2.61705109019401,-0.144963141214248,-0.144963141214248,247.970897504955,8.4181673540276,91.20828
40,207,0.3999999999999999,-0.0046410513202559,-0.0046410513202559,-0.027848879358281,-0.0557772798034009,0.0063413927398136,0.0016927648489784,0.0622253982203578,-0.0038294699498561,2.61705109019401,-0.144963141214248,-0.144963141214248,247.970897504955,7.74401963344185,91.224945
41,208,0.4100000000000001,-0.0046410513202559,-0.0046410513202559,-0.027848879358281,-0.0557772798034009,0.0063413927398136,0.0016927648489784,0.0622253982203578,-0.0038294699498561,2.61705109019401,-0.144963141214248,-0.144963141214248,247.970897504955,6.49424142784663,91.23917
42,209,0.4199999999999999,-0.0046410513202559,-0.0046410513202559,-0.027848879358281,-0.0557772798034009,0.0063413927398136,0.0016927648489784,0.0622253982203578,-0.0038294699498561,2.61705109019401,-0.144963141214248,-0.144963141214248,247.970897504955,5.7255105548439,91.25151
43,210,0.4300000000000001,-0.0046410513202559,-0.0046410513202559,-0.027848879358281,-0.0557772798034009,0.0063413927398136,0.0016927648489784,0.0622253982203578,-0.0038294699498561,2.61705109019401,-0.144963141214248,-0.144963141214248,247.970897504955,4.60679836426599,91.26225
44,211,0.4399999999999999,-0.0046410513202559,-0.0046410513202559,-0.027848879358281,-0.0557772798034009,0.0063413927398136,0.0016927648489784,0.0622253982203578,-0.0038294699498561,2.61705109019401,-0.144963141214248,-0.144963141214248,247.970897504955,3.76045266832842,91.27181
45,212,0.4500000000000002,-0.0046410513202559,-0.0046410513202559,-0.027848879358281,-0.0557772798034009,0.0063413927398136,0.0016927648489784,0.0622253982203578,-0.0038294699498561,2.61705109019401,-0.144963141214248,-0.144963141214248,247.970897504955,2.71394274003469,91.28027
46,213,0.4599999999999999,-0.0046410513202559,-0.0046410513202559,-0.027848879358281,-0.0557772798034009,0.0063413927398136,0.0016927648489784,0.0622253982203578,-0.0038294699498561,2.61705109019401,-0.144963141214248,-0.144963141214248,247.970897504955,1.80183033356033,91.28791
47,214,0.4700000000000002,-0.0046410513202559,-0.0046410513202559,-0.027848879358281,-0.0557772798034009,0.0063413927398136,0.0016927648489784,0.0622253982203578,-0.0038294699498561,2.61705109019401,-0.144963141214248,-0.144963141214248,247.970897504955,0.791077446778638,91.29435
48,215,0.48,-0.0046410513202559,-0.0046410513202559,-0.027848879358281,-0.0557772798034009,0.0063413927398136,0.0016927648489784,0.0622253982203578,-0.0038294699498561,2.61705109019401,-0.144963141214248,-0.144963141214248,247.970897504955,-0.148378689058977,91.300064
49,216,0.4900000000000002,-0.0046410513202559,-0.0046410513202559,-0.027848879358281,-0.0557772798034009,0.0063413927398136,0.0016927648489784,0.0622253982203578,-0.0038294699498561,2.61705109019401,-0.144963141214248,-0.144963141214248,247.970897504955,-1.07524362370062,91.304955
50,217,0.5,-0.0046410513202559,-0.0046410513202559,-0.027848879358281,-0.0557772798034009,0.0063413927398136,0.0016927648489784,0.0622253982203578,-0.0038294699498561,2.61705109019401,-0.144963141214248,-0.144963141214248,247.970897504955,-1.85590086509672,91.30929
51,218,0.5100000000000002,-0.0046410513202559,-0.0046410513202559,-0.027848879358281,-0.0557772798034009,0.0063413927398136,0.0016927648489784,0.0622253982203578,-0.0038294699498561,2.61705109019401,-0.144963141214248,-0.144963141214248,247.970897504955,-2.37943984234242,91.31272
52,219,0.52,-0.0046410513202559,-0.0046410513202559,-0.027848879358281,-0.0557772798034009,0.0063413927398136,0.0016927648489784,0.0622253982203578,-0.0038294699498561,2.61705109019401,-0.144963141214248,-0.144963141214248,247.970897504955,-2.50239015150728,91.31567
53,220,0.5300000000000002,-0.0046410513202559,-0.0046410513202559,-0.027848879358281,-0.0557772798034009,0.0063413927398136,0.0016927648489784,0.0622253982203578,-0.0038294699498561,2.61705109019401,-0.144963141214248,-0.144963141214248,247.970897504955,-2.26138899834893,91.31827
54,221,0.54,0.992080900853692,-0.0728596204090501,1.49715293891312,0.295803123421797,-0.433786333699224,-0.895188502395227,-1.00583199508665,-1.14772314082373,2.61705109019401,-0.144963141214248,-0.144963141214248,247.970897504955,13.598078182625,122.3775
55,222,0.5500000000000003,1.05035296416343,-0.0240650724234421,1.61551654158989,0.178374799027773,-0.505204228159379,-0.921188995205397,-0.963469899542666,-1.30898319995102,2.61705109019401,-0.144963141214248,-0.144963141214248,247.970897504955,22.6515642072399,148.53108
56,223,0.56,1.0215100515388,-0.0728596204118288,1.90667458104092,0.413231447825854,-0.448524930755775,-0.920661010454924,-1.31256760246073,-1.44337606895442,2.61705109019401,-0.144963141214248,-0.144963141214248,247.970897504955,31.4058248359199,176.42307
57,224,0.5700000000000003,1.05047021177897,0.102191064757447,1.96673619110713,-0.5226722976009,-0.614544404895798,-0.85805935340306,-0.532572553561137,-1.96407842289542,2.61705109019401,-0.144963141214248,-0.144963141214248,247.970897504955,32.8534407734275,201.82886
58,225,0.5800000000000001,1.09926475976497,0.0146657221725993,1.79147828983686,-0.406653113092993,-0.563223630163986,-0.944127765661447,-0.545221373367652,-1.75427901753629,2.61705109019401,-0.144963141214248,-0.144963141214248,247.970897504955,53.4623537687991,223.81949
59,226,0.5899999999999999,1.09926475976469,-0.0239478248127485,1.73247245025495,-0.409471392873565,-0.529801534593766,-0.963466057687495,-0.51323091743442,-1.70461773951336,2.61705109019401,-0.144963141214248,-0.144963141214248,247.970897504955,62.2079432805639,243.9056
60,227,0.6000000000000001,0.777420063997874,-0.0434890935292726,1.78866290186636,-0.291338498535988,0.741604295390249,-0.237268468661952,1.77463117375398,-0.367256442261787,-1.93632637713722,72.79438580643,-31.1674670322611,247.970897504955,69.8825124624101,241.0745
61,228,0.6099999999999999,0.767414934414984,-0.0046410513202559,2.14129024538232,-0.173910174144155,0.75537960732406,0.135457999983242,2.0802562181547,0.536565681411903,-1.39940542547089,72.79438580643,-112.113213351898,247.970897504955,70.073913024385,252.3164
62,229,0.6200000000000001,0.70879112826463,-0.033542587751046,2.25859807755548,0.0588327647940418,0.353069420357133,0.615509506919562,1.26476217291319,1.87219208846703,-0.568085978506169,87.7484782684987,-68.2553545500375,247.970897504955,76.6839926041274,257.40036
63,230,0.6299999999999999,0.737165050436996,-0.121009306524721,1.85259567042056,0.410413168018478,-0.361855734123813,0.653541116941458,-0.236479031725398,1.8827180761065,0.342963899465784,106.975168576873,-0.144963141214248,247.970897504955,75.41953656213,260.88556
64,231,0.6400000000000001,0.60107965509622,-0.0435477173343871,2.4363194433086,0.0609464746385183,-0.576778035252588,0.174700467960995,-2.25274258810347,0.929794458124622,1.20436720071431,111.85813754408,-0.144963141214248,247.970897504955,65.9307718777139,260.8668
65,232,0.6499999999999999,0.581303891152764,-0.034128825815438,2.14375370987157,-0.0543681398992956,-0.430027597301769,-0.392626102264931,-1.63089944092359,-1.39240901922509,2.25211783296872,135.967796819661,-0.144963141214248,247.970897504955,82.4320618369336,265.9642
66,233,0.6600000000000001,0.552343730917288,-0.0046996751269648,2.2002960849617,-0.0550727098503332,0.0931431412338923,-0.544453890858548,0.406923142731753,-2.16304170574156,-2.98066504320978,140.850765786868,82.7655524228556,247.970897504955,74.7745542479327,267.61673
67,234,0.6699999999999999,0.551698869042622,0.0147829697830239,2.02785357170255,-0.173205604196326,0.523984905363709,-0.173291653721406,1.99162113326574,-0.419088953709196,-1.86340299937547,148.785590358578,163.656504539465,247.970897504955,81.7326873910911,268.71185
68,235,0.6800000000000002,0.444925376779351,-0.0046410513202559,2.43491174932227,-0.0564818497453366,0.274850229175943,0.349910676861305,1.47991116738412,1.93438578442618,-0.676259287940588,158.856713853441,226.855815173372,247.970897504955,66.5087333920741,266.47095
69,236,0.69,0.483773418989791,-0.0044651799026475,2.55327535198046,-0.0571864196893584,-0.206289673823992,0.437608534224626,-1.11930388925118,2.29557054196447,0.43127921688287,150.921889281731,237.921011017985,247.970897504955,72.3702487831598,232.39555
70,237,0.7000000000000002,0.366760301912222,-0.0728596204114252,2.55221958149486,0.178374799038383,-0.341181161378909,-0.153026332588154,-2.52748005510014,-0.396846232398339,1.79631401873049,176.862661920014,213.790114734511,247.970897504955,39.985108461586,230.05243
71,238,0.71,0.309250348076682,0.0041916021414215,2.3123250647058,0.183306788653158,0.0547020583411248,-0.304402746583051,0.259826434232465,-2.30498130311443,-2.95023425571218,195.771979756864,184.836284871765,247.970897504955,65.0451411695735,215.07697
72,239,0.7200000000000002,0.289181465106476,-0.0433718459171692,2.60805810960847,-0.0571864196958248,0.292143209598986,-0.0126246530484513,2.57102035733006,-0.441691874372338,-1.76285514974558,195.784166667938,158.856713853441,247.970897504955,55.7602733123888,248.28987
