,Unnamed: 0,t,iq,id,vq,vd,ia,ib,va,vb,theta_e,omega,omega_obs,r,omega_ekf,omega_meta
0,167,0.0,0.0054227020756828,0.0146657221666127,-0.146564405551516,-0.17179646427116,-0.010015079310571,-0.0120078012505564,0.0759500424341184,0.212665796885622,-2.62011914539939,-0.144963141214248,-0.144963141214248,-0.144963141214248,-33.6546971413078,-10.219607
1,168,0.01,-0.131073059925974,0.0830015388786913,0.55552297008746,-0.524081437500565,-0.137264616562634,0.072303717293802,0.731162118440013,-0.220610697804446,-2.62011914539939,-0.144963141214248,-0.144963141214248,-0.144963141214248,-41.6064924956489,1.2027565
2,169,0.02,0.0438017538181723,-0.004758298935613,-0.319358842266605,-0.0550727098386799,0.0259460635992675,-0.0356095047706535,-0.111338489514641,0.304346536460397,-2.62011914539939,-0.144963141214248,-0.144963141214248,-0.144963141214248,-36.6237727030562,12.846487
3,170,0.03,0.0342656146967688,-0.0241823200371289,-0.261760696721617,0.061651044589528,0.0380378547284004,-0.017664613230599,-0.183855035909008,0.196257074822957,-2.62011914539939,-0.144963141214248,-0.144963141214248,-0.144963141214248,-39.4529919300781,45.8374
4,171,0.04,0.120970223950852,-0.0526734898024456,-0.725009325778095,0.175556519148161,0.105934775383938,-0.0786518593234912,-0.51339205393129,0.54119055132258,-2.62011914539939,-0.144963141214248,-0.144963141214248,-0.144963141214248,-36.5299589746596,57.798515
5,172,0.05,-0.0336598353668122,-0.0046410513202559,0.0293973427525928,-0.0557772798034009,-0.0127437365971717,0.0314979531369906,0.0630082343135349,0.0022958902131793,-2.62011914539939,-0.144963141214248,-0.144963141214248,-0.144963141214248,-37.1970241116343,57.203648
6,173,0.06,0.0637533891887934,-0.0534942231124358,-0.497080208057174,0.179079368982457,0.0781433785808108,-0.0286310831691171,-0.402901877834104,0.341801448907214,-2.62011914539939,-0.144963141214248,-0.144963141214248,-0.144963141214248,-36.2702666122235,86.49688
7,174,0.07,-0.0338943305896362,0.0343242385016298,0.0304531132338911,-0.289929358645568,-0.0466468127891021,0.0122903967167366,0.26656418355213,0.118025256438837,-2.62011914539939,-0.144963141214248,-0.144963141214248,-0.144963141214248,-39.1236555641382,78.49473
8,175,0.08,0.0147829697801908,-0.0046410513202559,-0.202754857093663,-0.0557772798034009,0.011388450636575,-0.0105061289244697,-0.0526403194069882,0.203591831344159,-2.62011914539939,-0.144963141214248,-0.144963141214248,-0.144963141214248,-30.2629962522701,81.81682
9,176,0.09,-0.0046410513202559,-0.0046410513202559,-0.027848879358281,-0.0557772798034009,0.0017122125945005,0.0063361694063315,0.0344905515284016,0.0519332925881426,-2.62011914539939,-0.144963141214248,-0.144963141214248,386.830327509884,-39.1402802136006,83.46044
10,177,0.1,-0.0046410513202559,-0.0046410513202559,-0.027848879358281,-0.0557772798034009,0.0017122125945005,0.0063361694063315,0.0344905515284016,0.0519332925881426,-2.62011914539939,-0.144963141214248,-0.144963141214248,386.830327509884,-31.7003726586648,83.111755
11,178,0.1100000000000001,-0.0046410513202559,-0.0046410513202559,-0.027848879358281,-0.0557772798034009,0.0017122125945005,0.0063361694063315,0.0344905515284016,0.0519332925881426,-2.62011914539939,-0.144963141214248,-0.144963141214248,386.830327509884,-36.4858090714487,80.904884
12,179,0.1200000000000001,-0.0046410513202559,-0.0046410513202559,-0.027848879358281,-0.0557772798034009,0.0017122125945005,0.0063361694063315,0.0344905515284016,0.0519332925881426,-2.62011914539939,-0.144963141214248,-0.144963141214248,386.830327509884,-30.2271909494079,81.46139
13,180,0.1300000000000001,-0.0046410513202559,-0.0046410513202559,-0.027848879358281,-0.0557772798034009,0.0017122125945005,0.0063361694063315,0.0344905515284016,0.0519332925881426,-2.62011914539939,-0.144963141214248,-0.144963141214248,386.830327509884,-31.5896310082668,83.61836
14,181,0.1400000000000001,-0.0046410513202559,-0.0046410513202559,-0.027848879358281,-0.0557772798034009,0.0017122125945005,0.0063361694063315,0.0344905515284016,0.0519332925881426,-2.62011914539939,-0.144963141214248,-0.144963141214248,386.830327509884,-28.7173007679809,83.77092
15,182,0.1500000000000001,-0.0046410513202559,-0.0046410513202559,-0.027848879358281,-0.0557772798034009,0.0017122125945005,0.0063361694063315,0.0344905515284016,0.0519332925881426,-2.62011914539939,-0.144963141214248,-0.144963141214248,386.830327509884,-29.885985936371,86.63974
16,183,0.1600000000000001,-0.0046410513202559,-0.0046410513202559,-0.027848879358281,-0.0557772798034009,0.0017122125945005,0.0063361694063315,0.0344905515284016,0.0519332925881426,-2.62011914539939,-0.144963141214248,-0.144963141214248,386.830327509884,-28.2353534870965,86.89788
17,184,0.1700000000000001,-0.0046410513202559,-0.0046410513202559,-0.027848879358281,-0.0557772798034009,0.0017122125945005,0.0063361694063315,0.0344905515284016,0.0519332925881426,-2.62011914539939,-0.144963141214248,-0.144963141214248,386.830327509884,-29.5290318059861,86.902504
18,185,0.1800000000000001,-0.0046410513202559,-0.0046410513202559,-0.027848879358281,-0.0557772798034009,0.0017122125945005,0.0063361694063315,0.0344905515284016,0.0519332925881426,-2.62011914539939,-0.144963141214248,-0.144963141214248,386.830327509884,-28.263656753021,86.888336
19,186,0.1900000000000001,-0.0046410513202559,-0.0046410513202559,-0.027848879358281,-0.0557772798034009,0.0017122125945005,0.0063361694063315,0.0344905515284016,0.0519332925881426,-2.62011914539939,-0.144963141214248,-0.144963141214248,386.830327509884,-29.6647955913346,86.90996
20,187,0.2000000000000001,-0.0046410513202559,-0.0046410513202559,-0.027848879358281,-0.0557772798034009,0.0017122125945005,0.0063361694063315,0.0344905515284016,0.0519332925881426,-2.62011914539939,-0.144963141214248,-0.144963141214248,386.830327509884,-28.6011224430371,86.93633
21,188,0.2099999999999999,-0.0046410513202559,-0.0046410513202559,-0.027848879358281,-0.0557772798034009,0.0017122125945005,0.0063361694063315,0.0344905515284016,0.0519332925881426,-2.62011914539939,-0.144963141214248,-0.144963141214248,386.830327509884,-29.9762999663161,86.92257
22,189,0.2199999999999999,-0.0046410513202559,-0.0046410513202559,-0.027848879358281,-0.0557772798034009,0.0017122125945005,0.0063361694063315,0.0344905515284016,0.0519332925881426,-2.62011914539939,-0.144963141214248,-0.144963141214248,386.830327509884,-29.0412402585852,87.00506
23,190,0.2299999999999999,-0.0046410513202559,-0.0046410513202559,-0.027848879358281,-0.0557772798034009,0.0017122125945005,0.0063361694063315,0.0344905515284016,0.0519332925881426,-2.62011914539939,-0.144963141214248,-0.144963141214248,386.830327509884,-30.2829170330424,87.1885
24,191,0.24,-0.0046410513202559,-0.0046410513202559,-0.027848879358281,-0.0557772798034009,0.0017122125945005,0.0063361694063315,0.0344905515284016,0.0519332925881426,-2.62011914539939,-0.144963141214248,-0.144963141214248,386.830327509884,-29.4006966018956,87.34615
25,192,0.25,-0.0046410513202559,-0.0046410513202559,-0.027848879358281,-0.0557772798034009,0.0017122125945005,0.0063361694063315,0.0344905515284016,0.0519332925881426,-2.62011914539939,-0.144963141214248,-0.144963141214248,386.830327509884,-30.4335257916599,87.556465
26,193,0.26,-0.0046410513202559,-0.0046410513202559,-0.027848879358281,-0.0557772798034009,0.0017122125945005,0.0063361694063315,0.0344905515284016,0.0519332925881426,-2.62011914539939,-0.144963141214248,-0.144963141214248,386.830327509884,-29.5287256132605,87.68372
27,194,0.27,-0.0046410513202559,-0.0046410513202559,-0.027848879358281,-0.0557772798034009,0.0017122125945005,0.0063361694063315,0.0344905515284016,0.0519332925881426,-2.62011914539939,-0.144963141214248,-0.144963141214248,386.830327509884,-30.3173758378396,87.755295
28,195,0.28,-0.0046410513202559,-0.0046410513202559,-0.027848879358281,-0.0557772798034009,0.0017122125945005,0.0063361694063315,0.0344905515284016,0.0519332925881426,-2.62011914539939,-0.144963141214248,-0.144963141214248,386.830327509884,-29.3531041396256,87.79681
29,196,0.29,-0.0046410513202559,-0.0046410513202559,-0.027848879358281,-0.0557772798034009,0.0017122125945005,0.0063361694063315,0.0344905515284016,0.0519332925881426,-2.62011914539939,-0.144963141214248,-0.144963141214248,386.830327509884,-29.9048673976398,87.823586
30,197,0.3,-0.0046410513202559,-0.0046410513202559,-0.027848879358281,-0.0557772798034009,0.0017122125945005,0.0063361694063315,0.0344905515284016,0.0519332925881426,-2.62011914539939,-0.144963141214248,-0.144963141214248,386.830327509884,-28.8928091007619,87.845375
31,198,0.31,-0.0046410513202559,-0.0046410513202559,-0.027848879358281,-0.0557772798034009,0.0017122125945005,0.0063361694063315,0.0344905515284016,0.0519332925881426,-2.62011914539939,-0.144963141214248,-0.144963141214248,386.830327509884,-29.2448894496943,87.86506
32,199,0.32,-0.0046410513202559,-0.0046410513202559,-0.027848879358281,-0.0557772798034009,0.0017122125945005,0.0063361694063315,0.0344905515284016,0.0519332925881426,-2.62011914539939,-0.144963141214248,-0.144963141214248,386.830327509884,-28.2201518487932,87.888145
33,200,0.33,-0.0046410513202559,-0.0046410513202559,-0.027848879358281,-0.0557772798034009,0.0017122125945005,0.0063361694063315,0.0344905515284016,0.0519332925881426,-2.62011914539939,-0.144963141214248,-0.144963141214248,386.830327509884,-28.422797117617,87.91688
34,201,0.3399999999999998,-0.0046410513202559,-0.0046410513202559,-0.027848879358281,-0.0557772798034009,0.0017122125945005,0.0063361694063315,0.0344905515284016,0.0519332925881426,-2.62011914539939,-0.144963141214248,-0.144963141214248,386.830327509884,-27.4196948645256,87.94595
35,202,0.3500000000000001,-0.0046410513202559,-0.0046410513202559,-0.027848879358281,-0.0557772798034009,0.0017122125945005,0.0063361694063315,0.0344905515284016,0.0519332925881426,-2.62011914539939,-0.144963141214248,-0.144963141214248,386.830327509884,-27.5261379321314,87.97494
36,203,0.3599999999999999,-0.0046410513202559,-0.0046410513202559,-0.027848879358281,-0.0557772798034009,0.0017122125945005,0.0063361694063315,0.0344905515284016,0.0519332925881426,-2.62011914539939,-0.144963141214248,-0.144963141214248,386.830327509884,-26.570611050024,87.99898
37,204,0.3700000000000001,-0.0046410513202559,-0.0046410513202559,-0.027848879358281,-0.0557772798034009,0.0017122125945005,0.0063361694063315,0.0344905515284016,0.0519332925881426,-2.62011914539939,-0.144963141214248,-0.144963141214248,386.830327509884,-26.632251777268,88.01675
38,205,0.3799999999999999,-0.0046410513202559,-0.0046410513202559,-0.027848879358281,-0.0557772798034009,0.0017122125945005,0.0063361694063315,0.0344905515284016,0.0519332925881426,-2.62011914539939,-0.144963141214248,-0.144963141214248,386.830327509884,-25.743821745248,88.02985
39,206,0.3900000000000001,-0.0046410513202559,-0.0046410513202559,-0.027848879358281,-0.0557772798034009,0.0017122125945005,0.0063361694063315,0.0344905515284016,0.0519332925881426,-2.62011914539939,-0.144963141214248,-0.144963141214248,386.830327509884,-25.8075377476042,88.039444
40,207,0.3999999999999999,-0.0046410513202559,-0.0046410513202559,-0.027848879358281,-0.0557772798034009,0.0017122125945005,0.0063361694063315,0.0344905515284016,0.0519332925881426,-2.62011914539939,-0.144963141214248,-0.144963141214248,386.830327509884,-25.0030415625397,88.04718
41,208,0.4100000000000001,-0.0046410513202559,-0.0046410513202559,-0.027848879358281,-0.0557772798034009,0.0017122125945005,0.0063361694063315,0.0344905515284016,0.0519332925881426,-2.62011914539939,-0.144963141214248,-0.144963141214248,386.830327509884,-25.1095159140405,88.05375
42,209,0.4199999999999999,-0.0046410513202559,-0.0046410513202559,-0.027848879358281,-0.0557772798034009,0.0017122125945005,0.0063361694063315,0.0344905515284016,0.0519332925881426,-2.62011914539939,-0.144963141214248,-0.144963141214248,386.830327509884,-24.4055270812897,88.0601
43,210,0.4300000000000001,-0.0046410513202559,-0.0046410513202559,-0.027848879358281,-0.0557772798034009,0.0017122125945005,0.0063361694063315,0.0344905515284016,0.0519332925881426,-2.62011914539939,-0.144963141214248,-0.144963141214248,386.830327509884,-24.5876183308416,88.066216
44,211,0.4399999999999999,-0.0046410513202559,-0.0046410513202559,-0.027848879358281,-0.0557772798034009,0.0017122125945005,0.0063361694063315,0.0344905515284016,0.0519332925881426,-2.62011914539939,-0.144963141214248,-0.144963141214248,386.830327509884,-24.0009939411389,88.07199
45,212,0.4500000000000002,-0.0046410513202559,-0.0046410513202559,-0.027848879358281,-0.0557772798034009,0.0017122125945005,0.0063361694063315,0.0344905515284016,0.0519332925881426,-2.62011914539939,-0.144963141214248,-0.144963141214248,386.830327509884,-24.2810528344259,88.07728
46,213,0.4599999999999999,-0.0046410513202559,-0.0046410513202559,-0.027848879358281,-0.0557772798034009,0.0017122125945005,0.0063361694063315,0.0344905515284016,0.0519332925881426,-2.62011914539939,-0.144963141214248,-0.144963141214248,386.830327509884,-23.827386795575,88.08171
47,214,0.4700000000000002,-0.0046410513202559,-0.0046410513202559,-0.027848879358281,-0.0557772798034009,0.0017122125945005,0.0063361694063315,0.0344905515284016,0.0519332925881426,-2.62011914539939,-0.144963141214248,-0.144963141214248,386.830327509884,-24.2129564809318,88.08555
48,215,0.48,-0.0046410513202559,-0.0046410513202559,-0.027848879358281,-0.0557772798034009,0.0017122125945005,0.0063361694063315,0.0344905515284016,0.0519332925881426,-2.62011914539939,-0.144963141214248,-0.144963141214248,386.830327509884,-23.9023910779621,88.088875
49,216,0.4900000000000002,-0.0046410513202559,-0.0046410513202559,-0.027848879358281,-0.0557772798034009,0.0017122125945005,0.0063361694063315,0.0344905515284016,0.0519332925881426,-2.62011914539939,-0.144963141214248,-0.144963141214248,386.830327509884,-24.3809485806365,88.091286
50,217,0.5,-0.0046410513202559,-0.0046410513202559,-0.027848879358281,-0.0557772798034009,0.0017122125945005,0.0063361694063315,0.0344905515284016,0.0519332925881426,-2.62011914539939,-0.144963141214248,-0.144963141214248,386.830327509884,-24.2107314787782,88.09359
51,218,0.5100000000000002,-0.0046410513202559,-0.0046410513202559,-0.027848879358281,-0.0557772798034009,0.0017122125945005,0.0063361694063315,0.0344905515284016,0.0519332925881426,-2.62011914539939,-0.144963141214248,-0.144963141214248,386.830327509884,-24.7459273308441,88.09505
52,219,0.52,-0.0046410513202559,-0.0046410513202559,-0.027848879358281,-0.0557772798034009,0.0017122125945005,0.0063361694063315,0.0344905515284016,0.0519332925881426,-2.62011914539939,-0.144963141214248,-0.144963141214248,386.830327509884,-24.69078943556,88.09665
53,220,0.5300000000000002,-0.0046410513202559,-0.0046410513202559,-0.027848879358281,-0.0557772798034009,0.0017122125945005,0.0063361694063315,0.0344905515284016,0.0519332925881426,-2.62011914539939,-0.144963141214248,-0.144963141214248,386.830327509884,-25.2240550778948,88.098114
54,221,0.54,-0.0046410513202559,-0.0046410513202559,-0.027848879358281,-0.0557772798034009,0.0017122125945005,0.0063361694063315,0.0344905515284016,0.0519332925881426,-2.62011914539939,-0.144963141214248,-0.144963141214248,386.830327509884,-25.2300559059809,88.099335
55,222,0.5500000000000003,-0.0046410513202559,-0.0046410513202559,-0.027848879358281,-0.0557772798034009,0.0017122125945005,0.0063361694063315,0.0344905515284016,0.0519332925881426,-2.62011914539939,-0.144963141214248,-0.144963141214248,386.830327509884,-25.6907409595676,88.10068
56,223,0.56,-0.0046410513202559,-0.0046410513202559,-0.027848879358281,-0.0557772798034009,0.0017122125945005,0.0063361694063315,0.0344905515284016,0.0519332925881426,-2.62011914539939,-0.144963141214248,-0.144963141214248,386.830327509884,-25.6828214943541,88.10155
57,224,0.5700000000000003,-0.0046410513202559,-0.0046410513202559,-0.027848879358281,-0.0557772798034009,0.0017122125945005,0.0063361694063315,0.0344905515284016,0.0519332925881426,-2.62011914539939,-0.144963141214248,-0.144963141214248,386.830327509884,-26.0063459909401,88.102264
58,225,0.5800000000000001,-0.0046410513202559,-0.0046410513202559,-0.027848879358281,-0.0557772798034009,0.0017122125945005,0.0063361694063315,0.0344905515284016,0.0519332925881426,-2.62011914539939,-0.144963141214248,-0.144963141214248,386.830327509884,-25.91395393714,88.10306
59,226,0.5899999999999999,-0.0046410513202559,-0.0046410513202559,-0.027848879358281,-0.0557772798034009,0.0017122125945005,0.0063361694063315,0.0344905515284016,0.0519332925881426,-2.62011914539939,-0.144963141214248,-0.144963141214248,386.830327509884,-26.0618831392554,88.10377
60,227,0.6000000000000001,1.4421749432373,0.0342069908799259,2.37379436863382,-0.289224788642708,0.688771065192718,-1.26753031714427,1.43330824265732,-1.91420431627704,-2.62011914539939,-0.144963141214248,33.6784264226939,386.830327509884,-12.4270189889569,113.162315
61,228,0.6099999999999999,1.65607367058252,-0.0239478248120902,1.85083605292318,0.0602419046941912,0.845751730636736,-1.4240286200898,0.869774492454306,-1.63484418650748,-2.62011914539939,-0.144963141214248,93.7955574571474,386.830327509884,-1.84191125074396,126.37024
62,229,0.6200000000000001,1.62676176751775,0.0149002173966153,2.14410563329671,-0.173205604196326,0.797465165094141,-1.41796515302645,1.2182882643712,-1.77284033487371,-2.62011914539939,-0.144963141214248,148.762107128503,386.830327509884,-0.316397265299253,149.2714
63,230,0.6299999999999999,1.61769461882514,0.034089743274861,2.3752020627323,-0.288520218739836,0.776309318595847,-1.4196625768941,1.43339857445212,-1.91577589560682,-2.62011914539939,-0.144963141214248,135.982907767155,386.830327509884,-1.87440415284145,174.6543
64,231,0.6400000000000001,1.734121497851,-0.0240650724284701,1.96814388503997,-0.0564818497278706,0.884733570222604,-1.49164439687921,1.02942190974207,-1.67841326356529,-2.62011914539939,-0.144963141214248,72.840093020089,386.830327509884,15.8255962833281,190.98125
65,232,0.6499999999999999,1.75354551893867,-0.0240650724239067,1.91019381601967,-0.173910174148219,0.89440980825436,-1.50848669520121,1.10237406535654,-1.56966766656555,-2.62011914539939,-0.144963141214248,9.97190160174852,386.830327509884,27.3256668917877,211.16257
66,233,0.6600000000000001,1.7440093798172,-0.0046410513202559,1.90913804547129,-0.408062252982184,0.872817002718151,-1.50989427974737,1.30487813282095,-1.45210741250795,-2.62011914539939,-0.144963141214248,-0.144963141214248,386.830327509884,38.7655472885642,240.28355
67,234,0.6699999999999999,1.48049537116197,-0.131366178945976,2.49462143589862,-0.0564818497574314,1.16319149220976,0.925261676205028,2.05079620888574,1.42146446224195,-0.987334869825413,43.8017575636422,-4.97674547440826,386.830327509884,48.1640473581198,248.08832
68,235,0.6800000000000002,1.51957790859572,-0.014763428506803,2.61157734457299,-0.054368139945909,0.916306083776951,1.21231932259894,1.55182167171373,2.10122383874914,-0.6569364079119,43.8017575636422,-86.1196885300982,386.830327509884,49.401190443334,262.77527
69,236,0.69,1.44100246707946,-0.062619995594235,2.61368888558153,-0.0585955596280753,-0.224938698224345,1.42471469284852,-0.353360747756763,2.59035503592951,0.113162213666567,67.9114168392234,-141.197324089246,386.830327509884,50.8129441031754,274.28442
70,237,0.7000000000000002,1.40274066292853,0.0536896358060421,2.90308730756582,-0.406653113120416,-0.759514468636735,1.18055144587503,-1.99628137225286,2.14665864835481,0.609946288115297,67.9114168392234,-54.2963554474134,386.830327509884,48.367983171487,272.775
71,238,0.71,1.35377024353803,-0.0435477173325656,2.96209314708719,0.17837479902415,-1.33676587371361,0.218282557362236,-2.87212438195702,0.746133309480153,1.37677670069209,82.8655093012931,-2.25410319834152,386.830327509884,41.3812075672156,284.85806
72,239,0.7200000000000002,1.43129045653955,-0.0051100417605842,2.72923710023757,-0.288520218790189,-1.3050721795964,-0.587711740185174,-2.37499827717641,-1.37526806455069,1.99035352746628,93.8521894775067,-0.144963141214248,386.830327509884,38.5116252961135,295.29166
