,Unnamed: 0,t,iq,id,vq,vd,ia,ib,va,vb,theta_e,omega,omega_obs,r,omega_ekf,omega_meta
0,32,0.0,-0.0046410513202559,-0.0046410513202559,-0.027848879358281,-0.0557772798034009,0.0046270136585591,-0.004655046650465,0.0276802987059917,-0.0558611321701058,1.5677762099521,-0.144963141214248,-0.144963141214248,104.838869653721,16.7872630018839,-9.206729
1,33,0.01,-0.0046410513202559,-0.0046410513202559,-0.027848879358281,-0.0557772798034009,0.0046270136585591,-0.004655046650465,0.0276802987059917,-0.0558611321701058,1.5677762099521,-0.144963141214248,-0.144963141214248,104.838869653721,16.7787365919606,-4.994478
2,34,0.02,-0.0046410513202559,-0.0046410513202559,-0.027848879358281,-0.0557772798034009,0.0046270136585591,-0.004655046650465,0.0276802987059917,-0.0558611321701058,1.5677762099521,-0.144963141214248,-0.144963141214248,104.838869653721,16.5595176390281,6.688107
3,35,0.0299999999999999,-0.0046410513202559,-0.0046410513202559,-0.027848879358281,-0.0557772798034009,0.0046270136585591,-0.004655046650465,0.0276802987059917,-0.0558611321701058,1.5677762099521,-0.144963141214248,-0.144963141214248,104.838869653721,16.4053974820305,40.235683
4,36,0.0399999999999999,-0.0046410513202559,-0.0046410513202559,-0.027848879358281,-0.0557772798034009,0.0046270136585591,-0.004655046650465,0.0276802987059917,-0.0558611321701058,1.5677762099521,-0.144963141214248,-0.144963141214248,104.838869653721,16.1057809813865,54.171783
5,37,0.0499999999999999,-0.0046410513202559,-0.0046410513202559,-0.027848879358281,-0.0557772798034009,0.0046270136585591,-0.004655046650465,0.0276802987059917,-0.0558611321701058,1.5677762099521,-0.144963141214248,-0.144963141214248,104.838869653721,15.8385987375771,50.52166
6,38,0.06,-0.0046410513202559,-0.0046410513202559,-0.027848879358281,-0.0557772798034009,0.0046270136585591,-0.004655046650465,0.0276802987059917,-0.0558611321701058,1.5677762099521,-0.144963141214248,-0.144963141214248,104.838869653721,15.4718848487173,76.06894
7,39,0.07,-0.0046410513202559,-0.0046410513202559,-0.027848879358281,-0.0557772798034009,0.0046270136585591,-0.004655046650465,0.0276802987059917,-0.0558611321701058,1.5677762099521,-0.144963141214248,-0.144963141214248,104.838869653721,15.1181225342092,68.24552
8,40,0.08,-0.0046410513202559,-0.0046410513202559,-0.027848879358281,-0.0557772798034009,0.0046270136585591,-0.004655046650465,0.0276802987059917,-0.0558611321701058,1.5677762099521,-0.144963141214248,-0.144963141214248,104.838869653721,14.6966769032924,77.428665
9,41,0.0899999999999999,-0.0046410513202559,-0.0046410513202559,-0.027848879358281,-0.0557772798034009,0.0046270136585591,-0.004655046650465,0.0276802987059917,-0.0558611321701058,1.5677762099521,-0.144963141214248,-0.144963141214248,104.838869653721,14.2765130662234,78.86082
10,42,0.0999999999999999,-0.0046410513202559,-0.0046410513202559,-0.027848879358281,-0.0557772798034009,0.0046270136585591,-0.004655046650465,0.0276802987059917,-0.0558611321701058,1.5677762099521,-0.144963141214248,-0.144963141214248,104.838869653721,13.8100930303987,80.09825
11,43,0.1099999999999999,-0.0046410513202559,-0.0046410513202559,-0.027848879358281,-0.0557772798034009,0.0046270136585591,-0.004655046650465,0.0276802987059917,-0.0558611321701058,1.5677762099521,-0.144963141214248,-0.144963141214248,104.838869653721,13.3380877571216,81.43684
12,44,0.12,-0.0046410513202559,-0.0046410513202559,-0.027848879358281,-0.0557772798034009,0.0046270136585591,-0.004655046650465,0.0276802987059917,-0.0558611321701058,1.5677762099521,-0.144963141214248,-0.144963141214248,104.838869653721,12.8336884937568,82.36791
13,45,0.13,-0.0046410513202559,-0.0046410513202559,-0.027848879358281,-0.0557772798034009,0.0046270136585591,-0.004655046650465,0.0276802987059917,-0.0558611321701058,1.5677762099521,-0.144963141214248,-0.144963141214248,104.838869653721,12.3197361469451,83.54533
14,46,0.14,-0.0046410513202559,-0.0046410513202559,-0.027848879358281,-0.0557772798034009,0.0046270136585591,-0.004655046650465,0.0276802987059917,-0.0558611321701058,1.5677762099521,-0.144963141214248,-0.144963141214248,104.838869653721,11.7818767044562,84.79056
15,47,0.1499999999999999,-0.0046410513202559,-0.0046410513202559,-0.027848879358281,-0.0557772798034009,0.0046270136585591,-0.004655046650465,0.0276802987059917,-0.0558611321701058,1.5677762099521,-0.144963141214248,-0.144963141214248,104.838869653721,11.2321271471604,85.68489
16,48,0.1599999999999999,-0.0046410513202559,-0.0046410513202559,-0.027848879358281,-0.0557772798034009,0.0046270136585591,-0.004655046650465,0.0276802987059917,-0.0558611321701058,1.5677762099521,-0.144963141214248,-0.144963141214248,104.838869653721,10.6632302741011,87.06709
17,49,0.1699999999999999,-0.0046410513202559,-0.0046410513202559,-0.027848879358281,-0.0557772798034009,0.0046270136585591,-0.004655046650465,0.0276802987059917,-0.0558611321701058,1.5677762099521,-0.144963141214248,-0.144963141214248,104.838869653721,10.0809392717683,87.715706
18,50,0.18,-0.0046410513202559,-0.0046410513202559,-0.027848879358281,-0.0557772798034009,0.0046270136585591,-0.004655046650465,0.0276802987059917,-0.0558611321701058,1.5677762099521,-0.144963141214248,-0.144963141214248,104.838869653721,9.4818080807568,88.484886
19,51,0.19,-0.0046410513202559,-0.0046410513202559,-0.027848879358281,-0.0557772798034009,0.0046270136585591,-0.004655046650465,0.0276802987059917,-0.0558611321701058,1.5677762099521,-0.144963141214248,-0.144963141214248,104.838869653721,8.86825458271039,89.02975
20,52,0.2,-0.0046410513202559,-0.0046410513202559,-0.027848879358281,-0.0557772798034009,0.0046270136585591,-0.004655046650465,0.0276802987059917,-0.0558611321701058,1.5677762099521,-0.144963141214248,-0.144963141214248,104.838869653721,8.23886278559843,89.43942
21,53,0.21,-0.0046410513202559,-0.0046410513202559,-0.027848879358281,-0.0557772798034009,0.0046270136585591,-0.004655046650465,0.0276802987059917,-0.0558611321701058,1.5677762099521,-0.144963141214248,-0.144963141214248,104.838869653721,7.59472212311599,89.783554
22,54,0.22,-0.0046410513202559,-0.0046410513202559,-0.027848879358281,-0.0557772798034009,0.0046270136585591,-0.004655046650465,0.0276802987059917,-0.0558611321701058,1.5677762099521,-0.144963141214248,-0.144963141214248,104.838869653721,6.93592236865102,90.069954
23,55,0.23,-0.0046410513202559,-0.0046410513202559,-0.027848879358281,-0.0557772798034009,0.0046270136585591,-0.004655046650465,0.0276802987059917,-0.0558611321701058,1.5677762099521,-0.144963141214248,-0.144963141214248,104.838869653721,6.26409772099749,90.33586
24,56,0.24,-0.0046410513202559,-0.0046410513202559,-0.027848879358281,-0.0557772798034009,0.0046270136585591,-0.004655046650465,0.0276802987059917,-0.0558611321701058,1.5677762099521,-0.144963141214248,-0.144963141214248,104.838869653721,5.58190693814023,90.58749
25,57,0.2499999999999999,-0.0046410513202559,-0.0046410513202559,-0.027848879358281,-0.0557772798034009,0.0046270136585591,-0.004655046650465,0.0276802987059917,-0.0558611321701058,1.5677762099521,-0.144963141214248,-0.144963141214248,104.838869653721,4.89473585881773,90.81195
26,58,0.2599999999999999,-0.0046410513202559,-0.0046410513202559,-0.027848879358281,-0.0557772798034009,0.0046270136585591,-0.004655046650465,0.0276802987059917,-0.0558611321701058,1.5677762099521,-0.144963141214248,-0.144963141214248,104.838869653721,4.21238780649861,91.03015
27,59,0.2699999999999999,-0.0046410513202559,-0.0046410513202559,-0.027848879358281,-0.0557772798034009,0.0046270136585591,-0.004655046650465,0.0276802987059917,-0.0558611321701058,1.5677762099521,-0.144963141214248,-0.144963141214248,104.838869653721,3.55269511372934,91.209656
28,60,0.2799999999999999,-0.0046410513202559,-0.0046410513202559,-0.027848879358281,-0.0557772798034009,0.0046270136585591,-0.004655046650465,0.0276802987059917,-0.0558611321701058,1.5677762099521,-0.144963141214248,-0.144963141214248,104.838869653721,2.94752813262624,91.3659
29,61,0.29,-0.0046410513202559,-0.0046410513202559,-0.027848879358281,-0.0557772798034009,0.0046270136585591,-0.004655046650465,0.0276802987059917,-0.0558611321701058,1.5677762099521,-0.144963141214248,-0.144963141214248,104.838869653721,2.45187067053049,91.4957
30,62,0.3,-0.0046410513202559,-0.0046410513202559,-0.027848879358281,-0.0557772798034009,0.0046270136585591,-0.004655046650465,0.0276802987059917,-0.0558611321701058,1.5677762099521,-0.144963141214248,-0.144963141214248,104.838869653721,2.15046174243936,91.602516
31,63,0.31,-0.0046410513202559,-0.0046410513202559,-0.027848879358281,-0.0557772798034009,0.0046270136585591,-0.004655046650465,0.0276802987059917,-0.0558611321701058,1.5677762099521,-0.144963141214248,-0.144963141214248,104.838869653721,2.13660480055043,91.69187
32,64,0.32,-0.0046410513202559,-0.0046410513202559,-0.027848879358281,-0.0557772798034009,0.0046270136585591,-0.004655046650465,0.0276802987059917,-0.0558611321701058,1.5677762099521,-0.144963141214248,-0.144963141214248,104.838869653721,2.42621791599382,91.767944
33,65,0.33,-0.0046410513202559,-0.0046410513202559,-0.027848879358281,-0.0557772798034009,0.0046270136585591,-0.004655046650465,0.0276802987059917,-0.0558611321701058,1.5677762099521,-0.144963141214248,-0.144963141214248,104.838869653721,2.86910007796292,91.83461
34,66,0.34,-0.0046410513202559,-0.0046410513202559,-0.027848879358281,-0.0557772798034009,0.0046270136585591,-0.004655046650465,0.0276802987059917,-0.0558611321701058,1.5677762099521,-0.144963141214248,-0.144963141214248,104.838869653721,3.15255970462099,91.89417
35,67,0.35,-0.0046410513202559,-0.0046410513202559,-0.027848879358281,-0.0557772798034009,0.0046270136585591,-0.004655046650465,0.0276802987059917,-0.0558611321701058,1.5677762099521,-0.144963141214248,-0.144963141214248,104.838869653721,2.82391882797926,91.94732
36,68,0.36,-0.0046410513202559,-0.0046410513202559,-0.027848879358281,-0.0557772798034009,0.0046270136585591,-0.004655046650465,0.0276802987059917,-0.0558611321701058,1.5677762099521,-0.144963141214248,-0.144963141214248,104.838869653721,1.85973031753612,91.994934
37,69,0.3699999999999999,-0.0046410513202559,-0.0046410513202559,-0.027848879358281,-0.0557772798034009,0.0046270136585591,-0.004655046650465,0.0276802987059917,-0.0558611321701058,1.5677762099521,-0.144963141214248,-0.144963141214248,104.838869653721,1.04353752202562,92.03633
38,70,0.3799999999999999,-0.0046410513202559,-0.0046410513202559,-0.027848879358281,-0.0557772798034009,0.0046270136585591,-0.004655046650465,0.0276802987059917,-0.0558611321701058,1.5677762099521,-0.144963141214248,-0.144963141214248,104.838869653721,0.926643844562589,92.072655
39,71,0.3899999999999999,-0.0046410513202559,-0.0046410513202559,-0.027848879358281,-0.0557772798034009,0.0046270136585591,-0.004655046650465,0.0276802987059917,-0.0558611321701058,1.5677762099521,-0.144963141214248,-0.144963141214248,104.838869653721,1.91870574875693,92.103485
40,72,0.3999999999999999,-0.0046410513202559,-0.0046410513202559,-0.027848879358281,-0.0557772798034009,0.0046270136585591,-0.004655046650465,0.0276802987059917,-0.0558611321701058,1.5677762099521,-0.144963141214248,-0.144963141214248,104.838869653721,2.60021655357385,92.129486
41,73,0.41,-0.0046410513202559,-0.0046410513202559,-0.027848879358281,-0.0557772798034009,0.0046270136585591,-0.004655046650465,0.0276802987059917,-0.0558611321701058,1.5677762099521,-0.144963141214248,-0.144963141214248,104.838869653721,3.33755825100303,92.15181
42,74,0.42,-0.0046410513202559,-0.0046410513202559,-0.027848879358281,-0.0557772798034009,0.0046270136585591,-0.004655046650465,0.0276802987059917,-0.0558611321701058,1.5677762099521,-0.144963141214248,-0.144963141214248,104.838869653721,3.30067570949255,92.17107
43,75,0.43,-0.0046410513202559,-0.0046410513202559,-0.027848879358281,-0.0557772798034009,0.0046270136585591,-0.004655046650465,0.0276802987059917,-0.0558611321701058,1.5677762099521,-0.144963141214248,-0.144963141214248,104.838869653721,2.60054420951196,92.18759
44,76,0.44,-0.0046410513202559,-0.0046410513202559,-0.027848879358281,-0.0557772798034009,0.0046270136585591,-0.004655046650465,0.0276802987059917,-0.0558611321701058,1.5677762099521,-0.144963141214248,-0.144963141214248,104.838869653721,1.7240649745708,92.202255
45,77,0.45,0.376472312467127,-0.0045238037034756,0.969267694126867,-0.0564818497766742,-0.376484257941535,-0.003386794429149,-0.969433855260168,-0.0535542949502278,1.5677762099521,-0.144963141214248,-0.144963141214248,104.838869653721,3.39157554148323,98.51834
46,78,0.46,0.416316959380084,-0.0235374581682963,1.0823524443356,0.0581281948513165,-0.41638614651181,-0.0222800268749539,-1.08217195454036,0.0613967556325743,1.5677762099521,-0.144963141214248,-0.144963141214248,104.838869653721,-0.0329805167932177,103.18803
47,79,0.47,0.435154742417653,0.0147829697883122,1.0275696867297,-0.172501034273995,-0.435108111644778,0.0160971185387957,-1.02808597293441,-0.169396871774169,1.5677762099521,-0.144963141214248,-0.144963141214248,104.838869653721,0.453408764536703,108.86649
48,80,0.48,0.32843987396309,-0.0918146510625179,1.6098857656108,0.409708598069629,-0.328715666649374,-0.0908223070499729,-1.60864105769059,0.414568765297835,1.5677762099521,-0.144963141214248,-0.144963141214248,104.838869653721,-5.07606778097857,111.2218
49,81,0.49,0.434744375787703,-0.0241823200371289,1.08798322024395,0.061651044589528,-0.434815426435516,-0.0228692329368029,-1.08779206536763,0.0649365948799627,1.5677762099521,-0.144963141214248,-0.144963141214248,104.838869653721,0.0712218748471743,115.56369
50,82,0.4999999999999999,0.473006179917442,-0.0052859131930023,0.974898470115695,-0.0522544300438084,-0.473019986800584,-0.00385735732725,-0.975051838287436,-0.0493098889211683,1.5677762099521,-0.144963141214248,-0.144963141214248,104.838869653721,-6.40172510483808,122.193565
51,83,0.51,0.503138816295865,-0.0046410513202559,0.85371947938544,-0.0557772798034009,-0.503150538202388,-0.0031214944511265,-0.853884039601674,-0.0531986967691798,1.5677762099521,-0.144963141214248,-0.144963141214248,104.838869653721,-0.348379088212419,126.81767
52,84,0.52,0.512968074449676,0.0150174650101955,0.853015632453232,-0.17391017415037,-0.512920380603363,0.0165666176886652,-0.853536970480938,-0.171333178061991,1.5677762099521,-0.144963141214248,-0.144963141214248,104.838869653721,-11.3052726645659,133.20686
53,85,0.53,0.346984537974061,-0.0925767605461782,1.67381853415065,0.296507693375386,-0.347262547742678,-0.0915284060910126,-1.67291541410105,0.301561460999461,1.5677762099521,-0.144963141214248,-0.144963141214248,104.838869653721,-7.53592408069807,135.63483
54,86,0.54,0.474061408436126,-0.004758298934192,1.08692744980302,-0.172501034240145,-0.47407361705256,-0.003326558566073,-1.08744346530362,-0.169217604632829,1.5677762099521,-0.144963141214248,-0.144963141214248,104.838869653721,-14.8397749942296,136.97939
55,87,0.55,0.425735850889811,-0.0532011040881255,1.3190796497183,0.060241904727786,-0.425894582606688,-0.0519150914026147,-1.31889169667586,0.0642253986026453,1.5677762099521,-0.144963141214248,-0.144963141214248,104.838869653721,-15.775891046678,138.55035
56,88,0.56,0.464408021691803,-0.0240650724228371,1.14487751888645,-0.0564818497617206,-0.464478582956137,-0.0226623983168004,-1.14504287914242,-0.0530239335520044,1.5677762099521,-0.144963141214248,-0.144963141214248,104.838869653721,-20.174963366971,142.95082
57,89,0.5700000000000001,0.707560028354832,0.121849581094047,-0.0225700270104294,-0.874957270821859,-0.707188802079642,0.123985936103439,0.0199274549054097,-0.875021444551093,1.5677762099521,-0.144963141214248,-0.144963141214248,104.838869653721,-21.3222596302624,158.47731
58,90,0.5800000000000001,0.425735850909505,-0.0529666088465213,1.31907964962963,-0.0578909896847744,-0.42589387442443,-0.0516805972303781,-1.31924847118893,-0.0539069570592815,1.5677762099521,-0.144963141214248,-0.144963141214248,104.838869653721,-20.1122958919219,156.01808
59,91,0.5900000000000001,0.474061408437877,-0.0047582989306916,1.08692744979251,-0.173205604196326,-0.4740736170543,-0.0033265585625674,-1.08744559317347,-0.169922171375817,1.5677762099521,-0.144963141214248,-0.144963141214248,104.838869653721,-25.5752784593618,154.68787
60,92,0.6000000000000001,0.493426805729959,-0.0243581914596341,1.02897738072813,-0.0557772798034009,-0.493498119905089,-0.0228678760316114,-1.02914114167205,-0.0526693982341329,1.5677762099521,-0.144963141214248,-0.144963141214248,104.838869653721,-28.9061135710836,154.61743
61,93,0.6100000000000001,0.464349397884657,-0.0241823200371289,1.14522944238895,-0.0557772798034009,-0.464420313517305,-0.0227798224468569,-1.1453926731596,-0.0523183039584292,1.5677762099521,-0.144963141214248,-0.144963141214248,104.838869653721,-30.8941747026493,156.75233
62,94,0.6199999999999999,0.45487188256462,-0.0046410513202559,1.2024756644535,-0.173205604196326,-0.454883824594879,-0.0032672660090387,-1.20299328087111,-0.169573202797061,1.5677762099521,-0.144963141214248,-0.144963141214248,104.838869653721,-30.630043563272,157.61603
63,95,0.6299999999999999,0.493544053348818,0.014782969785468,1.02862545720035,-0.289929358649832,-0.493497156288614,0.0162734608092613,-1.02949638531131,-0.286821472066997,1.5677762099521,-0.144963141214248,-0.144963141214248,104.838869653721,-32.0880239492422,159.74095
64,96,0.6399999999999999,0.502493954392698,-0.0051686655909639,1.0321446922954,-0.0536635699028236,-0.502507272694469,-0.0036510538709579,-1.03230205515347,-0.0505461323367649,1.5677762099521,-0.144963141214248,-0.144963141214248,104.838869653721,-32.5067586202057,161.5533
65,97,0.6499999999999999,0.512968074453835,-0.0243581914543803,0.970675388103355,0.0623556145310764,-0.513039299510028,-0.0228088592012715,-0.970482640334885,0.0652868787872205,1.5677762099521,-0.144963141214248,-0.144963141214248,104.838869653721,-31.7162637315094,164.81451
66,98,0.6599999999999999,0.455458120646737,-0.0529666088401267,1.31696810855705,0.176261089106468,-0.455616008611763,-0.0515908326330027,-1.31642977418422,0.180237676778774,1.5677762099521,-0.144963141214248,-0.144963141214248,104.838869653721,-30.099526425187,175.40483
67,99,0.6699999999999999,0.503197440094688,-0.0047582989321126,1.14628521287452,-0.0550727098597143,-0.503209515834804,-0.0032385644778166,-1.14644631094995,-0.0516105486825903,1.5677762099521,-0.144963141214248,-0.144963141214248,104.838869653721,-20.4483296887563,169.09715
68,100,0.6799999999999999,0.552226483302367,-0.0047582989366804,0.910965701548405,-0.0550727098322656,-0.552238335443123,-0.0030904912683052,-0.911127872810013,-0.0523212399943545,1.5677762099521,-0.144963141214248,-0.144963141214248,104.838869653721,-24.1594035109471,167.2721
69,101,0.69,0.581303891155355,-0.0046410513202559,0.853367555937174,-0.0557772798034009,-0.581315256586192,-0.0028854271508907,-0.853532117758373,-0.0531997596174975,1.5677762099521,-0.144963141214248,-0.144963141214248,104.838869653721,-17.6623209444826,166.8926
70,102,0.7,0.406487701243115,-0.0923422653126177,1.78655136074027,0.412526877821764,-0.406764731442689,-0.0911142056944772,-1.78529733560667,0.417920582125365,1.5677762099521,-0.144963141214248,-0.144963141214248,104.838869653721,-20.263325342126,165.55406
71,103,0.71,0.542631720364659,-0.0239478248120989,1.08587167930726,0.0609464746418857,-0.542701570785005,-0.0223089068900429,-1.08568266194105,0.0642256510548937,1.5677762099521,-0.144963141214248,-0.144963141214248,104.838869653721,-14.1904288099267,165.15265
72,104,0.72,0.532567966981254,-0.0049341703410136,1.20458720544536,0.0630601844341913,-0.532580439927027,-0.0033257327965592,-1.20439126303029,0.0666978854224744,1.5677762099521,-0.144963141214248,-0.144963141214248,104.838869653721,-18.420386589168,165.62299
73,105,0.73,0.678482620480149,0.0826497960348751,0.503907523908546,-0.404539403233282,-0.678229914565034,0.0846985127810538,-0.505126980221375,-0.403015701024682,1.5677762099521,-0.144963141214248,-0.144963141214248,104.838869653721,-21.3452846060029,171.4069
