t,iq,id,vq,vd,ia,ib,va,vb,theta_e,omega,omega_obs,r
0,0,0,0,0,0,0,0,0,0,-0.144963141214248,0,0
0.01,-0.0342460734259622,-0.0437235887540002,0.149520562888195,0.179079368982457,0.0341138670989695,-0.0438268163363388,-0.148979041195995,0.179530121166002,1.5677762099521,-0.144963141214248,-0.144963141214248,-0.144963141214248
0.02,0.188895673979979,0.101546202837956,-0.957161525496915,-0.519149447615667,-0.188588131580624,0.102116225870756,0.955589270707297,-0.522037815258942,1.5677762099521,-0.144963141214248,-0.144963141214248,-0.144963141214248
0.03,0.0342069908884576,0.0147829697841008,-0.202754857128871,-0.0550727098557618,-0.0341621886576246,0.0148862113179117,0.20258760668956,-0.055684801122048,1.5677762099521,-0.144963141214248,-0.144963141214248,-0.144963141214248
0.04,0.0245536041467485,-0.00452380371195355,-0.0861508719611215,0.0609464746672004,-0.0245671545638383,-0.00444962844021698,0.086334544260652,0.0606860114138898,1.5677762099521,-0.144963141214248,-0.144963141214248,-0.144963141214248
0.05,0.0340897432748765,-0.0240650724242589,-0.202051010129207,0.178374799032681,-0.0341622670269839,-0.0239620078229865,0.20258880058154,0.177763768814444,1.5677762099521,-0.144963141214248,-0.144963141214248,-0.144963141214248
0.06,-0.0240064486241423,-0.00452380371159816,0.0884031823596784,-0.0557772798034009,0.0239926767465337,-0.00459628525017667,-0.0885712328386967,-0.0555100378942296,1.5677762099521,-0.144963141214248,-0.144963141214248,-0.144963141214248
0.07,-0.0337184591691135,-0.0436063411407746,0.0884031823185475,0.178374799030545,0.0335866093492848,-0.0437079758035455,-0.0878640672355257,0.178640973077468,1.5677762099521,-0.144963141214248,-0.144963141214248,-0.144963141214248
0.08,-0.0240650724281156,-0.00464105132025594,0.0887551058431324,-0.0557772798034009,0.0240509461822109,-0.00471370937458956,-0.0889231547171862,-0.0555089750458055,1.5677762099521,-0.144963141214248,-0.144963141214248,-0.144963141214248
0.09,-0.0143530618719012,-0.0240650724235481,0.0304531132287162,0.061651044589528,0.0142803171939897,-0.0241083105316047,-0.0302667812706957,0.0617427352472567,1.5677762099521,-0.144963141214248,-0.144963141214248,-0.144963141214248
0.1,0.03408974328538,0.0147829697872464,-0.202051010181751,-0.0557772798034009,-0.034044941589251,0.0148858572201348,0.201881635072038,-0.0563872421596727,1.5677762099521,-0.144963141214248,-0.144963141214248,-0.144963141214248
0.11,-0.0422579935797961,-0.0233029629326065,0.199376391461096,0.0574236248524283,0.0421874232962756,-0.0234304805424341,-0.19920205640226,0.0580255020516954,1.5677762099521,-0.144963141214248,-0.144963141214248,-0.144963141214248
0.12,-0.0433132221199658,-0.0240650724274048,0.146353251459861,0.060946474658657,0.0432403453678011,-0.0241957734702369,-0.146168518813814,0.0613881999570538,1.5677762099521,-0.144963141214248,-0.144963141214248,-0.144963141214248
0.13,-0.0047582989345478,-0.00464105132025594,-0.0271450323532827,-0.0557772798034009,0.00474426073813749,-0.00465540075142143,0.0269764549109225,-0.0558590064731427,1.5677762099521,-0.144963141214248,-0.144963141214248,-0.144963141214248
0.14,-0.0529666088670762,-0.0433718459237605,0.262605313159672,0.17696565918343,0.0528353794669878,-0.0435316132286831,-0.262069659379742,0.177757949646425,1.5677762099521,-0.144963141214248,-0.144963141214248,-0.144963141214248
0.15,-0.0915801558216778,-0.0723906299487479,0.436455520290696,0.292984843573113,0.0913611103374383,-0.0726668821583104,-0.435568682698103,0.294301652065397,1.5677762099521,-0.144963141214248,-0.144963141214248,-0.144963141214248
0.16,-0.0044651799046032,-0.00464105132025594,0.0297492662563118,-0.0557772798034009,0.00445114304497671,-0.0046545154990479,-0.0299175842294123,-0.0556871793048617,1.5677762099521,-0.144963141214248,-0.144963141214248,-0.144963141214248
0.17,0.0339724956534749,0.0146657221666095,-0.20134716308793,-0.0550727098408082,-0.033928048593035,0.0147682560332018,0.201179919068522,-0.0556805497130748,1.5677762099521,-0.144963141214248,-0.144963141214248,-0.144963141214248
0.18,0.121321966842293,0.0825325484355269,-0.609109187852053,-0.40453940329579,-0.121072155986778,0.0828985780002192,0.607884655571332,-0.406377136494691,1.5677762099521,-0.144963141214248,-0.144963141214248,-0.144963141214248
0.19,0.0340311194597329,0.0145484745505408,-0.201699086586165,-0.171091894302144,-0.0339870262328981,0.0146511860023222,0.201181450001373,-0.171700267911656,1.5677762099521,-0.144963141214248,-0.144963141214248,-0.144963141214248
0.2,-0.0337770829788452,-0.0434890935317077,0.147057098424633,0.177670229103623,0.0336455869926004,-0.0435909057796781,-0.146519843727797,0.178113547774413,1.5677762099521,-0.144963141214248,-0.144963141214248,-0.144963141214248
0.21,0.0350277241920537,0.0154278316673257,-0.206626015674492,-0.175319314096913,-0.0349809706629517,0.0155335489669177,0.20609558933788,-0.175942548305972,1.5677762099521,-0.144963141214248,-0.144963141214248,-0.144963141214248
0.22,-0.062913114636367,-0.0240650724256275,0.321963076201146,0.0609464746479763,0.0628401484979294,-0.0242549673439797,-0.321777542677849,0.0619185613295878,1.5677762099521,-0.144963141214248,-0.144963141214248,-0.144963141214248
0.23,-0.0429614792495502,-0.0236547057648174,0.202895626404993,0.0595373346825267,0.0428898434549115,-0.0237843463761945,-0.202714891655558,0.0601498307266862,1.5677762099521,-0.144963141214248,-0.144963141214248,-0.144963141214248
0.24,0.0058330687093201,-0.0235374581719169,-0.0313681143101811,0.0588327648147819,-0.00590412787312022,-0.0235197343059022,0.0315456528081627,0.0587377612787114,1.5677762099521,-0.144963141214248,-0.144963141214248,-0.144963141214248
0.25,-0.00464105132025594,-0.00464105132025594,-0.027848879358281,-0.0557772798034009,0.00462701365855917,-0.00465504665046503,0.0276802987059917,-0.0558611321701058,1.5677762099521,-0.144963141214248,-0.144963141214248,104.838869653721
0.26,-0.00464105132025594,-0.00464105132025594,-0.027848879358281,-0.0557772798034009,0.00462701365855917,-0.00465504665046503,0.0276802987059917,-0.0558611321701058,1.5677762099521,-0.144963141214248,-0.144963141214248,104.838869653721
0.27,-0.00464105132025594,-0.00464105132025594,-0.027848879358281,-0.0557772798034009,0.00462701365855917,-0.00465504665046503,0.0276802987059917,-0.0558611321701058,1.5677762099521,-0.144963141214248,-0.144963141214248,104.838869653721
0.28,-0.00464105132025594,-0.00464105132025594,-0.027848879358281,-0.0557772798034009,0.00462701365855917,-0.00465504665046503,0.0276802987059917,-0.0558611321701058,1.5677762099521,-0.144963141214248,-0.144963141214248,104.838869653721
0.29,-0.00464105132025594,-0.00464105132025594,-0.027848879358281,-0.0557772798034009,0.00462701365855917,-0.00465504665046503,0.0276802987059917,-0.0558611321701058,1.5677762099521,-0.144963141214248,-0.144963141214248,104.838869653721
0.3,-0.00464105132025594,-0.00464105132025594,-0.027848879358281,-0.0557772798034009,0.00462701365855917,-0.00465504665046503,0.0276802987059917,-0.0558611321701058,1.5677762099521,-0.144963141214248,-0.144963141214248,104.838869653721
0.31,-0.00464105132025594,-0.00464105132025594,-0.027848879358281,-0.0557772798034009,0.00462701365855917,-0.00465504665046503,0.0276802987059917,-0.0558611321701058,1.5677762099521,-0.144963141214248,-0.144963141214248,104.838869653721
0.32,-0.00464105132025594,-0.00464105132025594,-0.027848879358281,-0.0557772798034009,0.00462701365855917,-0.00465504665046503,0.0276802987059917,-0.0558611321701058,1.5677762099521,-0.144963141214248,-0.144963141214248,104.838869653721
0.33,-0.00464105132025594,-0.00464105132025594,-0.027848879358281,-0.0557772798034009,0.00462701365855917,-0.00465504665046503,0.0276802987059917,-0.0558611321701058,1.5677762099521,-0.144963141214248,-0.144963141214248,104.838869653721
0.34,-0.00464105132025594,-0.00464105132025594,-0.027848879358281,-0.0557772798034009,0.00462701365855917,-0.00465504665046503,0.0276802987059917,-0.0558611321701058,1.5677762099521,-0.144963141214248,-0.144963141214248,104.838869653721
0.35,-0.00464105132025594,-0.00464105132025594,-0.027848879358281,-0.0557772798034009,0.00462701365855917,-0.00465504665046503,0.0276802987059917,-0.0558611321701058,1.5677762099521,-0.144963141214248,-0.144963141214248,104.838869653721
0.36,-0.00464105132025594,-0.00464105132025594,-0.027848879358281,-0.0557772798034009,0.00462701365855917,-0.00465504665046503,0.0276802987059917,-0.0558611321701058,1.5677762099521,-0.144963141214248,-0.144963141214248,104.838869653721
0.37,-0.00464105132025594,-0.00464105132025594,-0.027848879358281,-0.0557772798034009,0.00462701365855917,-0.00465504665046503,0.0276802987059917,-0.0558611321701058,1.5677762099521,-0.144963141214248,-0.144963141214248,104.838869653721
0.38,-0.00464105132025594,-0.00464105132025594,-0.027848879358281,-0.0557772798034009,0.00462701365855917,-0.00465504665046503,0.0276802987059917,-0.0558611321701058,1.5677762099521,-0.144963141214248,-0.144963141214248,104.838869653721
0.39,-0.00464105132025594,-0.00464105132025594,-0.027848879358281,-0.0557772798034009,0.00462701365855917,-0.00465504665046503,0.0276802987059917,-0.0558611321701058,1.5677762099521,-0.144963141214248,-0.144963141214248,104.838869653721
0.4,-0.00464105132025594,-0.00464105132025594,-0.027848879358281,-0.0557772798034009,0.00462701365855917,-0.00465504665046503,0.0276802987059917,-0.0558611321701058,1.5677762099521,-0.144963141214248,-0.144963141214248,104.838869653721
0.41,-0.00464105132025594,-0.00464105132025594,-0.027848879358281,-0.0557772798034009,0.00462701365855917,-0.00465504665046503,0.0276802987059917,-0.0558611321701058,1.5677762099521,-0.144963141214248,-0.144963141214248,104.838869653721
0.42,-0.00464105132025594,-0.00464105132025594,-0.027848879358281,-0.0557772798034009,0.00462701365855917,-0.00465504665046503,0.0276802987059917,-0.0558611321701058,1.5677762099521,-0.144963141214248,-0.144963141214248,104.838869653721
0.43,-0.00464105132025594,-0.00464105132025594,-0.027848879358281,-0.0557772798034009,0.00462701365855917,-0.00465504665046503,0.0276802987059917,-0.0558611321701058,1.5677762099521,-0.144963141214248,-0.144963141214248,104.838869653721
0.44,-0.00464105132025594,-0.00464105132025594,-0.027848879358281,-0.0557772798034009,0.00462701365855917,-0.00465504665046503,0.0276802987059917,-0.0558611321701058,1.5677762099521,-0.144963141214248,-0.144963141214248,104.838869653721
0.45,-0.00464105132025594,-0.00464105132025594,-0.027848879358281,-0.0557772798034009,0.00462701365855917,-0.00465504665046503,0.0276802987059917,-0.0558611321701058,1.5677762099521,-0.144963141214248,-0.144963141214248,104.838869653721
0.46,-0.00464105132025594,-0.00464105132025594,-0.027848879358281,-0.0557772798034009,0.00462701365855917,-0.00465504665046503,0.0276802987059917,-0.0558611321701058,1.5677762099521,-0.144963141214248,-0.144963141214248,104.838869653721
0.47,-0.00464105132025594,-0.00464105132025594,-0.027848879358281,-0.0557772798034009,0.00462701365855917,-0.00465504665046503,0.0276802987059917,-0.0558611321701058,1.5677762099521,-0.144963141214248,-0.144963141214248,104.838869653721
0.48,-0.00464105132025594,-0.00464105132025594,-0.027848879358281,-0.0557772798034009,0.00462701365855917,-0.00465504665046503,0.0276802987059917,-0.0558611321701058,1.5677762099521,-0.144963141214248,-0.144963141214248,104.838869653721
0.49,-0.00464105132025594,-0.00464105132025594,-0.027848879358281,-0.0557772798034009,0.00462701365855917,-0.00465504665046503,0.0276802987059917,-0.0558611321701058,1.5677762099521,-0.144963141214248,-0.144963141214248,104.838869653721
0.5,-0.00464105132025594,-0.00464105132025594,-0.027848879358281,-0.0557772798034009,0.00462701365855917,-0.00465504665046503,0.0276802987059917,-0.0558611321701058,1.5677762099521,-0.144963141214248,-0.144963141214248,104.838869653721
0.51,-0.00464105132025594,-0.00464105132025594,-0.027848879358281,-0.0557772798034009,0.00462701365855917,-0.00465504665046503,0.0276802987059917,-0.0558611321701058,1.5677762099521,-0.144963141214248,-0.144963141214248,104.838869653721
0.52,-0.00464105132025594,-0.00464105132025594,-0.027848879358281,-0.0557772798034009,0.00462701365855917,-0.00465504665046503,0.0276802987059917,-0.0558611321701058,1.5677762099521,-0.144963141214248,-0.144963141214248,104.838869653721
0.53,-0.00464105132025594,-0.00464105132025594,-0.027848879358281,-0.0557772798034009,0.00462701365855917,-0.00465504665046503,0.0276802987059917,-0.0558611321701058,1.5677762099521,-0.144963141214248,-0.144963141214248,104.838869653721
0.54,-0.00464105132025594,-0.00464105132025594,-0.027848879358281,-0.0557772798034009,0.00462701365855917,-0.00465504665046503,0.0276802987059917,-0.0558611321701058,1.5677762099521,-0.144963141214248,-0.144963141214248,104.838869653721
0.55,-0.00464105132025594,-0.00464105132025594,-0.027848879358281,-0.0557772798034009,0.00462701365855917,-0.00465504665046503,0.0276802987059917,-0.0558611321701058,1.5677762099521,-0.144963141214248,-0.144963141214248,104.838869653721
0.56,-0.00464105132025594,-0.00464105132025594,-0.027848879358281,-0.0557772798034009,0.00462701365855917,-0.00465504665046503,0.0276802987059917,-0.0558611321701058,1.5677762099521,-0.144963141214248,-0.144963141214248,104.838869653721
0.57,-0.00464105132025594,-0.00464105132025594,-0.027848879358281,-0.0557772798034009,0.00462701365855917,-0.00465504665046503,0.0276802987059917,-0.0558611321701058,1.5677762099521,-0.144963141214248,-0.144963141214248,104.838869653721
0.58,-0.00464105132025594,-0.00464105132025594,-0.027848879358281,-0.0557772798034009,0.00462701365855917,-0.00465504665046503,0.0276802987059917,-0.0558611321701058,1.5677762099521,-0.144963141214248,-0.144963141214248,104.838869653721
0.59,-0.00464105132025594,-0.00464105132025594,-0.027848879358281,-0.0557772798034009,0.00462701365855917,-0.00465504665046503,0.0276802987059917,-0.0558611321701058,1.5677762099521,-0.144963141214248,-0.144963141214248,104.838869653721
0.6,-0.00464105132025594,-0.00464105132025594,-0.027848879358281,-0.0557772798034009,0.00462701365855917,-0.00465504665046503,0.0276802987059917,-0.0558611321701058,1.5677762099521,-0.144963141214248,-0.144963141214248,104.838869653721
0.61,-0.00464105132025594,-0.00464105132025594,-0.027848879358281,-0.0557772798034009,0.00462701365855917,-0.00465504665046503,0.0276802987059917,-0.0558611321701058,1.5677762099521,-0.144963141214248,-0.144963141214248,104.838869653721
0.62,-0.00464105132025594,-0.00464105132025594,-0.027848879358281,-0.0557772798034009,0.00462701365855917,-0.00465504665046503,0.0276802987059917,-0.0558611321701058,1.5677762099521,-0.144963141214248,-0.144963141214248,104.838869653721
0.63,-0.00464105132025594,-0.00464105132025594,-0.027848879358281,-0.0557772798034009,0.00462701365855917,-0.00465504665046503,0.0276802987059917,-0.0558611321701058,1.5677762099521,-0.144963141214248,-0.144963141214248,104.838869653721
0.64,-0.00464105132025594,-0.00464105132025594,-0.027848879358281,-0.0557772798034009,0.00462701365855917,-0.00465504665046503,0.0276802987059917,-0.0558611321701058,1.5677762099521,-0.144963141214248,-0.144963141214248,104.838869653721
0.65,-0.00464105132025594,-0.00464105132025594,-0.027848879358281,-0.0557772798034009,0.00462701365855917,-0.00465504665046503,0.0276802987059917,-0.0558611321701058,1.5677762099521,-0.144963141214248,-0.144963141214248,104.838869653721
0.66,-0.00464105132025594,-0.00464105132025594,-0.027848879358281,-0.0557772798034009,0.00462701365855917,-0.00465504665046503,0.0276802987059917,-0.0558611321701058,1.5677762099521,-0.144963141214248,-0.144963141214248,104.838869653721
0.67,-0.00464105132025594,-0.00464105132025594,-0.027848879358281,-0.0557772798034009,0.00462701365855917,-0.00465504665046503,0.0276802987059917,-0.0558611321701058,1.5677762099521,-0.144963141214248,-0.144963141214248,104.838869653721
0.68,-0.00464105132025594,-0.00464105132025594,-0.027848879358281,-0.0557772798034009,0.00462701365855917,-0.00465504665046503,0.0276802987059917,-0.0558611321701058,1.5677762099521,-0.144963141214248,-0.144963141214248,104.838869653721
0.69,-0.00464105132025594,-0.00464105132025594,-0.027848879358281,-0.0557772798034009,0.00462701365855917,-0.00465504665046503,0.0276802987059917,-0.0558611321701058,1.5677762099521,-0.144963141214248,-0.144963141214248,104.838869653721
0.7,-0.00464105132025594,-0.00464105132025594,-0.027848879358281,-0.0557772798034009,0.00462701365855917,-0.00465504665046503,0.0276802987059917,-0.0558611321701058,1.5677762099521,-0.144963141214248,-0.144963141214248,104.838869653721
0.71,-0.00464105132025594,-0.00464105132025594,-0.027848879358281,-0.0557772798034009,0.00462701365855917,-0.00465504665046503,0.0276802987059917,-0.0558611321701058,1.5677762099521,-0.144963141214248,-0.144963141214248,104.838869653721
0.72,-0.00464105132025594,-0.00464105132025594,-0.027848879358281,-0.0557772798034009,0.00462701365855917,-0.00465504665046503,0.0276802987059917,-0.0558611321701058,1.5677762099521,-0.144963141214248,-0.144963141214248,104.838869653721
0.73,-0.00464105132025594,-0.00464105132025594,-0.027848879358281,-0.0557772798034009,0.00462701365855917,-0.00465504665046503,0.0276802987059917,-0.0558611321701058,1.5677762099521,-0.144963141214248,-0.144963141214248,104.838869653721
0.74,-0.00464105132025594,-0.00464105132025594,-0.027848879358281,-0.0557772798034009,0.00462701365855917,-0.00465504665046503,0.0276802987059917,-0.0558611321701058,1.5677762099521,-0.144963141214248,-0.144963141214248,104.838869653721
0.75,-0.00464105132025594,-0.00464105132025594,-0.027848879358281,-0.0557772798034009,0.00462701365855917,-0.00465504665046503,0.0276802987059917,-0.0558611321701058,1.5677762099521,-0.144963141214248,-0.144963141214248,104.838869653721
0.76,-0.00464105132025594,-0.00464105132025594,-0.027848879358281,-0.0557772798034009,0.00462701365855917,-0.00465504665046503,0.0276802987059917,-0.0558611321701058,1.5677762099521,-0.144963141214248,-0.144963141214248,104.838869653721
0.77,0.376472312467127,-0.00452380370347565,0.969267694126867,-0.0564818497766742,-0.376484257941535,-0.00338679442914907,-0.969433855260168,-0.0535542949502278,1.5677762099521,-0.144963141214248,-0.144963141214248,104.838869653721
0.78,0.416316959380084,-0.0235374581682963,1.0823524443356,0.0581281948513165,-0.41638614651181,-0.0222800268749539,-1.08217195454036,0.0613967556325743,1.5677762099521,-0.144963141214248,-0.144963141214248,104.838869653721
0.79,0.435154742417653,0.0147829697883122,1.0275696867297,-0.172501034273995,-0.435108111644778,0.0160971185387957,-1.02808597293441,-0.169396871774169,1.5677762099521,-0.144963141214248,-0.144963141214248,104.838869653721
0.8,0.32843987396309,-0.0918146510625179,1.6098857656108,0.409708598069629,-0.328715666649374,-0.0908223070499729,-1.60864105769059,0.414568765297835,1.5677762099521,-0.144963141214248,-0.144963141214248,104.838869653721
0.81,0.434744375787703,-0.0241823200371289,1.08798322024395,0.061651044589528,-0.434815426435516,-0.0228692329368029,-1.08779206536763,0.0649365948799627,1.5677762099521,-0.144963141214248,-0.144963141214248,104.838869653721
0.82,0.473006179917442,-0.00528591319300237,0.974898470115695,-0.0522544300438084,-0.473019986800584,-0.00385735732725008,-0.975051838287436,-0.0493098889211683,1.5677762099521,-0.144963141214248,-0.144963141214248,104.838869653721
0.83,0.503138816295865,-0.00464105132025594,0.85371947938544,-0.0557772798034009,-0.503150538202388,-0.0031214944511265,-0.853884039601674,-0.0531986967691798,1.5677762099521,-0.144963141214248,-0.144963141214248,104.838869653721
0.84,0.512968074449676,0.0150174650101955,0.853015632453232,-0.17391017415037,-0.512920380603363,0.0165666176886652,-0.853536970480938,-0.171333178061991,1.5677762099521,-0.144963141214248,-0.144963141214248,104.838869653721
