t,iq,id,vq,vd,omega,r
0,0,0,0,0,-0.144963141214248,0
0.01,-0.00464105132025594,-0.00464105132025594,-0.027848879358281,-0.0557772798034009,-0.144963141214248,-0.144963141214248
0.02,-0.00464105132025594,-0.00464105132025594,-0.027848879358281,-0.0557772798034009,-0.144963141214248,-0.144963141214248
0.03,-0.00464105132025594,-0.00464105132025594,-0.027848879358281,-0.0557772798034009,-0.144963141214248,-0.144963141214248
0.04,-0.00464105132025594,-0.00464105132025594,-0.027848879358281,-0.0557772798034009,-0.144963141214248,-0.144963141214248
0.05,-0.00464105132025594,-0.00464105132025594,-0.027848879358281,-0.0557772798034009,-0.144963141214248,-0.144963141214248
0.06,-0.00464105132025594,-0.00464105132025594,-0.027848879358281,-0.0557772798034009,-0.144963141214248,-0.144963141214248
0.07,-0.00464105132025594,-0.00464105132025594,-0.027848879358281,-0.0557772798034009,-0.144963141214248,-0.144963141214248
0.08,-0.00464105132025594,-0.00464105132025594,-0.027848879358281,-0.0557772798034009,-0.144963141214248,480.060558410278
0.09,-0.00459227384476883,-0.00464105132025594,-0.0281416945276158,-0.0557772798034009,-0.144963141214248,499.748984876529
0.1,4.48999706048089,-0.00464105132025594,5.48591199698534,0.061651044589528,-0.144963141214248,499.748984876529
0.11,4.69513159602175,0.034148923310219,4.83925530362366,-1.46433114506615,-0.144963141214248,499.748984876529
0.12,3.53208482662922,-0.121108632247859,6.36718394618149,-0.763862777473397,281.846494714949,499.748984876529
0.13,1.20672263529003,-0.0825136654341303,5.13398834729472,-0.291219751627752,430.777048214741,499.748984876529
0.14,0.600699664329574,0.0249632614705065,5.01843582346059,-0.409233694591893,464.957830985185,499.748984876529
0.15,-0.31008983609261,-0.160094124943359,2.21504035739153,0.996978309360688,422.943951560823,499.748984876529
0.16,0.230974686001099,0.00478855742808013,4.95217728989108,-0.406305703809283,485.710449095811,499.748984876529
0.17,0.883512486538584,0.0242324668135865,5.71848045679684,-1.11029054271045,461.890707028335,499.748984876529
0.18,0.19116124333665,-0.0823678177635272,5.13164924645273,-0.0581185277117193,490.898603623468,499.748984876529
0.19,-0.0732789539776295,-0.0724998751029977,3.90284041239188,0.17615332026527,509.820108371392,499.748984876529
0.2,-0.346710621712116,0.0148028495500052,3.31571659118927,-0.289463713569664,524.774200833462,499.748984876529
0.21,-0.444514299135418,-0.0339529543955646,2.9637930436274,0.296507693375386,532.706715906497,499.748984876529
0.22,-0.395320424912599,0.0245735179249928,3.07993221887426,0.179079368982457,524.774200833462,499.748984876529
0.23,-0.258531569400247,0.0149488758097281,3.07993237198735,0.413936017768311,516.839376261752,499.748984876529
0.24,-0.0241336701303759,0.0828568087448872,3.6673478341455,-0.288295133861173,501.885283799682,499.748984876529
0.25,0.210750677168872,-0.0248632996426393,4.25184300692307,0.300015272065656,488.762304700315,499.748984876529
0.26,0.4345025329261,-0.189407711957944,4.19786060428738,0.99640168558786,480.827480128605,499.748984876529
0.27,0.308699989639337,0.0541286280067114,5.24983598371479,-0.291218320623749,472.900573835847,499.748984876529
0.28,0.464009086684348,0.0247680835265677,4.84217722669069,-0.526074867175961,475.944511161399,499.748984876529
0.29,0.386621789471747,0.0735726309310706,5.07037311471746,-0.76093141378157,482.954742682321,499.748984876529
0.3,0.219694747903908,0.101718152440446,4.43159920146673,-0.754506372291352,493.950459227972,499.748984876529
0.31,0.0149002173966153,-0.00464105132025594,4.37090313522715,-0.0557772798034009,501.885283799682,499.748984876529
0.32,-0.0838263454410775,0.0249623429702894,4.08025837418787,-0.292385571508487,511.946436128025,499.748984876529
0.33,-0.112798056342907,-0.0533970763867418,3.37699415235354,0.179079368982457,511.956407294545,499.748984876529
0.34,-0.121694404177762,0.0150459119794074,3.25677042153396,0.0610673680303347,509.824380969052,499.748984876529
0.35,-0.00473816402939844,0.0342958170497728,3.14004556488407,0.179079368982457,506.768252766889,499.748984876529
0.36,0.0927254573266214,0.111878343257803,3.84534963929388,-0.521989744823695,498.833428195178,499.748984876529
0.37,0.161411193426856,0.0341987893820116,4.25388699501911,-0.171455494461345,493.950459227972,499.748984876529
0.38,0.210798212964685,-0.0148969940780468,4.60347981477549,0.0639841153016011,488.762304700315,499.748984876529
0.39,0.1718126351345,-0.0238426637020964,4.66388184056743,0.177329872649328,485.720825403002,499.748984876529
0.4,0.259360131684147,0.0149002173966153,4.8392612259171,-0.408062252982184,485.710449095811,499.748984876529
0.41,0.229660151980999,0.0632683359357898,4.723118323718,-0.523158733253141,490.894331025459,499.748984876529
0.42,0.0154336824538341,-0.102056413964313,5.01347660023646,0.412770300067824,496.697129272025,499.748984876529
0.43,0.0151426589817357,-0.00459256300323186,4.07879848473942,0.178496612365855,498.843194133397,499.748984876529
0.44,0.0247193315657155,0.0344414861134865,4.19465102240556,-0.290633928589255,501.885283799682,499.748984876529
0.45,0.0440667065456771,-0.0533972804949391,3.72687468190904,0.17849681677974,503.716397162384,499.748984876529
0.46,-0.0242792456419068,0.0146579033846707,3.96090834074333,-0.0546123798652506,503.716397162384,499.748984876529
0.47,0.014657945916468,0.00479040296597345,3.96178091496892,0.180826412188756,501.885283799682,499.748984876529
0.48,0.0732817945766658,-0.0146539146492548,4.19639637516756,-0.0546127886930319,498.833428195178,499.748984876529
0.49,0.102981238485795,-0.0630226710321055,4.31166859212272,0.295343406732301,496.697129272025,499.748984876529
0.5,0.141870035270443,0.00493586789483202,4.43043018719496,-0.0546131975208001,493.950459227972,499.748984876529
0.51,0.13238993109523,-0.0335655921597449,4.25388699501911,0.294761876652411,493.95595256802,499.748984876529
0.52,0.191304165352756,0.0246708517550509,4.66184882917734,-0.408062252982184,490.898603623468,499.748984876529
0.53,0.209683662039707,0.0241868190430335,4.49024607211123,-0.288306990614159,493.944355516863,499.748984876529
0.54,0.171181972366745,0.0542247286545692,4.19523307893175,-0.291797193109519,496.697129272025,499.748984876529
0.55,0.00556505936452522,0.0146582861042011,4.37119482719383,0.0628141046425075,496.707505580816,499.748984876529
0.56,0.151592342901583,-0.0531555788164699,4.1371599940924,0.176753657597466,496.697129272025,499.748984876529
0.57,0.0249126980060865,0.00479099828672989,4.13541770460584,-0.171461627358509,501.885283799682,499.748984876529
0.58,0.102303958391349,-0.0434817850125514,3.72861457193024,0.295345246510684,501.885283799682,499.748984876529
0.59,0.102545813170954,0.0244290905453994,3.49515949783171,0.062813286986945,498.843194132687,499.748984876529
0.6,0.0152869672811821,0.00508123930260882,4.72108684396566,-0.173205604196326,496.697129272025,499.748984876529
0.61,0.0834879988402829,-0.0532525469441629,4.42897826221471,0.177917535412808,496.697129272025,499.748984876529
0.62,0.0638983693706787,-0.0531559360213699,4.54657635687367,0.177917739880092,496.697129272025,499.748984876529
0.63,0.025395625069086,-0.00454441487838459,4.54570628432215,0.061651044589528,493.960225165307,499.748984876529
0.64,0.0739105012993842,0.0244293031599539,4.89734002884576,-0.290053318451957,493.950459227972,499.748984876529
0.65,0.189950515233239,0.0435842047073428,4.31515051622862,-0.405159713463904,496.691635932325,499.748984876529
0.66,0.0929204141451328,-0.00512397838348055,4.31312072122736,0.0639726672706388,498.833428195178,499.748984876529
0.67,0.0251054095945089,-0.101623131838851,4.25388699501911,0.527882521222609,496.707505580255,499.748984876529
0.68,0.10298075371661,0.014755390302541,4.42897933440646,-0.172625402940196,496.697129272025,499.748984876529
0.69,0.102835926622536,-0.0242788544293459,4.37032557143219,-0.0551971807275131,498.829155597711,499.748984876529
0.7,0.0347310382519808,-0.00435149918176167,4.42868993985649,0.0599110540627913,498.833428195178,499.748984876529
0.71,-0.0336634532952335,-0.0921425088956816,4.25446629460271,0.529624658335469,498.843194132158,499.748984876529
0.72,0.151303164962938,0.08276399940947,4.13831675536899,-0.523171407661715,496.697129272025,499.748984876529
0.73,0.103028859322987,-0.0336153221697751,4.37032618412464,0.0599119740054093,496.697129272025,499.748984876529
0.74,0.0445014684845737,0.0535487328113803,4.66301692450318,-0.288315576743944,496.697129272025,499.748984876529
0.75,0.0831500094051534,-0.0334225765603569,3.9045685087839,0.293610264471275,496.707505579878,499.748984876529
0.76,0.161507940433629,-0.00468925898073355,4.4295593487579,-0.173205604196326,493.950459227972,499.748984876529
0.77,0.0541755514646031,0.0243816568036829,4.89676532409533,-0.288896084488441,496.691635932624,499.748984876529
0.78,0.112654751633173,-0.0243750826459365,4.48792407452611,0.0628094028561197,496.697129272025,499.748984876529
0.79,0.0735722056930714,0.0242853945883114,4.07937145354129,-0.0540400491044398,496.707505582043,499.748984876529
0.8,0.122329021695481,-0.00444835674455132,4.37119482719383,-0.173784578915738,496.697129272025,499.748984876529
0.81,0.102739596347402,-0.0339047892579979,4.37090568793905,-0.0557772798034009,498.829155596975,499.748984876529
0.82,0.0829575614872138,0.00508142640697242,4.19725669626465,-0.0551985095512735,498.833428195178,499.748984876529
0.83,0.199820048267529,0.0147557730087424,3.43735676423951,-0.0546199436596299,498.839531906842,499.748984876529
0.84,0.0832465182827341,-0.00464105132025594,4.43013772936953,-0.173205604196326,496.697129272025,499.748984876529
0.85,0.132051567455814,0.0341526993874015,4.31254091110647,-0.28889853761529,496.697129272025,499.748984876529
0.86,0.141340992680423,-0.0426648912315963,4.19812191879446,0.173874116163341,496.697129272025,499.748984876529
0.87,0.00537015357965603,-0.023845521279062,4.31340740987217,0.294772915803274,496.707505581666,499.748984876529
0.88,0.131907301665948,0.0245746405422929,4.60696561908009,-0.290055771578793,493.950459227972,499.748984876529
0.89,0.141726075656202,0.0728506641469554,4.48821392854872,-0.52202224871419,496.691635931678,499.748984876529
0.9,0.0542712863923183,-0.0630244145025709,4.48705926059125,0.29535178828903,498.833428195178,499.748984876529
0.91,0.0735721036389728,-0.00468913141199976,4.02129173169401,0.179079368982457,496.707505581477,499.748984876529
0.92,0.171182295546203,-0.0531096504293608,4.43013732093458,0.176768376465282,493.950459227972,499.748984876529
0.93,0.122377195339407,-0.0534942231124358,4.37119482719383,0.061651044589528,496.697129272025,499.748984876529
0.94,-0.0726030006353292,0.0536944273677059,5.07273401583157,-0.289478841158436,498.833428195178,499.748984876529
0.95,0.073524023547229,-0.0338568622540662,4.07907894470484,0.179079368982457,498.839531906509,499.748984876529
0.96,-0.0039204877877785,-0.0430991003591864,4.9539851332272,0.0587643480819663,496.697129272025,499.748984876529
0.97,0.112462473793554,0.0148041592716705,4.37090650480895,-0.172628367128456,498.829155597285,499.748984876529
0.98,0.0929692511518743,-0.0337128516149999,4.25446353766013,0.060496774921072,498.833428195178,499.748984876529
0.99,0.054222815101341,-0.033616870016188,4.07907812788827,0.294776595413427,496.7075055811,499.748984876529
1,0.238664736683892,-0.062928832636011,3.84792028990263,0.177348577721425,496.697129272025,499.748984876529
1.01,0.0347294563890121,0.00488960780857504,4.72081337827206,-0.172051947716122,498.829155597361,499.748984876529
1.02,0.141342625581542,-0.00560078211148551,4.08051785080438,-0.0505867457452629,498.833428195178,499.748984876529
1.03,0.0249587199542631,-0.0622573187736288,4.25446302712311,0.408746403812952,496.707505580915,499.748984876529
1.04,0.112414682855828,-0.0237985637868429,4.37205872223674,-0.0575068445811279,496.697129272025,499.748984876529
1.05,0.161124005598667,0.0244790076553457,4.43042457118106,-0.289481089871388,496.691635932075,499.748984876529
1.06,0.0926816721155654,-0.00468900383882279,4.31426808841984,-0.0552009626781095,498.833428195178,499.748984876529
1.07,0.0736678555971807,-0.0336652902956611,4.13715478654011,0.177926939092358,498.839531906179,499.748984876529
1.08,0.0931132277743913,0.00522545405876193,4.48821489858506,-0.173781716907733,496.697129272025,499.748984876529
1.09,0.112750341992832,0.0149002173966153,4.36975627859756,-0.173205604196326,498.829155597517,499.748984876529
1.1,0.0444517129819991,-0.0437715072560156,4.54571828204879,0.179079368982457,498.833428195178,499.748984876529
1.11,3.9136707863864,-0.00392240138541667,8.71100940242447,-0.881806193001062,503.716397162384,746.949288841348
1.12,3.55182195365661,0.0830072489432266,9.06408322734147,-3.1071866023686,532.709025405172,746.949288841348
1.13,2.63184975687384,-0.0241823200371289,8.94505025994808,-2.75662874084074,613.846268880222,746.949288841348
1.14,0.540886400397437,-0.0344317992057723,8.35506184992455,-2.04860579798504,744.755004658971,746.949288841348
1.15,-1.01211753775854,-0.13175504993813,4.95715918124161,0.0633772362978661,833.900927613362,746.949288841348
1.16,-1.50931874251936,-0.219403537314871,3.96004270988523,1.70622288109296,851.933121636283,746.949288841348
1.17,-1.14775741229085,-0.0340486723283314,4.2556108027241,0.884799700877627,817.762715174068,746.949288841348
1.18,-0.512091981920842,0.140961454766937,4.66388990713771,0.18368009369094,775.95351413577,746.949288841348
1.19,0.0252927972104511,0.0442121204719221,5.89763264137571,0.295932705020467,736.894034997823,746.949288841348
1.2,0.425649528100446,0.0154742188709124,6.77858972007524,-0.0592265968514584,714.008780188974,746.949288841348
1.21,0.68883486337952,-0.0625474832233918,6.71936115024849,0.0582023409433234,710.943496420199,746.949288841348
1.22,0.552046024893217,0.00532084881206979,6.8360945329413,-0.40978629810436,720.703330642614,746.949288841348
1.23,0.328373251873015,-0.0140292221462416,6.77170046210626,-0.409785991563634,734.741866423332,746.949288841348
1.24,0.12232939590421,-0.034335349877139,6.65295867632915,-0.288336019415224,757.909723059303,746.949288841348
1.25,-0.102251813046939,0.00508179210934232,5.77802813474285,-0.290059553529389,760.987824622066,746.949288841348
1.26,-0.102204047623851,-0.0431979820578684,5.60206653959386,0.176782277463962,757.935969017562,746.949288841348
1.27,-0.0727488483059373,0.0342981643518016,5.7210952694446,-0.0552031091574193,749.706335195513,746.949288841348
1.28,-0.111019424634207,0.0829602999751472,6.3625605770696,-0.406340047584965,747.874611460477,746.949288841348
1.29,0.112797588630115,-0.0333321145358479,6.13224575304009,0.293637862214899,741.773341737241,746.949288841348
1.3,0.190867132660311,0.0147569721788359,6.48244916875813,-0.172631740197871,741.76113431369,746.949288841348
1.31,0.278468645554328,-0.0533032634963951,6.13167206944372,0.0605035209531013,741.76113431369,746.949288841348
1.32,0.190389784667252,0.00465226906167245,6.71477265138051,-0.405193955059328,749.676427010199,746.949288841348
1.33,0.141870741164989,0.0627034855803853,6.4229359525944,-0.637756885609677,747.858741811035,746.949288841348
1.34,0.0927312915384753,0.0436872621887972,6.30849265833621,-0.405194977128749,747.864845522698,746.949288841348
1.35,0.209549610437081,0.015138746811693,5.54828250131191,-0.0574973386145355,747.864845522698,746.949288841348
1.36,0.0541735443547548,-0.0334759805845719,5.84040604212293,0.176213115198442,744.828859566508,746.949288841348
1.37,0.0641825890614517,-0.0241823200371289,6.18946622590204,0.179079368982457,744.822755856679,746.949288841348
1.38,0.0737147450207505,0.00512958303817967,6.42322320281419,-0.173205604196326,747.864845522698,746.949288841348
1.39,0.103074285954856,-0.03366692319678,6.30562934564449,-0.0569231680219542,747.864845522698,746.949288841348
1.4,0.17075373353054,-0.0633601841910807,6.53910070607663,0.0622238864651625,752.725841126117,746.949288841348
1.41,0.103121855744994,0.111462844491139,6.59746895469975,-0.872048154134233,747.858741811253,746.949288841348
1.42,0.141823171352627,0.0245279126995707,6.36600002404735,-0.172632966734602,744.812989918195,746.949288841348
1.43,0.13219546754331,0.0343938482680192,6.01321850376271,-0.173205604196326,747.864845522698,746.949288841348
1.44,0.0744766103298192,-0.0240394320197404,6.186892920585,0.0605061786001274,744.82275585748,746.949288841348
1.45,0.112701802655355,-0.0337624710467983,6.01493383651584,0.177934707354061,744.822755856329,746.949288841348
1.46,0.0735716358780611,0.0442597328027543,6.42379606954068,-0.290633928589255,747.864845522698,746.949288841348
1.47,0.316599786785227,-0.0632648574708714,5.25700473163952,0.179079368982457,747.864845522698,746.949288841348
1.48,0.209456188759314,-0.0925767605461782,6.30620262085929,0.296507693375386,752.725841126914,746.949288841348
1.49,0.122139261258422,-0.0143165120462977,6.48273580633884,-0.173777526129356,747.858741811476,746.949288841348
1.5,0.141680572484877,0.0150429523394573,6.30820214061011,-0.174349243701901,744.812989918195,746.949288841348
1.51,0.0637058193808722,0.0927798734165729,6.42436745569378,-0.406918817943893,747.864845522698,746.949288841348
1.52,0.0934457826765944,-0.0628843670583772,6.07244390810524,0.177364523125947,744.822755857124,746.949288841348
1.53,0.14191846405628,-0.00449839292131946,5.89819488884684,-0.0563487929086622,744.822755855974,746.949288841348
1.54,0.0540302991236438,-0.0045935070269699,6.54110431015034,0.0610796337179088,747.864845522698,746.949288841348
1.55,0.102835926622536,-0.0436285171712606,6.30677405807676,0.0610797358981507,747.864845522698,746.949288841348
1.56,0.161079514493069,-0.00502126960033849,6.53853662068829,-0.170920778365386,752.725841127715,746.949288841348
1.57,0.141538313827073,-0.00440345742700159,6.36599849238296,-0.291776137037441,747.858741810313,746.949288841348
1.58,0.102740906069067,-0.0149342987227721,6.54196013856965,-0.052922269584146,744.812989918195,746.949288841348
1.59,0.0539827548303577,0.0344414861134865,6.42408189025149,-0.173205604196326,747.864845522698,746.949288841348
1.6,0.0444495867920006,0.00503459651014829,6.36400244444921,-0.17263480661976,749.695958885401,746.949288841348
1.61,0.0834845969540622,-0.0434861649435031,6.1322375843411,0.177937978189807,744.822755857834,746.949288841348
1.62,0.14210836907924,0.00593667938575911,6.59690859626352,-0.177199756335104,747.852638099587,746.949288841348
1.63,0.121949985554994,-0.0438185242616475,6.2501148116119,-0.0546362978385197,747.864845522698,746.949288841348
1.64,0.122139899102086,0.0824403914513083,6.71393264982215,-0.638355791777651,752.725841128505,746.949288841348
1.65,0.0930652922641002,-0.0821892665533803,6.65727330122855,0.175657649891519,747.858741810535,746.949288841348
1.66,0.11265400322016,-0.00464105132025594,6.01549807509739,-0.173205604196326,744.822755856506,746.949288841348
1.67,0.0348209559761017,0.034678654777621,6.53939648241945,-0.0574875261071391,747.864845522698,746.949288841348
1.68,0.063611113509391,0.014757941717213,6.24868953700544,-0.172635624328722,749.695958885401,746.949288841348
1.69,0.0738559406190872,-0.0237555695161684,6.18975087237236,0.176799858233009,744.82275585748,746.949288841348
1.7,0.181285450799173,0.0159431981968331,6.42038214997408,-0.178333583279804,747.85263810003,746.949288841348
1.71,0.0834368570544909,-0.014459085394967,6.42322825714672,-0.172635930922848,747.864845522698,746.949288841348
1.72,0.141018031067876,0.0049400181985157,6.65841306129704,-0.289494786509584,752.725841129303,746.949288841348
1.73,0.10264639580831,-0.0243718508513551,6.54110528018669,-0.0552078109972073,747.858741810757,746.949288841348
1.74,0.014852843194975,-0.00530429014321965,6.4852953271552,-0.169789404440617,744.822755856152,746.949288841348
1.75,0.0738555834141947,0.0541248519162002,6.30506801725208,-0.174344132980945,747.864845522698,746.949288841348
1.76,0.0637533891887934,0.00498751147141556,6.2481201419894,-0.172636442037659,749.695958885401,746.949288841348
