t,iq,id,vq,vd,omega,r
0,0,0,0,0,-0.144963141214248,0
0.01,-0.00464105132025594,-0.00464105132025594,-0.027848879358281,-0.0557772798034009,-0.144963141214248,-0.144963141214248
0.02,-0.00464105132025594,-0.00464105132025594,-0.027848879358281,-0.0557772798034009,-0.144963141214248,-0.144963141214248
0.03,-0.00464105132025594,-0.00464105132025594,-0.027848879358281,-0.0557772798034009,-0.144963141214248,-0.144963141214248
0.04,-0.00464105132025594,-0.00464105132025594,-0.027848879358281,-0.0557772798034009,-0.144963141214248,-0.144963141214248
0.05,-0.00464105132025594,-0.00464105132025594,-0.027848879358281,-0.0557772798034009,-0.144963141214248,-0.144963141214248
0.06,-0.00464105132025594,-0.00464105132025594,-0.027848879358281,-0.0557772798034009,-0.144963141214248,-0.144963141214248
0.07,-0.00464105132025594,-0.00464105132025594,-0.027848879358281,-0.0557772798034009,-0.144963141214248,-0.144963141214248
0.08,-0.00464105132025594,-0.00464105132025594,-0.027848879358281,-0.0557772798034009,-0.144963141214248,-0.144963141214248
0.09,-0.00464105132025594,-0.00464105132025594,-0.027848879358281,-0.0557772798034009,-0.144963141214248,-0.144963141214248
0.1,-0.00464105132025594,-0.00464105132025594,-0.027848879358281,-0.0557772798034009,-0.144963141214248,-0.144963141214248
0.11,-0.00464105132025594,-0.00464105132025594,-0.027848879358281,-0.0557772798034009,-0.144963141214248,-0.144963141214248
0.12,-0.00464105132025594,-0.00464105132025594,-0.027848879358281,-0.0557772798034009,-0.144963141214248,-0.144963141214248
0.13,-0.00464105132025594,-0.00464105132025594,-0.027848879358281,-0.0557772798034009,-0.144963141214248,-0.144963141214248
0.14,-0.00464105132025594,-0.00464105132025594,-0.027848879358281,-0.0557772798034009,-0.144963141214248,-0.144963141214248
0.15,-0.00464105132025594,-0.00464105132025594,-0.027848879358281,-0.0557772798034009,-0.144963141214248,-0.144963141214248
0.16,-0.00464105132025594,-0.00464105132025594,-0.027848879358281,-0.0557772798034009,-0.144963141214248,-0.144963141214248
0.17,-0.00464105132025594,-0.00464105132025594,-0.027848879358281,-0.0557772798034009,-0.144963141214248,-0.144963141214248
0.18,-0.00464105132025594,-0.00464105132025594,-0.027848879358281,-0.0557772798034009,-0.144963141214248,-0.144963141214248
0.19,-0.00464105132025594,-0.00464105132025594,-0.027848879358281,-0.0557772798034009,-0.144963141214248,-0.144963141214248
0.2,-0.00464105132025594,-0.00464105132025594,-0.027848879358281,-0.0557772798034009,-0.144963141214248,-0.144963141214248
0.21,-0.00464105132025594,-0.00464105132025594,-0.027848879358281,-0.0557772798034009,-0.144963141214248,-0.144963141214248
0.22,-0.00464105132025594,-0.00464105132025594,-0.027848879358281,-0.0557772798034009,-0.144963141214248,-0.144963141214248
0.23,-0.00464105132025594,-0.00464105132025594,-0.027848879358281,-0.0557772798034009,-0.144963141214248,499.748984876529
0.24,4.44117285208978,0.0634612719858189,4.84112759726418,-0.641514578060354,-0.144963141214248,499.748984876529
0.25,4.64618090329515,0.150345552065899,4.54680590508772,-1.81088359565867,-0.144963141214248,499.748984876529
0.26,4.57737761604924,0.0644542693091152,5.89935222592116,-1.3545084518953,184.72409552545,499.748984876529
0.27,2.54537771964203,-0.0337193612166997,5.60327763476139,-0.878477410192109,349.902874695386,499.748984876529
0.28,1.25501171210942,-0.0243574897621756,4.72697403699608,-0.406658735288791,430.777048214741,499.748984876529
0.29,1.12816871899431,0.122202050760214,4.78527693051915,-0.760347226160967,435.965202742397,499.748984876529
0.3,1.12338220497161,0.179308180301831,5.24574728719899,-0.98748674388234,490.841690800931,499.748984876529
0.31,1.6370006151711,0.024729216513104,6.36437686893521,-1.46561862909651,399.953306609251,499.748984876529
0.32,0.608983152849815,-0.0627396500859502,5.1930502886011,-0.645724325126216,485.695199029331,499.748984876529
0.33,-0.00475774730855924,0.0147251734141604,4.30973876890993,-0.64221764666693,511.95126589652,499.748984876529
0.34,-0.347254989599425,-0.00446603248373272,3.43168151742543,-0.173906758558679,532.701090580369,499.748984876529
0.35,-0.639965609521806,-0.0726271732486576,2.61262784591146,0.646689505841662,545.832004504538,499.748984876529
0.36,-0.62943674466544,0.00489629166275642,2.7264343591807,0.414636970600704,540.949035537333,499.748984876529
0.37,-0.375808528017004,0.0147252740109,2.84409261005592,0.297208545469342,527.823004583048,499.748984876529
0.38,-0.121247296790862,0.0148419113211041,3.43133210526187,0.296507693375386,503.719449017966,499.748984876529
0.39,0.248929060450588,0.0731742373858659,3.72845151094492,-0.171804303068959,490.898603623468,499.748984876529
0.4,0.405667302422434,0.0147836387733957,4.54750649095439,-0.0550767299781536,477.775624524101,499.748984876529
0.41,0.51326085060647,-0.0147613712564871,5.07539168542295,-0.171804706023341,467.704501029238,499.748984876529
0.42,0.630333636891537,-0.0341277720253586,5.01673771899153,-0.0550769315084329,464.957830985185,499.748984876529
0.43,0.425266860450915,-0.0238909992305591,5.13369573632953,-0.409462748095247,475.944511161399,499.748984876529
0.44,0.17128862291095,0.00542086193499599,5.01603818995314,-0.409462546618375,490.898603623468,499.748984876529
0.45,0.102311700085811,0.0146089804317684,4.4305480709961,-0.406662160929666,501.8822319436,499.748984876529
0.46,-0.102347394904614,0.00495486600512363,3.6673478341455,-0.171805713620681,509.820108371392,499.748984876529
0.47,-0.24890691028115,-0.0533777618542999,3.19776694222422,0.296507693375386,519.891231866255,499.748984876529
0.48,-0.209707928353227,-0.0142370189374208,3.13981210226393,0.178379625171831,514.705213637313,499.748984876529
0.49,-0.0343022375599016,0.0246708517550509,3.25851773433716,-0.0557772798034009,506.768252766889,499.748984876529
0.5,0.0149002173966153,-0.00458284584148381,4.01962074291276,0.061651044589528,498.833428195178,499.748984876529
0.51,0.257711148936972,0.0342668948230222,3.32276093805827,-0.172506162654092,496.697129272025,499.748984876529
0.52,0.239508430219781,0.00501320561732458,4.43054736644391,-0.0550779390530029,488.762304700315,499.748984876529
0.53,0.317906243165077,0.0536918531879736,4.72381684624565,-0.406663772958261,480.829616427707,499.748984876529
0.54,0.356814247995339,0.0246708517550509,4.78247066169795,-0.290633928589255,480.827480128605,499.748984876529
0.55,0.210429231694427,0.00495509234453275,4.83868035274973,-0.406664175912641,490.896467324405,499.748984876529
0.56,0.14191846405628,-0.0144698408568731,4.42949963299664,-0.172506666453074,496.697129272025,499.748984876529
0.57,-0.0236008520748206,-0.00469919811648678,5.12950701672535,-0.173205604196326,498.831291896154,499.748984876529
0.58,0.00518772145245872,-0.0144116856786916,4.19523307893175,0.060952308323161,501.885283799682,499.748984876529
0.59,-0.00487357143179661,0.014086397006223,3.60974079597393,-0.169013791349143,506.768252766889,499.748984876529
0.6,-0.063846073930216,-0.0236011035777844,3.72879302213471,0.17628523003808,506.768252766889,499.748984876529
0.61,-0.00539652375204468,0.0250195313389534,3.96480371862467,-0.0578725817963745,501.885283799682,499.748984876529
0.62,0.0541570694763776,0.0244384322270244,4.31219210275396,0.062349377848432,496.697129272025,499.748984876529
0.63,0.0539246583347186,0.0242641762855768,4.48780514335165,-0.171110906794171,498.83129189627,499.748984876529
0.64,0.0544474597398654,-0.0529714300892397,4.6620234537942,0.17698497379561,496.697129272025,499.748984876529
0.65,0.210312904565329,0.0732336248885403,4.48850265936856,-0.407364221991671,490.898603623468,499.748984876529
0.66,0.220490038372089,0.063172675691187,4.66237276529649,-0.288540137833978,488.762304700315,499.748984876529
0.67,0.142034589983066,0.0244385999014783,4.66237306736078,-0.406666594061704,496.6943826021,499.748984876529
0.68,0.103126199529748,0.00536180136394948,4.48676012739801,-0.0571727372470077,496.697129272025,499.748984876529
0.69,0.0639855739866548,-0.0044669127218599,4.66341903940139,-0.173903232179376,496.697129272025,499.748984876529
0.7,0.0536925657648684,-0.0148759881834745,4.49024468803039,-0.0536846982288089,496.697129272025,499.748984876529
0.71,-0.00452499245796379,-0.101651041730861,4.13588245201473,0.410448885502904,503.716397162384,499.748984876529
0.72,0.0339192966707282,-0.130614919094404,3.8460960231859,0.643911386551653,503.716397162384,499.748984876529
0.73,0.093239330265755,-0.0143536730114733,4.07688048241823,0.0609538196136363,498.833428195178,499.748984876529
0.74,0.0730599893004227,0.014726204554063,4.37398046267822,-0.171811355827582,496.697129272025,499.748984876529
0.75,0.015480176385616,-0.00464105132025594,4.54402318839379,-0.0557772798034009,498.833428195178,499.748984876529
0.76,-0.0137738229925386,-0.101535569667692,4.77863930560248,0.410451404232397,498.833428195178,499.748984876529
0.77,0.122609111861629,-0.0242402991676844,4.60615854499955,0.061651044589528,490.901655478663,499.748984876529
0.78,0.181058972238627,-0.00435119757723206,4.54715657545592,-0.0571707221578546,490.898603623468,499.748984876529
0.79,0.0734080988139208,-0.0337211049289483,4.60511458590088,-0.0564739002421914,498.831291896581,499.748984876529
0.8,0.0731762996391669,0.00518753702285668,4.37258643720787,-0.0564737995034384,498.833428195178,499.748984876529
0.81,0.0646805187617451,0.0443859572668506,4.6595944773982,-0.292026766406291,496.697129272025,499.748984876529
0.82,0.161112109474999,0.0539827548303577,4.02101033987929,-0.290633928589255,496.697129272025,499.748984876529
0.83,0.0831208714025194,0.0730605928721752,3.96131291763077,-0.405277383256869,501.885283799682,499.748984876529
0.84,0.0343256452174603,-0.0431443842738691,4.43054414564154,0.176294902423274,498.833428195178,499.748984876529
0.85,0.112490736848847,-0.0140063012162548,4.31288856196911,0.0595629968854498,496.697129272025,499.748984876529
0.86,0.151457483678269,0.0150160247648387,4.37258522937426,-0.056473194966324,493.950459227972,499.748984876529
0.87,0.063811284490928,0.0143791596774034,4.37084727696642,-0.170422346499645,498.833428195178,499.748984876529
0.88,0.15099445542551,-0.00498837281485856,4.02239882961995,-0.0536901389054499,498.833428195178,499.748984876529
0.89,0.102835926622536,0.00547685424107803,4.42950129371536,-0.174596829984754,496.697129272025,499.748984876529
0.9,0.151631228262876,-0.00429383040921973,4.43019614252933,-0.0571683041143238,493.950459227972,499.748984876529
0.91,0.141455569932506,-0.0533206378160204,4.02170277299828,0.0609556332255867,498.833428195178,499.748984876529
0.92,0.112317294063366,-0.0142959789116494,4.19662227327796,0.060955733964023,498.833428195178,499.748984876529
0.93,0.121683055320562,0.0048982030318981,4.31601339379666,-0.171815184422189,496.697129272025,499.748984876529
0.94,0.151342078697155,0.0340944663959262,4.07966123651366,-0.171815385899694,496.697129272025,499.748984876529
0.95,0.0250178211544057,-0.0921141346803718,4.31080517307008,0.295117676661794,501.885283799682,499.748984876529
0.96,0.0830633785005685,0.0443277601744702,4.19662146809069,-0.290633928589255,498.833428195178,499.748984876529
0.97,0.131685337943467,0.0442699319412191,4.19766240773605,-0.17390041107592,496.697129272025,499.748984876529
0.98,0.104165397529913,0.00495617378939139,4.5995645522394,-0.0550825737153271,493.950459227972,499.748984876529
0.99,0.151631303713737,-0.0144116856786916,4.01927133066966,-0.0557772798034009,498.833428195178,499.748984876529
1,0.180307565661686,0.0340369818802904,3.90508556243125,-0.171122090362723,498.833428195178,499.748984876529
1.01,0.102662592811383,0.0244975179438978,4.43054243463165,-0.289939524716806,496.697129272025,499.748984876529
1.02,0.112837639183705,-0.0241245504864455,4.54646298479355,0.178385065901528,493.950459227972,499.748984876529
1.03,0.161113165760755,-0.111771462250653,3.96235113965054,0.295119288690401,498.833428195178,499.748984876529
1.04,0.0834679162660106,-0.0238935561032189,4.31184752171424,0.0602628413814163,498.833428195178,499.748984876529
1.05,0.102835926622536,0.0150157061973915,4.37188811589764,-0.173899605008545,496.697129272025,499.748984876529
1.06,0.199791701967207,0.0730043993812922,3.78881479473266,-0.405286652687052,496.697129272025,499.748984876529
1.07,0.0636956615523066,0.00530276594763981,4.13657916284438,-0.173899403531673,501.885283799682,499.748984876529
1.08,0.0540404740848675,-0.0723428607751899,4.42950224988205,0.293039200392411,498.833428195178,499.748984876529
1.09,0.151111989733294,-0.0237206330919919,4.13969715034023,0.0595702511743061,496.697129272025,499.748984876529
1.1,0.151515990956141,-0.0435504812954259,4.43054152875631,0.178385871915819,493.950459227972,499.748984876529
1.11,0.0346722625304494,0.00489880662121682,4.54611754819584,-0.171818811539923,498.833428195178,499.748984876529
1.12,0.0738124521364631,-0.0140078856537637,4.42846357497792,0.0595711579804333,498.833428195178,499.748984876529
1.13,0.0736393782190212,-0.0340683090673568,4.60511800802672,0.061651044589528,496.697129272025,499.748984876529
1.14,0.16134439486526,0.0344991550674319,4.43019493472194,-0.173205604196326,493.950459227972,499.748984876529
1.15,0.0736970052631344,-0.0340682755395015,4.42742575541981,0.061651044589528,501.882231945542,499.748984876529
1.16,0.0443274248431195,0.00512958303817967,4.13623307206539,-0.0557772798034009,501.885283799682,499.748984876529
1.17,0.112548917177324,0.0148425735929673,4.37154086765529,-0.173205604196326,496.697129272025,499.748984876529
1.18,0.00547539556836314,-0.0244128617239179,4.83869620517311,0.0630364266941697,496.697129272025,499.748984876529
1.19,0.0931805463347069,-0.0829790072936527,4.37015700779469,0.29720028363587,498.833428195178,499.748984876529
1.2,0.0444425950853328,-0.0724593052957804,4.42915696431683,0.293737735287193,498.833428195178,499.748984876529
1.21,0.112779391795177,0.0244404106694431,4.37050314886454,-0.172513215412714,496.697129272025,499.748984876529
1.22,0.0833522597950896,0.00524478681702977,4.78177223980536,-0.0564695678482615,493.950459227972,499.748984876529
1.23,0.169905716561268,-0.00492901883554278,3.90680383753559,-0.171129042436309,501.882231944377,499.748984876529
1.24,0.0442121204719221,-0.0142965154364782,4.19523307893175,0.0609589580746252,501.885283799682,499.748984876529
1.25,0.0543282152652934,-0.0141238019829118,4.60408230220411,0.0595750872601287,496.697129272025,499.748984876529
1.26,4.13914414700621,0.112491424275447,8.53458610682562,-0.761730996130227,493.950459227972,2317.73936847952
1.27,4.49990918777267,-0.00458349134944458,9.82531794890626,-2.28691544326903,516.839376261752,2317.73936847952
1.28,4.54853211129965,0.121974334217382,10.6475093354301,-4.04695694214743,569.94166378012,2317.73936847952
1.29,4.5092193926564,0.111743412877715,11.8223147897139,-5.21847405647818,728.915263707504,2317.73936847952
1.3,4.62612182119363,0.0726610012394879,12.5861969416926,-5.10173781881188,927.895333571461,2317.73936847952
1.31,4.55830272050779,0.092720133632708,14.0494363175178,-5.92650211821074,1105.81851530773,2317.73936847952
1.32,4.51939272886194,-0.208443939488656,15.6327467159672,-4.28803592145309,1291.69757942396,2317.73936847952
1.33,4.52968091676421,0.141285857635264,16.8617170716094,-6.39483325773592,1453.7410408998,2317.73936847952
1.34,4.53807141118138,-0.0723454763700662,18.0416994947091,-5.69441008757495,1633.80321420843,2317.73936847952
1.35,4.50881709321385,-0.0144691785850109,19.3900486916831,-6.63176344580736,1801.95357532721,2317.73936847952
1.36,4.56795834390332,-0.150280814307312,20.2674413397531,-6.63452695577997,1963.71220791187,2317.73936847952
1.37,3.21581738571922,0.0526033275189632,20.3267851727098,-6.5067365776965,2130.92772430708,2317.73936847952
1.38,1.02305705675224,-0.383109742278167,18.9749849820473,-2.06241893393108,2219.79330985927,2317.73936847952
1.39,0.289224951295768,-0.00412391695359574,19.1516367478933,-2.17224941977513,2266.7805466812,2317.73936847952
1.4,0.256925487665743,0.227268878637857,19.1450840212496,-2.27379642803489,2306.71189530231,2317.73936847952
1.41,0.172494104457572,-0.043608703542547,18.4529623453152,-1.34817922182006,2266.79937006744,2317.73936847952
1.42,0.0935247660543074,0.0353029994701249,18.741059486261,-1.58786768055964,2282.95207292807,2317.73936847952
1.43,0.00461275046198804,-0.0440681438047946,18.3891360400545,-0.875014861684806,2298.81154375306,2317.73936847952
1.44,0.239050633086323,0.198819746543955,18.7414042685974,-2.39675298197871,2285.99198692614,2317.73936847952
1.45,0.103639653651264,-0.0150431854869781,18.0399696950487,-1.81375229226075,2282.96557436982,2317.73936847952
1.46,0.0248430538296406,-0.0817729137402046,18.5088560904853,-0.531009536966125,2286.00683007753,2317.73936847952
1.47,0.169680774773654,0.168590320892145,19.0864371506843,-1.68597843710185,2306.71470244576,2317.73936847952
1.48,0.24042818256523,0.0242117803695685,18.6841282740213,-1.93187179641583,2272.89163822396,2317.73936847952
1.49,0.112147556651095,0.228305033668866,18.3891363420129,-2.28001976646735,2293.92589502543,2317.73936847952
1.5,0.0439252846756331,-0.00487051995728715,18.2148965427815,-0.877086083612477,2295.76600812709,2317.73936847952
1.51,0.29687200324189,0.0623767786394331,18.7948932437067,-2.16259345737715,2300.91857061703,2317.73936847952
1.52,0.0154737213060083,-0.0144116856786916,18.2159289773782,-1.69908455589293,2287.84837286974,2317.73936847952
1.53,0.0547282009472095,-0.0422326965202967,18.0437533932915,-0.416332229058455,2277.78877216046,2317.73936847952
1.54,0.336299145938782,0.189108960665116,18.9142684108475,-2.39676406438495,2290.85676120706,2317.73936847952
1.55,0.113237138628056,0.160943805607355,18.5640660079284,-1.93325254380474,2286.00310004327,2317.73936847952
1.56,0.160771930468832,-0.0236664683088892,18.1565854966447,-0.763102675778221,2293.92975336671,2317.73936847952
1.57,0.0162183123610955,0.00547343389847886,19.0912636003226,-1.35024389478786,2282.96182050713,2317.73936847952
1.58,0.257848174279487,0.169855164963218,18.7969623905827,-2.51557414418852,2298.78485063845,2317.73936847952
1.59,-0.072577158162123,-0.0632648574708714,17.981654773901,-0.525490577375109,2293.9522270496,2317.73936847952
1.6,-0.0228648035288411,-0.0136670024348767,19.4418124967719,-0.881906306936905,2282.95702736548,2317.73936847952
1.61,0.268363961271238,0.122319920394937,18.9756761067772,-2.05343551180001,2285.9888709249,2317.73936847952
1.62,0.0447275194948465,0.00570224861920678,18.3322019592884,-1.23350181306716,2287.84256611654,2317.73936847952
1.63,0.258078171010619,0.286473943267494,18.2121441217787,-2.16122923333459,2298.79357543708,2317.73936847952
1.64,0.0460441138855305,-0.0816611303042374,18.215924750144,-1.35299329924328,2277.80470682257,2317.73936847952
1.65,0.0923783953704112,-0.00487001695148562,18.8552758523085,-1.22868461253631,2300.92850790004,2317.73936847952
1.66,0.17065803687302,0.0924357289796764,18.6806889053371,-1.22799695915343,2295.7466229472,2317.73936847952
1.67,0.191572780863112,-0.0234383996663791,18.8007452331073,-1.35161537285333,2277.77641640235,2317.73936847952
1.68,-0.0920045979269072,-0.286215743595152,17.6931902046838,0.0547745107641414,2290.92420633377,2317.73936847952
1.69,0.209798033685296,0.16077323826644,19.0881764118785,-1.46285451474549,2293.90375933249,2317.73936847952
1.7,0.199855876283591,0.140545676209675,18.9163358971635,-2.16261260035032,2293.91985906189,2317.73936847952
1.71,0.0348990150067491,-0.0733214473875962,18.1558950764672,-1.10988279488318,2293.94798478936,2317.73936847952
1.72,0.0551835920609007,-0.101546836750919,18.7986850944037,-0.177329106130161,2282.96277372114,2317.73936847952
1.73,0.229396778535695,0.0440405974419824,18.7434636021137,-1.81651499611345,2286.00007019268,2317.73936847952
1.74,0.325216712450695,0.206654283038127,18.0910636126086,-2.73739137316861,2316.7691064416,2317.73936847952
1.75,-0.0805769805916951,-0.392608546688394,17.4009422390255,0.871284249419701,2274.77636093147,2317.73936847952
