t,iq,id,vq,vd,omega,r
0,0,0,0,0,493.950459227972,0
0.01,-0.00464105132025594,-0.00464105132025594,-0.027848879358281,-0.0557772798034009,493.950459227972,-0.144963141214248
0.02,-0.00464105132025594,-0.00464105132025594,-0.027848879358281,-0.0557772798034009,488.762304700315,-0.144963141214248
0.03,-0.00464105132025594,-0.00464105132025594,-0.027848879358281,-0.0557772798034009,482.96402649875,-0.144963141214248
0.04,-0.00464105132025594,-0.00464105132025594,-0.027848879358281,-0.0557772798034009,477.775624524101,-0.144963141214248
0.05,-0.00464105132025594,-0.00464105132025594,-0.027848879358281,-0.0557772798034009,480.827480128605,-0.144963141214248
0.06,-0.00464105132025594,-0.00464105132025594,-0.027848879358281,-0.0557772798034009,477.775294594778,-0.144963141214248
0.07,-0.00464105132025594,-0.00464105132025594,-0.027848879358281,-0.0557772798034009,469.840799952391,-0.144963141214248
0.08,-0.00464105132025594,-0.00464105132025594,-0.027848879358281,-0.0557772798034009,467.704501029238,-0.144963141214248
0.09,-0.00464105132025594,-0.00464105132025594,-0.027848879358281,-0.0557772798034009,464.957830985185,-0.144963141214248
0.1,-0.00464105132025594,-0.00464105132025594,-0.027848879358281,-0.0557772798034009,461.905333851442,-0.144963141214248
0.11,-0.00464105132025594,-0.00464105132025594,-0.027848879358281,-0.0557772798034009,459.769676457528,-0.144963141214248
0.12,-0.00464105132025594,-0.00464105132025594,-0.027848879358281,-0.0557772798034009,454.886707490322,-0.144963141214248
0.13,-0.00464105132025594,-0.00464105132025594,-0.027848879358281,-0.0557772798034009,446.951882918612,-0.144963141214248
0.14,-0.00464105132025594,-0.00464105132025594,-0.027848879358281,-0.0557772798034009,446.951882918612,-0.144963141214248
0.15,-4.38621889346884,-0.0329585040217922,-2.29357951602018,0.0553236225036393,0.0514822764361121,-0.144963141214248
0.16,-4.51727039907743,0.00565598022823013,-2.90083743253023,0.52855256339528,263.855503444345,-0.144963141214248
0.17,-4.24375578366931,0.0168885398250183,-4.00578335394231,0.987020790308993,136.033077002067,-0.144963141214248
0.18,-2.23263804288003,0.014257030156475,-2.666222074507,0.181890330039467,135.967796819661,-0.144963141214248
0.19,-2.30091551473876,0.0539242917683209,-2.54926535404186,-0.289931290545294,135.967796819661,-0.144963141214248
0.2,-2.24123950103355,-0.00458259676235698,-3.02411130460996,0.179079368982457,135.967796819661,-0.144963141214248
0.21,-2.27125288431939,-0.0240069818791788,-3.48948249779583,0.29510282614194,135.967796819661,-0.144963141214248
0.22,-0.678639509406786,0.0538074421848212,-0.262815349084433,-0.525490577375109,30.9839640247255,-0.144963141214248
0.23,-2.42740779795274,-0.0536110811989628,-1.96623414479325,0.4146382469578,142.98706471002,-0.144963141214248
0.24,-2.43735374495338,-0.0532021204168089,-2.61002400027406,0.412531763803224,142.98706471002,-0.144963141214248
0.25,-2.42793360831395,-0.0335440701584275,-2.90118946321846,0.295103643850883,142.98706471002,-0.144963141214248
0.26,-2.49586079507267,-0.0338945508658257,-3.07960552169724,0.296507693375386,142.98706471002,-0.144963141214248
0.27,-0.805132328418103,0.0147250323231447,-0.323922860607332,-0.407360432647166,33.7306340687792,-0.144963141214248
0.28,-1.67536114009352,0.0147250578388707,-1.671210026936,-0.172503886081521,98.7351584447133,-0.144963141214248
0.29,-1.7143269300012,-0.0245909661428509,-2.25809948264918,0.298612541098715,98.7351584447133,-0.144963141214248
0.3,-1.87984404451172,-0.00469942083011706,-1.79097033133041,-0.289932414901691,98.7351584447133,-0.144963141214248
0.31,-1.78248797751554,0.0149585784023319,-2.19979550401093,-0.291335340069797,98.7351584447133,-0.144963141214248
0.32,-1.82192068948883,0.0144333973928185,-2.19874436424344,0.0637549723705182,98.7351584447133,-0.144963141214248
0.33,-1.74358059113649,-0.0736189317926081,-3.07925349100235,0.300013728641927,98.7351584447133,-0.144963141214248
0.34,-0.756571548482191,0.0734073525650528,-0.438076099252157,-0.291335033422351,22.7439538925655,-0.144963141214248
0.35,-1.92928103897126,-0.237678101249125,-1.61325532204995,0.877340291705356,111.85813754408,-0.144963141214248
0.36,-1.9878465521559,0.0349080339670947,-2.25844814372259,0.0595483433719625,111.85813754408,-0.144963141214248
0.37,-2.01750834911313,-0.0242406300146855,-2.54961723155698,0.0623518427883614,111.85813754408,-0.144963141214248
0.38,-1.95935093773055,-0.0922269517122913,-2.8404369435502,0.177677977025215,111.85813754408,-0.144963141214248
0.39,-2.06624490095019,-0.00475763725659596,-2.66762504073865,0.0623516383611272,111.85813754408,-0.144963141214248
0.4,-1.04957436750659,0.248054899351881,-0.788950242928371,-1.45861274855677,27.932108420222,-0.144963141214248
0.41,-0.678873098011106,0.0927156365113993,-0.73134603706625,-0.993102706913726,27.932108420222,-0.144963141214248
0.42,-1.91921924594538,-0.0729189569222384,-1.79026463624043,0.295807406251319,101.787014049217,-0.144963141214248
0.43,-1.90014411685679,-0.014062131982313,-2.43300917217173,-0.0578778345547741,101.787014049217,-0.144963141214248
0.44,-1.90968174943863,0.0150749687290586,-2.37505456937452,-0.174605769589991,101.787014049217,-0.144963141214248
0.45,0.259399044117547,0.0244378839950113,0.79330594586478,-0.289233967609475,-41.0398282415672,-0.144963141214248
0.46,0.395954957375608,-0.0340694212650871,0.910963358104694,0.061651044589528,-41.0398282415672,-0.144963141214248
0.47,0.386242547947796,-0.140440108517759,1.08657552630159,0.526465909722647,-41.0398282415672,-0.144963141214248
0.48,-1.02101989029907,0.00524601588892804,-1.49384730358587,-0.173905278038684,48.9899120912987,-0.144963141214248
0.49,1.61745887594378,0.0921921734455554,2.08404152669215,-0.638721471955546,-122.219187321371,-0.144963141214248
0.5,-2.24258191472994,-0.00458285190426828,-2.90154139179128,0.0609515751744047,135.967796819661,-0.144963141214248
0.51,2.29110887744104,-0.122179618180734,2.61437194294642,0.650890768178712,-162.198495740373,-0.144963141214248
0.52,-2.35936393170327,0.0729421994812175,-2.55136436607073,-0.405265193030627,135.967796819661,-0.144963141214248
0.53,2.0865655708973,-0.0825152566754262,2.55257420579768,0.412537692206417,-151.211815564158,-0.144963141214248
0.54,-1.74398846331346,0.0828875001251622,-1.78956139176056,-0.406664131860874,103.92331297237,-0.144963141214248
0.55,1.54929690992256,0.00530405371740996,1.85047291775411,0.0602531278821022,-130.154011893082,-0.144963141214248
0.56,1.84218328758758,-0.00446660615677162,2.49357137335525,-0.0564761359368216,-130.154011893082,-0.144963141214248
0.57,-1.80243777327243,0.0341507866950353,-2.19874181153159,-0.289236420736298,98.7351584447133,-0.144963141214248
0.58,1.50003663987884,-0.0822248124033376,1.73281550550085,0.293713086550691,-112.148063826508,-0.144963141214248
0.59,1.57825983762063,0.0346739776106971,2.20065101559973,-0.292031027587718,-112.148063826508,-0.144963141214248
0.6,-1.30407730662315,0.0149002173966153,-1.55424615884578,-0.173205604196326,69.7425302019255,-0.144963141214248
0.61,0.93426954092823,-0.0623932694971296,1.61411195683485,0.409047602264329,-99.0250847271418,-0.144963141214248
0.62,1.35359331922164,-0.0436654913943327,1.90738158832936,0.179079368982457,-99.0250847271418,-0.144963141214248
0.63,-0.993043520621563,-0.149399812175374,-1.54936357618715,0.639716838172247,72.79438580643,-0.144963141214248
0.64,-1.44098238236059,-0.0143536053284106,-1.72916110697831,-0.0557772798034009,72.79438580643,-0.144963141214248
0.65,1.3631896870146,-0.130962435826204,1.61515799115888,0.527874661073595,-99.0250847271418,-0.144963141214248
0.66,1.40244642297628,0.0538085648076745,1.96568714965638,-0.407364418984947,-99.0250847271418,-0.144963141214248
0.67,-1.22643478480994,-0.0238920458588671,-1.84472624638588,-0.0571727433574491,67.9114168392234,-0.144963141214248
0.68,0.787941258343194,0.0730016065636579,1.73002631891718,-0.405271734702173,-91.0902601554308,-0.144963141214248
0.69,1.23593932306975,-0.0536683365912333,1.85047005868295,0.180474423682037,-91.0902601554308,-0.144963141214248
0.7,1.31410444045796,0.0342673981471224,1.67450810621657,-0.52479315223234,-91.0902601554308,-0.144963141214248
0.71,-1.23550889721564,0.0537506715628448,-1.43693608026564,-0.407364930059641,61.8077056302154,-0.144963141214248
0.72,0.972828470712453,-0.0919386251061067,1.32188769595423,0.410449914190704,-88.0384045509272,-0.144963141214248
0.73,1.21680425109919,-0.0334309201281391,1.73142040166863,0.176290895001223,-88.0384045509272,-0.144963141214248
0.74,1.23646149341447,0.0149582126999625,1.84768383326584,-0.408062252982184,-88.0384045509272,-0.144963141214248
0.75,-1.1672305663779,-0.0338369807993542,-1.61220081268744,-0.0557772798034009,59.9765922675133,-0.144963141214248
0.76,0.914320383018348,0.0146103259268116,1.43849902282576,-0.0550804679423478,-86.2072911882251,-0.144963141214248
0.77,1.20674369975962,0.0923696547994761,1.61585276059369,-0.522007029170908,-86.2072911882251,-0.144963141214248
0.78,1.18755022426262,-0.0045251287511075,1.96534042863584,-0.291330536023074,-86.2072911882251,-0.144963141214248
0.79,-1.0213085996115,-0.014353732899366,-1.90268682254773,-0.0564737850169276,56.9247366630098,-0.144963141214248
0.8,-1.21449737963756,0.0238016876272354,-1.24497166009349,-0.285759107543162,-78.1372694197277,-0.144963141214248
0.81,1.05070333093068,-0.121077562842338,1.55545906184153,0.410454513836848,-78.272466616515,-0.144963141214248
0.82,1.07007080084187,-0.0238347564423218,1.8494241775452,-0.0571696769621019,-78.272466616515,-0.144963141214248
0.83,-0.874343346742141,0.0243812579522883,-1.20231796530636,-0.28854563951208,51.7365821353524,-0.144963141214248
0.84,-1.0108426594699,-0.033895044139151,-1.67120144980192,-0.0557772798034009,51.7365821353524,-0.144963141214248
0.85,1.00167638584746,0.0347309948693111,1.43954178965017,-0.292025712452877,-78.272466616515,-0.144963141214248
0.86,1.07989936246611,0.0340362333842971,1.67346222506564,-0.171118235021719,-78.272466616515,-0.144963141214248
0.87,1.069480108946,0.013858292044604,1.77235320404779,-0.40180106544099,53.7407357255825,-0.144963141214248
0.88,-1.02113428202342,-0.0240086913242073,-1.6687687866776,-0.0564728651010359,53.8728810585053,-0.144963141214248
0.89,0.826325811005915,0.0440963850071384,1.32153857537503,-0.289938445511912,-78.272466616515,-0.144963141214248
0.9,1.07984150323785,-0.0628598428730933,1.6148081047608,0.294421550764183,-78.272466616515,-0.144963141214248
0.91,1.10822780325032,0.0138589043825188,1.73663055987621,-0.285766978038494,-78.272466616515,-0.144963141214248
0.92,-0.943316056356496,-0.0432608510030602,-1.78434127790109,0.0588703388168613,53.8728810585053,-0.144963141214248
0.93,-1.01113205766637,-0.0240666526098912,-1.9040798331408,0.0609559703666534,53.8728810585053,-0.144963141214248
0.94,1.05064528460028,-0.0244136208750529,1.6731146871752,-0.0543873357715358,-78.272466616515,-0.144963141214248
0.95,1.10874873190756,0.00437796588315946,1.73419815204708,-0.169731255218124,-78.272466616515,-0.144963141214248
0.96,-0.913888128655713,-0.0822858523869023,-1.84438514133275,0.293728623020644,56.9247366630098,-0.144963141214248
0.97,-1.12774380528676,0.00478278486911135,-1.49697259185467,-0.171121608091147,56.9247366630098,-0.144963141214248
0.98,1.16783507169203,-0.0145850592508121,1.55615378023849,-0.0550827166419497,-83.1554355837206,-0.144963141214248
0.99,1.17760570605047,-0.00458326863479774,1.9660373934317,-0.0564717407445599,-83.1554355837206,-0.144963141214248
1,-1.18688780869098,0.0632334215569103,-1.37792941875541,-0.405979176779533,64.8595612347199,-0.144963141214248
1.01,-1.04895184925377,-0.0626294350340829,-2.5833068259775,0.176996599440682,-86.0562243547296,-0.144963141214248
1.02,1.22651663501458,-0.0241245628651951,1.73176860326257,0.061651044589528,-86.2072911882251,-0.144963141214248
1.03,1.24611564389289,-0.0142961883453212,1.90703701159898,-0.173899656283017,-86.2072911882251,-0.144963141214248
1.04,-1.20608263643257,0.0147269969089734,-1.49627649501312,-0.173205604196326,64.8595612347199,-0.144963141214248
1.05,0.943745529678293,0.0143806324809275,1.32084462279694,-0.0536957368250312,-83.1554355837206,-0.144963141214248
1.06,1.12904115001857,-0.111656244046597,2.02399863331007,0.52928310584351,-83.1554355837206,-0.144963141214248
1.07,1.15864158381272,-0.023720602853832,2.13922782416584,-0.175286533892993,-83.1554355837206,-0.144963141214248
1.08,-1.10883814610883,-0.024240026179799,-1.72881244589176,-0.0557772798034009,61.8077056302154,-0.144963141214248
1.09,0.933859125836302,-0.0147001738713196,1.26253727456367,0.0623444833945162,-81.0191366605686,-0.144963141214248
1.1,1.19680083996764,0.208120717500556,1.55788473047425,-1.10153881398335,-81.0191366605686,-0.144963141214248
1.11,1.1970892941382,0.0536366710555233,1.79076878087781,-0.524104108619601,-81.0191366605686,-0.144963141214248
1.12,-1.06975554063754,-0.024066975789335,-1.61115840324682,-0.0564704119609416,59.9765922675133,-0.144963141214248
1.13,-1.08839965705034,-0.0338376271560594,-1.82742766943229,0.061651044589528,-75.0854138097149,-0.144963141214248
1.14,1.0798417073516,0.0246708517550509,1.49749904727461,-0.289941000858948,-75.2206110120105,-0.144963141214248
1.15,1.06012750730777,-0.0145846255097897,1.90911458076631,-0.0550844542801152,-75.2206110120105,-0.144963141214248
1.16,-0.874285147326158,0.0050719449330579,-1.37792696812581,-0.17251288089328,53.8728810585053,-0.144963141214248
1.17,-1.03998251570858,-0.0338953247945872,-1.43692668626162,-0.0557772798034009,53.8728810585053,-0.144963141214248
1.18,0.894430172943016,-0.00435294584161245,1.49715293891312,-0.0578548364306009,-70.032456484354,-0.144963141214248
1.19,0.991906040648597,-0.00481388909502845,1.67346054026813,-0.0543924464658183,-70.032456484354,-0.144963141214248
1.2,1.00190709985765,0.00535999938354839,1.78938511324424,-0.292018557486253,-70.032456484354,-0.144963141214248
1.21,-0.942967523223311,-0.0140085166032614,-1.37585169641502,-0.0578539165280722,51.7365821353524,-0.144963141214248
1.22,-0.952334997011566,0.00507199596122402,-1.67050422973089,-0.172513494175061,51.7365821353524,-0.144963141214248
1.23,1.00173428759862,-0.0626890717426934,1.32188248840195,0.175619329910842,-70.032456484354,-0.144963141214248
1.24,0.992021223307757,-0.0433781683485853,1.79042251934992,0.177695557794395,-70.032456484354,-0.144963141214248
1.25,-0.552659998844127,-0.150279581681892,-1.14123664471799,0.527213521838707,48.9899120912987,-0.144963141214248
1.26,-0.883940590521289,-0.0338954013373819,-1.49454227725133,-0.0557772798034009,48.9899120912987,-0.144963141214248
1.27,-0.855479924431619,-0.0343557662738778,-1.82884804516734,0.0637258414690918,-68.0841518688659,-0.144963141214248
1.28,0.953111260001629,-0.0145842938250799,1.613424590287,-0.0550857830638383,-68.2013431216519,-0.144963141214248
1.29,1.04052918730907,0.0638684442781098,1.4985343091101,-0.408753647514804,-68.2013431216519,-0.144963141214248
1.3,-0.83566264314198,0.0154178887513015,-1.25785465973515,-0.17597077344564,51.7365821353524,-0.144963141214248
1.31,-0.931873636272031,-0.0345280597482817,-1.61633797988418,0.0644158050110731,51.7365821353524,-0.144963141214248
1.32,0.923971726941298,-0.121543651441347,1.26184689579806,0.529291078505957,-70.032456484354,-0.144963141214248
1.33,0.992136133817843,-0.082346177980661,1.78973224268638,0.294434736340929,-70.032456484354,-0.144963141214248
1.34,1.01190731710151,-0.00429614119643669,1.84700591179286,-0.175278254569906,-70.032456484354,-0.144963141214248
1.35,-0.913769858786768,-0.0434936826880055,-1.66808831246618,0.0602694820876921,53.8728810585053,-0.144963141214248
1.36,-1.00090202025913,0.014153133250365,-1.53560143936296,-0.169061530012571,-72.9573548943082,-0.144963141214248
1.37,1.05070237840503,0.0721449953765372,1.61446077108784,-0.518584809138271,-73.0843120888576,-0.144963141214248
1.38,1.02167771332854,-0.0626328964503729,2.14027671753451,0.175626995965498,-73.0843120888576,-0.144963141214248
1.39,-0.991934661504069,-0.024009992543952,-1.66877920178215,-0.0564676521998505,59.9765922675133,-0.144963141214248
1.4,-1.05015636166536,-0.0338380864106106,-1.84612027806649,0.0609607744133704,59.9765922675133,-0.144963141214248
1.41,1.17772055702714,-0.0239526180837811,1.79007778945311,-0.0564674477725902,-81.0191366605686,-0.144963141214248
1.42,1.21663082650112,0.0342692351642216,1.96672894645112,-0.289943862840358,-81.0191366605686,-0.144963141214248
1.43,-1.05015633615183,-0.00475586827815681,-1.4945414093304,-0.172515640654371,61.8077056302154,-0.144963141214248
1.44,-1.07935343077448,-0.0047558512676595,-1.84646485479686,-0.0550874184817377,61.8077056302154,-0.144963141214248
1.45,1.07024351104459,-0.0334938226478874,1.43849902282576,-0.0578465571077491,-73.0843120888576,-0.144963141214248
1.46,1.07012872810767,-0.0046984342845712,1.90807482614629,-0.0557772798034009,-73.0843120888576,-0.144963141214248
1.47,-0.786693421208626,-0.0238954477417633,-1.25889227006492,-0.0571563891518313,53.8728810585053,-0.144963141214248
1.48,-0.971647023030749,0.00490011921846473,-1.43726472801947,-0.171826699261937,53.8728810585053,-0.144963141214248
1.49,0.777411199502407,-0.0144690431283782,1.20422767993155,0.061651044589528,-68.2013431216519,-0.144963141214248
1.5,0.992135700076814,-0.0716591171362938,1.61377223027951,0.172876136622811,-68.2013431216519,-0.144963141214248
1.51,1.04041544195026,0.053466690867657,1.67518000325422,-0.405994815522943,-68.2013431216519,-0.144963141214248
1.52,-0.835259635659605,0.0047282594850898,-1.26026945378373,-0.171138473358147,51.7365821353524,-0.144963141214248
1.53,-0.961532660706908,-0.00481302161299662,-1.32133208842012,-0.0550883384108882,51.7365821353524,-0.144963141214248
1.54,0.767525637630011,0.00501495318464132,1.14557350857564,-0.172516765010834,-62.0976319126439,-0.144963141214248
1.55,0.933397153511099,0.0242697068043617,1.3798451067384,-0.171139393300491,-62.0976319126439,-0.144963141214248
1.56,0.95276651997168,0.0538108610782098,1.55649478315639,-0.407373618223926,-62.0976319126439,-0.144963141214248
1.57,-0.717725491249663,0.0435819369384481,-0.910065011810475,-0.404619590292354,46.8536131681467,-0.144963141214248
1.58,-0.874284790129032,0.044154839563926,-1.20092720110551,-0.40737382265116,46.8536131681467,-0.144963141214248
1.59,-0.875292738361855,-0.014698047692429,-1.36348032381843,-0.0537122954712053,-60.1593984272685,-0.144963141214248
1.6,0.903856152318436,0.0149002173966153,1.26356855414512,-0.173205604196326,-60.2665185499418,-0.144963141214248
1.61,0.865117172760606,-0.0433228010004734,1.73108118565701,0.177014997931964,-60.2665185499418,-0.144963141214248
1.62,0.944408576201426,0.0724935795412132,1.4254400282594,-0.637414729955593,43.6976892873386,-0.144963141214248
1.63,-0.795776242433677,-0.00487000485615372,-1.08533740240101,-0.0550893605471373,43.8017575636422,-0.144963141214248
1.64,-0.737839237361792,-0.0337812647560548,-1.66844075158935,0.0609632275402065,43.8017575636422,-0.144963141214248
1.65,0.806264379055321,-0.00458382994566802,1.26322428373429,-0.173205604196326,-57.2146629454373,-0.144963141214248
1.66,0.874544402327608,0.0246136388846008,1.32256500478813,-0.172517991574239,-57.2146629454373,-0.144963141214248
1.67,0.865002610945722,0.0147858086662168,1.61446077108784,-0.289946418187486,-57.2146629454373,-0.144963141214248
1.68,-0.727610797983439,-0.0146976649839984,-1.436229568306,-0.0544024634137468,46.8536131681467,-0.144963141214248
1.69,-0.718354858332567,-0.063150482759246,-1.96136830803428,0.178392063007922,46.8536131681467,-0.144963141214248
1.7,0.835747861208565,-0.0335527024338406,1.26322377319725,0.0595894332867493,-62.0976319126439,-0.144963141214248
1.71,0.962537409472028,0.0635247078030886,1.38053150325657,-0.406688049887582,-62.0976319126439,-0.144963141214248
1.72,0.933625656301014,0.0150717029234803,1.73039601443036,-0.291320927929614,-62.0976319126439,-0.144963141214248
