t,iq,id,vq,vd,ia,ib,va,vb,theta_e,omega,omega_obs,r,omega_ekf
0,0,0,0,0,0,0,0,0,0,-0.144963141214248,0,0,0
0.01,-0.0241334668642704,0.0429907911504586,0.0891656832296048,-0.167334187848519,0.0251203354706532,-0.0424217054404114,-0.100165654439333,0.160990966080292,-0.524637440120955,-0.144963141214248,250.717567549009,-0.144963141214248,7.36306534340694e-10
0.02,-0.00468990449542493,-0.00449449179474897,-0.0275556097575729,0.0610639029269791,-0.00623917743501594,-0.00180785110107572,0.0390485662290721,-0.0544363972470712,-0.524637440120955,-0.144963141214248,244.919041900452,-0.144963141214248,-2.96436761240917
0.03,-0.0532988104202908,0.0830015388674471,0.205886976227452,-0.406300828071434,0.0451409634374222,-0.0877058268675675,-0.248527013880274,0.38171210780295,-0.524637440120955,-0.144963141214248,250.717567549009,-0.144963141214248,-2.03875783882539
0.04,-0.00468990449118171,-0.306113974474916,-0.0275556097830453,1.58117356235897,-0.267292530110533,0.149273118544754,1.35471199586679,-0.815858170387542,-0.524637440120955,-0.144963141214248,252.853866472162,-0.144963141214248,-8.97826154319155
0.05,-0.0239869073442729,0.0436747355665679,0.0885791440495264,-0.170857037640114,0.025785704748124,-0.0426374445926927,-0.1035084977072,0.162247905915918,-0.524637440120955,-0.144963141214248,244.964819735296,-0.144963141214248,-26.147438902089
0.06,-0.00454334497804901,-0.00473875766246288,-0.0281421489345834,0.061651044589528,-0.00637717936163593,-0.00155865042990355,0.0392629436006354,-0.0552381490045563,-0.524637440120955,-0.144963141214248,244.919041900452,-0.144963141214248,-23.7854399659541
0.07,-0.0141185666383408,0.0247685581018345,0.0293386887788842,-0.0563644214445903,0.0143653465528665,-0.0246262504815749,-0.0340879957413263,0.053625695430334,-0.524637440120955,-0.144963141214248,252.853866472162,-0.144963141214248,-18.5394429905515
0.08,-0.0142651261648479,-0.0248174112637849,0.030218497574342,0.182015077061576,-0.0286249993916973,8.44757964947179e-05,0.17267149176398,-0.0650169347584427,-0.524637440120955,-0.144963141214248,248.012097555616,-0.144963141214248,-15.1221088287026
0.09,-0.00464105132025594,-0.00464105132025594,-0.027848879358281,0.061651044589528,-0.0063415550074175,-0.00169215684923025,0.0394098421085189,-0.0549843225426454,-0.524637440120955,-0.144963141214248,244.919041900452,-0.144963141214248,-9.71238444598353
0.1,-0.00483646400609193,-0.00429907912004298,-0.0269690706229709,0.0598896197356472,-0.00614345821738016,-0.00203258123919229,0.0383260145524864,-0.053340546780754,-0.524637440120955,-0.144963141214248,250.676367498398,-0.144963141214248,-12.2184877537837
0.11,-0.00468990449400312,-0.00449449179901441,-0.0275556097661081,0.0610639029440672,-0.00623917743799552,-0.00180785109770858,0.0390485662395866,-0.0544363972630179,-0.524637440120955,-0.144963141214248,250.749612033284,-0.144963141214248,-7.25842736291583
0.12,-0.0144116856786916,0.0246708517550509,0.0308050367290811,-0.0557772798034009,0.0141339580575931,-0.0248310056189293,-0.0328453287864362,0.0546007289974943,-0.524637440120955,-0.144963141214248,244.919041900452,-0.144963141214248,-8.46855868136375
0.13,-0.00464105132025594,0.0828549793403401,-0.027848879358281,-0.405713686391795,0.0693867498983858,-0.0455188521096951,-0.365096951888383,0.17911831600633,-0.524637440120955,-0.144963141214248,247.970897504955,-0.144963141214248,-13.1677554719633
0.14,-0.00464105132025594,-0.00464105132025594,-0.027848879358281,0.061651044589528,-0.0063415550074175,-0.00169215684923025,0.0394098421085189,-0.0549843225426454,-0.524637440120955,-0.144963141214248,252.853866472162,-0.144963141214248,-31.8718005189136
0.15,0.0246708517550509,-0.267324555993662,-0.145156711533001,1.34807833806415,-0.219013290531381,0.1552554273903,1.09406047037483,-0.800885362348491,-0.524637440120955,-0.144963141214248,247.970897504955,-0.144963141214248,-6.48449578085005
0.16,-0.00468990449224809,-0.0919905224822724,-0.0275556097766437,0.411587451270839,-0.0819674823625337,0.0420188441756267,0.342428661810556,-0.230013376229339,-0.524637440120955,-0.144963141214248,244.919041900452,-0.144963141214248,36.6246259058314
0.17,0.0148025110480543,-0.0242800263856899,-0.0862095258502687,0.179666510634327,-0.0135999323795567,0.024973503035999,0.112320085911223,-0.164609646411559,-0.524637440120955,-0.144963141214248,252.821821988004,-0.144963141214248,11.6129766450365
0.18,-0.00449449180374659,-0.00508072986978399,-0.0284354185236881,0.0634124694690366,-0.00664868770576661,-0.00134507411500202,0.0406405681914103,-0.0563742718610017,-0.524637440120955,-0.144963141214248,252.853866472162,-0.144963141214248,28.5911030115688
0.19,-0.00468990449471404,-0.00473875766917215,-0.0275556097618404,0.062238186243533,-0.00645059091795438,-0.00168549850960517,0.0400649150186499,-0.0550245948715653,-0.524637440120955,-0.144963141214248,244.919041900452,-0.144963141214248,16.5188063524314
0.2,0.0342460734240958,-0.199076675042018,-0.202930818869049,0.995793365075183,-0.155148145817586,0.129357523708979,0.760216845425589,-0.674429900809406,-0.524637440120955,-0.144963141214248,247.970897504955,-0.144963141214248,13.440487110033
0.21,-0.00449449179634875,-0.00420137274853436,-0.0284354185532947,0.0593024779649685,-0.00588759918528708,-0.00178554342231721,0.037083347495477,-0.0543155802658531,-0.524637440120955,-0.144963141214248,252.853866472162,-0.144963141214248,18.0941843265756
0.22,-0.0143628325061662,-0.0240846136920783,0.0305117671442432,0.178492227351681,-0.0280397000185508,-0.000367147336246767,0.169769344101031,-0.0629985155597694,-0.524637440120955,-0.144963141214248,247.970897504955,-0.144963141214248,12.4762068964575
0.23,-0.00464105132025594,-0.0435281760547456,-0.027848879358281,0.178492227324179,-0.0399985794069216,0.0177863743758634,0.140536540598501,-0.11350998217454,-0.524637440120955,-0.144963141214248,244.919041900452,74.8528628663518,18.4479043585434
0.24,-0.00464105132025594,-0.00552040842890889,-0.027848879358281,0.0657610360199024,-0.00710264351328896,-0.00125168754182185,0.04296706272584,-0.0570430141265056,-0.524637440120955,-0.144963141214248,252.821821988625,74.8528617182424,16.9790798703205
0.25,4.54852341288578,-0.024377732737094,4.782065509405,0.0628253279103536,2.25725285630532,3.94898329372574,2.4497086526761,4.10743534033974,-0.524637440120955,-0.144963141214248,365.850346157099,1768.71054522926,183.426832470651
0.26,4.57793302230467,0.0637533891887934,5.07474855065533,-0.291221070224037,2.34826208726705,3.93029266351055,2.28988422376933,4.53809572462428,-0.524637440120955,-0.144963141214248,183.190684513504,1768.71054522926,285.856803733108
0.27,4.5777864627861,0.0251105303315734,5.30965748459162,-0.527839144025313,2.31474306480184,3.94952199405865,2.20275566125166,4.8599325368228,-0.524637440120955,-0.144963141214248,60.1231886141147,1768.71054522926,290.597411090076
0.28,4.62595569015576,0.0660494883215101,4.66944999062505,-1.3651030972332,2.37430389176398,3.97070643736684,1.15741957016091,4.72521424060672,-0.524637440120955,114.905288339796,-0.144963141214248,1768.71054522926,107.895347833601
0.29,4.50973399447352,-0.0821221817947847,6.07069204585114,-0.412172244263029,-4.25822321313603,-1.48727261144766,-5.63786972195983,-2.28858315835579,1.88861331881473,140.848740678794,17.7401055659348,1768.71054522926,444.424555152851
0.3,4.6560003908268,-0.179975084866746,5.89590337587626,0.177317944065303,1.76904569870565,-4.31059253310297,1.85960435387424,-5.59776651156589,-2.79079250291517,187.849342096228,158.655334475336,1768.71054522926,387.012757009925
0.31,4.57768875644389,0.0638022423598968,6.36601451331672,-1.11321934095344,4.43144810502356,1.14959678561053,5.84464259856219,2.75781634267117,-1.3030368726358,195.784166667938,276.793703791192,1768.71054522926,370.145259763926
0.32,4.55931996388385,-0.0922347883324358,6.88803436632967,-0.174379887478705,-3.88604255611103,2.38633171234481,-5.88980808054106,3.57569385592347,0.999862714227832,297.716143858369,344.591186061178,1768.71054522926,386.997317004131
0.33,4.55839175358307,-0.0340995139094087,7.24494344589718,-0.876601267322245,-0.40030999713787,-4.5409085062545,0.182426131607651,-7.29550245169077,3.04618313556218,299.852442781522,333.651474441575,1768.71054522926,351.851827640316
0.34,4.57768875643896,-0.0141185666372734,7.42207827250995,-0.996965299876804,2.61093832621951,3.76011100121122,3.43488639393388,6.65452786854114,-0.610027033614904,362.720668234303,346.817283416247,1768.71054522926,321.018502254141
0.35,4.52917755685122,-0.0824641539875278,8.00685781587493,-0.762108651014857,-3.80034121060964,-2.46529031984464,-6.39244234018293,-4.88131771215782,2.12805348130989,420.68938351255,393.771940723276,1768.71054522926,284.405575024913
0.36,4.59703461246049,0.151249419850992,7.89218940998855,-2.1694871188761,4.44664264796782,1.17599862943744,6.93602601505481,4.34567269367905,-1.27935727076869,284.888542443625,433.828903819244,1768.71054522926,251.845563938425
0.37,4.5388993380389,0.0240846136954114,8.41802176764227,-2.51766210071422,-2.66176107738869,-3.67657656473592,-2.85316632579761,-8.31030413710632,2.5202607992892,354.785843662593,482.850584836709,1768.71054522926,-59.8716687378457
0.38,4.55829404724315,0.0538850484825079,8.71158461765858,-2.52177209205488,1.24769544872522,4.38454151386581,-0.148310050089862,9.06802322250747,-0.265417791861747,401.784419971953,527.746768072679,1768.71054522926,33.2968223770927
0.39,4.56816238794311,0.0635579765015353,9.06292157502161,-2.40375662603972,2.89477225100579,-3.53446471672895,7.67773969561611,-5.38209128114552,-2.44145315973067,459.769676457528,569.856841293269,1768.71054522926,-11.5100961862888
0.4,4.50973399449577,-0.121351278706354,9.58992701099746,-1.5846940635104,-4.10821549600327,-1.86413311551322,-8.2206157663561,-5.18646621247274,1.96986824655283,509.820108371392,605.737545402674,1768.71054522926,99.4237906449201
0.41,4.54881653191474,0.0346857519734486,9.76588875932289,-2.28926400976651,-0.7684663004453,4.48356939139908,-3.97647224523284,9.20874483568605,0.177371805555572,558.950664507586,642.931589011268,1768.71054522926,94.549264460622
0.42,4.56801582842766,0.00459219812109745,10.0022640411759,-2.28397973500969,3.93748889822825,2.31580890260368,7.45666897036253,7.04698071841892,-1.03813508981266,608.698688152977,689.660647503614,1768.71054522926,-52.7803370115185
0.43,4.52917755685477,-0.00454334497591637,10.528682938036,-2.05264593610968,3.85389357140812,-2.37928021127392,10.0333898210289,-3.79441806447204,-2.12489356786294,655.69588375795,723.703929259221,1768.71054522926,-121.425907279779
0.44,4.59781626324755,-0.0529079850189386,10.5861637756826,-2.0549945027532,1.450272315197,-4.36341882670407,5.18055148160469,-9.45789364702122,-2.83221546255972,700.857345121455,765.788237845125,1768.71054522926,-123.526149084259
0.45,4.55848945993096,0.0532011040727948,10.9982075363144,-2.86935993220454,-0.912764697618415,-4.46648823132423,0.741605401377659,-11.3421257646453,2.95168003712776,739.930020950988,804.934545326922,1768.71054522926,-93.1786498359268
0.46,4.5972300251537,-0.121839810446849,11.1756356325228,-2.05088451117089,-1.12681297535589,-4.45866138680142,-1.05000258976909,-11.3136401582582,2.86755473045166,791.811566227555,843.878057565453,1768.71054522926,-65.2186660478037
0.47,4.5583917535868,0.00454334496787267,11.6442804220267,-2.87053421544899,-1.20257321994287,-4.39690501055321,-0.291146933780233,-11.989348051158,2.87561404511307,833.927173569709,883.788179260525,1768.71054522926,-85.1604670042632
0.48,4.59786511642591,-0.00429907909656242,11.8178960135002,-2.64154898308091,0.749595133517894,-4.53635197562245,4.52239020667731,-11.2333625435338,-2.97876563256273,872.986855804387,927.786633444963,1768.71054522926,-94.5174632046892
0.49,4.60739148489762,0.0340995139045659,12.0536847562946,-3.22399347188081,3.3761155748764,-3.13545255059499,11.0690993180689,-5.75851459992816,-2.31185109098956,917.853202693567,964.798479904633,1768.71054522926,-117.196827638277
0.5,4.56796697525267,0.0827572729807607,12.5833296186237,-3.22458061343121,4.46058298778434,0.9881145997905,11.479871477562,6.07870506622162,-1.33468042956636,958.74806779392,1006.96738634508,1768.71054522926,66.3900163911102
0.51,4.56791812208194,-0.0339041012227059,12.9352531151223,-2.9914853896266,-0.050071342608812,4.56776951243971,-3.03724901997138,12.9245841859347,0.00353935580014894,1011.84051226447,1042.88751681366,1768.71054522926,-36.3836280527959
0.52,4.55824519406923,0.0537384889545119,13.2868833420735,-3.34377036280538,-4.54489980946841,0.352665275217631,-13.4776264771663,-2.46488412040631,1.50514442086733,1042.97444150388,1084.73538410644,1768.71054522926,-91.954808215093
0.53,4.59732773150297,-0.111189818975355,13.4625518207349,-2.64389754954317,2.23640455491902,-4.0182434114209,8.60131494936842,-10.6886798492715,-2.65790587467864,1084.79266534253,1131.6461632545,1768.71054522926,-37.8939907683597
0.54,4.57793302229888,-0.0829038325295949,13.8725426941959,-3.22399347196623,2.09800350040511,4.06973280626511,3.74036528977293,13.7423157513074,-0.494088963482002,1129.96418647341,1163.72298756139,1768.71054522926,-48.9579862634865
0.55,4.57773760961288,-0.0239380541710568,14.1083314368738,-3.34435750444444,-4.26800865387702,-1.65540230256353,-11.9870331154828,-8.15725322265616,1.93556693263747,1178.78685687865,1210.72201768267,1768.71054522926,149.081798752447
0.56,4.50992940715919,-0.0236449351549849,14.8089524645574,-3.34729321248754,4.49521663282525,-0.36475987236665,15.0421668998894,2.05977180866216,-1.65700575013097,1212.96550335054,1246.84323685909,1768.71054522926,291.246336037751
0.57,4.61652702800609,0.0442609736453145,14.6373897600223,-3.81524508530068,-4.54349566994672,0.819101905304942,-15.0702791144684,-1.30229085066864,1.4020192920069,1254.7731784616,1288.86669109236,1768.71054522926,224.847590186072
0.58,4.70416961821911,0.131073059929665,14.5215482756584,-4.51335647380811,4.70242071647869,0.18338851994365,14.1877016670973,5.47310445610045,-1.50396137300593,1299.93453769936,1330.68289669471,1768.71054522926,39.2399263787399
0.59,4.56840665381621,-0.0239869073428524,15.4553186197496,-3.57980129487788,-3.53170412473058,-2.89792696624969,-9.74298801821322,-12.5202250549158,2.25269002296808,1335.96016718073,1372.79349169412,1768.71054522926,79.1177720770252
0.6,4.56733188402724,0.0530056914011833,15.8705883456795,-4.04364317621929,0.49650934691276,4.54057359929349,-2.48255226778497,16.1883772754504,-0.0973118611338518,1395.75273255957,1411.89509806814,1768.71054522926,56.7891500532245
0.61,4.29453577273896,0.0143139793116508,16.1025645838505,-3.69370676940233,3.77424873629753,-2.04897263766377,15.928644189524,-4.38341763455737,-2.06482537801339,1424.76947045731,1453.70574675578,1768.71054522926,138.928491627909
0.62,3.73731649527408,0.111287525346783,15.6324534463877,-4.39357958290059,-2.39235162893387,-2.87342533967441,-6.18161899009061,-15.0154829747868,2.4770687192712,1469.93082969341,1484.85082278154,1768.71054522926,-21.2484674793568
0.63,3.28850240603791,-0.0138254475915922,15.6330399855605,-3.11243656390511,-2.71066843386729,1.86191188275752,-14.6216460026459,6.3471780129263,0.964723965409194,1487.94471258383,1521.76258054677,1768.71054522926,17.2709116619684
0.64,2.77119616991178,0.170839541757071,15.6306938289032,-3.81230937713263,1.04894650987135,2.5706858191133,1.39188961630789,16.0285662383103,-0.325849046508347,1518.76967493011,1547.75619946318,1768.71054522926,-10.9224120527302
0.65,2.22423605858156,-0.0152421896384399,15.395491625269,-2.51766210050674,2.18792140096404,0.400572480136788,14.7259956783865,5.14828477419419,-1.39657086401609,1552.95015251634,1571.81346627116,1768.71054522926,-4.44810867898986
0.66,1.76550477540435,-0.0425999657981744,16.0966991921966,-2.17477139349544,1.46042602608625,-0.992964093707064,14.3549448117,-7.60058648730979,-2.19203854778021,1571.87287800481,1589.78834190671,1768.71054522926,-38.0898067986398
0.67,1.61738195852864,0.121742104073757,15.2207029553788,-2.51883638379552,0.0241404658404264,-1.62177765972628,3.87685835565879,-14.9326589887524,-3.05157914792742,1599.94079400137,1607.84139781196,1768.71054522926,-38.4810051193688
0.68,1.45172085298054,0.0249639707880729,14.7561639400666,-1.5846940634175,-1.01799786228886,-1.03527628543852,-9.01470561262967,-11.7894322262938,2.38180377919435,1599.95574809015,1620.61280960905,1768.71054522926,111.652680760009
0.69,1.33330076451748,0.0744033806874846,14.9315391492869,-1.93932760332234,-1.3235354685097,-0.177427887654177,-14.3012568399642,-4.71019168580975,1.75980392872255,1620.69371729757,1628.98704338813,1768.71054522926,182.884384927309
0.7,1.18679010234072,-0.0530545445613018,14.5752166088921,-1.23123480698997,-1.13725431509032,0.343421249373079,-14.1590412733468,3.67075313331321,1.23285500512595,1641.74358614687,1641.72259731755,1768.71054522926,143.710571605177
0.71,1.11820024910568,0.150907447620548,14.5189088495024,-2.16655141059542,-0.581009385098888,0.96725019993504,-10.7649245999138,9.9804337357192,0.675065693395421,1644.79727286247,1646.94150660956,1768.71054522926,-64.6078008488979
0.72,0.854735093669362,-0.0630205916082462,14.3420672924605,-0.996378158208366,-0.333560827087109,0.789481380369157,-5.53914069799928,13.2667096140447,0.326158569463922,1660.97393868099,1654.97793943863,1768.71054522926,-26.2740263119183
0.73,0.932460489942931,-0.0917462565743511,14.3438269100382,-0.881885542161818,-0.0430751021525559,0.935972476344558,-0.133906289101533,14.3702874585148,-0.0520865891509841,1657.92025196198,1662.86173297707,1768.71054522926,-265.039568941983
0.74,0.503871613872728,-0.37353135147837,13.5863115837995,0.99050909034056,-0.261529933770427,0.570100313581743,3.77246204000977,13.0895951376204,-0.207822958944971,1662.83221354961,1667.99931028063,1768.71054522926,-86.4494166072289
0.75,0.582574073685711,-0.121204719171607,14.6341637944839,-0.294743920212145,0.287543358827754,0.520962524635205,9.30942635987361,11.2951407601842,-0.70946042148706,1660.98706165735,1675.89904846285,1768.71054522926,-231.529624840935
0.76,0.426097364389511,-0.0632648574708714,14.3998413997853,-0.760347226160967,0.309744940526011,0.299365124804202,11.2692956810655,8.99647348109349,-0.949835756926541,1673.80485519461,1675.93413485234,1768.71054522926,-202.995603522144
0.77,0.658345343101675,0.15046776914601,14.1100910542892,-1.81133072960314,0.672899743452694,0.0571408400072835,12.88851163043,6.02178183967229,-1.26138719479016,1680.80703269741,1680.78730205857,1768.71054522926,-260.951862020179
0.78,0.395466425645243,-0.00576467430009606,14.2825335676063,-1.22418910736348,0.391074746111934,0.0590547901181328,13.986881981084,3.13951214802816,-1.4354981361369,1691.79584917413,1679.06509877216,1768.71054522926,-245.479432546538
0.79,0.474022325901242,0.122816873877742,13.9338360364604,-1.58469406335768,0.45694704771087,-0.176012913021302,14.0236542262919,-0.0128104180225264,-1.68495315765565,1680.82015567469,1686.92081502856,1768.71054522926,-200.726397625215
0.8,0.454481057179793,0.160824641521364,13.7015665289189,-1.2282990988155,0.3870268535425,-0.287450537123745,13.4562951807957,-2.85827990753813,-1.86950523568378,1678.99392527833,1691.75479511059,1768.71054522926,-111.682101893814
0.81,0.404211143429819,0.159603312271199,14.5142165362391,-1.45552290669943,0.285543307197139,-0.327604770227328,13.5578769969226,-5.38191415103205,-2.04862636607384,1707.9514571894,1691.80378399576,1768.71054522926,-91.1264477675005
0.82,0.336989179011248,0.0926256137035693,14.6925244410292,-1.11087077441616,0.252560858726331,-0.24156618911606,13.4571828331253,-6.00071150144141,-2.06570929924226,1691.79584917442,1694.85563960027,1768.71054522926,17.2750279087337
0.83,0.375290065719253,-0.0148025110489468,14.0499707903406,-0.992855308483493,0.314093594779094,-0.205929506092889,12.0137202753946,-7.35241225840743,-2.19054232834322,1699.72762188938,1694.80680991095,1768.71054522926,121.759636713655
