t,iq,id,vq,vd,ia,ib,va,vb,theta_e,omega,omega_obs,r
0,0,0,0,0,0,0,0,0,0,-0.144963141214248,0,0
0.01,-0.0149978843246599,-0.0333081358849994,0.0332683355744653,0.0588329542902822,0.0214096998975953,0.0295971823092059,-0.0344403370495621,-0.0581546373587715,-2.62011914539939,-0.144963141214248,64.8595612347199,-0.144963141214248
0.02,0.053689677383987,-0.0336598769491938,-0.378013008034272,0.0609465745995122,0.0559319711664148,-0.0297856236340758,-0.241156257819236,0.29740877343003,-2.62011914539939,-0.144963141214248,61.8077056302154,-0.144963141214248
0.03,-0.0337771210570426,-0.0144116856786916,0.0887552582213477,-0.0557772798034009,-0.00433018238801814,0.0364669728862982,0.0925778747493039,-0.0491725320794767,-2.62011914539939,-0.144963141214248,61.8077056302154,-0.144963141214248
0.04,-0.0437235887540002,0.053748327884729,0.148112868903805,-0.289929563795531,-0.0683856972243123,0.0111369375987273,0.325177549607683,0.0160042222155763,-2.62011914539939,-0.144963141214248,61.8077056302154,-0.144963141214248
0.05,0.0148416150366416,-0.0142358785987704,-0.144804916779629,-0.0564815919989795,0.0197372064415703,-0.00577723621272573,-0.0231613742309361,0.153695103702197,-2.62011914539939,-0.144963141214248,61.8077056302154,-0.144963141214248
0.06,-0.0436063927846982,0.0149002173966153,0.147409331927899,-0.173205604196326,-0.0346426592026843,0.0303878287070078,0.223617356125032,-0.0415327642241015,-2.62011914539939,-0.144963141214248,61.8077056302154,-0.144963141214248
0.07,0.0533968187481818,-0.0336599863544766,-0.318304522068161,0.0602426305642528,0.055786176059332,-0.0295316354861517,-0.210801597692944,0.245987051928437,-2.62011914539939,-0.144963141214248,61.8077056302154,-0.144963141214248
0.08,-0.0725667779750345,0.0149002173966153,0.263310405415858,-0.173205604196326,-0.0490695165172809,0.0554989756022995,0.281354442107483,-0.142028971803872,-2.62011914539939,-0.144963141214248,61.8077056302154,-0.144963141214248
0.09,-0.0241823200371289,0.0149002173966153,0.0308050367290811,-0.173205604196326,-0.0249663954321653,0.0135454855937055,0.165529954384816,0.0595731971129232,-2.62011914539939,-0.144963141214248,61.8077056302154,-0.144963141214248
0.1,0.0150173783566712,-0.0145288466387474,-0.145508374939272,-0.0550732305718507,0.020078792914322,-0.00578369366957073,-0.0247329783679366,0.153603475494988,-2.62011914539939,-0.144963141214248,64.8595612347199,-0.144963141214248
0.11,0.00512958303817967,0.0149002173966153,-0.086502795445643,-0.173205604196326,-0.0103644265526949,-0.011870457566824,0.107092079834925,0.161289185569136,-2.62011914539939,-0.144963141214248,64.8595612347199,-0.144963141214248
0.12,-0.00481676650173859,-0.0144116856786916,-0.0271456576340906,-0.0557772798034009,0.0100966596654818,0.0113558525542166,0.0348408672928067,0.051323538819329,-2.62011914539939,-0.144963141214248,64.8595612347199,-0.144963141214248
0.13,-0.0240066179849465,0.0146073806429778,0.030101867549065,-0.171797821322101,-0.0246249533170601,0.0135390158599734,0.163958995860596,0.0594816065464538,-2.62011914539939,-0.144963141214248,64.8595612347199,-0.144963141214248
0.14,-0.0434893368523806,0.0147245284704006,0.147058193930038,-0.172501765344008,-0.0344320093916638,0.030373852040659,0.222832144932066,-0.0415789205456165,-2.62011914539939,-0.144963141214248,64.8595612347199,-0.144963141214248
0.15,0.004953907241266,-0.0336601614007084,-0.0857997313406422,0.060243472081188,0.0316540876216593,0.0124726259992483,-0.0949781275531214,0.0443849649433934,-2.62011914539939,-0.144963141214248,64.8595612347199,-0.144963141214248
0.16,-0.00464105132025594,-0.0144116856786916,-0.027848879358281,-0.0557772798034009,0.0101841936480099,0.0112034923661547,0.0344905515284016,0.0519332925881426,-2.62011914539939,-0.144963141214248,64.8595612347199,-0.144963141214248
0.17,-0.0725670930604715,0.0146074681660931,0.263311824028569,-0.0550735987455204,-0.0488158346967458,0.0556450842782231,0.1789245311691,-0.200878645201406,-2.62011914539939,-0.144963141214248,64.8595612347199,-0.144963141214248
0.18,-0.0240652290955658,0.0147831264550522,0.0304535834861755,-0.172501975723244,-0.0248065376778558,0.0135022874967632,0.16474476856681,0.059527418938168,-2.62011914539939,-0.144963141214248,64.8595612347199,-0.144963141214248
0.19,-0.00464105132025594,-0.00464105132025594,-0.027848879358281,-0.0557772798034009,0.00171221259450057,0.00633616940633159,0.0344905515284016,0.0519332925881426,-2.62011914539939,-0.144963141214248,64.8595612347199,378.895502938174
0.2,-0.00464105132025594,-0.00464105132025594,-0.027848879358281,-0.0557772798034009,0.00171221259450057,0.00633616940633159,0.0344905515284016,0.0519332925881426,-2.62011914539939,-0.144963141214248,64.8595612347199,378.895502938174
0.21,-0.00464105132025594,-0.00464105132025594,-0.027848879358281,-0.0557772798034009,0.00171221259450057,0.00633616940633159,0.0344905515284016,0.0519332925881426,-2.62011914539939,-0.144963141214248,64.8595612347199,378.895502938174
0.22,-0.00464105132025594,-0.00464105132025594,-0.027848879358281,-0.0557772798034009,0.00171221259450057,0.00633616940633159,0.0344905515284016,0.0519332925881426,-2.62011914539939,-0.144963141214248,64.8595612347199,378.895502938174
0.23,-0.00464105132025594,-0.00464105132025594,-0.027848879358281,-0.0557772798034009,0.00171221259450057,0.00633616940633159,0.0344905515284016,0.0519332925881426,-2.62011914539939,-0.144963141214248,64.8595612347199,378.895502938174
0.24,-0.00464105132025594,-0.00464105132025594,-0.027848879358281,-0.0557772798034009,0.00171221259450057,0.00633616940633159,0.0344905515284016,0.0519332925881426,-2.62011914539939,-0.144963141214248,64.8595612347199,378.895502938174
0.25,-0.00464105132025594,-0.00464105132025594,-0.027848879358281,-0.0557772798034009,0.00171221259450057,0.00633616940633159,0.0344905515284016,0.0519332925881426,-2.62011914539939,-0.144963141214248,64.8595612347199,378.895502938174
0.26,-0.00464105132025594,-0.00464105132025594,-0.027848879358281,-0.0557772798034009,0.00171221259450057,0.00633616940633159,0.0344905515284016,0.0519332925881426,-2.62011914539939,-0.144963141214248,64.8595612347199,378.895502938174
0.27,-0.00464105132025594,-0.00464105132025594,-0.027848879358281,-0.0557772798034009,0.00171221259450057,0.00633616940633159,0.0344905515284016,0.0519332925881426,-2.62011914539939,-0.144963141214248,64.8595612347199,378.895502938174
0.28,-0.00464105132025594,-0.00464105132025594,-0.027848879358281,-0.0557772798034009,0.00171221259450057,0.00633616940633159,0.0344905515284016,0.0519332925881426,-2.62011914539939,-0.144963141214248,64.8595612347199,378.895502938174
0.29,-0.00464105132025594,-0.00464105132025594,-0.027848879358281,-0.0557772798034009,0.00171221259450057,0.00633616940633159,0.0344905515284016,0.0519332925881426,-2.62011914539939,-0.144963141214248,64.8595612347199,378.895502938174
0.3,-0.00464105132025594,-0.00464105132025594,-0.027848879358281,-0.0557772798034009,0.00171221259450057,0.00633616940633159,0.0344905515284016,0.0519332925881426,-2.62011914539939,-0.144963141214248,64.8595612347199,378.895502938174
0.31,-0.00464105132025594,-0.00464105132025594,-0.027848879358281,-0.0557772798034009,0.00171221259450057,0.00633616940633159,0.0344905515284016,0.0519332925881426,-2.62011914539939,-0.144963141214248,64.8595612347199,378.895502938174
0.32,-0.00464105132025594,-0.00464105132025594,-0.027848879358281,-0.0557772798034009,0.00171221259450057,0.00633616940633159,0.0344905515284016,0.0519332925881426,-2.62011914539939,-0.144963141214248,64.8595612347199,378.895502938174
0.33,-0.00464105132025594,-0.00464105132025594,-0.027848879358281,-0.0557772798034009,0.00171221259450057,0.00633616940633159,0.0344905515284016,0.0519332925881426,-2.62011914539939,-0.144963141214248,64.8595612347199,378.895502938174
0.34,-0.00464105132025594,-0.00464105132025594,-0.027848879358281,-0.0557772798034009,0.00171221259450057,0.00633616940633159,0.0344905515284016,0.0519332925881426,-2.62011914539939,-0.144963141214248,64.8595612347199,378.895502938174
0.35,-0.00464105132025594,-0.00464105132025594,-0.027848879358281,-0.0557772798034009,0.00171221259450057,0.00633616940633159,0.0344905515284016,0.0519332925881426,-2.62011914539939,-0.144963141214248,64.8595612347199,378.895502938174
0.36,-0.00464105132025594,-0.00464105132025594,-0.027848879358281,-0.0557772798034009,0.00171221259450057,0.00633616940633159,0.0344905515284016,0.0519332925881426,-2.62011914539939,-0.144963141214248,64.8595612347199,378.895502938174
0.37,-0.00464105132025594,-0.00464105132025594,-0.027848879358281,-0.0557772798034009,0.00171221259450057,0.00633616940633159,0.0344905515284016,0.0519332925881426,-2.62011914539939,-0.144963141214248,64.8595612347199,378.895502938174
0.38,-0.00464105132025594,-0.00464105132025594,-0.027848879358281,-0.0557772798034009,0.00171221259450057,0.00633616940633159,0.0344905515284016,0.0519332925881426,-2.62011914539939,-0.144963141214248,64.8595612347199,378.895502938174
0.39,-0.00464105132025594,-0.00464105132025594,-0.027848879358281,-0.0557772798034009,0.00171221259450057,0.00633616940633159,0.0344905515284016,0.0519332925881426,-2.62011914539939,-0.144963141214248,64.8595612347199,378.895502938174
0.4,-0.00464105132025594,-0.00464105132025594,-0.027848879358281,-0.0557772798034009,0.00171221259450057,0.00633616940633159,0.0344905515284016,0.0519332925881426,-2.62011914539939,-0.144963141214248,64.8595612347199,378.895502938174
0.41,-0.00464105132025594,-0.00464105132025594,-0.027848879358281,-0.0557772798034009,0.00171221259450057,0.00633616940633159,0.0344905515284016,0.0519332925881426,-2.62011914539939,-0.144963141214248,64.8595612347199,378.895502938174
0.42,-0.00464105132025594,-0.00464105132025594,-0.027848879358281,-0.0557772798034009,0.00171221259450057,0.00633616940633159,0.0344905515284016,0.0519332925881426,-2.62011914539939,-0.144963141214248,64.8595612347199,378.895502938174
0.43,-0.00464105132025594,-0.00464105132025594,-0.027848879358281,-0.0557772798034009,0.00171221259450057,0.00633616940633159,0.0344905515284016,0.0519332925881426,-2.62011914539939,-0.144963141214248,64.8595612347199,378.895502938174
0.44,-0.00464105132025594,-0.00464105132025594,-0.027848879358281,-0.0557772798034009,0.00171221259450057,0.00633616940633159,0.0344905515284016,0.0519332925881426,-2.62011914539939,-0.144963141214248,64.8595612347199,378.895502938174
0.45,-0.00464105132025594,-0.00464105132025594,-0.027848879358281,-0.0557772798034009,0.00171221259450057,0.00633616940633159,0.0344905515284016,0.0519332925881426,-2.62011914539939,-0.144963141214248,64.8595612347199,378.895502938174
0.46,-0.00464105132025594,-0.00464105132025594,-0.027848879358281,-0.0557772798034009,0.00171221259450057,0.00633616940633159,0.0344905515284016,0.0519332925881426,-2.62011914539939,-0.144963141214248,64.8595612347199,378.895502938174
0.47,-0.00464105132025594,-0.00464105132025594,-0.027848879358281,-0.0557772798034009,0.00171221259450057,0.00633616940633159,0.0344905515284016,0.0519332925881426,-2.62011914539939,-0.144963141214248,64.8595612347199,378.895502938174
0.48,-0.00464105132025594,-0.00464105132025594,-0.027848879358281,-0.0557772798034009,0.00171221259450057,0.00633616940633159,0.0344905515284016,0.0519332925881426,-2.62011914539939,-0.144963141214248,64.8595612347199,378.895502938174
0.49,-0.00464105132025594,-0.00464105132025594,-0.027848879358281,-0.0557772798034009,0.00171221259450057,0.00633616940633159,0.0344905515284016,0.0519332925881426,-2.62011914539939,-0.144963141214248,64.8595612347199,378.895502938174
0.5,-0.00464105132025594,-0.00464105132025594,-0.027848879358281,-0.0557772798034009,0.00171221259450057,0.00633616940633159,0.0344905515284016,0.0519332925881426,-2.62011914539939,-0.144963141214248,64.8595612347199,378.895502938174
0.51,-0.00464105132025594,-0.00464105132025594,-0.027848879358281,-0.0557772798034009,0.00171221259450057,0.00633616940633159,0.0344905515284016,0.0519332925881426,-2.62011914539939,-0.144963141214248,64.8595612347199,378.895502938174
0.52,-0.00464105132025594,-0.00464105132025594,-0.027848879358281,-0.0557772798034009,0.00171221259450057,0.00633616940633159,0.0344905515284016,0.0519332925881426,-2.62011914539939,-0.144963141214248,64.8595612347199,378.895502938174
0.53,-0.00464105132025594,-0.00464105132025594,-0.027848879358281,-0.0557772798034009,0.00171221259450057,0.00633616940633159,0.0344905515284016,0.0519332925881426,-2.62011914539939,-0.144963141214248,64.8595612347199,378.895502938174
0.54,-0.00464105132025594,-0.00464105132025594,-0.027848879358281,-0.0557772798034009,0.00171221259450057,0.00633616940633159,0.0344905515284016,0.0519332925881426,-2.62011914539939,-0.144963141214248,64.8595612347199,378.895502938174
0.55,-0.00464105132025594,-0.00464105132025594,-0.027848879358281,-0.0557772798034009,0.00171221259450057,0.00633616940633159,0.0344905515284016,0.0519332925881426,-2.62011914539939,-0.144963141214248,64.8595612347199,378.895502938174
0.56,-0.00464105132025594,-0.00464105132025594,-0.027848879358281,-0.0557772798034009,0.00171221259450057,0.00633616940633159,0.0344905515284016,0.0519332925881426,-2.62011914539939,-0.144963141214248,64.8595612347199,378.895502938174
0.57,-0.00464105132025594,-0.00464105132025594,-0.027848879358281,-0.0557772798034009,0.00171221259450057,0.00633616940633159,0.0344905515284016,0.0519332925881426,-2.62011914539939,-0.144963141214248,64.8595612347199,378.895502938174
0.58,-0.00464105132025594,-0.00464105132025594,-0.027848879358281,-0.0557772798034009,0.00171221259450057,0.00633616940633159,0.0344905515284016,0.0519332925881426,-2.62011914539939,-0.144963141214248,64.8595612347199,378.895502938174
0.59,-0.00464105132025594,-0.00464105132025594,-0.027848879358281,-0.0557772798034009,0.00171221259450057,0.00633616940633159,0.0344905515284016,0.0519332925881426,-2.62011914539939,-0.144963141214248,64.8595612347199,378.895502938174
0.6,-0.00464105132025594,-0.00464105132025594,-0.027848879358281,-0.0557772798034009,0.00171221259450057,0.00633616940633159,0.0344905515284016,0.0519332925881426,-2.62011914539939,-0.144963141214248,64.8595612347199,378.895502938174
0.61,-0.00464105132025594,-0.00464105132025594,-0.027848879358281,-0.0557772798034009,0.00171221259450057,0.00633616940633159,0.0344905515284016,0.0519332925881426,-2.62011914539939,-0.144963141214248,64.8595612347199,378.895502938174
0.62,-0.00464105132025594,-0.00464105132025594,-0.027848879358281,-0.0557772798034009,0.00171221259450057,0.00633616940633159,0.0344905515284016,0.0519332925881426,-2.62011914539939,-0.144963141214248,64.8595612347199,378.895502938174
0.63,-0.00464105132025594,-0.00464105132025594,-0.027848879358281,-0.0557772798034009,0.00171221259450057,0.00633616940633159,0.0344905515284016,0.0519332925881426,-2.62011914539939,-0.144963141214248,64.8595612347199,378.895502938174
0.64,-0.00464105132025594,-0.00464105132025594,-0.027848879358281,-0.0557772798034009,0.00171221259450057,0.00633616940633159,0.0344905515284016,0.0519332925881426,-2.62011914539939,-0.144963141214248,64.8595612347199,378.895502938174
0.65,-0.00464105132025594,-0.00464105132025594,-0.027848879358281,-0.0557772798034009,0.00171221259450057,0.00633616940633159,0.0344905515284016,0.0519332925881426,-2.62011914539939,-0.144963141214248,64.8595612347199,378.895502938174
0.66,-0.00464105132025594,-0.00464105132025594,-0.027848879358281,-0.0557772798034009,0.00171221259450057,0.00633616940633159,0.0344905515284016,0.0519332925881426,-2.62011914539939,-0.144963141214248,64.8595612347199,378.895502938174
0.67,-0.00464105132025594,-0.00464105132025594,-0.027848879358281,-0.0557772798034009,0.00171221259450057,0.00633616940633159,0.0344905515284016,0.0519332925881426,-2.62011914539939,-0.144963141214248,64.8595612347199,378.895502938174
0.68,-0.00464105132025594,-0.00464105132025594,-0.027848879358281,-0.0557772798034009,0.00171221259450057,0.00633616940633159,0.0344905515284016,0.0519332925881426,-2.62011914539939,-0.144963141214248,64.8595612347199,378.895502938174
0.69,-0.00464105132025594,-0.00464105132025594,-0.027848879358281,-0.0557772798034009,0.00171221259450057,0.00633616940633159,0.0344905515284016,0.0519332925881426,-2.62011914539939,-0.144963141214248,64.8595612347199,378.895502938174
0.7,0.54309765185896,-0.0339529543955646,0.849159164503829,0.061651044589528,0.299988757038938,-0.453998467196902,0.369558954288851,-0.767006073812165,-2.62011914539939,-0.144963141214248,25.8159563679852,378.895502938174
0.71,0.50366518945539,0.0340332913737566,1.20283317574947,-0.288531405754545,0.22139521976127,-0.453675043018374,0.849382939900136,-0.89922557914956,-2.62011914539939,-0.144963141214248,-0.144963141214248,378.895502938174
0.72,0.348267968739704,0.0731741686003466,2.01943762950964,-0.523388212334834,0.110044288936164,-0.338430630222747,1.45982232425466,-1.49029605847237,-2.62011914539939,-0.144963141214248,-0.144963141214248,378.895502938174
0.73,0.68854924508626,-0.0338363448305823,0.443832507940688,0.0609503088275642,0.372345570250614,-0.580175609152175,0.168249699488923,-0.415203894337449,-2.62011914539939,-0.144963141214248,-0.144963141214248,378.895502938174
0.74,0.474353233867325,0.034324885301371,1.49610299261506,-0.289933245425436,0.20654038768623,-0.428404314270717,0.996693259720076,-1.15281741717552,-2.62011914539939,-0.144963141214248,-0.144963141214248,378.895502938174
0.75,0.58124723400814,-0.0141202055305698,1.02967138935055,-0.173906234762,0.301796588939215,-0.496957288055014,0.663731062134238,-0.8061808889414,-2.62011914539939,-0.144963141214248,-0.144963141214248,378.895502938174
0.76,0.581480426879504,-0.0142368107191187,1.08692545585677,-0.173906182163856,0.302013862648076,-0.497101398501163,0.692252607063187,-0.855825119284581,-2.62011914539939,-0.144963141214248,-0.144963141214248,378.895502938174
0.77,0.669066421188862,-0.0339529543955646,0.678097533428612,-0.0557772798034009,0.362741149635714,-0.563224233707694,0.386163642272592,-0.560183015782342,-2.62011914539939,-0.144963141214248,-0.144963141214248,378.895502938174
0.78,0.640162533435067,-0.0338363885926946,0.793655822882453,-0.056477752587991,0.348241364404954,-0.538220143179698,0.444337337732333,-0.660033053740156,-2.62011914539939,-0.144963141214248,-0.144963141214248,378.895502938174
0.79,0.640395651911506,-0.0339529543955646,0.79260624437361,-0.0557772798034009,0.348458566902589,-0.538364208739348,0.443207111246656,-0.659471925181581,-2.62011914539939,-0.144963141214248,-0.144963141214248,378.895502938174
0.8,0.669124800371831,-0.0338364060984282,0.677747236057546,-0.0564776473917015,0.362669174306199,-0.563332912990499,0.386596417704206,-0.559530383854906,-2.62011914539939,-0.144963141214248,-0.144963141214248,378.895502938174
0.81,0.601196548676003,-0.0145282252251827,0.968917895918788,-0.17250528919282,0.312088294548997,-0.514051802714113,0.63225146249868,-0.754200273136698,-2.62011914539939,-0.144963141214248,-0.144963141214248,378.895502938174
0.82,0.630450181978066,-0.0144116856786916,0.851959861952142,-0.173205604196326,0.326560186036518,-0.539475276111958,0.574595076234049,-0.652438722080561,-2.62011914539939,-0.144963141214248,-0.144963141214248,378.895502938174
0.83,0.513435613758352,0.0535749276877063,1.4957539562575,-0.406661833367751,0.209318157234879,-0.471881670976902,1.09773311819363,-1.09436545340159,-2.62011914539939,-0.144963141214248,-0.11291865735982,378.895502938174
0.84,0.562463537976625,0.0147254474647824,1.26078867760462,-0.172505446987267,0.267427669962389,-0.495039909193903,0.777649462435707,-1.00727728674369,-2.62011914539939,-0.144963141214248,-0.144963141214248,378.895502938174
0.85,0.572001132633316,0.034150224770378,1.20318397222353,-0.289233719340727,0.255335948226262,-0.512986439517712,0.850166658423133,-0.899179886521545,-2.62011914539939,-0.144963141214248,-0.144963141214248,378.895502938174
