t,iq,id,vq,vd,ia,ib,va,vb,theta_e,omega,omega_obs,r
0,0,0,0,0,0,0,0,0,0,-0.144963141214248,0,0
0.01,-0.033777094128194,-0.0144116856786916,0.0887551504506292,-0.0557772798034009,-0.00433016897318769,0.0364669495366684,0.0925778210624221,-0.0491724386329867,-2.62011914539939,-0.144963141214248,132.915941215158,-0.144963141214248
0.02,0.00553989476873254,0.0147243695120926,-0.0882621774680987,-0.172501128530775,-0.010007551090482,-0.012138633067552,0.105604787969207,0.162463780806,-2.62011914539939,-0.144963141214248,132.915941215158,-0.144963141214248
0.03,0.0533966364914088,-0.0336598952260901,-0.318303646786326,0.0602421924738142,0.0557860062504457,-0.0295315228502061,-0.21080078180188,0.245986511222145,-2.62011914539939,-0.144963141214248,132.915941215158,-0.144963141214248
0.04,-0.00464105132025594,0.0341484475820918,-0.027848879358281,-0.289225175689008,-0.0319216219878046,-0.0129871428455928,0.236909972660147,0.168227308092408,-2.62011914539939,-0.144963141214248,132.915941215158,-0.144963141214248
0.05,-0.092283742650103,0.0537483405134976,0.439623438977722,-0.406653599284134,-0.0925763536659457,0.0532427648360138,0.571605756781533,-0.178613484159376,-2.62011914539939,-0.144963141214248,132.915941215158,-0.144963141214248
0.06,-0.00458245186865692,0.0340312899522934,-0.0282006566524427,-0.288521096865384,-0.0317908444324022,-0.0129795905644372,0.23612423492062,0.16818158655211,-2.62011914539939,-0.144963141214248,132.915941215158,-0.144963141214248
0.07,-0.130663177472208,0.0340313188456046,0.554117498810633,-0.171797148929211,-0.0945990340332221,0.0963432372794588,0.425001168075726,-0.394885388439007,-2.62011914539939,-0.144963141214248,132.915941215158,-0.144963141214248
0.08,0.00483662705632751,0.0149002173966153,-0.0850958844962419,-0.173205604196326,-0.0105103650173204,-0.0116164395126512,0.107792944253266,0.160069272667881,-2.62011914539939,-0.144963141214248,132.915941215158,-0.144963141214248
0.09,-0.0532012877686637,0.0341485507697145,0.205359973155431,-0.289225671752997,-0.0561123980758788,0.0291187108590001,0.353085336846066,-0.0339845947404302,-2.62011914539939,-0.144963141214248,129.864085610653,-0.144963141214248
0.1,-0.0048168001453277,-0.0144116856786916,-0.0271455229906151,-0.0557772798034009,0.0100966429056474,0.0113558817261044,0.0348409343665765,0.0513234220718454,-2.62011914539939,-0.144963141214248,129.864085610653,-0.144963141214248
0.11,0.0146659021403171,-0.0142359492364679,-0.144101751316751,-0.0564813090126979,0.019649734846377,-0.00562484281733478,-0.0228113318670388,0.153085257744809,-2.62011914539939,-0.144963141214248,129.864085610653,-0.144963141214248
0.12,-0.00534394755775832,-0.0140016628734818,-0.0243325930882744,-0.0571852390065263,0.0094785149602736,0.0116087076313679,0.0374630406752533,0.0495857563217239,-2.62011914539939,-0.144963141214248,129.864085610653,-0.144963141214248
0.13,-0.0919324843988726,0.053572760918436,0.379564098615802,-0.289226068601515,-0.0922491288168216,0.0530256601346019,0.439866918321403,-0.185034369464558,-2.62011914539939,-0.144963141214248,129.864085610653,-0.144963141214248
0.14,-0.00440678559533562,-0.0145288185411517,-0.028903616568851,-0.0550733994172636,0.0104024593465179,0.0110587145287784,0.0333548005085818,0.0524971966600628,-2.62011914539939,-0.144963141214248,129.864085610653,-0.144963141214248
0.15,0.0342657992009886,-0.0336601428747346,-0.203107519030189,0.0602433830194553,0.0462560349001937,-0.0129433167519796,-0.153415902718162,0.146100959193973,-2.62011914539939,-0.144963141214248,129.864085610653,-0.144963141214248
0.16,-0.0340700707486648,0.034148695230736,0.0901620118497868,-0.172501823019023,-0.0465821480876199,0.012530226906316,0.194488887515544,0.00775499572233423,-2.62011914539939,-0.144963141214248,129.864085610653,-0.144963141214248
0.17,0.131855059453172,-0.0339529543955646,-0.730289853453592,0.061651044589528,0.0951248312544539,-0.0974157394592803,-0.417256741289502,0.602512185108911,-2.62011914539939,-0.144963141214248,129.864085610653,-0.144963141214248
0.18,0.0146074677900084,-0.0144116856786916,-0.143750791693563,-0.0557772798034009,0.0197730039105797,-0.00548663063179374,-0.0232469523328372,0.152430227520751,-2.62011914539939,-0.144963141214248,129.864085610653,-0.144963141214248
0.19,0.0144903968406769,-0.0141189567101641,-0.142696525262892,-0.0564809121575431,0.0194608628271142,-0.00553094541719885,-0.0221116509010392,0.151866608096322,-2.62011914539939,-0.144963141214248,129.864085610653,-0.144963141214248
0.2,0.00501249970489635,0.014607509063407,-0.0857999346329569,-0.171798438690237,-0.0101689492697697,-0.0116231211418428,0.106222082184439,0.159978753513787,-2.62011914539939,-0.144963141214248,129.864085610653,-0.144963141214248
0.21,-0.0332505039272585,0.034031723340308,0.0862963021651082,-0.288523329153329,-0.046072449345067,0.0118778624454966,0.293163785060229,0.0689039792918513,-2.62011914539939,-0.144963141214248,129.864085610653,-0.144963141214248
0.22,-0.111474161737544,0.0341488190564385,0.438571402544526,-0.17250212065875,-0.0851417486705792,0.0796461751206759,0.368052188129748,-0.294345789123173,-2.62011914539939,-0.144963141214248,129.864085610653,-0.144963141214248
0.23,-0.00475810988785005,0.0343244275458924,-0.0274975232871655,-0.289930494659372,-0.0321325254662499,-0.0129733088770321,0.237696575877878,0.168274012658784,-2.62011914539939,-0.144963141214248,129.864085610653,-0.144963141214248
0.24,0.0148416922404344,-0.0142361102101489,-0.144805380240303,-0.056480664125548,0.0197374457282858,-0.00577718777592082,-0.0231624096538719,0.153695043334611,-2.62011914539939,-0.144963141214248,129.864085610653,-0.144963141214248
0.25,0.0440365573862271,-0.0144116856786916,-0.261761930679159,-0.0557772798034009,0.0344333502323821,-0.0310041845934705,-0.0820351850337731,0.254756043523255,-2.62011914539939,-0.144963141214248,129.864085610653,-0.144963141214248
0.26,-0.0332507515775504,-0.0145287194816939,0.0862974171638053,-0.0550739946900841,-0.00396648866208615,0.0360688666018669,0.0907436720037336,-0.0473917196517078,-2.62011914539939,-0.144963141214248,129.864085610653,-0.144963141214248
0.27,0.0146076535271888,-0.0141191218092651,-0.143751683689935,-0.057183750814569,0.0195194183781582,-0.00563253481246925,-0.0220278652513293,0.153131646217831,-2.62011914539939,-0.144963141214248,129.864085610653,-0.144963141214248
0.28,0.00530510897699784,-0.0339529543955646,-0.0872052598103856,0.061651044589528,0.0320829184245704,0.012313961133911,-0.0968987898074981,0.0449024851363386,-2.62011914539939,-0.144963141214248,129.909863444867,-0.144963141214248
0.29,0.0343244770761739,-0.033835945358252,-0.203459420216411,0.0609479082993759,0.0464377016593341,-0.0129066180480436,-0.154202089291591,0.146055122672829,-2.62011914539939,-0.144963141214248,129.864085610653,-0.144963141214248
0.3,-0.00464105132025594,-0.0144116856786916,-0.027848879358281,-0.0557772798034009,0.0101841936480099,0.0112034923661547,0.0344905515284016,0.0519332925881426,-2.62011914539939,-0.144963141214248,129.864085610653,-0.144963141214248
0.31,0.00489559798227334,-0.0335434805477285,-0.0854493218943343,0.0595419333455628,0.0315238680346659,0.0124650596064698,-0.0941952736933545,0.044430607159514,-2.62011914539939,-0.144963141214248,129.864085610653,-0.144963141214248
0.32,-0.0725090626020608,0.0147247409875332,0.262962769574379,-0.172502616722737,-0.0488886119712455,0.0555363464418078,0.280571713761561,-0.142077740675028,-2.62011914539939,-0.144963141214248,129.864085610653,-0.144963141214248
0.33,0.0347339261572105,-0.0339529543955646,-0.205566169088391,0.061651044589528,0.0467431290400684,-0.0132033566196387,-0.155861263495504,0.147531582090894,-2.62011914539939,-0.144963141214248,129.864085610653,-0.144963141214248
0.34,0.0438027333039965,-0.0142362340352948,-0.260709126131674,-0.0564801680615644,0.0341647371386581,-0.0308888416852287,-0.0809012570465376,0.254193320999774,-2.62011914539939,-0.144963141214248,129.864085610653,-0.144963141214248
0.35,-0.0338944746420482,-0.0142362464181425,0.0891078940796482,-0.0564801184538317,-0.00454076399558307,0.0364813320161825,0.0933629648528001,-0.0491281727908079,-2.62011914539939,-0.144963141214248,129.864085610653,-0.144963141214248
0.36,-0.00557666134348771,-0.0138854050406237,-0.0232854378563049,-0.0578856469513808,0.00926178109919977,0.0117525757071645,0.0385920037637222,0.0490266966523403,-2.62011914539939,-0.144963141214248,129.864085610653,-0.144963141214248
0.37,-0.00440716532491156,-0.0145286286763638,-0.0289019069081064,-0.0550745403618069,0.0104021055519491,0.0110589492042812,0.0333566414874671,0.0524962826080641,-2.62011914539939,-0.144963141214248,129.864085610653,-0.144963141214248
0.38,0.0156018258512578,-0.014528620421132,-0.14831557117674,-0.0550745899695396,0.0203697441559275,-0.00629057264931952,-0.0261302278613744,0.156038233474069,-2.62011914539939,-0.144963141214248,129.864085610653,-0.144963141214248
0.39,0.00518804628178731,-0.0338360279083493,-0.0868537550721074,0.0609484043633595,0.031923217337493,0.0123572166631384,-0.0961144352317869,0.0449477263567341,-2.62011914539939,-0.144963141214248,129.864085610653,-0.144963141214248
0.4,-0.0444835572618929,0.0151340538605823,0.151973152232346,-0.173908194814762,-0.0352823823427015,0.0310319182318872,0.226500067802373,-0.0451399879118853,-2.62011914539939,-0.144963141214248,129.864085610653,-0.144963141214248
0.41,-0.00481641628703975,-0.0144116856786916,-0.027147059212385,-0.0557772798034009,0.0100968341278536,0.0113555488879259,0.0348401690848949,0.0513247541083593,-2.62011914539939,-0.144963141214248,129.864085610653,-0.144963141214248
0.42,-0.0335437983663841,0.034032330084306,0.0877045263437961,-0.288526454360458,-0.04621908251428,0.0121318717166793,0.293868013498288,0.0676844845557456,-2.62011914539939,-0.144963141214248,129.864085610653,-0.144963141214248
0.43,-0.111241328257615,0.0340323589776172,0.437522983663357,-0.171800720592594,-0.0849247798181827,0.0795023040102179,0.366921735289324,-0.293786127994655,-2.62011914539939,-0.144963141214248,129.864085610653,-0.144963141214248
0.44,0.0537489844060256,-0.0338360691833985,-0.320065952581931,0.0609486523953546,0.056114289287701,-0.029749276297065,-0.212291250690316,0.247162653148347,-2.62011914539939,-0.144963141214248,129.864085610653,-0.144963141214248
0.45,-0.0338945159170974,0.0343246091565522,0.0891081418571397,-0.289931586002814,-0.046647226501246,0.012290372766759,0.295785606356567,0.0671674071229295,-2.62011914539939,-0.144963141214248,129.864085610653,-0.144963141214248
0.46,0.00512958303817967,-0.0336607826385479,-0.086502795445643,0.0602464586188418,0.0317421406511195,0.0123206094358067,-0.0953309543834428,0.0449930942741718,-2.62011914539939,-0.144963141214248,129.864085610653,-0.144963141214248
0.47,0.0150170778441902,-0.0145285461262665,-0.145507472938788,-0.0550750364257905,0.0200783826413349,-0.00578358280217901,-0.0247309631980605,0.153603592984118,-2.62011914539939,-0.144963141214248,129.864085610653,-0.144963141214248
0.48,-0.0241823200371289,0.0149002173966153,0.0308050367290811,-0.173205604196326,-0.0249663954321653,0.0135454855937055,0.165529954384816,0.0595731971129232,-2.62011914539939,-0.144963141214248,129.864085610653,-0.144963141214248
0.49,0.00489589516394588,0.01472495149094,-0.0854506598987241,-0.172503460034148,-0.0103288694881511,-0.0115805198917676,0.107007390499096,0.160027114513304,-2.62011914539939,-0.144963141214248,129.864085610653,-0.144963141214248
0.5,0.00507116519723712,0.0150170530785004,-0.0861521083750854,-0.173907698750772,-0.0104948344806804,-0.011878006939015,0.107875553938289,0.161334863946913,-2.62011914539939,-0.144963141214248,129.864085610653,-0.144963141214248
0.51,-0.0726265958321558,0.0147249762549791,0.263667389601243,-0.172503559242978,-0.048947366126776,0.0556381406692239,0.280923543348282,-0.142688237368311,-2.62011914539939,-0.144963141214248,129.864085610653,-0.144963141214248
0.52,-0.120954110241279,0.0534570685539921,0.554131993793801,-0.405254271599723,-0.106606178433915,0.0782475410627199,0.627435810420939,-0.278599344933068,-2.62011914539939,-0.144963141214248,129.864085610653,-0.144963141214248
0.53,-0.0920511114183556,0.053573916619829,0.380274244082869,-0.405956415768536,-0.0923092259481182,0.0531279442497276,0.541435942450163,-0.127499931135423,-2.62011914539939,-0.144963141214248,129.864085610653,-0.144963141214248
0.54,0.0339742754652114,-0.0336609477403926,-0.201707099858981,0.0602472523291484,0.0461115078086997,-0.0126901396279054,-0.152721627257825,0.144884747694349,-2.62011914539939,-0.144963141214248,129.864085610653,-0.144963141214248
0.55,0.0349086637408345,-0.0339529543955646,-0.264567922798616,0.061651044589528,0.0468301760240733,-0.0133548691462046,-0.185253478982072,0.198691181480189,-2.62011914539939,-0.144963141214248,129.864085610653,-0.144963141214248
0.56,0.0149002173966153,-0.0144116856786916,-0.145156711533001,-0.0557772798034009,0.0199188395676562,-0.00574046974086391,-0.0239473230214876,0.153649281044352,-2.62011914539939,-0.144963141214248,132.915941215158,-0.144963141214248
0.57,0.0536908100866638,-0.0336610096518706,-0.319716405281893,0.0602475499622744,0.0559335175824209,-0.0297860415195193,-0.211509204627765,0.247208825571748,-2.62011914539939,-0.144963141214248,132.915941215158,-0.144963141214248
0.58,-0.0434900494695129,0.0147250629332498,0.147061402354175,-0.172503906490445,-0.0344328278131263,0.0303742036939315,0.22283559979357,-0.0415806358955796,-2.62011914539939,-0.144963141214248,129.864085610653,-0.144963141214248
0.59,-0.0243574621176567,0.0150169787836338,0.0318564289435254,-0.173205604196326,-0.0251548860931423,0.0136391831955666,0.16605371418151,0.0586615495582392,-2.62011914539939,-0.144963141214248,129.864085610653,-0.144963141214248
0.6,0.0146083345671485,-0.0141198028492247,-0.143754954360737,-0.0571804767843118,0.0195203481641612,-0.00563278606700529,-0.0220323334293201,0.153132851185492,-2.62011914539939,-0.144963141214248,129.864085610653,-0.144963141214248
0.61,-0.0529688711629698,0.0340328790416797,0.204313883365412,-0.288529281921181,-0.0558963204608513,0.028974808490872,0.351960388566275,-0.0334244572444246,-2.62011914539939,-0.144963141214248,129.864085610653,-0.144963141214248
0.62,-0.111242504594845,0.073173813679947,0.437177772466016,-0.406659254418933,-0.118864376377933,0.060004682028045,0.570392331108778,-0.17649006361607,-2.62011914539939,-0.144963141214248,132.915941215158,-0.144963141214248
0.63,0.131680916229061,-0.0339529543955646,-0.729243317678678,0.061651044589528,0.0950380803555952,-0.097264742293575,-0.416735400768647,0.601604748505346,-2.62011914539939,-0.144963141214248,132.915941215158,-0.144963141214248
0.64,-0.00475777143222635,-0.014236605510736,-0.027498539175542,-0.0564786798696005,0.00997423897450801,0.0112174811053566,0.0352732506456155,0.0519789257824094,-2.62011914539939,-0.144963141214248,132.915941215158,-0.144963141214248
0.65,0.0343247742567479,-0.0338362425388259,-0.20346031221604,0.060949694131061,0.0464381073834537,-0.0129067276862023,-0.15420408211844,0.14605500648635,-2.62011914539939,-0.144963141214248,132.915941215158,-0.144963141214248
0.66,0.00507123123687418,-0.0338362507929536,-0.0861525048164205,0.0609497437321586,0.0318652182091636,0.012458616394443,-0.095766262918895,0.0443390148030856,-2.62011914539939,-0.144963141214248,132.915941215158,-0.144963141214248
0.67,-0.0530857893966085,0.0341497477450385,0.204665189886324,-0.289231426089982,-0.0560558994796148,0.0290179675449911,0.352744214273914,-0.0333792912676232,-2.62011914539939,-0.144963141214248,132.961719049159,-0.144963141214248
0.68,0.00518792658425339,-0.0338362673034171,-0.0868530365180348,0.060949842947624,0.0319233652852997,0.0123574397078528,-0.0961153246544772,0.0449463866657551,-2.62011914539939,-0.144963141214248,132.915941215158,-0.144963141214248
0.69,-0.00487440899410053,-0.0142366674233081,-0.0267982304762917,-0.0564784318376119,0.00991618868422568,0.0113186467540287,0.035621900197277,0.0513715742977715,-2.62011914539939,-0.144963141214248,132.915941215158,-0.144963141214248
0.7,-0.0436069181723097,0.0149002173966153,0.147412485872643,-0.0557772798034009,-0.0346429209289029,0.0303882842632928,0.12179846170743,-0.100033397718576,-2.62011914539939,-0.144963141214248,132.870163381068,-0.144963141214248
0.71,-0.0529692426384125,0.034033167967024,0.204315617807853,-0.171803498545591,-0.0558967560375845,0.0289749866614888,0.250749950549142,-0.0915738832435998,-2.62011914539939,-0.144963141214248,129.864085610653,-0.144963141214248
0.72,0.0536327926133709,-0.0338363003232356,-0.377671524110101,0.0609500413718929,0.0560566077956776,-0.0296484128667055,-0.240989150745662,0.297110950470976,-2.62011914539939,-0.144963141214248,129.864085610653,-0.144963141214248
0.73,-0.0437235887540002,0.0149002173966153,0.148112868903805,-0.173205604196326,-0.0347010413518115,0.0304894477007241,0.223967828934707,-0.0421427913432897,-2.62011914539939,-0.144963141214248,132.915941215158,-0.144963141214248
0.74,-0.0239490449133849,0.0147252610538073,0.0297547595133389,-0.172504700194117,-0.0246984852749342,0.0134303719416091,0.164399005929676,0.0601347166958741,-2.62011914539939,-0.144963141214248,132.915941215158,-0.144963141214248
0.75,-0.0239490614238485,0.0147252734366549,0.0297548338485848,-0.172504749801849,-0.0246985042367541,0.0134303800889834,0.164399085974573,0.0601346769533226,-2.62011914539939,-0.144963141214248,132.915941215158,-0.144963141214248
0.76,-0.0242989410896416,0.0149002173966153,0.031505122432543,-0.173205604196326,-0.025024491181701,0.0136466060850761,0.165878707914351,0.0589661625440324,-2.62011914539939,-0.144963141214248,132.915941215158,-0.144963141214248
0.77,-0.0238324816452864,0.0146086854034132,0.0294049644358185,-0.171804093825033,-0.0245393371873605,0.0133873746863916,0.163617266564893,0.0600890062352948,-2.62011914539939,-0.144963141214248,132.915941215158,-0.144963141214248
0.78,0.0537495457462596,-0.0338363498535155,-0.320068479910387,0.0609503390116141,0.0561148122891701,-0.0297496232092099,-0.212293972141538,0.247164004357722,-2.62011914539939,-0.144963141214248,132.915941215158,-0.144963141214248
0.79,-0.0432572036067046,0.0146087266795555,0.146013057804776,-0.171804292255884,-0.0342159601591391,0.0302302601619314,0.221706732451856,-0.0410201495922075,-2.62011914539939,-0.144963141214248,132.915941215158,-0.144963141214248
0.8,-0.111709971152477,0.0731742594524526,0.497936702999436,-0.406661040257207,-0.119097635263848,0.0604097937081523,0.600661447354265,-0.229172396940169,-2.62011914539939,-0.144963141214248,132.915941215158,-0.144963141214248
0.81,0.0343249063371262,-0.0338363746192042,-0.203460708660689,0.0609504878347724,0.0464382877054528,-0.0129067764143184,-0.154204967820087,0.146054954847867,-2.62011914539939,-0.144963141214248,129.864085610653,-0.144963141214248
0.82,-0.03354495406775,-0.0145282572009243,0.0877094818935774,-0.0550767726497428,-0.00411344892245732,0.0363237351970582,0.0914495125508848,-0.0486147174604236,-2.62011914539939,-0.144963141214248,129.864085610653,-0.144963141214248
0.83,0.0440372755714207,-0.0144116856786916,-0.26176480489541,-0.0557772798034009,0.0344337080023235,-0.0310048073218553,-0.0820366168485596,0.254758535716159,-2.62011914539939,-0.144963141214248,129.864085610653,-0.144963141214248
0.84,-0.00580660143799219,-0.0140037431374839,-0.0222513653141868,-0.0571780956798396,0.00924984384082135,0.0120109046720361,0.0384936277622008,0.0477775941799439,-2.62011914539939,-0.144963141214248,129.864085610653,-0.144963141214248
0.85,0.0155994979358663,-0.0145282324352334,-0.148654910026407,-0.0550769214729142,0.020368248068296,-0.00628874742469604,-0.0262972507241551,0.156333630925159,-2.62011914539939,-0.144963141214248,129.864085610653,-0.144963141214248
0.86,0.0148419481459603,-0.0142368779267265,-0.203111037478513,-0.0564775885261548,0.0197382388861154,-0.00577702722362702,-0.0522105256892311,0.204249535026599,-2.62011914539939,-0.144963141214248,129.864085610653,-0.144963141214248
