t,iq,id,vq,vd,ia,ib,va,vb,theta_e,omega,omega_obs,r
0,0,0,0,0,0,0,0,0,0,-0.144963141214248,0,0
0.01,0.0148415935905224,-0.00452380370807023,-0.144804788036824,-0.0564818497490642,-0.00351731663421307,-0.0151117895694082,0.12140866157485,0.0970492806983596,2.61705109019401,-0.144963141214248,-0.144963141214248,-0.144963141214248
0.02,-0.0144116856786916,-0.00440655609552906,-0.027848879358281,-0.0571864196968637,0.0110317170646588,0.0102672118576449,0.0634450843633791,-0.00453519011526881,2.61705109019401,-0.144963141214248,-0.144963141214248,-0.144963141214248
0.03,-0.0144116856786916,-0.0532011040810829,-0.027848879358281,0.177670229086858,0.0532660149573398,-0.0141698909703664,-0.139835939363803,0.11308483739004,2.61705109019401,-0.144963141214248,-0.144963141214248,-0.144963141214248
0.04,0.0148415935902558,0.0337966242435326,-0.144804788035224,-0.287111078844918,-0.0366857019619274,0.00407970368010847,0.321030626865691,-0.0184535863083498,2.61705109019401,-0.144963141214248,-0.144963141214248,-0.144963141214248
0.05,0.00501233542528301,0.0147829697837186,-0.0861508719473316,-0.17250103424639,-0.015305712146392,0.0030651064799894,0.19245465264762,-0.0118231225843165,2.61705109019401,-0.144963141214248,-0.144963141214248,-0.144963141214248
0.06,0.0149002173966153,-0.00440655609410735,-0.145156711533001,-0.0571864197054071,-0.00364816048658087,-0.0151038121062552,0.122194753662381,0.0970010292687044,2.61705109019401,-0.144963141214248,-0.144963141214248,-0.144963141214248
0.07,-0.0240064486172706,-0.0336598353624674,0.030101189730404,0.0602419046855438,0.0411572122300881,0.0039214759070471,-0.067217764119265,0.00411593125972505,2.61705109019401,-0.144963141214248,-0.144963141214248,-0.144963141214248
0.08,0.00501233542476318,-0.0330149734882326,-0.0861508719457713,0.0567190549181115,0.026065970923926,-0.0208728805063431,-0.00594762646898857,0.102974024235269,2.61705109019401,-0.144963141214248,-0.144963141214248,-0.144963141214248
0.09,-0.0142944380673057,-0.0530838564725852,-0.0282008028520576,0.176965659159886,0.0531058113550319,-0.0142126555571374,-0.139049847302896,0.113036585973016,2.61705109019401,-0.144963141214248,-0.144963141214248,-0.144963141214248
0.1,-0.0144116856786916,0.034206990890359,-0.027848879358281,-0.289224788705403,-0.0223903785058925,0.0296055038841999,0.264286735814682,-0.120743777295633,2.61705109019401,-0.144963141214248,-0.144963141214248,-0.144963141214248
0.11,0.00518820684405037,-0.0343046972307888,-0.0868547189404868,0.0637647544185082,0.0270942167189195,-0.0216710212666815,-0.0116935591961454,0.107111842396674,2.61705109019401,-0.144963141214248,-0.144963141214248,-0.144963141214248
0.12,-0.0144116856786916,-0.00493417035005352,-0.027848879358281,-0.0543681399152792,0.0114883954953025,0.0100029740621609,0.0610057120819595,-0.00312374978711831,2.61705109019401,-0.144963141214248,-0.144963141214248,-0.144963141214248
0.13,-0.0142944380665946,0.0340311194711473,-0.0282008028541919,-0.288520218753865,-0.0222968718715448,0.0294159405228376,0.263853141746579,-0.120086308552886,2.61705109019401,-0.144963141214248,-0.144963141214248,-0.144963141214248
0.14,0.00518820684431709,-0.034304697232389,-0.0868547189420879,0.0637647544281248,0.027094216720171,-0.0216710212677138,-0.0116935592036672,0.107111842402876,2.61705109019401,-0.144963141214248,-0.144963141214248,-0.144963141214248
0.15,-0.0142944380662394,-0.0530838564688531,0.0304531132321038,0.176965659140663,0.0531058113512676,-0.0142126555561912,-0.168424681930458,0.0622684762720312,2.61705109019401,-0.144963141214248,-0.144963141214248,-0.144963141214248
0.16,0.00512958303817967,0.0146070983650401,-0.0861508719481317,-0.171796464299659,-0.0152122055129063,0.00287554311820197,0.19184480957651,-0.0114702625009174,2.61705109019401,-0.144963141214248,-0.144963141214248,-0.144963141214248
0.17,0.0147243459774033,-0.0918146510629263,-0.144452864536911,0.409708598071894,0.0720963122400619,-0.0587269808150623,-0.282280419520428,0.330220426627922,2.61705109019401,-0.144963141214248,-0.144963141214248,-0.144963141214248
0.18,-0.0144116856786916,-0.0534942231124358,-0.027848879358281,0.179079368982457,0.0535197251975051,-0.0143166897461669,-0.141055625508672,0.113790557556522,2.61705109019401,-0.144963141214248,-0.144963141214248,-0.144963141214248
0.19,-0.0240064486174041,-0.0336598353626898,0.030101189730938,0.0602419046866129,0.0411572122303474,0.00392147590705121,-0.0672177641204577,0.00411593125979826,2.61705109019401,-0.144963141214248,-0.144963141214248,-0.144963141214248
0.2,0.0148415935899514,-0.00452380370692812,-0.144804788033396,-0.0564818497559274,-0.00351731663491564,-0.0151117895683419,0.121408661579073,0.0970492806919553,2.61705109019401,-0.144963141214248,-0.144963141214248,-0.144963141214248
0.21,-0.00464105132025594,-0.00464105132025594,-0.027848879358281,-0.0557772798034009,0.00634139273981369,0.00169276484897846,0.0622253982203578,-0.0038294699498561,2.61705109019401,-0.144963141214248,-0.144963141214248,127.7277866875
0.22,-0.00464105132025594,-0.00464105132025594,-0.027848879358281,-0.0557772798034009,0.00634139273981369,0.00169276484897846,0.0622253982203578,-0.0038294699498561,2.61705109019401,-0.144963141214248,-0.144963141214248,127.7277866875
0.23,-0.00464105132025594,-0.00464105132025594,-0.027848879358281,-0.0557772798034009,0.00634139273981369,0.00169276484897846,0.0622253982203578,-0.0038294699498561,2.61705109019401,-0.144963141214248,-0.144963141214248,127.7277866875
0.24,-0.00464105132025594,-0.00464105132025594,-0.027848879358281,-0.0557772798034009,0.00634139273981369,0.00169276484897846,0.0622253982203578,-0.0038294699498561,2.61705109019401,-0.144963141214248,-0.144963141214248,127.7277866875
0.25,-0.00464105132025594,-0.00464105132025594,-0.027848879358281,-0.0557772798034009,0.00634139273981369,0.00169276484897846,0.0622253982203578,-0.0038294699498561,2.61705109019401,-0.144963141214248,-0.144963141214248,127.7277866875
0.26,-0.00464105132025594,-0.00464105132025594,-0.027848879358281,-0.0557772798034009,0.00634139273981369,0.00169276484897846,0.0622253982203578,-0.0038294699498561,2.61705109019401,-0.144963141214248,-0.144963141214248,127.7277866875
0.27,-0.00464105132025594,-0.00464105132025594,-0.027848879358281,-0.0557772798034009,0.00634139273981369,0.00169276484897846,0.0622253982203578,-0.0038294699498561,2.61705109019401,-0.144963141214248,-0.144963141214248,127.7277866875
0.28,-0.00464105132025594,-0.00464105132025594,-0.027848879358281,-0.0557772798034009,0.00634139273981369,0.00169276484897846,0.0622253982203578,-0.0038294699498561,2.61705109019401,-0.144963141214248,-0.144963141214248,127.7277866875
0.29,-0.00464105132025594,-0.00464105132025594,-0.027848879358281,-0.0557772798034009,0.00634139273981369,0.00169276484897846,0.0622253982203578,-0.0038294699498561,2.61705109019401,-0.144963141214248,-0.144963141214248,127.7277866875
0.3,-0.00464105132025594,-0.00464105132025594,-0.027848879358281,-0.0557772798034009,0.00634139273981369,0.00169276484897846,0.0622253982203578,-0.0038294699498561,2.61705109019401,-0.144963141214248,-0.144963141214248,127.7277866875
0.31,-0.00464105132025594,-0.00464105132025594,-0.027848879358281,-0.0557772798034009,0.00634139273981369,0.00169276484897846,0.0622253982203578,-0.0038294699498561,2.61705109019401,-0.144963141214248,-0.144963141214248,127.7277866875
0.32,-0.00464105132025594,-0.00464105132025594,-0.027848879358281,-0.0557772798034009,0.00634139273981369,0.00169276484897846,0.0622253982203578,-0.0038294699498561,2.61705109019401,-0.144963141214248,-0.144963141214248,127.7277866875
0.33,-0.00464105132025594,-0.00464105132025594,-0.027848879358281,-0.0557772798034009,0.00634139273981369,0.00169276484897846,0.0622253982203578,-0.0038294699498561,2.61705109019401,-0.144963141214248,-0.144963141214248,127.7277866875
0.34,-0.00464105132025594,-0.00464105132025594,-0.027848879358281,-0.0557772798034009,0.00634139273981369,0.00169276484897846,0.0622253982203578,-0.0038294699498561,2.61705109019401,-0.144963141214248,-0.144963141214248,127.7277866875
0.35,-0.00464105132025594,-0.00464105132025594,-0.027848879358281,-0.0557772798034009,0.00634139273981369,0.00169276484897846,0.0622253982203578,-0.0038294699498561,2.61705109019401,-0.144963141214248,-0.144963141214248,127.7277866875
0.36,-0.00464105132025594,-0.00464105132025594,-0.027848879358281,-0.0557772798034009,0.00634139273981369,0.00169276484897846,0.0622253982203578,-0.0038294699498561,2.61705109019401,-0.144963141214248,-0.144963141214248,127.7277866875
0.37,-0.00464105132025594,-0.00464105132025594,-0.027848879358281,-0.0557772798034009,0.00634139273981369,0.00169276484897846,0.0622253982203578,-0.0038294699498561,2.61705109019401,-0.144963141214248,-0.144963141214248,127.7277866875
0.38,-0.00464105132025594,-0.00464105132025594,-0.027848879358281,-0.0557772798034009,0.00634139273981369,0.00169276484897846,0.0622253982203578,-0.0038294699498561,2.61705109019401,-0.144963141214248,-0.144963141214248,127.7277866875
0.39,-0.00464105132025594,-0.00464105132025594,-0.027848879358281,-0.0557772798034009,0.00634139273981369,0.00169276484897846,0.0622253982203578,-0.0038294699498561,2.61705109019401,-0.144963141214248,-0.144963141214248,127.7277866875
0.4,-0.00464105132025594,-0.00464105132025594,-0.027848879358281,-0.0557772798034009,0.00634139273981369,0.00169276484897846,0.0622253982203578,-0.0038294699498561,2.61705109019401,-0.144963141214248,-0.144963141214248,127.7277866875
0.41,-0.00464105132025594,-0.00464105132025594,-0.027848879358281,-0.0557772798034009,0.00634139273981369,0.00169276484897846,0.0622253982203578,-0.0038294699498561,2.61705109019401,-0.144963141214248,-0.144963141214248,127.7277866875
0.42,-0.00464105132025594,-0.00464105132025594,-0.027848879358281,-0.0557772798034009,0.00634139273981369,0.00169276484897846,0.0622253982203578,-0.0038294699498561,2.61705109019401,-0.144963141214248,-0.144963141214248,127.7277866875
0.43,-0.00464105132025594,-0.00464105132025594,-0.027848879358281,-0.0557772798034009,0.00634139273981369,0.00169276484897846,0.0622253982203578,-0.0038294699498561,2.61705109019401,-0.144963141214248,-0.144963141214248,127.7277866875
0.44,-0.00464105132025594,-0.00464105132025594,-0.027848879358281,-0.0557772798034009,0.00634139273981369,0.00169276484897846,0.0622253982203578,-0.0038294699498561,2.61705109019401,-0.144963141214248,-0.144963141214248,127.7277866875
0.45,-0.00464105132025594,-0.00464105132025594,-0.027848879358281,-0.0557772798034009,0.00634139273981369,0.00169276484897846,0.0622253982203578,-0.0038294699498561,2.61705109019401,-0.144963141214248,-0.144963141214248,127.7277866875
0.46,-0.00464105132025594,-0.00464105132025594,-0.027848879358281,-0.0557772798034009,0.00634139273981369,0.00169276484897846,0.0622253982203578,-0.0038294699498561,2.61705109019401,-0.144963141214248,-0.144963141214248,127.7277866875
0.47,-0.00464105132025594,-0.00464105132025594,-0.027848879358281,-0.0557772798034009,0.00634139273981369,0.00169276484897846,0.0622253982203578,-0.0038294699498561,2.61705109019401,-0.144963141214248,-0.144963141214248,127.7277866875
0.48,-0.00464105132025594,-0.00464105132025594,-0.027848879358281,-0.0557772798034009,0.00634139273981369,0.00169276484897846,0.0622253982203578,-0.0038294699498561,2.61705109019401,-0.144963141214248,-0.144963141214248,127.7277866875
0.49,-0.00464105132025594,-0.00464105132025594,-0.027848879358281,-0.0557772798034009,0.00634139273981369,0.00169276484897846,0.0622253982203578,-0.0038294699498561,2.61705109019401,-0.144963141214248,-0.144963141214248,127.7277866875
0.5,-0.00464105132025594,-0.00464105132025594,-0.027848879358281,-0.0557772798034009,0.00634139273981369,0.00169276484897846,0.0622253982203578,-0.0038294699498561,2.61705109019401,-0.144963141214248,-0.144963141214248,127.7277866875
0.51,-0.00464105132025594,-0.00464105132025594,-0.027848879358281,-0.0557772798034009,0.00634139273981369,0.00169276484897846,0.0622253982203578,-0.0038294699498561,2.61705109019401,-0.144963141214248,-0.144963141214248,127.7277866875
0.52,-0.00464105132025594,-0.00464105132025594,-0.027848879358281,-0.0557772798034009,0.00634139273981369,0.00169276484897846,0.0622253982203578,-0.0038294699498561,2.61705109019401,-0.144963141214248,-0.144963141214248,127.7277866875
0.53,-0.00464105132025594,-0.00464105132025594,-0.027848879358281,-0.0557772798034009,0.00634139273981369,0.00169276484897846,0.0622253982203578,-0.0038294699498561,2.61705109019401,-0.144963141214248,-0.144963141214248,127.7277866875
0.54,-0.00464105132025594,-0.00464105132025594,-0.027848879358281,-0.0557772798034009,0.00634139273981369,0.00169276484897846,0.0622253982203578,-0.0038294699498561,2.61705109019401,-0.144963141214248,-0.144963141214248,127.7277866875
0.55,-0.00464105132025594,-0.00464105132025594,-0.027848879358281,-0.0557772798034009,0.00634139273981369,0.00169276484897846,0.0622253982203578,-0.0038294699498561,2.61705109019401,-0.144963141214248,-0.144963141214248,127.7277866875
0.56,-0.00464105132025594,-0.00464105132025594,-0.027848879358281,-0.0557772798034009,0.00634139273981369,0.00169276484897846,0.0622253982203578,-0.0038294699498561,2.61705109019401,-0.144963141214248,-0.144963141214248,127.7277866875
0.57,-0.00464105132025594,-0.00464105132025594,-0.027848879358281,-0.0557772798034009,0.00634139273981369,0.00169276484897846,0.0622253982203578,-0.0038294699498561,2.61705109019401,-0.144963141214248,-0.144963141214248,127.7277866875
0.58,-0.00464105132025594,-0.00464105132025594,-0.027848879358281,-0.0557772798034009,0.00634139273981369,0.00169276484897846,0.0622253982203578,-0.0038294699498561,2.61705109019401,-0.144963141214248,-0.144963141214248,127.7277866875
0.59,-0.00464105132025594,-0.00464105132025594,-0.027848879358281,-0.0557772798034009,0.00634139273981369,0.00169276484897846,0.0622253982203578,-0.0038294699498561,2.61705109019401,-0.144963141214248,-0.144963141214248,127.7277866875
0.6,-0.00464105132025594,-0.00464105132025594,-0.027848879358281,-0.0557772798034009,0.00634139273981369,0.00169276484897846,0.0622253982203578,-0.0038294699498561,2.61705109019401,-0.144963141214248,-0.144963141214248,127.7277866875
0.61,-0.00464105132025594,-0.00464105132025594,-0.027848879358281,-0.0557772798034009,0.00634139273981369,0.00169276484897846,0.0622253982203578,-0.0038294699498561,2.61705109019401,-0.144963141214248,-0.144963141214248,127.7277866875
0.62,-0.00464105132025594,-0.00464105132025594,-0.027848879358281,-0.0557772798034009,0.00634139273981369,0.00169276484897846,0.0622253982203578,-0.0038294699498561,2.61705109019401,-0.144963141214248,-0.144963141214248,127.7277866875
0.63,-0.00464105132025594,-0.00464105132025594,-0.027848879358281,-0.0557772798034009,0.00634139273981369,0.00169276484897846,0.0622253982203578,-0.0038294699498561,2.61705109019401,-0.144963141214248,-0.144963141214248,127.7277866875
0.64,-0.00464105132025594,-0.00464105132025594,-0.027848879358281,-0.0557772798034009,0.00634139273981369,0.00169276484897846,0.0622253982203578,-0.0038294699498561,2.61705109019401,-0.144963141214248,-0.144963141214248,127.7277866875
0.65,-0.00464105132025594,-0.00464105132025594,-0.027848879358281,-0.0557772798034009,0.00634139273981369,0.00169276484897846,0.0622253982203578,-0.0038294699498561,2.61705109019401,-0.144963141214248,-0.144963141214248,127.7277866875
0.66,-0.00464105132025594,-0.00464105132025594,-0.027848879358281,-0.0557772798034009,0.00634139273981369,0.00169276484897846,0.0622253982203578,-0.0038294699498561,2.61705109019401,-0.144963141214248,-0.144963141214248,127.7277866875
0.67,-0.00464105132025594,-0.00464105132025594,-0.027848879358281,-0.0557772798034009,0.00634139273981369,0.00169276484897846,0.0622253982203578,-0.0038294699498561,2.61705109019401,-0.144963141214248,-0.144963141214248,127.7277866875
0.68,-0.00464105132025594,-0.00464105132025594,-0.027848879358281,-0.0557772798034009,0.00634139273981369,0.00169276484897846,0.0622253982203578,-0.0038294699498561,2.61705109019401,-0.144963141214248,-0.144963141214248,127.7277866875
0.69,-0.00464105132025594,-0.00464105132025594,-0.027848879358281,-0.0557772798034009,0.00634139273981369,0.00169276484897846,0.0622253982203578,-0.0038294699498561,2.61705109019401,-0.144963141214248,-0.144963141214248,127.7277866875
0.7,-0.00464105132025594,-0.00464105132025594,-0.027848879358281,-0.0557772798034009,0.00634139273981369,0.00169276484897846,0.0622253982203578,-0.0038294699498561,2.61705109019401,-0.144963141214248,-0.144963141214248,127.7277866875
0.71,-0.00464105132025594,-0.00464105132025594,-0.027848879358281,-0.0557772798034009,0.00634139273981369,0.00169276484897846,0.0622253982203578,-0.0038294699498561,2.61705109019401,-0.144963141214248,-0.144963141214248,127.7277866875
0.72,-0.00469967512599308,-0.00464105132025594,-0.0274969558642389,-0.0557772798034009,0.00637075249470663,0.00174350689654979,0.062049149213726,-0.00413407860587245,2.61705109019401,-0.144963141214248,-0.144963141214248,127.7277866875
0.73,0.18088375387837,-0.0337770829780863,0.441734372835188,0.0609464746470707,-0.0613536477453678,-0.173480701116801,-0.273980196749678,-0.351821802486728,2.61705109019401,-0.144963141214248,9.89261437813406,127.7277866875
0.74,0.200542270206894,-0.208476025311362,0.38272853325325,0.877308185848286,0.0800123505443546,-0.277988271388786,-0.951033951597757,0.108098131486853,2.61705109019401,-0.144963141214248,19.9972838485119,127.7277866875
0.75,0.190830259654462,-0.052556242216372,0.441030525844968,0.174851949314885,-0.050080650172423,-0.19149484346583,-0.372218995249701,-0.294166871828911,2.61705109019401,-0.144963141214248,35.8669329919321,127.7277866875
0.76,0.181118249102208,-0.0336598353650999,0.55798643452298,0.0602419046981992,-0.0615725708618366,-0.173624949797313,-0.331591275945622,-0.452797055986552,2.61705109019401,-0.144963141214248,56.8864259564901,127.7277866875
0.77,0.190771635848458,-0.0534942231124358,0.500036365427974,0.179079368982457,-0.0492394176525594,-0.191913857498453,-0.40542913732091,-0.343122429690622,2.61705109019401,-0.144963141214248,80.6933013230751,127.7277866875
0.78,0.190537140623375,-0.0530838564685399,0.501444059416957,0.176965659139049,-0.0494771729681515,-0.191505371020198,-0.404304604136542,-0.345399444575508,2.61705109019401,-0.144963141214248,95.9594473651189,127.7277866875
0.79,0.190771635848458,-0.0532011040806368,0.558690281515336,0.177670229084714,-0.0494931278931108,-0.191767058722429,-0.433584285819988,-0.394596259552306,2.61705109019401,-0.144963141214248,95.9884884006597,127.7277866875
0.8,0.21984904369797,0.0337966242425504,0.442438219835553,-0.287111078839552,-0.139356765545349,-0.173365237928031,0.0269297823851964,-0.526743900566823,2.61705109019401,-0.144963141214248,80.7604749548976,127.7277866875
0.81,0.200425022593818,-0.0728009966031563,0.500740212425669,0.295098553473366,-0.0373629428752903,-0.209938527402293,-0.506202461053075,-0.285627353427483,2.61705109019401,-0.144963141214248,60.0040589679902,127.7277866875
0.82,0.190713012041838,-0.00428930848053609,0.559042205014678,-0.0578909896593966,-0.0917995501282589,-0.167220494334758,-0.229869668018761,-0.512873755807764,2.61705109019401,-0.144963141214248,35.9127108260325,127.7277866875
0.83,0.229619678055365,-0.0340702020089824,0.383784303752877,0.0623556145425956,-0.0855076805773028,-0.215811055735039,-0.246177546270441,-0.300957189952874,2.61705109019401,-0.144963141214248,14.8091293208554,127.7277866875
0.84,0.200659517818279,-0.247734434167297,0.499684441934199,1.11286940459905,0.113933889134455,-0.297751004817704,-1.21349823869914,0.124839408352571,2.61705109019401,-0.144963141214248,-0.144963141214248,127.7277866875
0.85,0.219966291312202,-0.0546666992280681,0.500388288922283,0.184715928517839,-0.0628457347405414,-0.21777059246615,-0.410484130866463,-0.340604157704485,2.61705109019401,-0.144963141214248,-0.144963141214248,127.7277866875
