t,iq,id,vq,vd,ia,ib,va,vb,theta_e,omega,omega_obs,r
0,0,0,0,0,0,0,0,0,0,-0.144963141214248,0,0
0.01,0.00489510357757075,-0.0240650803068245,-0.026793179843114,0.0609465220080415,-0.00496776049708109,-0.024050186794549,0.0269771229893067,0.0608653256477114,1.5677762099521,-0.144963141214248,-0.144963141214248,-0.144963141214248
0.02,-0.0238892425935352,-0.0238892425935352,0.0880514585512377,0.0602421046228465,0.0238169854512242,-0.0239612818397039,-0.0878691190699729,0.0605077551745001,1.5677762099521,-0.144963141214248,-0.144963141214248,-0.144963141214248
0.03,-0.0142944634530103,-0.00475827354593725,0.0304531894315334,-0.0550728624115311,0.0142800277421706,-0.00480142272980114,-0.030619376774762,-0.0549806391985166,1.5677762099521,-0.144963141214248,-0.144963141214248,-0.144963141214248
0.04,0.0241433911273862,0.0242606046002006,-0.14269396435478,-0.171092509815153,-0.0240700112710722,0.0243334097098553,0.142176595006844,-0.171522681329297,1.5677762099521,-0.144963141214248,-0.144963141214248,-0.144963141214248
0.05,0.0537483453882412,0.0244950446734635,-0.261409159437605,-0.172501291994072,-0.0536741224817331,0.0246572589990161,0.260886994002838,-0.173289990298524,1.5677762099521,-0.144963141214248,-0.144963141214248,-0.144963141214248
0.06,-0.0336599644750866,-0.0434891968176178,0.14670579496533,0.177670849774242,0.0335284687110314,-0.043590655354089,-0.146168539996136,0.178113107466319,1.5677762099521,-0.144963141214248,1.95929129804524,-0.144963141214248
0.07,-0.0241237264289113,-0.0240651328206937,0.0894589528164431,0.0609468375768904,0.0240509370089953,-0.0241378794322104,-0.0892744785436025,0.0612167357052489,1.5677762099521,-0.144963141214248,-0.144963141214248,-0.144963141214248
0.08,0.00536393996531595,-0.0237721954146404,-0.0289040271896146,0.0595385813460543,-0.00543571020142357,-0.0237558872995623,0.0290837085703408,0.0594510164107746,1.5677762099521,-0.144963141214248,-0.144963141214248,-0.144963141214248
0.09,0.024553682043239,-0.0238893957575993,-0.144453332182953,0.0602428409434882,-0.0246257187217715,-0.0238151319328673,0.144634613538404,0.0598063009247155,1.5677762099521,-0.144963141214248,-0.144963141214248,-0.144963141214248
0.1,0.0146073149992526,-0.00464105132025594,-0.0850961418338953,-0.0557772798034009,-0.0146212648778238,-0.00459691442351886,0.0849273001026372,-0.0560340253288829,1.5677762099521,-0.144963141214248,-0.144963141214248,-0.144963141214248
0.11,-0.0239480156227513,-0.0240651678299401,0.0884040414138938,0.0609470479561242,0.0238752268984412,-0.0241373837749387,-0.0882195713166599,0.061213760132672,1.5677762099521,-0.144963141214248,-0.144963141214248,-0.144963141214248
0.12,-0.0532599362037923,-0.0240651765828072,0.205711952404882,0.0609471005542706,0.0531870137745855,-0.0242259178182326,-0.205526947160272,0.0615680957897802,1.5677762099521,-0.144963141214248,-0.144963141214248,-0.144963141214248
0.13,0.0152516215043126,-0.00446534926640729,-0.0882607184123537,-0.0564811712471885,-0.0152650378045667,-0.00441926729299835,0.0880897364177145,-0.0567474709390349,1.5677762099521,-0.144963141214248,-0.144963141214248,-0.144963141214248
0.14,0.0341486712392391,-0.00464105132025594,-0.202755952656598,-0.0557772798034009,-0.0341625319984897,-0.00453789733412424,0.20258657433196,-0.0563893711650777,1.5677762099521,-0.144963141214248,-0.144963141214248,-0.144963141214248
0.15,0.141215760868625,0.0829433063118373,-0.728532083934115,-0.523379218612599,-0.140964618751585,0.0833694154943191,0.726948097437151,-0.525577080388238,1.5677762099521,-0.144963141214248,-0.144963141214248,-0.144963141214248
0.16,0.0635191722986421,0.0440950120268465,-0.320063942453848,-0.28993019493323,-0.0633857107302588,0.0442866459598406,0.319186861052578,-0.290895501726174,1.5677762099521,-0.144963141214248,-0.144963141214248,-0.144963141214248
0.17,0.0340901870335275,-0.00475815101357561,-0.202053230062062,-0.0550735987388453,-0.0341044017137167,-0.00465517312227118,0.201885980138029,-0.0556835710085771,1.5677762099521,-0.144963141214248,-0.144963141214248,-0.144963141214248
0.18,-0.0530844048208526,-0.0240652290966766,0.20500951879331,0.0609474161231204,0.0530114830335677,-0.0242254402073824,-0.20482451579913,0.0615662899288346,1.5677762099521,-0.144963141214248,-0.144963141214248,-0.144963141214248
0.19,0.00548082960426869,-0.0237725323766918,-0.0299574411831917,0.0595403169647145,-0.00555260032495855,-0.0237558712402462,0.0301371230015345,0.0594495705930114,1.5677762099521,-0.144963141214248,-0.144963141214248,-0.144963141214248
0.2,-0.0243579301908733,-0.0241823200371289,0.0901617542139058,0.061651044589528,0.0242847857843113,-0.0242557734358584,-0.0899751499516782,0.0619230620454266,1.5677762099521,-0.144963141214248,-0.144963141214248,-0.144963141214248
0.21,0.0632265981104648,0.0438023940776666,-0.376961380442636,-0.288523516533295,-0.0630940216154339,0.0439931457382691,0.37608828788446,-0.289660666391024,1.5677762099521,-0.144963141214248,-0.144963141214248,-0.144963141214248
0.22,0.0146661055319945,-0.00475810725256632,-0.0854487509620319,-0.0550738617095905,-0.0146804086645039,-0.00471379226798166,0.0852820320242856,-0.0553316753621935,1.5677762099521,-0.144963141214248,-0.144963141214248,-0.144963141214248
0.23,0.00501253585872944,0.0244952809858756,-0.0274975574691444,-0.172502238700621,-0.00493853450059848,0.0245103076948953,0.0269764559406349,-0.172584497705842,1.5677762099521,-0.144963141214248,-0.144963141214248,-0.144963141214248
0.24,0.151045387062437,0.112196926484067,-0.786836832290361,-0.64080896305546,-0.150705850900213,0.112652588828466,0.78489792888181,-0.643182376171789,1.5677762099521,-0.144963141214248,-0.144963141214248,-0.144963141214248
0.25,-0.0142361411664512,-0.00464105132025594,0.0301024980324915,-0.0557772798034009,0.0142220597458731,-0.00468402489886539,-0.030270814394661,-0.0556861125052468,1.5677762099521,-0.144963141214248,-0.144963141214248,-0.144963141214248
0.26,0.0149002173966153,-0.00434849901259529,-0.086502795445643,-0.0571836952325573,-0.014913282398582,-0.00430347885193864,0.0863296997668031,-0.057444682595819,1.5677762099521,-0.144963141214248,-0.144963141214248,-0.144963141214248
0.27,-0.0328998448637274,-0.00411449655433737,0.142844616791985,-0.0585899002692947,0.0328872685809063,-0.00421383901452352,-0.143020913417681,-0.0581582262899013,1.5677762099521,-0.144963141214248,-0.144963141214248,-0.144963141214248
0.28,-0.101645374393965,-0.111182001915518,0.438221734492477,0.526442624486493,0.101309128709063,-0.111488475305038,-0.436629820140593,0.527763702448184,1.5677762099521,-0.144963141214248,-0.144963141214248,-0.144963141214248
0.29,-0.0630308681397109,-0.0436065940884199,0.264367208278692,0.178376319055604,0.0628988838752626,-0.0437967555154953,-0.26382728611239,0.179173924206251,1.5677762099521,-0.144963141214248,-0.144963141214248,-0.144963141214248
0.3,0.0535148111750873,0.0243783869705069,-0.260357715720696,-0.171799609525641,-0.0534409416529814,0.0245398965285443,0.25983767424091,-0.172585135552098,1.5677762099521,-0.144963141214248,-0.144963141214248,-0.144963141214248
0.31,0.00489562871626471,-0.0242992971980864,-0.0267955441809676,0.062353989326766,-0.00496899299468297,-0.0242844010316754,0.0269837380256707,0.0622727794070459,1.5677762099521,-0.144963141214248,-0.144963141214248,-0.144963141214248
0.32,-0.0144116856786916,-0.00464105132025594,0.0308050367290811,-0.0557772798034009,0.0143976034575341,-0.00468455506299753,-0.0309733498872882,-0.055683990759522,1.5677762099521,-0.144963141214248,-0.144963141214248,-0.144963141214248
0.33,-0.0632648574708714,-0.0437235887540002,0.265420701078526,0.179079368982457,0.0631325188022804,-0.0439144563215614,-0.26487865081802,0.179880152593321,1.5677762099521,-0.144963141214248,-0.144963141214248,-0.144963141214248
0.34,-0.00464105132025594,-0.00464105132025594,-0.027848879358281,-0.0557772798034009,0.00462701365855917,-0.00465504665046503,0.0276802987059917,-0.0558611321701058,1.5677762099521,-0.144963141214248,-0.144963141214248,289.781319286659
0.35,-0.00464105132025594,-0.00464105132025594,-0.027848879358281,-0.0557772798034009,0.00462701365855917,-0.00465504665046503,0.0276802987059917,-0.0558611321701058,1.5677762099521,-0.144963141214248,-0.144963141214248,289.781319286659
0.36,-0.00464105132025594,-0.00464105132025594,-0.027848879358281,-0.0557772798034009,0.00462701365855917,-0.00465504665046503,0.0276802987059917,-0.0558611321701058,1.5677762099521,-0.144963141214248,-0.144963141214248,289.781319286659
0.37,-0.00464105132025594,-0.00464105132025594,-0.027848879358281,-0.0557772798034009,0.00462701365855917,-0.00465504665046503,0.0276802987059917,-0.0558611321701058,1.5677762099521,-0.144963141214248,-0.144963141214248,289.781319286659
0.38,-0.00464105132025594,-0.00464105132025594,-0.027848879358281,-0.0557772798034009,0.00462701365855917,-0.00465504665046503,0.0276802987059917,-0.0558611321701058,1.5677762099521,-0.144963141214248,-0.144963141214248,289.781319286659
0.39,-0.00464105132025594,-0.00464105132025594,-0.027848879358281,-0.0557772798034009,0.00462701365855917,-0.00465504665046503,0.0276802987059917,-0.0558611321701058,1.5677762099521,-0.144963141214248,-0.144963141214248,289.781319286659
0.4,-0.00464105132025594,-0.00464105132025594,-0.027848879358281,-0.0557772798034009,0.00462701365855917,-0.00465504665046503,0.0276802987059917,-0.0558611321701058,1.5677762099521,-0.144963141214248,-0.144963141214248,289.781319286659
0.41,-0.00464105132025594,-0.00464105132025594,-0.027848879358281,-0.0557772798034009,0.00462701365855917,-0.00465504665046503,0.0276802987059917,-0.0558611321701058,1.5677762099521,-0.144963141214248,-0.144963141214248,289.781319286659
0.42,-0.00464105132025594,-0.00464105132025594,-0.027848879358281,-0.0557772798034009,0.00462701365855917,-0.00465504665046503,0.0276802987059917,-0.0558611321701058,1.5677762099521,-0.144963141214248,-0.144963141214248,289.781319286659
0.43,-0.00464105132025594,-0.00464105132025594,-0.027848879358281,-0.0557772798034009,0.00462701365855917,-0.00465504665046503,0.0276802987059917,-0.0558611321701058,1.5677762099521,-0.144963141214248,-0.144963141214248,289.781319286659
0.44,-0.00464105132025594,-0.00464105132025594,-0.027848879358281,-0.0557772798034009,0.00462701365855917,-0.00465504665046503,0.0276802987059917,-0.0558611321701058,1.5677762099521,-0.144963141214248,-0.144963141214248,289.781319286659
0.45,-0.00464105132025594,-0.00464105132025594,-0.027848879358281,-0.0557772798034009,0.00462701365855917,-0.00465504665046503,0.0276802987059917,-0.0558611321701058,1.5677762099521,-0.144963141214248,-0.144963141214248,289.781319286659
0.46,-0.00464105132025594,-0.00464105132025594,-0.027848879358281,-0.0557772798034009,0.00462701365855917,-0.00465504665046503,0.0276802987059917,-0.0558611321701058,1.5677762099521,-0.144963141214248,-0.144963141214248,289.781319286659
0.47,-0.00464105132025594,-0.00464105132025594,-0.027848879358281,-0.0557772798034009,0.00462701365855917,-0.00465504665046503,0.0276802987059917,-0.0558611321701058,1.5677762099521,-0.144963141214248,-0.144963141214248,289.781319286659
0.48,-0.00464105132025594,-0.00464105132025594,-0.027848879358281,-0.0557772798034009,0.00462701365855917,-0.00465504665046503,0.0276802987059917,-0.0558611321701058,1.5677762099521,-0.144963141214248,-0.144963141214248,289.781319286659
0.49,-0.00464105132025594,-0.00464105132025594,-0.027848879358281,-0.0557772798034009,0.00462701365855917,-0.00465504665046503,0.0276802987059917,-0.0558611321701058,1.5677762099521,-0.144963141214248,-0.144963141214248,289.781319286659
0.5,-0.00464105132025594,-0.00464105132025594,-0.027848879358281,-0.0557772798034009,0.00462701365855917,-0.00465504665046503,0.0276802987059917,-0.0558611321701058,1.5677762099521,-0.144963141214248,-0.144963141214248,289.781319286659
0.51,-0.00464105132025594,-0.00464105132025594,-0.027848879358281,-0.0557772798034009,0.00462701365855917,-0.00465504665046503,0.0276802987059917,-0.0558611321701058,1.5677762099521,-0.144963141214248,-0.144963141214248,289.781319286659
0.52,-0.00464105132025594,-0.00464105132025594,-0.027848879358281,-0.0557772798034009,0.00462701365855917,-0.00465504665046503,0.0276802987059917,-0.0558611321701058,1.5677762099521,-0.144963141214248,-0.144963141214248,289.781319286659
0.53,-0.00464105132025594,-0.00464105132025594,-0.027848879358281,-0.0557772798034009,0.00462701365855917,-0.00465504665046503,0.0276802987059917,-0.0558611321701058,1.5677762099521,-0.144963141214248,-0.144963141214248,289.781319286659
0.54,-0.00464105132025594,-0.00464105132025594,-0.027848879358281,-0.0557772798034009,0.00462701365855917,-0.00465504665046503,0.0276802987059917,-0.0558611321701058,1.5677762099521,-0.144963141214248,-0.144963141214248,289.781319286659
0.55,-0.00464105132025594,-0.00464105132025594,-0.027848879358281,-0.0557772798034009,0.00462701365855917,-0.00465504665046503,0.0276802987059917,-0.0558611321701058,1.5677762099521,-0.144963141214248,-0.144963141214248,289.781319286659
0.56,-0.00464105132025594,-0.00464105132025594,-0.027848879358281,-0.0557772798034009,0.00462701365855917,-0.00465504665046503,0.0276802987059917,-0.0558611321701058,1.5677762099521,-0.144963141214248,-0.144963141214248,289.781319286659
0.57,-0.00464105132025594,-0.00464105132025594,-0.027848879358281,-0.0557772798034009,0.00462701365855917,-0.00465504665046503,0.0276802987059917,-0.0558611321701058,1.5677762099521,-0.144963141214248,-0.144963141214248,289.781319286659
0.58,-0.00464105132025594,-0.00464105132025594,-0.027848879358281,-0.0557772798034009,0.00462701365855917,-0.00465504665046503,0.0276802987059917,-0.0558611321701058,1.5677762099521,-0.144963141214248,-0.144963141214248,289.781319286659
0.59,-0.00464105132025594,-0.00464105132025594,-0.027848879358281,-0.0557772798034009,0.00462701365855917,-0.00465504665046503,0.0276802987059917,-0.0558611321701058,1.5677762099521,-0.144963141214248,-0.144963141214248,289.781319286659
0.6,-0.00464105132025594,-0.00464105132025594,-0.027848879358281,-0.0557772798034009,0.00462701365855917,-0.00465504665046503,0.0276802987059917,-0.0558611321701058,1.5677762099521,-0.144963141214248,-0.144963141214248,289.781319286659
0.61,-0.00464105132025594,-0.00464105132025594,-0.027848879358281,-0.0557772798034009,0.00462701365855917,-0.00465504665046503,0.0276802987059917,-0.0558611321701058,1.5677762099521,-0.144963141214248,-0.144963141214248,289.781319286659
0.62,-0.00464105132025594,-0.00464105132025594,-0.027848879358281,-0.0557772798034009,0.00462701365855917,-0.00465504665046503,0.0276802987059917,-0.0558611321701058,1.5677762099521,-0.144963141214248,-0.144963141214248,289.781319286659
0.63,-0.00464105132025594,-0.00464105132025594,-0.027848879358281,-0.0557772798034009,0.00462701365855917,-0.00465504665046503,0.0276802987059917,-0.0558611321701058,1.5677762099521,-0.144963141214248,-0.144963141214248,289.781319286659
0.64,-0.00464105132025594,-0.00464105132025594,-0.027848879358281,-0.0557772798034009,0.00462701365855917,-0.00465504665046503,0.0276802987059917,-0.0558611321701058,1.5677762099521,-0.144963141214248,-0.144963141214248,289.781319286659
0.65,-0.00464105132025594,-0.00464105132025594,-0.027848879358281,-0.0557772798034009,0.00462701365855917,-0.00465504665046503,0.0276802987059917,-0.0558611321701058,1.5677762099521,-0.144963141214248,-0.144963141214248,289.781319286659
0.66,-0.00464105132025594,-0.00464105132025594,-0.027848879358281,-0.0557772798034009,0.00462701365855917,-0.00465504665046503,0.0276802987059917,-0.0558611321701058,1.5677762099521,-0.144963141214248,-0.144963141214248,289.781319286659
0.67,-0.00464105132025594,-0.00464105132025594,-0.027848879358281,-0.0557772798034009,0.00462701365855917,-0.00465504665046503,0.0276802987059917,-0.0558611321701058,1.5677762099521,-0.144963141214248,-0.144963141214248,289.781319286659
0.68,-0.00464105132025594,-0.00464105132025594,-0.027848879358281,-0.0557772798034009,0.00462701365855917,-0.00465504665046503,0.0276802987059917,-0.0558611321701058,1.5677762099521,-0.144963141214248,-0.144963141214248,289.781319286659
0.69,-0.00464105132025594,-0.00464105132025594,-0.027848879358281,-0.0557772798034009,0.00462701365855917,-0.00465504665046503,0.0276802987059917,-0.0558611321701058,1.5677762099521,-0.144963141214248,-0.144963141214248,289.781319286659
0.7,-0.00464105132025594,-0.00464105132025594,-0.027848879358281,-0.0557772798034009,0.00462701365855917,-0.00465504665046503,0.0276802987059917,-0.0558611321701058,1.5677762099521,-0.144963141214248,-0.144963141214248,289.781319286659
0.71,-0.00464105132025594,-0.00464105132025594,-0.027848879358281,-0.0557772798034009,0.00462701365855917,-0.00465504665046503,0.0276802987059917,-0.0558611321701058,1.5677762099521,-0.144963141214248,-0.144963141214248,289.781319286659
0.72,-0.00464105132025594,-0.00464105132025594,-0.027848879358281,-0.0557772798034009,0.00462701365855917,-0.00465504665046503,0.0276802987059917,-0.0558611321701058,1.5677762099521,-0.144963141214248,-0.144963141214248,289.781319286659
0.73,-0.00464105132025594,-0.00464105132025594,-0.027848879358281,-0.0557772798034009,0.00462701365855917,-0.00465504665046503,0.0276802987059917,-0.0558611321701058,1.5677762099521,-0.144963141214248,-0.144963141214248,289.781319286659
0.74,-0.00464105132025594,-0.00464105132025594,-0.027848879358281,-0.0557772798034009,0.00462701365855917,-0.00465504665046503,0.0276802987059917,-0.0558611321701058,1.5677762099521,-0.144963141214248,-0.144963141214248,289.781319286659
0.75,-0.00464105132025594,-0.00464105132025594,-0.027848879358281,-0.0557772798034009,0.00462701365855917,-0.00465504665046503,0.0276802987059917,-0.0558611321701058,1.5677762099521,-0.144963141214248,-0.144963141214248,289.781319286659
0.76,-0.00464105132025594,-0.00464105132025594,-0.027848879358281,-0.0557772798034009,0.00462701365855917,-0.00465504665046503,0.0276802987059917,-0.0558611321701058,1.5677762099521,-0.144963141214248,-0.144963141214248,289.781319286659
0.77,-0.00464105132025594,-0.00464105132025594,-0.027848879358281,-0.0557772798034009,0.00462701365855917,-0.00465504665046503,0.0276802987059917,-0.0558611321701058,1.5677762099521,-0.144963141214248,-0.144963141214248,289.781319286659
0.78,-0.00464105132025594,-0.00464105132025594,-0.027848879358281,-0.0557772798034009,0.00462701365855917,-0.00465504665046503,0.0276802987059917,-0.0558611321701058,1.5677762099521,-0.144963141214248,-0.144963141214248,289.781319286659
0.79,-0.00464105132025594,-0.00464105132025594,-0.027848879358281,-0.0557772798034009,0.00462701365855917,-0.00465504665046503,0.0276802987059917,-0.0558611321701058,1.5677762099521,-0.144963141214248,-0.144963141214248,289.781319286659
0.8,-0.00464105132025594,-0.00464105132025594,-0.027848879358281,-0.0557772798034009,0.00462701365855917,-0.00465504665046503,0.0276802987059917,-0.0558611321701058,1.5677762099521,-0.144963141214248,-0.144963141214248,289.781319286659
0.81,-0.00464105132025594,-0.00464105132025594,-0.027848879358281,-0.0557772798034009,0.00462701365855917,-0.00465504665046503,0.0276802987059917,-0.0558611321701058,1.5677762099521,-0.144963141214248,-0.144963141214248,289.781319286659
0.82,-0.00464105132025594,-0.00464105132025594,-0.027848879358281,-0.0557772798034009,0.00462701365855917,-0.00465504665046503,0.0276802987059917,-0.0558611321701058,1.5677762099521,-0.144963141214248,-0.144963141214248,289.781319286659
0.83,-0.00464105132025594,-0.00464105132025594,-0.027848879358281,-0.0557772798034009,0.00462701365855917,-0.00465504665046503,0.0276802987059917,-0.0558611321701058,1.5677762099521,-0.144963141214248,-0.144963141214248,289.781319286659
0.84,-0.00464105132025594,-0.00464105132025594,-0.027848879358281,-0.0557772798034009,0.00462701365855917,-0.00465504665046503,0.0276802987059917,-0.0558611321701058,1.5677762099521,-0.144963141214248,-0.144963141214248,289.781319286659
