t,iq,id,vq,vd,ia,ib,va,vb,theta_e,omega,omega_obs,r
0,0,0,0,0,0,0,0,0,0,-0.144963141214248,0,0
0.01,0.0148415975798159,-0.072625153111711,-0.0861508958975198,0.29439412737431,0.0554280512165492,-0.0492180558490098,-0.211668135027448,0.222005584863149,2.61705109019401,-0.144963141214248,12.9780159581524,-0.144963141214248
0.02,-0.0241237046495256,-0.00452382054504931,0.089107079857146,-0.0564817485714862,0.0159971527117491,0.0186147571420723,0.00426170812272583,-0.105413933833422,2.61705109019401,-0.144963141214248,12.9780159581524,-0.144963141214248
0.03,-0.0141186308894326,-0.024709818657795,0.0290458048933966,0.0644687067060751,0.0284585129739158,-0.000154646715513714,-0.0703477340480498,0.00714627459338467,2.61705109019401,-0.144963141214248,12.9780159581524,-0.144963141214248
0.04,0.0341484534702081,-0.111356144390526,-0.260705444816171,0.410414206283992,0.0792826138413282,-0.0853262849913049,-0.224669979277947,0.431196648975573,2.61705109019401,-0.144963141214248,9.92616035364881,-0.144963141214248
0.05,0.0147244110999027,-0.0241823200371289,-0.0857992090733412,0.061651044589528,0.0135568703341583,-0.0248556663833397,-0.0103926464909961,0.105139661762363,2.61705109019401,-0.144963141214248,9.92616035364881,-0.144963141214248
0.06,0.0148416197274593,-0.024065124698817,-0.0861510288516326,0.0609467887705213,0.0133967314982346,-0.0248984234052747,-0.00960687824977855,0.1050914778844,2.61705109019401,-0.144963141214248,9.92616035364881,-0.144963141214248
0.07,-0.0144116856786916,-0.0241823200371289,0.0308050367290811,0.061651044589528,0.028148701232893,0.000363187803842209,-0.0687899482899617,0.00421243410920552,2.61705109019401,-0.144963141214248,6.90896610281223,-0.144963141214248
0.08,0.0245536741346409,0.0830017138546395,-0.144453284706993,-0.524082278679618,-0.0841393134616003,0.020316085905709,0.525965869339686,-0.137436860333788,2.61705109019401,-0.144963141214248,6.87430474914527,-0.144963141214248
0.09,0.00512958303817967,0.121849935910327,-0.027848879358281,-0.757530841699081,-0.108036632313315,0.0565844994843473,0.669630737626858,-0.355279061347752,2.61705109019401,-0.144963141214248,6.87430474914527,-0.144963141214248
0.1,-0.0336600546392774,0.0632261696274765,0.146354567743713,-0.405246081476087,-0.0378681377843806,0.0607992758577332,0.277465468224212,-0.329631551879202,2.61705109019401,-0.144963141214248,6.87430474914527,-0.144963141214248
0.11,-0.00464105132025594,-0.00464105132025594,-0.027848879358281,-0.0557772798034009,0.00634139273981369,0.00169276484897846,0.0622253982203578,-0.0038294699498561,2.61705109019401,-0.144963141214248,6.87430474914527,386.830327509884
0.12,-0.00464105132025594,-0.00464105132025594,-0.027848879358281,-0.0557772798034009,0.00634139273981369,0.00169276484897846,0.0622253982203578,-0.0038294699498561,2.61705109019401,-0.144963141214248,6.87430474914527,386.830327509884
0.13,-0.00464105132025594,-0.00464105132025594,-0.027848879358281,-0.0557772798034009,0.00634139273981369,0.00169276484897846,0.0622253982203578,-0.0038294699498561,2.61705109019401,-0.144963141214248,6.87430474914527,386.830327509884
0.14,-0.00464105132025594,-0.00464105132025594,-0.027848879358281,-0.0557772798034009,0.00634139273981369,0.00169276484897846,0.0622253982203578,-0.0038294699498561,2.61705109019401,-0.144963141214248,6.87430474914527,386.830327509884
0.15,-0.00464105132025594,-0.00464105132025594,-0.027848879358281,-0.0557772798034009,0.00634139273981369,0.00169276484897846,0.0622253982203578,-0.0038294699498561,2.61705109019401,-0.144963141214248,6.87430474914527,386.830327509884
0.16,-0.00464105132025594,-0.00464105132025594,-0.027848879358281,-0.0557772798034009,0.00634139273981369,0.00169276484897846,0.0622253982203578,-0.0038294699498561,2.61705109019401,-0.144963141214248,6.87430474914527,386.830327509884
0.17,-0.00464105132025594,-0.00464105132025594,-0.027848879358281,-0.0557772798034009,0.00634139273981369,0.00169276484897846,0.0622253982203578,-0.0038294699498561,2.61705109019401,-0.144963141214248,6.87430474914527,386.830327509884
0.18,-0.00464105132025594,-0.00464105132025594,-0.027848879358281,-0.0557772798034009,0.00634139273981369,0.00169276484897846,0.0622253982203578,-0.0038294699498561,2.61705109019401,-0.144963141214248,6.87430474914527,386.830327509884
0.19,-0.00464105132025594,-0.00464105132025594,-0.027848879358281,-0.0557772798034009,0.00634139273981369,0.00169276484897846,0.0622253982203578,-0.0038294699498561,2.61705109019401,-0.144963141214248,6.87430474914527,386.830327509884
0.2,-0.00464105132025594,-0.00464105132025594,-0.027848879358281,-0.0557772798034009,0.00634139273981369,0.00169276484897846,0.0622253982203578,-0.0038294699498561,2.61705109019401,-0.144963141214248,6.87430474914527,386.830327509884
0.21,-0.00464105132025594,-0.00464105132025594,-0.027848879358281,-0.0557772798034009,0.00634139273981369,0.00169276484897846,0.0622253982203578,-0.0038294699498561,2.61705109019401,-0.144963141214248,6.87430474914527,386.830327509884
0.22,-0.00464105132025594,-0.00464105132025594,-0.027848879358281,-0.0557772798034009,0.00634139273981369,0.00169276484897846,0.0622253982203578,-0.0038294699498561,2.61705109019401,-0.144963141214248,6.87430474914527,386.830327509884
0.23,-0.00464105132025594,-0.00464105132025594,-0.027848879358281,-0.0557772798034009,0.00634139273981369,0.00169276484897846,0.0622253982203578,-0.0038294699498561,2.61705109019401,-0.144963141214248,6.87430474914527,386.830327509884
0.24,-0.00464105132025594,-0.00464105132025594,-0.027848879358281,-0.0557772798034009,0.00634139273981369,0.00169276484897846,0.0622253982203578,-0.0038294699498561,2.61705109019401,-0.144963141214248,6.87430474914527,386.830327509884
0.25,-0.00464105132025594,-0.00464105132025594,-0.027848879358281,-0.0557772798034009,0.00634139273981369,0.00169276484897846,0.0622253982203578,-0.0038294699498561,2.61705109019401,-0.144963141214248,6.87430474914527,386.830327509884
0.26,-0.00464105132025594,-0.00464105132025594,-0.027848879358281,-0.0557772798034009,0.00634139273981369,0.00169276484897846,0.0622253982203578,-0.0038294699498561,2.61705109019401,-0.144963141214248,6.87430474914527,386.830327509884
0.27,-0.00464105132025594,-0.00464105132025594,-0.027848879358281,-0.0557772798034009,0.00634139273981369,0.00169276484897846,0.0622253982203578,-0.0038294699498561,2.61705109019401,-0.144963141214248,6.87430474914527,386.830327509884
0.28,-0.00464105132025594,-0.00464105132025594,-0.027848879358281,-0.0557772798034009,0.00634139273981369,0.00169276484897846,0.0622253982203578,-0.0038294699498561,2.61705109019401,-0.144963141214248,6.87430474914527,386.830327509884
0.29,-0.00464105132025594,-0.00464105132025594,-0.027848879358281,-0.0557772798034009,0.00634139273981369,0.00169276484897846,0.0622253982203578,-0.0038294699498561,2.61705109019401,-0.144963141214248,6.87430474914527,386.830327509884
0.3,-0.00464105132025594,-0.00464105132025594,-0.027848879358281,-0.0557772798034009,0.00634139273981369,0.00169276484897846,0.0622253982203578,-0.0038294699498561,2.61705109019401,-0.144963141214248,6.87430474914527,386.830327509884
0.31,-0.00464105132025594,-0.00464105132025594,-0.027848879358281,-0.0557772798034009,0.00634139273981369,0.00169276484897846,0.0622253982203578,-0.0038294699498561,2.61705109019401,-0.144963141214248,6.87430474914527,386.830327509884
0.32,-0.00464105132025594,-0.00464105132025594,-0.027848879358281,-0.0557772798034009,0.00634139273981369,0.00169276484897846,0.0622253982203578,-0.0038294699498561,2.61705109019401,-0.144963141214248,6.87430474914527,386.830327509884
0.33,-0.00464105132025594,-0.00464105132025594,-0.027848879358281,-0.0557772798034009,0.00634139273981369,0.00169276484897846,0.0622253982203578,-0.0038294699498561,2.61705109019401,-0.144963141214248,6.87430474914527,386.830327509884
0.34,-0.00464105132025594,-0.00464105132025594,-0.027848879358281,-0.0557772798034009,0.00634139273981369,0.00169276484897846,0.0622253982203578,-0.0038294699498561,2.61705109019401,-0.144963141214248,6.87430474914527,386.830327509884
0.35,-0.00464105132025594,-0.00464105132025594,-0.027848879358281,-0.0557772798034009,0.00634139273981369,0.00169276484897846,0.0622253982203578,-0.0038294699498561,2.61705109019401,-0.144963141214248,6.87430474914527,386.830327509884
0.36,-0.00464105132025594,-0.00464105132025594,-0.027848879358281,-0.0557772798034009,0.00634139273981369,0.00169276484897846,0.0622253982203578,-0.0038294699498561,2.61705109019401,-0.144963141214248,6.87430474914527,386.830327509884
0.37,-0.00464105132025594,-0.00464105132025594,-0.027848879358281,-0.0557772798034009,0.00634139273981369,0.00169276484897846,0.0622253982203578,-0.0038294699498561,2.61705109019401,-0.144963141214248,6.87430474914527,386.830327509884
0.38,-0.00464105132025594,-0.00464105132025594,-0.027848879358281,-0.0557772798034009,0.00634139273981369,0.00169276484897846,0.0622253982203578,-0.0038294699498561,2.61705109019401,-0.144963141214248,6.87430474914527,386.830327509884
0.39,-0.00464105132025594,-0.00464105132025594,-0.027848879358281,-0.0557772798034009,0.00634139273981369,0.00169276484897846,0.0622253982203578,-0.0038294699498561,2.61705109019401,-0.144963141214248,6.87430474914527,386.830327509884
0.4,-0.00464105132025594,-0.00464105132025594,-0.027848879358281,-0.0557772798034009,0.00634139273981369,0.00169276484897846,0.0622253982203578,-0.0038294699498561,2.61705109019401,-0.144963141214248,6.87430474914527,386.830327509884
0.41,-0.00464105132025594,-0.00464105132025594,-0.027848879358281,-0.0557772798034009,0.00634139273981369,0.00169276484897846,0.0622253982203578,-0.0038294699498561,2.61705109019401,-0.144963141214248,6.87430474914527,386.830327509884
0.42,-0.00464105132025594,-0.00464105132025594,-0.027848879358281,-0.0557772798034009,0.00634139273981369,0.00169276484897846,0.0622253982203578,-0.0038294699498561,2.61705109019401,-0.144963141214248,6.87430474914527,386.830327509884
0.43,-0.00464105132025594,-0.00464105132025594,-0.027848879358281,-0.0557772798034009,0.00634139273981369,0.00169276484897846,0.0622253982203578,-0.0038294699498561,2.61705109019401,-0.144963141214248,6.87430474914527,386.830327509884
0.44,-0.00464105132025594,-0.00464105132025594,-0.027848879358281,-0.0557772798034009,0.00634139273981369,0.00169276484897846,0.0622253982203578,-0.0038294699498561,2.61705109019401,-0.144963141214248,6.87430474914527,386.830327509884
0.45,-0.00464105132025594,-0.00464105132025594,-0.027848879358281,-0.0557772798034009,0.00634139273981369,0.00169276484897846,0.0622253982203578,-0.0038294699498561,2.61705109019401,-0.144963141214248,6.87430474914527,386.830327509884
0.46,-0.00464105132025594,-0.00464105132025594,-0.027848879358281,-0.0557772798034009,0.00634139273981369,0.00169276484897846,0.0622253982203578,-0.0038294699498561,2.61705109019401,-0.144963141214248,6.87430474914527,386.830327509884
0.47,-0.00464105132025594,-0.00464105132025594,-0.027848879358281,-0.0557772798034009,0.00634139273981369,0.00169276484897846,0.0622253982203578,-0.0038294699498561,2.61705109019401,-0.144963141214248,6.87430474914527,386.830327509884
0.48,-0.00464105132025594,-0.00464105132025594,-0.027848879358281,-0.0557772798034009,0.00634139273981369,0.00169276484897846,0.0622253982203578,-0.0038294699498561,2.61705109019401,-0.144963141214248,6.87430474914527,386.830327509884
0.49,-0.00464105132025594,-0.00464105132025594,-0.027848879358281,-0.0557772798034009,0.00634139273981369,0.00169276484897846,0.0622253982203578,-0.0038294699498561,2.61705109019401,-0.144963141214248,6.87430474914527,386.830327509884
0.5,-0.00464105132025594,-0.00464105132025594,-0.027848879358281,-0.0557772798034009,0.00634139273981369,0.00169276484897846,0.0622253982203578,-0.0038294699498561,2.61705109019401,-0.144963141214248,6.87430474914527,386.830327509884
0.51,-0.00464105132025594,-0.00464105132025594,-0.027848879358281,-0.0557772798034009,0.00634139273981369,0.00169276484897846,0.0622253982203578,-0.0038294699498561,2.61705109019401,-0.144963141214248,6.87430474914527,386.830327509884
0.52,-0.00464105132025594,-0.00464105132025594,-0.027848879358281,-0.0557772798034009,0.00634139273981369,0.00169276484897846,0.0622253982203578,-0.0038294699498561,2.61705109019401,-0.144963141214248,6.87430474914527,386.830327509884
0.53,-0.00464105132025594,-0.00464105132025594,-0.027848879358281,-0.0557772798034009,0.00634139273981369,0.00169276484897846,0.0622253982203578,-0.0038294699498561,2.61705109019401,-0.144963141214248,6.87430474914527,386.830327509884
0.54,-0.00464105132025594,-0.00464105132025594,-0.027848879358281,-0.0557772798034009,0.00634139273981369,0.00169276484897846,0.0622253982203578,-0.0038294699498561,2.61705109019401,-0.144963141214248,6.87430474914527,386.830327509884
0.55,-0.00464105132025594,-0.00464105132025594,-0.027848879358281,-0.0557772798034009,0.00634139273981369,0.00169276484897846,0.0622253982203578,-0.0038294699498561,2.61705109019401,-0.144963141214248,6.87430474914527,386.830327509884
0.56,-0.00464105132025594,-0.00464105132025594,-0.027848879358281,-0.0557772798034009,0.00634139273981369,0.00169276484897846,0.0622253982203578,-0.0038294699498561,2.61705109019401,-0.144963141214248,6.87430474914527,386.830327509884
0.57,-0.00464105132025594,-0.00464105132025594,-0.027848879358281,-0.0557772798034009,0.00634139273981369,0.00169276484897846,0.0622253982203578,-0.0038294699498561,2.61705109019401,-0.144963141214248,6.87430474914527,386.830327509884
0.58,-0.00464105132025594,-0.00464105132025594,-0.027848879358281,-0.0557772798034009,0.00634139273981369,0.00169276484897846,0.0622253982203578,-0.0038294699498561,2.61705109019401,-0.144963141214248,6.87430474914527,386.830327509884
0.59,-0.00464105132025594,-0.00464105132025594,-0.027848879358281,-0.0557772798034009,0.00634139273981369,0.00169276484897846,0.0622253982203578,-0.0038294699498561,2.61705109019401,-0.144963141214248,6.87430474914527,386.830327509884
0.6,-0.00464105132025594,-0.00464105132025594,-0.027848879358281,-0.0557772798034009,0.00634139273981369,0.00169276484897846,0.0622253982203578,-0.0038294699498561,2.61705109019401,-0.144963141214248,6.87430474914527,386.830327509884
0.61,-0.00464105132025594,-0.00464105132025594,-0.027848879358281,-0.0557772798034009,0.00634139273981369,0.00169276484897846,0.0622253982203578,-0.0038294699498561,2.61705109019401,-0.144963141214248,6.87430474914527,386.830327509884
0.62,0.522973204035273,-0.0727437437473211,1.14557971990199,0.177676819786339,-0.198949870852894,-0.489092601948661,-0.727513761556301,-0.902577239734255,2.61705109019401,-0.144963141214248,22.7313954696168,386.830327509884
0.63,0.561822360722432,0.0826528608525613,1.26358802732631,-0.63941279497248,-0.352910254483302,-0.444893484662756,-0.0793793621759593,-1.41393151957139,2.61705109019401,-0.144963141214248,51.7115333565996,386.830327509884
0.64,0.542456131994694,0.0150168989115147,1.38019533107045,-0.408763421109023,-0.284668780278591,-0.462004164403594,-0.337417597110115,-1.39934843820467,2.61705109019401,-0.144963141214248,98.7073869727247,386.830327509884
0.65,0.532918847376803,-0.00464105132025594,1.49610234569343,-0.290633928589255,-0.262877343020676,-0.463594154161986,-0.497713124678818,-1.44051100473376,2.61705109019401,-0.144963141214248,148.766531505313,386.830327509884
0.66,0.571826375827451,-0.11135971458252,1.26253727456367,0.174872999048739,-0.189992139894133,-0.550717147819373,-0.783661148971837,-1.0052144741552,2.61705109019401,-0.144963141214248,148.800122734274,386.830327509884
0.67,0.55234343457933,-0.0731521467668087,1.37949496217949,-0.0550762713867286,-0.213305465033408,-0.51471864633639,-0.6432020355682,-1.22160995730609,2.61705109019401,-0.144963141214248,101.825199823184,386.830327509884
0.68,0.57188469886645,-0.0726272305563112,1.20353324050956,0.0595481790563531,-0.223546390977111,-0.531369771907434,-0.65429115355155,-1.01189986314089,2.61705109019401,-0.144963141214248,53.9212088653544,386.830327509884
0.69,0.571826375827451,-0.0725106243410767,1.26253727456367,0.0595483387531699,-0.223618110783392,-0.53126089190148,-0.683841471192727,-1.06297093873158,2.61705109019401,-0.144963141214248,13.0194008968683,386.830327509884
0.7,0.571768061647399,0.0628203623079624,1.3215412554368,-0.403857160743152,-0.340725132172819,-0.463434459817504,-0.312289314006166,-1.34612305546802,2.61705109019401,-0.144963141214248,-0.144963141214248,386.830327509884
0.71,0.600963349650193,-0.0725107040716136,1.20458343487018,0.293704511478506,-0.238210311909038,-0.556480545147753,-0.857491970320875,-0.895539564989556,2.61705109019401,-0.144963141214248,-0.144963141214248,386.830327509884
0.72,0.601021668260551,-0.0243572360004391,1.26288728616845,0.17978011121773,-0.279918927665952,-0.532414983446766,-0.788083809199751,-1.00305986642502,2.61705109019401,-0.144963141214248,-0.144963141214248,386.830327509884
0.73,0.601196579794109,0.0144921111571516,1.26218728955106,-0.0536752128144246,-0.313632719469255,-0.513109994173029,-0.585665137506166,-1.1193722031053,2.61705109019401,-0.144963141214248,-0.144963141214248,386.830327509884
0.74,0.610850616799037,-0.0530861478773443,1.2042333169001,0.294405786083226,-0.259975011052488,-0.555310371565738,-0.857923616326283,-0.894885309389493,2.61705109019401,-0.144963141214248,-0.144963141214248,386.830327509884
0.75,0.639871064142075,-0.0920521322545378,1.0879752536281,0.411133687667888,-0.240781773801709,-0.599943923366027,-0.90073394672978,-0.735798490655639,2.61705109019401,-0.144963141214248,-0.144963141214248,386.830327509884
0.76,0.649583437472478,-0.0729189166228901,1.0883250525156,0.295807164082552,-0.262206712397728,-0.598768277895207,-0.801087841142596,-0.79385865809295,2.61705109019401,-0.144963141214248,-0.144963141214248,386.830327509884
0.77,0.601371411596586,-0.0243571695575,1.37879547078647,0.061651044589528,-0.28009414232394,-0.532717671783412,-0.743885470396006,-1.16254557265252,2.61705109019401,-0.144963141214248,-0.144963141214248,386.830327509884
0.78,0.620796105108151,0.0150167748851373,1.32084133858922,-0.291334351410869,-0.32390260494517,-0.529811674234472,-0.409333309792078,-1.28916398783584,2.61705109019401,-0.144963141214248,-0.144963141214248,386.830327509884
0.79,0.601254827531777,0.102078360533911,1.4964532879738,-0.756145008664967,-0.389472486537723,-0.469295793236718,-0.0949640794066406,-1.67395028027687,2.61705109019401,-0.144963141214248,-0.144963141214248,386.830327509884
0.8,0.649816641040663,0.015191566820406,1.26358667119617,-0.292034561276693,-0.338587852886852,-0.554842965669837,-0.380053172450685,-1.23995767940477,2.61705109019401,-0.144963141214248,-0.144963141214248,386.830327509884
0.81,0.649991450694937,0.0632290000887344,1.32119119065104,-0.523389788040768,-0.380254374907983,-0.53093634532971,-0.208652096998936,-1.40568393847878,2.61705109019401,-0.144963141214248,-0.144963141214248,386.830327509884
0.82,0.640337338388123,-0.179463771307507,1.37914561534537,0.643891197446671,-0.165355830467969,-0.644124678518179,-1.2480209034514,-0.871253308185413,2.61705109019401,-0.144963141214248,-0.144963141214248,386.830327509884
0.83,0.659645571860144,-0.179463851033035,1.26358643188673,0.643891570072577,-0.175025638655781,-0.660837029921477,-1.19014730839028,-0.771230451415236,2.61705109019401,-0.144963141214248,-0.144963141214248,386.830327509884
0.84,0.659762085053373,-0.17998820027034,1.32119119065104,0.646692356350367,-0.174630137973818,-0.66120048096003,-1.22142093870955,-0.819687779888037,2.61705109019401,-0.144963141214248,-0.144963141214248,386.830327509884
0.85,0.669532719411809,-0.160155732735678,1.26253727456367,0.64459236558025,-0.196689494659251,-0.659725066813261,-1.19022844944005,-0.769971379708718,2.61705109019401,-0.144963141214248,-0.144963141214248,386.830327509884
0.86,0.659762085053373,0.0352568924242919,1.3798451067384,-0.294833910169539,-0.36093630823477,-0.553402239546649,-0.435854300267861,-1.34198754916496,2.61705109019401,-0.144963141214248,-0.144963141214248,386.830327509884
