t,iq,id,vq,vd,ia,ib,va,vb,theta_e,omega,omega_obs,r
0,0,0,0,0,0,0,0,0,0,-0.144963141214248,0,0
0.01,-0.0335426156779685,0.0634602901047962,0.146001471615066,-0.406653208981466,-0.038129596953122,0.0608148774799165,0.278860248818537,-0.3300306405738,2.61705109019401,-0.144963141214248,33.7306340687792,-0.144963141214248
0.02,-0.0240064738759852,-0.228310564597416,0.088755206904517,0.996146358403079,0.209637869192422,-0.0935627516440723,-0.906668142027876,0.422063898413616,2.61705109019401,-0.144963141214248,33.7306340687792,-0.144963141214248
0.03,0.0148416064382081,-0.072390771286828,-0.086150949075172,0.292985615696327,0.0552251767419438,-0.0491006812884462,-0.210448966006379,0.22130022534637,2.61705109019401,-0.144963141214248,33.7306340687792,-0.144963141214248
0.04,-0.0241237135084733,-0.0916390560876873,0.0891071330381322,0.292281519594204,0.0914000650714484,-0.0250139612819758,-0.297611629564199,0.0692523342762831,2.61705109019401,-0.144963141214248,33.7306340687792,-0.144963141214248
0.05,0.00512958303817967,-0.0532012126179148,-0.027848879358281,0.177670750866626,0.0434795238684488,-0.0310839613037843,-0.139836390992172,0.113085098705829,2.61705109019401,-0.144963141214248,33.7306340687792,-0.144963141214248
0.06,0.00512958303817967,-0.00493403966601905,-0.027848879358281,-0.0543687681654676,0.00170169734792331,-0.00691097646555831,0.0610062558661876,-0.00312406442502543,2.61705109019401,-0.144963141214248,30.9839640247255,-0.144963141214248
0.07,-0.0144702789180928,0.189834144018039,0.0311567767309119,-1.10770278127961,-0.157064680608529,0.107596827612945,0.943172337572982,-0.581723420559952,2.61705109019401,-0.144963141214248,30.9839640247255,-0.144963141214248
0.08,0.0148416285858549,-0.0240651424156081,-0.0861510820293045,0.0609468952351076,0.0133967423966389,-0.0248984399455481,-0.00960694376834458,0.105091577231722,2.61705109019401,-0.144963141214248,30.9839640247255,-0.144963141214248
0.09,0.00518816741918853,-0.00475822008227366,-0.086854482269821,-0.0550731836879294,0.00152017605950557,-0.00687363108327671,0.0911669303995328,0.0475956663301378,2.61705109019401,-0.144963141214248,33.7022979868758,-0.144963141214248
0.1,-0.014470265629949,-0.0240651601346141,0.0311566969610995,0.0609470017130038,0.0280766308464147,0.000472567476722887,-0.0683566785867104,0.00355545720320948,2.61705109019401,-0.144963141214248,30.9839640247255,-0.144963141214248
0.11,0.0343243350704748,-0.111356547483473,-0.26176127642801,0.527140404335789,0.0791948783753719,-0.0854787218235002,-0.325173985507987,0.490568905322556,2.61705109019401,-0.144963141214248,30.9839640247255,-0.144963141214248
0.12,-0.00464105132025594,-0.00464105132025594,-0.027848879358281,-0.0557772798034009,0.00634139273981369,0.00169276484897846,0.0622253982203578,-0.0038294699498561,2.61705109019401,-0.144963141214248,30.9839640247255,104.8388696532
0.13,-0.00464105132025594,-0.00464105132025594,-0.027848879358281,-0.0557772798034009,0.00634139273981369,0.00169276484897846,0.0622253982203578,-0.0038294699498561,2.61705109019401,-0.144963141214248,30.9839640247255,104.838869653721
0.14,-0.00464105132025594,-0.00464105132025594,-0.027848879358281,-0.0557772798034009,0.00634139273981369,0.00169276484897846,0.0622253982203578,-0.0038294699498561,2.61705109019401,-0.144963141214248,30.9839640247255,104.838869653721
0.15,-0.00464105132025594,-0.00464105132025594,-0.027848879358281,-0.0557772798034009,0.00634139273981369,0.00169276484897846,0.0622253982203578,-0.0038294699498561,2.61705109019401,-0.144963141214248,30.9839640247255,104.838869653721
0.16,-0.00464105132025594,-0.00464105132025594,-0.027848879358281,-0.0557772798034009,0.00634139273981369,0.00169276484897846,0.0622253982203578,-0.0038294699498561,2.61705109019401,-0.144963141214248,30.9839640247255,104.838869653721
0.17,-0.00464105132025594,-0.00464105132025594,-0.027848879358281,-0.0557772798034009,0.00634139273981369,0.00169276484897846,0.0622253982203578,-0.0038294699498561,2.61705109019401,-0.144963141214248,30.9839640247255,104.838869653721
0.18,-0.00464105132025594,-0.00464105132025594,-0.027848879358281,-0.0557772798034009,0.00634139273981369,0.00169276484897846,0.0622253982203578,-0.0038294699498561,2.61705109019401,-0.144963141214248,30.9839640247255,104.838869653721
0.19,-0.00464105132025594,-0.00464105132025594,-0.027848879358281,-0.0557772798034009,0.00634139273981369,0.00169276484897846,0.0622253982203578,-0.0038294699498561,2.61705109019401,-0.144963141214248,30.9839640247255,104.838869653721
0.2,-0.00464105132025594,-0.00464105132025594,-0.027848879358281,-0.0557772798034009,0.00634139273981369,0.00169276484897846,0.0622253982203578,-0.0038294699498561,2.61705109019401,-0.144963141214248,30.9839640247255,104.838869653721
0.21,-0.00464105132025594,-0.00464105132025594,-0.027848879358281,-0.0557772798034009,0.00634139273981369,0.00169276484897846,0.0622253982203578,-0.0038294699498561,2.61705109019401,-0.144963141214248,30.9839640247255,104.838869653721
0.22,-0.00464105132025594,-0.00464105132025594,-0.027848879358281,-0.0557772798034009,0.00634139273981369,0.00169276484897846,0.0622253982203578,-0.0038294699498561,2.61705109019401,-0.144963141214248,30.9839640247255,104.838869653721
0.23,-0.00464105132025594,-0.00464105132025594,-0.027848879358281,-0.0557772798034009,0.00634139273981369,0.00169276484897846,0.0622253982203578,-0.0038294699498561,2.61705109019401,-0.144963141214248,30.9839640247255,104.838869653721
0.24,-0.00464105132025594,-0.00464105132025594,-0.027848879358281,-0.0557772798034009,0.00634139273981369,0.00169276484897846,0.0622253982203578,-0.0038294699498561,2.61705109019401,-0.144963141214248,30.9839640247255,104.838869653721
0.25,-0.00464105132025594,-0.00464105132025594,-0.027848879358281,-0.0557772798034009,0.00634139273981369,0.00169276484897846,0.0622253982203578,-0.0038294699498561,2.61705109019401,-0.144963141214248,30.9839640247255,104.838869653721
0.26,-0.00464105132025594,-0.00464105132025594,-0.027848879358281,-0.0557772798034009,0.00634139273981369,0.00169276484897846,0.0622253982203578,-0.0038294699498561,2.61705109019401,-0.144963141214248,30.9839640247255,104.838869653721
0.27,-0.00464105132025594,-0.00464105132025594,-0.027848879358281,-0.0557772798034009,0.00634139273981369,0.00169276484897846,0.0622253982203578,-0.0038294699498561,2.61705109019401,-0.144963141214248,30.9839640247255,104.838869653721
0.28,-0.00464105132025594,-0.00464105132025594,-0.027848879358281,-0.0557772798034009,0.00634139273981369,0.00169276484897846,0.0622253982203578,-0.0038294699498561,2.61705109019401,-0.144963141214248,30.9839640247255,104.838869653721
0.29,-0.00464105132025594,-0.00464105132025594,-0.027848879358281,-0.0557772798034009,0.00634139273981369,0.00169276484897846,0.0622253982203578,-0.0038294699498561,2.61705109019401,-0.144963141214248,30.9839640247255,104.838869653721
0.3,-0.00464105132025594,-0.00464105132025594,-0.027848879358281,-0.0557772798034009,0.00634139273981369,0.00169276484897846,0.0622253982203578,-0.0038294699498561,2.61705109019401,-0.144963141214248,30.9839640247255,104.838869653721
0.31,-0.00464105132025594,-0.00464105132025594,-0.027848879358281,-0.0557772798034009,0.00634139273981369,0.00169276484897846,0.0622253982203578,-0.0038294699498561,2.61705109019401,-0.144963141214248,30.9839640247255,104.838869653721
0.32,-0.00464105132025594,-0.00464105132025594,-0.027848879358281,-0.0557772798034009,0.00634139273981369,0.00169276484897846,0.0622253982203578,-0.0038294699498561,2.61705109019401,-0.144963141214248,30.9839640247255,104.838869653721
0.33,-0.00464105132025594,-0.00464105132025594,-0.027848879358281,-0.0557772798034009,0.00634139273981369,0.00169276484897846,0.0622253982203578,-0.0038294699498561,2.61705109019401,-0.144963141214248,30.9839640247255,104.838869653721
0.34,-0.00464105132025594,-0.00464105132025594,-0.027848879358281,-0.0557772798034009,0.00634139273981369,0.00169276484897846,0.0622253982203578,-0.0038294699498561,2.61705109019401,-0.144963141214248,30.9839640247255,104.838869653721
0.35,-0.00464105132025594,-0.00464105132025594,-0.027848879358281,-0.0557772798034009,0.00634139273981369,0.00169276484897846,0.0622253982203578,-0.0038294699498561,2.61705109019401,-0.144963141214248,30.9839640247255,104.838869653721
0.36,-0.00464105132025594,-0.00464105132025594,-0.027848879358281,-0.0557772798034009,0.00634139273981369,0.00169276484897846,0.0622253982203578,-0.0038294699498561,2.61705109019401,-0.144963141214248,30.9839640247255,104.838869653721
0.37,-0.00464105132025594,-0.00464105132025594,-0.027848879358281,-0.0557772798034009,0.00634139273981369,0.00169276484897846,0.0622253982203578,-0.0038294699498561,2.61705109019401,-0.144963141214248,30.9839640247255,104.838869653721
0.38,-0.00464105132025594,-0.00464105132025594,-0.027848879358281,-0.0557772798034009,0.00634139273981369,0.00169276484897846,0.0622253982203578,-0.0038294699498561,2.61705109019401,-0.144963141214248,30.9839640247255,104.838869653721
0.39,-0.00464105132025594,-0.00464105132025594,-0.027848879358281,-0.0557772798034009,0.00634139273981369,0.00169276484897846,0.0622253982203578,-0.0038294699498561,2.61705109019401,-0.144963141214248,30.9839640247255,104.838869653721
0.4,-0.00464105132025594,-0.00464105132025594,-0.027848879358281,-0.0557772798034009,0.00634139273981369,0.00169276484897846,0.0622253982203578,-0.0038294699498561,2.61705109019401,-0.144963141214248,30.9839640247255,104.838869653721
0.41,-0.00464105132025594,-0.00464105132025594,-0.027848879358281,-0.0557772798034009,0.00634139273981369,0.00169276484897846,0.0622253982203578,-0.0038294699498561,2.61705109019401,-0.144963141214248,30.9839640247255,104.838869653721
0.42,-0.00464105132025594,-0.00464105132025594,-0.027848879358281,-0.0557772798034009,0.00634139273981369,0.00169276484897846,0.0622253982203578,-0.0038294699498561,2.61705109019401,-0.144963141214248,30.9839640247255,104.838869653721
0.43,-0.00464105132025594,-0.00464105132025594,-0.027848879358281,-0.0557772798034009,0.00634139273981369,0.00169276484897846,0.0622253982203578,-0.0038294699498561,2.61705109019401,-0.144963141214248,30.9839640247255,104.838869653721
0.44,-0.00464105132025594,-0.00464105132025594,-0.027848879358281,-0.0557772798034009,0.00634139273981369,0.00169276484897846,0.0622253982203578,-0.0038294699498561,2.61705109019401,-0.144963141214248,30.9839640247255,104.838869653721
0.45,-0.00464105132025594,-0.00464105132025594,-0.027848879358281,-0.0557772798034009,0.00634139273981369,0.00169276484897846,0.0622253982203578,-0.0038294699498561,2.61705109019401,-0.144963141214248,30.9839640247255,104.838869653721
0.46,-0.00464105132025594,-0.00464105132025594,-0.027848879358281,-0.0557772798034009,0.00634139273981369,0.00169276484897846,0.0622253982203578,-0.0038294699498561,2.61705109019401,-0.144963141214248,30.9839640247255,104.838869653721
0.47,-0.00464105132025594,-0.00464105132025594,-0.027848879358281,-0.0557772798034009,0.00634139273981369,0.00169276484897846,0.0622253982203578,-0.0038294699498561,2.61705109019401,-0.144963141214248,30.9839640247255,104.838869653721
0.48,-0.00464105132025594,-0.00464105132025594,-0.027848879358281,-0.0557772798034009,0.00634139273981369,0.00169276484897846,0.0622253982203578,-0.0038294699498561,2.61705109019401,-0.144963141214248,30.9839640247255,104.838869653721
0.49,-0.00464105132025594,-0.00464105132025594,-0.027848879358281,-0.0557772798034009,0.00634139273981369,0.00169276484897846,0.0622253982203578,-0.0038294699498561,2.61705109019401,-0.144963141214248,30.9839640247255,104.838869653721
0.5,-0.00464105132025594,-0.00464105132025594,-0.027848879358281,-0.0557772798034009,0.00634139273981369,0.00169276484897846,0.0622253982203578,-0.0038294699498561,2.61705109019401,-0.144963141214248,30.9839640247255,104.838869653721
0.51,-0.00464105132025594,-0.00464105132025594,-0.027848879358281,-0.0557772798034009,0.00634139273981369,0.00169276484897846,0.0622253982203578,-0.0038294699498561,2.61705109019401,-0.144963141214248,30.9839640247255,104.838869653721
0.52,-0.00464105132025594,-0.00464105132025594,-0.027848879358281,-0.0557772798034009,0.00634139273981369,0.00169276484897846,0.0622253982203578,-0.0038294699498561,2.61705109019401,-0.144963141214248,30.9839640247255,104.838869653721
0.53,-0.00464105132025594,-0.00464105132025594,-0.027848879358281,-0.0557772798034009,0.00634139273981369,0.00169276484897846,0.0622253982203578,-0.0038294699498561,2.61705109019401,-0.144963141214248,30.9839640247255,104.838869653721
0.54,-0.00464105132025594,-0.00464105132025594,-0.027848879358281,-0.0557772798034009,0.00634139273981369,0.00169276484897846,0.0622253982203578,-0.0038294699498561,2.61705109019401,-0.144963141214248,30.9839640247255,104.838869653721
0.55,-0.00464105132025594,-0.00464105132025594,-0.027848879358281,-0.0557772798034009,0.00634139273981369,0.00169276484897846,0.0622253982203578,-0.0038294699498561,2.61705109019401,-0.144963141214248,30.9839640247255,104.838869653721
0.56,-0.00464105132025594,-0.00464105132025594,-0.027848879358281,-0.0557772798034009,0.00634139273981369,0.00169276484897846,0.0622253982203578,-0.0038294699498561,2.61705109019401,-0.144963141214248,30.9839640247255,104.838869653721
0.57,-0.00464105132025594,-0.00464105132025594,-0.027848879358281,-0.0557772798034009,0.00634139273981369,0.00169276484897846,0.0622253982203578,-0.0038294699498561,2.61705109019401,-0.144963141214248,30.9839640247255,104.838869653721
0.58,-0.00464105132025594,-0.00464105132025594,-0.027848879358281,-0.0557772798034009,0.00634139273981369,0.00169276484897846,0.0622253982203578,-0.0038294699498561,2.61705109019401,-0.144963141214248,30.9839640247255,104.838869653721
0.59,-0.00464105132025594,-0.00464105132025594,-0.027848879358281,-0.0557772798034009,0.00634139273981369,0.00169276484897846,0.0622253982203578,-0.0038294699498561,2.61705109019401,-0.144963141214248,30.9839640247255,104.838869653721
0.6,-0.00464105132025594,-0.00464105132025594,-0.027848879358281,-0.0557772798034009,0.00634139273981369,0.00169276484897846,0.0622253982203578,-0.0038294699498561,2.61705109019401,-0.144963141214248,30.9839640247255,104.838869653721
0.61,-0.00464105132025594,-0.00464105132025594,-0.027848879358281,-0.0557772798034009,0.00634139273981369,0.00169276484897846,0.0622253982203578,-0.0038294699498561,2.61705109019401,-0.144963141214248,30.9839640247255,104.838869653721
0.62,-0.00464105132025594,-0.00464105132025594,-0.027848879358281,-0.0557772798034009,0.00634139273981369,0.00169276484897846,0.0622253982203578,-0.0038294699498561,2.61705109019401,-0.144963141214248,30.9839640247255,104.838869653721
0.63,-0.00464105132025594,-0.00464105132025594,-0.027848879358281,-0.0557772798034009,0.00634139273981369,0.00169276484897846,0.0622253982203578,-0.0038294699498561,2.61705109019401,-0.144963141214248,30.9839640247255,104.838869653721
0.64,-0.00464105132025594,-0.00464105132025594,-0.027848879358281,-0.0557772798034009,0.00634139273981369,0.00169276484897846,0.0622253982203578,-0.0038294699498561,2.61705109019401,-0.144963141214248,30.9839640247255,104.838869653721
0.65,-0.00475772397676333,-0.00440770600724118,-0.0271484838718236,-0.0571795095925347,0.00619785142123212,0.00191061441574945,0.0630883338523858,-0.00513795927497897,2.61705109019401,-0.144963141214248,30.9839640247255,104.838869653721
0.66,0.132206161596345,-0.00452438752325142,0.499686194276905,-0.0564783414590205,-0.0622948948289786,-0.116697409246075,-0.201365935729674,-0.460790468361284,2.61705109019401,-0.144963141214248,38.9187885964366,104.838869653721
0.67,0.151864080820968,0.0342081762384832,0.440682160222793,-0.28923191175591,-0.105665011305183,-0.114314494929717,0.0296449402044359,-0.526286084403608,2.61705109019401,-0.144963141214248,51.7365821353524,104.838869653721
0.68,0.151864067531714,-0.0920518531951836,0.441032331373862,0.411132197057411,0.00361982152839041,-0.177547558631616,-0.576733124454546,-0.175835445605302,2.61705109019401,-0.144963141214248,69.7425302019255,104.838869653721
0.69,0.142151738493272,-0.0238324083816411,0.557640007391565,0.059548338773195,-0.0505636739658055,-0.134975610096819,-0.330817461106128,-0.452844553816879,2.61705109019401,-0.144963141214248,93.8263238909842,104.838869653721
0.7,0.151747412595323,0.0346164286553085,0.499686300638875,-0.291334777302435,-0.105959946320567,-0.114009052877243,0.00191485041844952,-0.578410481284614,2.61705109019401,-0.144963141214248,103.92331297237,104.838869653721
0.71,0.151805717916425,0.0343248666117769,0.499686327231041,-0.289933133115035,-0.105736783989465,-0.114205538270273,0.000701638893193801,-0.577708538107592,2.61705109019401,-0.144963141214248,101.787014049217,104.838869653721
0.72,0.141452021487453,-0.0244738466426459,0.560790351143973,0.0630525290600734,-0.0496580451027237,-0.134691210214143,-0.335428269074601,-0.45381638981274,2.61705109019401,-0.144963141214248,82.8964799378036,104.838869653721
0.73,0.141976764947632,0.0144921111571516,0.558340296502723,-0.17110353720735,-0.0836479711857777,-0.115630618727436,-0.131526609892006,-0.568964900528962,2.61705109019401,-0.144963141214248,61.8403779501709,104.838869653721
0.74,0.14186016759468,0.0144921421654116,0.559040239935789,-0.171103696924192,-0.0835896041753419,-0.115529681936473,-0.131877014697969,-0.569570819093589,2.61705109019401,-0.144963141214248,43.8361315666996,104.838869653721
0.75,0.161576316839071,0.0630538847932746,0.44103251750565,-0.287831598462132,-0.13549656459109,-0.108274556267001,0.0282574293341581,-0.525888037759048,2.61705109019401,-0.144963141214248,27.9681841067203,104.838869653721
0.76,0.132322692507468,-0.00504906454271519,0.61629448187429,-0.0536756919249003,-0.0618991193073888,-0.117061039779049,-0.262191105189326,-0.560317581958586,2.61705109019401,-0.144963141214248,14.8469066907986,104.838869653721
0.77,0.15180566476163,-0.00452448497334187,0.499686486777331,-0.0557772798034009,-0.0721105602724549,-0.133661879065001,-0.201972888676063,-0.460439618462601,2.61705109019401,-0.144963141214248,4.73800582599233,104.838869653721
0.78,0.151863934645832,-0.00464105132025594,0.557640725339886,-0.0557772798034009,-0.0720388483535572,-0.133770693095925,-0.230997313443591,-0.51060211973875,2.61705109019401,-0.144963141214248,-0.144963141214248,104.838869653721
0.79,0.161518007087112,-0.0249981604325801,0.500036365427974,0.065853262045955,-0.059253595179129,-0.15232198165975,-0.307425870009149,-0.399827904631016,2.61705109019401,-0.144963141214248,-0.144963141214248,104.838869653721
0.8,0.18111754126065,-0.00493240074682363,0.440682851578948,-0.0543766471026123,-0.086437351536166,-0.159237170876789,-0.173635231726041,-0.408667348499142,2.61705109019401,-0.144963141214248,-0.144963141214248,104.838869653721
0.81,0.161576263684276,-0.0240657891260047,0.499686593139301,0.060950781478081,-0.060089788394319,-0.151905459161789,-0.303007338533764,-0.401980399920985,2.61705109019401,-0.144963141214248,-0.144963141214248,104.838869653721
0.82,0.112897866110025,0.0243795466259975,0.791557217382216,-0.171805184451327,0.035101847653081,-0.110037042659398,0.543290710818741,-0.600762060496748,-2.62011914539939,-0.144963141214248,-0.144963141214248,104.838869653721
0.83,0.19065512265634,-0.0240075502489512,0.383078252357603,0.0609508879559756,0.115793051429317,-0.153354841804057,0.137983958430244,-0.362525013465137,-2.62011914539939,-0.144963141214248,-0.144963141214248,104.838869653721
0.84,0.190363870676535,-0.0237745548652063,0.443130911934888,0.0595507343657019,0.115445934773364,-0.153218369859151,0.169113745124714,-0.413898340520511,-2.62011914539939,-0.144963141214248,-0.144963141214248,104.838869653721
0.85,0.151980337103046,0.00512958303817967,0.615945533895916,-0.0557772798034009,0.0712624818787036,-0.134335379422506,0.355202105567124,-0.506291882089051,-2.62011914539939,-0.144963141214248,-0.144963141214248,104.838869653721
