t,iq,id,vq,vd,ia,ib,va,vb,theta_e,omega,omega_obs,r
0,0,0,0,0,0,0,0,0,0,-0.144963141214248,0,0
0.01,-0.0144116856786916,-0.0241823200371289,0.0308050367290811,0.061651044589528,0.028148701232893,0.000363187803842209,-0.0687899482899617,0.00421243410920552,2.61705109019401,-0.144963141214248,189.985641019381,-0.144963141214248
0.02,-0.0144116856786916,0.015193294840209,0.0308050367290811,-0.174614544163008,-0.0059330049636543,0.0200831358184966,0.135710588534736,-0.114113213436001,2.61705109019401,-0.144963141214248,187.849342096228,-0.144963141214248
0.03,0.00512958303817967,-0.0049341068844592,-0.086502795445643,-0.0543684450196613,0.00170175552908786,-0.00691101012964583,0.0903808108119678,0.0476442071057749,2.61705109019401,-0.144963141214248,187.849342096228,-0.144963141214248
0.04,0.0050123695653653,-0.00452383784744156,-0.0274970583328208,-0.0564816445971251,0.0014053480894322,-0.00660408618033368,0.0626588660322391,-0.00448674725256538,2.61705109019401,-0.144963141214248,187.849342096228,-0.144963141214248
0.05,-0.0144116856786916,0.0632259679440312,0.0308050367290811,-0.405245004173169,-0.0475078592906006,0.0441386793208129,0.335333619248721,-0.229616696903221,2.61705109019401,-0.144963141214248,187.849342096228,-0.144963141214248
0.06,-0.0239479281007466,-0.140492364592827,0.0884036473625866,0.527138784536596,0.133597187155137,-0.0496326440302905,-0.500540869547681,0.187481574940525,2.61705109019401,-0.144963141214248,189.985641019381,-0.144963141214248
0.07,0.0148416237883977,-0.0243581008617817,-0.14445322710127,0.0623552516021656,0.0136503160443647,-0.0250451541452239,0.018372710275711,0.15626053801093,2.61705109019401,-0.144963141214248,189.985641019381,-0.144963141214248
0.08,-0.0241237308053449,-0.00475822978382409,0.0891072368726652,-0.0550731253889096,0.0162000595773806,0.0184973838240367,0.00304239058476075,-0.104708608350573,2.61705109019401,-0.144963141214248,189.985641019381,-0.144963141214248
0.09,0.00512958303817967,-0.0534942231124358,-0.027848879358281,0.179079368982457,0.0437331401641657,-0.031230705722575,-0.141055625508672,0.113790557556522,2.61705109019401,-0.144963141214248,189.985641019381,-0.144963141214248
0.1,-0.0240065785987113,0.0342071641955963,0.0301017099232072,-0.172501554971451,-0.0175852501633843,0.0379104850273877,0.134233920577802,-0.112446227034,2.61705109019401,-0.144963141214248,189.985641019381,-0.144963141214248
0.11,0.00518815914177408,0.122025738717841,-0.0868544325798261,-0.758235236260755,-0.10821813493554,0.0566218436293651,0.699791369131961,-0.304559363104441,2.61705109019401,-0.144963141214248,189.985641019381,-0.144963141214248
0.12,-0.0142945422243698,-0.0235380310383593,0.0301018150048908,0.0581313244132409,0.0275323672082227,0.000584464266349559,-0.0653912568611935,0.00305837714148105,2.61705109019401,-0.144963141214248,187.849342096228,-0.144963141214248
0.13,0.0149587847478982,0.0144902459376351,-0.145508296126344,-0.171093929864963,-0.0200336874690217,-0.0056906796483958,0.220963891283644,0.040258611836703,2.61705109019401,-0.144963141214248,187.881386580107,-0.144963141214248
0.14,0.00530527196272814,-0.00528524404360034,-0.029255112643301,-0.052258085575186,0.00191769570069355,-0.0072389335125047,0.0598836113874466,-0.000849829955326082,2.61705109019401,-0.144963141214248,189.985641019381,-0.144963141214248
0.15,0.0051881416371509,-0.0050509615130545,-0.0285519434632817,-0.0536659210408909,0.00177357237819046,-0.00702021843483637,0.0607500099223271,-0.00216352747491818,2.61705109019401,-0.144963141214248,189.985641019381,-0.144963141214248
0.16,0.0343243776684109,-0.111591041260209,-0.261761532146899,0.528549407537139,0.0793978239801436,-0.085596196989583,-0.326393425268478,0.491274778368748,2.61705109019401,-0.144963141214248,189.985641019381,-0.144963141214248
0.17,0.00501248334486001,-0.00347005438705932,-0.0274973998466207,-0.0614067283198451,0.000493185012636133,-0.00607643277548265,0.0669219611378887,-0.00695301364381751,2.61705109019401,-0.144963141214248,189.985641019381,-0.144963141214248
0.18,-0.0142945947382392,0.0144903991050321,0.0304535834895096,-0.171094718797104,-0.00538325205841504,0.0196297657201807,0.132840004425204,-0.112046226049449,2.61705109019401,-0.144963141214248,189.985641019381,-0.144963141214248
0.19,0.0147245941135708,-0.0725086219801735,-0.144102430620546,0.176968641357643,0.0553857845110994,-0.0490584223896688,-0.0810070092890569,0.213357153572975,2.61705109019401,-0.144963141214248,192.691111012727,-0.144963141214248
0.2,0.034324412677657,-0.11188388239139,-0.261761742310263,0.529957295607654,0.0796512761496085,-0.08574288689084,-0.32761192263838,0.491980053508541,2.61705109019401,-0.144963141214248,189.985641019381,-0.144963141214248
0.21,0.0148416850545788,0.0147831527125423,-0.0861514210156663,-0.172502133511006,-0.0202285685598815,-0.00544263111002622,0.192455879102441,-0.011823197865818,2.61705109019401,-0.144963141214248,189.985641019381,-0.144963141214248
0.22,0.0246123237888957,-0.0924597046138679,-0.20345927945916,0.413232599674501,0.0677025806539673,-0.0676086091586434,-0.255779260089843,0.383058520254646,2.61705109019401,-0.144963141214248,187.849342096228,-0.144963141214248
0.23,0.00518810662790479,-0.0517385154206823,-0.028551523136554,0.170638983033989,0.0421841714419154,-0.030402074075263,-0.133398123427733,0.110171650937302,2.61705109019401,-0.144963141214248,187.849342096228,-0.144963141214248
0.24,-0.0142946472510045,0.150752790993219,0.0304537411087191,-0.756127348735811,-0.123325633019069,0.087872232091383,0.639217039116218,-0.405040213753226,2.61705109019401,-0.144963141214248,189.985641019381,-0.144963141214248
0.25,0.00489552368852585,-0.00347075457198685,-0.0267950713133966,-0.0614033622521041,0.000552366357409143,-0.00597554858494916,0.0665673100793675,-0.00755923087029874,2.61705109019401,-0.144963141214248,189.985641019381,-0.144963141214248
0.26,0.0149002173966153,-0.0725088976755178,-0.086502795445643,0.293694862517073,0.0552980681451497,-0.0492105718316653,-0.210886646781254,0.221959969585039,2.61705109019401,-0.144963141214248,189.985641019381,-0.144963141214248
0.27,-0.0144116856786916,-0.0241823200371289,0.0308050367290811,0.061651044589528,0.028148701232893,0.000363187803842209,-0.0687899482899617,0.00421243410920552,2.61705109019401,-0.144963141214248,189.985641019381,-0.144963141214248
0.28,-0.0144701873879123,-0.0230122858527141,0.0311562272677627,0.0560262243898178,0.0271652725100865,0.000999796309786158,-0.0640972467063927,0.00109145847311087,2.61705109019401,-0.144963141214248,189.985641019381,-0.144963141214248
0.29,0.0051880803709698,-0.0527922551189542,-0.0282000436248922,0.175564119348194,0.0430962528075376,-0.0309297813188067,-0.137837119671509,0.112334014900275,2.61705109019401,-0.144963141214248,189.985641019381,-0.144963141214248
0.3,0.00518807599508848,-0.00423160062189428,-0.0285511553539575,-0.0578862718094293,0.00106440446321585,-0.00660981236441063,0.064402555131153,-0.00427782989607315,2.61705109019401,-0.144963141214248,189.985641019381,-0.144963141214248
0.31,0.00524656019913715,-0.0537281774343507,-0.0289022145355943,0.180485258456933,0.04387705611183,-0.0314491238558338,-0.1417449708601,0.115406367940408,2.61705109019401,-0.144963141214248,189.985641019381,-0.144963141214248
0.32,-0.0142947172694967,0.0144908279644334,0.0304539512720829,-0.171096927759141,-0.00538356189357882,0.0196300865573144,0.132841732208812,-0.112047650669086,2.61705109019401,-0.144963141214248,189.985641019381,-0.144963141214248
0.33,0.00512958303817967,-0.00493345046109269,-0.027848879358281,-0.0543716007081537,0.00170118735946339,-0.00691068138215316,0.0610087075837777,-0.00312548300844801,2.61705109019401,-0.144963141214248,189.985641019381,-0.144963141214248
0.34,-0.0240068936802709,-0.00464105132025594,0.0884058540679691,-0.0557772798034009,0.0160401214019349,0.0184549399062762,0.00400313790099997,-0.10445417589881,2.61705109019401,-0.144963141214248,189.985641019381,-0.144963141214248
0.35,0.024553909603339,-0.0918166365600508,-0.203108614332182,0.409719611620256,0.0671752255425165,-0.0672359896136097,-0.252914199340605,0.380995639258632,2.61705109019401,-0.144963141214248,189.985641019381,-0.144963141214248
0.36,0.00501264963823149,0.0826515242059495,-0.0274978989829663,-0.521977168542645,-0.0740497428179517,0.0370545098275168,0.465570625249668,-0.237613745042047,2.61705109019401,-0.144963141214248,189.985641019381,74.7779396696927
0.37,-0.0143532233551475,-0.0240653953900409,0.0304540826258336,0.0609484154211399,0.02801821779876,0.000371143291739711,-0.068006021546218,0.00416431559614245,2.61705109019401,-0.144963141214248,192.732311063434,-0.144963141214248
0.38,-0.00464105132025594,-0.00464105132025594,-0.027848879358281,-0.0557772798034009,0.00634139273981369,0.00169276484897846,0.0622253982203578,-0.0038294699498561,2.61705109019401,-0.144963141214248,189.985641019381,87.7484782684987
0.39,-0.00464105132025594,-0.00464105132025594,-0.027848879358281,-0.0557772798034009,0.00634139273981369,0.00169276484897846,0.0622253982203578,-0.0038294699498561,2.61705109019401,-0.144963141214248,189.985641019381,87.7484782684987
0.4,-0.00464105132025594,-0.00464105132025594,-0.027848879358281,-0.0557772798034009,0.00634139273981369,0.00169276484897846,0.0622253982203578,-0.0038294699498561,2.61705109019401,-0.144963141214248,189.985641019381,87.7484782684987
0.41,-0.00464105132025594,-0.00464105132025594,-0.027848879358281,-0.0557772798034009,0.00634139273981369,0.00169276484897846,0.0622253982203578,-0.0038294699498561,2.61705109019401,-0.144963141214248,189.985641019381,87.7484782684987
0.42,-0.00464105132025594,-0.00464105132025594,-0.027848879358281,-0.0557772798034009,0.00634139273981369,0.00169276484897846,0.0622253982203578,-0.0038294699498561,2.61705109019401,-0.144963141214248,189.985641019381,87.7484782684987
0.43,-0.00464105132025594,-0.00464105132025594,-0.027848879358281,-0.0557772798034009,0.00634139273981369,0.00169276484897846,0.0622253982203578,-0.0038294699498561,2.61705109019401,-0.144963141214248,189.985641019381,87.7484782684987
0.44,-0.00464105132025594,-0.00464105132025594,-0.027848879358281,-0.0557772798034009,0.00634139273981369,0.00169276484897846,0.0622253982203578,-0.0038294699498561,2.61705109019401,-0.144963141214248,189.985641019381,87.7484782684987
0.45,-0.00464105132025594,-0.00464105132025594,-0.027848879358281,-0.0557772798034009,0.00634139273981369,0.00169276484897846,0.0622253982203578,-0.0038294699498561,2.61705109019401,-0.144963141214248,189.985641019381,87.7484782684987
0.46,-0.00464105132025594,-0.00464105132025594,-0.027848879358281,-0.0557772798034009,0.00634139273981369,0.00169276484897846,0.0622253982203578,-0.0038294699498561,2.61705109019401,-0.144963141214248,189.985641019381,87.7484782684987
0.47,-0.00464105132025594,-0.00464105132025594,-0.027848879358281,-0.0557772798034009,0.00634139273981369,0.00169276484897846,0.0622253982203578,-0.0038294699498561,2.61705109019401,-0.144963141214248,189.985641019381,87.7484782684987
0.48,-0.00464105132025594,-0.00464105132025594,-0.027848879358281,-0.0557772798034009,0.00634139273981369,0.00169276484897846,0.0622253982203578,-0.0038294699498561,2.61705109019401,-0.144963141214248,189.985641019381,87.7484782684987
0.49,-0.00464105132025594,-0.00464105132025594,-0.027848879358281,-0.0557772798034009,0.00634139273981369,0.00169276484897846,0.0622253982203578,-0.0038294699498561,2.61705109019401,-0.144963141214248,189.985641019381,87.7484782684987
0.5,-0.00464105132025594,-0.00464105132025594,-0.027848879358281,-0.0557772798034009,0.00634139273981369,0.00169276484897846,0.0622253982203578,-0.0038294699498561,2.61705109019401,-0.144963141214248,189.985641019381,87.7484782684987
0.51,-0.00464105132025594,-0.00464105132025594,-0.027848879358281,-0.0557772798034009,0.00634139273981369,0.00169276484897846,0.0622253982203578,-0.0038294699498561,2.61705109019401,-0.144963141214248,189.985641019381,87.7484782684987
0.52,-0.00464105132025594,-0.00464105132025594,-0.027848879358281,-0.0557772798034009,0.00634139273981369,0.00169276484897846,0.0622253982203578,-0.0038294699498561,2.61705109019401,-0.144963141214248,189.985641019381,87.7484782684987
0.53,-0.00464105132025594,-0.00464105132025594,-0.027848879358281,-0.0557772798034009,0.00634139273981369,0.00169276484897846,0.0622253982203578,-0.0038294699498561,2.61705109019401,-0.144963141214248,189.985641019381,87.7484782684987
0.54,-0.00464105132025594,-0.00464105132025594,-0.027848879358281,-0.0557772798034009,0.00634139273981369,0.00169276484897846,0.0622253982203578,-0.0038294699498561,2.61705109019401,-0.144963141214248,189.985641019381,87.7484782684987
0.55,-0.00464105132025594,-0.00464105132025594,-0.027848879358281,-0.0557772798034009,0.00634139273981369,0.00169276484897846,0.0622253982203578,-0.0038294699498561,2.61705109019401,-0.144963141214248,189.985641019381,87.7484782684987
0.56,-0.00464105132025594,-0.00464105132025594,-0.027848879358281,-0.0557772798034009,0.00634139273981369,0.00169276484897846,0.0622253982203578,-0.0038294699498561,2.61705109019401,-0.144963141214248,189.985641019381,87.7484782684987
0.57,-0.00464105132025594,-0.00464105132025594,-0.027848879358281,-0.0557772798034009,0.00634139273981369,0.00169276484897846,0.0622253982203578,-0.0038294699498561,2.61705109019401,-0.144963141214248,189.985641019381,87.7484782684987
0.58,-0.00464105132025594,-0.00464105132025594,-0.027848879358281,-0.0557772798034009,0.00634139273981369,0.00169276484897846,0.0622253982203578,-0.0038294699498561,2.61705109019401,-0.144963141214248,189.985641019381,87.7484782684987
0.59,-0.00464105132025594,-0.00464105132025594,-0.027848879358281,-0.0557772798034009,0.00634139273981369,0.00169276484897846,0.0622253982203578,-0.0038294699498561,2.61705109019401,-0.144963141214248,189.985641019381,87.7484782684987
0.6,-0.00464105132025594,-0.00464105132025594,-0.027848879358281,-0.0557772798034009,0.00634139273981369,0.00169276484897846,0.0622253982203578,-0.0038294699498561,2.61705109019401,-0.144963141214248,189.985641019381,87.7484782684987
0.61,-0.00464105132025594,-0.00464105132025594,-0.027848879358281,-0.0557772798034009,0.00634139273981369,0.00169276484897846,0.0622253982203578,-0.0038294699498561,2.61705109019401,-0.144963141214248,189.985641019381,87.7484782684987
0.62,-0.00464105132025594,-0.00464105132025594,-0.027848879358281,-0.0557772798034009,0.00634139273981369,0.00169276484897846,0.0622253982203578,-0.0038294699498561,2.61705109019401,-0.144963141214248,189.985641019381,87.7484782684987
0.63,-0.00464105132025594,-0.00464105132025594,-0.027848879358281,-0.0557772798034009,0.00634139273981369,0.00169276484897846,0.0622253982203578,-0.0038294699498561,2.61705109019401,-0.144963141214248,189.985641019381,87.7484782684987
0.64,-0.00464105132025594,-0.00464105132025594,-0.027848879358281,-0.0557772798034009,0.00634139273981369,0.00169276484897846,0.0622253982203578,-0.0038294699498561,2.61705109019401,-0.144963141214248,189.985641019381,87.7484782684987
0.65,-0.00464105132025594,-0.00464105132025594,-0.027848879358281,-0.0557772798034009,0.00634139273981369,0.00169276484897846,0.0622253982203578,-0.0038294699498561,2.61705109019401,-0.144963141214248,189.985641019381,87.7484782684987
0.66,-0.00464105132025594,-0.00464105132025594,-0.027848879358281,-0.0557772798034009,0.00634139273981369,0.00169276484897846,0.0622253982203578,-0.0038294699498561,2.61705109019401,-0.144963141214248,189.985641019381,87.7484782684987
0.67,-0.00464105132025594,-0.00464105132025594,-0.027848879358281,-0.0557772798034009,0.00634139273981369,0.00169276484897846,0.0622253982203578,-0.0038294699498561,2.61705109019401,-0.144963141214248,189.985641019381,87.7484782684987
0.68,-0.00464105132025594,-0.00464105132025594,-0.027848879358281,-0.0557772798034009,0.00634139273981369,0.00169276484897846,0.0622253982203578,-0.0038294699498561,2.61705109019401,-0.144963141214248,189.985641019381,87.7484782684987
0.69,-0.00464105132025594,-0.00464105132025594,-0.027848879358281,-0.0557772798034009,0.00634139273981369,0.00169276484897846,0.0622253982203578,-0.0038294699498561,2.61705109019401,-0.144963141214248,189.985641019381,87.7484782684987
0.7,-0.00464105132025594,-0.00464105132025594,-0.027848879358281,-0.0557772798034009,0.00634139273981369,0.00169276484897846,0.0622253982203578,-0.0038294699498561,2.61705109019401,-0.144963141214248,189.985641019381,87.7484782684987
0.71,-0.00464105132025594,-0.00464105132025594,-0.027848879358281,-0.0557772798034009,0.00634139273981369,0.00169276484897846,0.0622253982203578,-0.0038294699498561,2.61705109019401,-0.144963141214248,189.985641019381,87.7484782684987
0.72,-0.00464105132025594,-0.00464105132025594,-0.027848879358281,-0.0557772798034009,0.00634139273981369,0.00169276484897846,0.0622253982203578,-0.0038294699498561,2.61705109019401,-0.144963141214248,189.985641019381,87.7484782684987
0.73,-0.00464105132025594,-0.00464105132025594,-0.027848879358281,-0.0557772798034009,0.00634139273981369,0.00169276484897846,0.0622253982203578,-0.0038294699498561,2.61705109019401,-0.144963141214248,189.985641019381,87.7484782684987
0.74,-0.00464105132025594,-0.00464105132025594,-0.027848879358281,-0.0557772798034009,0.00634139273981369,0.00169276484897846,0.0622253982203578,-0.0038294699498561,2.61705109019401,-0.144963141214248,189.985641019381,87.7484782684987
0.75,-0.00464105132025594,-0.00464105132025594,-0.027848879358281,-0.0557772798034009,0.00634139273981369,0.00169276484897846,0.0622253982203578,-0.0038294699498561,2.61705109019401,-0.144963141214248,189.985641019381,87.7484782684987
0.76,-0.00464105132025594,-0.00464105132025594,-0.027848879358281,-0.0557772798034009,0.00634139273981369,0.00169276484897846,0.0622253982203578,-0.0038294699498561,2.61705109019401,-0.144963141214248,189.985641019381,87.7484782684987
0.77,-0.00464105132025594,-0.00464105132025594,-0.027848879358281,-0.0557772798034009,0.00634139273981369,0.00169276484897846,0.0622253982203578,-0.0038294699498561,2.61705109019401,-0.144963141214248,189.985641019381,87.7484782684987
0.78,-0.00464105132025594,-0.00464105132025594,-0.027848879358281,-0.0557772798034009,0.00634139273981369,0.00169276484897846,0.0622253982203578,-0.0038294699498561,2.61705109019401,-0.144963141214248,189.985641019381,87.7484782684987
0.79,-0.00464105132025594,-0.00464105132025594,-0.027848879358281,-0.0557772798034009,0.00634139273981369,0.00169276484897846,0.0622253982203578,-0.0038294699498561,2.61705109019401,-0.144963141214248,189.985641019381,87.7484782684987
0.8,-0.00464105132025594,-0.00464105132025594,-0.027848879358281,-0.0557772798034009,0.00634139273981369,0.00169276484897846,0.0622253982203578,-0.0038294699498561,2.61705109019401,-0.144963141214248,189.985641019381,87.7484782684987
0.81,-0.00464105132025594,-0.00464105132025594,-0.027848879358281,-0.0557772798034009,0.00634139273981369,0.00169276484897846,0.0622253982203578,-0.0038294699498561,2.61705109019401,-0.144963141214248,189.985641019381,87.7484782684987
0.82,-0.00464105132025594,-0.00464105132025594,-0.027848879358281,-0.0557772798034009,0.00634139273981369,0.00169276484897846,0.0622253982203578,-0.0038294699498561,2.61705109019401,-0.144963141214248,189.985641019381,87.7484782684987
0.83,-0.00464105132025594,-0.00464105132025594,-0.027848879358281,-0.0557772798034009,0.00634139273981369,0.00169276484897846,0.0622253982203578,-0.0038294699498561,2.61705109019401,-0.144963141214248,189.985641019381,87.7484782684987
0.84,-0.00464105132025594,-0.00464105132025594,-0.027848879358281,-0.0557772798034009,0.00634139273981369,0.00169276484897846,0.0622253982203578,-0.0038294699498561,2.61705109019401,-0.144963141214248,189.985641019381,87.7484782684987
0.85,-0.00464105132025594,-0.00464105132025594,-0.027848879358281,-0.0557772798034009,0.00634139273981369,0.00169276484897846,0.0622253982203578,-0.0038294699498561,2.61705109019401,-0.144963141214248,189.985641019381,87.7484782684987
