t,iq,id,vq,vd,ia,ib,va,vb,theta_e,omega,omega_obs,r
0,0,0,0,0,0,0,0,0,0,-0.144963141214248,0,0
0.01,-0.121712804174419,0.0149002173966153,0.557634582890971,-0.172501082209318,0.0735614255776947,-0.0981057584723964,-0.427401720699539,0.397543356808344,0.52156938491557,-0.144963141214248,-15.099055603283,-0.144963141214248
0.02,-0.0240650892652547,0.0147243712388039,0.0304531637797862,-0.172501135448266,0.0247568194259876,-0.0135290621120548,-0.16473812284991,-0.0595431590951267,0.52156938491557,-0.144963141214248,-15.099055603283,-0.144963141214248
0.03,-0.0240064871652398,0.0146071626101333,0.0301013440014755,-0.0550728642809391,0.0246259970577474,-0.0135366500451742,-0.0627480212692949,-0.00134056614533141,0.52156938491557,-0.144963141214248,-18.1509112077874,-0.144963141214248
0.04,0.0146657912864357,-0.0142358660960569,-0.144101252218073,-0.0564816420869145,-0.0196501467296491,0.00562290414869532,0.0228254716155902,-0.153082803179119,0.52156938491557,-0.144963141214248,-18.1509112077874,-0.144963141214248
0.05,0.0048365725492127,0.0149002173966153,-0.0850956227277122,-0.173205604196326,0.0105092783805409,0.0116173998988797,-0.107777727264127,-0.160079379803305,0.52156938491557,-0.144963141214248,-18.1509112077874,-0.144963141214248
0.06,0.0242606680787581,-0.0336599660553554,-0.20170002809643,0.0602425329782949,-0.04127215112622,0.00426413788353568,0.152727902327639,-0.144866324466181,0.52156938491557,-0.144963141214248,-18.1509112077874,-0.144963141214248
0.07,-0.0441923346603234,0.0149002173966153,0.150575048869943,-0.173205604196326,0.0349375130690645,-0.0308925411992177,-0.225198628578235,0.0442561222169565,0.52156938491557,-0.144963141214248,-18.1509112077874,-0.144963141214248
0.08,0.0440949428526229,-0.0533770454931365,-0.262112830298055,0.178375219641386,-0.068249872635011,0.0116373474665504,0.285253631167806,-0.138387935509391,0.52156938491557,-0.144963141214248,-18.1509112077874,-0.144963141214248
0.09,-0.0433720824746118,0.0147244642569211,0.146354434816256,-0.172501508094205,0.0343764447100457,-0.0302689186284388,-0.222485265339418,0.0409474979944974,0.52156938491557,-0.144963141214248,-18.1509112077874,-0.144963141214248
0.1,-0.00505111097128236,-0.0142359458282517,-0.0257389180061795,-0.0564813226665749,-0.00982643754084562,-0.0114724452896924,-0.0361472745546001,-0.0504579652044049,0.52156938491557,-0.144963141214248,-18.1509112077874,-0.144963141214248
0.11,-0.0241823200371289,0.0149002173966153,0.0308050367290811,-0.173205604196326,0.0249676940142129,-0.0135430918352185,-0.165524241940973,-0.0595890673090339,0.52156938491557,-0.144963141214248,-18.1509112077874,-0.144963141214248
0.12,-0.00464105132025594,-0.00464105132025594,-0.027848879358281,-0.0557772798034009,-0.00171160509545909,-0.00633633353854556,-0.0344855721758641,-0.051936599190573,0.52156938491557,-0.144963141214248,-18.1509112077874,213.790114733449
0.13,-0.00464105132025594,-0.00464105132025594,-0.027848879358281,-0.0557772798034009,-0.00171160509545909,-0.00633633353854556,-0.0344855721758641,-0.051936599190573,0.52156938491557,-0.144963141214248,-18.1509112077874,213.790114734511
0.14,-0.00464105132025594,-0.00464105132025594,-0.027848879358281,-0.0557772798034009,-0.00171160509545909,-0.00633633353854556,-0.0344855721758641,-0.051936599190573,0.52156938491557,-0.144963141214248,-18.1509112077874,213.790114734511
0.15,-0.00464105132025594,-0.00464105132025594,-0.027848879358281,-0.0557772798034009,-0.00171160509545909,-0.00633633353854556,-0.0344855721758641,-0.051936599190573,0.52156938491557,-0.144963141214248,-18.1509112077874,213.790114734511
0.16,-0.00464105132025594,-0.00464105132025594,-0.027848879358281,-0.0557772798034009,-0.00171160509545909,-0.00633633353854556,-0.0344855721758641,-0.051936599190573,0.52156938491557,-0.144963141214248,-18.1509112077874,213.790114734511
0.17,-0.00464105132025594,-0.00464105132025594,-0.027848879358281,-0.0557772798034009,-0.00171160509545909,-0.00633633353854556,-0.0344855721758641,-0.051936599190573,0.52156938491557,-0.144963141214248,-18.1509112077874,213.790114734511
0.18,-0.00464105132025594,-0.00464105132025594,-0.027848879358281,-0.0557772798034009,-0.00171160509545909,-0.00633633353854556,-0.0344855721758641,-0.051936599190573,0.52156938491557,-0.144963141214248,-18.1509112077874,213.790114734511
0.19,-0.00464105132025594,-0.00464105132025594,-0.027848879358281,-0.0557772798034009,-0.00171160509545909,-0.00633633353854556,-0.0344855721758641,-0.051936599190573,0.52156938491557,-0.144963141214248,-18.1509112077874,213.790114734511
0.2,-0.00464105132025594,-0.00464105132025594,-0.027848879358281,-0.0557772798034009,-0.00171160509545909,-0.00633633353854556,-0.0344855721758641,-0.051936599190573,0.52156938491557,-0.144963141214248,-18.1509112077874,213.790114734511
0.21,-0.00464105132025594,-0.00464105132025594,-0.027848879358281,-0.0557772798034009,-0.00171160509545909,-0.00633633353854556,-0.0344855721758641,-0.051936599190573,0.52156938491557,-0.144963141214248,-18.1509112077874,213.790114734511
0.22,-0.00464105132025594,-0.00464105132025594,-0.027848879358281,-0.0557772798034009,-0.00171160509545909,-0.00633633353854556,-0.0344855721758641,-0.051936599190573,0.52156938491557,-0.144963141214248,-18.1509112077874,213.790114734511
0.23,-0.00464105132025594,-0.00464105132025594,-0.027848879358281,-0.0557772798034009,-0.00171160509545909,-0.00633633353854556,-0.0344855721758641,-0.051936599190573,0.52156938491557,-0.144963141214248,-18.1509112077874,213.790114734511
0.24,-0.00464105132025594,-0.00464105132025594,-0.027848879358281,-0.0557772798034009,-0.00171160509545909,-0.00633633353854556,-0.0344855721758641,-0.051936599190573,0.52156938491557,-0.144963141214248,-18.1509112077874,213.790114734511
0.25,-0.00464105132025594,-0.00464105132025594,-0.027848879358281,-0.0557772798034009,-0.00171160509545909,-0.00633633353854556,-0.0344855721758641,-0.051936599190573,0.52156938491557,-0.144963141214248,-18.1509112077874,213.790114734511
0.26,-0.00464105132025594,-0.00464105132025594,-0.027848879358281,-0.0557772798034009,-0.00171160509545909,-0.00633633353854556,-0.0344855721758641,-0.051936599190573,0.52156938491557,-0.144963141214248,-18.1509112077874,213.790114734511
0.27,-0.00464105132025594,-0.00464105132025594,-0.027848879358281,-0.0557772798034009,-0.00171160509545909,-0.00633633353854556,-0.0344855721758641,-0.051936599190573,0.52156938491557,-0.144963141214248,-18.1509112077874,213.790114734511
0.28,-0.00464105132025594,-0.00464105132025594,-0.027848879358281,-0.0557772798034009,-0.00171160509545909,-0.00633633353854556,-0.0344855721758641,-0.051936599190573,0.52156938491557,-0.144963141214248,-18.1509112077874,213.790114734511
0.29,-0.00464105132025594,-0.00464105132025594,-0.027848879358281,-0.0557772798034009,-0.00171160509545909,-0.00633633353854556,-0.0344855721758641,-0.051936599190573,0.52156938491557,-0.144963141214248,-18.1509112077874,213.790114734511
0.3,-0.00464105132025594,-0.00464105132025594,-0.027848879358281,-0.0557772798034009,-0.00171160509545909,-0.00633633353854556,-0.0344855721758641,-0.051936599190573,0.52156938491557,-0.144963141214248,-18.1509112077874,213.790114734511
0.31,-0.00464105132025594,-0.00464105132025594,-0.027848879358281,-0.0557772798034009,-0.00171160509545909,-0.00633633353854556,-0.0344855721758641,-0.051936599190573,0.52156938491557,-0.144963141214248,-18.1509112077874,213.790114734511
0.32,-0.00464105132025594,-0.00464105132025594,-0.027848879358281,-0.0557772798034009,-0.00171160509545909,-0.00633633353854556,-0.0344855721758641,-0.051936599190573,0.52156938491557,-0.144963141214248,-18.1509112077874,213.790114734511
0.33,-0.00464105132025594,-0.00464105132025594,-0.027848879358281,-0.0557772798034009,-0.00171160509545909,-0.00633633353854556,-0.0344855721758641,-0.051936599190573,0.52156938491557,-0.144963141214248,-18.1509112077874,213.790114734511
0.34,-0.00464105132025594,-0.00464105132025594,-0.027848879358281,-0.0557772798034009,-0.00171160509545909,-0.00633633353854556,-0.0344855721758641,-0.051936599190573,0.52156938491557,-0.144963141214248,-18.1509112077874,213.790114734511
0.35,-0.00464105132025594,-0.00464105132025594,-0.027848879358281,-0.0557772798034009,-0.00171160509545909,-0.00633633353854556,-0.0344855721758641,-0.051936599190573,0.52156938491557,-0.144963141214248,-18.1509112077874,213.790114734511
0.36,-0.00464105132025594,-0.00464105132025594,-0.027848879358281,-0.0557772798034009,-0.00171160509545909,-0.00633633353854556,-0.0344855721758641,-0.051936599190573,0.52156938491557,-0.144963141214248,-18.1509112077874,213.790114734511
0.37,-0.00464105132025594,-0.00464105132025594,-0.027848879358281,-0.0557772798034009,-0.00171160509545909,-0.00633633353854556,-0.0344855721758641,-0.051936599190573,0.52156938491557,-0.144963141214248,-18.1509112077874,213.790114734511
0.38,-0.00464105132025594,-0.00464105132025594,-0.027848879358281,-0.0557772798034009,-0.00171160509545909,-0.00633633353854556,-0.0344855721758641,-0.051936599190573,0.52156938491557,-0.144963141214248,-18.1509112077874,213.790114734511
0.39,-0.00464105132025594,-0.00464105132025594,-0.027848879358281,-0.0557772798034009,-0.00171160509545909,-0.00633633353854556,-0.0344855721758641,-0.051936599190573,0.52156938491557,-0.144963141214248,-18.1509112077874,213.790114734511
0.4,-0.00464105132025594,-0.00464105132025594,-0.027848879358281,-0.0557772798034009,-0.00171160509545909,-0.00633633353854556,-0.0344855721758641,-0.051936599190573,0.52156938491557,-0.144963141214248,-18.1509112077874,213.790114734511
0.41,-0.00464105132025594,-0.00464105132025594,-0.027848879358281,-0.0557772798034009,-0.00171160509545909,-0.00633633353854556,-0.0344855721758641,-0.051936599190573,0.52156938491557,-0.144963141214248,-18.1509112077874,213.790114734511
0.42,-0.00464105132025594,-0.00464105132025594,-0.027848879358281,-0.0557772798034009,-0.00171160509545909,-0.00633633353854556,-0.0344855721758641,-0.051936599190573,0.52156938491557,-0.144963141214248,-18.1509112077874,213.790114734511
0.43,-0.00464105132025594,-0.00464105132025594,-0.027848879358281,-0.0557772798034009,-0.00171160509545909,-0.00633633353854556,-0.0344855721758641,-0.051936599190573,0.52156938491557,-0.144963141214248,-18.1509112077874,213.790114734511
0.44,-0.00464105132025594,-0.00464105132025594,-0.027848879358281,-0.0557772798034009,-0.00171160509545909,-0.00633633353854556,-0.0344855721758641,-0.051936599190573,0.52156938491557,-0.144963141214248,-18.1509112077874,213.790114734511
0.45,-0.00464105132025594,-0.00464105132025594,-0.027848879358281,-0.0557772798034009,-0.00171160509545909,-0.00633633353854556,-0.0344855721758641,-0.051936599190573,0.52156938491557,-0.144963141214248,-18.1509112077874,213.790114734511
0.46,-0.00464105132025594,-0.00464105132025594,-0.027848879358281,-0.0557772798034009,-0.00171160509545909,-0.00633633353854556,-0.0344855721758641,-0.051936599190573,0.52156938491557,-0.144963141214248,-18.1509112077874,213.790114734511
0.47,-0.00464105132025594,-0.00464105132025594,-0.027848879358281,-0.0557772798034009,-0.00171160509545909,-0.00633633353854556,-0.0344855721758641,-0.051936599190573,0.52156938491557,-0.144963141214248,-18.1509112077874,213.790114734511
0.48,-0.00464105132025594,-0.00464105132025594,-0.027848879358281,-0.0557772798034009,-0.00171160509545909,-0.00633633353854556,-0.0344855721758641,-0.051936599190573,0.52156938491557,-0.144963141214248,-18.1509112077874,213.790114734511
0.49,-0.00464105132025594,-0.00464105132025594,-0.027848879358281,-0.0557772798034009,-0.00171160509545909,-0.00633633353854556,-0.0344855721758641,-0.051936599190573,0.52156938491557,-0.144963141214248,-18.1509112077874,213.790114734511
0.5,-0.00464105132025594,-0.00464105132025594,-0.027848879358281,-0.0557772798034009,-0.00171160509545909,-0.00633633353854556,-0.0344855721758641,-0.051936599190573,0.52156938491557,-0.144963141214248,-18.1509112077874,213.790114734511
0.51,-0.00464105132025594,-0.00464105132025594,-0.027848879358281,-0.0557772798034009,-0.00171160509545909,-0.00633633353854556,-0.0344855721758641,-0.051936599190573,0.52156938491557,-0.144963141214248,-18.1509112077874,213.790114734511
0.52,-0.00464105132025594,-0.00464105132025594,-0.027848879358281,-0.0557772798034009,-0.00171160509545909,-0.00633633353854556,-0.0344855721758641,-0.051936599190573,0.52156938491557,-0.144963141214248,-18.1509112077874,213.790114734511
0.53,-0.00464105132025594,-0.00464105132025594,-0.027848879358281,-0.0557772798034009,-0.00171160509545909,-0.00633633353854556,-0.0344855721758641,-0.051936599190573,0.52156938491557,-0.144963141214248,-18.1509112077874,213.790114734511
0.54,-0.00464105132025594,-0.00464105132025594,-0.027848879358281,-0.0557772798034009,-0.00171160509545909,-0.00633633353854556,-0.0344855721758641,-0.051936599190573,0.52156938491557,-0.144963141214248,-18.1509112077874,213.790114734511
0.55,-0.00464105132025594,-0.00464105132025594,-0.027848879358281,-0.0557772798034009,-0.00171160509545909,-0.00633633353854556,-0.0344855721758641,-0.051936599190573,0.52156938491557,-0.144963141214248,-18.1509112077874,213.790114734511
0.56,-0.00464105132025594,-0.00464105132025594,-0.027848879358281,-0.0557772798034009,-0.00171160509545909,-0.00633633353854556,-0.0344855721758641,-0.051936599190573,0.52156938491557,-0.144963141214248,-18.1509112077874,213.790114734511
0.57,-0.00464105132025594,-0.00464105132025594,-0.027848879358281,-0.0557772798034009,-0.00171160509545909,-0.00633633353854556,-0.0344855721758641,-0.051936599190573,0.52156938491557,-0.144963141214248,-18.1509112077874,213.790114734511
0.58,-0.00464105132025594,-0.00464105132025594,-0.027848879358281,-0.0557772798034009,-0.00171160509545909,-0.00633633353854556,-0.0344855721758641,-0.051936599190573,0.52156938491557,-0.144963141214248,-18.1509112077874,213.790114734511
0.59,-0.00464105132025594,-0.00464105132025594,-0.027848879358281,-0.0557772798034009,-0.00171160509545909,-0.00633633353854556,-0.0344855721758641,-0.051936599190573,0.52156938491557,-0.144963141214248,-18.1509112077874,213.790114734511
0.6,-0.00464105132025594,-0.00464105132025594,-0.027848879358281,-0.0557772798034009,-0.00171160509545909,-0.00633633353854556,-0.0344855721758641,-0.051936599190573,0.52156938491557,-0.144963141214248,-18.1509112077874,213.790114734511
0.61,-0.00464105132025594,-0.00464105132025594,-0.027848879358281,-0.0557772798034009,-0.00171160509545909,-0.00633633353854556,-0.0344855721758641,-0.051936599190573,0.52156938491557,-0.144963141214248,-18.1509112077874,213.790114734511
0.62,-0.00464105132025594,-0.00464105132025594,-0.027848879358281,-0.0557772798034009,-0.00171160509545909,-0.00633633353854556,-0.0344855721758641,-0.051936599190573,0.52156938491557,-0.144963141214248,-18.1509112077874,213.790114734511
0.63,-0.00464105132025594,-0.00464105132025594,-0.027848879358281,-0.0557772798034009,-0.00171160509545909,-0.00633633353854556,-0.0344855721758641,-0.051936599190573,0.52156938491557,-0.144963141214248,-18.1509112077874,213.790114734511
0.64,0.287836231119195,0.0149002173966153,0.679500356910576,-0.0557772798034009,-0.130492886868106,0.256988947038967,-0.386916293841281,0.561362290810484,0.52156938491557,-0.144963141214248,-0.144963141214248,213.790114734511
0.65,0.2890030063771,0.014491863106615,0.908162393883581,-0.0536739351597502,-0.131428281500663,0.257797126851883,-0.499021522357425,0.760669011597007,0.52156938491557,-0.144963141214248,-0.144963141214248,213.790114734511
0.66,0.288536311330206,0.0147252217044409,1.02757143906982,-0.0550762181611313,-0.13099342383005,0.257508753295043,-0.55973189338023,0.863502553402099,0.52156938491557,-0.144963141214248,-0.144963141214248,213.790114734511
0.67,0.317439917702283,-0.0142367032757714,0.912364500800711,0.0609500361862057,-0.170505497727985,0.268139255454189,-0.401731811289565,0.821422815016989,0.52156938491557,-0.144963141214248,-0.144963141214248,213.790114734511
0.68,0.298190290753361,-0.0142367165650257,1.08692564426167,0.060950089425153,-0.160914546866287,0.251449084716856,-0.488705365453289,0.97277404125097,0.52156938491557,-0.144963141214248,-0.144963141214248,213.790114734511
0.69,0.181642506179531,0.0149002173966153,1.67031395623183,-0.0557772798034009,-0.0775827694920844,0.164914918693203,-0.880580715798716,1.42043564454308,0.52156938491557,-0.144963141214248,-0.144963141214248,213.790114734511
0.7,0.289994148099724,0.0140838188836637,1.19653199804527,-0.169000511997344,-0.13227589938281,0.258453180148555,-0.742691778046625,0.953236024405035,0.52156938491557,-0.144963141214248,-0.144963141214248,213.790114734511
0.71,0.317731572758379,-0.0142367564294595,1.02827164840449,-0.0564780752642708,-0.170650858457484,0.268392105079245,-0.561296230527557,0.863411198383249,0.52156938491557,-0.144963141214248,-0.144963141214248,213.790114734511
0.72,0.28882781135277,0.0147253014366375,1.20213330048579,-0.289933186367332,-0.131138592098262,0.257761534709345,-0.850335841421863,0.897838895062661,0.52156938491557,-0.144963141214248,-0.144963141214248,213.790114734511
0.73,0.308077549039929,0.0147253147258918,1.02792161021423,-0.28993323960628,-0.140729598134341,0.274451801460972,-0.76353639932812,0.74679065813322,0.52156938491557,-0.144963141214248,-0.144963141214248,213.790114734511
0.74,0.308077544610177,0.0147253280151461,1.02722169338665,-0.289933292845227,-0.140729584404962,0.274451804241466,-0.76318771790088,0.746183776900482,0.52156938491557,-0.144963141214248,-0.144963141214248,213.790114734511
0.75,0.249978362317563,-0.0525615506028502,1.14277991959089,-0.0599807749139855,-0.178134459437376,-0.183084714243709,-0.914937104987903,-0.687338149600182,2.16265251517022,30.9839640247255,17.7671881395612,213.790114734511
0.76,0.269053285920138,-0.0437235887540002,1.20353345324018,0.061651044589528,-0.151136019179226,-0.226846482416213,-0.864488769761273,-0.83961466835915,2.39277923702548,30.9839640247255,56.8869592927196,213.790114734511
0.77,0.288361413088122,-0.0236577714860128,1.20493299440823,-0.0585791839655454,-0.122415706033629,-0.262157184959999,-0.54649816334174,-1.07546957152296,2.62286969170275,30.9839640247255,82.8378739639182,213.790114734511
0.78,0.259224355100102,0.0246125730124561,1.32119119065104,-0.289933505787666,0.0254855988325337,-0.259139980087027,0.537581423560106,-1.24121465229642,-2.94889784432276,48.9899120912987,103.92331297237,213.790114734511
0.79,0.317615059569573,-0.0531445772353357,1.08727517722098,0.0602503054640857,0.213202764403149,-0.241346749316748,0.524373956977085,-0.954373807034549,-2.58381980347598,48.9899120912987,106.975168576873,213.790114734511
0.8,0.171463446668398,-0.0240657802687234,1.55475745837799,0.0609507282524837,0.173094152999416,-0.00415806695038211,1.52411353902901,-0.313151186817112,-1.73425796473974,74.9306847295829,103.967897075751,213.790114734511
0.81,0.210196373656427,-0.00464105132025594,1.38054465130241,-0.0557772798034009,0.192236811471481,0.0851414304022881,1.25285785710872,0.582547705396638,-1.17593953940404,74.9306847295829,95.9884884006597,213.790114734511
0.82,0.220258321997865,-0.00434974619675652,1.43779953144607,-0.174606023914625,0.14328539752021,0.167337812698644,0.826175456823929,1.18961711098806,-0.727865416931812,67.9114168392234,80.7612548622532,213.790114734511
0.83,0.219850512543971,0.0149584739915637,1.55580685500048,-0.408062252982184,0.0648625624753987,0.210596419245741,-0.0412761250859984,1.60790113311524,-0.230840473658965,90.800333872068,64.9053390691446,213.790114734511
0.84,0.20042576587428,-0.0143534335123848,1.55650624002485,0.061651044589528,-0.141640074749105,0.142529287884822,-0.968776835994268,1.21982948340177,0.710776349424414,90.8003338730032,69.7150635012872,213.790114734511
0.85,0.210312904565329,-0.00458280358370064,1.43849902282576,-0.0564773299590455,-0.209957844930435,0.0130469639211469,-1.43817527257313,0.0641951153060625,1.48694829555923,95.9884884006597,82.8334648172344,213.790114734511
