t,iq,id,vq,vd,ia,ib,va,vb,theta_e,omega,omega_obs,r
0,0,0,0,0,0,0,0,0,0,-0.144963141214248,0,0
0.01,0.00518820290277651,-0.0338357146663709,-0.0868546952806979,0.0609465220147165,-0.0319218388635787,-0.0123599854333314,0.0961175806133407,-0.044940264073892,0.52156938491557,-0.144963141214248,-0.144963141214248,-0.144963141214248
0.02,0.0149588328858894,-0.0142358392108691,-0.145508585102637,-0.0564817497934166,-0.0197961288957745,0.00587699583865498,0.0235265698318942,-0.15430306837598,0.52156938491557,-0.144963141214248,-0.144963141214248,-0.144963141214248
0.03,0.0243777961908476,-0.0336598988313613,-0.202403238430173,0.0602422098057884,-0.0413304509229196,0.004365725938274,0.15307799067349,-0.145476195787053,0.52156938491557,-0.144963141214248,-0.144963141214248,-0.144963141214248
0.04,-0.121419809730228,0.0149002173966153,0.497925439275213,-0.173205604196326,0.0734154435957885,-0.0978517210631712,-0.398262996905006,0.345422219462893,0.52156938491557,-0.144963141214248,-0.144963141214248,-0.144963141214248
0.05,-0.0630304480309765,-0.0142358785987704,0.205711400731049,-0.0564815919989795,0.0190613307434338,-0.0617427185079665,-0.15146565458677,0.150218194990057,0.52156938491557,-0.144963141214248,-0.144963141214248,-0.144963141214248
0.06,0.00507098505352868,0.0147244234426623,-0.0861510269576901,-0.172501344585544,0.0102400642566999,0.0117330566840271,-0.106641261045226,-0.160643564366485,0.52156938491557,-0.144963141214248,-0.144963141214248,-0.144963141214248
0.07,-0.0337771735709118,-0.0144116856786916,0.0887554683847115,-0.0557772798034009,0.0043337048666349,-0.0364666030865202,-0.0925826935372396,0.0491638380097197,0.52156938491557,-0.144963141214248,-0.144963141214248,-0.144963141214248
0.08,0.218325861970243,-0.101644324123205,-1.13383210236748,0.411119400110346,-0.196908521435267,0.138653470269191,0.921378442801689,-0.778239142324828,0.52156938491557,-0.144963141214248,-0.144963141214248,-0.144963141214248
0.09,-0.0727425675525543,0.0149002173966153,0.264013942391766,-0.173205604196326,0.0491624230088841,-0.0556466870217794,-0.281718589382472,0.142611989322803,0.52156938491557,-0.144963141214248,-0.144963141214248,-0.144963141214248
0.1,-0.00405524651997655,-0.0146460075988033,-0.0310138500147201,-0.0543691813403005,-0.0106781577733346,-0.0108133024321786,-0.0316877772317863,-0.0539791769709276,0.52156938491557,-0.144963141214248,-0.144963141214248,-0.144963141214248
0.11,-0.0240651678299401,0.0147244890858321,0.030453399594898,-0.172501607562922,0.0247569607480605,-0.013529071514371,-0.164738649684273,-0.0595431898614889,0.52156938491557,-0.144963141214248,-0.144963141214248,-0.144963141214248
0.12,0.189951631668206,-0.101937392814488,-1.02109773336038,0.411824185662539,-0.183025405068606,0.113905906460999,0.865820581403388,-0.680142971579222,0.52156938491557,-0.144963141214248,-0.144963141214248,-0.144963141214248
0.13,-0.0434893193510902,0.0147245153444328,0.147058115133781,-0.172501712759213,0.0344349012782826,-0.0303705420383713,-0.222836045506028,0.0415575138187785,0.52156938491557,-0.144963141214248,-0.144963141214248,-0.144963141214248
0.14,0.00565664981682365,0.0144902765687811,-0.0889637037177668,-0.171094087639372,0.00974524747443139,0.0121241887915038,-0.104019723156559,-0.162381109119148,0.52156938491557,-0.144963141214248,-0.144963141214248,-0.144963141214248
0.15,0.0146074244017592,-0.0144116856786916,-0.143750583323,-0.0557772798034009,-0.0197735082420509,0.00548469721644293,0.0232614629181439,-0.152427817313237,0.52156938491557,-0.144963141214248,-0.144963141214248,-0.144963141214248
0.16,-0.0247678622625072,0.0149002173966153,0.0339685887528004,-0.173205604196326,0.0252594354319943,-0.0140507793797297,-0.167100454744463,-0.0568461464926605,0.52156938491557,-0.144963141214248,-0.144963141214248,-0.144963141214248
0.17,0.00495393349986636,-0.0336602051650424,-0.0857998364289907,0.060243682473767,-0.0316529426701164,-0.01247565987017,0.0949826173794646,-0.0443758448368912,0.52156938491557,-0.144963141214248,-0.144963141214248,-0.144963141214248
0.18,-0.0433723159293108,0.0147245809842706,0.204658065533734,-0.172501975723244,0.034376662233942,-0.0302690628842017,-0.25153495733348,0.0914987467437505,0.52156938491557,-0.144963141214248,-0.144963141214248,-0.144963141214248
0.19,0.0148416763022671,-0.0145287678673879,-0.144805284562183,-0.055073703928463,-0.0199917369963903,0.00562946738802875,0.0243969860527053,-0.152991733022013,0.52156938491557,-0.144963141214248,-0.144963141214248,-0.144963141214248
0.2,-0.00464105132025594,-0.00464105132025594,-0.027848879358281,-0.0557772798034009,-0.00171160509545909,-0.00633633353854556,-0.0344855721758641,-0.051936599190573,0.52156938491557,-0.144963141214248,-0.144963141214248,373.707348410517
0.21,-0.00464105132025594,-0.00464105132025594,-0.027848879358281,-0.0557772798034009,-0.00171160509545909,-0.00633633353854556,-0.0344855721758641,-0.051936599190573,0.52156938491557,-0.144963141214248,-0.144963141214248,373.707348410517
0.22,-0.00464105132025594,-0.00464105132025594,-0.027848879358281,-0.0557772798034009,-0.00171160509545909,-0.00633633353854556,-0.0344855721758641,-0.051936599190573,0.52156938491557,-0.144963141214248,-0.144963141214248,373.707348410517
0.23,-0.00464105132025594,-0.00464105132025594,-0.027848879358281,-0.0557772798034009,-0.00171160509545909,-0.00633633353854556,-0.0344855721758641,-0.051936599190573,0.52156938491557,-0.144963141214248,-0.144963141214248,373.707348410517
0.24,-0.00464105132025594,-0.00464105132025594,-0.027848879358281,-0.0557772798034009,-0.00171160509545909,-0.00633633353854556,-0.0344855721758641,-0.051936599190573,0.52156938491557,-0.144963141214248,-0.144963141214248,373.707348410517
0.25,-0.00464105132025594,-0.00464105132025594,-0.027848879358281,-0.0557772798034009,-0.00171160509545909,-0.00633633353854556,-0.0344855721758641,-0.051936599190573,0.52156938491557,-0.144963141214248,-0.144963141214248,373.707348410517
0.26,-0.00464105132025594,-0.00464105132025594,-0.027848879358281,-0.0557772798034009,-0.00171160509545909,-0.00633633353854556,-0.0344855721758641,-0.051936599190573,0.52156938491557,-0.144963141214248,-0.144963141214248,373.707348410517
0.27,-0.00464105132025594,-0.00464105132025594,-0.027848879358281,-0.0557772798034009,-0.00171160509545909,-0.00633633353854556,-0.0344855721758641,-0.051936599190573,0.52156938491557,-0.144963141214248,-0.144963141214248,373.707348410517
0.28,-0.00464105132025594,-0.00464105132025594,-0.027848879358281,-0.0557772798034009,-0.00171160509545909,-0.00633633353854556,-0.0344855721758641,-0.051936599190573,0.52156938491557,-0.144963141214248,-0.144963141214248,373.707348410517
0.29,-0.00464105132025594,-0.00464105132025594,-0.027848879358281,-0.0557772798034009,-0.00171160509545909,-0.00633633353854556,-0.0344855721758641,-0.051936599190573,0.52156938491557,-0.144963141214248,-0.144963141214248,373.707348410517
0.3,-0.00464105132025594,-0.00464105132025594,-0.027848879358281,-0.0557772798034009,-0.00171160509545909,-0.00633633353854556,-0.0344855721758641,-0.051936599190573,0.52156938491557,-0.144963141214248,-0.144963141214248,373.707348410517
0.31,-0.00464105132025594,-0.00464105132025594,-0.027848879358281,-0.0557772798034009,-0.00171160509545909,-0.00633633353854556,-0.0344855721758641,-0.051936599190573,0.52156938491557,-0.144963141214248,-0.144963141214248,373.707348410517
0.32,-0.00464105132025594,-0.00464105132025594,-0.027848879358281,-0.0557772798034009,-0.00171160509545909,-0.00633633353854556,-0.0344855721758641,-0.051936599190573,0.52156938491557,-0.144963141214248,-0.144963141214248,373.707348410517
0.33,-0.00464105132025594,-0.00464105132025594,-0.027848879358281,-0.0557772798034009,-0.00171160509545909,-0.00633633353854556,-0.0344855721758641,-0.051936599190573,0.52156938491557,-0.144963141214248,-0.144963141214248,373.707348410517
0.34,-0.00464105132025594,-0.00464105132025594,-0.027848879358281,-0.0557772798034009,-0.00171160509545909,-0.00633633353854556,-0.0344855721758641,-0.051936599190573,0.52156938491557,-0.144963141214248,-0.144963141214248,373.707348410517
0.35,-0.00464105132025594,-0.00464105132025594,-0.027848879358281,-0.0557772798034009,-0.00171160509545909,-0.00633633353854556,-0.0344855721758641,-0.051936599190573,0.52156938491557,-0.144963141214248,-0.144963141214248,373.707348410517
0.36,-0.00464105132025594,-0.00464105132025594,-0.027848879358281,-0.0557772798034009,-0.00171160509545909,-0.00633633353854556,-0.0344855721758641,-0.051936599190573,0.52156938491557,-0.144963141214248,-0.144963141214248,373.707348410517
0.37,-0.00464105132025594,-0.00464105132025594,-0.027848879358281,-0.0557772798034009,-0.00171160509545909,-0.00633633353854556,-0.0344855721758641,-0.051936599190573,0.52156938491557,-0.144963141214248,-0.144963141214248,373.707348410517
0.38,-0.00464105132025594,-0.00464105132025594,-0.027848879358281,-0.0557772798034009,-0.00171160509545909,-0.00633633353854556,-0.0344855721758641,-0.051936599190573,0.52156938491557,-0.144963141214248,-0.144963141214248,373.707348410517
0.39,-0.00464105132025594,-0.00464105132025594,-0.027848879358281,-0.0557772798034009,-0.00171160509545909,-0.00633633353854556,-0.0344855721758641,-0.051936599190573,0.52156938491557,-0.144963141214248,-0.144963141214248,373.707348410517
0.4,-0.00464105132025594,-0.00464105132025594,-0.027848879358281,-0.0557772798034009,-0.00171160509545909,-0.00633633353854556,-0.0344855721758641,-0.051936599190573,0.52156938491557,-0.144963141214248,-0.144963141214248,373.707348410517
0.41,-0.00464105132025594,-0.00464105132025594,-0.027848879358281,-0.0557772798034009,-0.00171160509545909,-0.00633633353854556,-0.0344855721758641,-0.051936599190573,0.52156938491557,-0.144963141214248,-0.144963141214248,373.707348410517
0.42,-0.00464105132025594,-0.00464105132025594,-0.027848879358281,-0.0557772798034009,-0.00171160509545909,-0.00633633353854556,-0.0344855721758641,-0.051936599190573,0.52156938491557,-0.144963141214248,-0.144963141214248,373.707348410517
0.43,-0.00464105132025594,-0.00464105132025594,-0.027848879358281,-0.0557772798034009,-0.00171160509545909,-0.00633633353854556,-0.0344855721758641,-0.051936599190573,0.52156938491557,-0.144963141214248,-0.144963141214248,373.707348410517
0.44,-0.00464105132025594,-0.00464105132025594,-0.027848879358281,-0.0557772798034009,-0.00171160509545909,-0.00633633353854556,-0.0344855721758641,-0.051936599190573,0.52156938491557,-0.144963141214248,-0.144963141214248,373.707348410517
0.45,-0.00464105132025594,-0.00464105132025594,-0.027848879358281,-0.0557772798034009,-0.00171160509545909,-0.00633633353854556,-0.0344855721758641,-0.051936599190573,0.52156938491557,-0.144963141214248,-0.144963141214248,373.707348410517
0.46,-0.00464105132025594,-0.00464105132025594,-0.027848879358281,-0.0557772798034009,-0.00171160509545909,-0.00633633353854556,-0.0344855721758641,-0.051936599190573,0.52156938491557,-0.144963141214248,-0.144963141214248,373.707348410517
0.47,-0.00464105132025594,-0.00464105132025594,-0.027848879358281,-0.0557772798034009,-0.00171160509545909,-0.00633633353854556,-0.0344855721758641,-0.051936599190573,0.52156938491557,-0.144963141214248,-0.144963141214248,373.707348410517
0.48,-0.00464105132025594,-0.00464105132025594,-0.027848879358281,-0.0557772798034009,-0.00171160509545909,-0.00633633353854556,-0.0344855721758641,-0.051936599190573,0.52156938491557,-0.144963141214248,-0.144963141214248,373.707348410517
0.49,-0.00464105132025594,-0.00464105132025594,-0.027848879358281,-0.0557772798034009,-0.00171160509545909,-0.00633633353854556,-0.0344855721758641,-0.051936599190573,0.52156938491557,-0.144963141214248,-0.144963141214248,373.707348410517
0.5,-0.00464105132025594,-0.00464105132025594,-0.027848879358281,-0.0557772798034009,-0.00171160509545909,-0.00633633353854556,-0.0344855721758641,-0.051936599190573,0.52156938491557,-0.144963141214248,-0.144963141214248,373.707348410517
0.51,-0.00464105132025594,-0.00464105132025594,-0.027848879358281,-0.0557772798034009,-0.00171160509545909,-0.00633633353854556,-0.0344855721758641,-0.051936599190573,0.52156938491557,-0.144963141214248,-0.144963141214248,373.707348410517
0.52,-0.00464105132025594,-0.00464105132025594,-0.027848879358281,-0.0557772798034009,-0.00171160509545909,-0.00633633353854556,-0.0344855721758641,-0.051936599190573,0.52156938491557,-0.144963141214248,-0.144963141214248,373.707348410517
0.53,-0.00464105132025594,-0.00464105132025594,-0.027848879358281,-0.0557772798034009,-0.00171160509545909,-0.00633633353854556,-0.0344855721758641,-0.051936599190573,0.52156938491557,-0.144963141214248,-0.144963141214248,373.707348410517
0.54,-0.00464105132025594,-0.00464105132025594,-0.027848879358281,-0.0557772798034009,-0.00171160509545909,-0.00633633353854556,-0.0344855721758641,-0.051936599190573,0.52156938491557,-0.144963141214248,-0.144963141214248,373.707348410517
0.55,-0.00464105132025594,-0.00464105132025594,-0.027848879358281,-0.0557772798034009,-0.00171160509545909,-0.00633633353854556,-0.0344855721758641,-0.051936599190573,0.52156938491557,-0.144963141214248,-0.144963141214248,373.707348410517
0.56,-0.00464105132025594,-0.00464105132025594,-0.027848879358281,-0.0557772798034009,-0.00171160509545909,-0.00633633353854556,-0.0344855721758641,-0.051936599190573,0.52156938491557,-0.144963141214248,-0.144963141214248,373.707348410517
0.57,-0.00464105132025594,-0.00464105132025594,-0.027848879358281,-0.0557772798034009,-0.00171160509545909,-0.00633633353854556,-0.0344855721758641,-0.051936599190573,0.52156938491557,-0.144963141214248,-0.144963141214248,373.707348410517
0.58,-0.00464105132025594,-0.00464105132025594,-0.027848879358281,-0.0557772798034009,-0.00171160509545909,-0.00633633353854556,-0.0344855721758641,-0.051936599190573,0.52156938491557,-0.144963141214248,-0.144963141214248,373.707348410517
0.59,-0.00464105132025594,-0.00464105132025594,-0.027848879358281,-0.0557772798034009,-0.00171160509545909,-0.00633633353854556,-0.0344855721758641,-0.051936599190573,0.52156938491557,-0.144963141214248,-0.144963141214248,373.707348410517
0.6,-0.00464105132025594,-0.00464105132025594,-0.027848879358281,-0.0557772798034009,-0.00171160509545909,-0.00633633353854556,-0.0344855721758641,-0.051936599190573,0.52156938491557,-0.144963141214248,-0.144963141214248,373.707348410517
0.61,-0.00464105132025594,-0.00464105132025594,-0.027848879358281,-0.0557772798034009,-0.00171160509545909,-0.00633633353854556,-0.0344855721758641,-0.051936599190573,0.52156938491557,-0.144963141214248,-0.144963141214248,373.707348410517
0.62,-0.00464105132025594,-0.00464105132025594,-0.027848879358281,-0.0557772798034009,-0.00171160509545909,-0.00633633353854556,-0.0344855721758641,-0.051936599190573,0.52156938491557,-0.144963141214248,-0.144963141214248,373.707348410517
0.63,-0.00464105132025594,-0.00464105132025594,-0.027848879358281,-0.0557772798034009,-0.00171160509545909,-0.00633633353854556,-0.0344855721758641,-0.051936599190573,0.52156938491557,-0.144963141214248,-0.144963141214248,373.707348410517
0.64,-0.00464105132025594,-0.00464105132025594,-0.027848879358281,-0.0557772798034009,-0.00171160509545909,-0.00633633353854556,-0.0344855721758641,-0.051936599190573,0.52156938491557,-0.144963141214248,-0.144963141214248,373.707348410517
0.65,-0.00464105132025594,-0.00464105132025594,-0.027848879358281,-0.0557772798034009,-0.00171160509545909,-0.00633633353854556,-0.0344855721758641,-0.051936599190573,0.52156938491557,-0.144963141214248,-0.144963141214248,373.707348410517
0.66,-0.00464105132025594,-0.00464105132025594,-0.027848879358281,-0.0557772798034009,-0.00171160509545909,-0.00633633353854556,-0.0344855721758641,-0.051936599190573,0.52156938491557,-0.144963141214248,-0.144963141214248,373.707348410517
0.67,-0.00464105132025594,-0.00464105132025594,-0.027848879358281,-0.0557772798034009,-0.00171160509545909,-0.00633633353854556,-0.0344855721758641,-0.051936599190573,0.52156938491557,-0.144963141214248,-0.144963141214248,373.707348410517
0.68,-0.00464105132025594,-0.00464105132025594,-0.027848879358281,-0.0557772798034009,-0.00171160509545909,-0.00633633353854556,-0.0344855721758641,-0.051936599190573,0.52156938491557,-0.144963141214248,-0.144963141214248,373.707348410517
0.69,-0.00464105132025594,-0.00464105132025594,-0.027848879358281,-0.0557772798034009,-0.00171160509545909,-0.00633633353854556,-0.0344855721758641,-0.051936599190573,0.52156938491557,-0.144963141214248,-0.144963141214248,373.707348410517
0.7,-0.00464105132025594,-0.00464105132025594,-0.027848879358281,-0.0557772798034009,-0.00171160509545909,-0.00633633353854556,-0.0344855721758641,-0.051936599190573,0.52156938491557,-0.144963141214248,-0.144963141214248,373.707348410517
0.71,-0.00464105132025594,-0.00464105132025594,-0.027848879358281,-0.0557772798034009,-0.00171160509545909,-0.00633633353854556,-0.0344855721758641,-0.051936599190573,0.52156938491557,-0.144963141214248,-0.144963141214248,373.707348410517
0.72,0.464466016200285,0.0149002173966153,1.37914503746468,-0.0557772798034009,-0.218497170229027,0.410133738291959,-0.735508286359291,1.16798103580604,0.52156938491557,-0.144963141214248,-39.176757147249,373.707348410517
0.73,0.464466007449639,0.0149002173966153,1.61376075434496,-0.0557772798034009,-0.218497165869093,0.410133730704814,-0.852403565486643,1.37140185166564,0.52156938491557,-0.144963141214248,-62.077504327541,373.707348410517
0.74,0.542572773158202,0.0147253161784421,1.32084120855168,-0.172504921032507,-0.257564841511683,0.477768146202944,-0.807666238445052,1.05927083093264,0.52156938491557,-0.144963141214248,-57.2146629454373,373.707348410517
0.75,0.51337745776571,0.0149002173966153,1.43779911117122,-0.173205604196326,-0.242866878662623,0.452541832175904,-0.866547034656813,1.16032870434945,0.52156938491557,-0.144963141214248,-34.0462660750446,373.707348410517
0.76,0.513202569676837,-0.0336614961296098,1.43849902282576,-0.0571784357384599,-0.284884608438632,0.428194738079953,-0.76629575902143,1.21874510127833,0.52156938491557,-0.144963141214248,-2.31574169992651,373.707348410517
0.77,0.522914916757404,-0.0145282602344283,1.32154109394079,-0.172505078813591,-0.273134453890059,0.44614868666289,-0.8080150871708,1.0598775797681,0.52156938491557,-0.144963141214248,-0.144963141214248,373.707348410517
0.78,0.454811895131961,-0.0923436289404384,1.67206505612219,0.295106747806205,-0.299646589873504,-0.354391206065551,-1.49499275579174,-0.804913787082728,2.23938834804456,27.932108420222,-0.144963141214248,373.707348410517
0.79,0.484065502176535,-0.111418686963031,1.67241498568403,0.410433916836084,-0.222425310184934,-0.444140198125685,-1.38163418771927,-1.0278690849302,2.45107298049484,27.932108420222,-0.144963141214248,373.707348410517
0.8,0.522856655738136,-0.0430242989711821,1.61516042003484,-0.059279117744904,-0.20271842316633,-0.483875411299837,-0.691565844868817,-1.46081959134542,2.66275761294753,27.9332043600531,-0.144963141214248,373.707348410517
0.81,0.454112605340257,0.0252535494875066,2.02713697294785,-0.17600686421035,0.124910648653068,-0.437325199301051,0.830398407031074,-1.85760631161222,-2.80782276286562,48.9899120912987,12.9322381240242,373.707348410517
0.82,0.503198873731153,0.00495478684774314,1.61551008689582,-0.289233403778533,0.453208373967998,-0.218714028361901,1.58492643375656,-0.426071592931469,-2.01057327747449,77.9825403340865,48.9120897733282,373.707348410517
0.83,0.444400302025134,0.0143176071928275,1.90982882550808,-0.287833089360389,0.442967534474345,0.0384237650091601,1.86228826278897,0.512031694674014,-1.45206450788117,77.9825403340865,106.897346258941,373.707348410517
0.84,0.376530201946625,0.0149584740405596,2.20065021256964,-0.291334085798314,0.162509569101638,0.339984395044814,0.601852976646128,2.13670538496372,-0.406179828640562,106.975168576873,163.666438286166,373.707348410517
