t,iq,id,vq,vd,ia,ib,va,vb,theta_e,omega,omega_obs,r
0,0,0,0,0,0,0,0,0,0,-0.144963141214248,0,0
0.01,-0.0336598353633536,-0.0243288795532344,0.146939790576223,0.062238186214413,-0.0336586690380281,0.0243304931226711,0.146936806810647,-0.0622452301958546,-1.57084426515748,-0.144963141214248,911.79526931857,-0.144963141214248
0.02,-0.0240846136934363,-0.00464105132025594,0.147526329742281,-0.0557772798034009,-0.0240843911813611,0.00464220589186666,0.147529003444229,0.0557702075686272,-1.57084426515748,-0.144963141214248,911.795269318629,-0.144963141214248
0.03,-0.00493417035186704,-0.00473875766412631,-0.0260892618705093,-0.0551901381797175,-0.00493394317791445,0.00473899419472856,-0.0260866161156775,0.0551913887927963,-1.57084426515748,-0.144963141214248,911.749491484559,-0.144963141214248
0.04,-0.0240846136930808,-0.00464105132025594,0.147526329740147,-0.0557772798034009,-0.0240843911810057,0.00464220589186665,0.147529003442095,0.0557702075686273,-1.57084426515748,-0.144963141214248,909.918378121857,-0.144963141214248
0.05,-0.00542270206961992,-0.00517843621044368,-0.0237431052285459,-0.0528415716909895,-0.00542245381763642,0.00517869615995133,-0.0237405720628418,0.0528427098358591,-1.57084426515748,-0.144963141214248,909.918378121857,-0.144963141214248
0.06,-0.0240846136932808,-0.00464105132025594,0.0888724136539861,-0.0557772798034009,-0.0240843911812057,0.00464220589186666,0.08887508742333,0.0557730193413225,-1.57084426515748,-0.144963141214248,911.722024784132,-0.144963141214248
0.07,0.0343437797694605,0.0635091233287283,-0.203224088456839,-0.289459645340018,0.0343407352066176,-0.06351076964032,-0.203210212001899,0.28946938723745,-1.57084426515748,-0.144963141214248,911.749491484559,-0.144963141214248
0.08,0.053689635799413,0.0828549793592474,-0.261291465385211,-0.406300828115138,0.0536856638056804,-0.0828575530572704,-0.261271987688567,0.406313353533284,-1.57084426515748,-0.144963141214248,914.755569254987,-0.144963141214248
0.09,-0.024084613693303,-0.00464105132025594,0.147526329741482,-0.0557772798034009,-0.0240843911812279,0.00464220589186666,0.14752900344343,0.0557702075686272,-1.57084426515748,-0.144963141214248,914.755569255015,-0.144963141214248
0.1,0.0245242922390452,0.0342460734254789,-0.14457017236961,-0.172618462571841,0.0245226505101814,-0.0342472490405417,-0.144561897157048,0.172625392830834,-1.57084426515748,-0.144963141214248,914.755569255042,-0.144963141214248
0.11,-0.00464105132025594,-0.00464105132025594,-0.027848879358281,-0.0557772798034009,-0.00464082883052229,0.00464127379932405,-0.0278462054548192,0.0557786147689861,-1.57084426515748,-0.144963141214248,914.801347089064,-0.144963141214248
0.12,0.014704804709008,0.0145582451933025,-0.0856229867023579,-0.171444179326479,0.0147041067936751,-0.014558950100834,-0.085614767850745,0.171448283755263,-1.57084426515748,-0.144963141214248,914.801347089064,-0.144963141214248
0.13,-0.00464105132025594,-0.00464105132025594,-0.027848879358281,-0.0557772798034009,-0.00464082883052229,0.00464127379932405,-0.0278462054548192,0.0557786147689861,-1.57084426515748,-0.144963141214248,911.795269318584,-0.144963141214248
0.14,-0.00468990449205936,-0.00473875766386278,-0.0275556097777767,-0.0551901381813012,-0.00468967731838745,0.00473898248475968,-0.0275529640212599,0.0551914590886975,-1.57084426515748,-0.144963141214248,911.795269318643,-0.144963141214248
0.15,-0.101956569529488,-0.0532499572529822,0.497983478360776,0.177905085736159,-0.101954016696578,0.0532548448227918,0.497974949310069,-0.177928958044276,-1.57084426515748,-0.144963141214248,914.801347089064,-0.144963141214248
0.16,-0.101858863184817,-0.0532499572525375,0.497396939193913,0.177905085734021,-0.10185631035202,0.0532548401384649,0.497388410143881,-0.177928929924411,-1.57084426515748,-0.144963141214248,911.749491484559,-0.144963141214248
0.17,0.228535137643809,0.0827572730159493,-1.13582135424852,-0.405713686494319,0.228531170133053,-0.082768228521145,-1.13580190369361,0.405768135444027,-1.57084426515748,-0.144963141214248,909.945844822309,-0.144963141214248
0.18,0.0246708517550509,0.0344414861134865,-0.145156711533001,-0.173205604196326,0.0246692006582544,-0.034442668754148,-0.145148408173158,0.173212562572372,-1.57084426515748,-0.144963141214248,909.945844822293,-0.144963141214248
0.19,0.0537873421424836,0.0829526857018848,-0.261584734963239,-0.406887969734015,0.0537833654647566,-0.0829552640836777,-0.26156522911965,0.40690050921035,-1.57084426515748,-0.144963141214248,909.918378121857,-0.144963141214248
0.2,0.0533476635972024,0.0826107135007281,-0.259531847904018,-0.405126544873022,0.053343703313568,-0.0826132708054444,-0.259512426502611,0.405138985939336,-1.57084426515748,-0.144963141214248,911.749491484559,-0.144963141214248
0.21,-0.00464105132025594,-0.00464105132025594,-0.027848879358281,-0.0557772798034009,-0.00464082883052229,0.00464127379932405,-0.0278462054548192,0.0557786147689861,-1.57084426515748,-0.144963141214248,911.749491484559,-0.144963141214248
0.22,-0.0045433449763411,-0.0045433449763411,0.0305117671476523,-0.0557772798034009,-0.00454312717060186,0.00454356277163934,0.0305144409840551,0.0557758170551543,-1.57084426515748,-0.144963141214248,911.749491484559,-0.144963141214248
0.23,-0.0338063948802544,-0.0240846136935888,0.205593706669951,0.0610639029678292,-0.0338052402644659,0.0240862342891294,0.205590779130195,-0.0610737587233157,-1.57084426515748,-0.144963141214248,914.75556925497,-0.144963141214248
0.24,-0.00464105132025594,-0.00464105132025594,-0.027848879358281,-0.0557772798034009,-0.00464082883052229,0.00464127379932405,-0.0278462054548192,0.0557786147689861,-1.57084426515748,-0.144963141214248,914.755569254997,-0.144963141214248
0.25,-0.0142162729909064,-0.0238892010054511,0.029925227984995,0.0604767613418941,-0.014215127765392,0.0238898824828504,0.0299223287936976,-0.0604781958388326,-1.57084426515748,-0.144963141214248,914.801347089064,-0.144963141214248
0.26,0.0925767605437477,0.0148025110525448,-0.494734051402006,-0.17261846257144,0.0925760508292313,-0.0148069490138482,-0.494725775787091,0.172642179113424,-1.57084426515748,-0.144963141214248,914.801347089064,-0.144963141214248
0.27,0.0149979237403083,0.0151444832558478,-0.0870893346071688,-0.173792745818944,0.0149971977213458,-0.0151452022143521,-0.087081003167439,0.173796920539346,-1.57084426515748,-0.144963141214248,914.801347089064,-0.144963141214248
0.28,0.0924790542008748,0.0148025110527444,-0.43578686573814,-0.17261846257264,0.0924783444864706,-0.0148069443301657,-0.435778590190957,0.172639353283065,-1.57084426515748,-0.144963141214248,911.795269318601,-0.144963141214248
0.29,-0.0143628325066677,-0.0240846136930812,0.0305117671472535,0.0610639029647789,-0.0143616779132207,0.0240853021960791,0.0305088398086741,-0.0610653655787698,-1.57084426515748,-0.144963141214248,911.795269318575,-0.144963141214248
0.3,-0.0241334668652938,-0.00473875766392617,0.147819599323111,0.061651044589528,-0.0241332396692804,0.00473991457736569,0.147816643703131,-0.0616581307482349,-1.57084426515748,-0.144963141214248,909.945844822301,-0.144963141214248
0.31,-0.0143628325067675,-0.0240846136932808,0.0308050367290811,0.0610639029659783,-0.0143616779133205,0.0240853021962787,0.0308021093901647,-0.0610653796388328,-1.57084426515748,-0.144963141214248,911.795269318605,-0.144963141214248
0.32,-0.0240846136931029,-0.0532499572523707,0.0888724136529181,0.177905085733219,-0.0240820609496713,0.0532511117681277,0.0888638850722977,-0.177909345926786,-1.57084426515748,-0.144963141214248,909.918378121857,-0.144963141214248
0.33,-0.0143628325068673,-0.0240846136934804,0.0305117671484516,0.0610639029671777,-0.0143616779134203,0.0240853021964783,0.0305088398098722,-0.0610653655811687,-1.57084426515748,-0.144963141214248,909.918378121857,-0.144963141214248
0.34,-0.00468990449216916,-0.00473875766408238,-0.0275556097771175,-0.0551901381799815,-0.00468967731849724,0.00473898248497929,-0.0275529640206008,0.0551914590873779,-1.57084426515748,-0.144963141214248,909.918378121857,-0.144963141214248
0.35,-0.0338063948795581,-0.0240846136931246,0.147233060158713,0.0610639029650396,-0.0338052402637696,0.0240862342886651,0.147230132686016,-0.0610709610066941,-1.57084426515748,-0.144963141214248,909.918378121857,-0.144963141214248
0.36,0.034246073426235,-0.0240846136935032,-0.144570172371879,0.0610639029673146,0.0342472279638283,0.0240829719651446,-0.144573099509282,-0.0610569724398101,-1.57084426515748,-0.144963141214248,911.722024784111,-0.144963141214248
0.37,0.0926744668888856,0.0635091233292842,-0.436373404902146,-0.28945964534269,0.0926714222590182,-0.0635135659185038,-0.436359528179308,0.289480564036587,-1.57084426515748,-0.144963141214248,914.755569255011,-0.144963141214248
0.38,-0.0144116856786916,-0.0241823200371289,0.0308050367290811,0.061651044589528,-0.0144105264013063,0.0241830108819557,0.0308020812435567,-0.0616525212617078,-1.57084426515748,-0.144963141214248,914.755569255038,-0.144963141214248
0.39,-0.00468990449205936,-0.00473875766386278,-0.0275556097777767,-0.0551901381813012,-0.00468967731838745,0.00473898248475968,-0.0275529640212599,0.0551914590886975,-1.57084426515748,-0.144963141214248,914.75556925498,-0.144963141214248
0.4,-0.024084613693347,-0.00464105132025594,0.0888724136543833,-0.0557772798034009,-0.0240843911812718,0.00464220589186666,0.0888750874237272,0.0557730193413225,-1.57084426515748,-0.144963141214248,917.807424859511,-0.144963141214248
0.41,-0.00464105132025594,-0.00464105132025594,-0.027848879358281,-0.0557772798034009,-0.00464082883052229,0.00464127379932405,-0.0278462054548192,0.0557786147689861,-1.57084426515748,-0.144963141214248,917.853202693567,-0.144963141214248
0.42,-0.189208334351112,-0.111385231686169,0.905334925591658,0.5272543508075,-0.189202994508082,0.111394301895915,0.905309648841156,-0.527297750475568,-1.57084426515748,-0.144963141214248,914.847124923151,-0.144963141214248
0.43,-0.00464105132025594,-0.00464105132025594,-0.027848879358281,-0.0557772798034009,-0.00464082883052229,0.00464127379932405,-0.0278462054548192,0.0557786147689861,-1.57084426515748,-0.144963141214248,914.847124923123,-0.144963141214248
0.44,-0.111287525339584,-0.111140965823679,0.554584507374399,0.526667209168566,-0.111282197295795,0.111146300637712,0.554559259173532,-0.52669379443659,-1.57084426515748,-0.144963141214248,914.801347089064,-0.144963141214248
0.45,-0.0145093920222539,-0.0241823200371289,0.0313915758898226,0.061651044589528,-0.0145082327447564,0.0241830155658378,0.0313886204036243,-0.0616525493794348,-1.57084426515748,-0.144963141214248,914.801347089064,-0.144963141214248
0.46,-0.00454334497651846,-0.00454334497651846,-0.0281421489391774,-0.0563644214262857,-0.00454312717077921,0.00454356277181671,-0.0281394468887707,0.0563657704500597,-1.57084426515748,-0.144963141214248,914.801347089064,-0.144963141214248
0.47,0.0150956300844461,0.0152421896003191,-0.0873826041899342,-0.174379887444234,0.0150948993814892,-0.0152429132425933,-0.0873742446032593,0.174384076222825,-1.57084426515748,-0.144963141214248,911.749491484559,-0.144963141214248
0.48,0.0148025110530757,0.0148025110530757,-0.0862095258653406,-0.172618462574631,0.0148018014279252,-0.0148032206442087,-0.0862012507198377,0.172622595119792,-1.57084426515748,-0.144963141214248,911.749491484559,-0.144963141214248
0.49,0.0246219985831936,0.0343437797697718,-0.144863441952173,-0.290046786966507,0.0246203521703353,-0.0343449600686045,-0.144849537417684,0.290053731149434,-1.57084426515748,-0.144963141214248,914.755569254997,-0.144963141214248
0.5,-0.00464105132025594,-0.00464105132025594,-0.027848879358281,-0.0557772798034009,-0.00464082883052229,0.00464127379932405,-0.0278462054548192,0.0557786147689861,-1.57084426515748,-0.144963141214248,914.801347089064,-0.144963141214248
0.51,-0.00464105132025594,-0.00464105132025594,0.0308050367290811,-0.0557772798034009,-0.00464082883052229,0.00464127379932405,0.0308077105651469,0.0557758029962908,-1.57084426515748,-0.144963141214248,914.801347089064,-0.144963141214248
0.52,0.0342460734261005,0.0634114169858678,-0.202930818878075,-0.28945964534402,0.034243033547252,-0.0634130586136897,-0.202916942423472,0.289469373182589,-1.57084426515748,-0.144963141214248,914.801347089064,-0.144963141214248
0.53,-0.024084613693258,-0.00464105132025594,0.0891656832351462,-0.0557772798034009,-0.0240843911811829,0.00464220589186666,0.0891683570041531,0.055773005282459,-1.57084426515748,-0.144963141214248,917.807424859524,-0.144963141214248
0.54,-0.00429907911608512,-0.00454334497620713,-0.0293152272674353,-0.0557772798034009,-0.00429886131062656,0.0045435510618,-0.0293125533622887,0.0557786850633038,-1.57084426515748,-0.144963141214248,917.853202693567,-0.144963141214248
0.55,0.0244754390677083,0.0343437797698152,-0.144276902790908,-0.173205604196326,0.0244737926550185,-0.0343449530428247,-0.144268599432075,0.173212520395781,-1.57084426515748,-0.144963141214248,917.853202693567,-0.144963141214248
0.56,-0.00464105132025594,-0.00464105132025594,0.0308050367290811,-0.0557772798034009,-0.00464082883052229,0.00464127379932405,0.0308077105651469,0.0557758029962908,-1.57084426515748,-0.144963141214248,917.853202693567,-0.144963141214248
0.57,-0.189354893862279,-0.1115806443709,0.964575380818614,0.528428634038113,-0.189349544651316,0.111589721606245,0.964550047706827,-0.528474873595254,-1.57084426515748,-0.144963141214248,917.88524717744,-0.144963141214248
0.58,0.0147048047093204,0.0148025110529678,-0.0269690706164024,-0.172618462573982,0.0147040950842822,-0.0148032159602187,-0.0269607955389694,0.172619755228722,-1.57084426515748,-0.144963141214248,917.885247177421,-0.144963141214248
0.59,0.0244754390674002,0.0341483670820105,-0.144276902789521,-0.288872503719017,0.0244738020224747,-0.0341495403552445,-0.144263054548922,0.288879419785565,-1.57084426515748,-0.144963141214248,917.853202693567,-0.144963141214248
0.6,-0.0330247441275337,-0.0236449351451111,0.143713825178393,0.0593024780916006,-0.033023610590113,0.0236465182700997,0.143710982149564,-0.0593093674289165,-1.57084426515748,-0.144963141214248,914.847124923086,-0.144963141214248
0.61,-0.0921370819998624,-0.0240846136935032,0.439329562276684,0.0610639029673146,-0.0921359273170494,0.0240890305666716,0.439326634468356,-0.0610849636369918,-1.57084426515748,-0.144963141214248,914.801347089064,-0.144963141214248
0.62,0.0148025110528116,0.0148025110528116,-0.0275556097771859,-0.0557772798034009,0.0148018014276612,-0.0148032206439446,-0.0275529358740612,0.0557786007101226,-1.57084426515748,-0.144963141214248,914.801347089064,-0.144963141214248
0.63,-0.0047387576642375,-0.00464105132025594,-0.0272623401950229,-0.0557772798034009,-0.00473853517439159,0.00464127848320619,-0.0272596662922352,0.055778586651259,-1.57084426515748,-0.144963141214248,914.801347089064,-0.144963141214248
0.64,-0.0239869073499153,-0.00454334497664911,0.0888724136554346,-0.0563644214255006,-0.0239866895218345,0.00454449486448998,0.0888751155713864,0.0563601609627475,-1.57084426515748,-0.144963141214248,917.807424859484,-0.144963141214248
0.65,0.0635091233293385,0.102396248075517,-0.319945381470968,-0.523729152505653,0.0635042145478981,-0.10239929248124,-0.319920274385338,0.523744489561564,-1.57084426515748,-0.144963141214248,917.807424859511,-0.144963141214248
0.66,0.121839810447628,0.0829526857018051,-0.553094697910457,-0.406887969733742,0.121835833691706,-0.0829585264074971,-0.553075191731911,0.406914483720371,-1.57084426515748,-0.144963141214248,917.807424859539,-0.144963141214248
0.67,-0.0535430762842284,-0.0535919294560209,0.265713970658965,0.179666510604426,-0.0535405071133602,0.0535944961618453,0.265705357435322,-0.179679248290646,-1.57084426515748,-0.144963141214248,917.807424859566,-0.144963141214248
0.68,0.0144605388496941,0.0145582451934544,-0.0257959922915274,-0.171444179327261,0.0144598409346419,-0.0145589383912806,-0.0257877735086583,0.171445415747896,-1.57084426515748,-0.144963141214248,919.957457132879,-0.144963141214248
0.69,-0.00464105132025594,-0.00464105132025594,-0.027848879358281,-0.0557772798034009,-0.00464082883052229,0.00464127379932405,-0.0278462054548192,0.0557786147689861,-1.57084426515748,-0.144963141214248,919.957457132898,-0.144963141214248
0.7,-0.0240846136935655,-0.00464105132025594,0.0888724136556951,-0.0557772798034009,-0.0240843911814904,0.00464220589186667,0.0888750874250389,0.0557730193413224,-1.57084426515748,-0.144963141214248,917.853202693567,-0.144963141214248
0.71,-0.00473875766399234,-0.00464105132025594,-0.0272623401964946,-0.0557772798034009,-0.00473853517414643,0.00464127848320618,-0.0272596662937069,0.0557785866512591,-1.57084426515748,-0.144963141214248,917.885247177411,-0.144963141214248
0.72,-0.121448985073871,-0.0922347883424782,0.615291310532708,0.412174592896469,-0.121444563349596,0.0922406103019762,0.615271550850637,-0.41220408848079,-1.57084426515748,-0.144963141214248,917.853202693567,-0.144963141214248
0.73,0.0149002173966153,0.0149002173966153,-0.0281421489385834,-0.0557772798034009,0.0148995030874704,-0.0149009316715182,-0.0281394750347847,0.0557786288278495,-1.57084426515748,-0.144963141214248,914.847124923071,-0.144963141214248
0.74,0.0730354918286555,0.0342460734260571,-0.377132949654997,-0.172618462573578,0.0730338500440502,-0.0342495745885944,-0.377124674175211,0.172636541511308,-1.57084426515748,-0.144963141214248,914.847124923045,-0.144963141214248
0.75,0.0147048047088301,0.0148025110527227,-0.0269690706141949,-0.172618462572509,0.0147040950837919,-0.0148032159599736,-0.0269607955367619,0.172619755227248,-1.57084426515748,-0.144963141214248,914.847124923102,-0.144963141214248
0.76,-0.00464105132025594,-0.00464105132025594,0.0308050367290811,-0.0557772798034009,-0.00464082883052229,0.00464127379932405,0.0308077105651469,0.0557758029962908,-1.57084426515748,-0.144963141214248,911.79526931857,-0.144963141214248
0.77,-0.00468990449210244,-0.00473875766394895,0.031098306309844,-0.0551901381807833,-0.00468967731843053,0.00473898248484586,0.0311009519989649,0.0551886473154844,-1.57084426515748,-0.144963141214248,914.801347089064,-0.144963141214248
0.78,-0.00434793228864322,-0.00464105132025594,-0.0290219576834685,0.061651044589528,-0.00434770979924638,0.00464125974767764,-0.0290249131002491,-0.0616496532535585,-1.57084426515748,-0.144963141214248,914.755569255022,-0.144963141214248
0.79,0.0633137106405737,0.0148025110525665,-0.318772303140441,-0.0557772798034009,0.0633130009596818,-0.0148055461911738,-0.318769628902695,0.0557925611615542,-1.57084426515748,-0.144963141214248,914.801347089064,-0.144963141214248
0.8,0.0531522509091516,0.0825130071562941,-0.258358769577956,-0.404539403247261,0.0531482953096239,-0.0825155550933584,-0.258339376324506,0.404551788078796,-1.57084426515748,-0.144963141214248,917.853202693567,-0.144963141214248
0.81,0.0246708517550509,0.0344414861134865,-0.14486344195177,-0.173205604196326,0.0246692006582544,-0.034442668754148,-0.144855138592263,0.173212548513508,-1.57084426515748,-0.144963141214248,919.98950161672,-0.144963141214248
0.82,-0.033904101223551,-0.0240846136931018,0.206473515409401,0.0610639029649027,-0.0339029466076502,0.0240862389725245,0.206470587868634,-0.0610738008969796,-1.57084426515748,-0.144963141214248,919.98950161672,-0.144963141214248
0.83,-0.0338063948800901,-0.0240846136934793,0.205886976249269,0.0610639029671712,-0.0338052402643016,0.0240862342890199,0.205884048709176,-0.0610737727815211,-1.57084426515748,-0.144963141214248,919.98950161672,-0.144963141214248
0.84,-0.0145093920225169,-0.0241823200371289,0.0316848454725615,0.061651044589528,-0.0145082327450194,0.0241830155658378,0.0316818899860262,-0.0616525634382983,-1.57084426515748,-0.144963141214248,919.98950161672,-0.144963141214248
0.85,0.0150956300846218,0.0152421896006267,-0.0287286881033633,-0.0575387046768464,0.0150948993816649,-0.0152429132429009,-0.0287259297590664,0.0575400818169983,-1.57084426515748,-0.144963141214248,917.885247177382,-0.144963141214248
