t,iq,id,vq,vd,ia,ib,va,vb,theta_e,omega,omega_obs,r
0,0,0,0,0,0,0,0,0,0,-0.144963141214248,0,0
0.01,0.0539339016619424,-0.0240846137002982,-0.437839752849481,0.0610639030081475,-0.0477543892061375,0.0347628059443049,0.271094664661084,-0.349199272934778,0.52156938491557,-0.144963141214248,498.879319311306,-0.144963141214248
0.02,-0.00478761083243341,-0.00464105132025594,-0.0859162562975722,-0.0557772798034009,-0.00163858306900424,-0.00646340625104564,-0.00555399706329303,-0.10228323985423,0.52156938491557,-0.144963141214248,506.768252766889,-0.144963141214248
0.03,-0.0338063948897853,-0.00464105132025594,0.0302184976066163,-0.0557772798034009,0.0128197784910246,-0.0316238038863514,-0.0634171473011931,-0.00158995850471466,0.52156938491557,-0.144963141214248,498.833428195178,-0.144963141214248
0.04,-0.00464105132025594,-0.00464105132025594,-0.086502795445643,-0.0557772798034009,-0.00171160509545909,-0.00633633353854556,-0.00526175893728616,-0.102791791768913,0.52156938491557,-0.144963141214248,503.762628631816,-0.144963141214248
0.05,-0.0047876108265685,-0.00464105132025594,-0.0859162563210439,-0.0557772798034009,-0.00163858307192639,-0.00646340624596053,-0.00555399705159845,-0.102283239874581,0.52156938491557,-0.144963141214248,501.885283799682,-0.144963141214248
0.06,-0.00459219815359564,-0.00473875765357654,-0.0870893345449024,-0.0551901382431137,-0.00182066090353521,-0.00634265731815584,-0.00446044660644326,-0.10300780536852,0.52156938491557,-0.144963141214248,501.885283799682,-0.144963141214248
0.07,-0.00429907913761564,-0.00483646399605041,-0.0885556823892096,-0.0546029966278223,-0.00205142009482517,-0.00613719325189629,-0.00322077702746867,-0.103986646832638,0.52156938491557,-0.144963141214248,503.716397162384,-0.144963141214248
0.08,-0.111580644427831,-0.00464105132025594,0.380382376847675,-0.0557772798034009,0.0515701347312642,-0.0990570581639013,-0.237883312434906,0.302015541360954,0.52156938491557,-0.144963141214248,498.833428195178,-0.144963141214248
0.09,-0.00454334498200345,-0.00464105132025594,-0.0870893345745089,-0.0557772798034009,-0.00176028644483503,-0.00625161839965264,-0.00496952082084793,-0.103300343666944,0.52156938491557,-0.144963141214248,506.768252766889,-0.144963141214248
0.1,-0.00464105132025594,-0.00464105132025594,-0.086502795445643,-0.0557772798034009,-0.00171160509545909,-0.00633633353854556,-0.00526175893728616,-0.102791791768913,0.52156938491557,-0.144963141214248,501.838371620908,-0.144963141214248
0.11,-0.00464105132025594,-0.00464105132025594,-0.086502795445643,-0.0557772798034009,-0.00171160509545909,-0.00633633353854556,-0.00526175893728616,-0.102791791768913,0.52156938491557,-0.144963141214248,503.716397162384,-0.144963141214248
0.12,0.0150467768981957,-0.00483646398902976,-0.204397166726024,-0.0546029966700111,-0.0116903277942165,0.0106364051730378,0.0544962541141677,-0.204425652251608,0.52156938491557,-0.144963141214248,503.688113713529,-0.144963141214248
0.13,-0.00503187667611013,-0.00439678547284708,-0.0847431780462394,-0.0563644213975979,-0.00130509184776461,-0.00655349072225776,-0.00664754755153827,-0.101558674353364,0.52156938491557,-0.144963141214248,496.730206045437,-0.144963141214248
0.14,0.0145093920576444,-0.00464105132025594,-0.202051010296974,-0.0557772798034009,-0.0112531501114501,0.0102678346212264,0.0523091532220463,-0.202976521286299,0.52156938491557,-0.144963141214248,503.716397162384,-0.144963141214248
0.15,-0.00464105132025594,-0.00464105132025594,-0.144863441965368,-0.0557772798034009,-0.00171160509545909,-0.00633633353854556,0.0238159352414762,-0.153392708395459,0.52156938491557,-0.144963141214248,498.833428195178,-0.144963141214248
0.16,0.0246708517550509,-0.0241823200371289,-0.26275781326269,0.061651044589528,-0.0332590394083817,0.00934193910971054,0.184370656358482,-0.197103984747933,0.52156938491557,-0.144963141214248,501.885283799682,-0.144963141214248
0.17,0.0164146648796217,-0.00483646399960516,-0.0668537343426405,-0.0546029966064609,-0.0123718663189207,0.0118224164584284,-0.0140335874559368,-0.0851702263533337,0.52156938491557,-0.144963141214248,501.837577460935,2356.05463779645
0.18,4.55839175357241,-0.00464105132025594,4.66417113807461,0.061651044589528,-2.27520376703518,3.94998794135668,-2.27042965568151,4.07473219183164,0.52156938491557,-0.144963141214248,577.670863251532,2391.89945966896
0.19,4.60636556831118,-0.00464105132025594,4.66827691203762,-0.0557772798034009,-2.2991063109025,3.99158307685666,-2.37429017905348,4.01978439447391,0.52156938491557,-0.144963141214248,409.767177786428,2391.89945966896
0.2,4.60748919120464,-0.00464105132025594,4.60405087420069,-0.290633928589255,-2.29966614642209,3.99255730095701,-2.54591981674918,3.84708263744869,0.52156938491557,-0.144963141214248,553.939797172554,2391.89945966896
0.21,4.63606829674536,-0.0343437797571051,4.84247904288856,-0.874839842540197,-3.70496831935665,-2.78702682080009,-3.37056326432703,-3.58528259863568,2.20832192688754,51.7365821353524,360.272591091828,2391.89945966896
0.22,4.59732773150297,-0.014216273006363,5.30965748459162,-0.174967028928453,-2.38973298030602,-3.9274419990755,-2.62481896205792,-4.61880953074632,2.59187576065855,51.7365821353524,325.556674799064,2391.89945966896
0.23,4.60700065952066,0.0538850484896168,5.54456641851296,-0.642918901768038,2.76477118753977,-3.68556630056013,3.88859278954771,-4.00429864029019,-2.48629216977308,98.7351584447133,522.735023163976,2391.89945966896
0.24,4.5195046288133,0.0151444832379141,6.07069204593116,-0.762108650899498,4.45436649226465,0.764702947442508,5.84822333724696,1.79788634512521,-1.39742785684023,124.981116643447,340.151854501095,2391.89945966896
0.25,4.58799677567947,-0.16038496300865,6.24577398540565,0.176730802554406,-1.9071972758927,4.17588748661071,-2.23144703221494,5.83622914181414,0.393482137532943,216.841970339015,151.174681825581,2391.89945966896
0.26,4.55858716624813,0.0638999486940397,6.42290881201082,-0.996378158109584,-4.46947376789526,-0.899224328975516,-6.06815989222821,-2.32894022330266,1.78335477107803,189.985641019381,90.7223700286226,2391.89945966896
0.27,4.50006106645514,0.073377464035051,7.18423664279489,-1.1120450577306,2.47414725234472,-3.75959163045253,4.96555674223277,-5.30972189382518,-2.54324727848961,244.919041900452,200.796453933692,2391.89945966896
0.28,4.56811353476485,0.0143628325420884,7.01032778156387,-0.992268167029223,1.54120201691107,4.30029811763437,1.40925248194816,6.93853724947763,-0.340989172568339,294.969473814315,323.785417946095,2391.89945966896
0.29,4.53865507218587,0.00464105137335572,7.36313108674639,-0.992855308714225,-4.26138463846944,-1.56205389364552,-6.56805178448303,-3.47306159188148,1.92316980587094,299.852442781522,367.874308686397,2391.89945966896
0.3,4.59737658467174,0.024817411261363,7.36225127808697,-0.996378158118123,4.58000474532451,-0.40005486873013,7.41901872472154,0.392013364439502,-1.65252521017151,354.785843662593,373.742021316894,2391.89945966896
0.31,4.58770365664451,0.122328342172747,7.47926584072473,-2.28867686794989,-2.72730704095371,3.69104123098788,-6.40726288462094,4.48602737948395,0.663016673002556,255.876729440196,362.641052832823,2391.89945966896
0.32,4.59713231882717,0.0633137106682558,7.77429503851426,-2.05147165289538,3.12195318778403,-3.37506184773687,6.84383725483888,-4.22020034095305,-2.38136091828684,312.962298901163,422.807233073128,2391.89945966896
0.33,4.616820147053,0.00508072987134148,7.89072306198622,-2.0526459360456,-3.69374433277159,2.76971241975919,-7.54788285051314,3.08323373338048,0.92849894507157,362.704798580945,461.870825979963,2391.89945966896
0.34,4.66533134665901,0.0533965168008396,7.95113659547393,-2.40082091812239,4.66487283059971,0.0844348059645842,7.87674977528348,2.63463986501957,-1.54125328675621,399.953306609251,488.762304700315,2391.89945966896
0.35,4.54871882554587,-0.0822687413505656,8.82771937162624,-1.35042455594842,-3.79672363549988,-2.50649171858104,-6.73035321329089,-5.86980590904321,2.13620517041599,443.889956188121,530.776577573205,2391.89945966896
0.36,4.56835780061279,0.0241334668927083,9.06204176635526,-1.81544072092114,0.775842128965281,4.50206001843229,-0.298890023812777,9.23726641057899,-0.165371599481146,480.822597159582,558.954983603906,2391.89945966896
0.37,4.5777376096189,-0.0244754390402897,9.18110921591031,-1.93345618695685,3.78835004482748,-2.56995809450101,8.66411194114642,-3.60058099931649,-2.17221406236427,524.764129707659,584.778177854038,2391.89945966896
0.38,4.58760595031401,0.00498302352973435,9.41543161070692,-1.93463047009024,-3.3854735254086,-3.09592025004481,-5.63418622356074,-7.78775276122317,2.31263582905857,553.763777220665,626.675369259393,2391.89945966896
0.39,4.57773760961873,-0.1411856665015,9.76764837678499,-1.23064766530151,-3.63385628947772,2.7875981565438,-8.34180909418325,5.22835246753929,0.885597108366957,592.830580813899,652.833514086032,2391.89945966896
0.4,4.53845965950406,0.0639488018674321,10.1793988676808,-2.52235923365122,2.23650927533528,3.94964957832277,2.6783266378872,10.1394784792765,-0.501147945549358,626.706178023893,679.808465542261,2391.89945966896
0.41,4.52883558465882,-0.0340018075631138,10.4717886393894,-1.81720214569732,4.52848441812431,-0.0658540097097046,10.5093072836495,1.5858881941056,-1.59284518270007,660.886960794337,715.87239032244,2391.89945966896
0.42,4.62668848774811,0.0443586799814332,10.2949470824486,-2.05382021927857,2.68044836828578,-3.77139372117321,7.70681446464319,-7.1280518889176,-2.51411331131306,697.814413608834,752.747814489905,2391.89945966896
0.43,4.58765480347999,-0.120960453434679,10.7641784111602,-1.70388381231611,0.93380767538546,-4.49324061814848,3.58852095279135,-10.2904457767649,-2.96304491797465,734.739119752807,786.739660437729,2391.89945966896
0.44,4.61662473436976,-0.0432350570538508,10.8245919446524,-1.93756617809327,-1.71173544343879,-4.28777972613199,-2.31462814481251,-10.7502767412736,2.75240049837559,762.818937984768,817.668003900665,2391.89945966896
0.45,4.55863601941246,0.043625882457068,11.4079051403346,-2.63685185014685,-2.34837863610082,-3.90745228462359,-3.50968888850497,-11.1702896684196,2.61000786863444,799.74364412879,846.607332847189,2391.89945966896
0.46,4.5677227094065,0.0247197049252437,11.5873861233643,-2.63920041644781,-1.75109809546024,-4.21880993574195,-1.94112868625137,-11.7245432931746,2.75357522408233,833.927173569709,883.834064959867,2391.89945966896
0.47,4.51965118831631,0.122084076330913,12.1111655942602,-3.22458061368031,-0.465047928047747,-4.49731940275105,2.29528964043656,-12.3211159256059,3.06555855671853,862.919801812497,917.7464225747,2391.89945966896
0.48,4.58721512495194,-0.04367473558363,11.9979635359822,-2.40493090926683,2.74758754278537,-3.67358309826344,9.0337343508164,-8.25387577856524,-2.50893755170386,909.907391437764,945.892742382584,2391.89945966896
0.49,4.62659078141002,0.0353696963104222,12.0551511041974,-2.52764350784999,4.38532025360872,-1.47497781248885,12.2426648454835,-1.35381214685483,-1.88760964544582,935.85915076014,982.717733025366,2391.89945966896
0.5,4.55785436870484,-0.198490437031433,12.7021037986099,-1.94226331098141,2.98761139142686,3.447841799406,7.31682342487373,10.5631398101637,-0.757526464620018,977.966518089375,1003.91553074058,2391.89945966896
0.51,4.58775250981819,0.0247197049234664,12.8161856655332,-2.87523134839643,-1.94830719070166,4.15357475505315,-8.10155338583924,10.3385880591412,0.443985027301484,1000.86367513607,1042.88697644467,2391.89945966896
0.52,4.53899704437671,-0.072888932317129,13.2267630780893,-2.63978755805696,-3.96055993295764,-2.21850670108643,-10.3890668892181,-8.6013387938698,2.06534165140596,1045.72595252228,1074.61498408334,2391.89945966896
0.53,4.61633161536531,0.0245731454178642,13.2302823128753,-3.108326572436,3.04142939577126,-3.47287037665322,11.0968177021714,-7.84619022482044,-2.41700470080156,1074.70576296463,1110.64287454328,2391.89945966896
0.54,4.57837270078389,-0.0347346050592916,13.6355808735113,-2.98737539871951,2.29933855803648,3.95926069811,4.36521069757626,13.2588993923594,-0.533730949841188,1108.89325982246,1136.93801319666,2391.89945966896
0.55,4.49033928524789,0.0929187327577864,14.2813604894595,-3.57921415317689,-4.48494161931698,-0.238913078035144,-13.9780727892901,-4.62401475792455,1.64470615612629,1144.89813668273,1163.83276441658,2391.89945966896
0.56,4.57763990328611,0.0720584285474038,14.1669853528825,-3.68900963726064,3.84858799985562,-2.47958664068214,13.9774502467342,-4.35237299558061,-2.12740322109876,1189.75247924521,1204.69496874586,2391.89945966896
0.57,4.58755709714453,0.0439190014582272,14.3423605620453,-3.22634203841245,-2.24200569749099,4.00262656897545,-9.92808562555858,10.8418497154368,0.520163246965696,1207.76941399289,1236.68538102424,2391.89945966896
0.58,4.45057280345908,0.0533965168283059,15.2233423815585,-3.810547952565,2.05934205270871,-3.94582814841758,10.5616981333326,-11.6069359223402,-2.64857897904802,1241.94714490929,1267.80927315906,2391.89945966896
0.59,4.65556071230057,-0.150223503314272,14.520081927694,-2.76132587356011,-2.25528043116046,4.07560091565518,-9.07481405815931,11.6664240269575,0.473163964154277,1272.78217838313,1299.89177047549,2391.89945966896
0.6,4.53953442919162,0.0444563863069999,15.3937320083414,-3.93208626789913,3.28035717821492,-3.1382488727686,13.9171823153159,-7.66422363746604,-2.32426520263712,1301.78182589598,1330.68362278934,2391.89945966896
0.61,4.66503822764176,0.0724492538225438,14.9907796042268,-3.92621485203354,-4.3263947377479,1.74646475284379,-15.3993362668926,1.73178484402498,1.20265341524244,1343.87607024008,1364.89674866332,2391.89945966896
0.62,4.5190160971339,-0.0332201568876627,15.9268961050625,-3.5821498609914,4.11941880349027,1.85822463293051,13.117004376881,9.71812807823305,-1.15438819145192,1372.8818214688,1398.82564596339,2391.89945966896
0.63,4.58726397812764,0.0636556828498298,15.8688287281495,-4.2831969579488,-1.24813583860172,-4.41465737961447,0.0324117598627813,-16.4366800437846,2.87993418823313,1403.70678381641,1429.81188817463,2391.89945966896
0.64,4.65556071231461,0.0924302010882726,15.8107613511066,-4.3982767160664,-3.80426537724486,2.68521020175639,-15.5600533111691,5.21629691700106,0.976011435081166,1448.85990303913,1458.99982074706,2391.89945966896
0.65,4.6166735875412,-0.179730819057544,16.2204589551114,-3.34553178759439,2.20952685452889,4.05758170100558,5.43179103076751,15.6458147072734,-0.537554915686686,1471.77811789576,1492.79136310072,2391.89945966896
0.66,4.54842570654324,0.014851364229066,16.8644789538018,-4.2831969579488,4.11047188398695,-1.94741312050515,17.0852610529791,-3.29397652015947,-2.00997443905705,1505.93570655603,1526.6983957921,2391.89945966896
0.67,4.62600454337039,-0.0819267691306663,16.6917431707955,-3.9356091175578,-0.851180949927425,-4.54776000040287,0.494183934232624,-17.1423187301236,2.93886026460648,1534.9353540674,1560.74413805056,2391.89945966896
0.68,4.56801582842766,0.1507608882279,17.216695719882,-5.33594188647339,-4.33186997525602,-1.45753215115835,-14.2602774796989,-11.0241268828337,1.92835631004697,1576.73600991018,1586.81995120083,2391.89945966896
0.69,4.60690295318134,-0.0436258824139692,17.2178687981748,-3.93208626797124,-4.40118319980743,1.36200017598392,-17.5972964396217,1.50048871572145,1.26121191560137,1607.86280077357,1623.66502826087,2391.89945966896
0.7,4.55848945990875,0.0917462567306637,17.8017685329712,-5.09814952979633,-2.93295789670448,3.49084538584597,-15.5599211451123,10.03907094743,0.718892354538787,1649.96711625175,1652.74003225811,2391.89945966896
0.71,4.65526759327089,-0.0818779159540891,17.5715519121293,-3.93560911759191,-2.36950240292389,4.00795193591653,-12.0975850076282,13.3377993953402,0.516337593179322,1665.86301135748,1686.92081502856,2391.89945966896
0.72,4.63631256260055,-0.130437968777874,17.9208359824907,-3.70192675175789,-2.31637074804788,4.01831243178211,-11.7677339315649,14.0136027524191,0.49479945759078,1696.99987334909,1722.84634414058,2391.89945966896
0.73,4.63616600308486,0.0444563863237731,18.2143988325268,-5.10813093672367,-2.47623167933318,3.91973063471351,-14.1674937722712,12.5355273805982,0.573016673239502,1733.90840465382,1746.65626131607,2391.89945966896
0.74,4.62644422190524,0.0340995139356681,18.4493077663975,-5.33829045274662,-4.02945424664983,2.273465941994,-18.7234427519115,4.27866726131319,1.06447783399241,1767.79193669194,1780.94817783899,2391.89945966896
0.75,4.66513593396544,0.218569090636774,18.4516539230362,-6.38927395613034,-4.62891653844862,-0.619997911153103,-17.0100090349579,-9.58884491545422,1.75076142355282,1806.84287063105,1814.74344144233,2391.89945966896
0.76,4.60792886972447,-0.013923153994537,19.0305680751919,-4.9901154706319,-1.95024042649446,-4.17489695699475,-3.59169718140197,-19.343305948877,2.70155943975927,1824.87262317752,1848.92445111873,2391.89945966896
0.77,4.51926036297693,0.0249639707794068,19.7382275725085,-5.45924162670553,3.20755285576686,-3.18369943708155,17.9099927627914,-9.93142014415103,-2.34693845946035,1861.77627151241,1877.91730626747,2391.89945966896
0.78,4.3930237670105,-0.0438701482597802,19.9716701586258,-4.51805360673466,3.85721306771935,2.10297164927217,15.5064746587185,13.3727207768948,-1.08162798004465,1884.9941785861,1916.59699103171,2391.89945966896
0.79,3.96277388303596,0.0341972202810718,19.2126884841362,-5.45748020187808,-1.79734282759978,3.53189822305548,-13.7035179426016,14.5301440095805,0.479362599563956,1913.98680683062,1934.78070590678,2391.89945966896
0.8,3.05552162962097,-0.461222795053087,18.6305483667933,-1.94696044338906,-1.68005617705699,-2.59352079954853,-10.8917339621796,-15.2400170181221,2.41695649377875,1939.94863727209,1963.68002835916,2391.89945966896
0.81,2.60577933004855,-0.285644495715172,18.2771585222423,-2.41432517418695,2.607249472715,-0.271898661026507,18.3743460623379,-1.50562162422437,-1.78389001694069,1968.93607736519,1989.93589577227,2391.89945966896
0.82,2.13747282528673,-0.43210630464397,17.8096868111571,-1.35747025511813,-1.07447336561236,1.89763350622346,-6.82062474479556,16.5077784058218,0.315739697074871,1984.81610281254,2007.97602462237,2391.89945966896
0.83,1.91269938177456,-0.383253132957313,17.6914991700389,-1.24062907185645,-0.845779100634207,-1.75782809224702,-9.66269243330716,-14.871471962006,2.49538429240778,2000.9875804818,2021.70937484264,2391.89945966896
0.84,1.86208749600135,-0.00488531716588581,18.3909471198954,-3.10773943083968,1.86121468778482,-0.0572153393981536,18.4843563840706,2.49269922041393,-1.6041510726316,2021.71639411074,2034.83235394201,2391.89945966896
0.85,1.60853953432896,0.248662644493839,18.3328797428482,-2.99031110649748,-0.971862133197951,1.30564793812185,-15.162509876691,10.7300854804901,0.793251809067025,2028.73962941589,2047.90650335072,2391.89945966896
0.86,1.33452209381708,-0.0916485503294047,17.9205427129398,-1.82248642002585,0.510876615580891,-1.23626605523084,7.42140343541658,-16.4131069248411,-2.81829096678249,2052.8431849776,2062.82641503053,2391.89945966896
0.87,1.37228559571128,0.0159261339076778,18.330533586433,-1.70564523697134,0.43861230344023,1.30040018656134,4.03407740848146,17.9622912430495,-0.313702509059946,2060.7651917539,2070.81006929174,2391.89945966896
0.88,1.34370649014387,0.00576467424144272,18.5041491781488,-2.52588208321426,-1.05720250846476,-0.829399312285526,-12.9418514223361,-13.4644754397513,2.24031845530558,2060.76824361135,2068.66400443109,2391.89945966896
0.89,0.953125381643302,0.131952417028357,18.2120526760417,-2.17007426044494,0.958024449399653,0.0897139222462523,17.2318401758158,6.28106433066102,-1.33985652527401,2075.72721904236,2084.06000558654,2391.89945966896
0.9,0.93206966467842,0.0929675859247809,17.8038214199025,-2.28691544326903,-0.893594465499282,0.280866094563721,-17.896402770038,1.38737424259598,1.36567727738059,2091.89198261841,2086.71389921857,2391.89945966896
