t,iq,id,vq,vd,ia,ib,va,vb,theta_e,omega,omega_obs,r,omega_ekf
0,0,0,0,0,0,0,0,0,0,-0.144963141214248,0,0,0
0.01,0.00532499572961384,0.0532011040646211,-0.0873826042061578,-0.4045394031735,-0.0487152529047256,0.0220349083874581,0.393913175566516,-0.126965579402153,2.61705109019401,-0.144963141214248,386.830327509884,-0.144963141214248,-1.27438714020068e-10
0.02,0.00517843621334867,0.0147536578711083,-0.0284354185596971,-0.290046786926706,-0.0153635270889471,0.00290665745842644,0.265291967721697,-0.120647766235108,2.61705109019401,-0.144963141214248,378.895502938174,-0.144963141214248,-6.14292058485837
0.03,-0.00464105132025594,-0.013727741256184,0.0308050367290811,-0.176141312380909,0.014206410153768,-0.00285799718280161,0.137032088300387,-0.114877843778441,2.61705109019401,-0.144963141214248,386.784549674984,-0.144963141214248,9.16418100509611
0.04,-0.0338063948827872,-0.228290871803912,0.147526329753334,0.878365040836057,0.214528783769867,-0.0850705320200984,-0.834155629339135,0.312207541509249,2.61705109019401,-0.144963141214248,380.726616300876,-0.144963141214248,-1.24617031185711
0.05,-0.0240846136907009,0.0147536578769732,0.0888724136384986,-0.290046786950202,-0.000708116006329864,0.0282353963864978,0.20654229843867,-0.222183985655446,2.61705109019401,-0.144963141214248,383.77847190538,-0.144963141214248,23.3055233308505
0.06,-0.024084613694922,0.0147536578833049,0.0888724136638383,-0.290046786975568,-0.000708116009696258,0.0282353963933224,0.206542298447935,-0.222183985690083,2.61705109019401,-0.144963141214248,383.77847190538,-0.144963141214248,0.479870617011603
0.07,0.00508072986478789,-0.033855248048781,-0.0862095258556036,0.060476761307149,0.026759020568491,-0.0213529027211411,-0.00917074802446567,0.10490671278389,2.61705109019401,-0.144963141214248,380.726616300876,-0.144963141214248,5.53432754070918
0.08,0.0245731454124884,-0.0717164562047138,-0.203224088465624,0.172620811208395,0.0497678079654226,-0.0571861421704835,-0.047634641820566,0.262352654824674,2.61705109019401,-0.144963141214248,386.862371993731,-0.144963141214248,-4.88532430368091
0.09,0.0148513642230459,-0.0531522508974499,-0.14457017235079,0.059889619659555,0.0385683188206142,-0.0394741634249857,0.0205654150237369,0.155126931837785,2.61705109019401,-0.144963141214248,380.726616300876,-0.144963141214248,-0.829371439074862
0.1,0.00512958303817967,0.0157795744828772,-0.0281421489367176,-0.177902737140008,-0.0162270464670115,0.00346273821761054,0.16807840470395,-0.0647380436903879,2.61705109019401,-0.144963141214248,383.824249739392,-0.144963141214248,-5.20706109300288
0.11,-0.033806394874323,0.0730843449835044,0.147526329719459,-0.523729152438727,-0.0463276276317974,0.0658630756499881,0.379432082360233,-0.389984022686134,2.61705109019401,-0.144963141214248,378.922969638981,-0.144963141214248,-1.12877629205643
0.12,0.014802511053342,-0.0532988104258893,-0.085916256286637,0.0604767613493378,0.0387196404132814,-0.0395052777811445,-0.00931762222846688,0.104652872266476,2.61705109019401,-0.144963141214248,386.830327509884,-0.144963141214248,4.29097595655558
0.13,0.00512958303817967,-0.0339529543955646,-0.086502795445643,-0.0557772798034009,0.0268191241877576,-0.0214441206892356,0.0916002328661621,0.0469386397442714,2.61705109019401,-0.144963141214248,380.726616300876,-0.144963141214248,4.68386675937439
0.14,0.00532499572543777,-0.0342949265982662,-0.0873826041873558,-0.0540158549367012,0.027017253617102,-0.0217845260872388,0.0905162477073856,0.0485823115967329,2.61705109019401,-0.144963141214248,386.784549675983,-0.144963141214248,6.32193774777184
0.15,-0.00439678544974308,0.208749602994047,-0.0290219577355061,-1.22242768228616,-0.178481993977273,0.108350848166315,1.07261138000256,-0.587091594165099,2.61705109019401,-0.144963141214248,383.77847190538,-0.144963141214248,11.2904780383644
0.16,-0.00464105132025594,-0.0144116856786916,-0.027848879358281,-0.172618462571958,0.0147984007280177,-0.00320052766769124,0.163357707523467,-0.0623454336330738,2.61705109019401,-0.144963141214248,380.726616300876,-0.144963141214248,4.99413377423366
0.17,-0.024084613688568,-0.0727423727836242,0.0891656832210689,0.177317944026846,0.0750243905103561,-0.0155840380925131,-0.198133812863949,0.0116260284784375,2.61705109019401,-0.144963141214248,386.830327509884,-0.144963141214248,9.70965755888683
0.18,0.0149002173966153,-0.0532988104237566,-0.145156711533001,0.0604767613365222,0.0386707074864246,-0.0395898478596892,0.0203509607739509,0.155928663049507,2.61705109019401,-0.144963141214248,380.699149600602,-0.144963141214248,4.18524956803921
0.19,-0.00473875766917215,-0.0142651261553172,-0.0272623401653998,-0.173792745850331,0.0147204785291091,-0.00304255819143873,0.164080364309437,-0.0634412149125012,2.61705109019401,-0.144963141214248,388.966626433037,-0.144963141214248,5.47426342058837
0.2,-0.00454334497556057,-0.0146070983680823,-0.028435418525824,-0.0551901381747599,0.014918607963982,-0.00338296359998114,0.0620109440050547,-0.00302773877503248,2.61705109019401,-0.144963141214248,380.726616300876,-0.144963141214248,6.00010193508784
0.21,-0.00473875766952741,-0.0142651261547844,-0.0275556097607741,-0.0569515631156806,0.0147204785288258,-0.00304255819086436,0.0630949292163859,-0.00467141068486471,2.61705109019401,-0.144963141214248,386.830327509884,-0.144963141214248,4.82697475856412
0.22,-0.00464105132025594,-0.0144116856786916,-0.027848879358281,-0.173205604196326,0.0147984007280177,-0.00320052766769124,0.16386591008487,-0.0626394837030434,2.61705109019401,-0.144963141214248,380.726616300876,-0.144963141214248,6.41866778843706
0.23,0.014802511046988,-0.0530545445391131,-0.144570172335852,0.0598896196146941,0.0385082151926828,-0.0393829454487976,0.020565415055085,0.155126931802388,2.61705109019401,-0.144963141214248,386.830327509884,-0.144963141214248,7.07955101012538
0.24,0.0148025110512094,-0.053298810421624,-0.144570172361193,0.0604767613237067,0.0387196404106576,-0.0395052777771624,0.0200572124331091,0.155420981936683,2.61705109019401,-0.144963141214248,380.7723941345,-0.144963141214248,6.17526976201244
0.25,0.014851364221624,-0.0529568381875319,-0.14486344193336,0.0593024779478768,0.0383991786418715,-0.0393762975620285,0.0212204918350088,0.155086722274406,2.61705109019401,-0.144963141214248,383.73269407109,-0.144963141214248,13.6890810749572
0.26,-0.00459219814739731,0.0729866386457841,-0.0281421489451197,-0.523142010835982,-0.0608740021794311,0.0405276888471801,0.466901509573181,-0.237639484107857,2.61705109019401,-0.144963141214248,386.830327509884,-0.144963141214248,16.176050705913
0.27,-0.0242311732122981,0.0145582451704312,0.0313915759304993,-0.172031320871224,-0.000465576438931638,0.0282643856516693,0.133180921883398,-0.113327174351021,2.61705109019401,-0.144963141214248,380.726616300876,-0.144963141214248,18.5362252359969
0.28,-0.00454334497418289,-0.0141674198135089,0.0299252279653609,-0.173792745833246,0.0145380425965143,-0.00316276543369469,0.135439900542243,-0.112940121808618,2.61705109019401,-0.144963141214248,383.824374365498,-0.144963141214248,18.9537474110383
0.29,4.43142236009326,-0.0533965167705847,4.54744984503115,0.178492227370908,-2.17311080581421,-3.86237553161151,-2.43193139950171,-3.8466698891929,2.61705109019401,-0.144963141214248,441.404804276441,577.87648835183,71.3367732384033
0.3,4.59727887832975,-0.0338552480491368,4.84101269507066,0.0610639029504766,-2.27308846226607,-3.99614665717741,-2.47731193502679,-4.15957429199825,2.61705109019401,-0.144963141214248,358.18366948787,577.87648835183,24.6919903827425
0.31,4.58760595031564,-0.0533965167702289,5.25071029892795,-0.0563644214170882,-2.25133008669488,-3.99756080430518,-2.58085464317869,-4.57299955194101,2.61705109019401,-0.144963141214248,339.512675778622,577.87648835183,63.9564727535801
0.32,4.66572217201202,0.121937516778881,4.72253178453792,-1.5799969303467,-2.44221296870305,-3.97736444896635,-0.997548615798862,-4.87889265253845,2.61705109019401,-0.144963141214248,434.176575809902,577.87648835183,70.5021390578153
0.33,4.48032438505815,-0.043430469726312,6.07098531541783,-0.527252002222585,4.47928393265159,0.105869031055418,6.06304729353374,0.611812790189828,-1.55685876426801,121.929261038943,277.279519826339,577.87648835183,90.1304856456441
0.34,4.5486211192315,0.0146070983551972,6.30648078848566,-0.877188408910568,0.799816344019842,4.47777414230328,0.224953154048322,6.36321895888782,-0.173543817717406,189.976619359674,136.116862961866,577.87648835183,113.73306058516
0.35,4.58755709714453,0.0248174112694287,6.36572124374256,-0.761521509396894,-4.58749064011742,-0.0350092887441831,-6.35524923775867,-0.844469708324293,1.58383731662805,205.855290162801,127.639063109326,577.87648835183,68.3930395003414
0.36,4.59742543785046,0.00517843621192672,6.83407276367867,-0.643506043413497,2.40726429286994,-3.91681325787553,4.13281177989922,-5.480740584911,-2.58938228504202,268.723515615582,257.62917227356,577.87648835183,47.2799226060168
0.37,4.12858154815624,0.0728400791443162,7.24435690673604,-1.22653767401211,0.87937784754748,4.03449945819164,0.214868242870583,7.34431299007272,-0.196966940599206,323.962102057103,365.603599156931,577.87648835183,25.3748195381709
0.38,2.83832042794099,-0.0534453699385109,6.01467755601291,-0.525490577375109,-1.39174491763777,-2.47426056498996,-2.59381634922517,-5.45202743905492,2.61038367219999,412.771100148168,409.691022358805,577.87648835183,31.5903734481418
0.39,2.65565841862406,-0.0245242922398306,6.3094134843019,-0.523142010886176,1.91531773870294,1.83975026488069,4.23155702051088,4.7091720356778,-0.814754045593904,383.795082333483,420.616338909032,577.87648835183,66.0817728583477
0.4,4.49976794744092,0.0929675859158945,8.00773762461024,-1.81837642899679,-4.2362610234033,-1.52008127889324,-6.83035853245823,-4.55813086913975,1.93596994519471,297.702024818984,427.725192610236,577.87648835183,92.69540641714
0.41,3.58118175822565,-0.0823175944678184,7.59686694241707,-1.58410692178458,2.10129929720286,2.90106536213542,3.33534817653321,7.00694188799449,-0.64984435321089,365.772523838807,475.816592371986,577.87648835183,83.4656851658897
0.42,2.82801240866334,0.0629228852260299,7.18511645141032,-2.0479488029201,-0.70175754979864,-2.74028279824174,0.367499962745699,-7.46223401516537,2.91313718512884,425.88671284304,527.7785656579,577.87648835183,210.601816801765
0.43,2.10610908913488,-0.0142162729900124,6.89184687103686,-1.11380648259276,-1.36367640882052,1.60508076113965,-5.28038913712472,4.56679414195794,0.697511808425418,456.717820853024,553.690662304912,577.87648835183,184.491441503727
0.44,1.34380419649279,-0.053591929461352,6.4824425367424,-0.876601267245885,1.32043932202356,0.255189753456079,6.27672693061239,1.84206136228671,-1.41974828608507,503.716397162384,566.856405796758,577.87648835183,105.859549576262
0.45,0.952587996772359,0.170692982235762,6.01467755597504,-1.57940978876826,-0.537637751378404,-0.804677347805993,-0.959538515969043,-6.14411647184352,2.7298771692414,530.87791204247,579.707601714532,577.87648835183,113.080765097278
0.46,0.464495957408565,-0.072937785480035,5.77830227409549,0.061651044589528,-0.393111491543214,0.257953038780901,-4.23943846600094,3.92679761575609,0.834333046515091,558.954983603906,582.682745980227,577.87648835183,82.5402582756117
0.47,0.43459781625662,0.0338552480431795,5.19440253951077,-0.639983193614143,0.42721674747055,0.0866446212743296,4.81966183092388,2.04016079418264,-1.29295535384394,566.889808175616,582.759457319036,577.87648835183,71.1697355767454
0.48,0.210215198215703,-0.0238403478134354,5.42755185596348,-0.057538704778225,0.00627968307441088,-0.211469518666917,-0.393928536868831,-5.41354321674452,3.05835262525735,574.824632747326,587.947611846693,577.87648835183,100.658667778237
0.49,0.12242604851211,0.0440167077811104,5.30936421500571,-0.290046786956344,-0.0804525025672868,0.102239927371052,-4.655157470356,2.56962729445257,1.01184709535092,579.707601714532,582.759457319036,577.87648835183,74.7788612465022
0.5,0.112460001455998,-0.0436258824040177,5.30907094539234,0.178492227322044,0.0596423366494956,0.104848754031702,4.22903825120735,3.21454961825891,-0.88724627483447,582.756836591107,582.759457319036,577.87648835183,-311.822802401554
0.51,-0.00405481324595243,-0.0142162729872571,4.95714744889377,-0.0569515630729643,0.0114892106553915,0.00930279348495941,1.99548755352657,-4.53812557498479,-2.73881180310766,582.76410542495,595.833924574325,577.87648835183,-429.74900660816
0.52,-0.0044456386195793,-0.0241334668619598,4.89820026317796,0.178492227319906,0.00253500161285934,-0.0244082300123546,-4.86901705745482,0.562937108054016,1.49211546684118,587.947611846693,582.710832022961,577.87648835183,-213.856434935361
0.53,0.0539827548303577,-0.0728889323101974,4.89908007198009,0.413348876131391,-0.0307804389751159,0.0853199791894854,3.05795597403292,3.84977247456884,-0.587095272919969,584.895756242189,587.898873099963,577.87648835183,266.33943650729
0.54,0.0341483670879299,0.0149979237384675,5.13516208420572,-0.291221070200811,0.00667163826705773,-0.0366952031479651,3.11409013953519,-4.0935488204787,-2.54790939805104,584.895756242189,582.759457319036,577.87648835183,454.641606794866
0.55,-0.0140208602929761,-0.00395710689525397,4.9559743705336,0.0581281947551804,0.0145467274599952,-0.000797457547612619,-4.84889036484245,-1.02631529178388,1.79110608440402,587.947611846693,587.864601373533,577.87648835183,504.174676699386
0.56,0.0642419208998335,0.150614328650427,5.48327307624325,-0.872491276030651,0.162240578912826,0.0221290521656574,0.608480623798349,5.51881110257143,-0.267608047195754,579.707601714532,579.756431403926,577.87648835183,494.69091321102
0.57,0.005178436211572,0.0440655609517452,5.48532596326366,-0.407475111340988,-0.0245499562388177,-0.0369579424787342,4.44719006153341,-3.2368715523195,-2.27411615160798,582.759457319036,582.793638102063,577.87648835183,493.641477780976
0.58,0.0833435110769454,0.0343926329422057,5.01609463457744,-0.290046786973436,-0.0898695476959491,-0.00724281963435115,-4.33629112841008,-2.53809215186175,2.04258843358445,582.759457319036,584.861575459652,577.87648835183,463.678271809831
0.59,0.0833435110792337,-0.0435281760597236,5.0160946345637,0.295333410088743,-0.0514338228679744,0.0787108938793512,-0.194316372449175,5.02102264020106,0.0974905221628822,582.759457319036,579.707601714532,577.87648835183,428.820471369128
0.6,0.151249419871587,0.0244265858977573,4.66798364257186,-0.172031320960412,0.129573561383907,-0.081754127115412,4.36191244873988,-1.67134252989562,-1.97354491914051,579.710653569505,588.025739349546,577.87648835183,388.182129210958
0.61,0.0829526856894353,-0.00395710688779734,4.90054641994095,-0.0593001296761559,-0.0536005766273093,-0.0634333109906116,-3.29427786052012,-3.6285816922129,2.39234672691561,584.895756242189,584.86157545924,577.87648835183,396.509240941826
0.62,0.0932607049506467,-0.0142651261637817,5.01668117373431,0.0610639029694329,-0.0458052061805934,0.0824799127006905,-1.687240565532,4.72483206825061,0.355158070637952,579.710653569449,582.759457319036,577.87648835183,417.151482913703
0.63,0.0152421896140899,-0.0728400791336073,5.01433501700213,0.179079368982457,0.0112506832497469,0.0735623789639507,5.01664358590564,0.0944045291322446,-1.51628197142528,587.947611846693,579.707601714532,577.87648835183,372.167975961926
0.64,0.103080192481608,0.00503187669455063,5.25012375976254,-0.172618462574093,-0.0596508836278942,-0.0842176819173149,-2.67649031401358,-4.51995533445144,2.5740983173814,579.707601714532,579.707601714532,577.87648835183,347.620124875409
0.65,0.0927721732194832,0.0147048047002039,5.0762148986194,-0.172031320896855,-0.0450512403508937,0.0824214362164536,-3.23814262101826,3.91305313512098,0.657422869385393,582.759457319036,577.90578616572,577.87648835183,356.448683260318
0.66,0.141527638680341,0.0636556828448085,4.78382512687684,-0.290046786964884,0.150340188284969,-0.0384700696036779,4.66342242295669,1.10526073314472,-1.39864046268491,582.759457319036,582.793638102374,577.87648835183,377.324164721332
0.67,0.161606292295994,0.0144605388280886,5.07445528105142,-0.170857037588832,-0.0501289000496056,-0.154313947110018,-0.964864708086448,-4.98480938670412,2.91673872263992,577.87648835183,582.759457319036,577.87648835183,375.741013153808
0.68,0.0733286108585477,-0.0144116856786916,4.89995988072821,-0.0551901381768915,-0.0675587122690527,0.0319468660605867,-3.97533487352213,2.86519902056677,0.935020504287111,584.895756242189,582.710627628609,577.87648835183,393.969366993626
0.69,0.063948801886628,-0.0144116856786916,5.19146984362756,0.061651044589528,0.0493713602591295,0.0431232504920471,4.59450267101593,2.41778931973421,-1.07450656625874,582.759457319036,582.793638101845,577.87648835183,405.153441207241
0.7,0.0442609736442704,-0.0239380541753878,4.72517121080442,0.177317944096514,0.0348237085174298,-0.0363231820017972,1.08275279132655,-4.60286117731006,-2.87304961518871,582.764645474375,587.898782156321,577.87648835183,415.773182985855
0.71,0.141527638659196,0.0243288795326027,5.07445528104716,-0.289459645276982,-0.116718599672635,0.08365844472747,-4.69197814955371,1.95428358477008,1.11915290559976,584.890568088074,577.87648835183,577.87648835183,396.732340839917
0.72,0.0831969515606145,-0.0426976721309743,5.07533508982701,0.174382235936276,0.0278802408183499,0.0892609440141333,3.68254489770279,3.49689841354343,-0.776905211418585,582.759457319036,579.707601714532,577.87648835183,437.03015504813
0.73,0.151444832540649,0.014997923746242,5.07621489863646,-0.29122107024753,0.0398431570961301,-0.14687749266847,2.07750978405047,-4.64076723248101,-2.77798899415415,579.707601714532,579.756431404149,577.87648835183,473.891355630442
0.74,0.189989985085211,0.0338552480410512,5.01785425208432,-0.170857037664684,-0.183487575257061,0.0597886442301907,-4.99331238342572,0.524294634730964,1.43214362535076,582.754574349483,579.678303900375,577.87648835183,479.476449867287
0.75,0.151444832539759,-0.0139231539287789,5.19352273081546,0.058715336287464,0.0756604372186441,0.131927592861402,3.03338488783628,4.21600545166377,-0.612383818983825,577.87648835183,582.793638101729,577.87648835183,536.928409360985
0.76,0.122181782647973,0.00493417034674516,4.8999598807406,-0.0551901381686191,0.066159868313702,-0.102837764817992,2.86039669288832,-3.97879171904388,-2.52955015581944,582.759457319036,582.79363810218,577.87648835183,619.514775818245
0.77,0.131659297990361,0.0631671511398149,4.60815664813664,-0.170857037758655,-0.139689180901904,0.0425581069761088,-4.5294930121644,-0.864865812638825,1.722406192183,582.759457319036,587.898782155822,577.87648835183,622.026886920064
0.78,0.0931629986101733,0.0243288795437952,5.01580136497899,-0.288872503678495,0.0479070542159264,0.0835233670672341,1.0364959798569,4.91603363902721,-0.265325414236135,582.759457319036,577.87648835183,577.87648835183,615.164876582108
0.79,-0.00464105132025594,-0.00464105132025594,5.30965748459162,-0.0557772798034009,-0.000557856999297194,0.00653968732301736,4.09596629442186,-3.37914690766503,-2.27109718539565,584.895756242189,584.895756242189,577.87648835183,624.277124546773
0.8,0.122035223126906,0.0338552480349134,5.13310919715158,-0.287698220393965,-0.12512105811061,-0.0195830110151773,-4.55576753964942,-2.38255376026999,1.99666578316178,584.89056808732,579.678303900462,577.87648835183,630.306523714817
0.81,0.14167419820076,-0.0724004006049549,5.07621489854739,0.292984843693222,-0.0643700668805083,0.145498766088875,0.576201681315677,5.05190948427596,-0.0559122382149686,579.707601714532,577.87648835183,577.87648835183,633.428417147648
0.82,0.219301888149488,0.02423117319452,4.72546448043834,-0.288285362024471,0.178764819741771,-0.129319786278069,4.25199646952323,-2.08174182573246,-2.08701387296624,582.756405463286,582.793638102079,577.87648835183,631.857768812113
0.83,0.0932607049492278,-0.0626786194154885,4.95802725764482,0.410413168073319,-0.0254004536617756,-0.109457687593127,-3.90430013028216,-3.08332835565006,2.32183054596672,579.710653570947,582.710627628332,577.87648835183,634.980505954728
