t,iq,id,vq,vd,ia,ib,va,vb,theta_e,omega,omega_obs,r
0,0,0,0,0,0,0,0,0,0,-0.144963141214248,0,0
0.001,-0.00464105132025594,0.0144605387268411,-0.027848879358281,-0.170857037048013,0.0101909782326723,-0.0112601287865157,-0.161827205633816,0.0614787988422762,-0.524637440120955,-0.144963141214248,-0.144963141214248,-0.0381481958759274
0.002,-0.00464105132025594,-0.072840069071353,-0.027848879358281,0.295333349613613,-0.0653681870904801,0.0324686793106944,0.241663186772809,-0.172035611529471,-0.524637440120955,-0.144963141214248,-0.144963141214248,-0.144963141214248
0.003,-0.00464105132025594,-0.0345881109106583,-0.027848879358281,0.0651742564392973,-0.0322609029203689,0.0133083025396849,0.0424592017102365,-0.056749096680536,-0.524637440120955,-0.144963141214248,-0.144963141214248,-0.144963141214248
0.004,-0.00468991202210367,-0.159993987018273,-0.0275555645743056,0.760935901849971,-0.140824865813657,0.0760817213615987,0.644791726342235,-0.405001710494953,-0.524637440120955,-0.144963141214248,-0.144963141214248,-0.144963141214248
0.005,-0.0144116856786916,0.0341971700844577,0.0308050367290811,-0.289459404157833,0.0223790399616794,-0.0296027312300789,-0.235098517080129,0.171651927487028,-0.524637440120955,-0.144963141214248,-0.144963141214248,-0.144963141214248
0.006,-0.014558282807983,-0.0139718942908174,0.0313917264228901,-0.058126449041478,-0.0193849856079431,-0.0056017641302384,-0.0345846755061035,0.0562852093015443,-0.524637440120955,-0.144963141214248,-0.144963141214248,-0.144963141214248
0.007,-0.043576984112768,0.0728887367685563,0.1475261491468,-0.521966642953542,0.0412579319527164,-0.0742260368271494,-0.377869318836737,0.389137403650863,-0.524637440120955,-0.144963141214248,-0.144963141214248,-0.144963141214248
0.008,-0.0144116856786916,-0.0530543866133284,0.0308050367290811,0.176729958780313,-0.0531376713591644,0.014101507208216,0.168390989288086,-0.061861970102406,-0.524637440120955,-0.144963141214248,-0.144963141214248,-0.144963141214248
0.009,-0.0142650660004483,0.0337572609483514,0.030218256793139,-0.28710963272319,0.0220717378243213,-0.029255480924891,-0.233358694358175,0.169967067438104,-0.524637440120955,-0.144963141214248,-0.144963141214248,-0.144963141214248
0.01,0.014753590206498,-0.101663134684066,-0.0859159854467718,0.410411541339398,-0.0805999507156239,0.063692301908558,0.312178237355554,-0.279935596059968,-0.524637440120955,-0.144963141214248,-0.144963141214248,-0.144963141214248
0.011,-0.0142161727426141,0.034099338475351,0.0299247766359804,-0.288871600092573,0.0223922984367934,-0.0293845099095081,-0.235030690978947,0.170595626833501,-0.524637440120955,-0.144963141214248,-0.144963141214248,-0.144963141214248
0.012,0.0245242095278559,-0.0337085506835728,-0.144569841354927,0.0604760986311903,-0.0168907816212829,0.0381104282103378,-0.02007252135897,-0.155418439772544,-0.524637440120955,-0.144963141214248,-0.144963141214248,-0.144963141214248
0.013,-0.00473881781296871,0.0146558011648334,-0.0272619791172767,-0.172030598050372,0.0103110078052007,-0.0114425530406781,-0.162548951373875,0.0625746001043004,-0.524637440120955,-0.144963141214248,-0.144963141214248,-0.144963141214248
0.014,-0.0240845485365001,-0.0337085256439925,0.0888720225125098,0.0604759782559576,-0.0412388499209187,-0.00396073686309454,0.0968582266497882,0.0466268620189839,-0.524637440120955,-0.144963141214248,-0.144963141214248,-0.144963141214248
0.015,-0.00468993957452837,0.0149979939051602,-0.0275553991748498,-0.173205604196326,0.0106316606122502,-0.0115716527349327,-0.163712899662325,0.0629092030855043,-0.524637440120955,-0.144963141214248,-0.144963141214248,-0.144963141214248
0.016,-0.0144116856786916,0.034197032322223,0.0308050367290811,-0.172618010841657,0.0223789207276932,-0.0296026622250802,-0.133971636330657,0.113126162375008,-0.524637440120955,-0.144963141214248,-0.144963141214248,-0.144963141214248
0.017,-0.0144116856786916,-0.0141672193455331,0.0308050367290811,-0.0563649033050109,-0.0194806101468459,-0.00537704532177808,-0.0333539202203992,0.0548950691628539,-0.524637440120955,-0.144963141214248,-0.144963141214248,-0.144963141214248
0.018,-0.0142649983669224,0.0341970072605379,0.0302179861200854,-0.172617950600908,0.0224523745996463,-0.02947569098126,-0.134265637395835,0.112618036608268,-0.524637440120955,-0.144963141214248,-0.144963141214248,-0.144963141214248
0.019,0.0145579294747811,-0.0138249063841187,-0.0850350937658317,-0.0581280145603057,-0.00467347814693851,0.0195248546507378,-0.0929041362189788,-0.0444820719154619,-0.524637440120955,-0.144963141214248,-0.144963141214248,-0.144963141214248
0.02,-0.0532986199983237,0.10249362117284,0.205886118888486,-0.523727436025204,0.0620115652977884,-0.0974692312689775,-0.350160830618839,0.440530264450495,-0.524637440120955,-0.144963141214248,-0.144963141214248,-0.144963141214248
0.021,-0.0143627823917846,0.0343436795396725,0.0305114663035168,-0.172617860266083,0.022530340335521,-0.029633791635953,-0.134118555209704,0.112872000103184,-0.524637440120955,-0.144963141214248,-0.144963141214248,-0.144963141214248
0.022,-0.00468995711112094,0.0143133479062353,-0.0275552939012523,-0.0534261837071973,0.0100390868790356,-0.0112287292524248,-0.060043087197106,0.00291187351035617,-0.524637440120955,-0.144963141214248,-0.144963141214248,-0.144963141214248
0.023,-0.0144116856786916,-0.101907220251207,0.0308050367290811,0.411584801296874,-0.095420072667088,0.0385718544490274,0.371659171723568,-0.179500582228078,-0.524637440120955,-0.144963141214248,-0.144963141214248,-0.144963141214248
0.024,-0.0144605964774726,-0.0145095072762537,0.031098652249039,-0.0551894455917334,-0.0198013616511647,-0.00524792612788493,-0.0321894831909399,0.0545604091657106,-0.524637440120955,-0.144963141214248,-0.144963141214248,-0.144963141214248
0.025,-0.0239866668260835,-0.0338551277900418,0.0885780611617747,0.0610631802837849,-0.0413167060255949,-0.0038025867906159,0.097219208278659,0.0460783077729624,-0.524637440120955,-0.144963141214248,-0.144963141214248,-0.144963141214248
0.026,0.0148023857743346,-0.0142649382452706,-0.086209149836083,-0.0563651742560851,-0.00493188021425335,0.0199568445728743,-0.091966471849187,-0.0463812293928453,-0.524637440120955,-0.144963141214248,-0.144963141214248,-0.144963141214248
0.027,-0.00454321469005926,0.0145577891909269,-0.0281425399993054,-0.17144183055685,0.0103241553480853,-0.0112241633183075,-0.162480442085078,0.0615175565357868,-0.524637440120955,-0.144963141214248,-0.144963141214248,-0.144963141214248
0.028,0.0147534549394461,-0.0532985398362103,-0.0859154441006649,0.177903459701856,-0.0387401905719483,0.0394663960322131,0.110941460773073,-0.163472006136956,-0.524637440120955,-0.144963141214248,-0.144963141214248,-0.144963141214248
0.029,-0.0144116856786916,-0.0141670690635082,0.0308050367290811,-0.056953249272153,-0.0194804800769111,-0.00537712059793015,-0.0338631369523291,0.0551897712106494,-0.524637440120955,-0.144963141214248,-0.144963141214248,-0.144963141214248
0.03,-0.0144116856786916,0.0341968569564085,0.0308050367290811,-0.289457898826621,0.0223787689475979,-0.029602574384477,-0.235097214207529,0.171651173467768,-0.524637440120955,-0.144963141214248,-0.144963141214248,-0.144963141214248
0.031,-0.0143627573433179,-0.0142649006725706,0.0305113159355256,-0.0557772798034009,-0.0195406457168463,-0.00528576907081992,-0.0329924533086988,0.054346512004522,-0.524637440120955,-0.144963141214248,-0.144963141214248,-0.144963141214248
0.032,-0.00483677467758269,0.0147534248786202,-0.0269676718832206,-0.0557772798034009,0.0103464351575752,-0.0115762349000393,-0.0617836346227862,0.00459812590801707,-0.524637440120955,-0.144963141214248,-0.144963141214248,-0.144963141214248
0.033,-0.0435278553807523,-0.0145095523653155,0.14723161633395,-0.0551891746403918,-0.0343611685693888,-0.0304057790302364,0.0259816647674542,0.15507400472583,-0.524637440120955,-0.144963141214248,-0.144963141214248,-0.144963141214248
0.034,-0.00473892302363783,-0.0337082751371099,-0.0272613475290367,0.0604747739696277,-0.0315484239891887,0.0127828849615979,0.0386860675413607,-0.0538866173920925,-0.524637440120955,-0.144963141214248,-0.144963141214248,-0.144963141214248
0.035,-0.02413338168148,0.0147534023296683,0.0891651718703564,-0.172617438792568,0.000680759858598128,-0.0282775451144539,-0.104738593880699,0.163636899878573,-0.524637440120955,-0.144963141214248,-0.144963141214248,-0.144963141214248
0.036,-0.0144606265382986,-0.0140690996614424,0.0310988327066325,-0.0569536707985342,-0.0194202014497382,-0.00546855198524523,-0.0337163396039055,0.0554442644180355,-0.524637440120955,-0.144963141214248,-0.144963141214248,-0.144963141214248
0.037,-0.0240844333099989,0.0537869813760978,0.0888713307984119,-0.290045702997881,0.034489059487959,-0.0477870701032455,-0.206520599443437,0.222202307078345,-0.524637440120955,-0.144963141214248,-0.144963141214248,-0.144963141214248
0.038,-0.00468999718780124,0.0147533797939794,-0.0275550533176671,-0.172617348510876,0.0104199168696458,-0.0114491755771608,-0.163203587830106,0.0626148456010696,-0.524637440120955,-0.144963141214248,-0.144963141214248,-0.144963141214248
0.039,-0.0144116856786916,-0.0144116856786916,0.0308050367290811,-0.0557772798034009,-0.0196921971282993,-0.00525459232129467,-0.0328453287864362,0.0546007289974943,-0.524637440120955,-0.144963141214248,-0.144963141214248,-0.144963141214248
0.04,-0.014656440078103,-0.0137263733603395,0.03198046124941,-0.058718859434397,-0.0192216527686024,-0.00580970104512621,-0.03480251319416,0.0570915005090233,-0.524637440120955,-0.144963141214248,-0.144963141214248,-0.144963141214248
0.041,-0.0629711371678294,0.121838708117163,0.263951345270791,-0.640565517688008,0.0739098899680562,-0.115530788436584,-0.422200017348727,0.549310149616681,-0.524637440120955,-0.144963141214248,-0.144963141214248,-0.144963141214248
0.042,-0.00454313954461466,0.0147533497331534,-0.0281427655514261,-0.172617228082243,0.010493451733692,-0.0113220544064783,-0.163497868209674,0.0621061170463235,-0.524637440120955,-0.144963141214248,-0.144963141214248,-0.144963141214248
0.043,0.0148023006042161,-0.0142648104900928,-0.0862088941944941,-0.0557772798034009,-0.00493181230307863,0.019956706865188,-0.0914575178548732,-0.0466754840181641,-0.524637440120955,-0.144963141214248,-0.144963141214248,-0.144963141214248
0.044,-0.00464105132025594,0.0146554128958275,-0.027848879358281,-0.0551888434485691,0.0103596429180968,-0.0113577411096556,-0.0617157358143397,0.0035406885767291,-0.524637440120955,-0.144963141214248,-0.144963141214248,-0.144963141214248
0.045,-0.00454312451202473,-0.0338550275873333,-0.0281428106723587,0.0610625781408879,-0.031577363731668,0.0130258578615307,0.0387532911273449,-0.0549439593454232,-0.524637440120955,-0.144963141214248,-0.144963141214248,-0.144963141214248
0.046,0.0147533196723944,-0.0146075493109861,-0.0859149027545582,-0.0546002867185042,-0.00525298918495573,0.0200859912090862,-0.0902915636546414,-0.0470105877209368,-0.524637440120955,-0.144963141214248,-0.144963141214248,-0.144963141214248
0.047,-0.0142647804425297,-0.0534942231124358,0.0302171139747997,0.179079368982457,-0.0534447675930484,0.0144489682815653,0.17012992692445,-0.0635476383259232,-0.524637440120955,-0.144963141214248,-0.144963141214248,-0.144963141214248
0.048,0.0149002173966153,-0.0528576011468081,-0.086502795445643,0.176136585065131,-0.0382850424617864,0.0393725539070132,0.109118017030278,-0.163095335855127,-0.524637440120955,-0.144963141214248,-0.144963141214248,-0.144963141214248
0.049,0.0147532971234425,0.0733281298496652,-0.0859148125124249,-0.40747366610491,0.0708558226668903,-0.0239609431671655,-0.395705405980348,0.129743497933226,-0.524637440120955,-0.144963141214248,-0.144963141214248,-0.144963141214248
0.05,-0.0144116856786916,0.0344414861134865,0.0308050367290811,-0.290633928589255,0.0225904968540662,-0.029725108943338,-0.236115074558114,0.172240245882083,-0.524637440120955,-0.144963141214248,-0.144963141214248,-0.144963141214248
0.051,-0.0144116856786916,0.0344414861134865,0.0308050367290811,-0.290633928589255,0.0225904968540662,-0.029725108943338,-0.236115074558114,0.172240245882083,-0.524637440120955,-0.144963141214248,-0.144963141214248,-0.144963141214248
0.052,-0.0144116856786916,0.0337557529435712,0.0308050367290811,-0.287101865316664,0.0219969909523321,-0.0293816257196881,-0.233058054000337,0.170471038073228,-0.524637440120955,-0.144963141214248,-0.144963141214248,-0.144963141214248
0.053,-0.0143627022340253,-0.101759593568619,0.0305109851099412,0.410992481238781,-0.0952677651757336,0.0385403038018015,0.3709992251611,-0.179458392885515,-0.524637440120955,-0.144963141214248,-0.144963141214248,-0.144963141214248
0.054,-0.00449409347438319,0.0142144141158758,-0.02843701265949,-0.169673179798041,0.0100515670757923,-0.0110096523167151,-0.161097166072661,0.0603767729771294,-0.524637440120955,-0.144963141214248,-0.144963141214248,-0.144963141214248
0.055,0.0245238863972372,-0.121202825285021,-0.144568548168596,0.528420504692289,-0.0926177285039333,0.0819359641907487,0.3849366324243,-0.389810317868406,-0.524637440120955,-0.144963141214248,-0.144963141214248,-0.144963141214248
0.056,-0.00469004228123945,0.0147532445136648,-0.0275547826180744,-0.0557772798034009,0.0104197771965063,-0.0114491468439775,-0.0620777179436673,0.00408997827655542,-0.524637440120955,-0.144963141214248,-0.144963141214248,-0.144963141214248
0.057,-0.01436269221375,-0.0142647052838669,0.0305109249574099,-0.0563661075379401,-0.0195404439834771,-0.00528581057086708,-0.0335022828536521,0.0546411169754903,-0.524637440120955,-0.144963141214248,-0.144963141214248,-0.144963141214248
0.058,-0.00454305938245676,0.0147532294899165,-0.0281430061614167,-0.172616746367979,0.0104933878156605,-0.0113219247959355,-0.16349757180464,0.0621056675067192,-0.524637440120955,-0.144963141214248,-0.144963141214248,-0.144963141214248
0.059,0.0147532219780424,-0.0146076795701221,-0.0859145117764421,-0.0545995039590891,-0.00525315085999456,0.0200859719007793,-0.0902906903313395,-0.0470106414107822,-0.524637440120955,-0.144963141214248,-0.144963141214248,-0.144963141214248
0.06,-0.0144116856786916,-0.0530532143208948,0.0308050367290811,0.176723696917532,-0.053136656733493,0.0141009200078269,0.168385569610755,-0.061858833540098,-0.524637440120955,-0.144963141214248,-0.144963141214248,-0.144963141214248
0.061,-0.0143626821934747,0.0334614164091502,0.0305108648048791,-0.285333395120708,0.0217667868406921,-0.0291917799822001,-0.231674783627656,0.169330605247045,-0.524637440120955,-0.144963141214248,-0.144963141214248,-0.144963141214248
0.062,-0.00464105132025594,-0.16008909325008,-0.027848879358281,0.761509164891256,-0.140882706501885,0.0761716492121173,0.645140967564932,-0.405542723106055,-0.524637440120955,-0.144963141214248,-0.144963141214248,-0.144963141214248
0.063,-0.00469005981338884,0.0149982343828811,-0.0275546773711496,-0.173205604196326,0.0106318085195116,-0.011571877257448,-0.1637125381114,0.062909827810652,-0.524637440120955,-0.144963141214248,-0.144963141214248,-0.144963141214248
0.064,-0.0142156416902386,0.0340984091336939,0.0299223856728919,-0.172027527306597,0.022391760090112,-0.0293835847741711,-0.13390268876494,0.112066450185142,-0.524637440120955,-0.144963141214248,-0.144963141214248,-0.144963141214248
0.065,0.0244747977330823,-0.0336098598571195,-0.144274015302802,0.0604729074059176,-0.0168301144883264,0.0380182278650692,-0.0199271043376486,-0.155160802184167,-0.524637440120955,-0.144963141214248,-0.144963141214248,-0.144963141214248
0.066,-0.0143626696692414,0.0339023100095344,0.0305107896208831,-0.170849209453872,0.0221483889961794,-0.029412612411757,-0.132588116969198,0.111985498582919,-0.524637440120955,-0.144963141214248,-0.144963141214248,-0.144963141214248
0.067,-0.00469006983366418,-0.0729374548024905,-0.0275546172186184,0.295918564595964,-0.0654770283226871,0.0324750339513298,0.242317089301971,-0.172074059738302,-0.524637440120955,-0.144963141214248,-0.144963141214248,-0.144963141214248
0.068,-0.0142646226265927,-0.0534942231124358,0.0302164823868267,0.179079368982457,-0.0534446885431655,0.0144491048721432,0.170129610562514,-0.0635481849688536,-0.524637440120955,-0.144963141214248,-0.144963141214248,-0.144963141214248
0.069,0.0149492409179619,-0.0533961760697426,-0.0867970876483687,0.178490180015151,-0.0387266262314299,0.0396847558090678,0.111007655909496,-0.16452896132766,-0.524637440120955,-0.144963141214248,-0.144963141214248,-0.144963141214248
0.07,0.0244747476361488,-0.0338549023361135,-0.144273789750814,0.0610618254752811,-0.0170422252207453,0.0381409260973871,-0.0194172794692204,-0.155455595581021,-0.524637440120955,-0.144963141214248,-0.144963141214248,-0.144963141214248
0.071,-0.014362657145008,-0.0145097427460587,0.0305107144368872,-0.0551880305953457,-0.0197525077144035,-0.00516304114009216,-0.0324827561069072,0.054050836923597,-0.524637440120955,-0.144963141214248,-0.144963141214248,-0.144963141214248
0.072,-0.00464105132025594,-0.0339529543955646,-0.027848879358281,0.061651044589528,-0.0317111713968383,0.0129901531239966,0.0394098421085189,-0.0549843225426454,-0.524637440120955,-0.144963141214248,-0.144963141214248,-0.144963141214248
0.073,-0.00473911840349959,-0.0335116525209682,-0.0272601746477686,0.0592938070057758,-0.0313783438785764,0.0126842277402414,0.0376645215107863,-0.053294056802129,-0.524637440120955,-0.144963141214248,-0.144963141214248,-0.144963141214248
0.074,-0.0240842479371275,0.0535414303803511,0.0888702179899238,-0.40570489481067,0.034276626578087,-0.0476639133548369,-0.306624835571038,0.280134945213815,-0.524637440120955,-0.144963141214248,-0.144963141214248,-0.144963141214248
0.075,-0.00469008987421472,-0.0336096845178531,-0.0275544969135566,0.0598829356794675,-0.031438632768241,0.0127757663598513,0.0380269898803748,-0.0538438884776008,-0.524637440120955,-0.144963141214248,-0.144963141214248,-0.144963141214248
0.076,-0.0142645625049411,0.0341962808239024,0.0302162417767032,-0.289455129128265,0.0224519641876022,-0.0294749498687139,-0.235389743962238,0.171140180796798,-0.524637440120955,-0.144963141214248,-0.144963141214248,-0.144963141214248
0.077,0.0145569124633352,-0.0138231629359256,-0.0850307329067057,-0.0581349991016866,-0.00467247860301662,0.0195231011297566,-0.0929079970276667,-0.0444747990159785,-0.524637440120955,-0.144963141214248,-0.144963141214248,-0.144963141214248
0.078,-0.0532980388313315,0.102247373779223,0.205883502293794,-0.523132737489061,0.0617987279046312,-0.0973453831333752,-0.349647426353129,0.440230115728345,-0.524637440120955,-0.144963141214248,-0.144963141214248,-0.144963141214248
0.079,-0.0145588314013939,-0.0139702485105845,0.0313939219235922,-0.0575457499993614,-0.0193838359659505,-0.00560306331097796,-0.0340809775060069,0.0559962378108446,-0.524637440120955,-0.144963141214248,-0.144963141214248,-0.144963141214248
0.08,-0.0435764355194237,0.0733278192344604,0.147523953646365,-0.407472732823055,0.041638235077771,-0.0744454980900018,-0.278775297665382,0.331785590864524,-0.524637440120955,-0.144963141214248,-0.144963141214248,-0.144963141214248
0.081,-0.0143626320965414,0.0343433789491861,0.0305105640688962,-0.290044378336318,0.0225301554555434,-0.0296335109890315,-0.235752316641765,0.171690072870694,-0.524637440120955,-0.144963141214248,-0.144963141214248,-0.144963141214248
0.082,-0.00454293914799485,0.0147530491382237,-0.0281433670500644,-0.172616023849313,0.0104932919456102,-0.0113217303943089,-0.163497127229535,0.0621049932465217,-0.524637440120955,-0.144963141214248,-0.144963141214248,-0.144963141214248
0.083,0.0147530416130869,-0.0146079200567294,-0.0859137899460693,-0.0545980588154937,-0.00525344934717008,0.0200859362534583,-0.0902890779871733,-0.0470107405338777,-0.524637440120955,-0.144963141214248,-0.144963141214248,-0.144963141214248
0.084,-0.0144116856786916,-0.0530526732262284,0.0308050367290811,0.177310447219171,-0.0531361884130266,0.0141006489739197,0.168893405285249,-0.0621527363202558,-0.524637440120955,-0.144963141214248,-0.144963141214248,-0.144963141214248
