t,iq,id,vq,vd,ia,ib,va,vb,theta_e,omega,omega_obs,r
0,0,0,0,0,0,0,0,0,0,-0.144963141214248,0,0
0.01,-0.0435477283599193,0.0243777510982494,0.147057164594432,-0.171796552634512,0.0428337283318111,-0.0256115425367961,-0.222224171061512,0.0419080296802477,0.52156938491557,-0.144963141214248,-0.144963141214248,-0.144963141214248
0.02,-0.0339529543955646,0.00512958303817967,0.0894589528164431,-0.0557772798034009,0.0213643148658772,-0.026882741390054,-0.09293319865302,0.0497737859661066,0.52156938491557,-0.144963141214248,-0.144963141214248,-0.144963141214248
0.03,-0.0437235887540002,0.0246708517550509,0.148112868903805,-0.173205604196326,0.0431754787722984,-0.0256179853351398,-0.223971868418129,0.0421213178476457,0.52156938491557,-0.144963141214248,-0.144963141214248,-0.144963141214248
0.04,0.0237917334279676,0.00524679881512412,-0.140934776236193,-0.0564816584432134,-0.00730485257829755,0.0232425172071185,0.0212477877933575,-0.150337355328375,0.52156938491557,-0.144963141214248,-0.144963141214248,-0.144963141214248
0.05,0.0050123754275771,-0.0238893010106225,-0.0857991885860589,0.0602423854570454,-0.0232103125869138,-0.00755671885283945,0.0949811700340585,-0.0443759293597622,0.52156938491557,-0.144963141214248,-0.144963141214248,-0.144963141214248
0.06,-0.0337185554982104,0.00495378386516404,0.088403616022125,-0.0550729992841916,0.0210951029964616,-0.0267670990030173,-0.0917967479049536,0.0492096702896727,0.52156938491557,-0.144963141214248,-0.112918657806542,-0.144963141214248
0.07,-0.0628546879673331,0.0243778735382378,0.26331017448048,-0.171797141252289,0.0524533623838773,-0.0423513552598116,-0.280146751687545,0.14270355022324,0.52156938491557,-0.144963141214248,-0.144963141214248,-0.144963141214248
0.08,0.00501239991337994,-0.0238893622251296,-0.0857993355763332,0.0602426797395549,-0.0232103778620792,-0.00755672812231608,0.0949814984249197,-0.0443759101822125,0.52156938491557,-0.144963141214248,-0.144963141214248,-0.144963141214248
0.09,0.0243193268664282,0.00512958303817967,-0.202403805875155,-0.0557772798034009,-0.00766935207717767,0.0236415591723145,0.0524849306087223,-0.203282408569979,0.52156938491557,-0.144963141214248,-0.144963141214248,-0.144963141214248
0.1,-0.0632062740703969,0.0245536849541019,0.265069020140575,-0.172501519865402,0.0527809723936818,-0.0425685973443431,-0.28163380477662,0.143877586166864,0.52156938491557,-0.144963141214248,-0.144963141214248,-0.144963141214248
0.11,0.00489526576013258,-0.0240065820785936,-0.143750085774611,0.0609470093056361,-0.0232536508738893,-0.00771669171302341,0.124465645979123,-0.0942705047960863,0.52156938491557,-0.144963141214248,-0.144963141214248,-0.144963141214248
0.12,-0.140551303760121,0.0243779755623058,0.612772982366513,-0.171797631722607,0.0911651267317115,-0.109717247273057,-0.454264039256915,0.445700949989832,0.52156938491557,-0.144963141214248,-0.144963141214248,-0.144963141214248
0.13,-0.0922253336006597,0.0245537094398781,0.380970496038784,-0.172501667006497,0.0672394924358443,-0.0677292216253883,-0.339380853815402,0.24436853323533,0.52156938491557,-0.144963141214248,-0.144963141214248,-0.144963141214248
0.14,0.131562158931605,-0.0630305891643761,-0.728531625905747,0.295099917089788,-0.120199658990561,0.082664979354658,0.618847601467164,-0.484633817608313,0.52156938491557,-0.144963141214248,-0.144963141214248,-0.144963141214248
0.15,-0.0136503667350994,-0.0244165720197727,0.0269378938210151,0.0630587227810584,-0.0143689247075762,-0.0240007396541744,0.0412527529978553,0.054774656661531,0.52156938491557,-0.144963141214248,-0.144963141214248,-0.144963141214248
0.16,-0.00464105132025594,0.00512958303817967,-0.086502795445643,-0.0557772798034009,0.00675990925612654,-0.00146819833529562,-0.00526175893728616,-0.102791791768913,0.52156938491557,-0.144963141214248,-0.144963141214248,-0.144963141214248
0.17,0.150752221074944,-0.0822791326841212,-0.785780165650687,0.294396470370273,-0.146450168459861,0.0897130759274161,0.646761282675753,-0.53462098137663,0.52156938491557,-0.144963141214248,-0.144963141214248,-0.144963141214248
0.18,0.0244366487527926,-0.043606487252871,-0.202404687868867,0.178375677054326,-0.0499838469757301,-0.000539049449464299,0.255504955243917,-0.0866184603978066,0.52156938491557,-0.144963141214248,-0.144963141214248,-0.144963141214248
0.19,0.0246708517550509,-0.0434308554059904,-0.203810627620364,0.177672083220257,-0.0499482570827213,-0.000248479403827925,0.255595409916816,-0.0881880236556367,0.52156938491557,-0.144963141214248,-0.144963141214248,-0.144963141214248
0.2,0.131386776045704,-0.0630306871163673,-0.728181512995713,0.295100505707566,-0.120112360892207,0.082512866869026,0.61867367105117,-0.484329963026917,0.52156938491557,-0.144963141214248,-0.144963141214248,-0.144963141214248
0.21,0.033504869990876,-0.0238896274988131,-0.257896194952143,0.0602439550157763,-0.0374067379747536,0.017147202956333,0.180728395942748,-0.193589845773734,0.52156938491557,-0.144963141214248,-0.144963141214248,-0.144963141214248
0.22,0.00501251418477857,-0.0238896479036262,-0.144102550699846,0.0602440531098372,-0.0232106824910309,-0.00755677138150857,0.124031768665196,-0.0949263473177275,0.52156938491557,-0.144963141214248,-0.144963141214248,-0.144963141214248
0.23,-0.0336017723211369,0.00483693130948994,0.0877021405862763,-0.054370386417771,0.0209356011319254,-0.0267240643027809,-0.0908380514783623,0.0489515350754918,0.52156938491557,-0.144963141214248,-0.144963141214248,-0.144963141214248
0.24,-0.140610564631505,0.0242611679016254,0.613479480178219,-0.171095411258982,0.0910933762379413,-0.109826827139431,-0.454007193715948,0.44666338601657,0.52156938491557,-0.144963141214248,-0.112918657670521,-0.144963141214248
0.25,0.0244952852036135,0.00512958303817967,-0.144454084634345,-0.0557772798034009,-0.00775702181735354,0.0237941217925153,0.0236119764440478,-0.153037779904895,0.52156938491557,-0.144963141214248,-0.144963141214248,-0.144963141214248
0.26,-0.00469956942310579,0.00495402872963011,-0.0274975904073048,-0.0550739802516805,0.00663685308968515,-0.0016064042089487,-0.034050811240057,-0.0512816052095135,0.52156938491557,-0.144963141214248,-2.24921758086235,-0.144963141214248
0.27,0.0732314534377928,-0.0437235887540002,-0.43666996970669,0.179079368982457,-0.0743969735670677,0.0417095709664049,0.372835760965091,-0.289384827149556,0.52156938491557,-0.144963141214248,-0.144963141214248,-0.144963141214248
0.28,-0.0922842108415551,0.0246708517550509,0.38132357343616,-0.173205604196326,0.0673703943943372,-0.0677219052900887,-0.340167112131092,0.24432393416841,0.52156938491557,-0.144963141214248,-0.144963141214248,-0.144963141214248
0.29,-0.0617437051118728,0.0238517697155901,0.258045176504261,-0.168986689732592,0.0514436724834114,-0.0416502172974757,-0.275086742218054,0.139538878739055,0.52156938491557,-0.144963141214248,-0.144963141214248,-0.144963141214248
0.3,-0.0145286892366893,-0.0240068147001323,-0.0274976884007154,0.060947941225936,-0.0135760327192369,-0.024558120827722,0.0665446888968155,0.00652524227052388,0.52156938491557,-0.144963141214248,-0.144963141214248,-0.144963141214248
0.31,0.0244953586675669,-0.0434311002748602,-0.203108294728449,0.177673260402414,-0.0498610314599318,-0.000400760638536644,0.255246499207959,-0.0875784876074269,0.52156938491557,-0.144963141214248,-0.144963141214248,-0.144963141214248
0.32,0.00477862134898741,0.0245538645253202,-0.0847470857076165,-0.172502598953335,0.0189082340126288,0.0163770013020834,-0.107341850379184,-0.159426918488573,0.52156938491557,-0.144963141214248,-0.144963141214248,-0.144963141214248
0.33,0.0239689773482177,-0.0433141620166808,-0.200299453127829,0.176970500394576,-0.0494973765084592,-0.000798889921377451,0.253237697993173,-0.0854932584964022,0.52156938491557,-0.144963141214248,-0.112918657845439,-0.144963141214248
0.34,-0.0142947147728378,0.0246708517550509,0.0301028508274376,-0.173205604196326,0.0285127934067353,-0.000102024023254351,-0.16517438380673,-0.060197889390081,0.52156938491557,-0.144963141214248,-0.144963141214248,-0.144963141214248
0.35,0.00489565755032265,-0.0240068759212362,-0.0854495900882333,0.0609481864877884,-0.0232541008528384,-0.00771649842050664,0.0954189421018815,-0.0437211547257745,0.52156938491557,-0.144963141214248,-0.144963141214248,-0.144963141214248
0.36,0.0438612567259155,-0.043606634171998,-0.260709323937152,0.178376559927754,-0.0596621195465524,0.0163027567178078,0.284555508178236,-0.137170373932756,0.52156938491557,-0.144963141214248,-0.144963141214248,-0.144963141214248
0.37,0.00454485093779471,-0.0238899539869365,-0.141997536431135,0.0602455245741836,-0.0229779386544151,-0.0079624058386049,0.122984239082361,-0.0931004861483699,0.52156938491557,-0.144963141214248,-0.144963141214248,-0.144963141214248
0.38,-0.0137685252588568,-0.0242992582952807,-0.0310078339749805,0.0623537555501697,-0.0142083377372549,-0.0240447370592536,0.0695124838626548,0.00418224655830161,0.52156938491557,-0.144963141214248,-0.144963141214248,-0.144963141214248
0.39,-0.00458258627214266,0.00495418789383983,-0.086502795445643,-0.0550746178897896,0.00657870523431961,-0.00150489603263321,-0.00465252413562448,-0.102441696465768,0.52156938491557,-0.144963141214248,-0.144963141214248,-0.144963141214248
0.4,0.00425266853091959,-0.0238900152013756,-0.0819404979564474,0.0602458188563664,-0.0228324143384374,-0.00821576967993545,0.0930615872400665,-0.0410285860758589,0.52156938491557,-0.144963141214248,-0.144963141214248,-0.144963141214248
0.41,-0.0626802886089908,0.0243785673241106,0.262262407917326,-0.171800476557225,0.0523670709305425,-0.0421997986611086,-0.279627602774469,0.141793434680479,0.52156938491557,-0.144963141214248,-0.144963141214248,-0.144963141214248
0.42,-0.0437235887540002,0.0246708517550509,0.0898098497804435,-0.173205604196326,0.0431754787722984,-0.0256179853351398,-0.194922886597911,-0.00842963361825387,0.52156938491557,-0.144963141214248,-0.144963141214248,-0.144963141214248
0.43,-0.00487484621730517,0.00524648048670429,-0.0850993055830488,-0.0564797455288838,0.00697775013558468,-0.00161266431258691,-0.00657010048538513,-0.101924909837274,0.52156938491557,-0.144963141214248,-0.144963141214248,-0.144963141214248
0.44,-0.0922845373407212,0.0246708517550509,0.380974293483049,-0.173205604196326,0.067370557069761,-0.0677221883773756,-0.339993086374611,0.244021095066367,0.52156938491557,-0.144963141214248,-0.144963141214248,-0.144963141214248
0.45,-0.014294804558434,0.0243786489544069,-0.0285505262696574,-0.171800868986563,0.0282594871177049,-0.000247689423069524,-0.13473287986602,-0.110352717310545,0.52156938491557,-0.144963141214248,-0.144963141214248,-0.144963141214248
0.46,-0.00429043244525883,0.00495427360068111,-0.0882567902323249,-0.0550749612455497,0.00643321639392983,-0.00125154476811976,-0.003778908901344,-0.103962648224383,0.52156938491557,-0.144963141214248,-0.144963141214248,-0.144963141214248
0.47,0.00425309706532531,-0.0238901580461775,-0.140596643567239,0.060246505568206,-0.0228327517039651,-0.00821546929539011,0.122287106725147,-0.0918853695881221,0.52156938491557,-0.144963141214248,-0.144963141214248,-0.144963141214248
0.48,-0.00347248497571313,0.00442844323145398,-0.0334608787270754,-0.0529683979489048,0.00556976596882738,-0.000804343467218075,-0.0292540331831081,-0.0554029162498076,0.52156938491557,-0.144963141214248,-0.144963141214248,-0.144963141214248
0.49,-0.0629143120532842,0.0245540032825218,0.263667073767537,-0.172503432779733,0.0526357808126956,-0.0423152964845336,-0.280936955528078,0.142661091852482,0.52156938491557,-0.144963141214248,-0.144963141214248,-0.144963141214248
0.5,0.00501274272757582,-0.0241823200371289,-0.0858013935179511,0.061651044589528,-0.0234645543140383,-0.0077023946195023,0.0962036300633371,-0.0436759887265172,0.52156938491557,-0.144963141214248,-0.144963141214248,-0.144963141214248
0.51,-0.0340113704699039,0.00524641518685831,0.0898096292819372,-0.0564793531259335,0.0214947181258339,-0.02687517974349,-0.0937166446805254,0.0497280338552315,0.52156938491557,-0.144963141214248,-0.144963141214248,-0.144963141214248
0.52,-0.0432562928069865,0.0243787917881674,0.0873550410135897,-0.171801555645322,0.0426894253722067,-0.0253583382311492,-0.192482435184975,-0.00985849166456183,0.52156938491557,-0.144963141214248,-0.144963141214248,-0.144963141214248
0.53,-0.0337777306583222,0.00512958303817967,0.0884070704100719,-0.0557772798034009,0.0212770111338552,-0.0267308156961501,-0.0924091072190064,0.0488617636168043,0.52156938491557,-0.144963141214248,-0.144963141214248,-0.144963141214248
0.54,-0.0437235887540002,0.0246708517550509,0.148112868903805,-0.173205604196326,0.0431754787722984,-0.0256179853351398,-0.223971868418129,0.0421213178476457,0.52156938491557,-0.144963141214248,-0.144963141214248,-0.144963141214248
0.55,-0.00481625057172261,0.00512958303817967,-0.0858016385014696,-0.0557772798034009,0.00684720078831979,-0.00162010279909387,-0.0056111044022494,-0.102183861833417,0.52156938491557,-0.144963141214248,-0.144963141214248,-0.144963141214248
0.56,-0.0630896704622926,0.0245540604159983,0.264018485183586,-0.172503776108946,0.0527232011806892,-0.0424673104777515,-0.281112340947365,0.142965607953709,0.52156938491557,-0.144963141214248,-0.144963141214248,-0.144963141214248
0.57,-0.0145868604443826,0.0246708517550509,0.031506095679847,-0.173205604196326,0.0286583524949122,-0.000355325514073947,-0.165873538581557,-0.0589812223375767,0.52156938491557,-0.144963141214248,-0.144963141214248,-0.144963141214248
0.58,-0.0338361793847812,0.00524635804896301,0.0304545317653131,-0.0564790097701667,0.0214073811217074,-0.0267233108286937,-0.0641431760748922,-0.00173493881403313,0.52156938491557,-0.144963141214248,-0.144963141214248,-0.144963141214248
0.59,-0.0337778041222774,0.00512958303817967,0.0301040757982489,-0.0557772798034009,0.021277047736644,-0.026730879392214,-0.0633601376114536,-0.00168916659665209,0.52156938491557,-0.144963141214248,-0.144963141214248,-0.144963141214248
0.6,-0.0921097257985528,0.024378955037785,0.380275341484358,-0.171802340451235,0.0670303730724964,-0.0677160551212257,-0.338428156071738,0.244114241091032,0.52156938491557,-0.144963141214248,-0.144963141214248,-0.144963141214248
0.61,-0.0340113296580551,0.00524633356316081,0.0898093842850758,-0.0564788626289158,0.0214946270208053,-0.0268751850263643,-0.0937160973332218,0.0497280658195196,0.52156938491557,-0.144963141214248,-0.144963141214248,-0.144963141214248
0.62,-0.0141782009525797,-0.0242990624001849,0.0294034088479578,0.0623525783680125,-0.0140040504697735,-0.0243998439794161,0.0394120769100551,0.0565605222275679,0.52156938491557,-0.144963141214248,-0.177007624983833,-0.144963141214248
0.63,-0.0334860175910417,0.00512958303817967,0.0870062755129403,-0.0557772798034009,0.0211316675870618,-0.0264778892898029,-0.0917111731134924,0.0476472207693961,0.52156938491557,-0.144963141214248,-0.144963141214248,-0.144963141214248
0.64,-0.0531440449948193,0.00524630907738517,0.205014995123282,-0.0564787154878245,0.0310273179614553,-0.0434639944950483,-0.151116182389246,0.149615817842413,0.52156938491557,-0.144963141214248,-0.144963141214248,-0.144963141214248
0.65,-0.0438403066312805,0.0246708517550509,0.0905099532421189,-0.173205604196326,0.0432336324587831,-0.0257191842067988,-0.195271707174209,-0.00782261709244791,0.52156938491557,-0.144963141214248,-0.144963141214248,-0.144963141214248
0.66,-0.0436652338963226,0.0245541420396958,0.147762559926932,-0.172504266605963,0.0430452121674038,-0.0256255390575363,-0.223189243396675,0.042167022012959,0.52156938491557,-0.144963141214248,-0.144963141214248,-0.144963141214248
0.67,-0.0436652379772853,0.0245541502016211,0.147762584425284,-0.172504315652994,0.0430452212774105,-0.0256255385292776,-0.223189298128424,0.0421670188167043,0.52156938491557,-0.144963141214248,-0.144963141214248,-0.144963141214248
0.68,-0.0437235887540002,0.0246708517550509,0.0894589528164431,-0.173205604196326,0.0431754787722984,-0.0256179853351398,-0.194748055179551,-0.00873387473069411,0.52156938491557,-0.144963141214248,-0.144963141214248,-0.144963141214248
0.69,-0.0339529543955646,0.00512958303817967,0.0894589528164431,-0.0557772798034009,0.0213643148658772,-0.026882741390054,-0.09293319865302,0.0497737859661066,0.52156938491557,-0.144963141214248,-0.144963141214248,-0.144963141214248
0.7,0.0242041434844341,0.00512958303817967,-0.201359150736101,-0.0557772798034009,-0.00761196293987662,0.0235416907668629,0.0519644400989848,-0.202376652538355,0.52156938491557,-0.144963141214248,-0.144963141214248,-0.144963141214248
0.71,-0.0534358886617807,0.00524625193948985,0.147762682431954,-0.0564783721320575,0.0311726770376808,-0.0437170626047916,-0.122590408381256,0.0999760401850889,0.52156938491557,-0.144963141214248,-0.144963141214248,-0.144963141214248
0.72,-0.00446606021117851,0.00512958303817967,-0.0872031193926411,-0.0557772798034009,0.00667272142910278,-0.00131647433892383,-0.00491282850605814,-0.103398999463941,0.52156938491557,-0.144963141214248,-0.144963141214248,-0.144963141214248
0.73,0.00454632015088098,-0.0238906885934796,-0.142005474256677,0.0602490561203365,-0.022979307609319,-0.00796149798600831,0.122991256022035,-0.0931056089845145,0.52156938491557,-0.144963141214248,-0.144963141214248,-0.144963141214248
0.74,-0.00440776248923994,0.00495461641491767,-0.0292493312651438,-0.0550763346159949,0.00649197232032806,-0.00135310360749525,-0.0331800626280599,-0.0528016046933158,0.52156938491557,-0.144963141214248,-0.144963141214248,-0.144963141214248
0.75,-0.0534942231124358,0.00512958303817967,0.206416696512803,-0.0557772798034009,0.0311005852723771,-0.0438257700932253,-0.151206396532886,0.15118063099837,0.52156938491557,-0.144963141214248,-0.144963141214248,-0.144963141214248
0.76,-0.0145866278161779,-0.023890749807985,-0.0271487513982569,0.060249350402838,-0.0134465326078256,-0.0245505274538474,0.0657651290023681,0.00647971710417885,0.52156938491557,-0.144963141214248,-0.144963141214248,-0.144963141214248
0.77,0.0053045129327782,-0.0241823200371289,-0.145856790496322,0.061651044589528,-0.0236099263293138,-0.00744941867238757,0.126125719198025,-0.0957463189352404,0.52156938491557,-0.144963141214248,-0.144963141214248,-0.144963141214248
0.78,-0.0532026936929179,0.00512958303817967,0.146712808970572,-0.0557772798034009,0.0309553332265146,-0.0435730029165248,-0.121459443975575,0.0994150729388983,0.52156938491557,-0.144963141214248,-0.144963141214248,-0.144963141214248
0.79,0.0534580386038891,-0.0628567448502847,-0.377322442487754,0.294405593518625,-0.0811342177627405,0.0150323309096392,0.443258617306853,-0.180467939765475,0.52156938491557,-0.144963141214248,-0.144963141214248,-0.144963141214248
0.8,0.00501298759422297,0.0243793631451591,-0.144456779559792,-0.17180430238588,0.0186401636479826,0.0164932619926989,-0.0769865549981988,-0.210849590534567,0.52156938491557,-0.144963141214248,-0.144963141214248,-0.144963141214248
0.81,0.00501299575614818,0.0246708517550509,-0.144456828556496,-0.173205604196326,0.0188928913745641,0.0166385007822153,-0.0782015129466838,-0.211547819687334,0.52156938491557,-0.144963141214248,-0.144963141214248,-0.144963141214248
0.82,-0.0337780857154051,0.00512958303817967,0.0301052027492793,-0.0557772798034009,0.0212771880380173,-0.026731123544245,-0.063360699105189,-0.0016881894869295,0.52156938491557,-0.144963141214248,-0.144963141214248,-0.144963141214248
0.83,-0.140322508235636,0.0245542807968698,0.611745917737913,-0.172505100432194,0.0912039947073053,-0.109431030208171,-0.45436571554687,0.444457955356526,0.52156938491557,-0.144963141214248,-0.144963141214248,-0.144963141214248
0.84,-0.013887153115425,-0.0240074758493734,0.0283559608695441,0.0609505898989805,-0.0138962458596116,-0.0240022138420341,0.038718381208197,0.0549538159046808,0.52156938491557,-0.144963141214248,-0.144963141214248,-0.144963141214248
0.85,-0.00417483280060878,0.00483819646340019,-0.0302977837293549,-0.0543764685163668,0.00627497653178254,-0.0012091498902433,-0.0320508694096459,-0.0533619508386643,0.52156938491557,-0.144963141214248,-0.144963141214248,-0.144963141214248
