t,iq,id,vq,vd,omega,omega_obs,r
0,0,0,0,0,-0.144963141214248,0,0
0.01,-0.014353061872612,0.0535723881878011,0.0304531132329837,-0.405948543145674,-0.144963141214248,998.727376212922,-0.144963141214248
0.02,-0.0144116856786916,0.00512958303817967,0.0308050367290811,-0.173205604196326,-0.144963141214248,995.980706168868,-0.144963141214248
0.03,-0.0144116856786916,0.0529275263177274,0.0308050367290811,-0.285701938955782,-0.144963141214248,995.980706168868,-0.144963141214248
0.04,-0.0241823200371289,-0.101292166429892,0.0894589528164431,0.409004028312018,-0.144963141214248,995.980706168868,-0.144963141214248
0.05,0.0147243459773103,0.00512958303817967,-0.0857989484491802,-0.173205604196326,-0.144963141214248,995.980706168868,-0.144963141214248
0.06,-0.00475829892891374,0.0244363565377353,-0.0271450323871045,-0.172501034271863,-0.144963141214248,995.980706168868,-0.144963141214248
0.07,-0.00475829893348149,-0.0629717384378076,-0.0271450323596839,0.177670229078633,-0.144963141214248,993.876451730068,-0.144963141214248
0.08,-0.0144116856786916,0.00542270206071296,0.0308050367290811,-0.0571864196566002,-0.144963141214248,995.980706168868,-0.144963141214248
0.09,-0.0144116856786916,0.00489508781101807,0.0308050367290811,-0.171796464288233,-0.144963141214248,995.980706168868,-0.144963141214248
0.1,-0.00475829892962479,0.0244363565363132,-0.0271450323828359,-0.289224788731783,-0.144963141214248,995.980706168868,-0.144963141214248
0.11,-0.00464105132025594,-0.0632648574708714,-0.027848879358281,0.179079368982457,-0.144963141214248,995.980706168868,-0.144963141214248
0.12,-0.00464105132025594,0.0246708517550509,-0.027848879358281,-0.173205604196326,-0.144963141214248,995.980706168868,-0.144963141214248
0.13,-0.0142358142572538,0.00512958303817967,0.0301011897240828,-0.173205604196326,-0.144963141214248,995.980706168868,-0.144963141214248
0.14,-0.0145289332887715,-0.0817508976970235,0.0315088837087946,0.291575703844322,-0.144963141214248,995.980706168868,-0.144963141214248
0.15,-0.0629717384342536,0.14109773075375,0.264013007064264,-0.756824376358694,-0.144963141214248,995.980706168868,-0.144963141214248
0.16,-0.00464105132025594,-0.0144116856786916,-0.027848879358281,-0.0557772798034009,-0.144963141214248,995.980706168868,-0.144963141214248
0.17,-0.0241236962296275,0.024553604140048,0.0891070293118097,-0.173205604196326,-0.144963141214248,995.980706168868,-0.144963141214248
0.18,-0.00475829893104637,-0.0144116856786916,-0.0271450323743021,-0.0557772798034009,-0.144963141214248,995.980706168868,-0.144963141214248
0.19,0.0146657221658989,0.00553994969193328,-0.0854470249285438,-0.0578909896975834,-0.144963141214248,995.980706168868,-0.144963141214248
0.2,-0.0144116856786916,0.0534551405801997,0.0308050367290811,-0.288520218771004,-0.144963141214248,995.980706168868,-0.144963141214248
0.21,-0.00464105132025594,0.024436356523624,-0.027848879358281,-0.171796464262601,-0.144963141214248,995.980706168868,-0.144963141214248
0.22,-0.00452380370875446,0.0240259898917928,-0.0282008028524046,-0.170387324430119,-0.144963141214248,995.980706168868,-0.144963141214248
0.23,0.0340897432652788,-0.208651896686715,-0.202051010081194,0.994736510011948,-0.144963141214248,995.980706168868,-0.144963141214248
0.24,-0.0143530618727632,-0.0338357067837078,0.0304531132338911,0.0609464746458415,-0.144963141214248,995.980706168868,-0.144963141214248
0.25,0.0147243459719786,0.0054227020792409,-0.0857989484278424,-0.173910174167461,-0.144963141214248,995.980706168868,-0.144963141214248
0.26,0.0147829697844561,-0.0823957595451854,-0.0861508719495451,0.294393983538873,-0.144963141214248,995.980706168868,-0.144963141214248
0.27,-0.0143530618703014,-0.0336012115452237,0.0304531132191128,0.0602419046429813,-0.144963141214248,995.980706168868,-0.144963141214248
0.28,-0.0433718459164551,0.00460196878186207,0.146705174915142,-0.170387324405757,-0.144963141214248,995.980706168868,-0.144963141214248
0.29,-0.0144116856786916,-0.0819853929296287,0.0308050367290811,0.29298484376376,-0.144963141214248,998.727376212922,-0.144963141214248
0.3,0.0149002173966153,-0.0822785119298288,-0.086502795445643,0.29368941357629,-0.144963141214248,998.686176162792,-0.144963141214248
0.31,-0.0240650724284712,-0.150145338218872,0.0887551058452666,0.643156107158463,-0.144963141214248,998.727376212922,-0.144963141214248
0.32,-0.0144116856786916,0.00512958303817967,0.0308050367290811,-0.173205604196326,-0.144963141214248,998.727376212922,-0.144963141214248
0.33,-0.0144116856786916,-0.169921102150568,0.0308050367290811,0.761993571387489,-0.144963141214248,998.727376212922,-0.144963141214248
0.34,-0.0144116856786916,0.0539827548303577,0.0308050367290811,-0.290633928589255,-0.144963141214248,998.686176162892,-0.144963141214248
0.35,-0.00469967512494063,0.024846723169105,-0.0274969558705568,-0.290633928589255,-0.144963141214248,998.686176162311,-0.144963141214248
0.36,-0.0144116856786916,0.0536896357955176,0.0308050367290811,-0.289929358633073,-0.144963141214248,995.980706168868,-0.144963141214248
0.37,-0.00464105132025594,0.0244363565356027,-0.027848879358281,-0.289224788727513,-0.144963141214248,995.980706168868,-0.144963141214248
0.38,-0.0144116856786916,-0.120833435092858,0.0308050367290811,0.525727782494682,-0.144963141214248,993.876451728994,-0.144963141214248
0.39,-0.00452380371017604,0.024553604144971,-0.0282008028481377,-0.289929358656246,-0.144963141214248,995.980706168868,-0.144963141214248
0.4,-0.0143530618713677,0.0532792691424718,0.030453113225514,-0.404539403179895,-0.144963141214248,995.980706168868,-0.144963141214248
0.41,-0.0336012115642574,0.0921273113806146,0.146353251449182,-0.637986912222008,-0.144963141214248,995.980706168868,-0.144963141214248
0.42,-0.0241236962296278,-0.0140013190261833,0.0891070293118114,-0.0571864197285797,-0.144963141214248,995.980706168868,-0.144963141214248
0.43,0.0147829697858249,0.00524683064897009,-0.0861508719536536,-0.173910174133605,-0.144963141214248,995.980706168868,-0.144963141214248
0.44,-0.00464105132025594,-0.0141771904479752,-0.027848879358281,-0.0564818497681283,-0.144963141214248,995.980706168868,-0.144963141214248
0.45,-0.0627372432207134,0.14098048316711,0.321259229221429,-0.756119806524466,-0.144963141214248,995.980706168868,-0.144963141214248
0.46,0.0147829697809013,-0.0338357067798506,-0.0861508719388753,0.0609464746226624,-0.144963141214248,995.980706168868,-0.144963141214248
0.47,-0.0241236962313779,-0.0145289332901936,0.0891070293223178,-0.0550727098618459,-0.144963141214248,995.980706168868,-0.144963141214248
0.48,-0.0240650724210602,-0.0144116856786916,0.0887551058007784,-0.0557772798034009,-0.144963141214248,995.980706168868,-0.144963141214248
0.49,-0.0143530618727632,0.00448472117296761,0.0304531132338911,-0.169682754477894,-0.144963141214248,995.980706168868,-0.144963141214248
0.5,0.0147243459719786,-0.120833435073665,-0.0857989484278424,0.526432352363293,-0.144963141214248,995.980706168868,-0.144963141214248
0.51,0.0244949803368121,-0.0629717384404734,-0.144452864540806,0.177670229091448,-0.144963141214248,995.980706168868,-0.144963141214248
0.52,-0.00475829893703624,0.0244363565214903,-0.0271450323383444,-0.289224788642708,-0.144963141214248,995.980706168868,-0.144963141214248
0.53,-0.014235814259919,0.0536896357990702,0.0301011897347493,-0.406653113086899,-0.144963141214248,995.980706168868,-0.144963141214248
0.54,-0.00464105132025594,-0.0141771904620854,-0.027848879358281,-0.0571864196480641,-0.144963141214248,995.980706168868,-0.144963141214248
0.55,-0.0144116856786916,-0.0822785119298239,0.0308050367290811,0.293689413576264,-0.144963141214248,995.980706168868,-0.144963141214248
0.56,-0.00464105132025594,0.0246708517550509,-0.027848879358281,-0.173205604196326,-0.144963141214248,995.980706168868,-0.144963141214248
0.57,-0.0239478248106757,-0.0153496665845045,0.0884031823185378,-0.0508452901399714,-0.144963141214248,995.980706168868,-0.144963141214248
0.58,-0.0244168152551539,0.0253743374091259,0.0908666467630548,-0.293452208295634,-0.144963141214248,995.980706168868,-0.144963141214248
0.59,-0.0144703094854817,0.00553994968571056,0.0311569602294443,-0.175319314058457,-0.144963141214248,995.980706168868,-0.144963141214248
0.6,-0.0142358142646391,-0.0339529543955646,0.0301011897536393,0.061651044589528,-0.144963141214248,995.980706168868,-0.144963141214248
0.61,-0.0144116856786916,0.00512958303817967,0.0308050367290811,-0.173205604196326,-0.144963141214248,995.980706168868,-0.144963141214248
0.62,-0.0144116856786916,0.00489508781873146,0.0308050367290811,-0.0550727098725299,-0.144963141214248,995.980706168868,-0.144963141214248
0.63,-0.0435477173325624,0.052927526301731,0.20571101448367,-0.285701938881017,-0.144963141214248,995.980706168868,-0.144963141214248
0.64,-0.0338357067854846,0.0928307970439404,0.147409021924092,-0.524081437509091,-0.144963141214248,995.980706168868,-0.144963141214248
0.65,-0.0533183516904643,0.111844451485762,0.206062937984033,-0.639396051965749,-0.144963141214248,995.980706168868,-0.144963141214248
0.66,-0.00452380370982024,-0.0148220523152165,-0.0282008028492057,-0.0536635699979593,-0.144963141214248,998.727376212922,-0.144963141214248
0.67,-0.0143530618711898,0.00524683065318313,0.0304531132244461,-0.173910174158922,-0.144963141214248,998.727376212922,-0.144963141214248
0.68,-0.0143530618732958,0.0535723881925875,0.0304531132370884,-0.289224788714684,-0.144963141214248,996.021906219298,-0.144963141214248
0.69,-0.0144703094863712,-0.0338357067802053,0.0311569602347841,0.0609464746247939,-0.144963141214248,998.727376212922,-0.144963141214248
0.7,-0.0142358142619706,0.0038398593155593,0.0301011897429598,-0.166159904802093,-0.144963141214248,995.980706168868,-0.144963141214248
0.71,0.0146657221651895,0.00501233542246679,-0.0854470249253498,-0.0557772798034009,-0.144963141214248,998.727376212922,-0.144963141214248
0.72,-0.0142358142614402,0.00460196878642545,0.030101189740837,-0.170387324430132,-0.144963141214248,998.727376212922,-0.144963141214248
0.73,-0.0240650724210602,-0.0141771904465542,0.0887551058007784,-0.0571864197413952,-0.144963141214248,995.980706168868,-0.144963141214248
0.74,-0.0144116856786916,0.00542270206782152,0.0308050367290811,-0.174614744083699,-0.144963141214248,998.727376212922,-0.144963141214248
0.75,-0.0241236962289167,-0.0142944380622671,0.0891070293075428,-0.0564818497745361,-0.144963141214248,998.727376212922,-0.144963141214248
0.76,-0.0143530618726119,-0.0336012115590869,0.0304531132329832,0.0595373347530154,-0.144963141214248,998.727376212922,-0.144963141214248
0.77,-0.0434890935204396,0.00524683065495996,0.1470570983739,-0.0564818497766742,-0.144963141214248,998.727376212922,-0.144963141214248
0.78,-0.00469967512651345,0.0245536041425359,-0.0274969558611151,-0.289929358641613,-0.144963141214248,998.727376212922,-0.144963141214248
0.79,0.0147829697883122,-0.0336012115706553,-0.0861508719611195,0.0602419047448647,-0.144963141214248,998.727376212922,-0.144963141214248
0.8,-0.0144116856786916,-0.0334253401376459,0.0308050367290811,0.0588327647904064,-0.144963141214248,998.727376212922,-0.144963141214248
0.81,-0.00452380371159707,0.024553604146392,-0.0282008028438724,-0.173205604196326,-0.144963141214248,998.727376212922,-0.144963141214248
0.82,-0.0238892010040624,0.0729964092877092,0.088051258819236,-0.405948543126428,-0.144963141214248,998.727376212922,-0.144963141214248
0.83,-0.0532597278944064,0.111961699131391,0.205711014531189,-0.640100622061607,-0.144963141214248,998.727376212922,-0.144963141214248
0.84,-0.0145875570990619,-0.033718459168404,0.0318608072301707,0.0602419046814409,-0.144963141214248,998.727376212922,-0.144963141214248
0.85,-0.0143530618740074,0.00501233542881137,0.0887551058410014,-0.172501034267593,-0.144963141214248,998.727376212922,-0.144963141214248
0.86,-0.0241823200371289,0.0244363565271788,0.0894589528164431,-0.172501034240145,-0.144963141214248,998.727376212922,-0.144963141214248
0.87,-0.0048169227348421,0.0250812183890853,-0.0267931088919145,-0.292043068450997,-0.144963141214248,998.727376212922,-0.144963141214248
0.88,-0.0144116856786916,0.0534551405660444,0.0308050367290811,-0.405243973148905,-0.144963141214248,998.727376212922,-0.144963141214248
0.89,-0.053259727892276,0.0243191089248112,0.205711014521597,-0.288520218790228,-0.144963141214248,998.727376212922,-0.144963141214248
0.9,-0.00475829893490361,-0.062737243204957,-0.0271450323511468,0.176261089140625,-0.144963141214248,998.727376212922,-0.144963141214248
0.91,-0.0144116856786916,0.00542270206426893,0.0308050367290811,-0.17461474406662,-0.144963141214248,998.727376212922,-0.144963141214248
0.92,-0.00452380370525248,-0.276518722938907,-0.028200802862916,1.22818401893025,-0.144963141214248,996.021906219928,-0.144963141214248
0.93,-0.0241236962317332,-0.188817508995642,0.14740902191982,0.87660361596717,-0.144963141214248,998.727376212922,-0.144963141214248
0.94,0.014782969781256,-0.0338357067802053,-0.08615087193994,0.0609464746247939,-0.144963141214248,998.727376212922,-0.144963141214248
0.95,-0.0338357067844172,0.0923031827916427,0.147409021917684,-0.521967727677992,-0.144963141214248,998.727376212922,-0.144963141214248
0.96,-0.00464105132025594,0.0236156232136349,-0.027848879358281,-0.284997368854382,-0.144963141214248,998.727376212922,-0.144963141214248
0.97,-0.0629131146363686,0.140452868912518,0.321963076201155,-0.753301526745483,-0.144963141214248,998.727376212922,-0.144963141214248
0.98,-0.00475829893632464,0.0249639707952226,-0.0271450323426162,-0.291338498558252,-0.144963141214248,996.021906219779,-0.144963141214248
0.99,-0.0143530618727632,0.0538068834125726,0.0304531132338911,-0.407357683038497,-0.144963141214248,998.686176162642,-0.144963141214248
1,-0.00469967512846819,-0.0625613717723245,-0.0274969558493806,0.176261089097916,-0.144963141214248,998.727376212922,-0.144963141214248
1.01,-0.0145875570969304,0.0536896357999597,0.0315088837212769,-0.289929358643751,-0.144963141214248,998.727376212922,-0.144963141214248
1.02,-0.0142358142535211,-0.0339529543955646,0.0301011897091446,0.061651044589528,-0.144963141214248,998.727376212922,-0.144963141214248
1.03,0.0147243459778428,0.00489508781314962,-0.0857989484513112,-0.171796464301042,-0.144963141214248,998.727376212922,-0.144963141214248
1.04,-0.01435306187454,-0.0338357067872615,0.0304531132445575,0.0609464746671963,-0.144963141214248,998.727376212922,-0.144963141214248
1.05,-0.0143530618722561,0.00501233542530885,0.0304531132308472,-0.172501034246546,-0.144963141214248,998.727376212922,-0.144963141214248
1.06,-0.00464105132025594,-0.0627372432319065,-0.027848879358281,0.176965659209048,-0.144963141214248,998.727376212922,-0.144963141214248
1.07,-0.0143530618720782,0.0052468306514063,0.0304531132297793,-0.173205604196326,-0.144963141214248,1000.83163065172,-0.144963141214248
1.08,-0.00464105132025594,-0.0141771904606622,-0.027848879358281,-0.0564818497300087,-0.144963141214248,998.727376212922,-0.144963141214248
1.09,-0.00469967512704715,-0.0140013190311531,-0.0274969558579112,-0.057186419711514,-0.144963141214248,998.727376212922,-0.144963141214248
1.1,-0.0143530618740063,0.00471921640538302,0.0304531132413537,-0.054368139945909,-0.144963141214248,998.727376212922,-0.144963141214248
1.11,-0.00464105132025594,-0.150379833399224,-0.027848879358281,0.644565246817001,-0.144963141214248,998.686176161712,-0.144963141214248
1.12,-0.00469967512511908,-0.189345123252726,-0.0274969558694856,0.878717325823834,-0.144963141214248,998.727376212922,-0.144963141214248
1.13,-0.00452380370596192,-0.0628544908208423,-0.0282008028607866,0.176965659107458,-0.144963141214248,998.727376212922,-0.144963141214248
1.14,-0.00475829893033802,0.0246708517550509,-0.0271450323785544,-0.173205604196326,-0.144963141214248,998.727376212922,-0.144963141214248
1.15,-0.0143530618713666,-0.0338357067809147,0.0304531132255075,0.0609464746290571,-0.144963141214248,998.727376212922,-0.144963141214248
1.16,0.0246708517550509,-0.237025818934911,-0.145156711533001,0.991213660641074,-0.144963141214248,1000.86367513607,-0.144963141214248
1.17,-0.0143530618711909,0.00471921638567516,0.0304531132244526,-0.171091894308577,-0.144963141214248,1000.86367513607,-0.144963141214248
1.18,0.014782969785826,-0.0336012115631966,-0.0861508719536568,0.0595373347777113,-0.144963141214248,998.727376212922,-0.144963141214248
1.19,-0.00452380370489885,0.0243191089089796,-0.0282008028639774,-0.288520218695092,-0.144963141214248,998.727376212922,-0.144963141214248
1.2,-0.0434890935317099,0.0535723881913498,0.147057098424643,-0.405948543163953,-0.144963141214248,998.727376212922,-0.144963141214248
1.21,0.0146657221651895,0.00524683065389256,-0.0854470249253498,-0.173910174163185,-0.144963141214248,998.727376212922,-0.144963141214248
1.22,-0.004523803708755,0.02455360414355,-0.028200802852403,-0.289929358647707,-0.144963141214248,998.727376212922,-0.144963141214248
1.23,-0.0240650724210602,-0.0144116856786916,0.0887551058007784,-0.0557772798034009,-0.144963141214248,998.727376212922,-0.144963141214248
1.24,-0.0144116856786916,0.00542270206782152,0.0308050367290811,-0.173910174140013,-0.144963141214248,1000.86367513607,-0.144963141214248
1.25,-0.0143530618704793,-0.121771416005061,0.0304531132201808,0.530659772190105,-0.144963141214248,1000.86367513607,-0.144963141214248
1.26,0.0149002173966153,-0.0822785119327862,-0.086502795445643,0.293689413592087,-0.144963141214248,1000.86367513607,-0.144963141214248
1.27,0.014782969779835,-0.0826888785709623,-0.0861508719356747,0.295803123402112,-0.144963141214248,1000.86367513607,-0.144963141214248
1.28,-0.0240650724246139,0.0732309045159414,0.0887551058221114,-0.406653113086899,-0.144963141214248,1000.86367513607,-0.144963141214248
1.29,-0.00464105132025594,-0.0627372432335076,-0.027848879358281,0.17626108929313,-0.144963141214248,1000.86367513607,-0.144963141214248
1.3,-0.0144116856786916,0.0539827548303577,0.0308050367290811,-0.290633928589255,-0.144963141214248,1000.86367513607,-0.144963141214248
1.31,-0.0144116856786916,0.00512958303817967,0.0308050367290811,-0.172501034271856,-0.144963141214248,1000.86367513607,-0.144963141214248
1.32,-0.0147048047117581,0.00595031633076604,0.03256465422559,-0.176728453955919,-0.144963141214248,1000.86367513607,-0.144963141214248
1.33,0.0149002173966153,-0.208534649148246,-0.086502795445643,0.994031940466873,-0.144963141214248,1000.86367513607,-0.144963141214248
1.34,-0.0433718459132529,0.00512958303817967,0.146705174902326,-0.173205604196326,-0.144963141214248,1000.86367513607,-0.144963141214248
1.35,0.0147243459825596,0.00512958303817967,-0.0857989484701882,-0.173205604196326,-0.144963141214248,1000.86367513607,-0.144963141214248
1.36,0.0149002173966153,-0.208534649094087,-0.086502795445643,0.994736510127199,-0.144963141214248,1000.86367513607,-0.144963141214248
1.37,-0.0241236962322658,-0.0148220523127335,0.0891070293276478,-0.0536635700107488,-0.144963141214248,1000.86367513607,-0.144963141214248
1.38,4.43128557121671,-0.0336012115526825,5.54568084295108,0.176965659107458,-0.144963141214248,1048.29714086136,1412.8641817441
1.39,4.77986272264607,-0.0311976355586358,4.50609883386172,-1.72302462909412,323.962102057103,1020.64122537794,1412.8641817441
1.4,4.49002662498215,-0.12218178265811,8.9465522055116,-1.57811807714864,626.706178023893,739.884243117789,1412.8641817441
1.41,4.50857128900401,0.112489313370538,11.1216740296042,-2.8747616351688,851.933121636283,796.96767627152,1412.8641817441
1.42,4.50020762599362,0.036493319376009,13.284478531445,-3.23620601788861,652.952136255389,399.440594862718,1412.8641817441
1.43,4.42145631305113,-0.131307555147553,15.1066210886409,-5.69233685066393,1113.78233250831,1284.97769857038,1412.8641817441
1.44,0.579076186455709,-0.238139671192179,13.1661149287468,-2.29043829309263,1398.8256459618,1735.67726016549,1412.8641817441
1.45,-1.53079459682012,-0.0754390678577823,9.29495646709471,0.546160310888857,1526.6983957921,1545.02021091159,1412.8641817441
