t,iq,id,vq,vd,omega,omega_obs,r
0,0,0,0,0,-0.144963141214248,0,0
0.01,0.00489510285285423,-0.15026264595549,-0.0854470926675767,0.643860993241259,-0.144963141214248,333.728039991515,-0.144963141214248
0.02,0.0147829856536019,-0.1306042122928,-0.144452959804584,0.525728545490232,-0.144963141214248,333.728039991515,-0.144963141214248
0.03,-0.0337771193071846,-0.130604287449641,0.0887552512183208,0.526433371346611,-0.144963141214248,333.728039991515,-0.144963141214248
0.04,-0.0336599167890545,-0.0434305511474901,0.0880516498674516,0.0602422961355701,-0.144963141214248,333.728039991515,-0.144963141214248
0.05,-0.0337185410096551,0.00524678973113441,0.0884035507901393,-0.173909928248194,-0.144963141214248,331.896926628813,-0.144963141214248
0.06,-0.0142944873353862,0.0246708517550509,0.0301014855018393,-0.290633928589255,-0.144963141214248,333.700573291035,-0.144963141214248
0.07,-0.00464105132025594,0.00512958303817967,-0.027848879358281,-0.0557772798034009,-0.144963141214248,333.728039991515,-0.144963141214248
0.08,-0.0240651383942329,-0.023772184286993,0.0304533112424208,-0.0571856268431206,-0.144963141214248,331.896926628813,-0.144963141214248
0.09,0.00501240974493309,-0.0627375776512618,-0.0857993945959498,0.176262875603464,-0.144963141214248,331.896926628813,-0.144963141214248
0.1,-0.0337772069801684,0.0436848782257336,0.0887556020903757,-0.28852170908034,-0.144963141214248,331.896926628813,-0.144963141214248
0.11,0.0145487476147712,0.0057739443048939,-0.143398460026901,-0.176021696174433,-0.144963141214248,331.896926628813,-0.144963141214248
0.12,-0.0532599266260601,0.13150351436031,0.264014200134237,-0.756827362097267,-0.144963141214248,333.728039991515,-0.144963141214248
0.13,-0.0240066101968209,0.063519109401716,0.0301018363805623,-0.406654407706924,-0.144963141214248,331.896926628813,-0.144963141214248
0.14,-0.0144702514506363,0.024378022895327,0.0308050367290811,-0.289226183664215,-0.144963141214248,333.728039991515,-0.144963141214248
0.15,-0.0337772696042047,-0.0825718797992629,0.147058218751909,0.295100048800572,-0.144963141214248,333.728039991515,-0.144963141214248
0.16,0.00507102561588763,0.0245537369104668,-0.0861512704568438,-0.173205604196326,-0.144963141214248,333.728039991515,-0.144963141214248
0.17,-0.014470238925607,0.0243780855204738,0.0308050367290811,-0.172501882265814,-0.144963141214248,333.728039991515,-0.144963141214248
0.18,-0.00469960039234651,-0.0821620863947463,-0.0274974044964232,0.292989334598393,-0.144963141214248,331.896926628813,-0.144963141214248
0.19,0.00507103814091367,0.0247879415495829,-0.0861513456455981,-0.291337550169543,-0.144963141214248,333.728039991515,-0.144963141214248
0.2,0.0148416766741739,-0.0821621782408868,-0.14480528679477,0.292989836349493,-0.144963141214248,333.728039991515,-0.144963141214248
0.21,-0.0240067103959453,-0.0241823200371289,0.0301022373829143,-0.0557772798034009,-0.144963141214248,333.728039991515,-0.144963141214248
0.22,-0.033718824906618,0.00442719457134008,0.0884048289826316,-0.0529633956102802,-0.144963141214248,333.728039991515,-0.144963141214248
0.23,-0.0240652636423048,-0.0240067354448927,0.0887562537175278,-0.056480700676571,-0.144963141214248,331.896926628813,-0.144963141214248
0.24,-0.0241823200371289,-0.0241823200371289,0.0308050367290811,-0.0557772798034009,-0.144963141214248,333.728039991515,-0.144963141214248
0.25,-0.0142361261354136,0.0232078555610676,0.0297511384516502,-0.282897402837279,-0.144963141214248,333.728039991515,-0.144963141214248
0.26,0.0147831860518499,0.00460294198673544,-0.144454162811635,-0.170392522831679,-0.144963141214248,333.728039991515,-0.144963141214248
0.27,0.00483702555038905,0.025197455233074,-0.0847465489512907,-0.292743589087411,-0.144963141214248,333.773817825586,-0.144963141214248
0.28,-0.00458254399752238,-0.0433140374948653,-0.0282001035953385,0.0595415346167023,-0.144963141214248,333.728039991515,-0.144963141214248
0.29,0.00507107989027456,0.0245538454592407,-0.0861515962704215,-0.28993080877347,-0.144963141214248,333.728039991515,-0.144963141214248
0.3,-0.00464105132025594,0.0436856297191658,-0.027848879358281,-0.405249974446022,-0.144963141214248,333.728039991515,-0.144963141214248
0.31,-0.00464105132025594,-0.043197135574665,-0.027848879358281,0.0595419862127369,-0.144963141214248,333.728039991515,-0.144963141214248
0.32,0.00507109241530033,-0.11118217929698,-0.0861516714591742,0.409015232781568,-0.144963141214248,336.77989559602,-0.144963141214248
0.33,-0.00464105132025594,0.00512958303817967,-0.027848879358281,-0.173205604196326,-0.144963141214248,333.728039991515,-0.144963141214248
0.34,-0.0143532034060167,0.0242614758463272,0.0304539628695721,-0.288525321808479,-0.144963141214248,333.728039991515,-0.144963141214248
0.35,-0.0337775201020138,-0.0820459109156895,0.088756855221051,0.292290780864494,-0.144963141214248,333.728039991515,-0.144963141214248
0.36,-0.0337775326264892,0.00512958303817967,0.0887569053446832,-0.173205604196326,-0.144963141214248,333.700573291016,-0.144963141214248
0.37,0.0144909291592113,-0.04267113328639,-0.143050719488599,0.0567320157784062,-0.144963141214248,333.728039991515,-0.144963141214248
0.38,0.005071117464807,-0.062621736163772,-0.0861518218334087,0.175566027850262,-0.144963141214248,333.728039991515,-0.144963141214248
0.39,-0.00464105132025594,0.043978274879938,-0.027848879358281,-0.406657016892796,-0.144963141214248,333.728039991515,-0.144963141214248
0.4,-0.0340698688419075,0.0058895269394087,0.148814715874394,-0.176718443544245,-0.144963141214248,333.728039991515,-0.144963141214248
0.41,-0.0143532326303447,0.0247877578517447,0.0304541383055996,-0.291336446283729,-0.144963141214248,331.896926628813,-0.144963141214248
0.42,-0.0143532368051698,0.0245539540080073,0.0304541633674157,-0.289931461069898,-0.144963141214248,336.734117762018,-0.144963141214248
0.43,0.00512958303817967,-0.0238900965464198,-0.086502795445643,-0.0571821144785454,-0.144963141214248,333.728039991515,-0.144963141214248
0.44,0.014841776873298,-0.169865227563904,-0.144805888298296,0.761304420809861,-0.144963141214248,333.728039991515,-0.144963141214248
0.45,-0.0143532493301989,0.0245539790580655,0.0304542385561884,-0.289931611601903,-0.144963141214248,336.77989559602,-0.144963141214248
0.46,0.0148417852229472,-0.0824555331457339,-0.144805938421922,0.294400892938659,-0.144963141214248,331.92439332925,-0.144963141214248
0.47,-0.00464105132025594,-0.0439573007493611,-0.027848879358281,0.0630554778637127,-0.144963141214248,333.728039991515,-0.144963141214248
0.48,0.00507115921471663,-0.0237733532728876,-0.0861520724615263,-0.0578837791694231,-0.144963141214248,333.728039991515,-0.144963141214248
0.49,-0.0242407396857674,-0.0234812842534673,0.0311557346513849,-0.0585857449243238,-0.144963141214248,333.728039991515,-0.144963141214248
0.5,-0.0144116856786916,0.0246708517550509,0.0308050367290811,-0.290633928589255,-0.144963141214248,333.728039991515,-0.144963141214248
0.51,0.00483752654323298,-0.0233645618512782,-0.0847495564522524,-0.0599893753834653,-0.144963141214248,331.896926628813,-0.144963141214248
0.52,-0.0241239129135196,-0.0238902844190821,0.0308050367290811,-0.0571812112998523,-0.144963141214248,333.728039991515,-0.144963141214248
0.53,0.00518798598696448,-0.0242991259346986,-0.0868533931173613,-0.0550753642302851,-0.144963141214248,333.728039991515,-0.144963141214248
0.54,0.00507118426421944,0.0247876493029714,-0.0861522228357375,-0.291335793987261,-0.144963141214248,331.896926628813,-0.144963141214248
0.55,0.00507118843904401,0.0247876409533222,-0.0861522478975504,-0.291335743812151,-0.144963141214248,336.77989559602,-0.144963141214248
0.56,-0.0144116856786916,0.023853385814742,0.0308050367290811,-0.28642333830278,-0.144963141214248,333.728039991515,-0.144963141214248
0.57,-0.00458266507132481,-0.0816384012091199,-0.0281993767794137,0.29089397444738,-0.144963141214248,333.728039991515,-0.144963141214248
0.58,-0.0240071738148125,0.0635198608923714,0.0301040920104544,-0.406658923600428,-0.144963141214248,333.728039991515,-0.144963141214248
0.59,-0.00458267342097503,0.0438034751769557,-0.0281993266557814,-0.405957409434881,-0.144963141214248,333.700573291087,-0.144963141214248
0.6,0.00507120931372333,-0.111417544569573,-0.0861523732099554,0.410428196065023,-0.144963141214248,336.734117762,-0.144963141214248
0.61,-0.00464105132025594,0.0436867945302347,-0.027848879358281,-0.288529386112637,-0.144963141214248,333.728039991515,-0.144963141214248
0.62,0.0146083905253562,0.00565487140644599,-0.14375522309809,-0.175309996147614,-0.144963141214248,331.896926628813,-0.144963141214248
0.63,-0.0238321528405655,0.0632281383939482,0.0294036485414214,-0.405958011556226,-0.144963141214248,333.728039991515,-0.144963141214248
0.64,-0.00487447941866666,0.0438036212997034,-0.0267979134029748,-0.28923120132217,-0.144963141214248,333.728039991515,-0.144963141214248
0.65,-0.00452434562070636,0.00512958303817967,-0.0285494732048195,-0.173205604196326,-0.144963141214248,336.734117761965,-0.144963141214248
0.66,-0.00464105132025594,0.0442121204719221,-0.027848879358281,-0.408062252982184,-0.144963141214248,333.728039991515,-0.144963141214248
0.67,0.0147835283974681,0.00483786054031179,-0.144456217940343,-0.171803177993251,-0.144963141214248,333.728039991515,-0.144963141214248
0.68,-0.00452437067075793,-0.0434318871302551,-0.0285493228273139,0.0602487187366727,-0.144963141214248,333.728039991515,-0.144963141214248
0.69,-0.0045827151703315,0.0440954481720733,-0.0281990760309846,-0.290633928589255,-0.144963141214248,333.700573291148,-0.144963141214248
0.7,-0.00464105132025594,0.0436871327010218,-0.027848879358281,-0.405258002704053,-0.144963141214248,336.734117762102,-0.144963141214248
0.71,-0.00458272352053712,0.00524623863761732,-0.0281990259040182,-0.173906616590736,-0.144963141214248,336.77989559602,-0.144963141214248
0.72,-0.0337779835208818,-0.0431986761299519,0.0887587098485943,0.0588471957123296,-0.144963141214248,333.728039991515,-0.144963141214248
0.73,-0.00458273187018625,0.00524622193831905,-0.0281989757803925,-0.173205604196326,-0.144963141214248,336.77989559602,-0.144963141214248
0.74,-0.00481599714598136,0.00512958303817967,-0.0267986652774446,-0.173205604196326,-0.144963141214248,333.728039991515,-0.144963141214248
0.75,-0.00475767351998626,-0.0436069665542699,-0.0271487867679775,0.0609502329022334,-0.144963141214248,336.77989559602,-0.144963141214248
0.76,0.00495466226305791,-0.0625068674453438,-0.0858027529789653,0.175575561421534,-0.144963141214248,336.77989559602,-0.144963141214248
0.77,-0.004815959570904,0.0445036342230022,-0.027148887015229,-0.292035351263404,-0.144963141214248,333.728039991515,-0.144963141214248
0.78,-0.00464105132025594,-0.043198901575507,-0.027848879358281,0.058848399941829,-0.144963141214248,339.831751200523,-0.144963141214248
0.79,-0.0240074368370945,0.06322873958869,0.0301051446399488,-0.522688133454391,-0.144963141214248,336.77989559602,-0.144963141214248
0.8,-0.0337197934948169,-0.169576030909925,0.0884091898681833,0.759915943701471,-0.144963141214248,333.728039991515,-0.144963141214248
0.81,-0.0436070166532755,0.0241462773017898,0.147413077061924,-0.287831886069417,-0.144963141214248,336.77989559602,-0.144963141214248
0.82,-0.0143534038031538,0.0247874155061265,0.0304551658699535,-0.290633928589255,-0.144963141214248,336.77989559602,-0.144963141214248
0.83,-0.00452449591994031,-0.0434322002532111,-0.0285485709462421,0.0602502240433989,-0.144963141214248,336.77989559602,-0.144963141214248
0.84,0.00495476246218318,0.0241463900270614,-0.0858031539813206,-0.287832488197489,-0.144963141214248,336.77989559602,-0.144963141214248
0.85,-0.00458278196974835,-0.043315703300447,-0.0281986750286293,0.0595501148210335,-0.144963141214248,336.77989559602,-0.144963141214248
0.86,-0.0336616285171494,-0.219595007205843,0.0880598703823013,1.00107763973295,-0.144963141214248,336.77989559602,-0.144963141214248
0.87,-0.00464105132025594,0.00512958303817967,-0.027848879358281,-0.173205604196326,-0.144963141214248,336.77989559602,-0.144963141214248
0.88,-0.0434323046266077,0.111790965424273,0.146713986977503,-0.639418104813905,-0.144963141214248,336.77989559602,-0.144963141214248
0.89,-0.00464105132025594,0.0439791098693064,-0.027848879358281,-0.289233710157822,-0.144963141214248,336.77989559602,-0.144963141214248
0.9,0.00507133456235032,-0.0626241242367485,-0.0861531250876931,0.176279132820031,-0.144963141214248,336.77989559602,-0.144963141214248
0.91,0.0050130944361701,-0.023891098532105,-0.0858035048533689,-0.0571772975343938,-0.144963141214248,339.831751200523,-0.144963141214248
0.92,-0.0241823200371289,0.0632292280581699,0.0894589528164431,-0.522690742640263,-0.144963141214248,336.734117762018,-0.144963141214248
0.93,-0.0240076121847282,0.0635204453855923,0.0884101673089115,-0.407362344473582,-0.144963141214248,336.825673429993,-0.144963141214248
0.94,-0.0242405518131046,-0.0628572350390416,0.0898085229238075,0.176979793981982,-0.144963141214248,333.773817825461,-0.144963141214248
0.95,0.00507135543702856,0.0247873069573531,-0.0861532504000915,-0.291333736747636,-0.144963141214248,336.77989559602,-0.144963141214248
0.96,-0.0240658731844846,-0.0248227777266727,0.0304555167453689,-0.0522784898873075,-0.144963141214248,339.831751200523,-0.144963141214248
0.97,-0.0531449076067628,0.131216321682715,0.205019310398242,-0.756148979352126,-0.144963141214248,336.77989559602,-0.144963141214248
0.98,0.00501315288593781,0.0246708517550509,-0.0858038557320985,-0.17390526182269,-0.144963141214248,336.77989559602,-0.144963141214248
0.99,0.0146091628901335,0.044503174978404,-0.143758932353164,-0.408761860433437,-0.144963141214248,339.831751200523,-0.144963141214248
1,-0.00475746477319955,0.0443285339248657,-0.0274994596251344,-0.291333485865398,-0.144963141214248,336.77989559602,-0.144963141214248
1.01,-0.0241823200371289,-0.0241823200371289,0.0308050367290811,-0.0557772798034009,-0.144963141214248,339.863795684391,-0.144963141214248
1.02,-0.00458285294398868,-0.044130977387871,-0.0281982489644677,0.0637494153472732,-0.144963141214248,339.831751200523,-0.144963141214248
1.03,0.00512958303817967,0.0243798807478374,-0.086502795445643,-0.172506197452188,-0.144963141214248,339.831751200523,-0.144963141214248
1.04,0.00530415311803406,-0.0637885677104346,-0.0872014344107649,0.18187679525857,-0.144963141214248,339.831751200523,-0.144963141214248
1.05,-0.0241823200371289,-0.0241823200371289,0.0308050367290811,-0.0557772798034009,-0.144963141214248,336.77989559602,-0.144963141214248
1.06,-0.0241241383607153,-0.023891411655061,0.0308050367290811,-0.0571757922276676,-0.144963141214248,339.831751200523,-0.144963141214248
1.07,-0.0142953306755135,0.0243799642471058,0.0301065481415046,-0.289235516515208,-0.144963141214248,333.728039991515,-0.144963141214248
1.08,0.00489688973112183,0.0242636384676997,-0.0851059185177414,-0.288536461003515,-0.144963141214248,339.831751200523,-0.144963141214248
1.09,0.00518775219011957,-0.0242986583410087,-0.0868519896158055,-0.0550781741165975,-0.144963141214248,339.831751200523,-0.144963141214248
1.1,-0.00452472136713609,-0.0822826413987033,-0.0285472175683121,0.293711471355312,-0.144963141214248,336.77989559602,-0.144963141214248
1.11,0.00489693983123823,-0.0237751944249814,-0.0854553633160349,-0.057874295793126,-0.144963141214248,339.864605364342,-0.144963141214248
1.12,0.00507142641126888,0.0247871650088725,-0.0861536764642532,-0.291332883744053,-0.144963141214248,336.77989559602,-0.144963141214248
1.13,-0.0045247464160835,0.00460621096940367,-0.0285470671974349,-0.170409984277573,-0.144963141214248,339.784135977084,-0.144963141214248
1.14,-0.0142953891241749,0.0243801103687592,0.0301068990135926,-0.289236218980178,-0.144963141214248,339.831751200523,-0.144963141214248
1.15,-0.0143535415768099,0.0235079697174171,0.0304559929364639,-0.285043491606908,-0.144963141214248,336.77989559602,-0.144963141214248
1.16,-0.0240079002559641,-0.0244148797453488,0.0301069992674986,-0.0543797709080863,-0.144963141214248,341.968050123676,-0.144963141214248
1.17,-0.0336622756344126,0.0920188487239533,0.146367900558913,-0.520599647467278,-0.144963141214248,339.831751200523,-0.144963141214248
1.18,-0.00475731447506097,0.00547837250259474,-0.0274999107511353,-0.175301566488519,-0.144963141214248,341.968050123676,-0.144963141214248
1.19,-0.0049316883303852,0.00588523926451574,-0.0261041616481882,-0.176698623774588,-0.144963141214248,339.831751200523,-0.144963141214248
1.2,0.0145514780334076,-0.0427936171187796,-0.143412119131973,0.0574597221462743,-0.144963141214248,336.77989559602,-0.144963141214248
1.21,-0.0143535666263148,-0.111188124425022,0.0304561433106883,0.409744996375717,-0.144963141214248,339.831751200523,-0.144963141214248
1.22,-0.00487351083046454,0.00576884669125328,-0.0268022742885411,-0.175999417757615,-0.144963141214248,336.8305739861,-0.144963141214248
1.23,-0.00464105132025594,-0.0434330352431393,-0.027848879358281,0.0602542381724535,-0.144963141214248,336.77989559602,-0.144963141214248
1.24,0.0296505375788729,0.0242641060636176,-0.0603414282241349,-0.288538869488973,-0.144963141214248,339.831751200523,1417.22070566042
1.25,4.55836139877427,-0.0436073840489541,4.723118323718,-0.0571738855200354,-0.144963141214248,412.367844472278,1438.80495438239
1.26,4.58755709714453,-0.00464105132025594,4.84042615589272,-0.525490577375109,-0.144963141214248,319.13302213203,1438.80495438239
1.27,4.5972696375001,-0.0237756620170347,4.60615923458744,-0.645013509292211,-0.144963141214248,247.829471101779,1438.80495438239
1.28,4.60669173706895,-0.0241823200371289,5.13578804420374,-0.289935776262943,46.8536131681467,255.71592827244,1438.80495438239
1.29,4.58749901149186,-0.0632648574708714,5.5449705347755,-0.289935826438053,93.8521894775067,456.404761820191,1438.80495438239
1.3,4.63646835041456,-0.131310809112852,5.66123231326037,0.0609529926134357,150.921889281731,329.160138133051,1438.80495438239
1.31,4.54783570937757,0.00443265540193678,6.31026048601272,-0.640126894564109,184.797486491724,184.937214539197,1438.80495438239
1.32,4.56789968217238,-0.101766663628211,6.65939479005783,-0.410854059458973,252.853866472162,127.625031061219,1438.80495438239
1.33,4.57796066964454,-0.0244726648012075,6.95092135703783,-0.524094774486935,265.976845571528,250.576069671922,1438.80495438239
1.34,4.54870681882275,0.0931233570420913,7.2445395802649,-1.23145622627063,299.852442781522,346.763398911256,1438.80495438239
1.35,4.4808349070429,-0.160564776833062,8.00390365663713,0.061651044589528,331.896926630396,412.628714180484,1438.80495438239
1.36,4.56813194128434,0.0731756849771968,7.89008127495434,-1.4635216706811,383.77847190538,409.719244543663,1438.80495438239
1.37,4.5871507313738,0.0245547472491268,7.95152315543524,-2.17018481961307,307.78726735313,433.634204605583,1438.80495438239
1.38,4.64583261482632,0.034499534191624,8.00947996138143,-2.28621779270716,367.90882276196,496.648760792157,1438.80495438239
1.39,4.55824519406923,-0.0643096477305037,8.77058697603837,-1.92974726738298,433.828903818429,535.622034779856,1438.80495438239
1.4,4.53951648155119,-0.0148760035065982,9.2356372729081,-2.16669691802953,469.840799952391,574.649528026575,1438.80495438239
1.41,4.5778444983392,0.0538666837241454,9.35677769461956,-2.40434376766196,530.877912042117,608.70022995732,1438.80495438239
1.42,4.55836125682579,-0.149865844996314,9.82566065621481,-1.35446334667282,569.94166378012,650.763455981704,1438.80495438239
1.43,4.60692428425103,-0.0236020480025583,9.88570796553129,-2.17297411727416,621.823209056577,684.944579111641,1438.80495438239
1.44,4.50060777940536,0.073059839318169,10.759595242996,-2.87266236622467,663.938816398841,734.643635285648,1438.80495438239
1.45,4.55830321292303,0.0830625824904461,10.7648199726344,-2.87266246657496,702.697382576245,773.805618160982,1438.80495438239
1.46,4.57772844810767,-0.0145277150355475,10.9411299626844,-2.52177209205488,754.884113413058,809.700168570214,1438.80495438239
