t,iq,id,vq,vd,ia,ib,va,vb,theta_e,omega,r
0,0,0,0,0,0,0,0,0,0,0,0
0.01,0.00056003465290257,0.000317844224587328,-0.0276511579946811,-0.0159055903444406,0.000534877283459668,-0.000358566667711917,-0.0263932642376818,0.0179156341091206,-1.6451469307664,-0.0015279222426119,0
0.02,0.000642782002231598,0.000363900790219209,-0.0317760960693853,-0.018210356719503,0.000613970015862038,-0.000410649859536558,-0.0303353619769347,0.0205207988877309,-1.64515868955315,-0.00168104965881657,0
0.03,0.000674556669885564,0.00038187669935098,-0.0333546803597814,-0.0191099128884729,0.000644316131853135,-0.00043094458649357,-0.0318424903581893,0.0215355352916251,-1.64517084791198,-0.00168739895570527,0
0.04,0.000659159413545791,0.000373461420734077,-0.0326117303219792,-0.0186887908246732,0.000629581931897765,-0.000421415657362923,-0.0311326454652445,0.0210607275139601,-1.645182273648,-0.00156547954015432,0
0.05,0.000675160230290568,0.000382813158073412,-0.0334129988643637,-0.0191567646285859,0.000644838702909726,-0.000431937840192144,-0.0318966796762979,0.0215873099244128,-1.64519338932152,-0.00153441115311954,0
0.06,0.000676298022706446,0.000383731064311378,-0.0334825432049552,-0.0192027039120121,0.000645900493421868,-0.0004329446821842,-0.0319623857399933,0.0216386329238233,-1.64520407901762,-0.00146426701767515,0
0.07,0.000690594522566792,0.000392250817902234,-0.0341985877423443,-0.0196290500482676,0.00065951964144526,-0.000442510272527252,-0.0326445327456005,0.0221173572379169,-1.64521411908522,-0.00143576424022851,0
0.08,0.000676935521312467,0.000384655884748653,-0.0335390532020471,-0.019248980257746,0.000646458876799498,-0.000433927148601562,-0.0320148693185382,0.0216896167132977,-1.64522390050196,-0.00133004103652051,0
0.09,0.000675078314473353,0.000383907409205248,-0.03345934978033,-0.0192115331013777,0.000644658488828524,-0.00043304856805697,-0.0319379722075242,0.0216466399956023,-1.64523308781201,-0.0012617441106731,0
0.1,0.000674464555603221,0.000383832332685901,-0.0334402183841191,-0.0192077780982184,0.000644048239401327,-0.000432933668942716,-0.0319189844123279,0.0216417508333671,-1.64524180382929,-0.00120019515917814,0
0.11,0.00067400062497281,0.000383823555404309,-0.03342790101389,-0.019207337647527,0.000643582663106004,-0.000432895737905014,-0.0319065547780792,0.0216406595993276,-1.64525008180537,-0.00114207560680409,0
0.12,0.000673572375819913,0.000383821367860487,-0.0334168114741956,-0.0192072231822063,0.000643152359531382,-0.000432866758163749,-0.0318953343236228,0.0216399713460379,-1.64525794469553,-0.00108690515268206,0
0.13,0.000703171048153185,0.000400883956337796,-0.0348827285569894,-0.0200610634566148,0.000671396179692837,-0.00045208919396924,-0.0332934947839174,0.0226007571480292,-1.64526568761516,-0.00111740697882655,0
0.14,0.000724534271365613,0.00041348893345871,-0.0359842335408633,-0.020691850704605,0.000691758915471211,-0.000466253805713386,-0.0343448429300606,0.0233120036293434,-1.64527311005634,-0.00112683700578179,0
0.15,0.000677720947236061,0.000386735082188978,-0.0336491730717248,-0.0193530353537117,0.000647062958438011,-0.000436095441314981,-0.032115718830202,0.0218033811559655,-1.64528022786847,-0.000945707033672989,0
0.16,0.000672569906482315,0.000384102871355194,-0.0334038800257624,-0.0192213111894259,0.000642119306600241,-0.000433091319446789,-0.0318807696992448,0.021653972568561,-1.64528662189154,-0.000887271421531033,0
0.17,0.000671745185622675,0.000383842986142588,-0.0333709634594915,-0.0192082988448563,0.00064131360180941,-0.000432774648694147,-0.0318487822113022,0.0216387388353634,-1.64529265741206,-0.000843521406096625,0
0.18,0.000671382692893321,0.000383816461039399,-0.0333603964764342,-0.0192069785148358,0.000640951609589188,-0.000432724889793186,-0.0318382188477489,0.0216368180964091,-1.64529838644574,-0.000803181035210093,0
0.19,0.000671082017694647,0.000383812934280977,-0.0333525051111645,-0.0192068061398055,0.000640649676457544,-0.000432702478672513,-0.0318302444718606,0.0216362320227879,-1.64530382787913,-0.000764988782747698,0
0.2,0.000670800783953738,0.000383811715174608,-0.0333452232739764,-0.0192067458014211,0.000640367077353616,-0.000432683638123528,-0.0318228755022459,0.0216357942826304,-1.64530899649385,-0.000728724114570887,0
0.21,0.000670534218552784,0.000383810766586087,-0.0333383337988661,-0.0192066971075086,0.000640099198060521,-0.000432665990620791,-0.0318159025501306,0.0216353890463007,-1.64531390600372,-0.000694278724675193,0
0.22,0.000670281099120065,0.000383809886001818,-0.0333317930119709,-0.0192066484173713,0.000639844829021755,-0.000432649251940243,-0.0318092826475322,0.0216350018782248,-1.64531856940197,-0.000661560205236539,0
0.23,0.000670040727165172,0.000383809051444504,-0.0333255822567929,-0.019206601185534,0.0006396032699572,-0.000432633356424144,-0.03180299681387,0.0216346332418971,-1.64532299902626,-0.000630481864050322,0
0.24,0.000669812279218562,0.000383808258792687,-0.0333196757381656,-0.0192065699250511,0.000639373694896212,-0.000432618246476272,-0.0317970179907905,0.0216342960707236,-1.64532720659523,-0.000600961466839583,0
0.25,0.000669595239972888,0.000383807505778538,-0.0333140623267377,-0.0192065386554612,0.00063915558529347,-0.00043260388888041,-0.0317913360282987,0.0216339739615561,-1.64533120324098,-0.000572920913287119,0
0.26,0.000675689807908022,0.000387402265506773,-0.0336186246690264,-0.0193864146323751,0.000644963910682635,-0.000436644919525605,-0.0320815764141296,0.0218361501121329,-1.64533494633134,-0.000564455060701161,0
0.27,0.000658481167393267,0.000377588611729878,-0.0327768116523195,-0.0188953231147524,0.000628532273042873,-0.000425579357186478,-0.0312785922684237,0.0212838502956638,-1.64533870515997,-0.000490032032567004,0
0.28,0.000657908983411845,0.000377347267656016,-0.0327137416762678,-0.0188832469515351,0.000627978194665664,-0.000425298222293395,-0.0312165239293947,0.0212672175815214,-1.64534213112706,-0.000464904065988977,0
0.29,0.000667682692512413,0.000383169711478732,-0.0332378182865097,-0.019174612066949,0.000637289757901814,-0.000431834424460079,-0.0317173768476544,0.0215969052937892,-1.64534529192799,-0.000470830776863446,0
0.3,0.000661251365363482,0.000379715943323122,-0.0329247416466071,-0.0190017868127865,0.000631132412560652,-0.000427912892566009,-0.0314179858955327,0.0214013241843237,-1.64534790354477,-0.00043473524325669,0
0.31,0.000667761660842416,0.000383401730034254,-0.0332486843612867,-0.0191862265902331,0.000637348844606054,-0.0004320751931824,-0.0317272285833552,0.0216094717415251,-1.64535080387482,-0.000433227824031526,0
0.32,0.000668299247411162,0.000383763738446551,-0.0332786834374329,-0.0192043378675377,0.000637856759221166,-0.00043247802921382,-0.0317557345700939,0.0216298563604374,-1.64535361151685,-0.000415478951959771,0
0.33,0.000668225509033071,0.000383798888773383,-0.0332784364807385,-0.0192061061519802,0.000637779451596644,-0.00043250929361954,-0.0317552987757713,0.0216316861983799,-1.64535628386686,-0.000396931420633658,0
0.34,0.000668095141203121,0.000383801916370332,-0.0332752342084476,-0.0192062493839192,0.000637648122335315,-0.000432504220547042,-0.0317520398092598,0.0216316711091751,-1.64535882281729,-0.000379138961105069,0
0.35,0.000667964881037963,0.000383801806292772,-0.0332718753834099,-0.019206251405957,0.000637517189234825,-0.000432495944771488,-0.0317486379967766,0.0216314994844928,-1.64536123454971,-0.000362220351370255,0
0.36,0.000667840741214804,0.00038380140804622,-0.03326866418439,-0.0192062214870321,0.000637392433265252,-0.000432487759897088,-0.0317453883957114,0.0216313031514071,-1.64536352538913,-0.000346147992961947,0
0.37,0.000667722530011385,0.000383801000849331,-0.0332655984909329,-0.0192062045696585,0.000637273639812566,-0.00043247993402908,-0.0317422854123723,0.0216311269639616,-1.64536570139035,-0.000330881140741437,0
0.38,0.000667610314198737,0.000383800611193669,-0.0332626891536534,-0.0192061890937315,0.000637160870993542,-0.000432472502307281,-0.0317393406037407,0.0216309603872893,-1.64536776830974,-0.000316379588597829,0
0.39,0.000667503686321381,0.000383800240763835,-0.0332599229806027,-0.0192061736050357,0.000637053717989466,-0.000432465439612009,-0.0317365408044578,0.0216308011638352,-1.64536973161565,-0.000302604990355037,0
0.4,0.000667402471756332,0.000383799888850538,-0.0332572980905315,-0.0192061581036127,0.00063695200446476,-0.000432458735599677,-0.0317338840260461,0.0216306493200019,-1.64537159650171,-0.000289520906017116,0
0.41,0.000667306263049966,0.00038379955455274,-0.0332548005838847,-0.0192061425904442,0.000636855322027418,-0.000432452362215708,-0.0317313563006831,0.0216305039792768,-1.64537336790194,-0.000277092720639883,0
0.42,0.000667214943785023,0.000383799236992083,-0.0332524307933143,-0.0192061256103743,0.000636763552618815,-0.000432446312947656,-0.0317289579670629,0.0216303638654089,-1.6453750505026,-0.000265287554339476,0
0.43,0.000667128164719398,0.000383798935331941,-0.0332501771018544,-0.0192061100746266,0.000636676346101449,-0.000432440563822025,-0.0317266771272278,0.0216302311584504,-1.64537664875524,-0.000254074175466572,0
0.44,0.000667045809435847,0.000383798648776822,-0.0332480392711965,-0.0192060945281288,0.000636593584609284,-0.000432435108106571,-0.0317245135604084,0.0216301045248955,-1.64537816688835,-0.000243422917996127,0
0.45,0.000666967528688403,0.000383798376571417,-0.0332460051135223,-0.0192060789716924,0.000636514918184001,-0.000432429921620586,-0.0317224550256715,0.0216299831858345,-1.645379608918,-0.000233305603047949,0
0.46,0.000666893206061746,0.000383798117997943,-0.0332440738198856,-0.0192060634054007,0.000636440229135026,-0.000432424997437281,-0.031720500633728,0.021629867203012,-1.6453809786595,-0.000223695464334819,0
0.47,0.000666822608723225,0.000383797872374254,-0.0332422385093688,-0.01920604637457,0.000636369283758725,-0.000432420319864665,-0.0317186435527605,0.0216297547288179,-1.6453822797362,-0.000214567077351687,0
0.48,0.000666755437082691,0.000383797639052328,-0.0332404887347227,-0.0192060466864702,0.000636301781855442,-0.000432415868151322,-0.0317168718885767,0.0216296638496697,-1.64538351559076,-0.000205896292111433,0
0.49,0.000666691708249989,0.000383797417416747,-0.0332388296553208,-0.0192060310919134,0.000636237739117843,-0.000432411645064364,-0.0317151931930934,0.0216295618976377,-1.64538468949229,-0.00019766016925504,0
0.5,0.000666631239046143,0.000383797206882412,-0.0332372561822308,-0.0192060154890297,0.000636176971575054,-0.000432407638369779,-0.0317136011396239,0.0216294644465584,-1.6453858045469,-0.000189836919362021,0
0.51,4.72673895952974,-0.0145677077019796,3.66394463096932,0.734492877686368,-0.429287152240345,4.70722699161251,0.410145061856516,3.71426319401515,0.0878639179225345,27.2455916632392,2791.0113283947
0.52,4.69136436084709,0.0275095119170713,5.43366710453719,-1.36494589764811,-1.80564499197149,4.3300464780924,-3.37738021263272,4.47002443010695,0.400941975410412,58.1968092565688,2791.0113283947
0.53,4.66481848159896,0.00388273856990229,6.76202929873646,-0.175534522955867,-3.77182800721452,2.74478779251114,-5.57404240232916,3.8322191877235,0.942548033598907,89.7680590664701,2791.0113283947
0.54,4.6933020985288,-0.00498778963639857,5.33897110753633,0.275344000664468,-4.63884148127786,-0.712922981587883,-5.31941022957751,-0.533199414174219,1.72222603125311,123.486110093189,2791.0113283947
0.55,4.64688741004305,-0.00769847704791804,7.66085354531734,0.412974693048596,-1.74285615704385,-4.30767620463978,-3.26759900456442,-6.94132709827663,2.75547627809127,157.779549718183,2791.0113283947
0.56,4.66258595024232,0.0284939739247374,6.87706293975448,-1.38856067874003,3.59230733728795,-2.97251537328476,6.20372563889396,-3.27656582922078,-2.25595131544262,188.952582307653,2791.0113283947
0.57,4.66670876023917,0.0123340055917395,6.67214601507043,-0.574320695824977,3.20199130470324,3.39493364665524,4.14628616489216,5.25886753464061,-0.753516212372813,221.794907707657,2791.0113283947
0.58,4.69948524784872,0.0635794983577822,5.03458566050868,-3.13365769799412,-3.90926915810691,2.60898804076087,-5.92918068041089,0.108073124502292,0.995824711125557,254.563913570089,2791.0113283947
0.59,4.65565307976026,0.0172615520977235,7.22749353657482,-0.809798434967448,-0.77892427501866,-4.59006323856749,-0.38389474279403,-7.26257951095626,2.97720372426633,286.913421872999,2791.0113283947
0.6,4.6492962475911,0.021348548146316,7.54673675406994,-1.00575156152419,4.11414655821548,2.16568914110414,6.18923383403063,4.43375195364253,-1.08166025273154,319.085771758302,2791.0113283947
0.61,4.59298102051502,0.0180949114293361,10.363948320264,-0.845367436379215,-4.50399076671152,0.899927360406472,-10.3333552179171,1.1609654723284,1.37752634330413,352.246779180092,2791.0113283947
0.62,4.62436296735296,0.0499762937334547,8.79630570151587,-2.42869754120956,3.68421517065019,-2.79531555644649,8.51163561253802,-3.29023174572437,-2.20905295650508,384.14404576512,2791.0113283947
0.63,4.59314333033697,0.0406241151689164,10.3587645766442,-1.94871527898134,-3.02048088193507,3.46053626098861,-8.33721937542462,6.44920676354218,0.726447380010824,416.12858050473,2791.0113283947
0.64,4.65329917359935,0.0346914395442461,7.35250110822366,-1.64735872534561,3.17147445401702,-3.40531151034901,6.24806886565361,-4.21125857273719,-2.38427933578675,448.627500798141,2791.0113283947
0.65,4.62584328385187,0.0144939221045071,8.72693549605338,-0.633498540798782,-3.94563814902441,2.4146585177823,-7.78687264495526,3.99065633257464,1.0247465099488,481.050205609988,2791.0113283947
0.66,4.60350013285056,0.0765910505053387,9.84573553237891,-3.73626903237795,4.5961876653467,-0.270441504003165,9.99438339048718,3.31820962264428,-1.61293292430259,513.354824584667,2791.0113283947
0.67,4.62839113206724,0.0444611631069883,8.60291005818051,-2.12000064419247,-3.57445451600363,-2.94062173348507,-5.22828486831016,-7.15328606560083,2.26881849208226,545.495665060662,2791.0113283947
0.68,4.63126335112302,0.0586315738185577,8.46102322297733,-2.81914413848352,-0.419796794953896,4.61257070838487,-3.67756684009249,8.12477629168704,0.103420692517623,577.594141399464,2791.0113283947
0.69,4.55211396968342,0.0408774660905005,12.4202339996569,-1.92362188915191,4.39434801189203,-1.18874644504261,12.5035568003382,-1.27420607413961,-1.82601045316941,609.848663003688,2791.0113283947
0.7,4.59065634213902,0.0138936548512203,10.4949222995667,-0.590137372138442,-1.70544967226521,-4.26213093424367,-3.32082263549742,-9.97315362438105,2.76399196929723,642.457642093948,2791.0113283947
0.71,4.559835754584,0.0392146314516679,12.0378481377875,-1.84374055713782,-4.39147370942991,1.22825020068731,-12.1017320263515,1.36280922833967,1.30667513570067,674.407916997687,2791.0113283947
0.72,4.62919143415479,0.0600831218665736,8.57195586138024,-2.86484040003145,-0.327943417225428,4.61795154053005,-3.572893875738,8.30181709987743,0.0838743460463908,706.16805749491,2791.0113283947
0.73,4.57454571991531,0.0509863900923768,11.3061999590167,-2.43052218016843,3.62479617561749,2.79104296649102,7.37666201934538,8.90631534552349,-0.903481072460775,738.697796978718,2791.0113283947
0.74,4.53962426906234,0.0569828893920522,13.0542457715151,-2.70246434311685,4.51834208464744,-0.442741866155727,13.23674531941,1.58278853231144,-1.65592051369399,770.287438913495,2791.0113283947
0.75,4.58069744605828,0.0802594572703983,11.0026481672227,-3.88350875424243,3.7273299513779,-2.663877269389,11.2646099789614,-3.04112955295402,-2.17379257462859,802.679046481094,2791.0113283947
0.76,4.52207811984234,0.053416788383611,13.9356508463695,-2.50963847187359,2.81681908402216,-3.53801838931437,10.7529041447341,-9.21280099782837,-2.45738733847923,834.331149914345,2791.0113283947
0.77,4.572117393169,0.0912522629709516,11.4357666778557,-4.40576048256316,2.64048380054674,-3.73368848880917,10.3336951070834,-6.58803691352062,-2.50609158000389,866.348207367112,2791.0113283947
0.78,4.57578554857757,0.0982502022752927,11.254512054149,-4.76639380322521,3.28045692495011,-3.19156213355863,11.4829425617172,-4.18623716345756,-2.32099163673805,898.502568676732,2791.0113283947
0.79,4.49168320898385,0.108391276982293,15.4617896883487,-5.27907526989167,4.21236052203312,-1.56300529468397,16.3381250332145,-0.0353053955992184,-1.90197448894533,930.430437208159,2791.0113283947
0.8,4.54077559148092,0.0966638659749319,13.0093748798341,-4.67774946106988,4.33846555721038,1.34376466841234,10.8634318423205,8.55049842943999,-1.24914978727496,962.172564602943,2791.0113283947
0.81,4.50045401089431,0.129190029533966,15.0276959830573,-6.27582176888002,1.71733336471299,4.16191572263894,-0.536536975055361,16.2766616205026,-0.362648979132175,993.93161334246,2791.0113283947
0.82,4.50348165231652,0.111869937025628,14.8785881844459,-5.40336705353879,-3.01229336435542,3.34961946534557,-14.1473351772332,7.10082173136472,0.757260680442485,1025.76356979339,2791.0113283947
0.83,4.48263236217464,0.131007615922758,15.9233462336316,-6.3849412885886,-3.91299575807849,-2.1908035254456,-10.3801460784448,-13.6591726661969,2.11040969116446,1057.66491119914,2791.0113283947
0.84,4.46989566024559,0.0852787519509044,16.5625711579545,-4.10055073389096,2.28254610785792,-3.84411536566208,12.2114890439572,-11.9169129816758,-2.5866855290367,1089.52617139026,2791.0113283947
0.85,4.53294407487014,0.128611440513762,13.4125839318631,-6.2533023632326,3.2410593422586,3.17169626989874,4.81757529682455,13.9925754039315,-0.767849166582243,1121.21872889476,2791.0113283947
0.86,4.4885271840515,0.0840567421001888,15.6358419440465,-4.00003528393305,-4.28068994894472,1.35264015128393,-16.1284131113336,0.595084936857738,1.28346315536418,1152.76258751786,2791.0113283947
0.87,4.46152675352049,0.151924018774016,16.9883621509417,-7.37859503670399,3.98877758486008,2.00448378850448,11.3754557969261,14.6166726274964,-1.07108721629396,1184.40570134087,2791.0113283947
0.88,4.4825576072813,0.13873254145275,15.939336441884,-6.75193436521658,-4.42956049993318,0.701115680957945,-16.6616561336439,-4.69470752698953,1.44475705335387,1216.29541706645,2791.0113283947
0.89,4.46441576887068,0.118415881052193,16.8489858903442,-5.69519525098783,3.81572057265222,-2.32062642182347,17.4520769250076,-3.42762096555436,-2.09068712398767,1247.66680794044,2791.0113283947
0.9,4.44382844583551,0.141494936757764,17.8809110417948,-6.88639269556659,-3.3608586336838,2.91071491519489,-18.2225093827231,5.9236421092686,0.88888055197263,1279.56158175324,2791.0113283947
0.91,4.45440005099035,0.102895116297443,17.3549161497213,-4.90468132359282,3.5865472717826,-2.64366145459087,17.0221725738879,-5.95773902706702,-2.18289779111755,1310.90794613717,2791.0113283947
0.92,4.48783027790931,0.101659963180013,15.6860466055387,-4.86674908608396,-4.24190587684469,1.46873751345289,-16.4228870266995,0.161513114936888,1.26011936780627,1342.66309544942,2791.0113283947
0.93,4.43544345809323,0.101269272087369,18.308066234097,-4.86366365083101,4.34894093175769,0.877568748015634,16.7883818709972,8.77443716109872,-1.34885324063472,1374.25500710734,2791.0113283947
0.94,4.43075951676866,0.175356943759863,18.5449753948633,-8.51450330786911,-2.59285631646241,-3.59714832545752,-3.14185971692083,-20.1628766919552,2.55659364195857,1405.57510146733,2791.0113283947
0.95,4.47487880462235,0.154713586186388,16.3417765262763,-7.48240716306885,-1.64113138629559,4.16595299814155,-13.3742212803918,12.007092992553,0.409830526428431,1437.06894778685,2791.0113283947
0.96,4.4123580442357,0.101803668570632,19.4705906835891,-4.8449807408238,4.40970903120988,0.18366751899001,19.1166312263032,6.09361555271981,-1.50610137272136,1468.61028762877,2791.0113283947
0.97,4.48052240961331,0.128659870881709,16.0651981157454,-6.18655214667238,-0.352132318970252,-4.46851622525408,5.37699161963669,-16.3539591256675,3.09165968910733,1500.08924808643,2791.0113283947
0.98,4.41741807012897,0.146621793061141,19.2232503280188,-7.08446337978213,-4.41746527932932,-0.145192501260736,-18.7138655994671,-8.3375181485998,1.63683188885123,1531.52384379354,2791.0113283947
