t,iq,id,vq,vd,ia,ib,va,vb,theta_e,omega,r
0,0,0,0,0,0,0,0,0,0,0,0
0.01,0.00110716413484991,0.000618341755126752,-0.0536970141537012,-0.0309536988181211,-0.00126343724061797,0.000109019661762656,0.0616723022239938,-0.00616667965262556,1.99406059268483,-0.00372154687464834,0
0.02,0.00122851587760099,0.000686949823991728,-0.0599170835880765,-0.0343881654790693,-0.00140225677985029,0.000121767177695306,0.0687539566126118,-0.00674509309257407,1.99403365420251,-0.0037287883362558,0
0.03,0.00127410526913059,0.000714073682866128,-0.0622600010679208,-0.035745942318726,-0.00145496042204772,0.00012781092153272,0.0714476225249139,-0.00702263203995504,1.99400795110476,-0.00347767821892826,0
0.04,0.00124189859315481,0.0006986916508418,-0.0608578567220623,-0.0349759390822135,-0.00141927512912052,0.000127044269826922,0.0698527974139655,-0.0068979513574155,1.99398589170717,-0.00299997253445382,0
0.05,0.00126747407692277,0.000714579773828584,-0.0622091539511745,-0.0357712973864186,-0.00144911656678142,0.000131057104789351,0.0714113751597339,-0.00706965698066522,1.99396559957662,-0.00276343929919677,0
0.06,0.00126562371601098,0.0007152767662287,-0.0622347614910842,-0.0358061915811515,-0.00144771323981325,0.000132478745863094,0.0714489245866276,-0.0070922541418552,1.99394745089332,-0.0024610138209138,0
0.07,0.00129642650299602,0.000734293806650321,-0.0638076618940637,-0.0367581622068346,-0.00148360611649742,0.000137193160350468,0.0732738920791045,-0.00731552764951732,1.99393167189873,-0.00231720803255058,0
0.08,0.00126185898371783,0.000716139174050192,-0.0622446739976137,-0.0358493574145079,-0.00144463061738619,0.000134854702213454,0.0714754726954608,-0.00712970343441947,1.99391721488949,-0.00195465968767076,0
0.09,0.00125797423167181,0.000715332354486823,-0.0621375150994258,-0.0358089691410188,-0.00144075546860249,0.000135732179743652,0.0713610908412193,-0.00713777049400235,1.99390469748711,-0.00173648409335729,0
0.1,0.00125587696153344,0.000715293210747151,-0.0621065934179784,-0.0358070163747288,-0.00143882556172374,0.000136573506881071,0.0713320151882097,-0.00714947388520305,1.99389365593588,-0.00154891894803495,0
0.11,0.00125409180244643,0.000715288420405475,-0.0620824798021437,-0.0358067571194431,-0.00143719450949168,0.000137316114190781,0.0713098516201354,-0.00715983349727061,1.99388390583788,-0.00138353683228381,0
0.12,0.00125251852705862,0.000715285505156843,-0.0620613316978922,-0.0358066062228401,-0.00143575757187143,0.000137971770034433,0.0712904445586133,-0.00716899267321551,1.9938752956204,-0.0012375017325587,0
0.13,0.00131190365841254,0.000749237807163135,-0.0649552977643977,-0.0375062533479306,-0.0015038452453703,0.000144561331676158,0.0746270079071913,-0.00753123088749327,1.99386691025455,-0.00131919092540996,0
0.14,0.00136885083959933,0.000783295903732924,-0.0679865506264578,-0.0392111783394064,-0.00156975338351537,0.000152247853247984,0.0780909228805258,-0.0078418962321883,1.99385951924808,-0.00140811580882362,0
0.15,0.00125438009839143,0.000718286126181676,-0.0622916155224456,-0.0359568305715175,-0.00143868382697464,0.000139975841869868,0.0715619396137082,-0.00721303180839932,1.99385282837122,-0.000878373853825731,0
0.16,0.00124779451820324,0.000715409437940447,-0.0620080858937166,-0.0358128202271507,-0.0014314971161045,0.000140063664584477,0.071244246900291,-0.00719847848056289,1.99384780469047,-0.000772336258635996,0
0.17,0.00124670833982471,0.000715280831645719,-0.0619837036594515,-0.0358063967358042,-0.00143045327947904,0.000140398603753559,0.0712193454271936,-0.00720294408326149,1.99384341260196,-0.000696801194746331,0
0.18,0.00124598607555645,0.000715273923372726,-0.0619734890429304,-0.0358060247843225,-0.00142979130691755,0.000140694365916245,0.0712098506702744,-0.00720707447768843,1.99383953619396,-0.000631002836274788,0
0.19,0.00124535963694073,0.000715272539722168,-0.0619650062530887,-0.0358059826490257,-0.00142921904220292,0.000140955173038522,0.0712020737098366,-0.00721076229164764,1.99383611307391,-0.000572942081045528,0
0.2,0.00124480746356289,0.000715271526215167,-0.0619575598752617,-0.0358059222632105,-0.00142871470268251,0.000141185253815249,0.071195237168351,-0.00721397943980698,1.9938330901445,-0.000521671271315502,0
0.21,0.00124431990069126,0.000715270640232064,-0.0619509813211639,-0.0358058646236408,-0.00142826937904465,0.000141388418612384,0.0711891956089783,-0.00721681762609488,1.99383042061508,-0.000476394462629718,0
0.22,0.00124388903982936,0.000715269858086826,-0.0619451514550614,-0.0358058335828647,-0.00142787584479295,0.000141567952418567,0.0711838498976667,-0.00721935046252484,1.99382806317104,-0.00043641080981775,0
0.23,0.00124350870322066,0.000715269167282517,-0.061940005349012,-0.035805805301062,-0.00142752845677489,0.00014172643277968,0.0711791307839654,-0.00722158547220326,1.99382598132725,-0.000401101503517658,0
0.24,0.00124317283726055,0.00071526855714918,-0.0619354556618124,-0.0358057739747521,-0.00142722168631941,0.000141866381670514,0.071174956014175,-0.00722355551979938,1.99382414286486,-0.000369920082288141,0
0.25,0.00124287620326751,0.000715268018274295,-0.0619314307038659,-0.0358057454394601,-0.00142695074882896,0.000141989982150742,0.0711712624109094,-0.00722529738769543,1.99382251933037,-0.000342383969803907,0
0.26,0.00125569798529849,0.000722526316284004,-0.0625533009603601,-0.0361690821322673,-0.00144162179775633,0.000143346783149889,0.0718874631128565,-0.00730141154337862,1.99382117588454,-0.000367628214867983,0
0.27,0.00121452351230053,0.000699258124366214,-0.060593386145452,-0.0350042941153709,-0.0013945245040306,0.000139034866422695,0.069622131377367,-0.00704399556785024,1.99381956340969,-0.000190019692457562,0
0.28,0.00121107012992102,0.000697048310225362,-0.0601908462063808,-0.0348936897071475,-0.00139046820281354,0.000138439096137726,0.0692096612588467,-0.00710846937494827,1.99381843151229,-0.000158889320246625,0
0.29,0.00124044467279329,0.000714460696860984,-0.0618451106511292,-0.0357653213732815,-0.00142440144985036,0.00014225886012661,0.0710759217605999,-0.00722421416249518,1.99381771838795,-0.000255243355415065,0
0.3,0.00123271371562719,0.000710470030669196,-0.0614732873076703,-0.0355655491375434,-0.00141571376102777,0.000141793215673681,0.070654865858185,-0.00719466944537986,1.9938180268996,-0.000231851716860701,0
0.31,0.00124143529260944,0.000715054118751419,-0.0618957848281206,-0.035795036970939,-0.00142554828423347,0.000142394058157863,0.071134324108139,-0.0072305452711489,1.99381719136635,-0.000250299764870876,0
0.32,0.00124173204179729,0.000715256599602129,-0.0619150146596093,-0.0358051571673116,-0.00142590188268697,0.000142458021361462,0.0711560075615002,-0.00723193666891803,1.99381638416241,-0.00023824162083477,0
0.33,0.00124162331052229,0.000715265328529623,-0.0619142717800957,-0.035805605803,-0.00142580621699721,0.000142511638124821,0.0711555091557376,-0.00723270169211535,1.99381566785524,-0.000226174318416536,0
0.34,0.00124150875787478,0.00071526551495652,-0.0619127246621228,-0.0358056266604116,-0.00142570174807995,0.000142559735856846,0.0711541023960682,-0.00723340084900941,1.99381503511517,-0.000215446751669038,0
0.35,0.00124140700312861,0.000715265346909918,-0.0619113252423823,-0.0358055975046064,-0.00142560881395241,0.000142602151064179,0.0711528103186888,-0.00723398850445671,1.99381447633795,-0.000205969752613321,0
0.36,0.0012413166648391,0.000715265183789509,-0.0619100600503335,-0.0358055979069306,-0.0014255263012635,0.000142639790923533,0.0711516532433933,-0.00723454336089072,1.99381398288521,-0.000197600497856802,0
0.37,0.00124123703675918,0.000715265039083654,-0.0619089447017039,-0.0358055982710085,-0.00142545357048057,0.000142672968575876,0.0711506332046361,-0.00723503256404626,1.99381354712011,-0.000190209653928912,0
0.38,0.00124116660548965,0.000715264911261807,-0.061907948619383,-0.0358055986022509,-0.00142538924002433,0.000142702313533845,0.0711497222741291,-0.00723546915133859,1.99381316229887,-0.000183682846762987,0
0.39,0.00124110455611912,0.000715264798379053,-0.0619070708720547,-0.0358055959932199,-0.00142533256517434,0.000142728167063872,0.0711489183661358,-0.00723585127792398,1.99381282246589,-0.000177919065325488,0
0.4,0.00124104994957788,0.000715264698690385,-0.0619062996453523,-0.0358055666801727,-0.00142528268817508,0.000142750920586603,0.0711482009143955,-0.00723616249909141,1.99381252236158,-0.000172829107021137,0
0.41,0.00124100152080413,0.000715264610654377,-0.0619056027754202,-0.0358055669340886,-0.00142523845418324,0.00014277109865124,0.0711475636565613,-0.00723646766006557,1.99381225734171,-0.000168334197593772,0
0.42,0.0012409586799658,0.000715264532908902,-0.061904978163002,-0.0358055671679418,-0.00142519932421667,0.000142788948004349,0.0711469925029301,-0.007236740935515,1.99381202330425,-0.000164364771998238,0
0.43,0.00124092084498631,0.000715264464251099,-0.06190442091144,-0.0358055673837973,-0.00142516476649808,0.000142804711667401,0.0711464829631422,-0.00723698459523723,1.99381181662739,-0.000160859397793787,0
0.44,0.00124088743378903,0.00071526440361892,-0.0619039233144673,-0.035805567583747,-0.00142513424936759,0.00014281863218552,0.0711460279879439,-0.00723720203230641,1.99381163411245,-0.000157763824387446,0
0.45,0.001240858097128,0.000715264350074724,-0.0619034868269145,-0.0358055677690645,-0.00142510745357705,0.0001428308561029,0.0711456288840405,-0.00723739285167232,1.99381147293495,-0.000155030143431198,0
0.46,0.00124083202009598,0.000715264302789517,-0.0619030873349521,-0.0358055679426755,-0.00142508363535382,0.000142841720751234,0.0711452636462755,-0.00723756713255232,1.9938113306001,-0.000152616047366128,0
0.47,0.00124080896986232,0.00071526426103177,-0.0619027279276583,-0.0358055681054186,-0.00142506258177624,0.000142851324184762,0.0711449350758599,-0.007237723764357,1.99381120490518,-0.00015048417466333,0
0.48,0.00124078871359637,0.000715264224155538,-0.0619024099892761,-0.0358055682581316,-0.00142504407999426,0.000142859764168447,0.0711446444213006,-0.00723786231803657,1.99381109390481,-0.000148601531595188,0
0.49,0.00124077112712711,0.000715264191590216,-0.0619021387894103,-0.0358055388194831,-0.00142502801630296,0.000142867093605004,0.0711443843318256,-0.00723795377868778,1.9938109958813,-0.000146938981615395,0
0.5,0.00124075529464338,0.000715264162831807,-0.0619018786376012,-0.0358055389566894,-0.00142501355519177,0.000142873690148961,0.0711441465407297,-0.00723806685755821,1.99381090931744,-0.00014547079442488,0
0.51,4.60954036478403,-0.0286759387156939,9.52412777148446,1.44443559101176,-0.744401662575416,4.54912638303108,-0.0526352335826068,9.63289330971379,0.155977737215453,47.8331200645555,3328.96233674218
0.52,4.62847125476746,-0.0050782218822486,8.57888635378802,0.274868497864351,-3.00004248859988,3.52455912294596,-5.3439078473418,6.71680673247692,0.704082904293723,101.941216698436,3328.96233674218
0.53,4.63319733379805,7.64798610726203e-05,8.34401985474348,0.0301436208883045,-4.61588954502291,-0.400101546998673,-8.31544156729587,-0.69065730657229,1.65727591109105,158.996928004163,3328.96233674218
0.54,4.6201332128831,-0.0446414172071847,8.99884508439532,2.26781856074773,-0.403252478316559,-4.60271780578033,-3.12912111500757,-8.73675082196073,3.04454190740877,218.356611648477,3328.96233674218
0.55,4.64126911276629,0.0179497078158197,7.9437419641193,-0.842336234515886,4.60405251170051,0.586857426155022,7.76630402887818,1.87005038849729,-1.44014720151019,272.243281859839,3328.96233674218
0.56,4.5264577805774,-0.0301785858014902,13.6862146948783,1.55988622975322,-3.1682808433068,3.23291312662834,-8.39269051051487,10.9228413757039,0.768634541837981,330.394939715829,3328.96233674218
0.57,4.59469205808024,0.102412041300529,10.2764132100028,-5.04643858450211,1.02286337877406,-4.48056177762922,7.40345166910291,-8.73270371838694,-2.89486430345926,385.295812800387,3328.96233674218
0.58,4.52573092404602,0.058470570976925,13.7266175849583,-2.83868857876796,-0.564707305956041,4.49074212832764,-4.70011963941246,13.2055692246159,0.138011484371886,440.781571055015,3328.96233674218
0.59,4.58936195922548,0.0872919563571894,10.5474073874941,-4.27618709994848,1.86257290012354,-4.19531706431778,8.33701785424238,-7.7477552884416,-2.70475075706354,496.76584069595,3328.96233674218
0.6,4.44603224555252,0.062881921278835,17.7162943935859,-3.04851473777562,-4.01855926389914,1.90324415329376,-17.3827381745615,4.58267855094397,1.14262224636898,552.395755634807,3328.96233674218
0.61,4.47128108791398,0.0852981217008242,16.4563568449832,-4.15424594954305,3.51932922841156,2.75933907281272,10.1292488457556,13.6186547734892,-0.88678078881892,607.640401047653,3328.96233674218
0.62,4.41126034847025,-0.00665286035903223,19.4600045209998,0.466901053640669,2.60704760532734,-3.55844978973904,11.10007739053,-15.9905614183952,-2.51080573956905,662.857042443052,3328.96233674218
0.63,4.35752235349875,0.0520259180620417,22.1497620429045,-2.51057323647068,-2.46201430158724,-3.59571875098308,-10.2064141793878,-19.8177709677897,2.55314302657302,718.666810583132,3328.96233674218
0.64,4.37859423790159,0.0583270947551449,21.0990051531141,-2.78980831773261,-4.32741592133632,-0.670045516313998,-20.342128155421,-6.25690586546214,1.7377339428601,773.267352291721,3328.96233674218
0.65,4.289054694969,0.0685868587225584,25.5789324817355,-3.30427566834419,-4.1423671428541,1.11422115732373,-25.6111938367174,3.04413778526621,1.32402357347945,828.189424231763,3328.96233674218
0.66,4.36629088401822,0.0760692856117431,21.7201608979464,-3.65079676427981,-4.20263158472982,1.18666355092984,-21.9332094265726,2.00699544017007,1.31301885162154,882.756914813289,3328.96233674218
0.67,4.43477390267636,0.042397529401385,18.2991615148268,-1.9894836197189,-4.40210783571179,-0.538946862987022,-17.8808202545622,-4.36962518334081,1.70217930324847,937.865915007898,3328.96233674218
0.68,4.28913715939937,0.0605182621390124,25.5841507037581,-2.90391187476943,-2.64298022580589,-3.37861148375954,-13.1653653535967,-22.1281410542176,2.4918664295096,992.390798944669,3328.96233674218
0.69,4.29300534932301,0.0967213194869345,25.3940446688771,-4.66545049801021,2.1230666257157,-3.73253774873496,17.0515480880586,-19.3873319669039,-2.60190432477627,1046.58231141587,3328.96233674218
0.7,4.34999583438858,0.0384312088780907,22.5479061586877,-1.73542857507316,3.7126504181162,2.26719376981223,18.2214411949304,13.3939861602087,-1.01373566897246,1100.91884284268,3328.96233674218
0.71,4.31566783837914,0.00861296749371321,24.2677504776725,-0.284671077012523,-3.56114242408737,2.43789411373715,-20.212541592249,13.4334624445921,0.972488854561366,1155.38728683241,3328.96233674218
0.72,4.25024921194181,0.0734173198778185,27.5423053112677,-3.51498522221292,0.832241965289718,-4.16861868940789,9.29249648820998,-26.1645411193865,-2.9272669716082,1209.48676877682,3328.96233674218
0.73,4.25274849110934,0.161503175077728,27.4209146386921,-7.86955473499729,0.78589013759989,4.18262234678392,-3.74651310412399,28.2807370998385,-0.147770708639883,1263.24795482809,3328.96233674218
0.74,4.18806134886292,0.0155985225252497,30.6590073271225,-0.571341352774017,-0.493432284173015,-4.15892122511118,-2.93115389446507,-30.5239168206327,3.02722490314999,1317.26037869856,3328.96233674218
0.75,4.25070802547182,0.153471719843456,27.5304281187043,-7.4674406441988,-1.17061746003238,4.08922083640265,-15.6270523250536,23.8638299064465,0.314901802615716,1371.17015985761,3328.96233674218
0.76,4.25444766049313,0.0477866096457625,27.3473207154271,-2.21749137889047,3.84243683274935,-1.82709814795704,25.7574271527542,-9.45241581810927,-2.00342498302956,1425.06540031613,3328.96233674218
0.77,4.21827180991644,0.127878555475561,29.1599689959353,-6.12338029350612,-3.07458704660671,-2.89086223817817,-16.3013594061015,-24.9412361276644,2.35571217954931,1478.4656612829,3328.96233674218
0.78,4.19559384626863,0.118652857881169,30.2978634951731,-5.68141237842855,-3.00140637048627,2.93404942404436,-26.1106971855681,16.38506855248,0.825018724354845,1532.15512969848,3328.96233674218
0.79,4.23678062725132,0.123350609888621,28.2426252735819,-5.92600215213625,3.05524818889977,-2.93785363158832,24.9002966801612,-14.5855616652581,-2.307502705761,1585.71962500801,3328.96233674218
0.8,4.10872278145823,0.153109800894621,34.6496933551302,-7.4156248866246,0.20622428224523,-4.10639952408631,10.4127093199916,-33.8698719613913,-3.05416725230078,1639.08730451174,3328.96233674218
0.81,4.16747068622388,0.190934385430195,31.716502804957,-9.27490100971802,-1.28841081223414,-3.96790441404441,0.53907731393603,-33.0404257624885,2.87340816162751,1692.33352782544,3328.96233674218
0.82,4.13913666369608,0.133082524927583,33.1374137369005,-6.34061043645846,-1.08563550965331,-3.99644327113172,-1.48572137973634,-33.7058475914676,2.90848434555347,1745.59199739387,3328.96233674218
0.83,4.02223402195454,0.120879718766885,38.9868878448381,-5.85077477568637,0.65121523486858,-3.97100707020937,13.2047392631521,-37.1462494781635,-2.94900318801644,1799.03977922241,3328.96233674218
0.84,4.14922117359312,0.0858150385057785,32.6419008780676,-4.01280918504261,3.46246082796413,-2.28796100994776,29.7421891613642,-14.0356159244539,-2.13404047622528,1851.99961929043,3328.96233674218
0.85,4.03738634917759,0.215704700506663,38.238094835084,-10.5352399486206,3.36633375090265,2.23937806720524,24.3670720714161,31.2951909413939,-0.930414603928564,1904.99706936154,3328.96233674218
0.86,4.01132242510563,0.151221217932509,39.5456746806034,-7.25797860875047,-2.3466225460086,3.25682945231592,-30.0346860895421,26.7293148234642,0.662048567999432,1957.9591472397,3328.96233674218
0.87,4.10584256609027,0.169584096465749,34.8241357371079,-8.24027658126798,-2.11361593188583,-3.5241069274032,-9.42825808025616,-34.5214503974615,2.64262980573666,2011.014006428,3328.96233674218
0.88,3.91956768609213,0.152058911367382,44.1423281032548,-7.39214938942735,3.79138540679266,1.00574820683085,40.0248751284232,20.0299369426151,-1.27272113423938,2063.80163051585,3328.96233674218
0.89,3.90577530417785,0.203219332077237,44.8364209718728,-9.8537806732698,-3.87227458716878,0.549425468305157,-45.5345746245957,-5.83130799058211,1.48183372612859,2116.40131603591,3328.96233674218
0.9,3.9206124778758,0.192392934927673,44.0989529959678,-9.28537187566678,3.88771469166194,-0.542117809448637,44.7524741171819,5.30583137698217,-1.66031391368415,2169.08237995389,3328.96233674218
0.91,3.86349247169507,0.133532897696521,46.9592993463732,-6.45222028668668,0.624195583003652,3.81507339218664,-0.422721276527233,47.3986101953695,-0.127627083702315,2221.74997746145,3328.96233674218
0.92,3.88621386311527,0.180530604952438,45.8275343724133,-8.78821481090144,2.18608606414939,-3.21811702853169,34.5152105032176,-31.4021634626636,-2.49847000410493,2274.44647707045,3328.96233674218
0.93,3.97998060153604,0.286574666576311,41.1435127822514,-14.0045530152211,-3.94150336021928,-0.622030457057084,-36.9040049000892,-22.9567108173975,1.79920091118068,2326.7670665403,3328.96233674218
0.94,3.87539794744905,0.282998702807444,46.3768726985033,-13.7572672566958,-0.484421893570185,3.85540308475169,-22.6064072656874,42.7671260923996,0.197887551638764,2379.08632433168,3328.96233674218
0.95,3.93121729801038,0.19198040201991,43.5900251874483,-9.30519882924346,3.44987656882346,1.89464444654363,32.2665487855021,30.749745536621,-1.01977762695045,2431.54781322993,3328.96233674218
0.96,3.83780106277338,0.3008911865388,48,-14.6621855633476,3.60040206472522,-1.36248210112412,50.1852410727293,0.649048508265418,-1.85432441467189,2483.65292545431,3328.96233674218
0.97,3.9792940947648,0.234775342590621,41.1942387298679,-11.3474842726541,2.79301349561841,-2.84411261510721,38.1584122892389,-19.2267073472278,-2.30632805905439,2535.75754710464,3328.96233674218
0.98,3.85569491043893,0.208263683238776,47.3780966571224,-10.1037214987184,2.52014406912641,-2.92551377966125,40.1013146715597,-27.1781859694103,-2.37653439682038,2587.91342060661,3328.96233674218
