t,iq,id,vq,vd,ia,ib,va,vb,theta_e,omega,r
0,0,0,0,0,0,0,0,0,0,0,0
0.01,0.00108581958916495,0.000613039553781914,-0.0530844270134039,-0.0306900800258802,-0.000937098504434151,0.000822598363542468,0.0456661833510241,-0.040919886381648,1.36434804543233,-0.00466108798875403,0
0.02,0.00120323517545681,0.000679677173538091,-0.0590238227205835,-0.0340261108635858,-0.00103832986490411,0.000911924908823921,0.050794066620536,-0.0454043022763312,1.36431381409754,-0.00482038405083903,0
0.03,0.00124818595475297,0.000705679029036953,-0.0612715479725092,-0.035327823257126,-0.0010769629386521,0.000946626588700608,0.0527255770222152,-0.0471409717200302,1.36428000135786,-0.0046535418713832,0
0.04,0.00121956820679799,0.000690811225990471,-0.059948951093662,-0.0345834990040053,-0.00105197390038361,0.000926238454124326,0.0515823112415924,-0.0461428250930284,1.3642497182821,-0.00418975167485816,0
0.05,0.00124539402063784,0.000706092568280216,-0.061260186536407,-0.0353485174126745,-0.00107408950020739,0.000946522438807062,0.0527074217099523,-0.0471620168614403,1.36422080079522,-0.00398947643989361,0
0.06,0.00124489180925893,0.000706672772837659,-0.0612920718846049,-0.0353775703018949,-0.00107345350156935,0.000947016158573092,0.0527314012540241,-0.0471984096994825,1.36419391666301,-0.0036914061197793,0
0.07,0.00127706175167877,0.000725794865480441,-0.0629010696190819,-0.0363348688693968,-0.00110099291084002,0.000972357709198951,0.0541086204602218,-0.0484667354674577,1.36416947356362,-0.00356931441628659,0
0.08,0.00124341883675009,0.000707417820419511,-0.0613200796701214,-0.0354148623575964,-0.00107181393411472,0.000947494204135073,0.0527489155385895,-0.0472431641199051,1.36414633306096,-0.00316116979637454,0
0.09,0.00124078760730544,0.000706707665700403,-0.0612365310531199,-0.0353793339146263,-0.00106936452886293,0.000946281731627654,0.0526734434031973,-0.0471923549286589,1.36412533520228,-0.00291814417370528,0
0.1,0.00123954547621573,0.00070667590950125,-0.0612167427654458,-0.0353777474031365,-0.0010681370721295,0.000946016397225184,0.0526534901952868,-0.0471877587556956,1.36410601679683,-0.00269993356396194,0
0.11,0.00123845096101076,0.000706670544156324,-0.061200892199027,-0.0353774588952317,-0.00106705013375253,0.000945805504776416,0.0526371970541233,-0.0471851596386632,1.36408823233553,-0.00249927355564723,0
0.12,0.00123744539899091,0.000706666519228044,-0.0611863944767086,-0.0353772524205044,-0.00106605132219931,0.000945612639149216,0.052622277830902,-0.0471828436380306,1.36407185955319,-0.00231455066301021,0
0.13,0.00129621810775088,0.000740365163835986,-0.0640662913245178,-0.037064301824657,-0.00111663994125897,0.000990675123473036,0.0550937879969683,-0.0494259716947717,1.36405580259013,-0.00240614419571291,0
0.14,0.00135664435294996,0.000776018129436347,-0.0672169449916681,-0.03884917293313,-0.00116844560736117,0.00103798983629094,0.0578102032913927,-0.0518204238404996,1.36404106613274,-0.00251981249133829,0
0.15,0.00123974829752799,0.000709317507202162,-0.0613910137753527,-0.0355099865001197,-0.00106771877407161,0.000948727456513229,0.0527931853771347,-0.0473571039163051,1.36402728782968,-0.00183468441125616,0
0.16,0.00123420634319486,0.000706754993696412,-0.061146786683142,-0.0353816960765338,-0.00106281000105295,0.000945094080162958,0.0525799518490238,-0.0471820156678392,1.36401570473291,-0.00168195231186633,0
0.17,0.00123335296447874,0.000706654169884477,-0.0611276108986614,-0.0353766604296448,-0.0010619854700591,0.000944831472902424,0.0525617175574016,-0.0471737084057263,1.36400508690717,-0.00156124113348734,0
0.18,0.00123274463489413,0.000706648016584799,-0.0611185354183896,-0.0353763237170806,-0.00106138213175043,0.000944710921184042,0.0525524435509724,-0.0471720290876541,1.36399531378894,-0.00145093976114293,0
0.19,0.00123219139372068,0.000706645677351539,-0.0611105028402224,-0.0353762290304296,-0.00106083266009164,0.00094460457936738,0.0525441771599868,-0.047170759845249,1.36398631649992,-0.00134942812857953,0
0.2,0.00123168296060458,0.000706643651032913,-0.0611031462784569,-0.035376113613537,-0.00106032765387195,0.000944506977964265,0.0525366103500204,-0.0471695714677853,1.36397803338181,-0.00125597550160628,0
0.21,0.00123121458620338,0.000706641790103526,-0.0610963527634021,-0.0353760245743789,-0.00105986244127793,0.00094441705955,0.0525296202056607,-0.0471684898711648,1.36397040774325,-0.0011699408148535,0
0.22,0.00123078346470722,0.000706640076777836,-0.0610900963963805,-0.0353759383602134,-0.0010594342303028,0.00094433428761642,0.0525231837501222,-0.0471674894533892,1.36396338739657,-0.00109073520609657,0
0.23,0.00123038656930829,0.000706638499204568,-0.0610843310333573,-0.035375849154748,-0.00105904001540745,0.000944258081383527,0.0525172547470681,-0.0471665575916222,1.36395692429612,-0.00101781660933822,0
0.24,0.00123002100148383,0.000706637046639236,-0.0610790086603838,-0.0353757891978684,-0.00105867692003232,0.000944187883191257,0.0525117774951358,-0.0471657183196505,1.36395097421015,-0.000950685987754342,0
0.25,0.00122968442107818,0.000706635709191505,-0.061074101351916,-0.0353757320628036,-0.00105834261726803,0.000944123246944602,0.0525067281675288,-0.0471649421929531,1.36394549641715,-0.000888883916039057,0
0.26,0.00124212795036621,0.00071379661170504,-0.0616870045055521,-0.0357342240409971,-0.00106904548074794,0.000953692407464258,0.053032704150643,-0.0476419309343204,1.36394056485192,-0.000891422077464458,0
0.27,0.00120047059047155,0.000690190349438951,-0.0596800165513333,-0.0345524167100968,-0.00103311986815857,0.000922038879365607,0.0513109929475905,-0.0460733749448411,1.36393550453952,-0.000645613848230004,0
0.28,0.00119594165971915,0.000687482786400657,-0.0592884971401003,-0.0344168944377737,-0.00102923963917734,0.000918463281898143,0.0509554577684979,-0.0458605477450429,1.36393119778889,-0.000577560459102235,0
0.29,0.00122721753646908,0.000705896423745776,-0.0609917950211978,-0.0353387063841977,-0.0010560632810394,0.000942911973258701,0.0524329376315248,-0.0471127401044025,1.3639276017191,-0.000680746528601828,0
0.3,0.00122034532194527,0.000702298817201437,-0.060663452852496,-0.0351585983075903,-0.00105007451209745,0.000937981797520364,0.0521484890421081,-0.0468691437682259,1.36392545533439,-0.000625765402618675,0
0.31,0.00122790883744861,0.000706463736914052,-0.0610367535979838,-0.0353671154506052,-0.00105661810834042,0.000943615015663741,0.0524708421761377,-0.0471500675121921,1.36392208009167,-0.000623153330622889,0
0.32,0.00122803689684334,0.000706622832304532,-0.061049541365186,-0.0353750916505016,-0.00105670775642759,0.000943800383899301,0.0524815689311192,-0.0471606672207797,1.36391889899967,-0.000588739706224863,0
0.33,0.00122787051618284,0.00070662825157286,-0.0610475472735581,-0.0353753395082373,-0.00105654104352317,0.000943774609630389,0.0524794281893843,-0.0471606540492773,1.36391596733978,-0.000555725299049636,0
0.34,0.00122770531100337,0.00070662782751575,-0.0610451229292567,-0.0353753227147594,-0.00105637690096638,0.00094374311143985,0.0524769317007556,-0.0471602812745606,1.363913268255,-0.000525275976745805,0
0.35,0.00122755267865168,0.000706627229337015,-0.0610428588928283,-0.0353752913199728,-0.00105622530124928,0.00094371379830237,0.0524746052065793,-0.04715991588411,1.36391078340706,-0.000497241286745336,0
0.36,0.00122741215349849,0.000706626670634868,-0.0610407683436627,-0.0353752627865951,-0.00105608572871675,0.000943686801756353,0.052472457216021,-0.0471595785701929,1.36390849579634,-0.000471431778100726,0
0.37,0.00122728280421588,0.000706626155947475,-0.0610388389007934,-0.035375234207802,-0.00105595725616211,0.000943661951628699,0.0524704754704527,-0.0471592647686377,1.36390638976655,-0.00044767091724783,0
0.38,0.00122716359492685,0.00070662568207946,-0.0610370504294357,-0.0353752348439071,-0.00105583885682694,0.000943639047359967,0.0524686335737825,-0.0471589997379843,1.36390445090487,-0.000425796094856503,0
0.39,0.0012270540362486,0.000706625245805469,-0.0610354074112939,-0.035375206181264,-0.00105573003988312,0.000943617999389582,0.0524669473058453,-0.0471587278309671,1.36390266594242,-0.000405657605175363,0
0.4,0.00122695309229837,0.000706624844144811,-0.0610338849313652,-0.0353751745728952,-0.00105562978060409,0.000943598605003718,0.0524653862932485,-0.0471584703630022,1.36390102266277,-0.000387117625320993,0
0.41,0.00122686041384115,0.000706624474352611,-0.0610324900178846,-0.0353751458405393,-0.00105553772713838,0.000943580801729307,0.0524639556878646,-0.0471582350666815,1.36389950982013,-0.000370049272214582,0
0.42,0.00122677461574935,0.000706624133901392,-0.0610311762198403,-0.03537514632688,-0.00105545251463429,0.000943564313553146,0.0524626041294151,-0.0471580387249688,1.36389811706082,-0.000354335734227419,0
0.43,0.00122669602354573,0.000706623820463972,-0.06102998061612,-0.0353751175340016,-0.00105537445314441,0.000943549215187074,0.0524613794732544,-0.0471578322053889,1.36389683485306,-0.00033986947175322,0
0.44,0.00122662338038524,0.000706623531897406,-0.0610288595510235,-0.0353751179597376,-0.00105530230477888,0.000943535255656757,0.0524602265638084,-0.0471576642512942,1.36389565442151,-0.000326551481232175,0
0.45,0.00122655689537477,0.000706623266228829,-0.0610278412327014,-0.0353750891143899,-0.00105523626695976,0.000943522484554617,0.0524591846419336,-0.0471574838395599,1.36389456768834,-0.000314290617597513,0
0.46,0.00122649531166981,0.000706623021642324,-0.06102687906956,-0.0353750894889099,-0.00105517510299594,0.000943510649797055,0.0524581957431779,-0.0471573390331719,1.36389356721536,-0.000303002970498028,0
0.47,0.00122643850098745,0.000706622796464664,-0.061025981669077,-0.0353750869302071,-0.00105511868121864,0.000943499730647187,0.0524572745736537,-0.0471572004925922,1.36389264615626,-0.000292611290041531,0
0.48,0.00122638668430717,0.000706622589156521,-0.0610251738727638,-0.0353750580200774,-0.00105506721225721,0.000943489777672238,0.0524564499585309,-0.0471570507334061,1.36389179820694,-0.000283044458109667,0
0.49,0.0012263387211948,0.000706622398299836,-0.0610244113589271,-0.0353750583305673,-0.00105501957481307,0.000943480561348223,0.0524556668314966,-0.0471569353420853,1.36389101756465,-0.000274237001646192,0
0.5,0.00122629436695739,0.000706622222589823,-0.0610236935914956,-0.0353750586237167,-0.00105497552463581,0.000943472035785165,0.0524549304222909,-0.0471568258746574,1.36389029888659,-0.000266128644573345,0
0.51,3.53938514332045,-0.0453664756186732,6.078572794695,2.27636705944929,-0.604329484477875,3.48770571924557,1.28679389895131,6.36200091727231,0.158753764703188,48.3035059118085,769.268322186484
0.52,3.40210452094984,-0.033206813898831,3.27558269658397,1.67335085357136,-2.22699523397096,2.57214114928152,-0.844103734757479,3.58008854168117,0.703843076192074,100.030839067213,769.268322186484
0.53,3.09750793243636,0.0027236198385574,9.00133602392942,-0.120176455280081,-3.09360039455029,-0.155561590534128,-8.98343532394632,-0.579984807186068,1.62191826746708,150.401194777678,769.268322186484
0.54,2.96666837786246,0.058639928536796,5.59558623013888,-2.922063426326,-0.732901888712287,-2.87531124001383,1.57056891279261,-6.11411099151474,2.91177613333865,201.69376606495,769.268322186484
0.55,2.81774365196907,0.0592552092991188,3.98135226559494,-2.94877728111093,2.77780102495732,-0.476457693596321,4.37462036123929,2.32575794342072,-1.7196404442495,247.528806231901,769.268322186484
0.56,2.60272499776302,0.0742275430443688,6.90261287750955,-3.69020238216518,-0.559985616187512,2.54285336812605,-5.25584742536115,5.79997637921249,0.245270993128541,288.298390630976,769.268322186484
0.57,2.48209483153169,0.0226572114620839,4.63086541619107,-1.11686304893198,-1.47765762718627,-1.99445131270879,-1.81925147026939,-4.40256989278612,2.51307918543383,330.384111924987,769.268322186484
0.58,2.29151706131162,0.00280673786766461,6.97708021918867,-0.11253208374685,2.14685181359838,0.801302446339124,6.4941340996583,2.55314201534531,-1.21234003301369,366.697758327378,769.268322186484
0.59,2.10604790184399,0.084816591088363,8.96134221752524,-4.22928596817679,-2.10775295910667,0.00301369580192509,-8.79044511768973,-4.57390301308434,1.60961763041554,403.306862444751,769.268322186484
0.6,2.00238971140211,0.0992807251962996,7.7634163533683,-4.93861454060982,1.99887438457008,-0.154668721576535,7.89714227769295,4.72183130812016,-1.59847980765235,435.313684476585,769.268322186484
0.61,1.85997984852719,-0.00436315081784988,8.36996415794072,0.239612319647455,-1.84074176351712,-0.2668592026822,-8.3199853686109,-0.944223244280562,1.71242121997318,467.251027633316,769.268322186484
0.62,1.82034921167632,0.0496541343606596,4.50271154446533,-2.46974601843482,1.59572711124202,0.877377781777562,2.63650834938531,4.40713970414571,-1.04081355986952,496.389534777401,769.268322186484
0.63,1.68467997353458,0.0695225631147377,5.75126961857745,-3.44738025337241,-0.785579587408908,-1.49192651020651,0.646507510179309,-6.6740962591347,2.69817247084953,523.11750858034,769.268322186484
0.64,1.53992563006957,-0.000383409526176513,7.58560711604121,0.0436778113372818,-0.525185057558735,1.44760206841005,-2.54420042292978,7.14635482453133,0.347780104193141,549.022678800645,769.268322186484
0.65,1.49025486594064,-0.022137210556605,4.98855590859219,1.12448486330523,1.44912450935771,-0.348407488337667,4.55340791004851,-2.32736603602877,-1.82159780431474,573.333386394038,769.268322186484
0.66,1.36735663133745,0.0120814772667744,6.45875406224576,-0.593774291089969,-0.868712080467007,-1.05600636390418,-3.59713272514392,-5.39710182440856,2.46203445261652,595.720488396788,769.268322186484
0.67,1.19931184598681,0.0112198812335718,10.4899606826848,-0.533166156839769,-0.689082449097664,0.981651754954246,-6.54045355993415,8.21863787408941,0.621396672595006,616.246787677087,769.268322186484
0.68,1.15188652650607,0.0593622035134321,8.64765211389176,-2.94078065475859,1.03944053878507,0.499929802554713,6.18055911249976,6.72538229390681,-1.07100681720398,635.713731771994,769.268322186484
0.69,1.08929576941591,-0.0195972780996013,7.76611203470945,1.00990451360939,0.555368189054983,-0.937291577451809,2.96006438266476,-7.25054633201851,-2.62467684089019,654.029746379488,769.268322186484
0.7,1.03377469625094,-0.00496767692811229,6.76753482784327,0.274235041235308,-0.811397199508935,-0.640585189535196,-5.50067761180944,-3.95187023001153,2.23428682366643,671.11711923899,769.268322186484
0.71,0.985643638179202,-0.0119949668733957,5.6371575460251,0.623235583020155,-0.797508071146081,0.579325588223311,-4.14777187723646,3.86806880045541,0.930389102435142,686.981392012304,769.268322186484
0.72,0.885792893697107,-0.00403366143085859,7.25438825514198,0.22144933615202,0.224654679974139,0.856840472733723,2.08572398604363,6.95161450447782,-0.26097163718795,701.877270051807,769.268322186484
0.73,0.831024770335906,0.0850623780926004,6.85476472930335,-4.24067819745853,0.829269569265155,0.100746010190962,5.74775113407512,5.65106255223206,-1.34789796189718,715.603354847226,769.268322186484
0.74,0.828018183844823,-0.0092185768248093,4.03265987128476,0.480066336354646,0.602534331719518,-0.56802418437569,2.5701610532376,-3.1443729876069,-2.33785409089778,728.446639970966,769.268322186484
0.75,0.684790333083944,0.0184307072894795,8.35318002668628,-0.905881154942784,-0.0831862734907289,-0.679968775135399,0.110902823528831,-8.40142474755588,3.04676707503084,740.484406364794,769.268322186484
0.76,0.666307813401726,-0.0172414657675339,6.62717782299519,0.881935680078663,-0.514820785645676,-0.423347291250541,-5.76827955846692,-3.37997742252337,2.23312911415219,751.513726479598,769.268322186484
0.77,0.590431930495989,0.0039472097426021,7.96668538554754,-0.177783579250794,-0.588512381591365,0.0477349109942835,-7.9579238690114,0.413679499572492,1.49654755593675,761.599335759345,769.268322186484
0.78,0.599017032145816,-0.0168681848938148,5.20170929816473,0.867507755649137,-0.454115185263808,0.391005548522282,-3.26043905465469,4.14486266353992,0.831782775284669,771.073449735502,769.268322186484
0.79,0.479256889749883,0.0382389565175752,8.96893268743506,-1.89179216046036,-0.0739442716453412,0.475059605585578,-3.92013671038052,8.28572020418547,0.234032890974676,779.824727166737,769.268322186484
0.8,0.506423051989073,0.0576803618416503,5.53318266717802,-2.86390139216671,0.205753225337328,0.466322787338768,-1.08779594806944,6.13471609675439,-0.302123770784511,787.936052933771,769.268322186484
0.81,0.441483483623828,0.0441787458229973,6.83208628268438,-2.20764105553881,0.342372206072523,0.282206839754386,3.24628016882502,6.40411953898723,-0.78169449587029,795.349937964563,769.268322186484
0.82,0.409117548504202,-0.0441809649773615,6.60369227709349,2.20409566737283,0.367068586966825,0.185983275115258,6.95644590560144,0.273221089809846,-1.20939958957165,802.173868346249,769.268322186484
0.83,0.307067473549644,-0.00277097076361782,9.99075177931624,0.130564084191158,0.307065402398277,-0.00299169535852279,9.98654253243364,-0.318019408032371,-1.58956261410922,808.388593083686,769.268322186484
0.84,0.304917364456356,-0.030317536808255,8.49714549931929,1.51525075329397,0.296398567205425,-0.0777279971676973,7.4381400154847,-4.37853167077791,-1.92636575746557,813.980955731404,769.268322186484
0.85,0.283341457193818,-0.0218445499481574,8.06758160218504,1.09851398409083,0.238346421291454,-0.154759649730511,5.74134526555911,-5.77317593901309,-2.22362718429524,819.16740605175,769.268322186484
0.86,0.335791820280024,0.00236743164712189,4.01996361868784,-0.104136820928601,0.203366139995153,-0.267215202417541,2.53946961316425,-3.11801957287994,-2.48400203022816,823.925094817388,769.268322186484
0.87,0.199760425157614,0.0537482116332361,9.49505910996378,-2.67402729272805,0.0344586933126596,-0.203974743946661,6.39027439410576,-7.51471640396342,-2.71139808336156,828.218635073875,769.268322186484
0.88,0.214738249201546,0.0194972981552232,7.49606211345065,-0.958780311804195,0.0305659337544626,-0.213444100408554,2.66216512330121,-7.07269989122204,-2.90880885291,832.112421435104,769.268322186484
0.89,0.123941503986409,0.00723042080805897,10.8176766111058,-0.377013597452778,0.00059508507670521,-0.124150800517863,1.05802368740647,-10.7724116330568,-3.07852812494593,835.798078988779,769.268322186484
0.9,0.111725609919553,0.00252574475002822,10.3056736820033,-0.138187677489866,-0.0116094239182362,-0.111149505508235,-0.700930349272345,-10.2827380847523,3.0601241193304,838.990799879717,769.268322186484
0.91,0.139134876472733,-0.0361727080059829,7.9227746794784,1.80890152757655,0.0071984745541703,-0.143579805751581,-3.3783613859317,-7.39115401708681,2.93733424199174,841.748405942127,769.268322186484
0.92,0.0701749034741068,0.063742689619753,10.3930076212122,-3.18462671158956,-0.0819986085902477,-0.0475802033079277,-0.111747385160145,-10.8694051000344,2.83397574308768,844.296731459398,769.268322186484
0.93,0.161979057802421,-0.0123929567457563,4.89184692421408,0.636752791266581,-0.0506223217872242,-0.154363794590354,-2.46267158098342,-4.27444372185962,2.7483415554515,846.525908943568,769.268322186484
0.94,0.0454965708479443,0.073528573884883,9.89046487996924,-3.67516762733213,-0.0861149284746902,-0.0077851287892814,-1.13905789280553,-10.4895519326486,2.6776516725667,848.393345121747,769.268322186484
0.95,0.146941728850583,-0.0474364094986146,4.00749639203581,2.36037934301418,-0.0321095719097049,-0.151033307636077,-4.04364031647354,-2.29791013011777,2.61984917900715,850.172513538286,769.268322186484
0.96,0.137200791968116,0.00081216180239814,3.75718838277699,-0.0491022756066216,-0.0744153547110767,-0.115269561926365,-1.9776685581875,-3.19494955376461,2.57425262016158,851.606668981243,769.268322186484
0.97,0.114514713806916,0.0266820143015933,4.2346528630565,-1.3337346685756,-0.0869882051891274,-0.07911132487479,-1.30671152943423,-4.24306940970764,2.53772383933927,852.688000469273,769.268322186484
