t,iq,id,vq,vd,ia,ib,va,vb,theta_e,omega,r
0,0,0,0,0,0,0,0,0,0,0,0
0.01,0.000485557807303347,0.00027305358728667,-0.0235096252284468,-0.0136618743718343,-0.000503669885960328,0.000237994310310276,0.0244178076716344,-0.0119632753978531,1.64164878940747,-0.00185797121650679,0
0.02,0.000576709748650857,0.000322433941499155,-0.0280159193010192,-0.0161325611830855,-0.000598084842833682,0.000280806519853484,0.0290874983998937,-0.0141091708276354,1.64163426432825,-0.00207791699567897,0
0.03,0.000610698674685713,0.000341359270581441,-0.0297041029653845,-0.0170794620712967,-0.000633323575968684,0.000297288195186116,0.0308382445155964,-0.0149346721697972,1.64161926028204,-0.00206326011036713,0
0.04,0.00059784512599751,0.000334692949046246,-0.0291401351307147,-0.0167459221012026,-0.000620026462421832,0.00029155677100167,0.0302518843814397,-0.0146422974231457,1.64160535708545,-0.00187141434434662,0
0.05,0.000611656734049716,0.000343114711753274,-0.0298530306005023,-0.0171672889593638,-0.000634395360906029,0.000298988614818035,0.0309926073411231,-0.0150125792736552,1.6415921873791,-0.0017941472898848,0
0.06,0.000612735563165597,0.000344321537105143,-0.0299519023571919,-0.0172276747740791,-0.000635553136836865,0.00030012397694808,0.0310953162967964,-0.0150662051405915,1.64157980024795,-0.00167358987523448,0
0.07,0.000623060538861674,0.000350921283551476,-0.0304904787067127,-0.0175578922074137,-0.000646315552284731,0.000305984295693256,0.031655724332961,-0.015357864027502,1.64156846485246,-0.00160080331613779,0
0.08,0.000612609382692572,0.000345438722896835,-0.0300300131384476,-0.0172835697774009,-0.000635499614312287,0.000301261360364227,0.031176849908225,-0.0151171261536586,1.6415576585122,-0.00144983752567635,0
0.09,0.000610148813887396,0.000344650581088511,-0.0299495209757731,-0.0172441460544445,-0.000632986507036158,0.000300655417451621,0.0310936226927958,-0.0150837995101812,1.64154777099311,-0.00134025614837655,0
0.1,0.000608988495911841,0.000344536206264828,-0.0299285738563946,-0.0172384137643892,-0.000631818259725377,0.000300629127427671,0.0310721849665541,-0.0150798462722336,1.64153863396563,-0.00124346701696533,0
0.11,0.000608087098665924,0.00034451861289382,-0.0299174680535149,-0.0172375323953893,-0.000630915330464897,0.000300680627873817,0.0310609171031346,-0.0150800148052773,1.64153017632606,-0.00115456913127949,0
0.12,0.000607279135380098,0.000344514994634869,-0.0299084621679931,-0.0172373595970813,-0.000630106776791962,0.00030073905572291,0.031051803429586,-0.0150807220949037,1.64152234536422,-0.00107236581879391,0
0.13,0.000631947539953533,0.000358866299553912,-0.0311210412075807,-0.0179554000526362,-0.00065572530432335,0.00031331619728142,0.0323119739568537,-0.0157115223930004,1.64151478219747,-0.00109526689034416,0
0.14,0.000647339418196512,0.000368171276754304,-0.031966516961783,-0.018420963205321,-0.000671733901748387,0.000321515126580044,0.033188117920531,-0.0161164177462821,1.64150764728491,-0.00108519833891509,0
0.15,0.000611524468532667,0.000347906242005653,-0.0301934978286482,-0.0174070282631728,-0.000634574647425034,0.000303835392418413,0.0313477907220424,-0.0152304944414326,1.64150095659593,-0.000873776500652903,0
0.16,0.00060549440518854,0.000344997335604565,-0.0299259645542008,-0.0172614896886219,-0.00062835241599482,0.00030136336473159,0.0310705573721257,-0.01510439821228,1.64149520749033,-0.000791572397906057,0
0.17,0.000604113320819021,0.000344579161691716,-0.0298796542637828,-0.0172405683752897,-0.000626943660154508,0.00030104708943157,0.0310228056178263,-0.0150869635256667,1.6414899531761,-0.000733043893140673,0
0.18,0.000603485343134736,0.00034451847212365,-0.029867965041655,-0.0172375293686009,-0.000626311502830567,0.000301033948974167,0.0310108577027479,-0.0150849083193378,1.64148509861468,-0.000681573265951575,0
0.19,0.000603004691404353,0.000344509133120727,-0.0298619725392359,-0.0172370567810355,-0.000625830039073266,0.000301061393826589,0.0310047790038295,-0.0150849994806235,1.64148060516183,-0.000634335653694249,0
0.2,0.000602575156570368,0.000344507209552568,-0.0298571664290675,-0.0172369666237379,-0.000625400188290557,0.000301092413115369,0.0309999157653725,-0.0150853779568395,1.64147644467834,-0.000590661047738914,0
0.21,0.000602179847891836,0.000344506393139983,-0.0298528309696213,-0.0172369288010799,-0.000625004648929599,0.000301121923708227,0.0309955303436671,-0.0150857658111575,1.64147259229326,-0.000550230401514545,0
0.22,0.000601814225127039,0.000344505775460269,-0.0298488352250656,-0.017236898213617,-0.000624638821097348,0.000301149355086234,0.0309914886005596,-0.0150861280201745,1.64146902516008,-0.000512794965835906,0
0.23,0.000601475785342326,0.00034450522322326,-0.0298451394688858,-0.0172368704990159,-0.000624300192376907,0.000301174764844986,0.0309877502824325,-0.0150864636993132,1.64146572215224,-0.000478131638813991,0
0.24,0.00060116237484968,0.000344504714586514,-0.0298417145641781,-0.0172368412937766,-0.000623986607061083,0.000301198296003879,0.0309842857223944,-0.0150867711651548,1.64146266371224,-0.000446034957519981,0
0.25,0.000600872247422399,0.000344504243899659,-0.0298385457628272,-0.0172368135092672,-0.000623696317460503,0.000301220077972117,0.030981080141898,-0.0150870549291399,1.64145983173123,-0.000416314845711086,0
0.26,0.000605660618317793,0.000347391396732944,-0.0300780219340332,-0.0173812744864636,-0.000628675810344276,0.000303763547176294,0.0312301194980003,-0.0152143268789189,1.64145728165171,-0.000409851228490996,0
0.27,0.000592923305839126,0.000340134240322768,-0.0294767111618197,-0.0170181659053626,-0.000615457132472241,0.000297425395916674,0.0306046339653252,-0.0148946584904876,1.64145466014568,-0.000332220454387475,0
0.28,0.000592417635215151,0.000339987367543162,-0.0293843163314218,-0.0170108213374601,-0.000614941686336453,0.000297315971667383,0.0305119176907996,-0.0148939238506822,1.64145241290265,-0.000307529770379851,0
0.29,0.000598717835260024,0.000343854667346163,-0.0297708167341865,-0.0172043198877913,-0.000621498593688461,0.000300730072585791,0.030911084466152,-0.0150597147698217,1.64145043765812,-0.000312938852462712,0
0.3,0.000591557365714782,0.00034009499059863,-0.0294322959148438,-0.0170162055892181,-0.000614090173281784,0.00029748609823056,0.0305601082061588,-0.0148960089252569,1.64144909201788,-0.000270588985657448,0
0.31,0.000598322876120705,0.000343869680408372,-0.0297635084033471,-0.0172050667367559,-0.000621104756918482,0.000300774836259189,0.0309038008802973,-0.0150610705145177,1.64144736926818,-0.000280414087374826,0
0.32,0.000599225581963277,0.000344411126140151,-0.0298132147024792,-0.0172321573159819,-0.000622042925511775,0.000301252254280541,0.0309552701677042,-0.0150846367375325,1.64144568590638,-0.00026707000072031,0
0.33,0.00059923098963157,0.000344488604535662,-0.0298194374161152,-0.0172360324200341,-0.000622053315133242,0.000301330135767239,0.0309617271797765,-0.0150881115930115,1.64144411353126,-0.000251238153349896,0
0.34,0.000599107405206664,0.000344499517906002,-0.0298190350796158,-0.0172365773201626,-0.000621930369967774,0.000301350652434464,0.0309613423105661,-0.0150887286780978,1.64144265546593,-0.000236040218559695,0
0.35,0.000598972887398427,0.000344500894059787,-0.0298176983199387,-0.0172366578306527,-0.000621795877873135,0.000301362360135401,0.0309599941917914,-0.0150889451557794,1.64144130503364,-0.000221884219348301,0
0.36,0.000598845402409007,0.000344500915625556,-0.029816319236489,-0.01723665420079,-0.00062166833553139,0.000301372157723442,0.0309585994232608,-0.0150890775927461,1.64144005454232,-0.000208763471773636,0
0.37,0.000598726881388788,0.000344500755810532,-0.0298150181884907,-0.0172366418196426,-0.000621549749878219,0.000301381083809012,0.030957283274576,-0.0150891929226297,1.64143889663428,-0.000196612235504735,0
0.38,0.000598616927117526,0.000344500582014817,-0.0298138018902885,-0.0172366422343736,-0.000621439734440886,0.000301389337731476,0.0309560538609369,-0.0150893123775717,1.64143782446104,-0.000185360414476284,0
0.39,0.000598515286317057,0.000344500417370648,-0.0298126829690032,-0.0172366283546575,-0.000621338036296757,0.00030139696444163,0.0309549217701248,-0.015089408240628,1.6414368316756,-0.00017494167427253,0
0.4,0.00059842098990477,0.000344500264373386,-0.0298116365435767,-0.0172366272688088,-0.000621243687188016,0.00030140403852798,0.0309538640064374,-0.0150895094711903,1.64143591239978,-0.000165294370881484,0
0.41,0.000598333842811699,0.000344500122617479,-0.0298106746478377,-0.0172366133513268,-0.000621156490865965,0.000301410576775855,0.0309528906829146,-0.0150895898272256,1.64143506119071,-0.000156361390387253,0
0.42,0.000598252992370845,0.000344499991337501,-0.0298097748654059,-0.0172366136813412,-0.000621075595219536,0.000301416641768346,0.0309519812743198,-0.0150896780588632,1.6414342730087,-0.000148089842503998,0
0.43,0.000598178301717057,0.000344499869768282,-0.0298089490797058,-0.0172365997311148,-0.000621000862266305,0.00030142224533032,0.0309511455505672,-0.0150897450155648,1.64143354318671,-0.000140430752326591,0
0.44,0.000598109034600705,0.000344499757193492,-0.0298081778111887,-0.0172366000269562,-0.000620931556241462,0.000301427441419852,0.030950366028857,-0.0150898206613757,1.64143286740352,-0.000133338771116193,0
0.45,0.000598044995948714,0.000344499652948303,-0.0298074673138264,-0.0172365860485201,-0.000620867481306976,0.000301432245647892,0.0309496468742937,-0.0150898762297572,1.64143224165793,-0.000126771907912872,0
0.46,0.000597985565925212,0.000344499556416709,-0.029806801471293,-0.017236584859941,-0.000620808018013841,0.000301436703465142,0.0309489738649755,-0.0150899399696648,1.64143166224535,-0.000120691280927022,0
0.47,0.000597930501478096,0.000344499467028403,-0.0298061818915487,-0.0172365851128487,-0.000620752922842603,0.00030144083360266,0.0309483477521427,-0.0150900005539102,1.64143112573443,-0.000115060887328958,0
0.48,0.000597879734172624,0.000344499384254934,-0.0298056178837338,-0.0172365710982604,-0.000620702126535497,0.000301444642348589,0.0309477766651366,-0.0150900417541292,1.64143062894916,-0.000109847390078483,0
0.49,0.000597832527759718,0.000344499307607065,-0.0298050844221484,-0.0172365713276095,-0.000620654893758834,0.00030144818301415,0.0309472376084958,-0.0150900938680468,1.64143016894762,-0.000105019920541022,0
0.5,0.00059778887201412,0.000344499236631965,-0.0298045919402475,-0.0172365715457263,-0.000620611213460703,0.000301451457569464,0.0309467399425003,-0.0150901420240786,1.64142974300658,-0.000100549895716604,0
0.51,4.74019934010579,-0.00959203959743965,2.99082287062911,0.486328134715143,-0.504128887407702,4.71332535011578,0.171613195220082,3.02524138033976,0.104529577770944,32.4538477404764,3578.98210927865
0.52,4.73660579972284,-0.0151189164905304,3.17133585803445,0.770515365401473,-2.19179824786574,4.19900982664444,-0.774308386331358,3.17041189368697,0.477884504478054,69.4663728783209,3578.98210927865
0.53,4.69724535378857,-0.0112458709564733,5.14027977537673,0.585083472681589,-4.24381351780583,2.01352606374748,-4.38671266237039,2.74254459525301,1.12539332484877,107.498399804669,3578.98210927865
0.54,4.68383705174129,0.0101051013309679,5.8116731761303,-0.480324614070716,-4.13437012655703,-2.2012304052439,-4.89733346604758,-3.1658145497431,2.06220145607831,148.686857752059,3578.98210927865
0.55,4.66464741087252,-0.011349279339639,6.77218888190229,0.601486560618944,0.745247907897657,-4.60474427408031,0.4716951820891,-6.7824650378723,-2.98357346680276,188.039436374205,3578.98210927865
0.56,4.68377294171736,-0.0268734952683389,5.81698960117383,1.39103105936107,4.65722190721225,0.498733657671016,5.92755611290267,-0.797755574510027,-1.46985217149763,225.197322256522,3578.98210927865
0.57,4.65616735542644,0.056975430166015,7.19841701935189,-2.80574922482323,-1.45457755247989,4.42349915623402,-4.9865277354214,5.90118441001162,0.329927692444477,265.772020962849,3578.98210927865
0.58,4.68153565473664,0.0189738232428929,5.931230743445,-0.887093748985669,-3.12628427604183,-3.48475002229894,-3.28015280849825,-5.0206604151623,2.41441666789236,303.027680581324,3578.98210927865
0.59,4.68258771995032,0.0558256038318099,5.87991964654949,-2.73127885565239,4.67457339558495,0.279477767205338,5.66934499171916,3.14513379716689,-1.49915922232321,342.694779747591,3578.98210927865
0.6,4.63292999287712,0.00744198387675432,8.36420265489814,-0.309460169598418,-4.2281577910176,1.89387892862283,-7.76495642836362,3.12427644653725,1.15127930744771,381.535298371617,3578.98210927865
0.61,4.62844316402733,0.0323486129067732,8.58993159136435,-1.53345765169938,3.73187965088315,-2.73799321158994,7.85961729061758,-3.79009672157583,-2.19677944631893,419.332861411086,3578.98210927865
0.62,4.65442272604827,0.0485974693519378,7.29238736222948,-2.33957277718315,-3.9454881950405,2.46964279392346,-7.44191583875921,1.80842552220583,1.02196138781591,457.823376141829,3578.98210927865
0.63,4.63754860597512,0.0263429231381922,8.13763527040835,-1.22058783605524,4.54949304782746,-0.899813330725251,8.22185155868196,-0.334812494866968,-1.76037915617412,496.427201131905,3578.98210927865
0.64,4.60967135653109,0.045829890713166,9.53308366507062,-2.18894774203899,-4.16763270490603,-1.97028120609817,-7.6223731043429,-6.12948649079218,2.02235549549589,534.916208156143,3578.98210927865
0.65,4.61831642534277,0.0725778783725679,9.10249706160667,-3.51775263353332,0.973619940817777,4.51510557615897,-1.67126821167087,9.61441100182154,-0.19667018394066,573.276501489371,3578.98210927865
0.66,4.64709812978016,0.0695705217743381,7.66513130171588,-3.35770190188319,3.89086673018593,-2.5419514498193,8.27325230233359,-1.25765507051279,-2.13452696791082,611.760074285014,3578.98210927865
0.67,4.59523926905646,0.0628005741934935,10.2597986522482,-3.03808195285712,-2.82792850316307,-3.62256652568251,-3.78211515613175,-10.0094463025039,2.49243276281024,650.626293268941,3578.98210927865
0.68,4.57738595125255,0.0500167631877398,11.1542715545323,-2.38309902307797,-4.09295739801423,2.05003989262759,-11.0710869890154,2.74371422485968,1.11737938977008,688.734001747796,3578.98210927865
0.69,4.55512344330323,0.0559285728412539,12.2692240581301,-2.65610831613998,-0.0449459198576538,4.55524504865313,-2.92712560969619,12.2074037387451,0.0221440813691352,726.596235714848,3578.98210927865
0.7,4.55165514567433,0.0846568599971502,12.4445951898973,-4.11320843724264,3.30123895166769,3.13473327941632,5.97612236593682,11.6650072677204,-0.792666499053985,765.312077560119,3578.98210927865
0.71,4.55836863040187,0.0926658719464117,12.1108678184916,-4.48075733613067,4.44674632130104,1.00685584293435,10.6769414239707,7.26314170668328,-1.32779974769694,802.94102646967,3578.98210927865
0.72,4.59772465199643,0.0409726240501311,10.1450918451707,-1.90855150979416,4.59685613502993,-0.0983077074037104,10.1681044660369,1.78188354845284,-1.5832676599746,841.467239652186,3578.98210927865
0.73,4.52455431059851,0.094044342468771,13.8056671884803,-4.56722995272632,4.52530763662806,-0.0450204595899835,13.7553762572047,4.71653050269908,-1.55996226023328,879.446900289483,3578.98210927865
0.74,4.51317395219886,0.0797246011803514,14.3767992869773,-3.8135503516529,4.31779488364508,1.31595686768527,12.5000545660762,8.0612753251418,-1.25730135218972,917.166486158889,3578.98210927865
0.75,4.52774845132853,0.121684563735984,13.6502216905205,-5.91560889106679,2.92786966390853,3.45584901329958,3.92612460546187,14.349513104451,-0.676009977110971,955.286467028189,3578.98210927865
0.76,4.50559370555078,0.108575421391716,14.7601769013749,-5.26226362981854,-0.715013027958203,4.44982242696034,-7.86608010688755,13.5528234852233,0.183414880730278,993.347646633675,3578.98210927865
0.77,4.51684838507471,0.077146316840135,14.199726785265,-3.68586813812209,-4.35730921666174,1.19236205841542,-14.6701917397215,-0.0577843196917187,1.32076698313342,1031.27076653858,3578.98210927865
0.78,4.51160044942539,0.114695087693567,14.4644459622051,-5.5559377927365,-1.88651696721086,-4.0998472301809,-0.605795793556155,-15.4829471744503,2.73575248682695,1069.08103211691,3578.98210927865
0.79,4.50966373480834,0.0783029629740508,14.5636509303817,-3.71968650108955,4.30653975573337,-1.34049009222148,15.0223067531117,-0.51603866503521,-1.85519722371453,1106.78583751195,3578.98210927865
0.8,4.48466822515341,0.0810503981948902,15.8158333126676,-3.84015807116484,-0.42979470790523,4.46476144556513,-5.61492754558672,15.2761247063328,0.114038856638485,1144.47667939347,3578.98210927865
0.81,4.48172501518541,0.0895524527922886,15.9654373857834,-4.3007953715207,-3.22042164413739,-3.11813456853793,-8.19301282732471,-14.3619835871775,2.36003764188351,1182.46302654844,3578.98210927865
0.82,4.47515953584823,0.116836237243192,16.2962091885108,-5.65154271426721,4.43005385226563,0.644458255942869,15.1004673836409,8.33560158371844,-1.40023376771407,1220.22462357213,3578.98210927865
0.83,4.50000298578383,0.103853271445818,15.0566073894914,-4.96100187521113,-4.41567465861024,0.873286713147953,-15.6839356940807,-2.30805693843923,1.39862058329272,1257.59126576295,3578.98210927865
0.84,4.46373724919894,0.12713414846892,16.8725417642903,-6.1652387107603,-1.483138076624,-4.21205588368211,0.722705082310275,-17.9491094852191,2.83150662553176,1295.49402227275,3578.98210927865
0.85,4.45220912143929,0.127580990832634,17.4515816372276,-6.13658395431203,0.578268050664738,4.4163388719424,-4.33580933050202,17.9837738452937,-0.101549811647026,1332.77067157004,3578.98210927865
0.86,4.47630104535179,0.153397376486601,16.2497472496015,-7.45401378841876,1.52723567058467,-4.21050507780531,12.9769379340427,-12.2969788602677,-2.75937558975706,1370.47679803928,3578.98210927865
0.87,4.40800515409518,0.1585115066294,19.6673378345852,-7.72733032022167,-3.94006927225315,1.98279839270414,-21.0978916212335,1.18100826254874,1.14050492776033,1407.98342718015,3578.98210927865
0.88,4.40599181979492,0.150296467091194,19.7707877546596,-7.25485729724712,3.71498414282397,2.37365662274186,12.1754635986063,17.1835703217414,-0.968135980877856,1445.21813333885,3578.98210927865
0.89,4.46398971142733,0.15014777681366,16.8737326457802,-7.24402713318599,1.34458751214602,-4.25932305898392,12.4484543800902,-13.4994357680021,-2.80218973409922,1482.62582896936,3578.98210927865
0.9,4.4726593426357,0.128254304308121,16.4431419485998,-6.14964649065257,-4.24522076036015,-1.41394181550979,-13.3355073842147,-11.4175002477492,1.92097424565107,1520.0452605733,3578.98210927865
0.91,4.46087657317809,0.136498146688131,17.0352025227576,-6.55841644732068,-2.5356402005988,3.67268026355217,-15.3833944858972,9.82660294196936,0.634847328947738,1557.40894213554,3578.98210927865
0.92,4.45705947377638,0.142115736545121,17.2290083940484,-6.8278098728632,1.77517456354388,4.09076170221395,0.00443757811752832,18.5326117482145,-0.377549789801464,1594.70915774163,3578.98210927865
0.93,4.36299412888987,0.177469896205785,21.9352656212821,-8.58758335851323,3.99822380114007,1.75539732504746,15.9407840134204,17.3434100122523,-1.11643667078601,1631.98493958579,3578.98210927865
0.94,4.34145377060096,0.135415714327633,23.015372546633,-6.51593642321327,4.33962933567102,-0.184866132473409,23.0881105708263,6.25331521682395,-1.58218888753645,1669.3303568514,3578.98210927865
0.95,4.38433578081999,0.123976847403277,20.8744119497747,-5.95432462054608,4.26789892084537,-1.01134034781445,21.6484801275962,1.59322443516628,-1.77519942658805,1706.60883255149,3578.98210927865
0.96,4.39417629506275,0.196593018615398,20.3855576755426,-9.53958592000713,4.33532843617323,-0.743210251252974,21.4163404988618,6.92206767554936,-1.69586745332647,1743.56918800138,3578.98210927865
0.97,4.3475252620284,0.145369622509148,22.7212731053569,-7.02432190768091,4.26911362630815,0.834731739419108,20.5632927341196,11.947733748366,-1.34427945747795,1780.83651229918,3578.98210927865
0.98,4.37015947766998,0.191926565749156,21.5927851762918,-9.3086098586451,2.93529269865396,-3.24332952999503,21.7987395043792,-8.81552863929149,-2.3621191908026,1817.87568335723,3578.98210927865
