t,iq,id,vq,vd,ia,ib,va,vb,theta_e,omega,r
0,0,0,0,0,0,0,0,0,0,0,0
0.01,0.000800270666205808,0.000456631628969602,-0.0396641725697701,-0.0228634961308911,0.000799816031263405,-0.00045742748048076,-0.0396414092480474,0.022902941160484,-1.5717910871998,-0.00141911800365237,0
0.02,0.000884926066586544,0.000505088575456055,-0.0439102881050439,-0.0252897292326503,0.000884417850509377,-0.000505977942286947,-0.0438848419831939,0.0253338597580162,-1.57180163361783,-0.00151413383906443,0
0.03,0.000916111303895002,0.000522932381026984,-0.0454593820841288,-0.0261831712859238,0.000915579489995877,-0.000523862953213568,-0.0454327544278907,0.0262293481267418,-1.57181240670274,-0.00150987850527614,0
0.04,0.000897627044351647,0.000512689995425192,-0.0445553232369767,-0.0256703301887509,0.000897100491051786,-0.00051361079731174,-0.0445289589773673,0.0257160357198171,-1.57182244556512,-0.00141879268388823,0
0.05,0.000915766163210796,0.000523129210661084,-0.0454595359496642,-0.0261930138752997,0.000915223669083896,-0.000524077734956678,-0.045432373547671,0.0262400994368416,-1.57183240487028,-0.00139526919896906,0
0.06,0.000915932726462438,0.000523403791026221,-0.0454760162588173,-0.0262067718656891,0.000915384907440182,-0.000524361286801633,-0.0454485872292284,0.0262543113651779,-1.57184201725343,-0.0013407902823441,0
0.07,0.00094116033988616,0.000538005491855995,-0.0467294895942994,-0.0269378824174537,0.00094059231906792,-0.000538997944293181,-0.0467010490667882,0.0269871584821695,-1.5718511437927,-0.00133500237595123,0
0.08,0.000916005898187022,0.000523794035329489,-0.0454951022402276,-0.0262263168988004,0.000915448196305806,-0.000524768136266493,-0.0454671783696503,0.0262746972775609,-1.5718600726437,-0.00123802041211295,0
0.09,0.000915015572565798,0.000523415075855886,-0.0454534757247342,-0.0262073390494403,0.000914453831779684,-0.000524395870707037,-0.0454253496289728,0.0262560599975873,-1.57186854451535,-0.00118792131612416,0
0.1,0.000914705527468877,0.00052340308112128,-0.0454451352002309,-0.0262067298912648,0.000914139542275337,-0.000524390965366493,-0.0454167965956633,0.0262558106321082,-1.57187666341332,-0.00114108055522574,0
0.11,0.000914425791674843,0.000523400899604726,-0.0454380015097978,-0.0262066314836004,0.000913855727719668,-0.000524395594090145,-0.0454094586692662,0.0262560579349953,-1.57188444629589,-0.00109621077070696,0
0.12,0.000914158471223347,0.000523399055232643,-0.0454312034397275,-0.0262065229571567,0.00091358449699431,-0.000524400274961296,-0.0454024648287696,0.0262562807525786,-1.57189190713187,-0.00105319854013691,0
0.13,0.000957894711767663,0.000548486496148049,-0.0475971576895801,-0.0274626541681336,0.000957289125776003,-0.000549542759901569,-0.0475668362921609,0.0275151390917804,-1.57189936831573,-0.00109081780758083,0
0.14,0.00101010335087992,0.000578841462419906,-0.050242457902831,-0.0289825249726736,0.00100946012289281,-0.000579962480135133,-0.0502102517574132,0.0290382841842726,-1.57190648511837,-0.00114592450048036,0
0.15,0.000916055833002705,0.000524864370422261,-0.0455433031775815,-0.02627989564642,0.000915468963337595,-0.000525887320328818,-0.0455139188861494,0.0263307532580601,-1.57191337397027,-0.000934328098141388,0
0.16,0.000913237301994303,0.000523431226601091,-0.0454095097846659,-0.0262081508214222,0.000912648744947645,-0.000524456754251906,-0.0453800409898359,0.0262591437050582,-1.57191964721754,-0.000893410076484118,0
0.17,0.000912950405239125,0.000523391776489774,-0.0454004896899766,-0.0262061639938079,0.00091235874379481,-0.000524422460183162,-0.0453708654700466,0.0262574191774242,-1.57192565174721,-0.000858662172837588,0
0.18,0.000912741956670779,0.000523389350940175,-0.0453951286566122,-0.0262060497234501,0.000912147279618539,-0.000524425049391501,-0.0453653534361617,0.0262575599679492,-1.57193140756531,-0.000825475871996398,0
0.19,0.00091254398551563,0.00052338796433938,-0.0453900796735803,-0.0262059820243603,0.000911946416569414,-0.000524428469881523,-0.045360159653088,0.0262577368194868,-1.57193692520873,-0.000793666195762146,0
0.2,0.000912354279848829,0.00052338665988935,-0.0453852420151036,-0.0262059172462551,0.000911753938633599,-0.000524431771629756,-0.0453551831855302,0.0262579064225253,-1.57194221453934,-0.000763172853522366,0
0.21,0.00091217249042206,0.000523385409963322,-0.0453806066048559,-0.0262058524776571,0.000911569491640814,-0.000524434935482912,-0.0453504147125014,0.0262580662903716,-1.57194728500505,-0.000733941285247087,0
0.22,0.000911998267989359,0.00052338421167166,-0.0453761640236692,-0.0262057877175495,0.000911392721600366,-0.00052443796664299,-0.0453458445771427,0.0262582168279915,-1.57195214566209,-0.000705919277988287,0
0.23,0.00091183126330476,0.000523383062868482,-0.0453719044640756,-0.02620572296526,0.000911223274717136,-0.000524440870691184,-0.045341462744124,0.0262583584226504,-1.57195680519192,-0.000679056781765537,0
0.24,0.00091167099360712,0.000523381961513952,-0.0453678111229987,-0.0262056799556331,0.000911060663869087,-0.000524443652810484,-0.0453372521666132,0.026258513172114,-1.57196127191681,-0.000653305817662635,0
0.25,0.000911517609512089,0.000523380905651603,-0.0453638986147192,-0.0262056152127134,0.000910905035490809,-0.000524446318672191,-0.0453332273000138,0.0262586379838826,-1.57196555381491,-0.000628620392063155,0
0.26,0.000920527814285275,0.000528582872636757,-0.0458122784171657,-0.0264660836892874,0.000919906993975895,-0.000529662564801387,-0.045781194207276,0.0265198170539684,-1.57196962783867,-0.000621911821005425,0
0.27,0.000888204066598627,0.000510147632352662,-0.0442196879261019,-0.0255430388248943,0.000887602827015592,-0.000511193008746494,-0.0441895840978629,0.0255950833159378,-1.57197368034256,-0.000539584589834032,0
0.28,0.000882678963088691,0.000506923103477387,-0.0438931316100786,-0.0253815927214473,0.000882079598341907,-0.00050796532057558,-0.0438631216838848,0.0254334191126915,-1.57197747077663,-0.000507857170499742,0
0.29,0.000910178597377364,0.000522940664677012,-0.0453109614926359,-0.0261835895049975,0.000909558454325969,-0.000524018545531373,-0.0452799111724049,0.0262372489977984,-1.57198098226728,-0.000538234883384061,0
0.3,0.000906311898613582,0.000520856711479002,-0.0451226229704162,-0.026079239825448,0.000905692652407607,-0.000521932745510521,-0.0450916175599023,0.0261328123139296,-1.57198399920381,-0.000513954695114635,0
0.31,0.000910611168441473,0.000523308706930495,-0.0453377451684822,-0.0262020106801249,0.000909987263193662,-0.000524392871485608,-0.045306506481708,0.0262559892418199,-1.57198732466474,-0.000502879776231479,0
0.32,0.000910618540420813,0.000523372973217735,-0.0453408406262998,-0.0262052238586728,0.000909992878560883,-0.000524460061607537,-0.0453095139907077,0.0262593512507171,-1.57199052809373,-0.000484635655480118,0
0.33,0.000910511821858768,0.00052337394100412,-0.0453381887074745,-0.0262052652220973,0.000909884548134799,-0.000524463696486505,-0.0453067813735331,0.0262595285983184,-1.57199359940011,-0.000466935559769518,0
0.34,0.000910406133845997,0.000523373260359461,-0.0453354779941283,-0.0262052468116007,0.000909777316868512,-0.00052446556790245,-0.0453039933699042,0.0262596403279381,-1.57199654363176,-0.000449962038153328,0
0.35,0.000910305119538056,0.000523372565185766,-0.0453328932954528,-0.0262052037797386,0.000909674823212812,-0.00052446731896188,-0.0453013346093819,0.0262597220526675,-1.57199936603545,-0.000433690695704631,0
0.36,0.000910207871632148,0.000523371897613659,-0.0453303936339598,-0.0262051824464795,0.000909576157171533,-0.0005244689953638,-0.0452987639265143,0.026259820273432,-1.57200207165237,-0.000418092634003557,0
0.37,0.000910115006395498,0.000523371257605379,-0.0453280141299685,-0.0262051394065017,0.000909481932477693,-0.000524470602274669,-0.0452963163670181,0.0262598918478317,-1.57200466531432,-0.000403139997979017,0
0.38,0.000910025732938514,0.000523370644051738,-0.0453257192723136,-0.0262051180603865,0.000909391355814069,-0.000524472141906564,-0.0452939562457354,0.0262599803450189,-1.5720071516542,-0.000388806080948396,0
0.39,0.000909940492904206,0.000523370055861123,-0.0453235350960022,-0.0262050750123145,0.000909304866495896,-0.000524473617797602,-0.0452917095335544,0.0262600426033111,-1.57200953511275,-0.000375065281197148,0
0.4,0.000909858437196553,0.00052336949198635,-0.0453214229394107,-0.0262050536543411,0.000909221613196435,-0.000524475031794915,-0.0452895374045131,0.0262601221620359,-1.57201181994729,-0.000361893056369968,0
0.41,0.000909779873948346,0.000523368951423135,-0.045319401774057,-0.0262050322892493,0.000909141901909612,-0.000524476387025569,-0.0452874587492572,0.0262601975330218,-1.57201401023824,-0.00034926587964043,0
0.42,0.00090970451212128,0.00052336843320791,-0.0453174605549804,-0.0262050109178213,0.000909065439546659,-0.00052447768577334,-0.0452854624201088,0.0262602688819489,-1.57201610989817,-0.000337161197688068,0
0.43,0.00090963254342786,0.000523367936418097,-0.0453156121698948,-0.0262049649423052,0.00090899241585441,-0.000524478930799644,-0.0452835612363656,0.0262603117976936,-1.57201812267719,-0.000325557390415319,0
0.44,0.000909563293404541,0.00052336746016846,-0.0453138260378678,-0.0262049435599464,0.000908922154485704,-0.000524480123700762,-0.0452817244626741,0.0262603756038749,-1.57202005217003,-0.000314433732336948,0
0.45,0.000909496953764059,0.000523367003610348,-0.0453121148173862,-0.026204922171512,0.000908854845346677,-0.000524481267028714,-0.0452799646970246,0.0262604358736713,-1.57202190182327,-0.000303770355555073,0
0.46,0.000909433408091092,0.000523366565930225,-0.045310475590027,-0.0262049007769998,0.000908790370290728,-0.000524482362861342,-0.0452782789342646,0.0262604927539026,-1.57202367494017,-0.000293548214280214,0
0.47,0.000909372423554997,0.000523366146347982,-0.0453088995701909,-0.026204879377188,0.000908728494827266,-0.000524483413040296,-0.045276658305637,0.0262605463787257,-1.57202537468809,-0.000283749050808837,0
0.48,0.000909314000155774,0.000523365744116036,-0.0453073893859174,-0.0262048579716994,0.000908669217365066,-0.000524484419603277,-0.0452751053594676,0.0262605968891262,-1.57202700410288,-0.000274355362916485,0
0.49,0.000909257887970777,0.000523365358517026,-0.0453059351685235,-0.0262048582387159,0.000908612286456285,-0.000524485384194274,-0.0452736101239533,0.0262606660835159,-1.5720285660948,-0.000265350372594519,0
0.5,0.000909204237599537,0.000523364988863612,-0.0453045468475256,-0.0262048368212951,0.000908557851238232,-0.000524486308868526,-0.0452721825087515,0.0262607107440876,-1.57203006345336,-0.00025671799608676,0
0.51,4.61036221487354,0.0101587468124143,9.4831949792068,-0.503490583767569,-0.401506540728544,4.59285700302357,-1.34816327831532,9.4003694372401,0.0894015561928368,27.5339381073542,4560.51820535581
0.52,4.62309942087768,0.0488716483988966,8.84792638355863,-2.43575311775503,-1.77589924840562,4.26867878304858,-5.72366056883209,7.17345134731693,0.404819467740272,58.5641391114461,4560.51820535581
0.53,4.64711384359672,-0.0180276870618306,7.64879946216103,0.921187707698769,-3.78907414877025,2.69052209951341,-5.68301563482065,5.20154335746172,0.949462092103474,90.2244791138254,4560.51820535581
0.54,4.62893518966736,-0.00281250523500298,8.55936253038969,0.166437463064409,-4.56812644984128,-0.747843324892958,-8.47454775331026,-1.21343674438116,1.73245829057802,123.916844185035,4560.51820535581
0.55,4.58122524998384,0.0175373497355689,10.9464981070934,-0.852881581229168,-1.67955994205743,-4.2622776482488,-3.17945013567406,-10.509249480099,2.77005224395796,158.618110051426,4560.51820535581
0.56,4.57859679335159,-0.0256489977849059,11.0797018944854,1.31945735482539,3.62293554570483,-2.79974007701523,7.9162284474889,-7.8634654541769,-2.2343211941204,189.980873140939,4560.51820535581
0.57,4.5677820711887,0.0547269694116547,11.6221983230082,-2.69529354668483,3.07120052128615,3.38162024022591,5.6933218891056,10.4845689958704,-0.725348662419871,222.442779537701,4560.51820535581
0.58,4.60469679931173,0.0283389833902961,9.77837280483805,-1.3752937939366,-3.93546509458059,2.39084717221932,-9.09496284095013,3.84573252473091,1.03102497512861,255.849601102391,4560.51820535581
0.59,4.5223822031153,0.0647543935558246,13.8960155691045,-3.1847531215504,-0.609702309065315,-4.48156189479284,1.48558147833714,-14.1786793747951,3.02069363970953,287.611736704219,4560.51820535581
0.6,4.60344801506116,0.0205208425515165,9.84469308196483,-0.970163911691687,3.95637122769437,2.35356781100986,7.93856943287533,5.90239910994272,-1.02969203926105,320.618959002025,4560.51820535581
0.61,4.53407563674504,0.0582118316043978,13.3153196706131,-2.86104203623189,-4.48635866611239,0.658647414070618,-13.5770505286826,-1.0709801143357,1.43786455928676,353.551769622518,4560.51820535581
0.62,4.55415164709049,0.0284028290884898,12.3135542328435,-1.34513248620705,3.82700314811872,-2.46883593008663,11.110838822636,-5.47560589414834,-2.13748926223773,385.151433072628,4560.51820535581
0.63,4.5757743080092,0.02299404346422,11.2344889186982,-1.07350357193465,-3.29502345835225,3.17506844851891,-8.86993069431523,6.97785645175892,0.808961090863211,417.85815802471,4560.51820535581
0.64,4.54932837391086,0.0399056640888758,12.5589331036613,-1.92212201450277,3.39402663239512,-3.02961455209891,10.709585994614,-6.83565077844411,-2.29075385363298,450.657709514925,4560.51820535581
0.65,4.52290550146086,0.0754948824540942,13.8822685762098,-3.70395360901195,-4.05840605981152,1.99792740261172,-14.135680064208,2.57278104044749,1.13002293569918,483.211206573272,4560.51820535581
0.66,4.49093213587738,0.0712784049540722,15.4831503058099,-3.49019936223576,4.48338051099548,0.26990971396905,15.1734566163754,4.65571146995029,-1.49479632739252,515.605583779869,4560.51820535581
0.67,4.51195443828296,0.0102104534106564,14.4343162747244,-0.426746211907035,-3.05262920958932,-3.32254300427582,-9.42674361920444,-10.9392917223164,2.40077046896836,547.904529485902,4560.51820535581
0.68,4.51368917670762,0.0586910790123487,14.3499053855197,-2.84647997867672,-1.06068536059117,4.38768517472604,-6.31076199998218,13.1983527692646,0.25019310482029,580.1113955334,4560.51820535581
0.69,4.51853848450786,0.0540706529434827,14.109786396657,-2.60276578889326,4.49397944662849,-0.473563517143194,14.2905518026602,1.28085560724329,-1.66382034474302,612.186561703996,4560.51820535581
0.7,4.45171307398793,0.0540347925872635,17.45347837412,-2.58627387194456,-0.937963025687579,-4.35211378692791,-0.935124563153306,-17.6192582689501,2.94145789938855,644.151644849128,4560.51820535581
0.71,4.45572133820297,0.0353841787575384,17.2555268409391,-1.64155336070222,-4.44187030136947,0.352835527739887,-17.32863893889,-0.407647543828443,1.49946989031132,676.448008349093,4560.51820535581
0.72,4.44404259049687,0.0219465736721167,17.8419960006515,-0.993614045230194,-1.2667032093169,4.25974872237229,-6.12089387783449,16.7886493886325,0.293976652615655,708.982862961785,4560.51820535581
0.73,4.44771455094921,0.00479081181109819,17.6609296610114,-0.105998695499871,2.78646114992309,3.4666730360062,10.9669154140832,13.8436425305981,-0.675967710874317,740.719370047641,4560.51820535581
0.74,4.48095027586226,0.0749980874159089,16.0017380901124,-3.64271719756427,4.43573809892038,0.639349361188641,15.2177042028292,6.14381715883363,-1.41091072642013,773.120979149934,4560.51820535581
0.75,4.50690325658496,0.0204436954142098,14.706710425165,-0.880919864041534,4.24333256186888,-1.51879020219437,14.1619294988818,-4.06240128559725,-1.90997674476309,804.980238127557,4560.51820535581
0.76,4.43340361954204,0.0345766485006005,18.3843724888062,-1.61178640368623,3.62992311190072,-2.54556897374222,16.0490243746254,-9.11108247361214,-2.17457753197384,837.298095619902,4560.51820535581
0.77,4.4488777071112,0.104567222844188,17.6134044503376,-5.07243623418726,3.52411724447326,-2.71735989595242,17.199363263302,-6.3358921248744,-2.2041499227072,868.899725780649,4560.51820535581
0.78,4.47716578888659,0.137126457652866,16.2017580535767,-6.71941916552603,4.01548522397209,-1.98486664101817,17.5289465591377,-0.619346813644762,-1.99925761872232,901.151868322611,4560.51820535581
0.79,4.39588947318994,0.0449758083864261,20.2684228264203,-2.12002224008486,4.39611941843437,0.00106897448079701,20.2451060349255,2.33219634757271,-1.56032218772637,933.206948946805,4560.51820535581
0.8,4.35818904375155,0.0931286913476861,22.1563102683823,-4.50537714977752,3.43826987560766,2.67969866901431,14.3357872814963,17.48387002326,-0.887393847516125,964.920065409283,4560.51820535581
0.81,4.38902376924648,0.075290330619092,20.6174919197673,-3.58319170091939,-0.0105613457472351,4.38965679055565,-3.98572801132903,20.5434711781362,0.019558506313167,996.641497041201,4560.51820535581
0.82,4.39335971412669,0.170214455360375,20.4035964183782,-8.33221095771994,-3.95999315548838,1.91024520599062,-22.0334939350791,0.507573896920409,1.16006316687803,1028.50941319114,4560.51820535581
0.83,4.4640771540518,0.0602823131771266,16.870666317249,-2.81961470634587,-2.59741284068097,-3.63112452687523,-7.31385677507232,-15.4621184885491,2.53416226092753,1060.37077401715,4560.51820535581
0.84,4.41143668134672,0.0698747835066702,19.5056963630412,-3.29476564479093,3.67437165692703,-2.44226309100244,18.193739842329,-7.76630554452406,-2.1415806996587,1092.19508571393,4560.51820535581
0.85,4.35101940608431,0.0694461132233414,22.529604771249,-3.27048494751916,1.35649472981537,4.1347448147071,3.55711929756091,22.4861305084613,-0.301048535050595,1124.05712067426,4560.51820535581
0.86,4.3700608706465,0.0588863378883713,21.5806683730631,-2.79015508675441,-4.29347483061547,-0.816684451190901,-20.5860135544661,-7.05168481794297,1.77224016081906,1155.97152585493,4560.51820535581
0.87,4.36907886328425,0.109680234407842,21.6328193448999,-5.31838621893286,3.45508835237035,-2.67642379766952,20.5794116069778,-8.52947376415448,-2.20477829714909,1187.75173828576,4560.51820535581
0.88,4.36110807536132,0.111803635267754,22.0344996110101,-5.38890160586324,-4.15546670358091,-1.32810397682982,-19.0382167166182,-12.3331154975684,1.90577096274543,1219.25865553655,4560.51820535581
0.89,4.33249766391697,0.0524866591796177,23.4682082625235,-2.41341884241395,4.32786546001364,-0.20705414088771,23.5393823674392,1.5744419079756,-1.60648791862636,1250.99891608974,4560.51820535581
0.9,4.39348755610772,0.101423012666076,20.4219808505691,-4.88561128897295,-4.30958482646718,0.860522025665525,-20.9594299002675,-1.27624362240287,1.39679277322513,1282.73754426463,4560.51820535581
0.91,4.32279726260005,0.146638508582685,23.9597329061843,-7.10388085543543,4.29697402659987,-0.494057932299364,24.4537288633167,5.15257885173102,-1.65136261304674,1314.1783368896,4560.51820535581
0.92,4.34038833035104,0.10634871518471,23.0835135867743,-5.12613896203083,-4.23699245034829,-0.947721416430251,-21.1555256273421,-10.5626528675195,1.81534920259279,1345.95501640339,4560.51820535581
0.93,4.34069372471483,0.120934605359039,23.0715227006588,-5.82323732129568,3.10732081349879,3.03328280128136,11.8721136434002,20.6217887261347,-0.769601244252803,1377.47595154905,4560.51820535581
0.94,4.38217233111802,0.073210610217918,21.0009627778799,-3.42468400647883,0.00907466034997984,-4.38277443905163,3.81835948381821,-20.932965126672,-3.12281721650737,1408.96995980013,4560.51820535581
0.95,4.29368630066684,0.118028628873881,25.4286669752588,-5.70658310687898,-3.639135889984,2.28174555548998,-24.8045503350375,7.99477814394664,1.03824061112393,1440.67259396357,4560.51820535581
0.96,4.22484619054956,0.0803243872927788,28.874150226201,-3.83334904696868,3.23504867255846,2.71849911296157,19.2269305698383,21.88004243743,-0.852934653920062,1472.14941398508,4560.51820535581
0.97,4.33733224972618,0.18442157705801,23.2533032036655,-8.96449668724257,2.39991602666153,-3.61757728702131,20.9192417369753,-13.5448748937439,-2.51335808030668,1503.49175632552,4560.51820535581
0.98,4.36032473779188,0.186252684365517,22.1071833646756,-9.04874407359918,-3.26192399115991,-2.89947818707583,-9.58649376374722,-21.879361575387,2.34012636136955,1534.89139091305,4560.51820535581
