t,iq,id,vq,vd,ia,ib,va,vb,theta_e,omega,r
0,0,0,0,0,0,0,0,0,0,0,0
0.01,0.000833190402201831,0.0004764376488306,-0.0411189362465046,-0.02386215230653,-0.000843530486387433,0.000457881423601635,0.0416369640806006,-0.0229462949709734,1.59292936973018,-0.00145609530236299,0
0.02,0.000924067909124121,0.000528703362042579,-0.0456905174566652,-0.0264798620722989,-0.000935536959001026,0.00050813319518731,0.0462650840959871,-0.0254626878867302,1.59291858329241,-0.00156578164505418,0
0.03,0.000952001510260832,0.000544690564405216,-0.0470722206424932,-0.0272805815958232,-0.000963811579840269,0.000523509240660356,0.0476638713639726,-0.0262331747034286,1.59290752425556,-0.00156073516176314,0
0.04,0.000936055807793915,0.000535802400399426,-0.0463025607158009,-0.0268354229500106,-0.000947667952748159,0.000514985571557707,0.0468842912802762,-0.025805625063009,1.59289721222266,-0.00148039711833484,0
0.05,0.000951689442525357,0.000544778801588776,-0.0470805903415287,-0.0272849997228705,-0.000963490736331036,0.000523624234235779,0.0476717953730728,-0.0262383902458167,1.59288689279589,-0.00145689936887031,0
0.06,0.00095167136214154,0.000544893835738605,-0.047091149574024,-0.0272907592488149,-0.000963469968474904,0.000523749265959611,0.0476822170389651,-0.026244391530933,1.59287690157505,-0.00140685425829328,0
0.07,0.000978267240494497,0.000560209023979135,-0.0484055097198355,-0.0280578033304669,-0.000990392360791711,0.000538482976571958,0.0490129344498577,-0.026982697337038,1.59286734957095,-0.00140694181008014,0
0.08,0.000951596292155171,0.000545091202254873,-0.0471090829594262,-0.0273006480165668,-0.000963389364921659,0.000523966462261637,0.0476998678429151,-0.0262547840815918,1.59285798881745,-0.00131204844542483,0
0.09,0.000951029890579291,0.000544891919505711,-0.0470915637214252,-0.0272906520435992,-0.00096281402082951,0.000523788333214848,0.0476818976459476,-0.0262456034332463,1.59284904582373,-0.00126626237441048,0
0.1,0.000950824003388661,0.000544887463188951,-0.0470913382026196,-0.0272904336106291,-0.000962603571867922,0.000523796712845403,0.0476814412047139,-0.0262458009024503,1.59284042873546,-0.00122275761129474,0
0.11,0.000950630339855231,0.00054488561747979,-0.0470913518691852,-0.0272903403429188,-0.000962405565011308,0.000523807128268477,0.0476812348645702,-0.0262461033048612,1.59283212467623,-0.00118084152165303,0
0.12,0.000950443719448196,0.000544883870632176,-0.0470913638047921,-0.0272902529234844,-0.000962214759649871,0.000523817193900281,0.0476810348380436,-0.0262463972079275,1.59282412226128,-0.00114044814232867,0
0.13,0.000995438736753962,0.0005706812706,-0.0493057660002052,-0.0285823012318632,-0.00100776265668245,0.000548625390444418,0.0499231371038831,-0.0274897596621515,1.59281606883001,-0.00118117585461763,0
0.14,0.0010637353206983,0.000610229365384012,-0.0527765936063226,-0.0305630646225097,-0.00107690894282726,0.000586668424015433,0.0534365097293725,-0.0293940330636903,1.59280838216466,-0.00126570867037563,0
0.15,0.000951441029260695,0.000545731913601519,-0.0471668032127825,-0.0273327305928284,-0.000963218327167411,0.000524665424716211,0.0477567813126061,-0.0262883115782167,1.59280090820734,-0.00102604288053991,0
0.16,0.000949762783306398,0.00054488844031674,-0.0470924114126774,-0.0272904929933772,-0.000961518328216549,0.000523865690276028,0.0476812977746877,-0.026248048746602,1.59279403520753,-0.000988616595074905,0
0.17,0.000949588153295554,0.000544876003568921,-0.0470914200991435,-0.027289852768795,-0.000961339999530151,0.000523863460691685,0.0476801188890524,-0.0262477460712792,1.59278741632887,-0.000955169810252406,0
0.18,0.000949439107576175,0.000544874467430922,-0.0470914058398483,-0.0272897793829544,-0.000961187614635323,0.000523871333177176,0.0476799356006804,-0.0262479771384118,1.59278103794058,-0.000922973444731617,0
0.19,0.000949295766209722,0.000544873123410424,-0.0470914046972001,-0.0272897118278074,-0.000961041058256919,0.000523879047780264,0.0476797716345082,-0.0262482026981163,1.59277489124772,-0.000891947088726005,0
0.2,0.00094915766353082,0.000544871829908233,-0.0470914035748427,-0.0272896442829335,-0.000960899857325249,0.000523886481462489,0.0476796135485698,-0.0262484176208165,1.5927689678328,-0.00086204776812562,0
0.21,0.000949024364650702,0.000544870583338053,-0.0470913901871865,-0.0272895993739294,-0.000960763572734702,0.000523893648170953,0.0476794493444641,-0.026248645183325,1.59276325958512,-0.000833234537096242,0
0.22,0.000948896215478599,0.000544869381977527,-0.0470913910836518,-0.027289531844343,-0.000960632546184318,0.000523900546265809,0.0476793043659968,-0.0262488399296329,1.5927577586891,-0.000805467943482007,0
0.23,0.000948772722917439,0.000544868224189004,-0.0470913903862073,-0.0272894643230639,-0.000960506280719313,0.000523907192336393,0.0476791630385602,-0.0262490251912019,1.5927524576128,-0.000778709968305204,0
0.24,0.000948653452080172,0.000544867108394883,-0.047091374899813,-0.0272894194271047,-0.000960384337724735,0.000523913601471894,0.0476790124762932,-0.026249224215368,1.59274734909743,-0.000752923973622383,0
0.25,0.000948538488608955,0.000544866033073924,-0.0470913570465694,-0.0272893745328442,-0.000960266799128609,0.000523919777123913,0.0476788644180033,-0.026249414444726,1.59274242614841,-0.000728074652359247,0
0.26,0.00095715167327403,0.000549822272338663,-0.0475188747891221,-0.0275375891465423,-0.000968984175316372,0.000528690386518779,0.0481116010746515,-0.0264884148121706,1.59273770548352,-0.000719957402558695,0
0.27,0.000921740489816664,0.000529612809359184,-0.0457887018817468,-0.0265254140760715,-0.000933135745533196,0.000509267060404458,0.0463595185504283,-0.0255146595449563,1.59273302819193,-0.000632765399259034,0
0.28,0.000910512071071183,0.000523068650074465,-0.0451382064551108,-0.0261976568367425,-0.000921764250222945,0.000502974861467241,0.0457018784445929,-0.0252014525842378,1.59272858985016,-0.000590325059675606,0
0.29,0.000947609261484068,0.000544577588997415,-0.0470662989482722,-0.0272749221328549,-0.000959322057433133,0.000523669030028394,0.0476530238236423,-0.0262363715956458,1.59272445912324,-0.000636464045090066,0
0.3,0.00094515020848932,0.000543254123800082,-0.0469499348508707,-0.0272086314084755,-0.000956832681555514,0.000522403272520841,0.0475351392315181,-0.026172820708962,1.5927208311207,-0.000613874388756787,0
0.31,0.000947903914975207,0.000544839470669826,-0.0470893934918059,-0.0272880291470232,-0.000959618411240726,0.000523931661223986,0.047676201256434,-0.0262493304278589,1.59271687991211,-0.000599055854916564,0
0.32,0.000947853504859695,0.000544859344377902,-0.0470912666616894,-0.027289023119724,-0.000959566449410517,0.000523956296838219,0.0476779955904005,-0.0262504650456505,1.59271306386811,-0.000579863191511826,0
0.33,0.000947768141663174,0.000544858811132545,-0.0470912672982633,-0.0272890124682843,-0.000959479168147615,0.00052396116297985,0.0476778994559934,-0.0262506297203485,1.59270938632874,-0.000561301196963976,0
0.34,0.000947685541643652,0.000544858040245077,-0.0470912498873899,-0.0272889675788682,-0.000959394714163178,0.00052396560220675,0.0476777880345217,-0.0262507541913054,1.59270584237372,-0.000543412564577211,0
0.35,0.00094760596842164,0.000544857293977357,-0.0470912328385154,-0.0272889226890948,-0.000959313354222616,0.000523969875659656,0.0476776803540493,-0.0262508725157806,1.59270242715264,-0.000526173722648441,0
0.36,0.000947529161738029,0.000544856574748106,-0.047091208550414,-0.0272889003892511,-0.000959234825734029,0.00052397399600478,0.0476775691872125,-0.0262510076681186,1.59269913598916,-0.00050956107963411,0
0.37,0.000947455176450177,0.000544855881620233,-0.0470911850635685,-0.0272888554969487,-0.000959159181161758,0.000523977965482808,0.0476774614646969,-0.02625111451552,1.59269596437699,-0.000493551889091377,0
0.38,0.000947383841286047,0.000544855213647887,-0.0470911589757481,-0.0272888331908093,-0.000959086246980323,0.000523981791117201,0.0476773546605151,-0.0262512385073629,1.5926929079733,-0.000478124230678523,0
0.39,0.000947315327517033,0.000544854569918891,-0.0470911436710259,-0.0272887882949582,-0.000959016192208849,0.000523985472309533,0.0476772610565207,-0.0262513343851436,1.59268996259309,-0.000463256980305345,0
0.4,0.000947248998211097,0.000544853949554091,-0.0470911121230441,-0.0272887659827788,-0.000958948377937207,0.000523989026037968,0.0476771545160071,-0.0262514480953862,1.59268712420381,-0.000448929781211683,0
0.41,0.000947185490299634,0.000544853351705771,-0.0470911006577873,-0.0272887210834674,-0.000958883438890322,0.000523992441282354,0.0476770702654394,-0.0262515338682807,1.59268438891857,-0.000435123016094072,0
0.42,0.000947123934021247,0.000544852775558091,-0.0470910702436628,-0.0272886987648789,-0.000958820503536337,0.00052399573989448,0.0476769701729187,-0.0262516378937487,1.59268175299255,-0.000421817780246095,0
0.43,0.000947064589633759,0.000544852220323173,-0.0470910380544723,-0.0272886764426008,-0.000958759830163295,0.000523998918886767,0.0476768708190555,-0.026251737388977,1.59267921281624,-0.000408995855671161,0
0.44,0.00094700745713717,0.000544851685243071,-0.0470910082285442,-0.0272886541164186,-0.000958701416933098,0.00052400198087039,0.0476767762498991,-0.0262518324290591,1.59267676491132,-0.000396639686139781,0
0.45,0.000946952420116158,0.000544851169586388,-0.047090978878625,-0.0272886317866252,-0.000958645145687335,0.000524004930905819,0.0476766844907076,-0.0262519232153881,1.59267440592668,-0.00038473235315151,0
0.46,0.000946899738827048,0.000544850672648546,-0.0470909667692541,-0.0272885868771699,-0.000958591274912974,0.000524007765722059,0.0476766117234044,-0.0262519869646392,1.59267213263211,-0.000373257552766268,0
0.47,0.000946848543511011,0.000544850193750254,-0.0470909320958935,-0.0272885645419847,-0.000958538933414023,0.000524010506677223,0.0476765190590208,-0.0262520698390992,1.59266994191448,-0.000362199573284993,0
0.48,0.000946799327255228,0.000544849732237427,-0.0470909030145964,-0.0272885422029281,-0.000958488612574595,0.000524013145231087,0.0476764340742317,-0.0262521487931284,1.59266783077461,-0.000351543273734195,0
0.49,0.000946751915433037,0.00054484928747917,-0.0470908741818616,-0.0272885169501619,-0.000958440136281933,0.000524015687366851,0.0476763512873104,-0.0262522211723155,1.59266579632164,-0.00034127406313229,0
0.5,0.00094670619163645,0.000544848858867602,-0.0470908430515005,-0.0272884946046952,-0.000958393386683671,0.00052401813771388,0.0476762682068671,-0.0262522929847739,1.5926638357701,-0.000331377880516358,0
0.51,3.04110206520306,0.0193463937086924,6.09500637105796,-0.966725965806166,-0.195463576455961,3.03487562252737,-1.3947397807627,6.01151916741176,0.0706785149663853,21.6275779948876,459.391218153131
0.52,2.92528330074478,-0.0168478510312226,5.49481827263136,0.848634991220991,-0.924362547961443,2.77544953469287,-0.899544084542116,5.48671391978235,0.315735906919257,45.0497244416166,459.391218153131
0.53,2.75425687478605,-0.00167870602309494,7.84542105582445,0.0913909983639977,-1.83633820024197,2.05275321573057,-5.15903946200551,5.91128545134013,0.729199322111396,67.6327734759656,459.391218153131
0.54,2.68638241594306,0.00389045606946414,5.1063379353032,-0.184767660575397,-2.59201104644739,0.705793422632443,-4.97717295413583,1.15610362101756,1.30639424327797,89.8359479665052,459.391218153131
0.55,2.49837110998629,-0.016033596685062,8.19361539449877,0.815023709146665,-2.21308089310812,-1.15947757201101,-7.65568470319037,-3.03151589221885,2.04697885798149,112.308380438776,459.391218153131
0.56,2.38485630235064,0.0219757495619246,7.51003285074794,-1.09254907528353,-0.469947975625807,-2.33819832705346,-0.338854271897435,-7.58151928597646,2.95246247180152,134.366311320456,459.391218153131
0.57,2.31766063414215,0.0746041185020829,5.3786841713555,-3.72596438235494,1.72029770239135,-1.55489305249484,6.51245349225476,-0.633248375431459,-2.273556769735,153.673251670517,459.391218153131
0.58,2.23476929390644,0.0149812237573772,4.54697029154349,-0.735258553158396,1.97955113539412,1.03720563844024,3.66776330366839,2.78622617898031,-1.08146135070254,171.459744144847,459.391218153131
0.59,2.08915898329568,0.0737048855668065,6.72359949318286,-3.67433035707806,-0.427111393224661,2.0463610447375,-5.17305058484278,5.65217138490438,0.241028628146094,189.560935107725,459.391218153131
0.6,1.93742858944995,-0.0443632549900644,9.08886116051799,2.23193012868144,-1.91620596465669,-0.289399963070905,-9.2983570818437,1.06276284890631,1.69779709054534,207.408436066699,459.391218153131
0.61,1.92698371753177,-0.0140010167211082,5.18000017602693,0.717759525913326,0.271587940626617,-1.90780037388821,-0.0185440322406308,-5.22945854554242,-3.00745182302526,222.932165697769,459.391218153131
0.62,1.78490501273728,-0.0137469537660665,7.78803451869114,0.704466463868885,1.72402492862151,0.462399101128139,7.71473830259029,1.27771968192829,-1.31645612961113,238.66990577014,459.391218153131
0.63,1.72609699301797,-0.0184308648828094,6.26924703977516,0.93530268534842,-0.828821467594024,1.51420127491073,-2.1260631413932,5.97144078742801,0.49014091340572,253.714029606432,459.391218153131
0.64,1.62090889775625,0.0131595731912648,7.64344535833356,-0.639346314393963,-1.10514404362689,-1.18582269839465,-4.69436212630604,-6.06580455361557,2.39951439004172,267.250327945746,459.391218153131
0.65,1.60751286105597,-0.00892035333964991,4.15941999695963,0.45666189749998,1.5374987387043,-0.469334421970883,3.83565016461102,-1.67245406946061,-1.87261945002926,281.279278081418,459.391218153131
0.66,1.46535763866025,-0.029184466337763,7.68152772008876,1.48067452610357,-0.368951328726824,1.41844973801897,-0.345145561030765,7.81531443439385,0.234556369838227,293.498054637874,459.391218153131
0.67,1.43165704216253,-0.0312345262674145,5.59302501305468,1.57261389109101,-0.908472926748871,-1.10693017998836,-4.83530071888128,-3.22101074277841,2.43253472855347,306.190072001093,459.391218153131
0.68,1.30758540900318,0.00284517747443713,8.48351166344084,-0.124020775262401,1.30757897682043,0.00499161798512068,8.48261600696948,0.174862731131219,-1.56480299647587,317.339990464346,459.391218153131
0.69,1.31674727632101,0.0196686440384486,4.57765708262485,-0.977420213958023,-0.934102443536574,0.928257976123077,-3.97340161309663,2.47434319806294,0.803472542722662,328.814835375582,459.391218153131
0.7,1.249854652115,0.0124992004619085,4.88044056952442,-0.606000390594749,0.124207472187485,-1.24373043111379,1.13588911297077,-4.78494436217343,-3.032055619369,338.925002844251,459.391218153131
0.71,1.18749853429886,-0.0136544722085965,4.81910158548004,0.692386058402636,0.566743667560654,1.04361910142213,2.95296067717669,3.87080893148896,-0.50899434695459,349.297416518736,459.391218153131
0.72,1.07743937946398,-0.000556547623557918,7.53158653577241,0.0476782017595395,-0.937760161165727,-0.530548589947625,-6.5805618476818,-3.6637787495407,2.08514336169706,358.550254060736,459.391218153131
0.73,1.07552373521484,-0.00266280908501304,4.75356807215911,0.145485424383494,1.07473104766953,0.0413711341137857,4.75572444731892,0.025698376051483,-1.53479673749707,367.749816904882,459.391218153131
0.74,0.999048930899558,-0.0170454580885578,5.90238330360157,0.857400074824493,-0.934690733091491,0.353189110032982,-5.16824984760867,2.97698791795274,1.19245415891774,376.49606679961,459.391218153131
0.75,0.930764918971739,0.0253719476357983,6.81444736740589,-1.25363847571531,0.676433575625842,-0.639847394213135,5.91267341313677,-3.61228396731547,-2.30115403461197,384.427221039845,459.391218153131
0.76,0.874442909691219,0.0210459596870495,7.12699686418698,-1.04874985623231,-0.436240173868651,0.758147640919263,-4.59823662661507,5.54528452730191,0.546200044573673,392.362105431522,459.391218153131
0.77,0.838245842672755,-0.0615592957185887,6.67258263020608,3.09725324598685,0.312065991240039,-0.7804232548809,-0.935358549157257,-7.29667328384808,-2.83450703995043,399.61093595663,459.391218153131
0.78,0.852076506960776,0.0376171117600705,3.71870359928941,-1.86935886349425,-0.0657286388749492,0.850370017606038,-2.30545691395166,3.46527451117585,0.121259711617944,406.58602842213,459.391218153131
0.79,0.795444437512337,-0.0348393671001812,4.38159044782573,1.74824685974397,0.0228725508289112,-0.795878433611464,-1.81394491042119,-4.3548026128677,3.12655285127511,413.318806723305,459.391218153131
0.8,0.675633081467385,-0.0184545969416952,8.39533779996979,0.93815310513512,0.0521070078408937,0.673873499000564,1.80857723076737,8.25171960409623,-0.104478788998319,419.483903065036,459.391218153131
0.81,0.744486273734147,-0.0439312884780288,2.97197312479652,2.21473120632522,-0.0667292604357794,-0.742789994337288,-2.6301678128761,-2.61148920099129,2.99305667761962,425.427046007381,459.391218153131
0.82,0.606027676586908,-0.0340411982463899,7.99659000240659,1.70687187638702,0.057159378366833,0.604285655490922,2.88592565022831,7.65050955233338,-0.150421458565797,431.15691263314,459.391218153131
0.83,0.575751797871537,-0.00161312457408458,7.75403986762529,0.0785246723384498,-0.0629486110322028,-0.572302548738266,-0.947389270572699,-7.69634679330993,3.02923942466167,436.467902896665,459.391218153131
0.84,0.604125062185547,-0.025941068370224,4.64283010929244,1.31476896141597,-0.00426806423079152,0.604666696136476,1.48035745506165,4.59271495423989,-0.0358551124443365,441.437191582821,459.391218153131
0.85,0.578085696008697,0.0119264646529348,4.29264154672456,-0.591199667506136,0.0323073255588757,-0.577305421076409,0.917672984348925,-4.2348748256969,-3.06506065134204,446.256018390113,459.391218153131
0.86,0.494699606043639,-0.0193096291194382,6.89777315445629,0.963906329292442,-0.128088237542356,0.47821957864537,-0.583282335884635,6.94032935952127,0.222687991123584,450.798419749381,459.391218153131
0.87,0.501075114450155,-0.0109750688868346,5.10803273149611,0.56493202143436,0.205778109472954,-0.457003383050983,1.47465822711693,-4.92306100795774,-2.74040794268535,455.031225134187,459.391218153131
0.88,0.437127618818584,0.00348742866108935,6.88595420005148,-0.16321108722707,-0.247631595705426,0.360237852121422,-4.07965277811984,5.549723985405,0.610205047184298,459.010193701414,459.391218153131
0.89,0.474057502616885,0.0287920521810545,3.66103598840456,-1.43938647467772,0.336335597524464,-0.335317556793581,3.69718718810763,-1.34380981837881,-2.29401792437957,462.852913973914,459.391218153131
0.9,0.429481783493766,0.0145275790583129,4.57738876023021,-0.732536421127518,-0.378619764074129,0.203255325043976,-4.42834801100052,1.37070469614281,1.11193177816077,466.475756572953,459.391218153131
0.91,0.378893863845008,0.0240734629901121,5.87471544891119,-1.19193980178342,0.369474081275356,-0.0873441179786436,5.99144288979757,0.188717235687306,-1.73948486913255,469.819818270844,459.391218153131
0.92,0.343239868710347,0.0476381633762055,6.47271501388666,-2.3751199365616,-0.346519826228149,-0.00264803945734621,-6.0597936894864,-3.28878926124904,1.71634671512378,472.970129243804,459.391218153131
0.93,0.366705253465333,-0.020682334043688,4.14468608462069,1.03869487563154,0.315269586634471,0.188429269498925,4.15360035783406,1.00245391520627,-1.08842766602672,476.011765308747,459.391218153131
0.94,0.278483130527824,-0.0344076092440321,7.46039244759366,1.71705912987226,-0.160151854596952,-0.230408595828419,-6.25614177391868,-4.41207860675893,2.41124730582728,478.863485811976,459.391218153131
0.95,0.236973629100607,0.0131831992876393,8.5140435345245,-0.663840090096729,0.0941026420093652,0.217887563663985,2.31324249794741,8.22061616417456,-0.352114652258971,481.468886848043,459.391218153131
0.96,0.27261958204067,0.0218495885861827,5.75360086936993,-1.08223966753228,-0.00964572574773383,-0.273323619557869,1.33825896581991,-5.69949371456776,-3.0968926529293,483.903551212512,459.391218153131
0.97,0.314222333462855,-0.053555094661275,2.73506835570364,2.68916615218955,-0.18720213568046,0.25799066534992,1.19942492430344,3.64329429986284,0.458896996187416,486.21455734285,459.391218153131
