t,iq,id,vq,vd,ia,ib,va,vb,theta_e,omega,r
0,0,0,0,0,0,0,0,0,0,0,0
0.01,0.00142556825052902,0.000651222151631601,-0.0672089690144979,-0.0326037005849506,-0.000269294806529739,-0.00154396095639371,0.0145356996637236,0.0732718243468175,-2.88576619929355,-0.00899914737558423,0
0.02,0.00122970233478853,0.000720975503995224,-0.0624939618637704,-0.0360959361111977,-0.000386343968229051,-0.00137211947284431,0.0191075433883698,0.0695939196973099,-2.88576843418344,-0.000529301005281974,0
0.03,0.0013093337348955,0.000747650212508208,-0.0656520062897363,-0.0374314226846243,-0.000392007127320793,-0.00145590730533529,0.0196007836790044,0.0729870304453569,-2.88577306148349,-0.00228876297826842,0
0.04,0.0012550954927282,0.000732344423773752,-0.0631491521854562,-0.0366651436343746,-0.000390913262589434,-0.00139956417217319,0.0194922303636131,0.0703718774435006,-2.88576552859323,-0.00242314607977907,0
0.05,0.00131110186483354,0.000748023580316973,-0.0657872885972048,-0.0374501292853934,-0.00039192226705907,-0.00145771201314371,0.0195847164678816,0.0731226258099179,-2.88577397216961,-0.00208204469220597,0
0.06,0.00129751214157796,0.000748538885102193,-0.0653095114932675,-0.0374759276823356,-0.000395859472556633,-0.0014446949498214,0.0197305688471361,0.0726669257648162,-2.88577394484203,-0.00154986775387379,0
0.07,0.00136577596646663,0.00076911308560988,-0.0678083224018312,-0.0385059737221145,-0.000398492900709599,-0.00151594272224192,0.0200949047328983,0.075345029053114,-2.88577532789199,-0.00384411932256992,0
0.08,0.00129235590866685,0.000749231718381382,-0.0652018993783059,-0.037510596428656,-0.000397835800069869,-0.00143988146688455,0.0197914058310822,0.0725715700684616,-2.8857748622077,-0.00106570803836462,0
0.09,0.00129768455416012,0.000748578756063687,-0.0652743191638397,-0.0374779152726255,-0.000395853696199745,-0.00144487203839669,0.0197413603944245,0.0726333915307715,-2.885773444509,-0.00170891376804483,0
0.1,0.00129900703141198,0.000748557200595052,-0.0653447655981878,-0.0374768419157294,-0.000395498641710544,-0.00144614590364374,0.0197225182866009,0.0727012678259009,-2.88577374637367,-0.00166968329286228,0
0.11,0.00129856546806823,0.00074855649576557,-0.0653280489966346,-0.0374768049910207,-0.000395609670766019,-0.00144571853782418,0.0197267114265452,0.0726850861892279,-2.88577373167655,-0.00165659036451466,0
0.12,0.00129861156853564,0.00074855647496574,-0.0653290223384963,-0.0374768049850474,-0.000395597975508421,-0.00144576313548291,0.0197264646269998,0.0726860279896401,-2.88577372477677,-0.00166052000102255,0
0.13,0.00138943419508922,0.000784372503367373,-0.069127169199291,-0.0392699411254348,-0.000407278783008197,-0.00154268972882864,0.0205007644012029,0.0768141422946901,-2.88578144933002,-0.00292286255284827,0
0.14,0.00142589277723882,0.000824498338704853,-0.0720962095586979,-0.0412788454163835,-0.000436865882888873,-0.00158811709992577,0.021692642131627,0.080194986058921,-2.88577650709174,-0.00587635923577282,0
0.15,0.00128705291072342,0.00075105170021277,-0.0651002704232295,-0.0376017316293569,-0.000400939915537679,-0.00143521114666893,0.0199053672628716,0.0724962880762456,-2.88577591357032,-0.000534948821337992,0
0.16,0.00129679165088814,0.000748638652235397,-0.0652223115412598,-0.0374809121143323,-0.000396137218873759,-0.00144402344899831,0.0197574013811598,0.0725838397053449,-2.88577319329945,-0.00174979926730824,0
0.17,0.00129936093406429,0.000748559164789171,-0.0653578856373236,-0.0374769407587222,-0.000395411014884517,-0.00144648877958672,0.0197192952357034,0.0727139855806392,-2.88577376271171,-0.00167876595879253,0
0.18,0.0012985230928933,0.000748556558640285,-0.0653263772308079,-0.037476808539836,-0.00039562046108302,-0.00144567755569249,0.0197271382301291,0.0726834696315656,-2.88577373649706,-0.00165341746949139,0
0.19,0.00129860854173727,0.000748556477541033,-0.06532821129513,-0.0374768055498841,-0.000395598741586735,-0.00144576020847049,0.0197266702820524,0.072685243514954,-2.88577372318073,-0.00166086464059259,0
0.2,0.00129861866987027,0.000748556473748308,-0.0653287648587519,-0.0374768056113001,-0.000395596180243126,-0.00144577000463531,0.0197265305266674,0.0726857790092239,-2.88577372672618,-0.00166018747336297,0
0.21,0.00129861378042675,0.000748556473703608,-0.0653284840721634,-0.037476805700848,-0.000395597417000486,-0.00144576527441365,0.0197266016421357,0.0726855073887395,-2.88577372644033,-0.0016600809589802,0
0.22,0.00129861447891868,0.0007485564737241,-0.0653284182636007,-0.0374768057799182,-0.000395597240185876,-0.00144576595020384,0.0197266183661803,0.0726854437430545,-2.88577372637836,-0.00166012463038929,0
0.23,0.00129861447891868,0.000748556473718776,-0.0653283333442103,-0.0374768058602978,-0.000395597240206291,-0.0014457659501955,0.0197266399330425,0.072685361607237,-2.88577372639604,-0.00166011928213033,0
0.24,0.00129861447891868,0.000748556473720267,-0.0653282472734016,-0.0374768059406774,-0.000395597240199792,-0.00144576595019805,0.0197266617895725,0.0726852783579297,-2.88577372639055,-0.0016601189359795,0
0.25,0.00129861447891868,0.00074855647372111,-0.0653281609153778,-0.037476806021057,-0.000395597240195284,-0.00144576595019972,0.0197266837189103,0.0726851948307185,-2.88577372638686,-0.00166011918079825,0
0.26,0.00132882280382626,0.000756101645740648,-0.0665385684116761,-0.0378545564984738,-0.000395255839235417,-0.00147689964595117,0.0197860032886715,0.0739517586527334,-2.88577563663053,-0.00228044848081253,0
0.27,0.00124808442727878,0.000730466680226481,-0.0636266732876316,-0.0365711140727859,-0.000390883320507196,-0.00139230260298764,0.0192810656345665,0.070809889465888,-2.88577455612104,0.000602005026372322,0
0.28,0.00127529486048632,0.000726918939094152,-0.0626907867157523,-0.0363935075189,-0.000380567023463343,-0.00141772947555196,0.0193461137085119,0.0698595019517424,-2.88577542656733,-0.000215414695714729,0
0.29,0.00129813074655597,0.000747845541142914,-0.0652543418142895,-0.0374412037059135,-0.000395030829528793,-0.00144511834542472,0.0197108679588743,0.0726047832093152,-2.88577302267174,-0.00185492592319483,0
0.3,0.00130686722563166,0.00074440583235664,-0.0652821222540722,-0.0372690029742643,-0.000389487367932371,-0.0014527014761808,0.0195369904925661,0.0725881537937474,-2.88576956098256,-0.00325546290773378,0
0.31,0.00130298250120642,0.000748419824503071,-0.0655401523191757,-0.0374699457067532,-0.000394360832645295,-0.00144995695309711,0.0196664585814336,0.0728885368501285,-2.88577446380771,-0.00160947383220573,0
0.32,0.0012974616178172,0.000748551983664816,-0.0652865744752136,-0.0374765817422095,-0.000395884594782152,-0.00144464947636841,0.0197369887295151,0.0726449052699439,-2.88577371331699,-0.00161821088224627,0
0.33,0.00129870481720181,0.000748556333405399,-0.0653293017590689,-0.0374767977579486,-0.000395574214226814,-0.00144585332158672,0.0197263854785975,0.0726862968823384,-2.88577370479308,-0.00167024811898987,0
0.34,0.00129863380386209,0.000748556467640822,-0.0653288392484575,-0.0374768067022109,-0.000395592351105933,-0.00144578464285892,0.0197265130725368,0.072685851168881,-2.8857737310443,-0.00165944104113797,0
0.35,0.0012986076104147,0.000748556473621606,-0.065327433743459,-0.0374768068316928,-0.000395598977546824,-0.00144575930534501,0.0197268684778206,0.0726844915361235,-2.8857737260112,-0.00165992515567801,0
0.36,0.00129861517741061,0.000748556473787528,-0.0653276239095516,-0.0374768068978867,-0.000395597063196388,-0.00144576662606411,0.0197268204339586,0.072684675527209,-2.8857737261667,-0.00166018053169314,0
0.37,0.001298614595334,0.000748556473748767,-0.0653275293213239,-0.0374768069793574,-0.000395597210633067,-0.00144576606286944,0.0197268444565639,0.0726845840352889,-2.88577372629591,-0.00166011307220048,0
0.38,0.00129861447891868,0.000748556473758565,-0.0653274362155817,-0.0374768070599553,-0.000395597240049208,-0.00144576595025908,0.0197268680912538,0.0726844939806303,-2.88577372626076,-0.00166011836422845,0
0.39,0.00129861447891868,0.000748556473759449,-0.0653273493255832,-0.0374768071403349,-0.000395597240048273,-0.00144576595025979,0.0197268901553789,0.0726844099387086,-2.88577372625953,-0.00166011949934161,0
0.4,0.00129861447891868,0.000748556473760143,-0.0653272629670926,-0.0374768072207145,-0.000395597240044952,-0.00144576595026106,0.0197269120849018,0.0726843264110277,-2.88577372625676,-0.00166011909684278,0
0.41,0.00129861447891868,0.000748556473761031,-0.0653271765487829,-0.0374768073010941,-0.000395597240040991,-0.00144576595026261,0.0197269340295197,0.0726842428254857,-2.88577372625343,-0.00166011914112926,0
0.42,0.00129861447891868,0.000748556473761949,-0.065327090116155,-0.0374768073814737,-0.000395597240037014,-0.00144576595026417,0.0197269559777582,0.0726841592260921,-2.88577372625006,-0.00166011914532904,0
0.43,0.00129861447891868,0.000748556473762895,-0.0653270036237333,-0.0374768074618533,-0.000395597240033064,-0.00144576595026574,0.0197269779411269,0.0726840755688506,-2.8857737262467,-0.00166011914302968,0
0.44,0.00129861447891868,0.000748556473763784,-0.0653269171624663,-0.0374768075422329,-0.000395597240029518,-0.00144576595026717,0.0197269998966353,0.0726839919417436,-2.88577372624365,-0.00166011914336775,0
0.45,0.00129861447891868,0.000748556473764654,-0.0653268306414073,-0.0374768076226126,-0.000395597240025448,-0.00144576595026873,0.0197270218672481,0.0726839082567974,-2.88577372624025,-0.00166011914337334,0
0.46,0.00129861447891868,0.000748556473765568,-0.065326744151504,-0.0374768077029922,-0.000395597240021513,-0.00144576595027028,0.0197270438299818,0.0726838246019917,-2.88577372623692,-0.00166011914336196,0
0.47,0.00129861447891868,0.000748556473766579,-0.0653266576472807,-0.0374768077833718,-0.000395597240017671,-0.00144576595027186,0.019727065796339,0.072683740933332,-2.88577372623359,-0.00166011914335362,0
0.48,0.00129861447891868,0.000748556473767507,-0.0653265710832654,-0.0374768078637514,-0.000395597240014071,-0.00144576595027332,0.019727087777842,0.0726836572068218,-2.88577372623048,-0.00166011914336002,0
0.49,0.00129861447891868,0.000748556473768487,-0.0653264845504048,-0.037476807944131,-0.000395597240010154,-0.0014457659502749,0.0197271097514433,0.0726835735104574,-2.88577372622711,-0.00166011914336013,0
0.5,0.00129861447891868,0.000748556473769492,-0.0653263979577504,-0.0374768080245106,-0.000395597240006307,-0.00144576595027648,0.0197271317401769,0.0726834897562445,-2.88577372622378,-0.00166011914336402,0
0.51,3.06178313882268,0.0553037468081079,19.0876089069656,-2.68565760792202,-3.00986695541884,-0.564159023917558,-18.1519643040122,-6.48504143996997,1.77414359398479,514.123665484567,1083.94678165392
0.52,1.1166295432693,-0.00778922210857425,28.1163192620149,0.433471988935487,-0.552958702370979,0.970133435335091,-13.3741464475381,24.7355516131851,0.511079483835421,809.984928071092,1083.94678165392
0.53,0.414160890181844,-0.0628727390832418,26.1923532536163,3.13794453415106,-0.309601059878172,0.282186831723877,-14.0526416847224,22.3250829011325,0.681032258477002,933.01009331599,1083.94678165392
0.54,0.0474115709991671,0.0802220498860386,28.9088594371603,-3.95971865228406,-0.0382211850950333,0.0849857362294305,-29.1696811674982,-0.728852762387992,1.45965237345253,986.520767034994,1083.94678165392
0.55,-0.0504279331009273,-0.0337763224812014,27.051112258951,1.69975298369392,0.0571349980758055,0.0204794626898122,-17.4447994995403,-20.7444162384191,2.50513460249995,1010.06319478432,1083.94678165392
0.56,-0.109706228156771,-0.0197650261909113,27.2923482369783,0.925173867316941,-0.0376371068858142,0.104926454919523,12.8222048988131,-24.1105636704353,-2.61893748344753,1019.04546737625,1083.94678165392
0.57,-0.139155377472338,0.017583030850491,27.4031937447373,-0.82744196366645,-0.134481434459109,-0.0398512965808971,26.9088381878603,5.24729596977285,-1.40839637348426,1024.99267263934,1083.94678165392
0.58,-0.100094265782786,0.00942527978304047,25.0746458067023,-0.485656505403999,-0.00796075351497112,-0.100221376687099,3.8416792972952,24.7833658882233,-0.17315245765495,1026.599952552,1083.94678165392
0.59,-0.226377632100637,-0.0552037418239739,31.0922920351142,2.69284656709615,0.173014449442,-0.156077819407951,-26.0846511913853,17.1339726524385,1.07600607739275,1027.19293176819,1083.94678165392
0.6,-0.233933270574942,-0.0211924710093347,31.3528933418891,1.10528877537358,0.18410808841825,0.145870174087606,-23.4793008693997,-20.8074028862097,2.33117427320551,1029.03832208788,1083.94678165392
0.61,-0.138054978918671,-0.0604439121714044,26.8117617933162,2.99915278981922,-0.00547312974687574,0.150607730789601,8.93635203030711,-25.4559835855666,-2.69258519922657,1029.02572473288,1083.94678165392
0.62,-0.258232173274106,-0.0424747268632446,32.61252755438,2.05594023356172,-0.261649946736864,0.00522140867692933,32.5724642649441,2.61503641238717,-1.42772638768673,1029.71567125672,1083.94678165392
0.63,-0.159475474991126,0.0826621682586389,27.7755698617398,-4.09848277930461,0.056101171141719,-0.170640322847187,0.395116412915022,28.0735413736295,-0.160573365175043,1030.4344457066,1083.94678165392
0.64,-0.18150226435433,-0.095940589793885,28.882569769463,4.76530594766068,0.120031925976938,-0.166553311231012,-23.7636225053055,17.093894310193,1.11073035185087,1030.98086545651,1083.94678165392
0.65,-0.181731182816862,-0.0575262810586864,28.7133937809343,2.83553294772774,0.166261228833489,0.0932346481048592,-21.7069459019673,-19.0080964098384,2.38843883863272,1031.63456952459,1083.94678165392
0.66,-0.14450041624001,-0.00039177661280437,26.8003250090395,0.0540024401345192,-0.0728122376374553,0.124815471127089,13.5204937774218,-23.1399348501327,-2.61078775764455,1033.26993189861,1083.94678165392
0.67,-0.179800128140587,-0.033530859213503,28.6825320730304,1.63370985720721,-0.182531788676885,-0.0115996000527777,28.2069193030478,5.45218831748363,-1.3229615661964,1033.13236317002,1083.94678165392
0.68,-0.283380229674709,0.0148963319939878,33.7268174423826,-0.754256008883355,0.00628766085235746,-0.283701816346621,0.26984529957012,33.7341711093224,-0.0303589577499403,1033.73606932648,1083.94678165392
0.69,-0.169159695008128,-0.0277805547794099,27.9969305890875,1.41941765790453,0.152912153931952,-0.0774895787766693,-26.2661648083497,9.79446043222229,1.26453012749656,1034.90866369426,1083.94678165392
0.7,-0.234084311418287,-0.00276302401515902,31.5971299519659,0.086611827997475,0.130437892758104,0.194394072149094,-17.3671014668358,-26.3963995546893,2.56240091969884,1033.86335732989,1083.94678165392
0.71,-0.170436918995404,-0.0298432791053213,28.1553678007576,1.52030682645438,-0.0903637173876079,0.147559354987397,17.4847067504315,-22.1206034884656,-2.41877199371686,1034.92873481099,1083.94678165392
0.72,-0.095140606537964,0.0227603677766836,24.4878308401507,-1.11260517149881,-0.0753536308352426,-0.0623826872913275,21.4876425744023,11.7971592393345,-1.1141091338424,1036.02699561483,1083.94678165392
0.73,-0.13517516726977,-0.0107704949544062,26.3975012463141,0.487819354861284,0.0160636780432218,-0.134648756606576,-4.72081343460528,25.9765271021317,0.198249485661563,1036.62433942642,1083.94678165392
0.74,-0.244905958307098,0.0537228191491085,31.8338122494127,-2.64723235280362,0.247538939612564,0.0398690743199922,-31.932292022262,-0.853327408192487,1.51454600595522,1036.79722720059,1083.94678165392
0.75,-0.175929404387638,-0.0230242144396718,28.3288821869828,1.1749464196466,0.0749780414236784,0.160809088931634,-9.65853134649225,-26.6574349344009,2.83543590884906,1038.28482503211,1083.94678165392
0.76,-0.216503634312423,-0.0197104904251241,30.2492827222881,0.93158394757569,-0.174693044871888,0.12940118692143,25.355076416102,-16.5229250981152,-2.11755145565927,1038.26916353274,1083.94678165392
0.77,-0.20740506591331,-0.0300614578491687,29.6437926134847,1.55213868286192,0.194048212364055,0.0791570836554534,-26.344345330961,-13.6798773417454,2.10205417671012,1039.38244520378,1083.94678165392
0.78,-0.253653517085945,0.0244516960671015,32.0818887616084,-1.20463495642131,-0.0966600142164957,0.235785567459704,10.4179209560746,-30.3671805547276,-2.84864031703011,1039.61577670657,1083.94678165392
0.79,-0.185652667553588,-0.0436396412022477,28.9858570459554,2.13094475339168,-0.187807757702367,0.0331598763693861,29.059743923443,-0.502112870269101,-1.51468855891826,1039.40155254044,1083.94678165392
0.8,-0.172783306918877,0.0521663881882325,27.9286811606741,-2.56778645750398,0.0217234972380966,-0.179174476067811,2.26590266016506,27.9547928591966,-0.172562230853659,1041.02672237527,1083.94678165392
0.81,-0.237683249195661,-0.0706619398527707,31.5047573984134,3.55941250125489,0.191722058584748,-0.157254853483095,-27.6630804652786,15.4910663047608,1.17281822074023,1040.59710083012,1083.94678165392
0.82,-0.173322025864333,-0.0166208455365158,28.4994997491645,0.779932688243861,0.115074766050391,0.130669718659347,-17.3396232432797,-22.6311123617893,2.51517294652016,1040.07125302012,1083.94678165392
0.83,-0.325777169813474,0.0352785886186315,35.7110112917659,-1.74073036788666,-0.242019352084931,0.220911693676432,24.935332089356,-25.622952275018,-2.4185005632889,1041.47618014166,1083.94678165392
0.84,-0.120250773519252,0.0376673062426065,25.560544005741,-1.85818351149347,-0.0870049329815555,-0.0911549018343379,21.4691284672074,13.9953841923097,-1.06566740077714,1042.1988607343,1083.94678165392
0.85,-0.166753339584717,0.0420821353905841,28.1865829144007,-2.15681811064963,0.0873861140045332,-0.148125789317303,-10.0156617347664,26.435238617564,0.28579345373094,1041.57935198116,1083.94678165392
0.86,-0.234104952161124,0.0135921157347776,31.3207613881853,-0.67186677252221,0.232550269810469,0.0301702874959412,-31.1941268256847,-2.8927409975246,1.64181750913826,1042.38016468385,1083.94678165392
0.87,-0.152147405536791,0.113935802345463,27.333827718919,-5.67464572159136,-0.0912090306757248,0.166766641720926,1.74120384318054,-27.8623034045933,2.99930719032092,1042.89221078668,1083.94678165392
0.88,-0.126039294496797,0.0762676030122022,25.9523941142051,-3.86358649933114,-0.144481894969465,-0.0287686122798749,25.7162392417408,-5.20856027692785,-1.91841939280646,1043.85312546388,1083.94678165392
0.89,-0.2893132541586,-0.0832236461588809,33.7479961071676,4.14211954134729,-0.22116003416214,-0.20424635517242,21.0386571486819,26.7106589384168,-0.545039159304927,1044.86962448185,1083.94678165392
0.9,-0.175452006285032,-0.028006508953636,28.4002372306515,1.43635408640629,0.110429073184268,-0.13918761025636,-19.9674765885708,20.2468878226678,0.828982599546428,1044.59471618618,1083.94678165392
0.91,-0.136955533550792,-0.129924181548374,26.6872242499327,6.46530334077107,0.187218026580354,-0.0242182089460568,-25.3686644178801,-10.5089938199319,2.20121012857684,1044.19584332472,1083.94678165392
0.92,-0.259421930204109,0.0133185964110684,32.7862121191081,-0.728679085789049,-0.120597367179677,0.230072592697428,14.3742593859719,-29.4762166065121,-2.71009027983647,1044.04228630173,1083.94678165392
0.93,-0.133173682035292,-0.0401667180410957,26.4855431561749,2.05163036053054,-0.138871503345945,0.00795615381117077,26.232327826101,4.19024584455597,-1.33509063989649,1045.36675354956,1083.94678165392
0.94,-0.168575496637933,-0.022644208776382,28.2061987019121,1.09929978028691,-0.0149790381000942,-0.16942870676314,-0.180478304058809,28.2270354943705,0.0453477027230303,1045.97093014658,1083.94678165392
0.95,-0.221282858085671,-0.0289457960744219,30.5775340585191,1.37818090304723,0.215239132787608,-0.0589582743114442,-30.10119192824,5.55006452220838,1.43350509180882,1046.49372983857,1083.94678165392
0.96,-0.216345941694308,0.0765452275087087,30.3565144047823,-3.78927357198241,-0.00523599362419243,0.229428251775417,-5.86958343854941,-30.023733133456,2.82434616068428,1047.49271821991,1083.94678165392
0.97,-0.156405153153192,0.0701235770350621,27.3998551247003,-3.53608613457345,-0.170978923775956,0.0120870018400556,25.8198447128253,-9.82810180102326,-2.06284920368608,1047.97806875619,1083.94678165392
