t,iq,id,vq,vd,ia,ib,va,vb,theta_e,omega,r
0,0,0,0,0,0,0,0,0,0,0,0
0.01,0.000659573371760647,0.000377389077516217,-0.0325417795505396,-0.0188871245880179,0.000614012609200296,-0.000447714266365608,-0.0302644519619525,0.0223551747692094,-1.68112078898113,-0.000810534746512697,0
0.02,0.000746801682974258,0.000426857167035586,-0.0368894846914127,-0.0213628484833396,0.000695260975145468,-0.000506489852990761,-0.0343129880084641,0.0252947470841496,-1.68112702470148,-0.000897845376105103,0
0.03,0.000781170669441213,0.000446441413484481,-0.0385877052328479,-0.0223429855684625,0.000727261160325911,-0.000529744046828904,-0.0358927898621985,0.0264561455083264,-1.68113356828963,-0.000917911112717582,0
0.04,0.000763477889428887,0.000436428097013983,-0.0377270428940237,-0.0218418366837567,0.000710775316682107,-0.000517847874095748,-0.0350923819133568,0.0258634940967865,-1.68113985275063,-0.000873718759719055,0
0.05,0.000782196371276137,0.000447194624058852,-0.0386557503470799,-0.0223806704568607,0.000728191024277542,-0.000530614763445494,-0.0359559388490569,0.0265015453601718,-1.68114612356982,-0.000875151287981706,0
0.06,0.000783553863717442,0.000448044160058357,-0.0387311299179743,-0.0224231897121618,0.000729443422712953,-0.000531613129794347,-0.0360260135712333,0.0265523296107125,-1.68115229587097,-0.000855198246483562,0
0.07,0.000801847680883784,0.000458659291906707,-0.0396385091377811,-0.0229544418507998,0.000746453650922944,-0.000544182870379868,-0.0368692034152056,0.0271805012256194,-1.6811582497781,-0.000857210844439206,0
0.08,0.00078483839245172,0.000448947290911101,-0.03881092595788,-0.0224683856911979,0.000730614345310977,-0.000532660915318957,-0.0361000305662999,0.026606467679658,-1.68116417704475,-0.000815127164177061,0
0.09,0.000783309750224808,0.000448177789526495,-0.0387438320699855,-0.0224298696271322,0.000729176718398078,-0.00053173189594787,-0.036037435288784,0.0265610021039133,-1.68116989683223,-0.000793148802057761,0
0.1,0.000783040520966656,0.000448115382151246,-0.0387384177897371,-0.0224267571179758,0.000728913041027062,-0.000531644271874502,-0.0360322489077471,0.0265575128039328,-1.68117546545598,-0.000773277412076659,0
0.11,0.000782877386506396,0.000448108922299678,-0.0387380159937458,-0.0224264254300937,0.000728748726622877,-0.000531623835049934,-0.036031742008481,0.0265573343643056,-1.68118089092888,-0.000754040749617216,0
0.12,0.000782726436482645,0.000448106925016129,-0.0387380169783454,-0.0224263321420512,0.000728596105081863,-0.00053160907279294,-0.0360316128729437,0.0265574322278057,-1.68118617725728,-0.000735307492578365,0
0.13,0.000818282937250063,0.000468550165941694,-0.0404928391974057,-0.0234494589683037,0.000761681089351961,-0.000555849027634473,-0.0376628931247565,0.0277678525213292,-1.68119147793941,-0.000761219787546695,0
0.14,0.000846503709431804,0.000484951489344094,-0.0419419104508534,-0.0242702797174901,0.000787920135061521,-0.000575263711582344,-0.0390125635055033,0.0287435248110194,-1.68119666758662,-0.000778339004681825,0
0.15,0.000787481388716494,0.000451015555153987,-0.0389935625485897,-0.0225718979320252,0.00073299334595093,-0.000535035254312627,-0.0362691500755448,0.0267308295659179,-1.68120176053583,-0.000686593502976741,0
0.16,0.000782569660497249,0.000448331018243637,-0.0387588702034456,-0.0224375440733498,0.000728404772515545,-0.000531829354987794,-0.0360505632303365,0.0265716069191641,-1.68120652887018,-0.000663718225472837,0
0.17,0.000782050714114264,0.00044811745868618,-0.0387398626656522,-0.0224268542564985,0.000727910055976936,-0.000531563285633652,-0.0360327263212853,0.0265590546716401,-1.68121115919981,-0.000646825464117908,0
0.18,0.000781890934834444,0.000448099304355055,-0.0387383368301765,-0.0224259591332935,0.000727750852743961,-0.000531530918075517,-0.0360311886260117,0.0265581593792402,-1.68121566952589,-0.000630803576310954,0
0.19,0.000781763558851337,0.000448096632510587,-0.0387382405989071,-0.0224258179748688,0.000727622211122774,-0.000531517423887534,-0.0360309918243064,0.0265581668173376,-1.68122006409883,-0.000615228015606492,0
0.2,0.000781641887264551,0.000448095216434376,-0.0387382661880946,-0.022425739397151,0.000727499160790145,-0.000531505723362876,-0.0360309121979013,0.0265582458184973,-1.68122434598157,-0.000600054709627798,0
0.21,0.000781523086799782,0.000448093930460652,-0.0387382778542041,-0.0224256838341131,0.000727379008219667,-0.000531494387663792,-0.0360308191127259,0.026558342203593,-1.68122851807158,-0.000585270697320242,0
0.22,0.000781407545962437,0.000448092684801057,-0.0387382992067974,-0.0224256282806578,0.000727262147939921,-0.000531483372489742,-0.036030738494933,0.0265584358110065,-1.68123258318462,-0.000570865782064324,0
0.23,0.000781295129390239,0.000448091471589917,-0.0387383275024106,-0.0224255541093375,0.000727148444814103,-0.000531472657175286,-0.036030669597985,0.0265585079233695,-1.6812365440635,-0.000556830225986231,0
0.24,0.000781185409315281,0.00044809028945896,-0.0387383451043028,-0.0224254985773384,0.000727037472402846,-0.000531462195228013,-0.0360305907153576,0.0265585937234006,-1.68124040338146,-0.000543154556906987,0
0.25,0.000781078599621781,0.000448089137571792,-0.0387383664580353,-0.02242544305381,0.000726929441988672,-0.00053145201134909,-0.0360305181888268,0.0265586763796942,-1.68124416374208,-0.000529829546821449,0
0.26,0.000788592214053227,0.000452454120399648,-0.039112712810172,-0.0226438970595131,0.000733914199553339,-0.000536621243360688,-0.0363784072977549,0.0268171933634277,-1.68124780103209,-0.000526475102588154,0
0.27,0.000766853731786504,0.0004399868470005,-0.0380495087148641,-0.0220199500309336,0.00071368050891659,-0.000521836375390683,-0.0353903625895318,0.0260799836769275,-1.68125144934496,-0.000486466239813131,0
0.28,0.00076600689175619,0.000439533691415637,-0.0379605828828649,-0.0219972682236316,0.00071288696678869,-0.000521295114776896,-0.0353043882407832,0.0260477606149415,-1.68125492982524,-0.00047319679201531,0
0.29,0.000779479951893856,0.000447408625544194,-0.0386795657155076,-0.0223913793113352,0.000725408059105413,-0.000530609669531861,-0.0359754562981072,0.0265188464218816,-1.6812582690526,-0.000478347400662631,0
0.3,0.000773054457035723,0.000443841322241607,-0.0383680660184888,-0.0222128575524902,0.000719413371629146,-0.000526357970960029,-0.035685454689177,0.0263071825605296,-1.68126131753106,-0.000459610656807171,0
0.31,0.000779888784291639,0.000447747456261647,-0.0387084127125976,-0.0224083403137275,0.00072577373044196,-0.000530996038264908,-0.0360020919345822,0.0265391090031016,-1.68126451679412,-0.000456942330570336,0
0.32,0.000780361449898903,0.000448055416914018,-0.0387360383654889,-0.0224237462994095,0.000726207895769982,-0.000531356510485802,-0.0360277673937677,0.0265575797649839,-1.68126765684591,-0.000446518599753592,0
0.33,0.000780319969603337,0.00044807890426626,-0.0387382858940663,-0.0224249315614507,0.000726162452173693,-0.000531377504664334,-0.0360297892430428,0.0265591158860395,-1.68127071823462,-0.000435727470861671,0
0.34,0.000780238887799392,0.000448079921298334,-0.0387384769325535,-0.0224249721187795,0.000726080167423562,-0.000531371742172395,-0.0360298954182167,0.0265592847368747,-1.68127370127608,-0.000425161553060894,0
0.35,0.00078015654427067,0.000448079183175372,-0.0387384982146182,-0.0224249425317171,0.000725996862834484,-0.000531364040106169,-0.036029842636222,0.0265593623997993,-1.68127660784146,-0.00041486238035461,0
0.36,0.000780076063379198,0.000448078327229394,-0.0387385061510272,-0.0224249071262023,0.000725915462168146,-0.000531356371727192,-0.0360297792107127,0.026559430123014,-1.6812794398802,-0.000404826950820237,0
0.37,0.000779997775422632,0.000448077482383549,-0.0387385196881806,-0.0224248516704229,0.000725836278475631,-0.000531348903012024,-0.036029725491128,0.0265594759192644,-1.68128219930244,-0.000395048813115318,0
0.38,0.000779921369063822,0.00044807665830967,-0.0387385259652056,-0.0224248148134959,0.000725759000258711,-0.000531341610630886,-0.0360296643841312,0.0265595368510704,-1.68128488797013,-0.000385521395253075,0
0.39,0.000779846825347493,0.000448075855264221,-0.0387385266035837,-0.0224247765023281,0.000725683607682194,-0.000531334494096404,-0.0360295996641918,0.026559593231712,-1.68128750769727,-0.000376238270554358,0
0.4,0.000779774260692868,0.000448075072771689,-0.0387385299933457,-0.022424739646801,0.000725610215565181,-0.000531327567086364,-0.0360295393023783,0.0265596489421553,-1.6812900602518,-0.000367193175243619,0
0.41,0.000779703558682689,0.000448074310311739,-0.0387385327240062,-0.0224247027917371,0.000725538707339331,-0.000531320817525685,-0.0360294800237171,0.026559702222111,-1.68129254735624,-0.000358380006003566,0
0.42,0.000779634719316954,0.000448073567372672,-0.03873853725121,-0.022424665936765,0.000725469082166591,-0.000531314246150865,-0.036029424224365,0.0265597534024628,-1.68129497068845,-0.000349792815999139,0
0.43,0.000779567626180343,0.000448072843455821,-0.0387385400505101,-0.0224246290822103,0.000725401223524953,-0.000531307840841391,-0.0360293683579118,0.0265598021538112,-1.68129733188366,-0.000341425810878675,0
0.44,0.000779502279272854,0.000448072138074301,-0.0387385434411266,-0.0224245922278735,0.000725335130618791,-0.000531301602294093,-0.0360293146871414,0.026559848789129,-1.68129963253537,-0.000333273344862822,0
0.45,0.000779438620386828,0.000448071450754203,-0.0387385467182835,-0.0224245553734933,0.000725270744820513,-0.000531295524768463,-0.0360292624703886,0.0265598932863697,-1.68130187419571,-0.000325329916936511,0
0.46,0.000779376591314602,0.000448070781034171,-0.0387385491543145,-0.0224245185191063,0.000725208007522185,-0.000531289602506432,-0.0360292109442489,0.0265599356198354,-1.68130405837753,-0.000317590167136369,0
0.47,0.000779315919975074,0.000448070128463716,-0.0387385392142163,-0.0224245002450852,0.000725146647566852,-0.0005312838061438,-0.036029146555813,0.026559993037517,-1.68130618655447,-0.000310048872934395,0
0.48,0.000779257092323142,0.000448069492604601,-0.0387385433331441,-0.0224244633889141,0.00072508714722828,-0.000531278189899808,-0.0360290996392792,0.0265600315707178,-1.68130826016265,-0.000302700945713842,0
0.49,0.000779199661652139,0.000448068873029135,-0.0387385411082848,-0.0224244250779507,0.0007250290618265,-0.000531272705117995,-0.036029047990291,0.0265600660426176,-1.68131028060117,-0.000295541427335819,0
0.5,0.000779143646924588,0.000448068269320764,-0.0387385354887221,-0.0224244067973741,0.000724972409528037,-0.00053126735448187,-0.0360289921341223,0.0265601181816733,-1.68131224923348,-0.00028856548679312,0
0.51,4.70687047222424,0.0221893412575801,4.6574150825806,-1.10692094700469,-0.179047757336917,4.70351612198305,-1.30501163549766,4.60583693432396,0.0427626282416958,13.2274427759092,4060.76556182732
0.52,4.6762864078051,-0.0380914454452043,6.18770116333186,1.91434129045131,-0.941120728463009,4.58076383373953,0.682404542811273,6.44101485039243,0.194485515124249,28.1744248704357,4060.76556182732
0.53,4.68744008732124,0.0417582595730299,5.63110676167537,-2.07778128699855,-2.02741815517927,4.22651321404751,-4.3459236572622,4.13998623225201,0.456176691771347,43.267831824217,4060.76556182732
0.54,4.66716908492158,-0.029102024433981,6.64578167367168,1.47358572895236,-3.46359893753742,3.12838562120521,-3.90947997754185,5.57259681476076,0.829970656797936,58.8422293551321,4060.76556182732
0.55,4.68003080923053,-0.0535321410304332,6.00386012092195,2.69975198083479,-4.54868925441402,1.1022613720206,-5.15264591585966,4.0969790303824,1.32161616606181,75.5094811736977,4060.76556182732
0.56,4.65800641045976,0.0490218783422312,7.10628805195488,-2.43077736284679,-4.3669174664164,-1.62156057732908,-5.7653330123887,-4.81341289745084,1.93686803161465,92.0714533481057,4060.76556182732
0.57,4.64186866406682,0.0162433760631031,7.91430803329865,-0.784544493167367,-2.13161192040586,-4.12352266423929,-2.91152768695246,-7.40099913767081,2.66798473270862,107.261695564075,4060.76556182732
0.58,4.68472909925247,0.0378435794039764,5.77247894211841,-1.85888091057628,1.64976729047458,-4.38479038919366,3.81080240128974,-4.7174926004425,-2.77365066360642,122.5373038706,4060.76556182732
0.59,4.64550286008571,0.0335400728160907,7.73504746392685,-1.64485865004758,4.50054786231438,-1.15190741753255,7.9034812697318,-0.267400573739472,-1.81414569839261,139.228436945087,4060.76556182732
0.6,4.65619754084533,0.0413842402657654,7.20156460193948,-2.02936413156741,3.16082897130118,3.41921751412506,3.33898663616999,6.69567171670463,-0.73726207422631,154.406734927671,4060.76556182732
0.61,4.62161019417404,0.00673535844292616,8.93222645692177,-0.295846493401868,-2.0116730335237,4.16082897487271,-4.16585134711131,7.90682472166687,0.451800954253209,170.439036410865,4060.76556182732
0.62,4.68520494460263,0.0209114819705234,5.75384906063413,-0.997001737076577,-4.60571743331879,-0.859621769984061,-5.46411046815434,-2.06016704859099,1.75977886522392,186.028740419169,4060.76556182732
0.63,4.58542829747094,-0.0248653950648206,10.7440777862929,1.29229571921517,0.201611875839135,-4.5810614065563,-0.877158684134614,-10.7859087863129,-3.10303381868391,201.953845571633,4060.76556182732
0.64,4.62946605277274,0.00446855907586796,8.543563711509,-0.164533243455809,4.62941675256236,0.0218273427244191,8.54249132235242,0.21305888469903,-1.56511619634019,217.335799468575,4060.76556182732
0.65,4.64206280387844,0.0465759788091948,7.915085965868,-2.27458261998467,-0.356301539755949,4.62860298683321,-2.95264636398479,7.68792503810126,0.086859821942733,233.522159540514,4060.76556182732
0.66,4.67936873536035,0.03138405384678,6.05123341257751,-1.50054099932676,-4.50172502798749,-1.27747739420109,-5.39085434657436,-3.13173091407537,1.85400901975492,248.851486213525,4060.76556182732
0.67,4.64819667804685,0.0555241507902634,7.61126927323341,-2.7073912505674,2.5624351431075,-3.87849731551982,6.51208086298816,-4.78060562766051,-2.54580326114034,264.532592915098,4060.76556182732
0.68,4.62115564068602,0.00655015856260643,8.96481108663379,-0.258231778336767,2.41276790520983,3.94127814238107,4.44937167535035,7.7870156777141,-0.547909160068836,280.501271748299,4060.76556182732
0.69,4.62748526646654,0.0432547345001388,8.64977961282904,-2.09504222097752,-4.62713520332235,0.0714889753503773,-8.66240169938901,-2.04222576044218,1.56469469283902,296.298457807687,4060.76556182732
0.7,4.62303769758974,0.109004692899144,8.87365875074598,-5.38153753501367,2.71466817478255,-3.74365279870244,9.65807410240157,-3.79794292979394,-2.49061922160196,311.837571024188,4060.76556182732
0.71,4.6254554626324,0.0547553172283457,8.75431421475264,-2.6500194752449,0.734446987992061,4.56710236401485,-1.33366411915778,9.04886515575674,-0.147610077632857,327.341482078286,4060.76556182732
0.72,4.56948868998571,0.0356393757998753,11.5541627652503,-1.69023046242201,-3.39961994654045,-3.05353586389599,-7.39613135201579,-9.03619373661969,2.31041487657251,342.979914119556,4060.76556182732
0.73,4.60753481549413,0.05612724610081,9.6534186817664,-2.71103823965586,4.54993830838032,0.728415220652742,9.05160620125572,4.3135421360805,-1.39986895085795,358.647639611549,4060.76556182732
0.74,4.57387355727906,0.0262602300736663,11.338104958853,-1.21274233289499,-4.38457640989246,1.30249707234784,-11.2257031894201,2.0017382263936,1.28777714671724,374.306107290058,4060.76556182732
0.75,4.58336904833764,0.0279793433880513,10.864986558035,-1.29428057750859,3.70756451982983,-2.69481353867292,9.58209745001023,-5.28266065331711,-2.19320636323557,389.974940419075,4060.76556182732
0.76,4.62546074757776,0.0479500180066892,8.76212042396995,-2.29443416541383,-3.02657447369258,3.49814712194927,-7.52087204800673,5.04734247907557,0.723615029616014,405.695085395422,4060.76556182732
0.77,4.60865478105629,0.0520926318149271,9.60408719834712,-2.51076185111177,2.61074335022536,-3.7982142768012,7.58225261858557,-6.40717263809908,-2.52809714490351,421.469370457194,4060.76556182732
0.78,4.57039661953834,0.0275260673462612,11.5187214306319,-1.27571638833137,-2.62560849803411,3.74105105008233,-7.71360876644758,8.64919854657869,0.617980481540048,437.081816579236,4060.76556182732
0.79,4.61279541354392,0.0724904814039512,9.4004970556453,-3.51344583966157,3.04586319917568,-3.46494643090096,8.91868519849423,-4.60116299337363,-2.40475932177504,452.552469577492,4060.76556182732
0.8,4.62035833902597,0.0677096352898869,9.02411201999281,-3.26223266335422,-3.7727152204876,2.66812961469624,-9.28775014741507,2.41131849792292,0.969896497155949,468.055098986672,4060.76556182732
0.81,4.59797848343785,0.0808890469974817,10.1448931625588,-3.93913411308061,4.43088449986484,-1.23093936525691,10.8084323294955,1.27020684114235,-1.82418162304985,483.881372218176,4060.76556182732
0.82,4.61027280718034,0.0301888767441674,9.53201737673306,-1.38750741555355,-4.51661481270573,-0.925049922194875,-9.03815822263985,-3.33110012474629,1.77936109577336,499.359821442818,4060.76556182732
0.83,4.60212210663978,0.090310433181751,9.94135803935813,-4.38164641432382,3.32122279261273,3.18703043923238,3.94138251047696,10.1239779174479,-0.786392907823523,514.845794760554,4060.76556182732
0.84,4.56471214165387,0.0570466470687632,11.8137404226148,-2.73255139770826,-0.494943822040005,-4.53815842265654,1.58594855688141,-12.0214835643928,3.0454559774493,530.587838707634,4060.76556182732
0.85,4.5936396569941,0.0599387283301627,10.3692093901285,-2.85433522733357,-2.94204607940121,3.52838246454982,-8.91204497396586,6.02023150288561,0.708074587397694,545.962758286778,4060.76556182732
0.86,4.59149310797915,0.0950670690377327,10.4784260728719,-4.62734178189348,4.58965546848676,0.16096393641123,10.2042602795695,5.20411155509755,-1.51503758033596,561.708876120727,4060.76556182732
0.87,4.6289919039346,0.0871910956276745,8.60537192510821,-4.20923029999779,-2.226045334095,-4.05954313986226,-0.266463511932237,-9.57596172113636,2.6588517387089,577.129371828196,4060.76556182732
0.88,4.55197901248554,0.107971937023273,12.4579222004842,-5.25866810917399,-2.71987376453942,3.65163765648558,-11.8182119794297,6.57139874342022,0.663903734959138,592.722641087457,4060.76556182732
0.89,4.59203503459564,0.0939449834002286,10.4570854528542,-4.5662982204043,4.34071874575732,1.50125686978974,8.23024853011851,7.90346283210369,-1.21736402311833,608.375936204126,4060.76556182732
0.9,4.58289806274873,0.0967109326357504,10.9158798157121,-4.67562293656192,0.620662091332866,-4.54170521130771,6.32403858449559,-10.0510903875045,-2.98467614535395,623.746711511126,4060.76556182732
0.91,4.52923889516627,0.0550101952293769,13.60085130011,-2.59269120785879,-4.52082149410708,-0.281432246705326,-13.3708052795402,-3.59538175492268,1.6451135278477,639.264968500272,4060.76556182732
0.92,4.56298202157337,0.0943373308421989,11.9157194908473,-4.56763689732808,-0.386150123228581,4.54759194997999,-5.79567084464689,11.3691634376018,0.105381441873331,654.87688784801,4060.76556182732
0.93,4.52771115820193,0.133174453839799,13.6813208942041,-6.51763641873081,4.419838545141,0.99142876806538,11.6428773799459,9.70059442572956,-1.32073083082349,670.433059399649,4060.76556182732
0.94,4.54034826088082,0.0887854196930191,13.0515220403761,-4.29522018464669,2.13267763354494,-4.00928064522935,10.1053934976324,-9.30978873353358,-2.63317217783461,685.926553230241,4060.76556182732
0.95,4.50731657867607,0.0922943325606414,14.7052305229239,-4.4686545872359,3.71926053241626,-2.54784655665165,14.7486917454199,-4.32305104653427,-2.15093839620282,701.367305157892,4060.76556182732
0.96,4.51445453385507,0.165903395222097,14.3504582079295,-8.1406058072038,-0.592289120358646,-4.47850614297844,6.74633521829706,-15.0562968490986,3.04683706352015,716.81695378594,4060.76556182732
0.97,4.51305192750529,0.10283981671324,14.4227143568073,-4.98191376332832,-4.00144506767375,-2.08965334413397,-10.2228469209343,-11.3281752720568,2.0748484407969,732.295903746559,4060.76556182732
