t,iq,id,vq,vd,ia,ib,va,vb,theta_e,omega,r
0,0,0,0,0,0,0,0,0,0,0,0
0.01,0.000713879824476739,0.000404434598259398,-0.0344455547169754,-0.0202388543052136,0.000794370375789912,-0.00020534715515822,-0.0385172854546497,0.0106078359976406,-1.30831586938338,-0.0023321804292316,0
0.02,0.00081883279546271,0.000462675107759697,-0.0396585908393748,-0.0231533468125899,0.000910836507193764,-0.00023437632011103,-0.0443077989391039,0.0120706358225635,-1.30833376287796,-0.00255148855682078,0
0.03,0.000859030525280269,0.000485425238816804,-0.0416407976024859,-0.024291824533511,0.00095555583911851,-0.0002459352438553,-0.0465172790853894,0.0126566784991196,-1.30835216040365,-0.00254690535739483,0
0.04,0.000839213137377431,0.000474708839549196,-0.0407538832027965,-0.0237555470604643,0.000933632606850476,-0.000240743281772512,-0.0455213885100704,0.0123696483524936,-1.30836933568679,-0.00234778216356481,0
0.05,0.000859430299233652,0.000486588041725886,-0.0417761461730846,-0.0243500192782287,0.00095623525848351,-0.000246986825609082,-0.0466626628731398,0.0126793423138876,-1.30838595188828,-0.00228897761817839,0
0.06,0.000860711239633868,0.000487739119477776,-0.0418919352910218,-0.0244076244331194,0.000957767013292321,-0.00024778142575692,-0.0467892297203537,0.0127056819994575,-1.30840183706774,-0.00217144126620735,0
0.07,0.000878829080359319,0.000498611052367497,-0.0428077624606018,-0.024951672575561,0.000978081063427853,-0.000253596071326172,-0.0478146397518532,0.0129942570623261,-1.30841665910797,-0.00211926976670263,0
0.08,0.000861241197588807,0.000488901722506099,-0.0420175765650067,-0.0244658023726616,0.000958573142632053,-0.000248794744554909,-0.0469252899523991,0.01273064762758,-1.30843102366555,-0.00194928896605172,0
0.09,0.000858761639000963,0.000487956052126746,-0.0419453000320533,-0.0244184751445265,0.000955929831459326,-0.000248537358867604,-0.046843041472255,0.0127043137867195,-1.30844442505177,-0.00183803331541381,0
0.1,0.000857873270672929,0.000487861861347245,-0.0419463414581641,-0.0244137501124716,0.00095504429013533,-0.000248688858158484,-0.0468426613601851,0.0127000721641305,-1.30845705941448,-0.00173806943096936,0
0.11,0.000857183975292023,0.000487850516620739,-0.0419544436699573,-0.0244131836166928,0.000954372668525472,-0.000248868044626319,-0.0468501880280482,0.0126979825048906,-1.30846898434225,-0.00164422561781453,0
0.12,0.000856548347653644,0.000487847342136551,-0.0419628065706329,-0.0244130392223098,0.000953755159754817,-0.000249040551595413,-0.0468580844654249,0.0126962017779137,-1.30848024108035,-0.00155569229370097,0
0.13,0.000894211325787144,0.00050956989925876,-0.0437986795827042,-0.0255000799837557,0.000995759938820471,-0.000260264330319845,-0.0489128986300298,0.0132705222193687,-1.30849128749473,-0.00159890221810055,0
0.14,0.000921442103333006,0.0005256906732312,-0.0452828585869806,-0.0263068095256016,0.00102623668957099,-0.000268783352712545,-0.050555358127681,0.0136653310902693,-1.30850181650559,-0.00161063633185196,0
0.15,0.000861566675584627,0.000491517481108822,-0.0423110716245563,-0.024596684365387,0.000959545608619468,-0.000251314137470621,-0.0472416543703486,0.012784747011237,-1.30851185843308,-0.00133013823445398,0
0.16,0.000854965875007304,0.000488196098725207,-0.0420266280767782,-0.0244304860041097,0.000952307132972577,-0.000249826345142116,-0.0469237323190046,0.0126984038034409,-1.30852077760994,-0.00123927257624583,0
0.17,0.000853868177998551,0.000487871902700421,-0.042002967700166,-0.0244142679524902,0.000951160828450821,-0.000249805799099706,-0.0468965699640784,0.01268926715305,-1.30852913954205,-0.0011713806094743,0
0.18,0.000853359732392675,0.000487838954046056,-0.042005803179963,-0.0244126194810837,0.000950659255513421,-0.000249913300687889,-0.0468987810122311,0.0126873098129102,-1.30853702712743,-0.00110913075475822,0
0.19,0.000852934117819687,0.000487834379759061,-0.0420110696630552,-0.0244123851891382,0.000950245146716198,-0.000250026303732362,-0.0469037122254905,0.0126860673309462,-1.30854447225199,-0.00105055713576587,0
0.2,0.000852538072892322,0.000487832638547545,-0.0420163119637585,-0.0244122905760746,0.000949860433774335,-0.000250133974728037,-0.0469086616070857,0.0126849465287995,-1.30855150024871,-0.000995284170544797,0
0.21,0.000852164554337695,0.00048783124494192,-0.0420212736049052,-0.0244122279248894,0.000949497664246366,-0.000250235762435831,-0.046913353221906,0.0126839109548961,-1.30855813454067,-0.000943109517298454,0
0.22,0.000851812048750453,0.000487829953464608,-0.0420259588976567,-0.0244121681708736,0.000949155307535164,-0.000250331843902357,-0.046917783416013,0.0126829324447717,-1.30856439718807,-0.000893857819372775,0
0.23,0.000851479333766201,0.000487828736464366,-0.0420303813398204,-0.0244121084033363,0.000948832170888306,-0.000250422529814589,-0.0469219642047261,0.0126820056551546,-1.3085703090108,-0.00084736515259077,0
0.24,0.00085116530343938,0.000487827587661794,-0.0420345555689808,-0.0244120486217392,0.000948527179799246,-0.000250508120118023,-0.0469259094737257,0.0126811277044115,-1.3085758896617,-0.000803476941035129,0
0.25,0.000850868910028163,0.000487826503051243,-0.0420384955889646,-0.0244119859150161,0.00094823931681785,-0.000250588900736914,-0.0469296317563654,0.0126802930135815,-1.30858115769225,-0.000762047284918699,0
0.26,0.000858629760551263,0.000492407498393943,-0.0424257696491482,-0.0246412402629547,0.000956921137720949,-0.000253006218029804,-0.0473630328947896,0.0128015533052175,-1.30858604999155,-0.00075087830660705,0
0.27,0.000836624472919687,0.000479868720720985,-0.0413922234659597,-0.0240137612770379,0.00093241653809974,-0.000246604738990628,-0.0462020999833647,0.012463661229899,-1.30859097802521,-0.000638294779909391,0
0.28,0.000835876998490853,0.000479554087987421,-0.0412304467882019,-0.0239980210352457,0.000931611963042383,-0.000246498742852458,-0.0460417173183368,0.0124905973572608,-1.3085954100756,-0.000601747666552498,0
0.29,0.000848380241927898,0.000487019395399604,-0.0419824808097367,-0.0243716047487509,0.000945621915394133,-0.000250471793851856,-0.0468648325162916,0.0126566696326162,-1.30859945057108,-0.000613227922358545,0
0.3,0.000840212340963693,0.000482658927606122,-0.0416036243972467,-0.0241533893941273,0.000936602124461704,-0.000248380512036276,-0.0464423218988304,0.0125442623879184,-1.30860266808697,-0.000560786393881136,0
0.31,0.000848479972380171,0.000487319739826772,-0.0420109127631004,-0.024386624319361,0.000945794358356233,-0.00025074254536598,-0.046896098530754,0.0126641296375352,-1.30860634680605,-0.000560650926338526,0
0.32,0.000849151314733735,0.000487771856822871,-0.0420551435543824,-0.0244092672537601,0.000946559052663302,-0.000251008564482598,-0.0469446416557238,0.012674701063965,-1.30860989949593,-0.00053567222984736,0
0.33,0.000849051782889576,0.000487815156057001,-0.0420619187482541,-0.0244114272800989,0.000946473301015721,-0.000251079363889765,-0.0469517025622129,0.0126751890378716,-1.30861326140032,-0.000509537483009288,0
0.34,0.000848882398909519,0.000487818775371067,-0.0420647139651912,-0.0244115999606922,0.000946309846388993,-0.000251129766077516,-0.0469544067788338,0.0126747803792425,-1.30861643582156,-0.000484604013014362,0
0.35,0.000848714644458845,0.000487818572799611,-0.0420669748089057,-0.0244116008163047,0.000946147019371272,-0.000251175885430927,-0.0469565526043789,0.0126743359392087,-1.30861943250344,-0.000461040262560483,0
0.36,0.000848555679334459,0.000487818029946995,-0.0420690777660579,-0.02441156395516,0.000945992635045956,-0.000251219238337633,-0.0469585382936103,0.01267388812287,-1.30862226132425,-0.000438793741853751,0
0.37,0.000848405212522946,0.000487817483302729,-0.0420710400907389,-0.0244115414817804,0.000945846497237746,-0.000251260234249274,-0.0469603938960651,0.0126734832212637,-1.30862493167955,-0.000417793154062951,0
0.38,0.000848263302241894,0.000487816963920555,-0.0420728962071961,-0.0244115218924723,0.000945708668029941,-0.0002512988965993,-0.0469621495651546,0.0126731016167391,-1.3086274524454,-0.000397968960088912,0
0.39,0.000848129657443925,0.000487816473273765,-0.0420746614641136,-0.0244114820571271,0.00094557886462972,-0.000251335310290401,-0.0469638140238033,0.0126727173835299,-1.30862983200138,-0.000379255286374884,0
0.4,0.000848003113984752,0.000487816010047229,-0.0420763058734662,-0.0244114624230724,0.000945455960371315,-0.00025136978335629,-0.0469653686909956,0.0126723777291166,-1.30863207825783,-0.000361589925861621,0
0.41,0.000847883788275327,0.000487815572737099,-0.0420778619304313,-0.0244114427659734,0.000945340065447027,-0.000251402291329164,-0.0469668396149728,0.0126720550477914,-1.30863419868235,-0.000344914153808076,0
0.42,0.00084777109823904,0.000487815159897867,-0.042079325705986,-0.0244114230877341,0.000945230615545541,-0.000251432990418933,-0.0469682229118651,0.012671750689631,-1.30863620032353,-0.00032917253489993,0
0.43,0.000847664811040512,0.000487814770161244,-0.0420807093699966,-0.0244114004784696,0.00094512738377999,-0.000251461946013718,-0.0469695294970152,0.0126714590016844,-1.30863808983573,-0.000314312739206416,0
0.44,0.000847564461027901,0.000487814402236209,-0.0420820119060698,-0.02441138076033,0.000945029918513145,-0.000251489283552251,-0.0469707598178612,0.0126711861647285,-1.30863987349987,-0.000300285368240607,0
0.45,0.000847469757158195,0.000487814054903023,-0.0420832401201038,-0.0244113610236983,0.000944937936855139,-0.000251515082948623,-0.0469719196183588,0.0126709278824439,-1.30864155724556,-0.000287043790748416,0
0.46,0.000847380117360692,0.000487813727009992,-0.0420843847211454,-0.0244113614727637,0.000944850874930757,-0.000251539499284271,-0.0469730050900227,0.0126707063387962,-1.30864314667024,-0.000274543987693233,0
0.47,0.000847295716246751,0.00048781341747028,-0.0420854733890682,-0.0244113417000795,0.000944768899787863,-0.000251562491297409,-0.0469740324278567,0.0126704755809192,-1.30864464705785,-0.000262744405921102,0
0.48,0.000847216088160802,0.000487813125256956,-0.042086500699741,-0.0244113219115647,0.000944691560171434,-0.000251584183430344,-0.0469750015663453,0.0126702567638227,-1.30864606339532,-0.000251605820025803,0
0.49,0.000847140942064542,0.000487812849401304,-0.0420874687785066,-0.0244113021080735,0.00094461857356114,-0.00025160465465952,-0.0469759144986518,0.0126700495582597,-1.3086474003919,-0.00024109120195601,0
0.5,0.000847069695882959,0.00048781258898827,-0.0420883645625965,-0.0244112995761085,0.000944549376422254,-0.000251624059181587,-0.0469767630317618,0.0126698742537661,-1.30864866249181,-0.000231165597917495,0
0.51,4.6748340353268,-0.0231572631810322,6.25921932406856,1.16452830241085,-0.523099390037472,4.6455329667144,0.488286904927299,6.34787591343638,0.107176782035541,33.0545750453893,3348.39324561522
0.52,4.65200080216029,0.0491599924915629,7.40188128357337,-2.44811311525654,-2.13118772160295,4.13540409917224,-5.62427838743516,5.39894406174343,0.48642054436606,70.4730802009665,3348.39324561522
0.53,4.65589541206331,0.0410651739907437,7.20821447171012,-2.03562039354401,-4.21794162952177,1.97180547887825,-7.40236241161775,1.1433009157051,1.14232088754323,108.716935091577,3348.39324561522
0.54,4.67061963658136,0.0423917498999236,6.47321337064493,-2.09603720058853,-4.08325956297509,-2.26792332133417,-4.59584920018521,-5.01737315906484,2.08686711735456,149.6579418267,3348.39324561522
0.55,4.60802008230283,0.0327015766788441,9.60438642186572,-1.60835363055218,0.864719196530922,-4.52627652526604,3.44677053482308,-9.10773368197074,-2.94572646836752,190.711984163376,3348.39324561522
0.56,4.63558908619277,0.0481659215987595,8.22713858246788,-2.37148709048171,4.58322096669949,0.696485249261717,7.73984522957814,3.66122330616825,-1.40959592189763,228.217270515159,3348.39324561522
0.57,4.60823667551135,0.0354868502497394,9.59606575473528,-1.73714695303219,-1.79289905998509,4.24530535235961,-5.39637046959755,8.12289008053708,0.407303405362838,268.503869908515,3348.39324561522
0.58,4.58578900569495,0.0238529861971033,10.7197701105292,-1.14347329087061,-2.68592483334511,-3.71696617677956,-5.30298232483493,-9.38612704218401,2.52105286943648,307.27605577615,3348.39324561522
0.59,4.65904743848914,-0.0461030775529407,7.05826052388064,2.35771839009639,4.55389934809021,0.985316829915967,7.38883022622157,-0.884909892613401,-1.36760830613647,347.133308418023,3348.39324561522
0.6,4.66369182821288,0.025195484473429,6.8274965093572,-1.19308187167591,-4.50982455673999,1.18833444299254,-6.90920757357606,0.548637989065394,1.31855601161953,385.204608483559,3348.39324561522
0.61,4.58991915406496,-0.0332539382909123,10.5177142307281,1.72955853724264,4.20062322206672,-1.85019680345039,8.88581385398954,-5.88693447604582,-1.99293145817271,425.132828183163,3348.39324561522
0.62,4.6423932321907,0.0628737880948365,7.8955607589008,-3.07967934634115,-4.40626941868282,1.46306453907543,-8.45710415193289,-0.549266726767598,1.26375139717544,464.454258589718,3348.39324561522
0.63,4.59657205233281,0.0211440527006925,10.1882227059528,-0.976571737387946,4.57778198758541,0.415732819717521,10.0493245298731,1.94027079492751,-1.4756294958868,502.952892671781,3348.39324561522
0.64,4.62339364166948,0.051977777295686,8.84876130331762,-2.50517113822316,-3.31010632049033,-3.22826061559663,-4.49583013438186,-8.02271590159228,2.35491925386932,541.652175460125,3348.39324561522
0.65,4.56831326528478,0.0299579449958911,11.6044588022263,-1.39775107369517,-0.825019985536017,4.49329785254788,-3.54356194633975,11.1382377820298,0.188146305165097,580.599084521353,3348.39324561522
0.66,4.5976872171725,0.063222472914982,10.1375080519239,-3.05509641015547,4.5554991562644,-0.624621697755688,10.4348792820326,1.79331479321792,-1.69331035066865,619.568429040829,3348.39324561522
0.67,4.59266547811407,0.0779675179471901,10.3904393794319,-3.78703055155592,-0.755529606428787,-4.5307648517138,2.21063470115059,-10.8358629150675,2.99333251876477,658.600313554975,3348.39324561522
0.68,4.58755764036364,-0.0179729638677008,10.6476375333004,0.997130663634222,-4.55730240489764,-0.526310670044962,-10.6925530737825,-0.18911204417095,1.68185654947247,697.889958738965,3348.39324561522
0.69,4.5394710081273,0.0488409470266914,13.053853853078,-2.33819461303747,-2.72780048577695,3.62881343989048,-9.80930701920424,8.92455882769268,0.655350749755855,736.715639695574,3348.39324561522
0.7,4.57972119382873,0.0430625997767016,11.0432882546426,-2.02818233168933,0.441692277848017,4.55857527440241,-1.05885011006608,11.1779504154437,-0.087188486635149,775.025144934951,3348.39324561522
0.71,4.5517731695395,0.142413423057343,12.4426846125096,-6.98844436579234,2.48687378930203,3.81502022617039,0.494572516497446,14.262333366111,-0.546407114299513,813.805962965239,3348.39324561522
0.72,4.54426775746694,0.0321057305574808,12.8199638725877,-1.48184951942203,3.02356230476221,3.39256115917005,7.34861921722805,10.6087297681132,-0.720885273231164,852.782310257872,3348.39324561522
0.73,4.49816580705753,0.0748465732359271,15.1271600366612,-3.59426855774166,2.64849116546803,3.63656323796857,5.76066995054298,14.4417595521059,-0.612826825803854,890.98840212124,3348.39324561522
0.74,4.56960756460175,0.0924846012668583,11.5571731297121,-4.48998799003125,1.09222758870203,4.43811960073353,-1.84653556264742,12.2604465382237,-0.221069764254987,929.976148866912,3348.39324561522
0.75,4.50862563653927,0.0374192910822881,14.6084422229315,-1.73561576794809,-1.94026614646516,4.06994749532294,-7.95611901377717,12.3741309397182,0.453158228816006,968.471812901673,3348.39324561522
0.76,4.46179678345908,0.0753605461066957,16.9520576083706,-3.60699347165372,-4.39259684062737,0.786385875067544,-17.31041662884,-0.85564899231466,1.41053625297014,1006.76107361536,3348.39324561522
0.77,4.52920533483226,0.0506734524520897,13.583797095868,-2.37962606021249,-2.18070729610107,-3.96998544740255,-4.30789807835773,-13.1005411290769,2.65047582293658,1045.60330900951,3348.39324561522
0.78,4.54491429895719,0.0570270994869506,12.8006644438411,-2.70352745170994,3.86916280192261,-2.38517866986098,12.3697042334335,-4.26104307222344,-2.11068312302932,1084.20409657596,3348.39324561522
0.79,4.51952983700493,0.0690224091871179,14.0721841307177,-3.30364666858266,1.43063623603054,4.28767932577801,1.1002007152989,14.4128417012647,-0.306775600356266,1122.64045886797,3348.39324561522
0.8,4.48038310335532,0.0715249152779676,16.0318299157933,-3.42575500764469,-4.39833703511579,-0.856492785647478,-14.9769361499452,-6.66683968472258,1.77908315439666,1161.02632938212,3348.39324561522
0.81,4.48143282877616,0.0640340001687539,15.9817467521375,-3.04614613983091,3.74848342048286,-2.45687048872655,15.1235905436274,-5.99768660596469,-2.13669191628917,1199.39822920366,3348.39324561522
0.82,4.46867460611668,0.0716966866891591,16.6220864287266,-3.42499480211944,-2.12619184944442,3.93109416951444,-11.1273408760094,12.8143135464875,0.511845759618484,1237.78674577369,3348.39324561522
0.83,4.53068740768344,0.137643488779698,13.523895710456,-6.7116112185243,1.20652934554173,-4.36925177284296,10.4062173650952,-10.9385611707529,-2.84179509349209,1276.09263853396,3348.39324561522
0.84,4.50593294451597,0.118124751418407,14.76408529941,-5.71395044579687,-1.51376376317317,4.24569245549838,-10.6509702945681,11.7125691549508,0.368699512334646,1314.22824707387,3348.39324561522
0.85,4.47315590077813,0.0967963188244997,16.40546389272,-4.62254841899255,2.87021642850364,-3.43225157783516,14.2750308707209,-9.31293149664682,-2.42350020803235,1352.32232159953,3348.39324561522
0.86,4.47812055040587,0.111056754548273,16.1597582828099,-5.37666181794801,-2.18729232777102,-3.90917504591087,-2.78282911326172,-16.8018493681442,2.65625860820995,1390.90455521934,3348.39324561522
0.87,4.43407323328698,0.121501781069787,18.3647271483295,-5.87032520117667,-1.71817567340171,4.08945478961264,-12.9223795569525,14.3085997842632,0.425148660706713,1428.95063143495,3348.39324561522
0.88,4.43296676342997,0.154071570965831,18.422684270715,-7.48569152388588,4.43543821556299,0.0426639259568046,18.0726009330106,8.29529799617664,-1.52643587321374,1467.10811281824,3348.39324561522
0.89,4.45294062145589,0.161389084827331,17.4266841509551,-7.85576343551197,-0.412377347259677,-4.43674109435974,6.85999472647929,-17.8421638823477,3.08514032797545,1505.25066049655,3348.39324561522
0.9,4.42821222004906,0.0677479537587208,18.6658784689467,-3.19369521189747,-4.40371486641125,-0.470051727343796,-18.1404582870778,-5.43493157811334,1.69243149090414,1543.42520586341,3348.39324561522
0.91,4.47932918031025,0.12933628807951,16.1127630067014,-6.2167487087066,-2.34282911470287,3.81998292146623,-14.0203208698369,10.0846268609278,0.579013958373974,1581.24733206403,3348.39324561522
0.92,4.40575221305894,0.130964326104063,19.7943320351748,-6.32287849471611,1.23911028541325,4.22994207030885,-1.12023693007977,20.7494443876981,-0.255248256000294,1619.50817253766,3348.39324561522
0.93,4.39720369534116,0.0790562044988889,20.2246015086655,-3.74187165749361,3.24131277582343,2.97246391249339,12.079410609759,16.6470402476329,-0.810660966542078,1657.62950036913,3348.39324561522
0.94,4.36245698170047,0.116763952684105,21.9647898581279,-5.63323410717234,3.9170676322314,1.92386223580555,16.8312841183299,15.1951701190209,-1.0874956372112,1695.5976757179,3348.39324561522
0.95,4.38892172251794,0.12740591693194,20.6444449188541,-6.15836168885545,3.9427336424196,1.93228299661095,15.3969631851176,15.0682463934758,-1.08608959018213,1733.4818214071,3348.39324561522
0.96,4.36102903981315,0.0909601959333928,22.041975823648,-4.3228150745522,3.21075055376703,2.95261391394516,12.9181083783645,18.3754701791243,-0.806401639593204,1771.40949712963,3348.39324561522
0.97,4.3490924996921,0.0910871255796983,22.6418051326274,-4.33591900640122,1.15968304256211,4.19261704381861,1.37554172702676,23.0121580528892,-0.24891337702576,1809.31540352237,3348.39324561522
0.98,4.40573485626828,0.114361302952109,19.8126387478666,-5.49193001515229,-2.34223979998554,3.73329490540379,-15.5363182908537,13.4656883749061,0.586269186866703,1847.27399288692,3348.39324561522
