t,iq,id,vq,vd,ia,ib,va,vb,theta_e,omega,r
0,0,0,0,0,0,0,0,0,0,0,0
0.01,0.000701044782319547,0.000393708002392589,-0.0343098872810029,-0.0197105059644565,-0.000629106691994169,-0.000500694066325514,0.0311985052651175,0.0243377418803067,2.754727511725,-0.00269781929745276,0
0.02,0.000775603034218808,0.000436159501395744,-0.0381051186910456,-0.0218357714196536,-0.000696561581005258,-0.000553712146529819,0.0345991274537648,0.0270499789905311,2.75470792667981,-0.00273490078588948,0
0.03,0.000803569133190973,0.00045257557169372,-0.0395246118401641,-0.0226576361302677,-0.000722326945652775,-0.000573403682840564,0.0358963611840554,0.0280537817392076,2.7546889738613,-0.00258694331412449,0
0.04,0.000784641083671558,0.000443166273057424,-0.0386634025818622,-0.0221865620326533,-0.000706480438203052,-0.000559413412600474,0.0351356081254168,0.0274333970862718,2.75467242603995,-0.00227741150727249,0
0.05,0.000800598284182448,0.000452819118432604,-0.0394892413312062,-0.0226698203814029,-0.000721449808692243,-0.000570537413490023,0.0358951966927823,0.0280152778216776,2.75465692078597,-0.00212756768318055,0
0.06,0.000799764526184851,0.000453160191443954,-0.0394966000154501,-0.0226869003037177,-0.000721459077399349,-0.00056962641800682,0.035914185733803,0.0280151409285976,2.75464282051708,-0.00192745556931008,0
0.07,0.000820274342845156,0.000465521271044735,-0.0405328971370632,-0.0233057322951288,-0.000740653238631657,-0.000583945914815402,0.0368786864923817,0.028740831420343,2.75463030603933,-0.00183826294551544,0
0.08,0.000798035675059691,0.000453607970402335,-0.0394945453339754,-0.0227093083133543,-0.000721235047650282,-0.000567839004931325,0.0359348376067313,0.0280039147510892,2.75461868215794,-0.00158362621781147,0
0.09,0.000796089464798382,0.000453181896771147,-0.0394350593994824,-0.0226879836129619,-0.000720111826273075,-0.000566190096333136,0.0358929279805841,0.0279565060628708,2.75460839854089,-0.00143211271873553,0
0.1,0.000795052587161032,0.000453165009999585,-0.0394161275533687,-0.0226871339852011,-0.000719710099838995,-0.00056522961248427,0.0358852546953587,0.0279389630304193,2.7545991518937,-0.00129884390432869,0
0.11,0.000794147741433061,0.000453162863154486,-0.039400454795748,-0.0226870322944286,-0.000719371313431664,-0.000564386506905689,0.0358794778694324,0.0279241891602449,2.7545908316682,-0.00117904468088786,0
0.12,0.000793334630993245,0.000453161395186542,-0.0393864036840756,-0.0226869553324823,-0.000719067294862053,-0.000563628700724484,0.0358743124838631,0.0279109376630947,2.7545833448099,-0.00107124937851576,0
0.13,0.00083117253588519,0.000474811611065948,-0.0412448554457515,-0.0237708425992348,-0.000753401428757467,-0.000590491437329167,0.0375796693809199,0.0292225855775851,2.75457602724437,-0.00112663123372201,0
0.14,0.000870881860520175,0.000498363242149356,-0.0433150064091864,-0.02494993228599,-0.0007902025963456,-0.000618369624769339,0.039453085219191,0.0306943474925041,2.75456948097896,-0.00120055720341581,0
0.15,0.000794301948918586,0.000454767034415887,-0.0395005826338804,-0.0227673450575584,-0.000720930477890929,-0.000563904147613086,0.0359924064654391,0.027985616059193,2.75456346928061,-0.000798088437361614,0
0.16,0.000790781664462823,0.000453213924813883,-0.0393461393030778,-0.0226895806921479,-0.000718166230671727,-0.000561227019679703,0.0358622340642466,0.0278717763690061,2.75455869682188,-0.000716883799970667,0
0.17,0.000790199319580299,0.000453157831992091,-0.0393323681734008,-0.0226867768134169,-0.000717896878443574,-0.000560705856293576,0.0358545587001567,0.027859929086894,2.754554427565,-0.00065492152847566,0
0.18,0.000789777513854614,0.000453155119342062,-0.0393249246350541,-0.0226866398148194,-0.000717737308953267,-0.000560313518409842,0.0358517292648757,0.0278529501553801,2.75455058691423,-0.00059960466137468,0
0.19,0.000789402099723202,0.000453154378780115,-0.0393184258137871,-0.0226865987809194,-0.000717596857955361,-0.000559963673382109,0.0358493345170002,0.0278468236502641,2.75454713098364,-0.00054984571504698,0
0.2,0.000789064304205828,0.000453153772807558,-0.0393125768327863,-0.0226865808674172,-0.000717470534881551,-0.000559648862732992,0.0358471967870672,0.0278413026131477,2.75454402120176,-0.000505071325533589,0
0.21,0.00078876054370659,0.000453153229577001,-0.0393073220791556,-0.0226865426258431,-0.000717356940582348,-0.000559365769941919,0.0358452558254435,0.0278363506975534,2.75454122289678,-0.000464781578664228,0
0.22,0.000788486951238609,0.000453152740746199,-0.0393025791378973,-0.022686524590115,-0.000717254625664529,-0.000559110794639295,0.0358435189366476,0.0278318751633223,2.75453870487053,-0.000428527265300973,0
0.23,0.00078824094920022,0.000453152300808649,-0.0392983189675876,-0.0226865050420208,-0.00071716262819141,-0.000558881531677175,0.0358419558354724,0.0278278563060099,2.75453643905076,-0.00039590419426068,0
0.24,0.000788019510796002,0.00045315190487833,-0.0392944800069841,-0.0226864868978248,-0.000717079815586053,-0.000558675161761378,0.0358405466941285,0.0278242351098901,2.75453440017646,-0.00036654865925201,0
0.25,0.000787820249508887,0.000453151548557961,-0.0392910237980532,-0.0226864672515204,-0.0007170052959185,-0.00055848946017051,0.0358392749421895,0.0278209762422464,2.75453256551604,-0.000340133382943861,0
0.26,0.000795869428321747,0.000457734357734634,-0.0396864731287156,-0.0229158974441552,-0.000724288283253357,-0.000564212169250033,0.0362010465331231,0.0281005112938174,2.75453097529215,-0.00035144617557202,0
0.27,0.000768742204486535,0.000442405491140377,-0.0383776740789415,-0.0221484743018423,-0.000699854664690569,-0.000544876723544718,0.0349964114022015,0.0271781524496549,2.7545292490012,-0.000214501794121141,0
0.28,0.000765622149430122,0.000440475957926302,-0.0381154248090797,-0.0220518701753719,-0.000696890881792396,-0.000542714882865497,0.0348079990521468,0.0269717220175837,2.75452789331022,-0.000182613187827479,0
0.29,0.00078634659092059,0.000452699168125746,-0.0392387655273142,-0.0226638188328947,-0.000716033284522097,-0.000557291515573917,0.0357987337905537,0.027780929847485,2.75452689238916,-0.00025488361679193,0
0.3,0.000782114078417619,0.000450503014861642,-0.0390344184237163,-0.0225538737727843,-0.000712402067840929,-0.000554200948929572,0.035619793151236,0.0276331934401294,2.7545266663927,-0.000234121727487462,0
0.31,0.000786868948991247,0.000453055945362504,-0.039268279260588,-0.0226816733429369,-0.000716561537055266,-0.000557639665131432,0.0358264426412856,0.027801476029051,2.75452564885679,-0.000239714451401695,0
0.32,0.000786957371317428,0.000453146662894492,-0.0392757886353848,-0.0226862247515808,-0.000716679453847643,-0.00055768661701344,0.0358335185269964,0.0278066775502947,2.75452469241321,-0.000226744066741055,0
0.33,0.000786871440520016,0.000453149731915888,-0.0392745296844353,-0.022686367819104,-0.000716650339902908,-0.000557605266975244,0.0358331997634827,0.0278054268348395,2.75452383015291,-0.000214360962813452,0
0.34,0.000786787388664088,0.000453149696348379,-0.039273069060596,-0.0226863739472507,-0.00071661901205098,-0.000557526890677536,0.0358326756630675,0.0278040441507751,2.75452305419322,-0.000203190008051308,0
0.35,0.000786711485874369,0.00045314956474329,-0.0392717399991322,-0.0226863742328834,-0.000716590627907157,-0.00055745615256208,0.0358321936512634,0.0278027882870088,2.75452235595153,-0.000193136826393732,0
0.36,0.000786643482862872,0.000453149442768642,-0.0392705572568823,-0.0226863557426714,-0.000716565195591458,-0.00055739277630692,0.0358317475388511,0.0278016775116386,2.75452172764568,-0.000184090530260944,0
0.37,0.00078658201557304,0.000453149332880205,-0.0392694775534371,-0.022686355990647,-0.00071654220640717,-0.000557335492813678,0.0358313559223316,0.0278006573343412,2.75452116227143,-0.00017595031197735,0
0.38,0.000786526718295254,0.000453149233990095,-0.0392685049997635,-0.0226863562217583,-0.000716521524833267,-0.00055728395931403,0.0358310031615659,0.0277997384155465,2.75452065352522,-0.000168625420198942,0
0.39,0.000786476892537587,0.000453149145002045,-0.0392676248256847,-0.0226863564379197,-0.000716502889366647,-0.000557237525334493,0.0358306838408786,0.0277989068737256,2.75452019573501,-0.000162034191658584,0
0.4,0.000786432289003967,0.000453149064924687,-0.0392668427233726,-0.0226863364351964,-0.000716486207842705,-0.000557195956734538,0.0358303815418469,0.0277981754235539,2.75451978379754,-0.000156103142441377,0
0.41,0.000786392009302676,0.000453148992865894,-0.0392661301095191,-0.022686336626218,-0.00071647114288123,-0.000557158418628794,0.0358301230255569,0.0277975021768004,2.75451941311994,-0.000150766148797488,0
0.42,0.000786355804137643,0.000453148928023027,-0.0392654892055403,-0.022686336805999,-0.00071645760194617,-0.000557124677503089,0.0358298905353969,0.0277968966693605,2.75451907956954,-0.000145963709952681,0
0.43,0.00078632314963992,0.000453148869673712,-0.0392649070476693,-0.0226863369759875,-0.000716445388697447,-0.000557094245851069,0.0358296792826357,0.0277963467627246,2.7545187794278,-0.000141642284746872,0
0.44,0.000786293812978864,0.000453148817167446,-0.0392643838865931,-0.0226863371368263,-0.000716434416513778,-0.000557066905913158,0.0358294894556173,0.0277958525688511,2.75451850934836,-0.000137753694714884,0
0.45,0.000786267386700849,0.000453148769919601,-0.0392639100584911,-0.0226863372896398,-0.000716424532730163,-0.000557042278441589,0.0358293174912618,0.0277954050305251,2.75451826632001,-0.000134254586965694,0
0.46,0.000786243854341866,0.000453148727403581,-0.0392634943734306,-0.0226863186893886,-0.000716415732156975,-0.000557020346446899,0.0358291494323351,0.0277950192848345,2.75451804763389,-0.000131105950842134,0
0.47,0.000786222433922683,0.000453148689145315,-0.0392631064040276,-0.0226863188288934,-0.000716407720534401,-0.000557000384233376,0.0358290085799173,0.0277946529152714,2.75451785085134,-0.000128272683008449,0
0.48,0.00078620316718695,0.000453148654718712,-0.0392627560331136,-0.0226863189624078,-0.000716400514449719,-0.000556982429044532,0.0358288813667222,0.0277943220710499,2.75451767377854,-0.000125723196083934,0
0.49,0.000786185879511686,0.000453148623739861,-0.0392624415452618,-0.0226863190904189,-0.000716394048731908,-0.000556966317906566,0.0358287672005556,0.0277940250927388,2.75451751444171,-0.000123429066493042,0
0.5,0.000786170279858585,0.00045314859586367,-0.0392621547247186,-0.022686319213734,-0.000716388214191135,-0.000556951780169682,0.0358286630302862,0.0277937543084302,2.75451737106399,-0.000121364717574941,0
0.51,4.62809054792685,0.00983616317357214,8.59672152560946,-0.482602738008745,-0.846901564029283,4.54995347347207,-2.06534770930984,8.35887942437616,0.1861534425698,57.3970603532558,2438.60530396231
0.52,4.62018814297924,-2.95413650542864e-05,8.9933449754766,0.0242351073873193,-3.45711278081048,3.06504644306664,-6.71326542997675,5.98438872860373,0.845432484881296,122.767970701275,2438.60530396231
0.53,4.60725089793234,0.0353125428516672,9.64184953906926,-1.73261036669792,-4.21097149382823,-1.86968630800652,-8.06681510988055,-5.55820971175449,1.99631683784643,192.545957982522,2438.60530396231
0.54,4.5834011576553,0.0354592067164341,10.836128345207,-1.73574912053983,2.2858180866037,-3.97289053489928,6.97425546530755,-8.47314954594105,-2.61175615947803,262.704492251553,2438.60530396231
0.55,4.63267300884536,0.0353386937122606,8.37432690909634,-1.70625338486065,2.03786830162954,4.16052891053183,2.08821019223378,8.28734155123429,-0.447834362312571,328.562205897121,2438.60530396231
0.56,4.57910093070051,0.0341999365241772,11.0549329582715,-1.64739049211379,-3.66607675308218,-2.74394172855602,-7.80376612198141,-8.00166685502462,2.22078490041165,397.587658804784,2438.60530396231
0.57,4.5662226785687,0.0199937600587683,11.7009977654237,-0.935864009967388,3.59498141807372,2.81547472096999,8.60015766704026,7.98914752984643,-0.902024750171689,466.053859541103,2438.60530396231
0.58,4.52496031562761,0.0527627929084549,13.7663813812337,-2.57001809564904,-1.75671156544777,-4.17037339409102,-2.81589559274975,-13.7181989108,2.75457429014702,533.166573516323,2438.60530396231
0.59,4.5108255521292,0.0361509526773661,14.4754488027591,-1.72955203829328,-2.60146655115677,3.685271473899,-9.84739503545091,10.7498269432694,0.622694875967669,600.370843820855,2438.60530396231
0.6,4.53503004641894,0.0832479166305415,13.2676252014343,-4.07807061853157,3.89736067006242,2.32034642779834,9.12350486140694,10.4605065603607,-1.01543838686621,667.816842746292,2438.60530396231
0.61,4.49161106902829,0.0355153348562238,15.4411353485094,-1.67082983295295,3.71176244795222,-2.5295554677451,13.7581424354415,-7.20651440765761,-2.16108915101825,734.590858386228,2438.60530396231
0.62,4.44900017684312,0.117433446980911,17.5742967254053,-5.73922361637722,1.30827206406424,-4.25391788759598,11.0467586825948,-14.8244296929052,-2.81683876294202,800.707943530728,2438.60530396231
0.63,4.44747684030366,0.0862377752972243,17.6532212359066,-4.20482030302582,0.617201915627811,-4.40528648265592,6.93990032007091,-16.7676628464459,-2.98300605825492,868.304419687249,2438.60530396231
0.64,4.42277919722505,0.101249480763582,18.8909201064375,-4.90772944362293,1.96080624841604,-3.96566087064113,13.106725792796,-14.4625865512385,-2.65950915657653,934.143337069885,2438.60530396231
0.65,4.45819775704159,0.0226312997984284,17.1229288893961,-0.991154754404723,4.28104551889612,-1.24446321028816,16.7381991118983,-3.74296299593559,-1.84861512508846,1001.27450708592,2438.60530396231
0.66,4.40730344367124,0.0797431908120902,19.6706809460176,-3.85634978465015,2.37645579258333,3.71256521652811,7.01841224204441,18.776288561436,-0.551300861596382,1067.63492966567,2438.60530396231
0.67,4.34748985538272,0.118025024512805,22.6644479423086,-5.76139708415568,-4.06128839863407,1.55580670142124,-23.2911185703029,2.09635222112735,1.2321001039114,1133.62985026289,2438.60530396231
0.68,4.34525185734643,0.0955209892188085,22.7795479273126,-4.63123090582363,1.43635949599066,-4.10209816574779,12.3351683694926,-19.7027846958763,-2.78280277405643,1199.7216326917,2438.60530396231
0.69,4.31377813034844,0.0769722072595758,24.3565323009727,-3.69704488379087,0.209059820664911,4.30939676404325,-2.94931101616834,24.4583395006897,-0.0306330987729985,1265.83335986583,2438.60530396231
0.7,4.30990665938153,0.0790329669344008,24.5534481520254,-3.77127232543896,0.192601478410198,-4.30632631055264,5.31038502633035,-24.2671407870591,-3.07856174227199,1331.53093296599,2438.60530396231
0.71,4.37739910768503,0.134888788121371,21.1822954400757,-6.51095604464726,-2.49987069700998,3.59589549783547,-17.8501217793359,13.1322252946277,0.638303072883455,1396.75487236498,2438.60530396231
0.72,4.27585076666748,0.103083457906755,26.2632485325834,-4.98048283828427,4.25578894421992,0.426364210928107,25.4459655873901,8.18939974064314,-1.44684135290304,1462.89641084052,2438.60530396231
0.73,4.26326758606409,0.165954611067747,26.8960058979216,-8.04773927204707,0.217645754029355,-4.26094141816951,10.4310273246518,-26.0644376422022,-3.05165076360433,1527.83033799266,2438.60530396231
0.74,4.00104475288446,0.107632591233729,27.2661559459094,-5.17361062369994,-3.50305472380101,-1.93611763365128,-20.8770484821175,-18.2854683732089,2.10260021682629,1591.72882431491,2438.60530396231
0.75,3.77595004112212,0.0877584717893871,24.5569997442131,-4.21542940852089,-3.72235409258672,0.639984587176795,-24.9096060124135,-0.57237211832923,1.42376816024849,1651.28273602286,2438.60530396231
0.76,3.49658252227676,0.0724977371587956,25.4797763791717,-3.47186481610427,-3.18432049822448,1.44618402064601,-24.7825596143712,6.862768289403,1.16522106231306,1706.5403585771,2438.60530396231
0.77,3.18023504810295,0.0915669233605438,29.1063750690435,-4.44295430739071,-3.038064560668,0.944692112727343,-29.2274837262739,3.56021174479756,1.29810694779825,1758.04238704176,2438.60530396231
0.78,3.00485014922241,0.108665255692657,26.5012839954268,-5.30229795465808,2.52240434007294,1.63658452340778,18.6511381313185,19.5593318754172,-0.959104064194184,1806.03931554444,2438.60530396231
0.79,2.75513101612318,0.139088814081987,28.3542230234355,-6.81830442391591,0.472508566381741,2.71787201113344,-3.32593146419678,28.9722180437635,-0.121691213470494,1850.72136414115,2438.60530396231
0.8,2.54652721591586,0.0621039687661292,28.9001968353857,-2.93238633755515,-2.1542768417839,1.35931933455324,-26.3139617607981,12.3042953153756,1.03228665744289,1892.28615489654,2438.60530396231
0.81,2.34832391669034,0.0818384923731497,29.6385989785588,-3.90086319768319,-1.50496731643341,-1.80454873389471,-15.0976872647519,-25.8016108480578,2.48130531644205,1931.13538908795,2438.60530396231
0.82,2.17604840549169,0.0569762728097922,29.7019244514785,-2.75895854437025,1.87447631490631,-1.10669395207595,27.3033478554905,-12.0142983254525,-2.07795095398789,1967.44090224612,2438.60530396231
0.83,2.08109642411577,0.0758998219167334,26.4085804525782,-3.63454249233491,0.279274676154152,2.06366876331775,-1.03168154071551,26.6375421885622,-0.0980571209481398,2001.05611135852,2438.60530396231
0.84,1.92052870124345,0.0261800840231274,27.0139179630463,-1.24192763752605,-1.65068616754937,-0.982013780636753,-22.37631600357,-15.1853426065869,2.12109745902329,2032.66557688481,2438.60530396231
0.85,1.76849693914698,0.0584192062690151,27.6299388504297,-2.77751906750779,1.74005246736206,-0.321265681734816,27.7353674608268,-1.37022803276115,-1.7203489541545,2061.82124575775,2438.60530396231
0.86,1.59184516965335,0.0659189808770093,29.9920945450902,-3.2460953812108,-1.23546294441618,1.00595609703558,-25.9648260340966,15.3587330025835,0.928822875321377,2089.31163106345,2438.60530396231
0.87,1.46519231865181,0.0547910782038203,30.2680343104747,-2.59676622694448,0.818839362764755,-1.21626176905879,19.9286588996919,-22.9291441252657,-2.51167348768759,2114.63788767909,2438.60530396231
0.88,1.3852397391037,0.0733600409213483,28.6177595133101,-3.57783824276263,-0.613662975585966,1.24406132597676,-17.1200403100324,23.2095089529247,0.511161207116283,2138.38118207527,2438.60530396231
0.89,1.25429972314797,0.00160735911708076,29.9281981889421,-0.0526431714046555,0.665195869165036,-1.0633836724053,15.9489784458949,-25.3244921898243,-2.58131901152975,2160.54968680336,2438.60530396231
0.9,1.12937556893219,0.0852469416916358,31.2643901596014,-4.18366111038895,0.997468856507492,-0.536481217813188,30.2698074905432,-8.87151998384805,-1.98891911343483,2181.1231992351,2438.60530396231
0.91,1.08806846896628,0.0730316863489632,28.7361945351285,-3.54235592293357,-1.08080553202149,0.145210269338418,-28.9081269810244,-1.62399393301181,1.5042623054944,2200.33154196727,2438.60530396231
0.92,1.03304279814886,0.0331109085077709,27.2117777322635,-1.58227081855888,0.956301052557073,0.392125046315164,24.1868295742794,12.5690772707521,-1.14962098490477,2218.26243261225,2438.60530396231
0.93,0.968522471539159,0.0726751226524986,26.4769067576574,-3.60507579450175,-0.556495034278334,-0.79600925129827,-10.4033198215917,-24.6128848294438,2.60636352569268,2234.94478823431,2438.60530396231
0.94,0.799445604097273,0.0351169927435233,31.2227045246759,-1.76375604863777,-0.122087476939091,0.790848357818646,-7.84276523724544,30.273076267003,0.197064690597997,2250.47953603383,2438.60530396231
0.95,0.752200224652978,0.0379062595954682,30.1416952036544,-1.91850969359045,0.629129723219986,-0.414050545037261,26.9529423032315,-13.6286965771888,-2.10251592727154,2264.92594262332,2438.60530396231
0.96,0.627195568495217,0.0459335325554247,33.1645842285941,-2.33072438993063,-0.592979397603746,-0.209426847778781,-29.4467240059918,-15.4341299901315,1.98340473476055,2278.3911591498,2438.60530396231
0.97,0.563682324773654,0.100396429934825,33.3348431726997,-5.01734508499523,0.166292134554559,0.547872368705685,-1.04370058817669,33.6941569138129,-0.11842633118076,2290.92382764377,2438.60530396231
0.98,0.505835644968799,0.0335404811053586,33.4252031100272,-1.61708879555704,0.410507283491144,-0.297453246401013,29.1649533639874,-16.409286224444,-2.13163159969934,2302.59605058419,2438.60530396231
