t,iq,id,vq,vd,ia,ib,va,vb,theta_e,omega,r
0,0,0,0,0,0,0,0,0,0,0,0
0.01,0.00126719874946383,0.00071769639374088,-0.0616032556639136,-0.0359516270980639,0.00144705785311862,0.000164025467410038,-0.0709708354539312,-0.00711485167538749,-0.942606810459794,-0.00348194124633642,0
0.02,0.00140920426396257,0.000799958938189531,-0.0688947733528902,-0.0400724290547818,0.00161030216343329,0.000180880907786485,-0.0792922691413034,-0.00806383408309783,-0.942631930124668,-0.00359737339928062,0
0.03,0.00144688986780466,0.000821911584226957,-0.0708186492381297,-0.0411720843268484,0.00165369912532458,0.000185224579208535,-0.0814953196865045,-0.00830267890049909,-0.942656492563856,-0.0034107360815336,0
0.04,0.00142370755319535,0.000810084273955708,-0.0698232389723489,-0.0405796189439446,0.00162799549641491,0.000181136389465557,-0.0803419310590394,-0.00819538211006999,-0.942678025750768,-0.00308068045577639,0
0.05,0.00144373866301521,0.000821986762014125,-0.0708847570393979,-0.0411758757550409,0.00165120132362735,0.000183242333707846,-0.0815513885741615,-0.00833501927743138,-0.942698668858319,-0.00288936273068006,0
0.06,0.00144245052858155,0.00082208378995508,-0.0709204915035875,-0.0411807358772878,0.00165021950358923,0.000182375642797553,-0.0815833170641627,-0.0083505388636703,-0.942717614742126,-0.00265553444647516,0
0.07,0.00148136804334967,0.000844737065784599,-0.0728649460571151,-0.0423154819829555,0.00169502399051829,0.000186884086362227,-0.0838236017791939,-0.00857345695266751,-0.942734764069924,-0.00256254335507126,0
0.08,0.00144022167424681,0.000822270112223575,-0.0709839955306045,-0.0411900687669833,0.00164853148414245,0.000180860593324102,-0.0816404634429312,-0.00837759603592248,-0.942750753446676,-0.00224661178997283,0
0.09,0.0014387096937673,0.000822072758844999,-0.0709858825630853,-0.0411801860270382,0.00164719466538738,0.000180108128895859,-0.0816363046697663,-0.00838552349866766,-0.942765185519576,-0.00206692155673253,0
0.1,0.00143766838678462,0.000822067326971628,-0.0710037927875487,-0.0411798979327552,0.00164635122846835,0.000179479004217557,-0.0816507387478475,-0.00839520374380753,-0.942778364562695,-0.00190383684706422,0
0.11,0.00143672051786374,0.000822063868764684,-0.0710202947791758,-0.0411797285923457,0.00164558434060268,0.000178905083053152,-0.0816640937189701,-0.00840405345768068,-0.942790400820466,-0.00175490303810161,0
0.12,0.00143585495456479,0.000822060722444263,-0.0710353665030029,-0.0411795563879569,0.00164488403857768,0.000178381001135809,-0.0816762810689509,-0.00841215009795917,-0.942801393400097,-0.00161888353979965,0
0.13,0.00150289591997411,0.000860311142141831,-0.0742895498147679,-0.0430956586992077,0.00172160912369477,0.000186797839332065,-0.0854354402226171,-0.00877260305537026,-0.942812305327734,-0.00168487838618115,0
0.14,0.0016171802987167,0.000926868853292244,-0.0802181646509258,-0.0464297477595321,0.00185319516760338,0.000200064141045339,-0.0921918747930739,-0.00955686345591483,-0.942822037658077,-0.00190505563733301,0
0.15,0.00143523933475831,0.000822953862169637,-0.0711581531475617,-0.0412243146043383,0.00164491587607659,0.000177247758599557,-0.0818021880803104,-0.00844564380274374,-0.94283107060043,-0.00125676180938583,0
0.16,0.00143294510780268,0.00082205783920086,-0.0710870044262733,-0.041179434775183,0.00164253423818313,0.00017661271008452,-0.0817183089867239,-0.00843955111690657,-0.942838544026713,-0.00115923811063092,0
0.17,0.00143239214866801,0.000822048196109259,-0.0710955626651885,-0.0411789467475796,0.00164208230433369,0.000176284457869643,-0.0817250054254303,-0.0084444167432168,-0.942845362117761,-0.00107482518115353,0
0.18,0.00143190182136405,0.000822046345414861,-0.071104074395166,-0.0411788427851541,0.00164168552391811,0.000175987671708409,-0.0817318849333848,-0.00844899248157377,-0.942851588935324,-0.000997775597239182,0
0.19,0.00143145382575238,0.000822044714794117,-0.0711118334898794,-0.0411787729036173,0.0016413230307948,0.000175716467539753,-0.0817381708963246,-0.00845314253181929,-0.942857275817284,-0.000927407483652019,0
0.2,0.00143104471286,0.000822043225877156,-0.0711189166094083,-0.041178705867162,0.00164099199694212,0.000175468804597835,-0.0817439073818693,-0.00845693340015077,-0.942862469583022,-0.000863141074108952,0
0.21,0.00143067110663948,0.000822041865900201,-0.0711253821523765,-0.0411786387693038,0.00164068969102321,0.000175242638749462,-0.0817491402913105,-0.0084603982675783,-0.942867212991208,-0.000804447279025948,0
0.22,0.00143032998028907,0.000822040623706454,-0.0711312863005621,-0.0411785687031626,0.0016404136644858,0.000175036135999628,-0.0817539137026325,-0.00846356931301074,-0.94287154509299,-0.000750842890580599,0
0.23,0.00143001853984772,0.000822039489106563,-0.0711366787885473,-0.041178501493112,0.00164016165706653,0.00017484760406582,-0.0817582715789682,-0.00846646813629292,-0.942875501552586,-0.00070188660048208,0
0.24,0.0014297338314502,0.000822038452790224,-0.0711415850394004,-0.0411784683199226,0.00163993127898041,0.000174675261215483,-0.0817622530804825,-0.00846908178589896,-0.942879114943162,-0.000657175366783943,0
0.25,0.00142947419582159,0.00082203750625207,-0.0711460801172934,-0.0411783980951919,0.00163972118799302,0.000174518090327768,-0.0817658774376901,-0.00847150946331691,-0.942882415012147,-0.000616341095762189,0
0.26,0.00144170688208132,0.000828966305999211,-0.0717448789434489,-0.0415254921438838,0.00165369144945118,0.000176092192713536,-0.0824543867842343,-0.00854214565772487,-0.942885390874104,-0.000616426950653646,0
0.27,0.00138718252092986,0.000798233159873242,-0.0691589672972101,-0.0399859824380937,0.00159151340573613,0.000168927804865601,-0.0794573522861726,-0.00826865870786639,-0.942888377362947,-0.000418752298963907,0
0.28,0.00136490298984927,0.000784990603312224,-0.0677215489215695,-0.0393226267920396,0.0015657045654553,0.000166552192121216,-0.0779044400646613,-0.0079608658055614,-0.942890985044933,-0.000321135553513008,0
0.29,0.00142804046247732,0.000821715807770545,-0.0711316891112842,-0.0411623008373725,0.0016383737860789,0.000173918855510049,-0.0817448645503888,-0.00847521832694233,-0.942892982155644,-0.000483805304195221,0
0.3,0.00142517764448959,0.000820239365626878,-0.0710001637521788,-0.0410883202466023,0.00163518985429756,0.000173430319377029,-0.0815949746540613,-0.00845774347723097,-0.942893962273073,-0.000463430264739784,0
0.31,0.00142837572790514,0.000822018180655393,-0.0711629328128311,-0.0411774205035064,0.00163882324986853,0.000173866227562739,-0.0817790561550206,-0.00848109310408138,-0.942895960402049,-0.000448639017504114,0
0.32,0.0014282621075158,0.000822032959719604,-0.071166894351385,-0.0411781892492551,0.00163874030267351,0.00017378450743485,-0.0817827292795361,-0.00848264776227156,-0.942897799642344,-0.000425974163589119,0
0.33,0.00142813025243999,0.000822032609343445,-0.0711691691653185,-0.0411781615159171,0.00163863368311496,0.000173704580594198,-0.0817845681643745,-0.0084838691455883,-0.94289947953489,-0.000405188434597629,0
0.34,0.00142800957322743,0.000822032170207342,-0.0711712295186876,-0.0411781279327599,0.0016385360301028,0.00017363152979786,-0.0817862288255631,-0.00848498118684322,-0.942901013763241,-0.000386204249213341,0
0.35,0.00142789897867192,0.00082203176810904,-0.0711730872290617,-0.0411781283654757,0.0016384465367137,0.000173564591445556,-0.0817877443515615,-0.0084859575348246,-0.942902414956622,-0.000368866196850612,0
0.36,0.00142779832289436,0.000822031400856602,-0.0711747963362733,-0.0411780947263912,0.00163836508565779,0.000173503662646522,-0.0817891185744631,-0.00848688409359084,-0.942903694650434,-0.000353031546973369,0
0.37,0.00142770612195593,0.000822031065438439,-0.0711763386141514,-0.041178092192295,0.00163829047613376,0.000173447856791905,-0.0817903751207037,-0.00848769655018701,-0.942904863380545,-0.00033856993788425,0
0.38,0.00142762222998433,0.000822030759096337,-0.0711777578317118,-0.0411780585059672,0.00163822259017573,0.000173397074611613,-0.0817915129198332,-0.00848847021290836,-0.94290593076853,-0.000325362311633908,0
0.39,0.00142754527945676,0.000822030479310631,-0.0711790323344482,-0.0411780588351403,0.00163816032116389,0.000173350500371869,-0.0817925528037477,-0.0084891389047916,-0.94290690560212,-0.000313299933919782,0
0.4,0.00142747547373876,0.000822030223779042,-0.0711802149337318,-0.0411780251087698,0.00163810383373893,0.000173308242221007,-0.08179349759123,-0.00848978808122906,-0.942907795906188,-0.000302283498920346,0
0.41,0.00142741121248125,0.000822029990400222,-0.071181264584739,-0.0411780253984134,0.00163805183284365,0.000173269349719251,-0.0817943541156575,-0.00849033794365238,-0.942908609010661,-0.000292222311733073,0
0.42,0.0014273526555745,0.000822029777253684,-0.0711822248574292,-0.0411780256694592,0.00163800444792096,0.000173233907357879,-0.0817951377002124,-0.00849084108269242,-0.942909351609784,-0.000283033541716577,0
0.43,0.00142729922094189,0.000822029582586113,-0.0711830990645664,-0.0411780259238125,0.00163796120795701,0.000173201564588852,-0.0817958510786285,-0.00849129894308772,-0.942910029817335,-0.000274641540569293,0
0.44,0.00142725071922743,0.000822029404795385,-0.0711839074399689,-0.0411779921348355,0.00163792195974944,0.000173172202313273,-0.0817964906843333,-0.00849175049129498,-0.942910649216183,-0.00026697721954196,0
0.45,0.00142720601574394,0.000822029242418707,-0.0711846203706974,-0.0411779923617932,0.00163788578506232,0.000173145146792916,-0.0817970725759877,-0.0084921228362998,-0.942911214906318,-0.000259977480649979,0
0.46,0.00142716527038139,0.000822029094120175,-0.0711852705761863,-0.0411779925757628,0.00163785281331967,0.000173120485395716,-0.0817976032821068,-0.00849246235655508,-0.942911731544409,-0.000253584697206822,0
0.47,0.00142712801747848,0.000822028958678946,-0.071185857349975,-0.0411779927782636,0.00163782266770104,0.00017309793858828,-0.0817980822678805,-0.00849276828806542,-0.942912203383905,-0.000247746239407109,0
0.48,0.00142709441692486,0.000822028834980683,-0.0711864093773212,-0.0411779589452721,0.00163779547762439,0.000173077594826468,-0.0817985127935508,-0.00849308469858798,-0.942912634309537,-0.000242414041031766,0
0.49,0.001427063334034,0.000822028722007441,-0.071186888728542,-0.0411779591282562,0.00163777032484009,0.000173058782564174,-0.0817989041694454,-0.00849333394469098,-0.94291302786901,-0.000237544203741241,0
0.5,0.00142703504511086,0.00082202861882936,-0.0711873264670706,-0.0411779593020004,0.0016377474329725,0.000173041659553578,-0.0817992615742383,-0.00849356154483102,-0.94291338730195,-0.000233096635671358,0
0.51,4.64903715777891,-0.00493762038362258,7.54971487877916,0.255626447077368,-0.882891209863468,4.56443577959531,-1.17485429642666,7.46212148209024,0.190006665751122,58.2654872644084,3580.28691655187
0.52,4.54996329949038,-0.0498473227897926,12.5053118666528,2.51602634466579,-3.47184189370075,2.94125222438387,-7.80517874809459,10.0892218807791,0.856990413841151,123.841724682335,3580.28691655187
0.53,4.46266387556198,0.0137335637401368,16.8723536931971,-0.656830905609782,-4.03918419630538,-1.89751113444315,-14.9679383138268,-7.81463809913045,2.0130510196479,192.360984112058,3580.28691655187
0.54,4.50462950017905,0.0475262367964464,14.7762857243632,-2.35385535524915,2.31786279342753,-3.86283027687105,9.74146829594126,-11.3570704972993,-2.59059167655965,265.147877589408,3580.28691655187
0.55,4.42586772078056,0.0366544640593329,18.7166337346524,-1.78857277172524,1.77276482141568,4.05548437545182,5.70962221685856,17.9140052768118,-0.403816284336135,330.847206805294,3580.28691655187
0.56,4.48014960180497,-0.000308524471078431,16.005034886934,0.0547683833070387,-3.41945444934295,-2.89466264331602,-12.251867888075,-10.2983432920514,2.27320217444997,401.013089989781,3580.28691655187
0.57,4.43400435860439,0.123532192868261,18.3148365360476,-6.11585193408085,3.34590203467293,2.91214601783103,9.33270049561714,16.9037742436668,-0.826746216676487,466.893165499422,3580.28691655187
0.58,4.4288455712018,0.00646203187668692,18.5755050530331,-0.258058868866968,-1.26512488264932,-4.24431076650984,-5.03279995005907,-17.882586698175,2.85336150348286,536.016291265951,3580.28691655187
0.59,4.4963272742549,0.0102602309846849,15.2041878453319,-0.451658096666309,-3.04005077490871,3.31287722614728,-10.6374257876904,10.8727409462289,0.744761451331239,604.343090573236,3580.28691655187
0.6,4.43623095860624,0.0979090878375513,18.2119095062878,-4.84032808517412,3.44587215142169,2.79565670704293,10.7543923724834,15.4740256086131,-0.867132660483457,671.740894587024,3580.28691655187
0.61,4.28700587149439,0.0349802918292619,25.6760729321317,-1.6849760789922,3.91301657325915,-1.75155481228622,24.196021011815,-8.75513750884176,-1.98351205329883,739.188244326183,3580.28691655187
0.62,4.29470014566543,0.0388605075688573,25.2944341938621,-1.87030723711576,2.16012946859642,-3.71211532136712,14.527207138139,-20.7910245806798,-2.60553009522346,806.475277961341,3580.28691655187
0.63,4.32127951884496,0.0436667193018665,23.9686429063106,-2.08911877848623,1.66879786240447,-3.98628613584095,11.3975228092053,-21.1885991479971,-2.73502106764266,873.24119925364,3580.28691655187
0.64,4.30467348461042,0.0356787427564667,24.8022203729262,-1.65150442987222,2.96461705323533,-3.12130301468137,18.4170881246945,-16.693964996858,-2.37364626900306,939.487366011871,3580.28691655187
0.65,4.32132084694824,0.0495497217602083,23.9732668650155,-2.38901089704551,4.31864979411441,0.159790465896953,23.8294359434211,3.54723552443925,-1.52234726467137,1006.92834319003,3580.28691655187
0.66,4.29601143262379,0.131196373113354,25.2421695797218,-6.43878343104187,0.899755158642357,4.20278090935619,-1.80598289741092,25.98775640446,-0.180372438604391,1073.4148135339,3580.28691655187
0.67,4.25932670300775,0.0861881532895862,27.0799660958908,-4.21556720004551,-4.25313548409506,-0.245216057087989,-26.6702603178301,-6.30815227716262,1.64862032687215,1140.25048385689,3580.28691655187
0.68,4.17434526173384,0.0875855241456047,31.3326712404561,-4.21510894069442,3.0056723554572,-2.89806198688709,25.8683119634492,-18.1750891773905,-2.31699021891283,1206.04259925924,3580.28691655187
0.69,4.22561629096492,0.0266817173088161,28.7729160729059,-1.19013884882106,-1.95027406987129,3.74872991890512,-14.4926915523324,24.8849155390754,0.486029694045872,1272.70151401298,3580.28691655187
0.7,4.24716878685411,0.11865656882379,27.6990646748568,-5.8141561053381,2.41600857304718,-3.49505717554311,21.0691770653438,-18.8979462605949,-2.50882306683007,1339.18615831802,3580.28691655187
0.71,4.25018740702271,0.046428799881514,27.552039429478,-2.19744733167982,-4.03848930369168,1.32546322930542,-26.9328318893862,6.21017052238319,1.26458943386389,1405.23571537587,3580.28691655187
0.72,4.15033862434876,0.0790723908873536,32.5484334358827,-3.82916805015797,2.92127572668291,2.94918823889813,19.689573993643,26.1989259901107,-0.761593733304958,1471.1697877741,3580.28691655187
0.73,4.26729507570971,0.0543624102377609,26.7046218575145,-2.56398605002783,3.13296167878652,-2.89781187347943,21.5506727259235,-15.9774640690479,-2.30448395900451,1536.92025318813,3580.28691655187
0.74,4.13796786961926,0.167158582327014,33.1750299849602,-8.17351179018607,-1.07876501300978,-3.99837293512661,0.62906195302121,-34.1612820389777,2.91844065335603,1602.39766855733,3580.28691655187
0.75,4.08600054892097,0.148272931044003,35.7775181667413,-7.1841393301687,-3.03897107111355,-2.73533182206434,-20.7099538229229,-30.0456398956518,2.33993042461813,1667.95955709715,3580.28691655187
0.76,4.1152048943539,0.0651431598568977,34.3215637163458,-3.10940909489192,-3.26183983277836,-2.50989160305597,-24.9312647808097,-23.7922297669583,2.2424714951597,1733.97945077488,3580.28691655187
0.77,4.14282648691575,0.0705165757837267,32.9447806706715,-3.27666146054984,-2.10840437740517,-3.5668774676865,-13.4303418735144,-30.2608823553813,2.6247578971896,1798.83922045157,3580.28691655187
0.78,4.0626430263811,0.0090097552048134,36.9583459234815,-0.279560449542994,1.36224687189918,-3.82745777187584,12.7328457911071,-34.6968604560205,-2.79744103176354,1864.53455072531,3580.28691655187
0.79,4.00241790978246,0.0864555975973835,39.9739646307714,-4.10441690465044,3.98685075577048,0.36310431850319,39.261162270084,8.56301486811016,-1.45837394024007,1929.55199064616,3580.28691655187
0.8,4.04861393849629,0.0943601377418016,37.6685323210843,-4.44969152126072,-3.87769706958997,1.16775172664162,-37.4952743083325,5.72909123699843,1.30159133723738,1994.55281441397,3580.28691655187
0.81,3.96690435954927,0.105193132817856,41.7584710045855,-5.01871399683229,1.64682039477636,-3.61045404074774,22.839888516797,-35.317090528002,-2.68714492022802,2059.63103381091,3580.28691655187
0.82,3.98875106267176,0.0335492090470377,40.6705364024534,-1.43595611093586,-0.295243698805363,3.97795069699318,-4.78238333027896,40.4138999713971,0.0824949727283364,2124.46684110447,3580.28691655187
0.83,4.02873266792912,0.173274631904728,38.6757727097197,-8.41708822470235,0.57283975926985,-3.99156180183906,15.4067931078076,-36.4594774374172,-2.9560700036933,2189.27484582526,3580.28691655187
0.84,4.05184420663915,0.203573595450151,37.5245064865625,-9.89562214431723,-2.65343666831877,3.06890168152405,-33.0875966323956,20.2786309640235,0.763121268188504,2253.7940363574,3580.28691655187
0.85,3.8645275456372,0.108957464341052,46.8945666047634,-5.13975848632959,3.7769211716998,0.825415860515257,44.2744893753228,16.2876359518753,-1.32745036368723,2318.35574134628,3580.28691655187
0.86,3.84369846238279,0.12171011926242,47.9401397548779,-5.91636142722871,0.630087070890704,-3.79365542794164,15.1503828690142,-45.8663954456539,-2.94535113786414,2383.05050642449,3580.28691655187
0.87,4.0117626562729,0.19490334259028,39.5410498944071,-9.46103147266649,-3.3761974497325,-2.17566488771557,-26.6542730872506,-30.701066259481,2.19177858904575,2447.16885149124,3580.28691655187
0.88,3.847518347156,0.0970040792399655,47.7573043153938,-4.6766825934487,-3.83675027365908,0.303569696557857,-47.9395853102189,-2.1041948192225,1.51704602398662,2511.62248794349,3580.28691655187
0.89,3.84550080375076,0.138197087751526,47.8621455648866,-6.60050188194536,-3.68322055056996,1.11393951477172,-47.9634622812973,5.81875323059251,1.31302780191191,2575.47981915597,3580.28691655187
0.9,3.94467155168474,0.147014635754312,42.9074581639412,-7.13102818704959,-3.94565409456222,0.117731558476399,-42.8533466907911,-7.44930912861905,1.57821881964212,2639.69794342452,3580.28691655187
0.91,3.73977801479529,0.0907338446243526,48,-4.35827809879145,-2.82017884925865,-2.45779647015384,-32.4684709304166,-35.6201204858588,2.3118997881464,2703.52230724417,3580.28691655187
0.92,3.7717569973005,0.257886082274672,48,-12.5522230908014,1.12845998152368,-3.60821758604104,29.1156568766737,-40.1725880316548,-2.77021590060419,2766.99660642517,3580.28691655187
0.93,3.68228943168792,0.183388875368505,48,-8.81584113992972,0.769225348764259,3.60571481139981,-1.03535570421316,48.7918752823688,-0.160422393490774,2830.47252201646,3580.28691655187
0.94,3.76391713301242,0.152168153812835,48,-7.23756530202908,-3.5235704786656,-1.33217056456578,-41.3450166804148,-25.4356432432396,1.97266545978048,2894.05175981998,3580.28691655187
0.95,3.67807165228498,0.12741432309184,48,-6.12970990798754,3.62331390327,-0.645013059900045,48.3846986905437,-0.703047780299312,-1.71234049827733,2957.53563396737,3580.28691655187
0.96,3.75987381648929,0.156805913495593,48,-7.63764071846133,-3.63450616468028,0.975501998629397,-48.5082009683292,3.04762113138755,1.35025718336417,3020.97598508515,3580.28691655187
0.97,3.80321038926198,0.145459462436715,48,-6.96690791778555,3.77606149845362,0.476368848791389,46.2226023627076,14.6972390860977,-1.40707645182079,3083.95813896523,3580.28691655187
0.98,3.22194603751097,0.273944016148725,48,-13.3562634082973,-1.96872636135704,-2.56517019059442,-14.6470542567561,-47.6219862440813,2.57181593826467,3143.06321748969,3580.28691655187
