t,iq,id,vq,vd,ia,ib,va,vb,theta_e,omega,r
0,0,0,0,0,0,0,0,0,0,0,0
0.01,0.000616953911032708,0.000351781967998401,-0.030517117200104,-0.0176108278270916,0.000710189889775372,3.60580202272206e-06,-0.0352340131837101,3.73235692185253e-06,-1.04750596559653,-0.000833111991865998,0
0.02,0.000684269984884034,0.000390120260569161,-0.0338936149276879,-0.0195301007396315,0.000787656628229679,4.03310371781886e-06,-0.0391177904470207,-2.09358428823261e-05,-1.04751219686217,-0.000891544349688633,0
0.03,0.000710502186958824,0.000405114718093668,-0.0351978372704584,-0.0202807596002988,0.000817871676440353,4.14889937574021e-06,-0.0406226102625509,-2.22247536049228e-05,-1.04751857589209,-0.000891871010226835,0
0.04,0.000695051690334693,0.000396552721126744,-0.0344481246333169,-0.0198521178402696,0.000800210079586551,3.83945285496289e-06,-0.0397590181805012,-1.86230787338794e-05,-1.04752454293712,-0.00083643667626758,0
0.05,0.000710340695967622,0.000405363342519924,-0.0352124154579322,-0.0202931950757002,0.00081785608398656,3.84313581083888e-06,-0.0406414521822603,-1.82559442015763e-05,-1.04753044595773,-0.000824213880820285,0
0.06,0.000710675722495013,0.000405706837820107,-0.0352397454418609,-0.0203103910199067,0.000818317951002317,3.70835073440333e-06,-0.0406737183008719,-1.67860055979782e-05,-1.0475361514795,-0.000792268652378539,0
0.07,0.000729535868529818,0.000416661473250543,-0.0361790004292134,-0.0208587938315686,0.000840128633495642,3.63949771452313e-06,-0.0417613365879043,-1.08883733664911e-05,-1.04754156537098,-0.000787802205436683,0
0.08,0.000710915951014531,0.000406146359987489,-0.0352719088464083,-0.0203323996584441,0.000818745704757117,3.43890676714567e-06,-0.0407125760803799,-1.335811780891e-05,-1.04754687034459,-0.000731711426931915,0
0.09,0.000709900780685197,0.000405733098986663,-0.035231451925629,-0.0203117016474365,0.000817659875279642,3.28548146460257e-06,-0.040667189607035,-1.08659027611806e-05,-1.04755190172847,-0.000701713677315128,0
0.1,0.000709614824249507,0.00040571556276437,-0.0352265146223319,-0.0203108267775363,0.000817403431579172,3.15383995518704e-06,-0.0406624757796828,-8.96053360056881e-06,-1.04755672306121,-0.000673925950398991,0
0.11,0.000709368856802,0.000405713581742169,-0.0352231686534405,-0.0203107274810402,0.000817189397476187,3.02887159552061e-06,-0.0406595279012138,-7.18666911096386e-06,-1.04756134515219,-0.000647325677632578,0
0.12,0.000709134181652997,0.000405712263252289,-0.0352200162252453,-0.0203106602286024,0.000816985474231622,2.90912985129708e-06,-0.0406567636647724,-5.48954597156745e-06,-1.04756577631853,-0.000621825779736753,0
0.13,0.000742821744906694,0.000425049368825903,-0.0368877405556369,-0.0212787060445919,0.000855828359022648,2.98840059657798e-06,-0.0425850764261602,-1.01135914813005e-07,-1.04757019695261,-0.000643669692184468,0
0.14,0.000777662933262343,0.000445352940360624,-0.0386640945560155,-0.0222951516035763,0.000896153447417534,2.80676677236408e-06,-0.0446316697316419,-7.05893723117537e-06,-1.04757442868863,-0.000668194888529484,0
0.15,0.000711276309036342,0.00040726127612405,-0.0353497147334384,-0.0203882083905407,0.00081961505120487,2.6272923305518e-06,-0.0408078591245532,-2.60426693571292e-06,-1.04757852429401,-0.000552392335976121,0
0.16,0.000708376645363163,0.000405768266883986,-0.0352139613229094,-0.0203134706582197,0.00081635731387654,2.468640573603e-06,-0.0406529231645618,6.40269729398207e-07,-1.04758225422056,-0.000527161411985286,0
0.17,0.000708077338647545,0.000405708789276507,-0.0352059853926409,-0.0203104943883886,0.000816068338571287,2.36769590487526e-06,-0.040644527121872,2.19249259498372e-06,-1.04758582205367,-0.000506475958650469,0
0.18,0.000707891713379431,0.000405705501139325,-0.0352033284939661,-0.0203103292101633,0.000815905911171954,2.27500343762609e-06,-0.0406421431191474,3.51596932706907e-06,-1.04758924218529,-0.000486788003462092,0
0.19,0.000707717904342457,0.000405704453311322,-0.0352009852396218,-0.0203102746237917,0.000815754837717058,2.18639080094043e-06,-0.0406400860524996,4.77277024216183e-06,-1.04759252103095,-0.000467919124712804,0
0.2,0.000707551545887835,0.000405703531099022,-0.0351987517955685,-0.0203102244128898,0.000815610280046419,2.10150352879864e-06,-0.040638126285442,5.97297662303237e-06,-1.04759566443937,-0.000449829885971781,0
0.21,0.000707391862230821,0.000405702650118247,-0.03519660034027,-0.020310191077419,0.00081547152407231,2.02002241135417e-06,-0.0406362459648068,7.14154643634973e-06,-1.04759867800558,-0.00043248785446173,0
0.22,0.00070723894974348,0.000405701805570643,-0.0351945460903479,-0.0203101408818388,0.000815338650949335,1.94199527796886e-06,-0.0406344414163316,8.24187343404989e-06,-1.04760156709288,-0.000415862156561885,0
0.23,0.000707092188185596,0.000405700995836826,-0.0351925679992563,-0.0203101075527428,0.000815211122666274,1.86710933778396e-06,-0.0406327112612185,9.31389866232549e-06,-1.04760433684277,-0.00039992320288442,0
0.24,0.000706951732135301,0.000405700219480014,-0.0351906833510331,-0.0203100573692807,0.000815089072466421,1.79543896132645e-06,-0.0406310536234813,1.0319977758657e-05,-1.04760699218508,-0.000384642626632232,0
0.25,0.000706816903146312,0.000405699475127,-0.0351888674027976,-0.0203100240445207,0.000814971912029867,1.7266424205598e-06,-0.0406294639153462,1.13018697821023e-05,-1.04760953784507,-0.000369993232745547,0
0.26,0.000713918291118296,0.000409812416193523,-0.0355432448673201,-0.0205159262373161,0.000823178363770921,1.71005235886327e-06,-0.0410393143685272,1.26978134232375e-05,-1.04761195731078,-0.000366147334396932,0
0.27,0.00069025104439185,0.000396307840373263,-0.0343820451992104,-0.0198398655101027,0.000795929587796272,1.58110588405192e-06,-0.0396956577159808,7.35086436150223e-06,-1.04761437070139,-0.000319447520957972,0
0.28,0.000687641551662502,0.000394798696236928,-0.0342088888740203,-0.0197643147977918,0.000792915133480018,1.58278917022729e-06,-0.0395079157201944,2.85108277390846e-05,-1.04761662061973,-0.000303028741296525,0
0.29,0.000705563300055947,0.000405269912766783,-0.035144505857218,-0.0202885186336079,0.000813671387342437,1.46492322969399e-06,-0.0405802913855461,1.52104720193211e-05,-1.04761871273444,-0.000316124764118644,0
0.3,0.000701691299979073,0.000403176603274722,-0.0349571951911103,-0.0201837339552103,0.000809271433109837,1.34217987434528e-06,-0.0403656820124203,1.81018304728636e-05,-1.04762051138525,-0.000300509852117616,0
0.31,0.000705945681151224,0.000405596998552184,-0.035170491511542,-0.0203048983745281,0.000814166048327993,1.36956948913617e-06,-0.0406109849256348,1.65690440861628e-05,-1.04762248512296,-0.000295227451046802,0
0.32,0.000706022849238611,0.000405691265536197,-0.0351779012640188,-0.0203096125923015,0.00081427999556448,1.32491617789026e-06,-0.0406197588747216,1.70279155110239e-05,-1.04762439027744,-0.000284512056179033,0
0.33,0.000705933286916487,0.000405694445087066,-0.0351769498213848,-0.0203097808699849,0.000814204004143434,1.27592633645602e-06,-0.0406190187425661,1.77232642085759e-05,-1.04762621726591,-0.000274008499773781,0
0.34,0.000705840891314685,0.000405694078084884,-0.0351757156073119,-0.0203097548089468,0.000814123786197461,1.22865477838481e-06,-0.0406179365644016,1.83884820110641e-05,-1.04762796881012,-0.000263929381324088,0
0.35,0.000705751910879067,0.00040569359244859,-0.0351745120802588,-0.0203097382978789,0.000814046467088496,1.18325146726875e-06,-0.0406168857391869,1.90436979893155e-05,-1.04762964800537,-0.000254266208019372,0
0.36,0.000705666733018723,0.000405693121606968,-0.0351733642247738,-0.0203097049570581,0.000813972449093278,1.13979191700267e-06,-0.0406158747297585,1.9653699769407e-05,-1.04763125783959,-0.000245002167875505,0
0.37,0.000705584970332578,0.000405692669985002,-0.0351722581945854,-0.0203096884367271,0.000813901398860486,1.09807637694372e-06,-0.0406149083545906,2.02546713102408e-05,-1.0476328011776,-0.000236120789296546,0
0.38,0.000705506583690604,0.000405692236988188,-0.0351711973630103,-0.0203096719111115,0.000813833282216003,1.05808354845018e-06,-0.0406139811293671,2.08304639696955e-05,-1.0476342807663,-0.00022760626660668,0
0.39,0.000705431650377303,0.000405691821856327,-0.0351701906965361,-0.0203096385613398,0.000813768165745035,1.01985053422367e-06,-0.0406130924183584,2.13621359407973e-05,-1.04763569923871,-0.000219443446413282,0
0.4,0.000705359550162227,0.000405691423853624,-0.0351692120694938,-0.0203096220271545,0.000813705511825164,9.83066013627968e-07,-0.0406122363976176,2.18919832258233e-05,-1.04763705911934,-0.000211617801226862,0
0.41,0.000705290534953018,0.000405691042274071,-0.0351682788036801,-0.0203096054875726,0.000813645538332048,9.47854465434229e-07,-0.0406114196680444,2.23968790170059e-05,-1.04763836282863,-0.000204115403633466,0
0.42,0.000705224313709697,0.000405690676440473,-0.0351673808000674,-0.0203095874881136,0.000813587992829057,9.14069159730973e-07,-0.0406106327548303,2.28807035239434e-05,-1.04763961268641,-0.000196922901506363,0
0.43,0.000705160828227938,0.000405690325703759,-0.0351665194990134,-0.0203095709389866,0.000813532824585186,8.81679750576946e-07,-0.0406098783597651,2.33453486698579e-05,-1.04764081091751,-0.000190027494245259,0
0.44,0.00070510002029842,0.000405689989441658,-0.0351656961128196,-0.0203095543850911,0.000813479982877557,8.50655943230281e-07,-0.0406091568060943,2.37890351107752e-05,-1.04764195965406,-0.000183416909992894,0
0.45,0.00070504171529816,0.00040568966705703,-0.0351649058621914,-0.0203095378267846,0.000813429316151861,8.20909331766199e-07,-0.0406084639540237,2.42142342121131e-05,-1.04764306094076,-0.000177079383796117,0
0.46,0.000704985855019496,0.000405689357977864,-0.0351641496521243,-0.0203095212639334,0.000813380773709887,7.9240972193802e-07,-0.0406078005875043,2.46205734855121e-05,-1.04764411673737,-0.000171003636666583,0
0.47,0.000704932264839448,0.000405689061655524,-0.0351634223958704,-0.0203095046969111,0.000813334204019688,7.65068803431225e-07,-0.0406071623003945,2.50106711497146e-05,-1.0476451289231,-0.000165178855509,0
0.48,0.000704880886550353,0.000405688777563496,-0.0351627246680238,-0.0203094881257841,0.000813289556404166,7.38856474086658e-07,-0.0406065495905186,2.53843134912501e-05,-1.04764609929922,-0.000159594673874764,0
0.49,0.00070483172015221,0.000405688505197812,-0.0351620598112691,-0.020309471550346,0.000813246830619241,7.13771754657039e-07,-0.0406059653534194,2.57399005749934e-05,-1.04764702959289,-0.000154241153514688,0
0.5,0.000704784339116315,0.000405688244074556,-0.0351614097165199,-0.0203094717745836,0.000813205656949653,6.89600609654303e-07,-0.0406054022975758,2.61011037113491e-05,-1.04764792145955,-0.000149108766689869,0
0.51,4.65339653109548,-0.00622592966662355,7.33137070846645,0.317038491626542,-0.28666197439054,4.6445627297142,-0.125379268247898,7.33715134839307,0.0603037821147861,18.6615379087876,4336.00167643229
0.52,4.66295503592344,0.0258074139893665,6.85477614460407,-1.28023724638462,-1.23982553875285,4.49518056624167,-3.09137373068888,6.25062971682615,0.274655634199976,39.8493665515201,4336.00167643229
0.53,4.68095832082703,-0.00708253423381122,5.95598967812869,0.373689662242196,-2.82199400410892,3.73467144530604,-3.28498383836905,4.98220214275739,0.645575432768184,61.4802193244573,4336.00167643229
0.54,4.64249949277786,0.0735651374813224,7.88038205776526,-3.65745162559426,-4.26372502867145,1.83816817777264,-8.67961404322038,-0.376395843019359,1.17959989015618,84.5886513963383,4336.00167643229
0.55,4.59703450141992,0.0406064798003993,10.1551545639848,-2.00591824037432,-4.38153476973144,-1.3915919499197,-9.02713285380385,-5.06574226005062,1.88715707145001,108.012710672291,4336.00167643229
0.56,4.61509244491009,0.0498578425188541,9.25378992545597,-2.45871407811403,-1.77546534968907,-4.26019798502139,-1.18772917937767,-9.50090534101048,2.75752775850299,129.308943318201,4336.00167643229
0.57,4.62659337737835,0.0130054266722458,8.6803929312107,-0.60936557670468,2.76799878627002,-3.70725210094105,5.70006840759888,-6.57493482819248,-2.49743162241641,151.808137211561,4336.00167643229
0.58,4.6385731538531,-0.000534090646517216,8.08302396714572,0.0746746096053868,4.46996120721421,1.23927720664087,7.8093972818737,2.0866640469025,-1.30045871457919,174.156124265196,4336.00167643229
0.59,4.57001486065167,-0.00495552615601302,11.5127092423181,0.29934069844634,-0.256997910804551,4.56278560285914,-0.336075118487034,11.5116954644673,0.0551809771623686,196.314218868548,4336.00167643229
0.6,4.63395380718534,0.0148398874196617,8.31751013519758,-0.679357766745853,-4.63396076128801,-0.0124808745342375,-8.31336027290671,-0.728383688181468,1.57669208308678,218.250164605855,4336.00167643229
0.61,4.60642194300957,0.0534166974391082,9.69588917924299,-2.61389527140464,0.486760482803009,-4.5809432099718,3.73210994935976,-9.32277162607358,-3.02413655868541,240.963757433011,4336.00167643229
0.62,4.59483918419932,0.0184486380716439,10.2768713008656,-0.85595620244771,4.25440613185146,1.73577531557655,9.17318580332865,4.71162466381539,-1.1794019335092,262.851245169005,4336.00167643229
0.63,4.60615719020494,0.053792822726582,9.71287566963659,-2.60672639768219,-3.35806670711696,3.15324685351563,-8.91979586201074,4.64459019357442,0.828521719738011,284.643726314828,4336.00167643229
0.64,4.5691132541065,0.0290414633729661,11.5670154871808,-1.36457036024436,-0.680593779773418,-4.51823322133555,-0.299587901464792,-11.6433735076237,2.99843991578651,306.811944794069,4336.00167643229
0.65,4.58115918911615,0.0636759084016663,10.9666833456517,-3.09461076556316,3.77139391076571,2.60147306485641,7.1475451646256,8.87453421390503,-0.953056419913487,328.992914586987,4336.00167643229
0.66,4.57087883636956,0.0377461143506528,11.4827285861022,-1.79098199771335,-4.56762138922982,0.17661526143002,-11.5318457788906,-1.44125127236869,1.54040655694038,351.075468181189,4336.00167643229
0.67,4.54451359821041,0.0496225556891039,12.8031083386627,-2.37791969615039,3.9259982960244,-2.28945487441136,12.3050750891806,-4.26136272364845,-2.08781689265721,373.052358786803,4336.00167643229
0.68,4.52419750157641,0.0556646837645454,13.8210527459984,-2.67087598709813,-2.97039649151534,3.41294686062971,-11.1941753529503,8.53495844826016,0.728483138756399,395.01473220204,4336.00167643229
0.69,4.51182169353684,0.0942671595750557,14.4420629441168,-4.59687235605441,2.33381541887938,-3.86247678080333,11.6092540387906,-9.74318419216807,-2.5771800252013,417.11408453212,4336.00167643229
0.7,4.52941510536391,0.042862191755586,13.5646302453574,-2.04274154567911,-2.37624264071584,3.8562817942449,-8.9538444151922,10.3923364506852,0.561709313606127,439.340562671874,4336.00167643229
0.71,4.52910286906516,0.103130824298341,13.5825355293355,-5.04103739232533,2.90861666573606,-3.47323449500566,12.7454610606118,-6.8884360887586,-2.42167039326983,461.088351009797,4336.00167643229
0.72,4.52374588573034,0.0300328679134516,13.8527004469716,-1.36119184574807,-3.88256592968425,2.32182269208317,-12.6267916180784,5.85783973390211,1.03847839586974,482.885223179995,4336.00167643229
0.73,4.49167506877445,0.0910367985787766,15.4586295741235,-4.43672223455021,4.48060643562795,-0.328022241859992,15.6712866444273,3.6144857732064,-1.62361017470249,505.045722044435,4336.00167643229
0.74,4.47806800763976,0.0556149980464318,16.1413399304867,-2.63168192408428,-3.75923347626587,-2.4339987222627,-11.9816131392072,-11.1314667085454,2.15781117770889,526.66861440002,4336.00167643229
0.75,4.46024275103936,0.0568157756629335,17.0350315044877,-2.71062242930902,0.868706035137242,4.3751963676022,0.43926138102642,17.243747323372,-0.183265734226204,548.774403164072,4336.00167643229
0.76,4.48323646944798,0.0708325482469567,15.887806366008,-3.4055137413345,3.0935351598577,-3.24568432007855,13.5696170036679,-8.93786380182359,-2.36439301981108,570.564988713028,4336.00167643229
0.77,4.48832824169319,0.0937728929555606,15.6357092922312,-4.5278021860649,-4.28010310471387,-1.35447450092374,-13.3493238087025,-9.31514635192108,1.89817290368592,592.265607564138,4336.00167643229
0.78,4.46851243752181,0.106248330679031,16.6290751041469,-5.16435247763069,-0.0609659379638256,4.46935960361967,-5.78273134334826,16.4242714767878,0.0374126555342421,614.215426531485,4336.00167643229
0.79,4.4510578392132,0.0572676395535955,17.5043602117578,-2.7201945190733,4.42659413582671,-0.469531497586587,17.6811247728952,1.08623727144536,-1.66360642787911,636.117747454488,4336.00167643229
0.8,4.462858835091,0.0920233464909775,16.916922504136,-4.45962965119872,-0.373824935370991,-4.44812681877935,3.38182384749305,-17.1649011386993,3.07836559552131,657.900045770785,4336.00167643229
0.81,4.46283196074926,0.0956458082565268,16.920932349554,-4.63697000406585,-4.43948326845581,-0.465838533853759,-16.2042356838543,-6.72623135930453,1.696772898871,679.633567722576,4336.00167643229
0.82,4.4264038593087,0.0674271049351103,18.7450308919393,-3.22128804324588,-1.9629883757909,3.96790551509139,-11.432075221384,15.2006755090008,0.474643645037229,701.379238050965,4336.00167643229
0.83,4.41867389159724,0.0856987918846875,19.134294271009,-4.13067240594619,2.52306739756608,3.628519553558,7.18049510516577,18.2105508378935,-0.588201684143766,723.105103962363,4336.00167643229
0.84,4.46463561916325,0.0924694535251311,16.8390103685391,-4.45537892368793,4.45804623730451,0.259510226757241,16.4357214347932,5.76799206512017,-1.49194172198635,744.771924743041,4336.00167643229
0.85,4.41338079506037,0.142376391125087,19.404595891697,-6.93358170663954,3.38228835319047,-2.83871917857854,19.5417430134609,-6.53706180164771,-2.23679046987738,766.342664703899,4336.00167643229
0.86,4.41455437982619,0.104611190249909,19.3487724865019,-5.01773487366261,1.2838241699947,-4.22504785465272,10.8274363495202,-16.8023594204466,-2.8229056515545,787.924917210773,4336.00167643229
0.87,4.3840679924803,0.0783445835341907,20.8760458869247,-3.74819150008788,3.49102409432536,-2.65310022601846,19.0581806587618,-9.30827488701927,-2.20278420584384,809.725075813339,4336.00167643229
0.88,4.43199391510867,0.0814613216058524,18.4826659034061,-3.87019228577858,2.68840803839631,-3.5244387112793,14.5111990496584,-12.0835602935155,-2.47157759559388,831.279021083854,4336.00167643229
0.89,4.35329922142613,0.125404327672896,22.4203477273698,-6.04582741891659,2.20481435790281,-3.75576010999825,17.0260678083631,-15.7904096330818,-2.58195177891795,852.872279199916,4336.00167643229
0.9,4.39922211220181,0.136071063960621,20.1272319960604,-6.5997433859458,2.40039631074748,-3.68914191625676,16.9112209887815,-12.7543202583347,-2.53382908667887,874.499784296897,4336.00167643229
0.91,4.36364250451896,0.122903289851759,21.9092567805821,-5.96188986447554,3.08788770126159,-3.08568155685228,20.021372834296,-10.7100090225794,-2.32767928358875,896.097099477236,4336.00167643229
0.92,4.3543240237782,0.167767433581468,22.3782801509888,-8.15648481453997,3.95891559933288,-1.82078853609672,23.7963256088319,-1.02496564060059,-1.9633600073366,917.534965599083,4336.00167643229
0.93,4.39353196870562,0.131365410743494,20.4210119529236,-6.3592733749137,4.37365645560893,0.437617686443845,19.4277500501103,8.9454242509102,-1.44117979545085,939.190081578099,4336.00167643229
0.94,4.34991076700543,0.0972855313965552,22.6052300269425,-4.66873571911342,3.07102025190331,3.08221069492802,12.2130316972296,19.5866121253363,-0.761218315640837,960.741240442079,4336.00167643229
0.95,4.30975440052344,0.141301929572559,24.6162637173553,-6.83017452857246,-0.188304557598507,4.30795666432704,-8.69049413311383,24.0226358923299,0.0764578670823285,982.147468559882,4336.00167643229
0.96,4.34078115181306,0.159314259186192,23.0681349874369,-7.70350556747454,-3.73495966752992,2.21761996812806,-23.941209118159,4.27800839027938,1.0716728132352,1003.58786900085,4336.00167643229
0.97,4.33878633843041,0.127344764213071,23.1711367072691,-6.09859473682779,-3.52198038388899,-2.5371120895664,-14.687221551778,-18.9309259456584,2.22440174757663,1025.0489363502,4336.00167643229
