t,iq,id,vq,vd,ia,ib,va,vb,theta_e,omega,r
0,0,0,0,0,0,0,0,0,0,0,0
0.01,0.000415082995927822,0.000215759725179728,-0.0197232068779728,-0.0107903504505248,0.000325458877399553,0.000336039687596377,-0.015980366159695,-0.0158134262510858,-0.290043255517433,-0.00393501825216027,0
0.02,0.000595918721927064,0.000296351393768313,-0.0285471434806846,-0.0148208144807223,0.000454418105367561,0.0004862586320527,-0.0223668286376915,-0.0231153827454992,-0.290075909117349,-0.00474322113812208,0
0.03,0.000677698134317119,0.000334580947081893,-0.0326748232830623,-0.016732703103486,0.000514460098800198,0.000553669556820321,-0.0253803548300817,-0.0265229149685307,-0.290109565082303,-0.00442243013103362,0
0.04,0.000679961338022718,0.000339786492594813,-0.0330352723223719,-0.0169930509964813,0.00052011111814774,0.000554334471717787,-0.0257336862412115,-0.0267931034413927,-0.29013769685512,-0.0034253005195383,0
0.05,0.00068289455670507,0.00035005061254078,-0.033370048191611,-0.0175063628625391,0.000530797494159556,0.000554197101320032,-0.0263219069563654,-0.0269664619697463,-0.290159534967765,-0.00266422200139834,0
0.06,0.000672809414369407,0.000353705891591848,-0.0330467542166549,-0.0176891658227152,0.00053142346323128,0.00054347904148933,-0.0264050079319481,-0.0266039491029672,-0.290175906597058,-0.00195816413296869,0
0.07,0.000664388517015172,0.00035800458719893,-0.0327552426703499,-0.017904157403696,0.000533139084565941,0.000534174224860472,-0.0265279005642152,-0.0262628114714503,-0.290187199900041,-0.00145497179440718,0
0.08,0.0006501373164869,0.000356537832418798,-0.0321648166418686,-0.0178307968918714,0.000527660298886917,0.000520934127518299,-0.0262888831015979,-0.025717841524411,-0.290195576011797,-0.000993458648048382,0
0.09,0.000639421646090088,0.000356014730150545,-0.0317139862177556,-0.017804631937658,0.000524095719903997,0.000510813278949397,-0.02613495179981,-0.0252932033296906,-0.290201114714744,-0.000674031807302919,0
0.1,0.000631760391757906,0.000355828013692309,-0.0313883968858951,-0.0177953003180191,0.000521726394413106,0.000503523919287869,-0.0260329345781473,-0.0249838045486444,-0.290204714939628,-0.000458725738817639,0
0.11,0.000626470756955415,0.000355761267499049,-0.0311619680207149,-0.0177919553242368,0.000520149968545328,0.000498473368391045,-0.0259649943310208,-0.0247677410066755,-0.290207021610822,-0.000316574222374963,0
0.12,0.000622911817849532,0.000355737345686813,-0.0310087774338782,-0.0177907578468308,0.000519109377052025,0.00049506933513354,-0.0259200472841859,-0.0246212609647421,-0.290208481136601,-0.000224292257305924,0
0.13,0.000640153130475216,0.000366178540598383,-0.031827982376742,-0.0183129320163508,0.0005340483462381,0.000508601138351391,-0.0266548404574355,-0.025256750016547,-0.290209945517979,-0.000361255960331617,0
0.14,0.000650155371631956,0.000372241696430848,-0.0323861311395487,-0.0186161571769074,0.000542720963834188,0.000516449264922017,-0.0271051431014581,-0.0257047469482359,-0.290211541968795,-0.000413576406078674,0
0.15,0.000631101332615027,0.00036160846229256,-0.0314322777379707,-0.0180843784891337,0.000527080690256542,0.000501233995244477,-0.0263226876691464,-0.0249429136832034,-0.290212981662367,-0.000151105976043705,0
0.16,0.000621865004961077,0.000357820072891151,-0.0310018440471039,-0.0178949188213607,0.000520807761773215,0.000493467895851232,-0.0260179830699311,-0.0245846905800505,-0.290213133780101,-4.37044319788208e-05,0
0.17,0.000617672517285349,0.00035647040095428,-0.0308028205052612,-0.0178274178381393,0.000518314659224549,0.000489837115171018,-0.0258963448085607,-0.0244133140603868,-0.290212801901721,-9.51947156343911e-06,0
0.18,0.00061597847571118,0.000355989598645765,-0.0307195378509931,-0.0178033836587615,0.000517368983151662,0.000488351729961159,-0.025849472904374,-0.0243404031611165,-0.29021235328178,-7.13510147771023e-06,0
0.19,0.000615458147241915,0.000355818348228624,-0.0306914288726294,-0.0177948144126831,0.000517055796441573,0.000487902378871807,-0.0258332083612173,-0.0243159324721763,-0.290211938261556,-1.6474483697897e-05,0
0.2,0.000615442951413669,0.000355757373224542,-0.0306876718951503,-0.0177917621377632,0.000516992860123939,0.00048790543922902,-0.0258292005346795,-0.0243132146383495,-0.290211604747759,-2.84237843698024e-05,0
0.21,0.000615610180731141,0.000355735676497004,-0.0306932115708124,-0.0177906749035614,0.000517019802847091,0.000488072012736404,-0.0258297379250099,-0.0243188402022006,-0.290211356142706,-3.93002356113535e-05,0
0.22,0.000615814144843171,0.000355727965407872,-0.0307011186391431,-0.0177903020531282,0.000517070693225422,0.000488269745703676,-0.0258316390122661,-0.0243265278816408,-0.290211179430297,-4.79721683108178e-05,0
0.23,0.000615997207773429,0.00035572523092175,-0.0307085488595303,-0.0177901633770703,0.000517120398035347,0.000488445998893181,-0.0258336293701902,-0.02433369021757,-0.290211057929395,-5.44059865937065e-05,0
0.24,0.000616142202999893,0.000355724265138914,-0.0307145620661553,-0.0177901150178632,0.0005171609238589,0.000488585249428992,-0.0258353017559025,-0.024339467916246,-0.290210976448144,-5.89647489979556e-05,0
0.25,0.000616249246867538,0.000355723926537939,-0.0307190534904032,-0.0177900973233032,0.000517191204306783,0.000488687941701119,-0.0258365687377469,-0.0243437779725854,-0.290210922871166,-6.20919284404555e-05,0
0.26,0.000618785968574732,0.000357250788568624,-0.0308355654498239,-0.0178664552150379,0.00051938000128013,0.000490681785995899,-0.0259430684874947,-0.024433573541635,-0.290210696646679,-9.82907067905917e-05,0
0.27,0.000614625574882437,0.000354270855172455,-0.0306447534270245,-0.0177174295405672,0.000515334363852478,0.000487547874117968,-0.0257456828331904,-0.0242933743555904,-0.290211106211168,-3.75226119649171e-05,0
0.28,0.000613750110216857,0.000353907249161696,-0.0305293762827986,-0.0176992458323901,0.0005147354521071,0.000486813057697205,-0.0256952441963175,-0.0241880248251835,-0.290211122013112,-2.72917881724626e-05,0
0.29,0.000615107989285479,0.000355076563367747,-0.0306655265775937,-0.0177577219962849,0.000516244332331566,0.000487779656885575,-0.0257902301029344,-0.0243017538876547,-0.290210915824396,-4.97607879140657e-05,0
0.3,0.000603910110880074,0.000349926859039926,-0.0301306488305305,-0.0175001835741321,0.000508105046725063,0.000478524283807262,-0.025390373407549,-0.0238629705255298,-0.290209657148364,2.80194119735189e-05,0
0.31,0.000611490072594287,0.000353658622366331,-0.0304822192147358,-0.0176868089208721,0.000513849644602367,0.000484719581611305,-0.0256697904319151,-0.0241464439874738,-0.290209353105636,-6.66332259169389e-05,0
0.32,0.000615024286719465,0.000354988146582138,-0.0306486699775928,-0.0177533011261939,0.000516134966674717,0.000487725490049779,-0.0257811359355645,-0.0242869039225806,-0.290209492283783,-0.000100557987005399,0
0.33,0.000616525659576039,0.00035546179175886,-0.0307213066560739,-0.0177769767743499,0.000517018562014826,0.000489028404950275,-0.0258246134266833,-0.024349721297269,-0.290209765972659,-0.000107173000074418,0
0.34,0.000617051517540355,0.000355630508144024,-0.0307483579880766,-0.0177854181445132,0.00051733083425143,0.000489483852189581,-0.0258404493577345,-0.0243732187970414,-0.290210041701255,-0.000102954560483456,0
0.35,0.000617141742961084,0.000355690591766943,-0.0307546320510478,-0.0177884252565735,0.000517414336445401,0.000489552992450591,-0.025845131681991,-0.024378364055953,-0.290210271954688,-9.5585165333869e-05,0
0.36,0.000617061883313246,0.000355711978834149,-0.0307524595036234,-0.0177894963853545,0.000517412062941845,0.000489470261452584,-0.0258455406150969,-0.0243759713135685,-0.290210447432632,-8.83285392585173e-05,0
0.37,0.000616934758231561,0.000355719584923616,-0.0307476345335395,-0.0177898780263527,0.000517383035573525,0.000489346210277743,-0.0258445286980132,-0.0243712356268243,-0.290210574001745,-8.23280023201763e-05,0
0.38,0.000616812114849795,0.000355722285505203,-0.0307426694378612,-0.0177900137744134,0.000517350571357352,0.000489227877115301,-0.0258432401304943,-0.0243664370357472,-0.29021066194644,-7.77802196946826e-05,0
0.39,0.000616711590276192,0.000355723241475102,-0.0307384803507096,-0.0177900621627123,0.000517322750915588,0.000489131251804331,-0.0258420892194162,-0.0243624077381497,-0.29021072140052,-7.45117982063595e-05,0
0.4,0.000616635862130064,0.000355723578025538,-0.0307352687016299,-0.0177900799248734,0.000517301422712845,0.000489058573677474,-0.0258411881705989,-0.0243593242892013,-0.29021076074708,-7.2246620547028e-05,0
0.41,0.00061658161259705,0.000355723695333371,-0.0307329365745979,-0.0177900859843164,0.000517286023900024,0.000489006545858143,-0.0258405272521412,-0.0243570872880765,-0.290210786340431,-7.07182558973337e-05,0
0.42,0.000616544068657542,0.000355723735478838,-0.0307313021166703,-0.0177900876296986,0.000517275327033279,0.000488970551896971,-0.0258400615213187,-0.0243555202825331,-0.290210802747623,-6.97083663857297e-05,0
0.43,0.000616518806534465,0.0003557237487472,-0.0307301874050777,-0.0177900892391398,0.000517268115962413,0.000488946336975888,-0.0258397443370044,-0.0243544514552474,-0.290210813134675,-6.90523251339727e-05,0
0.44,0.000616502159143473,0.000355723752832386,-0.0307294403412284,-0.0177900893681083,0.000517263359334801,0.000488930381186726,-0.025839530843465,-0.0243537354260084,-0.290210819637374,-6.86322169523497e-05,0
0.45,0.000616491332518561,0.000355723753892735,-0.0307289428998846,-0.0177900894799477,0.000517260264236504,0.000488920004904721,-0.0258393887038199,-0.024353258649754,-0.290210823667208,-6.83665187898345e-05,0
0.46,0.000616484405806925,0.000355723754030042,-0.0307286136719656,-0.0177900895802996,0.000517258283469855,0.000488913366524339,-0.0258392946502655,-0.0243529430963232,-0.290210826141439,-6.82003270128924e-05,0
0.47,0.000616480040232364,0.000355723753933446,-0.0307283954721605,-0.0177900896731054,0.000517257034885808,0.000488909182751297,-0.0258392323370606,-0.0243527339553905,-0.290210827647216,-6.80974169257357e-05,0
0.48,0.000616477246264645,0.000355723753811861,-0.030728245100293,-0.0177900897612807,0.000517256235707737,0.000488906505182231,-0.0258391894141239,-0.0243525898228327,-0.290210828555666,-6.80342852970498e-05,0
0.49,0.000616475616450142,0.000355723753716847,-0.0307281462421211,-0.0177900898460258,0.000517255769504125,0.000488904943266768,-0.0258391612198777,-0.0243524950602607,-0.29021082909926,-6.79958972556451e-05,0
0.5,0.000616474568712248,0.000355723753652324,-0.0307280723709131,-0.017790089929056,0.000517255469785438,0.000488903939193066,-0.0258391401687353,-0.0243524242459846,-0.290210829421988,-6.79727527941924e-05,0
0.51,4.75197766148007,0.0044528462250244,2.40156180008258,-0.211879038096405,-0.725388387351387,4.69628823759156,-0.578187083755008,2.34053231179991,0.154185915974423,47.7638655791372,3458.42389933177
0.52,4.73415076436721,-0.000985726129614006,3.29348200758262,0.0738785012295126,-3.06481691221585,3.60819646444181,-2.07530976226277,2.55843138619569,0.70393980252099,102.46951080424,3458.42389933177
0.53,4.72223898503502,0.0617584618866913,3.88976257443207,-3.0545270065906,-4.70641196495367,-0.391205260113095,-3.57903860600309,-3.41333719051944,1.66680491435572,161.403110489779,3458.42389933177
0.54,4.70537877272781,0.00220240713879027,4.73359313223204,-0.0639097349869436,-0.352986408839918,-4.69212050576378,-0.289161648189423,-4.72518506906945,3.06697254291513,219.051455118835,3458.42389933177
0.55,4.70187624423898,0.0284197168159341,4.90962468716525,-1.35921519795976,4.64548856910748,0.726556158004685,4.62784152215011,2.12954534327181,-1.40960853447526,275.241137661894,3458.42389933177
0.56,4.66527500920985,0.0427554178157705,6.74074019937578,-2.06214545260926,-3.38230532176632,3.21350737476387,-6.33576273191974,3.09000532491687,0.820148613215795,331.530949774165,3458.42389933177
0.57,4.70351796274325,0.011358995823598,4.82977566348468,-0.485348928334524,1.47214857111663,-4.46721264741156,1.9833302449068,-4.4304286114847,-2.82084027221977,388.845113047772,3458.42389933177
0.58,4.64837698823156,0.0569474396524057,7.58812946622948,-2.75806684297308,-1.02793311984223,4.53365251609948,-4.45054861017024,6.73641288632751,0.235214688310158,445.44175100345,3458.42389933177
0.59,4.61557942408716,0.0720033330987797,9.22941063304721,-3.49799897324146,2.40236233255153,-3.94175254463946,7.88378068585312,-5.93835158504215,-2.57864345569388,501.545360470708,3458.42389933177
0.6,4.62592602855221,0.0856947633142213,8.71359010033373,-4.16131457905856,-4.43794929519423,1.30810598476627,-9.50466195223526,-1.70428654757665,1.30268151262127,557.248764777904,3458.42389933177
0.61,4.60113329639803,0.0884977160906316,9.95482430888415,-4.28284235421947,2.99121104808537,3.4972726406141,3.01611626554515,10.4088572055034,-0.688330396646838,613.415971119525,3458.42389933177
0.62,4.57697397921524,0.0990894561965795,11.1644959072811,-4.82528826999716,3.4461427525925,-3.01373682585207,11.6583626550839,-3.46582687894427,-2.26771087007572,669.80464312153,3458.42389933177
0.63,4.56457089134166,0.0919689736686857,11.7864173237237,-4.43182848079666,-1.42249186368076,-4.3382349650478,0.792192337632382,-12.5671463870033,2.84488895726938,725.193960325553,3458.42389933177
0.64,4.54930434015536,0.0512647829411994,12.5516748765717,-2.39465252588997,-3.98922211398034,-2.18744256671041,-9.76205793972032,-8.24506687107242,2.08363096048094,780.858711261917,3458.42389933177
0.65,4.54709473362294,0.0996742931527583,12.6641750658542,-4.82070834074286,-4.50567569223635,-0.620396677656682,-11.742862601417,-6.76208081357748,1.72954510357165,836.73400141726,3458.42389933177
0.66,4.50151199061558,0.0830492297812859,14.9454815924261,-3.98630162449047,-4.41887207253212,-0.862598969868865,-13.7775161274056,-7.03122109096574,1.78202702398413,892.177374401794,3458.42389933177
0.67,4.53711376153845,0.072170286323527,13.1676100592516,-3.42604866701021,-3.60264597953712,-2.75890409066619,-8.19959424411616,-10.8577354164247,2.24023791138185,947.408104079747,3458.42389933177
0.68,4.4987446672994,0.102712346657435,15.0884039747719,-4.92764999778407,-0.275130587535848,-4.49149825420347,4.34549713303443,-15.2662478583758,3.10324060726694,1002.31632748322,3458.42389933177
0.69,4.48376933937568,0.153029204063877,15.839560131861,-7.41497849476182,4.17222615299995,-1.64928298185759,17.4095553321727,1.66761937642819,-1.91312848957807,1057.30490992262,3458.42389933177
0.7,4.50644149979173,0.137458775946575,14.7084976136204,-6.67258109620614,1.21643144351577,4.34133671227607,-2.94223867377394,15.8810097954089,-0.242698505122828,1112.63791000629,3458.42389933177
0.71,4.44488571199508,0.121404971475536,17.7888772761143,-5.8118074358763,-4.32783417728779,-1.02058781772892,-15.7081392661365,-10.1722967520626,1.82969140219467,1167.06065301081,3458.42389933177
0.72,4.44096414684482,0.129747249363207,17.9876702810705,-6.24774886319882,4.02413696305819,-1.88290164502218,18.9895107570944,-1.41036491884426,-1.97922970356723,1221.97308351594,3458.42389933177
0.73,4.43559892591313,0.124492222896328,18.2587113679508,-5.99992604633098,-3.3845129364371,2.86968784508234,-18.0026452373781,6.72936979491265,0.895588919491021,1276.78847950897,3458.42389933177
0.74,4.42548722876324,0.108415529070527,18.7671623253323,-5.19417721220846,3.7355839471751,-2.37531128749432,18.7574838313,-5.22902084292221,-2.11267445269094,1331.31762106813,3458.42389933177
0.75,4.38446734271472,0.104614873004311,20.8211403469198,-4.9957930434751,-4.38328568471296,0.145961492099874,-20.8673311844241,-4.79920021659111,1.5613648766899,1385.68454198845,3458.42389933177
0.76,4.37678485215269,0.133532169714464,21.2083316735371,-6.41722457643732,2.75325008498483,3.40495087364164,7.71522080349728,20.7713618136238,-0.649464368099598,1439.87611399554,3458.42389933177
0.77,4.42610179097922,0.158396506653288,18.7456082611322,-7.60848428428876,3.55817116720009,-2.63721149366814,19.7586047413473,-4.34561858189422,-2.17285091922416,1493.84513035118,3458.42389933177
0.78,4.31817023379494,0.149981489893536,24.1453890952304,-7.24773046066376,-2.00459660396467,-3.82762081072781,-3.91952820176183,-24.9031465896601,2.69386932080034,1548.16733853203,3458.42389933177
0.79,4.38311313320925,0.164591882755866,20.9015051933943,-7.91314401052164,-4.37673392961077,-0.288047454032167,-19.9745890588573,-10.0252959762054,1.67404861611311,1602.06657140623,3458.42389933177
0.8,4.31438722002545,0.134853349117181,24.3411679190158,-6.47289055374501,-3.67467875571788,2.26469833584139,-24.3330322555385,6.50340749403017,1.04972537645617,1656.19136824536,3458.42389933177
0.81,4.26605078288756,0.168376249316405,26.7614493011418,-8.07259573583953,-3.00439434977953,3.03334047454654,-25.0744654596355,12.3536695975496,0.820052402436087,1709.79165967797,3458.42389933177
0.82,4.3070672395046,0.252179040518635,24.7141498814654,-12.238917167308,-3.44837271427694,2.5929034107581,-27.3584960819052,3.47749765321821,0.984550285217335,1763.41700857066,3458.42389933177
0.83,4.24674550412947,0.221905862883288,27.7338741534992,-10.7191988821713,-4.23867983783885,0.343049298387712,-28.0285769710872,-9.92309796452267,1.5422449693708,1817.0004471146,3458.42389933177
0.84,4.22916059890661,0.226737330770526,28.6168462532666,-10.9541052388111,-2.73756409414385,-3.23155566545951,-8.57657728487417,-29.4169786542165,2.49232575542523,1870.55674096782,3458.42389933177
0.85,4.22535267211909,0.151576014362917,28.8110551127743,-7.27869341933191,2.58115888253847,-3.34876086261871,23.9973200671456,-17.5266911936884,-2.44906665356832,1924.10681627318,3458.42389933177
0.86,4.28613593031358,0.166653399182751,25.775842422337,-7.96190920361366,2.9409086222668,3.12246553929119,10.9266234729845,24.665663385106,-0.716601500903915,1977.14872265796,3458.42389933177
0.87,4.19916964420063,0.278398389127783,30.1281743813192,-13.5790893573504,-4.20119012152266,-0.24603440138614,-28.2053409679021,-17.2208391262003,1.69549409494858,2030.31219377143,3458.42389933177
0.88,4.27378661228437,0.284361786890351,26.4014399314782,-13.8196239871451,3.60071966163418,-2.31968350244287,29.791302701589,-0.704500492423344,-2.07666467806933,2083.23897139952,3458.42389933177
0.89,4.20695881801895,0.158577150039739,29.7470448290316,-7.58493012554882,-2.97539370586017,2.97836893351878,-26.9619100648026,14.6790070075387,0.822574614569989,2136.28578092616,3458.42389933177
0.9,4.19795736486441,0.302671779380125,30.2014224547998,-14.8043966449279,3.28482569768728,-2.63142098096555,33.2687413319983,-4.9484268710594,-2.17422260555338,2189.05669340132,3458.42389933177
0.91,4.07214861337488,0.13316175788715,36.4962328922366,-6.33115444735774,-4.05196291508546,0.426289711284139,-36.857608510218,-3.68445747270606,1.49866515325191,2241.71722415575,3458.42389933177
0.92,4.15475418070096,0.315803283680247,32.3704573822106,-15.4513214223242,2.99400356137428,2.89787106174748,9.92994511111376,34.4671732945966,-0.725848607652854,2294.27898114024,3458.42389933177
0.93,4.14724459670025,0.138899856076435,32.7505264738384,-6.57429032461541,2.14264352585761,-3.55359109014781,23.3534561766708,-23.8837677553237,-2.56552609846983,2346.69494125861,3458.42389933177
0.94,4.1523290938791,0.269836093861317,32.5010058664387,-13.0471795956013,-3.37227929901553,-2.43769988941553,-16.736655545112,-30.7640803355867,2.26159616000623,2398.83440684794,3458.42389933177
0.95,4.09411096644123,0.364349360457365,35.4166810605927,-17.8561464555501,-3.66263130587669,1.86537582787277,-39.5212488088103,-3.35472147605538,1.18849662082252,2451.13462831841,3458.42389933177
0.96,4.1036766529553,0.245021528292469,34.9432498793996,-11.8079644632808,-2.73592723713359,3.06837086651007,-33.0976594637229,16.2789334700924,0.787822251424853,2503.18517906122,3458.42389933177
0.97,4.04683451869867,0.137451781258252,37.7903313953063,-6.50393647724584,-1.74180213610208,3.65539162506186,-23.1777795051599,30.5483366793891,0.47862548616599,2555.27815731827,3458.42389933177
