t,iq,id,vq,vd,ia,ib,va,vb,theta_e,omega,r
0,0,0,0,0,0,0,0,0,0,0,0
0.01,0.000478747746643831,0.000266270959832005,-0.022881215119618,-0.0133186897453097,-0.000452737473180352,-0.000308428937268656,0.0221676818621586,0.0144751988843048,2.67640676496775,-0.00221537581780276,0
0.02,0.000624679954169947,0.00034232746423469,-0.0299680975203455,-0.0171229855828995,-0.000586183057998504,-0.000404725290075432,0.028747173039161,0.0191019252044829,2.67638846400027,-0.00269426618327007,0
0.03,0.000685127229203543,0.000374013313239048,-0.0329359003189427,-0.0187078954163281,-0.000641627430663161,-0.000444521674271081,0.031495443656947,0.0210427163070664,2.67636864223612,-0.00273416676743052,0
0.04,0.000681532046717226,0.000372297116004491,-0.0328685752412842,-0.0186220428432406,-0.000638488998171818,-0.000442066592835718,0.0313889041511573,0.0210204760706533,2.67634997836398,-0.00247492803844998,0
0.05,0.000696214892641457,0.000381859808223173,-0.033658315863918,-0.0191003691760937,-0.000653630419383814,-0.000450887308235809,0.0321710722661218,0.0215111236039942,2.67633264827447,-0.0023226093646339,0
0.06,0.00069808522414949,0.000384362745704879,-0.0338347707098967,-0.0192255565088465,-0.00065671366213711,-0.000451425371932176,0.0323624659043924,0.0216121385488149,2.67631665196143,-0.00212471033681308,0
0.07,0.000704377187447914,0.000389678384264657,-0.0342111115504872,-0.0194914459805257,-0.000664293762033372,-0.000454654003703583,0.0327692561138547,0.0218287075585392,2.67630232542591,-0.00197011542112114,0
0.08,0.000696344081496828,0.000386406835154599,-0.0339044840241689,-0.0193278141135406,-0.000657771675612689,-0.000448934009461892,0.032485729531494,0.0216276631229386,2.67628900286723,-0.00175825294166356,0
0.09,0.000692256087495232,0.000385547735432867,-0.0337767284079684,-0.0192848357832018,-0.000655174964991655,-0.000445658290868466,0.0323902539450469,0.0215323877567281,2.67627708042428,-0.0015838648129572,0
0.1,0.000689484592640564,0.000385320908685754,-0.0337046692543869,-0.0192734858835513,-0.000653733427513744,-0.000443276225293296,0.0323480078713377,0.0214727356060409,2.67626635080741,-0.00143137503726526,0
0.11,0.000687249770728256,0.00038525991091367,-0.0336521791847769,-0.0192704336465422,-0.000652680387518232,-0.000441300077127004,0.0323219343904292,0.02142688344279,2.67625667707368,-0.00129518684429909,0
0.12,0.000685310462075913,0.000385242512694346,-0.0336084537754154,-0.0192695684518905,-0.000651798462778516,-0.000439569092336255,0.032301727241856,0.0213879136590988,2.67624795019308,-0.00117270485642041,0
0.13,0.000707339551978016,0.000398562553679105,-0.0346953570253509,-0.0199358252969234,-0.000673590993231798,-0.000453273123871987,0.0333850469234509,0.0220599993496147,2.67623974915158,-0.00117459498051897,0
0.14,0.000719285780267684,0.000406200193408877,-0.0353893607161228,-0.0203178638954205,-0.000685780731743283,-0.000460516469619,0.0340380593591574,0.0225085086185461,2.67623208078166,-0.00113392470411254,0
0.15,0.000691167125569528,0.000390725351641493,-0.0340114602560684,-0.0195438242319291,-0.000659336498965757,-0.000442327567550329,0.0327281576641781,0.0216242500509812,2.67622502971527,-0.000904726016799456,0
0.16,0.000682177492082946,0.000386669828605053,-0.0336184526388586,-0.0193409563646668,-0.000651680693533751,-0.000436110032828194,0.032370625658298,0.0213638841370539,2.67621918263695,-0.000784940396703867,0
0.17,0.000678820379198187,0.000385606401989026,-0.0334878590152271,-0.0192877763781921,-0.000649226054350462,-0.000433583826753517,0.0322646054478727,0.0212708780808874,2.67621405604246,-0.000702110439178615,0
0.18,0.000677171373678676,0.000385327023800778,-0.033435054205527,-0.019273790594071,-0.000648238358690332,-0.000432232593545992,0.0322285075691049,0.0212298175559466,2.67620947337752,-0.000634698700545824,0
0.19,0.000676083602059493,0.000385253149005529,-0.0334062593951175,-0.0192701103331949,-0.000647685964460702,-0.000431290989046868,0.03221238401839,0.0212056038555651,2.67620535071188,-0.000575996130993134,0
0.2,0.000675218487718461,0.000385233184198351,-0.0333857599730579,-0.0192691064201067,-0.000647281486559831,-0.000430524435452044,0.0322023661140372,0.0211876154360405,2.6762016341902,-0.000523642143087394,0
0.21,0.000674471652348987,0.000385227403584007,-0.0333688516958719,-0.0192688078487537,-0.00064694260288774,-0.000429857454120879,0.0321945823147382,0.0211725314734169,2.67619828156442,-0.000476578587925764,0
0.22,0.000673807404752394,0.000385225392770536,-0.0333540458182443,-0.019268709913755,-0.000646644006571057,-0.000429262799110406,0.0321879142910708,0.021159246862227,2.67619525655478,-0.000434161748479806,0
0.23,0.000673210852738384,0.000385224417892821,-0.033340815577265,-0.0192686612505449,-0.000646376586235185,-0.000428728367562205,0.0321819910867241,0.0211473577413222,2.67619252695853,-0.000395901052587893,0
0.24,0.00067267325593717,0.000385223757981416,-0.0333289063938903,-0.0192686400908321,-0.000646135788409908,-0.000428246653112834,0.0321766796308442,0.0211366454362262,2.67619006387145,-0.000361380029808991,0
0.25,0.000672188579070414,0.000385223219918946,-0.0333181770309603,-0.0192686070897933,-0.000645918743890335,-0.000427812331856569,0.0321718819455448,0.0211270005426509,2.67618784125665,-0.000330230475246767,0
0.26,0.000675665686293488,0.000387498569019392,-0.0334930579963408,-0.0193824247798319,-0.000649513377364265,-0.000429897235687079,0.0323521182864744,0.0212321399456122,2.67618593748584,-0.000322641616394084,0
0.27,0.000667088590403258,0.00038259478487869,-0.03309862518991,-0.0191371328226253,-0.000641282748226008,-0.000424431848110241,0.0319559426506417,0.0209896777355405,2.67618389415481,-0.000254119473654463,0
0.28,0.000666064350244777,0.000382270444293312,-0.0329746336054864,-0.0191209127043223,-0.000640533934418553,-0.000423661055686609,0.0318858361023951,0.0208861011228421,2.67618225099275,-0.000227825039205445,0
0.29,0.000669248318717579,0.000384448273737525,-0.0332172393254073,-0.019229845590793,-0.000643909637014224,-0.000425528103239116,0.032092090264285,0.0210539709393765,2.67618088628074,-0.000225776114290689,0
0.3,0.000658948051236665,0.000379158193889381,-0.032733586207802,-0.0189652307257174,-0.000634559827614543,-0.000418697140424743,0.0316385747856953,0.0207404972947436,2.67618025039084,-0.000167020994491642,0
0.31,0.00066694405266509,0.000383632553246834,-0.0331174249281954,-0.0191890475129929,-0.000642147255924445,-0.00042383393800488,0.0320108709761196,0.0209830292779851,2.67617921057216,-0.000192781777356497,0
0.32,0.000669091263067693,0.00038480470622456,-0.0332249750447067,-0.0192476743715554,-0.00064415885245875,-0.000425226002315378,0.0321115528297917,0.0210527934083415,2.67617811276372,-0.000189102665326099,0
0.33,0.000669557889942176,0.000385111652839348,-0.0332527099722347,-0.0192630225621004,-0.000644643011107436,-0.000425504572674386,0.0321377376173092,0.0210706568375676,2.67617707583756,-0.000177968148471054,0
0.34,0.000669552026746798,0.000385191919961476,-0.0332576161249041,-0.019267032617485,-0.000644712513079316,-0.000425462697781258,0.0321435429978531,0.0210732109499212,2.67617612670775,-0.00016565259054666,0
0.35,0.000669422632864024,0.00038521280911118,-0.0332561910498376,-0.0192680880897079,-0.000644673474959683,-0.000425337137312668,0.032143864767025,0.0210714361070917,2.67617526633911,-0.000153881091127295,0
0.36,0.000669270138410182,0.000385218154207362,-0.0332532180671836,-0.019268347835309,-0.000644610143239407,-0.000425197962990632,0.0321427790033604,0.0210686377838543,2.67617448883437,-0.000143067756466694,0
0.37,0.000669121883619526,0.000385219439027852,-0.033250029001655,-0.0192684212815495,-0.000644545053528151,-0.000425064448426199,0.0321414281825108,0.0210657324031867,2.67617378690672,-0.000133254647896993,0
0.38,0.000668985279431443,0.000385219671274812,-0.03324701489071,-0.0192684234408089,-0.000644484222699844,-0.000424941861816435,0.0321400907310148,0.0210630175625323,2.6761731534113,-0.000124383473269699,0
0.39,0.00066886094787548,0.000385219637912375,-0.0332442404178774,-0.0192684284063379,-0.000644428636032956,-0.000424830401556822,0.0321388620311088,0.0210605175994598,2.67617258173454,-0.000116373696962697,0
0.4,0.000668748548885088,0.000385219544145265,-0.0332417232830496,-0.0192684304120439,-0.000644378326878344,-0.000424729667761581,0.032137745001213,0.0210582507252532,2.67617206586106,-0.000109144538268514,0
0.41,0.000668647160302574,0.000385219442844912,-0.0332394500335658,-0.0192684149755371,-0.000644332930964509,-0.000424638809108547,0.0321367207771797,0.0210562112426003,2.67617160034861,-0.000102620749780976,0
0.42,0.00066855548323451,0.00038521934705555,-0.0332373854659655,-0.0192684139864214,-0.000644291879119624,-0.000424556655829746,0.0321358021614031,0.0210543532222782,2.6761711802823,-9.67337473418671e-05,0
0.43,0.000668472828356306,0.000385219259466178,-0.0332355221109393,-0.0192684144144973,-0.000644254866283184,-0.000424482587846412,0.0321349742513275,0.0210526756946015,2.67617080122583,-9.14214442659446e-05,0
0.44,0.000668398389920548,0.00038521918012222,-0.0332338440591255,-0.0192683988728842,-0.000644221532593763,-0.0004244158825079,0.0321342144540468,0.0210511721168244,2.67617045917547,-8.66277576960802e-05,0
0.45,0.000668331043657112,0.000385219108441315,-0.033232317129733,-0.0192683992380765,-0.000644191374505976,-0.000424355533057162,0.0321335359914509,0.0210497975214771,2.67617015051874,-8.23020633002265e-05,0
0.46,0.000668270274856871,0.000385219043733689,-0.0332309354449747,-0.0192683981202137,-0.00064416416179696,-0.000424301077737018,0.0321329207543352,0.0210485543556498,2.67616987199517,-7.83986742196927e-05,0
0.47,0.000668215443240488,0.000385218985334718,-0.033229684890346,-0.0192683984323881,-0.00064413960777263,-0.000424251942772115,0.0321323650734622,0.0210474286041477,2.67616962066326,-7.48763624772779e-05,0
0.48,0.000668165966728889,0.000385218932633374,-0.0332285525759766,-0.0192683987218718,-0.000644117451783487,-0.000424207606558268,0.032131861921697,0.0210464093147613,2.67616939386807,-7.16979246641438e-05,0
0.49,0.000668121263245467,0.0003852188850746,-0.0332275239613007,-0.0192683989911387,-0.000644097433119281,-0.000424167547636533,0.0321314048259811,0.0210454834154373,2.6761691892144,-6.88297893245588e-05,0
0.5,0.000668081225537036,0.000385218842157,-0.0332266068803394,-0.0192683833131222,-0.000644079504118679,-0.00042413166899217,0.0321309831149158,0.0210446649854783,2.67616900454058,-6.62416624615336e-05,0
0.51,4.75374355994446,0.0133252764105417,2.31328439725121,-0.659989581895559,-0.409646803119279,4.73607906325465,-0.863175065970852,2.24539523386481,0.0890832926303349,27.5941014076769,3289.1675254055
0.52,4.74016589434539,0.0275641763742775,2.99272143659413,-1.36443982488104,-1.84737793253655,4.36544697185883,-2.43577973486336,2.21021598854058,0.406144610035361,58.9424247120758,3289.1675254055
0.53,4.69749598297197,0.0312217435570732,5.12688154788556,-1.53885552449297,-3.81795926336412,2.73690160046003,-5.07484834616553,1.7026171016212,0.955497725761394,91.2297070816789,3289.1675254055
0.54,4.70652454607913,-0.00913938245334167,4.67617669094151,0.484151946847673,-4.62858164587437,-0.853046762277361,-4.68719135151706,-0.362310345980899,1.75110914724146,126.249494497925,3289.1675254055
0.55,4.74974989902134,0.0238762845913341,2.51567833315484,-1.15812161543085,-1.6157721862914,-4.46653942356118,0.247148433391094,-2.75840548214094,2.79951521856707,159.130004892062,3289.1675254055
0.56,4.70039309368802,0.0411509690153464,4.98434132025718,-2.01045803147262,3.76914069812754,-2.80873050240844,5.20974824113896,-1.32065254972129,-2.20245812749491,190.824716847635,3289.1675254055
0.57,4.69444135264273,0.032724225703151,5.28287643827094,-1.58779613282792,2.96539675879667,3.63940552168457,2.07050649768565,5.11301113479162,-0.676731184662144,224.908421259853,3289.1675254055
0.58,4.71015985053178,0.0396144562978713,4.49790776142401,-1.91689191875767,-4.15107556985706,2.22615065439095,-4.8733191488844,0.395486196463888,1.08695570260376,256.800293626794,3289.1675254055
0.59,4.69820645894246,0.06004174803538,5.09660934273002,-2.93503715158559,-0.283463525921668,-4.69003170264635,2.68927309276681,-5.2304569691482,3.09400553228681,289.782362050071,3289.1675254055
0.6,4.67574169049629,0.0718275863620419,6.22093588856462,-3.52385766494862,3.83003447374888,2.68301239063535,2.97382409732228,6.50184484670572,-0.944361498420366,323.070086807327,3289.1675254055
0.61,4.66389821546041,0.0412836236756661,6.81419751924963,-1.99137933895083,-4.66044838450817,0.184042813208661,-6.87196688696528,-1.78183910816907,1.54017798051887,355.70835165358,3289.1675254055
0.62,4.68441636844414,0.0445447696653094,5.78949761287608,-2.14095040390202,4.20367593327431,-2.06757094133727,6.14577749902764,-0.575647612616987,-2.01839249770774,388.035861771687,3289.1675254055
0.63,4.65350238315648,0.0509235455387582,7.3364628574178,-2.44769634524508,-3.74315345380278,2.76522690910125,-7.38101462866577,2.30987612399863,0.94548159195351,420.540324255145,3289.1675254055
0.64,4.61209840585641,0.0302220699239992,9.40795859945883,-1.41555573662997,3.88094845425801,-2.49210837930578,8.70654269464672,-3.83530929116952,-2.1350728128184,453.241874789271,3289.1675254055
0.65,4.61716227821276,0.0240068872277497,9.15607511890185,-1.10178677600451,-4.4505490139636,1.22938086380618,-9.12594490797711,1.32844842553955,1.30648520544282,486.014689758236,3289.1675254055
0.66,4.62566536857563,0.0437908563625138,8.73231510899041,-2.08007538168846,4.46482201579179,1.20998434223002,7.84323366626399,4.36620274524577,-1.2966823580533,518.44088510806,3289.1675254055
0.67,4.63096682035385,0.0552109604094158,8.46862942647382,-2.63251921294168,-2.34974448488356,-3.99094008939333,-1.92506949590935,-8.65690182486579,2.62139323296981,550.573676717966,3289.1675254055
0.68,4.61521857585718,0.0515976064967494,9.25755578806568,-2.45082456692207,-2.14204073222476,4.08834518080646,-6.54585417248437,6.99004101415336,0.493793778680273,583.163524639269,3289.1675254055
0.69,4.59703459033649,0.043088045134654,10.1682628250307,-2.02217015818983,4.53403849038834,0.759656877847288,9.65946621601337,3.76529593116812,-1.39542014235874,615.673903025202,3289.1675254055
0.7,4.61034904586352,0.0645858771238101,9.50410670060287,-3.074568892555,0.367659859131372,-4.5961196555575,3.95152093160222,-9.17423023357386,-3.04776111696926,647.884037681707,3289.1675254055
0.71,4.62731251982082,0.101697516619077,8.65754375108513,-4.93393592537978,-4.50848755518061,-1.04685409955666,-7.16684402207919,-6.92337593092374,1.820923784184,680.277869182283,3289.1675254055
0.72,4.62765170027307,0.0280084207573235,8.64225317043175,-1.25651815644085,-2.75217702370638,3.72041212244776,-6.18724143958075,6.16323138521003,0.642961474847762,712.841293996264,3289.1675254055
0.73,4.60869504038472,0.0934771383072555,9.59176361519444,-4.49997146791035,1.44319102308416,4.37789990995022,-1.48378164668986,10.490474940951,-0.298155264125431,744.881817893505,3289.1675254055
0.74,4.60694559364321,0.0813711234020837,9.68104497935862,-3.88516680809851,3.9267994569454,2.41056320959349,6.06903235029691,8.48433847451672,-1.00257631936055,776.967389619461,3289.1675254055
0.75,4.61312625303486,0.113325621859535,9.37379757111071,-5.4799723775433,4.60141831705212,0.347456464188796,8.78033893508025,6.38778728104752,-1.47086765831781,809.226982030831,3289.1675254055
0.76,4.56526956984446,0.0668283418190772,11.7684501547549,-3.14979500138485,4.51661548539271,-0.668084448051963,12.080976548625,1.57087021337603,-1.7030111653026,841.449138267444,3289.1675254055
0.77,4.60460092809901,0.110877400907393,9.8037356309522,-5.34177343068078,4.55244361285654,-0.699929037005838,10.4073491082082,4.04164078638937,-1.69927470992951,873.610626104,3289.1675254055
0.78,4.57963543793302,0.174162997640254,11.053944141119,-8.49809749012639,4.57078051287947,0.333704955312779,10.0456213950378,9.66916918945114,-1.45990575674474,905.751739108591,3289.1675254055
0.79,4.53914769104727,0.0596095638376377,13.0803120128499,-2.8004809062303,3.81548051166115,2.45957791630487,9.35187433078597,9.56450219095862,-0.985072974763992,938.071365822466,3289.1675254055
0.8,4.56392856246288,0.14322427426175,11.8433252837055,-6.96698875986768,1.37725594145082,4.35351848367969,-3.4889045447472,13.2902532418846,-0.27502124007413,970.118587933875,3289.1675254055
0.81,4.52834185089078,0.0845761956904549,13.6247484085803,-4.00161850885728,-2.74439503984438,3.60296113171985,-11.5942634471148,8.19876667593596,0.669625493612099,1001.89993046236,3289.1675254055
0.82,4.54077998751499,0.1260497185393,13.004914139996,-6.10675271518883,-4.40081650155697,-1.12578219304817,-10.8278828102002,-9.44336668575916,1.84899005318405,1034.19836368081,3289.1675254055
0.83,4.54507393617782,0.116303262043131,12.7923346780933,-5.57658511625553,-2.41926894127455,3.8494624720692,-11.7258638364919,7.56612485776197,0.586673473043014,1065.94479133899,3289.1675254055
0.84,4.56085117578957,0.0707210394001736,12.0056915682333,-3.32142688683166,-3.63494794614266,-2.75563392742001,-7.40631575942585,-10.0157372902746,2.23496266187765,1098.10691727774,3289.1675254055
0.85,4.47861469302552,0.118345563313143,16.1197870343072,-5.66410497128757,3.64188369996498,-2.60934443047854,16.5231238290205,-4.3492525895881,-2.16608021320163,1129.83153001297,3289.1675254055
0.86,4.50909355743605,0.164408114524973,14.5980591528204,-7.96389700175722,0.389635164498165,4.49523516363932,-7.2241062104308,14.9779596722737,-0.0500159651472316,1161.69334875991,3289.1675254055
0.87,4.4951115803393,0.11689498209666,15.2994797312367,-5.59611929649911,-3.43036246478892,-2.90728497342575,-7.68256515077599,-14.3655429389653,2.29984522832986,1193.63867404721,3289.1675254055
0.88,4.53302642066077,0.110318696029956,13.4061203926935,-5.26839525955045,4.48592624571873,0.661032875940518,12.3168010661411,7.46836421790957,-1.40016031310217,1225.51092197503,3289.1675254055
0.89,4.4883129489884,0.109276942719476,15.6441728217992,-5.21535258270132,-4.41795707448269,0.799093152451816,-16.2606654586499,-2.74423116411164,1.41619922582559,1257.3363194692,3289.1675254055
0.9,4.51912471222005,0.15421458845817,14.1060074807862,-7.45003604811381,4.34461965381987,-1.25321600992542,15.4983323606785,3.77944152013723,-1.81751398120646,1289.08726308421,3289.1675254055
0.91,4.53937034251989,0.121333850316955,13.0961632202579,-5.78392606047987,-4.50114284499447,0.600265023749465,-13.6339657229596,-4.36786795014407,1.464943067918,1320.78789857701,3289.1675254055
0.92,4.44532016470265,0.169090255266577,17.801221033271,-8.15737690852644,4.33186623380945,1.01212539416794,15.0113395491964,12.5732236614904,-1.30324793187835,1352.42885757419,3289.1675254055
0.93,4.4655859400394,0.134976002030167,16.7905336069524,-6.4982122617019,-2.97230500213597,-3.33542790107643,-5.8070811840916,-17.041906862957,2.44391553721947,1384.25926772995,3289.1675254055
0.94,4.48153889729482,0.137064674146443,15.9955028564574,-6.57356473924582,-0.490084835032772,4.4567695102323,-8.74278627312811,14.9208429116587,0.140098853971596,1415.87083935737,3289.1675254055
0.95,4.44580492647829,0.174214955363842,17.7848274688482,-8.39264499251549,4.09760083017554,-1.73355119091298,19.6029565007435,1.56865372120525,-1.93186047755958,1447.39988817893,3289.1675254055
0.96,4.41687343990836,0.152744478137907,19.2340675755572,-7.35780704988461,-2.72695886313975,-3.47790126635491,-5.39410642980889,-19.8743627799315,2.51120187732446,1479.14665312471,3289.1675254055
0.97,4.41962896409443,0.173694468514927,19.0989928385062,-8.3700330366829,4.29396249448739,-1.06074315674942,20.3938626940272,4.34963732943801,-1.77369850284657,1510.6602572167,3289.1675254055
0.98,4.4499236085,0.164400633047154,17.5870166799482,-7.89734988700409,-0.205275701257087,-4.44822544124119,7.73544247075308,-17.6588284073494,3.13240539892058,1542.16896293868,3289.1675254055
