t,iq,id,vq,vd,ia,ib,va,vb,theta_e,omega,r
0,0,0,0,0,0,0,0,0,0,0,0
0.01,0.000633612410237574,0.000355149052855893,-0.0309896312154575,-0.0177767623431973,-0.000514981964624643,-0.000512239311516452,0.0255785801429783,0.0249420680807709,2.86440456280022,-0.00208527182769303,0
0.02,0.000707624951292194,0.000396533218895937,-0.0347291805159179,-0.0198482077895639,-0.000575048904447282,-0.000572093019423619,0.0285947203378643,0.0279715802300165,2.86438923582325,-0.00213696709260916,0
0.03,0.00073591746847506,0.000413058536013159,-0.0361563234095871,-0.0206753698681147,-0.000598694962902547,-0.000594774088184071,0.029781301494565,0.0291174298826634,2.86437430995874,-0.00203215122716885,0
0.04,0.000717474386698256,0.000403916770259545,-0.0353107157113941,-0.0202177998667731,-0.000584862309966254,-0.000579529404988115,0.0291101476484328,0.028428953188435,2.86436117857078,-0.00178636975012462,0
0.05,0.000733114533975628,0.000413464261281304,-0.0361144713948263,-0.0206956830909149,-0.000598333115286781,-0.00059195193929441,0.0297901230913205,0.0290708601340119,2.86434892281339,-0.00167340283285255,0
0.06,0.000732576203285989,0.000413993040529083,-0.0361297791398603,-0.0207221634064637,-0.000598700969630277,-0.00059128274132702,0.0298201071716881,0.0290780020841925,2.86433774127099,-0.00151786266461136,0
0.07,0.000749836343676033,0.000424605149396727,-0.0370034012792473,-0.0212533445020652,-0.000613638196362153,-0.00060497292431733,0.0305704229831773,0.0297725645080516,2.8643278141473,-0.0014426321467466,0
0.08,0.000731031025170418,0.000414608888252002,-0.0361258099052624,-0.0207529801288794,-0.000598881664056897,-0.000589616521508442,0.0298492179166982,0.0290651770216918,2.86431856578156,-0.00124891816159917,0
0.09,0.000728772725782614,0.000414051429426533,-0.0360466290591919,-0.0207250766116816,-0.000597732133814936,-0.000587592178521651,0.0298009430644563,0.0289964145983617,2.86431037672934,-0.00112839838208747,0
0.1,0.000727643821153861,0.000414019010235372,-0.0360191673800308,-0.0207234607961275,-0.000597396244925806,-0.000586510867630103,0.0297920849867845,0.0289702246843119,2.86430300870866,-0.00102316285900228,0
0.11,0.00072668296291952,0.000414015927995119,-0.0359971436871806,-0.0207233058199333,-0.000597134131964231,-0.000585583594096075,0.0297860990723746,0.0289488870216576,2.86429637206425,-0.000928571084681425,0
0.12,0.000725820941342945,0.000414014603342959,-0.0359774727572382,-0.0207232323340159,-0.000596900369989444,-0.000584751296689158,0.0297808163065014,0.0289298096171724,2.86429039374367,-0.000843374563335156,0
0.13,0.000759665711233722,0.000433446033724411,-0.0376400026405818,-0.0216958699502948,-0.000624858434056315,-0.000611979897026323,0.0311716098374915,0.030262374523859,2.86428458874641,-0.000883554738133186,0
0.14,0.000789532371918078,0.000451304276533013,-0.0392071927228162,-0.0225897363124897,-0.000650214278054037,-0.000635813108498275,0.0324605380718969,0.031524809530825,2.86427934043522,-0.000917285097705963,0
0.15,0.000727560884692634,0.000416085113300611,-0.0361205768111326,-0.0208268794971181,-0.000599377410731721,-0.000585848429160349,0.0299201412636437,0.0290385971685964,2.86427452086755,-0.00063144992712775,0
0.16,0.00072322696519024,0.000414125860802881,-0.0359246482173971,-0.0207287998555763,-0.000596308724458478,-0.000582214201904002,0.0297722791417041,0.0288768919329058,2.86427067724402,-0.000563279770302549,0
0.17,0.000722499003465226,0.000414016244720593,-0.0359020391291154,-0.0207233133261182,-0.000596005990197691,-0.000581542019590379,0.0297609113299148,0.0288565466688921,2.86426724558412,-0.000513549659118714,0
0.18,0.000722039266933224,0.000414009551453279,-0.0358911674040258,-0.0207229758462582,-0.00059587547929897,-0.000581099840697134,0.0297576993544872,0.0288460908040649,2.86426415620629,-0.000469472690377399,0
0.19,0.000721637075001587,0.000414008640783863,-0.0358819495769576,-0.0207229421394675,-0.000595766104442754,-0.000580711607820658,0.0297552234613843,0.0288371516124968,2.86426137338152,-0.000429812167134418,0
0.2,0.0007212757678815,0.000414008104963957,-0.0358736915368577,-0.0207229071704596,-0.000595668121712342,-0.000580362759905031,0.0297530011294119,0.0288291441057537,2.86425886659304,-0.000394088322797163,0
0.21,0.000720950060829693,0.000414007638010546,-0.0358662376918725,-0.0207228893421325,-0.000595579806353152,-0.000580048281443667,0.029751008260997,0.0288219127802138,2.8642566084539,-0.000361908104925132,0
0.22,0.000720656775446144,0.0004140072181646,-0.0358595260034836,-0.0207228729098312,-0.0005955002819686,-0.00057976510662866,0.0297492134484927,0.0288154015420149,2.8642545743006,-0.000332919861625705,0
0.23,0.000720392593891513,0.000414006839938777,-0.0358534777595581,-0.0207228549685454,-0.000595428648118723,-0.000579510032570053,0.0297475929954767,0.0288095348188401,2.86425274191522,-0.000306806970333959,0
0.24,0.000720154605785454,0.000414006499172881,-0.0358480259779315,-0.0207228384334118,-0.000595364115842247,-0.000579280249239318,0.0297461319495102,0.0288042467926879,2.86425109128475,-0.000283284223540366,0
0.25,0.000719940308195824,0.000414006192159589,-0.0358431162374357,-0.0207228203981782,-0.000595306006957446,-0.000579073339562409,0.0297448131397476,0.0287994853798983,2.86424960438088,-0.000262094704106658,0
0.26,0.000727206361248581,0.00041818034341005,-0.0362001582525132,-0.0209317514631778,-0.000601310852687182,-0.000584918071096768,0.0300435560122433,0.0290856393940798,2.86424832186286,-0.000270222542779903,0
0.27,0.000704639412220051,0.000405389539760261,-0.0351111069519556,-0.0202915140367535,-0.00058283074857675,-0.000566714830152097,0.0291296394170808,0.0282134627567458,2.86424691592772,-0.000170931805755977,0
0.28,0.00070321248627485,0.000404527041188706,-0.0349519554777124,-0.0202483355417567,-0.000581611129395095,-0.000565577954016515,0.0290445653232132,0.028072183903522,2.86424582461068,-0.00015088038671877,0
0.29,0.000718277009306845,0.000413478151808422,-0.0357794429956723,-0.0206963866800288,-0.000594345396165738,-0.000577615437967413,0.0297020883378454,0.0287453459026095,2.86424499160185,-0.000192821272974276,0
0.3,0.000713134289918944,0.000410809554760055,-0.0355309064329868,-0.0205628147378451,-0.000590370801630371,-0.000573399792747315,0.029505576488965,0.0285428733302454,2.86424476880927,-0.000171535233776344,0
0.31,0.000718749637357676,0.000413827318061722,-0.0358061579854671,-0.0207138572834925,-0.0005948112242781,-0.000577973786471961,0.0297262357313119,0.028766225725451,2.86424395867035,-0.000180303488350516,0
0.32,0.000718991207454346,0.000413994983359073,-0.0358207188350192,-0.0207222584607113,-0.000595039074557882,-0.000578159755078504,0.029738325054578,0.0287779067431646,2.86424318231484,-0.000170492903309768,0
0.33,0.000718911893892194,0.000414004170967005,-0.0358194461731959,-0.0207227086812123,-0.000595026600359625,-0.000578080539044695,0.0297384298130157,0.0287765385600355,2.8642424800934,-0.000160563003690227,0
0.34,0.000718821904873219,0.000414004559199658,-0.0358173980550398,-0.020722733722294,-0.000595002699760662,-0.000577993506227527,0.0297379113128613,0.0287745430390591,2.86424184734799,-0.000151550664299474,0
0.35,0.000718739773865224,0.000414004470265745,-0.0358154985042427,-0.020722735462386,-0.000594980455451822,-0.000577914199138762,0.0297374092732613,0.0287726986545578,2.86424127735419,-0.000143428104138374,0
0.36,0.000718665931361623,0.000414004365753845,-0.0358137916364798,-0.0207227185928412,-0.000594960432873905,-0.00057784290172815,0.0297369404649825,0.028771046366814,2.8642407638975,-0.000136110966395252,0
0.37,0.00071859916717464,0.000414004270247561,-0.0358122388509163,-0.0207227188410837,-0.000594942327573482,-0.00057777843998262,0.0297365288426737,0.0287695391007663,2.86424030137064,-0.00012951960162899,0
0.38,0.000718539038660992,0.00041400418413537,-0.0358108377949701,-0.0207227190725991,-0.000594926021661621,-0.000577720385057799,0.0297361574282387,0.028768179134984,2.8642398847218,-0.000123582035072723,0
0.39,0.000718484905536412,0.000414004106557604,-0.0358095743663002,-0.0207227192890195,-0.000594911341639178,-0.000577668118662697,0.029735822493138,0.0287669527702131,2.86423950940073,-0.00011823341722729,0
0.4,0.000718436325157459,0.000414004036671833,-0.0358084424659248,-0.0207227023629995,-0.000594898167876121,-0.000577621212858358,0.0297355060128324,0.0287658587082277,2.86423917130792,-0.000113415330174182,0
0.41,0.000718392378373526,0.000414003973716068,-0.0358074106432654,-0.0207227025548055,-0.000594886250109158,-0.000577578781629771,0.0297352324332269,0.0287648572096638,2.86423886675044,-0.000109075150430019,0
0.42,0.000718352797162676,0.000414003917003084,-0.0358064785697408,-0.0207227012803243,-0.000594875516218969,-0.000577540565405195,0.0297349838863144,0.0287639529480822,2.86423859240235,-0.000105165474243295,0
0.43,0.000718317115866582,0.000414003865914265,-0.0358056347025191,-0.0207227014511181,-0.000594865839845187,-0.000577506114707127,0.0297347600981723,0.0287631339354138,2.86423834526707,-0.000101643599856542,0
0.44,0.000718284985237799,0.000414003819892153,-0.0358048721693503,-0.0207227016128809,-0.000594857126388033,-0.000577475092180373,0.0297345578661468,0.0287623938799395,2.86423812264491,-9.8471061105499e-05,0
0.45,0.000718256056030363,0.000414003778433914,-0.0358041830616142,-0.0207227017664906,-0.000594849281144297,-0.000577447160616417,0.0297343750956279,0.0287617251027298,2.86423792210494,-9.56132072993683e-05,0
0.46,0.000718229978998307,0.000414003741087307,-0.0358035584914677,-0.0207227019128427,-0.000594842209319619,-0.000577421982936179,0.0297342094169616,0.0287611189902054,2.86423774145665,-9.30388247553579e-05,0
0.47,0.000718206718951648,0.000414003707444448,-0.0358030044884164,-0.0207226849290549,-0.000594835902028511,-0.000577399524231678,0.0297340460694243,0.0287605859712175,2.86423757872692,-9.07197958853963e-05,0
0.48,0.000718185531363104,0.000414003677138185,-0.0358024907263178,-0.0207226850634837,-0.000594830156085421,-0.000577379067471826,0.0297339097399946,0.0287600874480982,2.86423743213837,-8.86307920925009e-05,0
0.49,0.000718166555665671,0.000414003649837697,-0.0358020305309751,-0.0207226851922362,-0.000594825010276959,-0.000577360745898648,0.029733787654066,0.0287596408785004,2.86423730009001,-8.67489971291848e-05,0
0.5,0.000718149384405724,0.000414003625244654,-0.0358016091665505,-0.0207226853163573,-0.000594820353584261,-0.000577344166853646,0.0297336758192906,0.0287592320465713,2.86423718113975,-8.50538578987044e-05,0
0.51,4.67001733664957,0.0384929383264764,6.50018851829775,-1.91834031514077,-0.601816044354721,4.63123753220085,-2.79098311619395,6.17599332765383,0.137465398275832,42.4727658460483,3933.96832423602
0.52,4.63563574971718,0.0131245759098914,8.22053943280566,-0.637641072534554,-2.70324215666495,3.76586947476651,-5.32957134741639,6.29122595020192,0.625421583385401,90.7950030037722,3933.96832423602
0.53,4.6489770926057,0.0364353196923368,7.5548849036237,-1.79212784506022,-4.62381350248047,0.484421546148505,-7.69245922138694,-1.05549952503089,1.47424757595234,141.523210579089,3933.96832423602
0.54,4.64909410866015,0.00447923465815592,7.55055961510551,-0.19156673101082,-1.94715919013971,-4.22169008608829,-2.98172549447801,-6.93952169744229,2.71040479873502,194.949583448745,3933.96832423602
0.55,4.63000322803037,0.0339592376165432,8.50673057073378,-1.64831950244126,4.26014492402006,-1.81362850323248,8.48571441676918,-1.75330345982106,-1.96594211243592,243.18179277616,3933.96832423602
0.56,4.56921081038679,0.0269275500670547,11.548068907612,-1.30021210129224,0.000903811447243032,4.56929006584535,-1.36596142684214,11.5404764365983,0.00569539109901115,295.318501917961,3933.96832423602
0.57,4.53176378524574,0.0617773244605577,13.4222914719356,-3.01774191965408,-3.27505596396639,-3.13284341708463,-7.45634764671499,-11.5614685236159,2.34763604151443,343.888428161235,3933.96832423602
0.58,4.53764784715839,0.0582675484797591,13.1300166464444,-2.8383741682515,4.28784829148762,1.48593409046758,11.386196949363,7.12798878262454,-1.22436220431195,394.390888479403,3933.96832423602
0.59,4.54694510244651,0.0617091155691236,12.6672715112856,-3.00888290028597,-4.38555245786014,-1.20226761536837,-11.3351348459237,-6.40529951469782,1.85193614984956,444.839256725034,3933.96832423602
0.6,4.55442554599597,0.0287618740709386,12.2953868127273,-1.35400640136391,3.82141061444815,2.4779911652796,9.53000314831927,7.88599456013936,-0.989196913682752,494.865035282993,3933.96832423602
0.61,4.50849985598295,0.0782115884499945,14.5939211229079,-3.81956098264225,-1.50558848923724,-4.2503989583382,-1.01155112742855,-15.0515229846809,2.81850662853164,544.516403481689,3933.96832423602
0.62,4.49151839710477,0.0856162107172813,15.4453801542316,-4.17235665004707,-2.85348582605712,3.46968100659978,-13.2077717789235,9.02901394172117,0.707313936581391,593.798496200759,3933.96832423602
0.63,4.43784820383473,0.0591339350608213,18.1313313824855,-2.8254333093723,3.85901271600302,2.19226238399556,14.2160815341229,11.6030718735334,-1.04084729107843,643.091051216374,3933.96832423602
0.64,4.44862509118702,0.0283547935559159,17.5950405024925,-1.3148424849084,2.89787758060749,-3.37540734194686,12.5383447606098,-12.413870134191,-2.42579539196516,693.28384012629,3933.96832423602
0.65,4.44919716153669,0.109270555648143,17.569074574559,-5.32886832663165,-1.44631179759709,-4.20897583987949,-0.219203150128076,-18.3581363168478,2.83516252152363,742.154955986222,3933.96832423602
0.66,4.44030482117901,0.0188229902843604,18.0164135940725,-0.823828083192174,-3.66874401183018,-2.5013953277339,-14.375564724241,-10.8909591112304,2.17345040036722,791.816475143103,3933.96832423602
0.67,4.41486826211176,0.0954510832794484,19.2910266823641,-4.60644264913098,-4.24292967379344,-1.22381390102583,-17.0435153997399,-10.143057091343,1.87322752805007,840.43523889451,3933.96832423602
0.68,4.42304494864289,0.0832207196414461,18.8850448761631,-4.00857666029017,-4.16522081732333,-1.4903650052351,-16.2370038163554,-10.4438170169617,1.93322641495782,889.888244872877,3933.96832423602
0.69,4.40578951573032,0.113200799637343,19.7507271728888,-5.51890317982306,-3.20568695419433,-3.02446141150223,-10.123975679844,-17.8340862563821,2.35280220591058,939.15172089406,3933.96832423602
0.7,4.35761598367157,0.0669694922943262,22.1624326754267,-3.20486254359809,-0.1109603966359,-4.35671777424548,2.98094816825229,-22.193659320499,3.1314965218854,988.099192287575,3933.96832423602
0.71,4.37953816509019,0.0926877055422866,21.0694430452801,-4.48223340321892,3.91548842101099,-1.96415273723026,20.952952802425,-4.99856133088138,-2.0145917987512,1036.90061616671,3933.96832423602
0.72,4.38190924260879,0.122787552574672,20.9541071204194,-5.96865995760358,2.28339522314764,3.74196628103918,5.22944197979104,21.150707871925,-0.519880850156194,1085.50336116537,3933.96832423602
0.73,4.39324456973605,0.104895029733503,20.3906006311858,-5.03545186012407,-4.24341896864023,1.14236433477343,-21.0030566742762,-0.0630862368787541,1.3316942878133,1133.91044536261,3933.96832423602
0.74,4.32266044554997,0.121118240577749,23.9231551514786,-5.82506764910187,1.5627785951906,-4.03209449518944,14.6372441591988,-19.7989860584407,-2.74382258044217,1182.52703566675,3933.96832423602
0.75,4.32356994402631,0.0882272247915727,23.8811221616626,-4.22409647479392,0.860809399610678,4.23792971645637,0.119351649041747,24.2515307127713,-0.179990730892661,1231.24128242312,3933.96832423602
0.76,4.27543383691067,0.178960643531767,26.2914113031854,-8.70275445633822,-1.84094698259685,-3.86293613887177,-2.3024262697406,-27.598461491775,2.73870022375879,1279.35538432158,3933.96832423602
0.77,4.28422486831603,0.0884318920690613,25.8554575421048,-4.20295780444085,1.23255309738333,4.10404870633417,2.87487589136068,26.0366016912109,-0.271117625733178,1327.83477893611,3933.96832423602
0.78,4.28862047897858,0.129604284863051,25.6393238772431,-6.29371079160615,0.785964900564646,-4.21797606186305,11.6055066464917,-23.7128222674734,-2.92715715372059,1376.25750384884,3933.96832423602
0.79,4.24303355405858,0.159461655014807,27.9223638920014,-7.74913353731497,-3.60895338340486,2.23701078153363,-28.1009894369706,7.07402774660598,1.05347306512955,1424.27436201219,3933.96832423602
0.8,4.24223683617355,0.175834053437645,27.9659736440349,-8.51192841644759,-2.60429541816865,-3.35337685974032,-9.29094212370591,-27.7169082272812,2.52269675828835,1472.25847754791,3933.96832423602
0.81,4.20420802149166,0.203447024296589,29.8712721168803,-9.88753659457184,-3.23628949278846,2.69131679639112,-29.8108326506026,10.0682935231088,0.925432066903703,1520.28003223227,3933.96832423602
0.82,4.20388649065524,0.167091163529123,29.8912736995769,-8.10547501131406,1.48142392905529,3.93776132157163,1.71203416624077,30.9233877114989,-0.32010487071705,1568.34222767642,3933.96832423602
0.83,4.16993904603302,0.108977090044714,31.5926219789509,-5.23851916230082,3.94570334635764,1.35340044197108,27.7770459061296,15.9364854107626,-1.21423763125249,1616.39155277001,3933.96832423602
0.84,4.22513871589595,0.160388392066607,28.836661231079,-7.75896727193193,4.12194227215787,-0.941867034071486,29.7757434255625,2.27149896279884,-1.75749807029264,1664.09501969435,3933.96832423602
0.85,4.15522249845222,0.160625753023863,32.3365689549268,-7.7121963025611,3.79976973570547,-1.68920827602601,32.8919846667881,-4.8217225413483,-1.95047621619241,1711.69824020443,3933.96832423602
0.86,4.15981805259111,0.146770052390921,32.1109741214206,-7.09502931664716,4.02452659726508,-1.06245627997,32.8849936772711,-0.176892273614898,-1.79363491393263,1759.6117363251,3933.96832423602
0.87,4.13982556470323,0.195066764572718,33.1148541524715,-9.42041967990281,4.0297096574292,0.968321654014363,29.1687382221238,18.2899585295914,-1.28788709267212,1806.9831175142,3933.96832423602
0.88,4.18531592332994,0.189811399385929,30.8446460126027,-9.18407529269845,1.92977566220945,3.71871801014275,4.61727985728849,31.8499631607982,-0.433360491707678,1854.55215297175,3933.96832423602
0.89,4.12802698606226,0.185792428793802,33.7134648523563,-9.03145674122392,-2.73792880632717,3.09497519791989,-29.939270712865,17.9389239477023,0.769239195736235,1902.16545486291,3933.96832423602
0.9,4.07776583996745,0.152676532971751,36.2309897159762,-7.39225284209574,-3.09132058474038,-2.66368568184876,-21.5115396157676,-30.0762976651034,2.3194479477235,1949.54442275224,3933.96832423602
0.91,4.07546123498099,0.188839320504666,36.3507903467171,-9.2003238530737,3.49424695950056,-2.10601109988113,36.347838467787,-9.21197897045383,-2.06690215579409,1996.76843305552,3933.96832423602
0.92,4.07747999660117,0.184812797616315,36.2544463800535,-8.99002212839643,1.6196638861155,-3.74655679108948,23.9602560364682,-28.6550433756454,-2.68825471676345,2043.9884477819,3933.96832423602
0.93,4.05577408684299,0.164481771647257,37.3444312295787,-7.94650963967233,0.566537216599074,4.0193772252576,-4.19770471386374,37.9490821292076,-0.0994962683545805,2091.06095902743,3933.96832423602
0.94,4.10778099661887,0.218416062604424,34.7488285425808,-10.5778606589038,-1.45124868799311,-3.84908398689675,-0.433596784232204,-36.3205756428717,2.83415822953422,2137.92875884433,3933.96832423602
0.95,3.96270899216346,0.247456692582853,42.007214058721,-11.9926878173887,0.91960961912128,3.86246236482594,-4.65334573111598,43.4370460271789,-0.171371869102227,2184.81446425029,3933.96832423602
0.96,4.03125247530087,0.113246959081633,38.5848480289634,-5.36862441097913,1.11593793600536,-3.87537145527299,16.8291417940835,-35.1339239476463,-2.83313647945422,2231.81182545749,3933.96832423602
0.97,4.03362992929788,0.285735130283944,38.4708162862804,-13.8864809949836,-3.52875764924355,1.97476186516531,-40.7233228019083,3.80118930446206,1.13131773184949,2278.37172427187,3933.96832423602
0.98,4.00082654224163,0.249440883978472,40.1158723776375,-12.1446662161537,3.15885626519511,2.46788591137084,21.9561735644494,35.7029771381668,-0.845320803490535,2325.09854079779,3933.96832423602
