t,iq,id,vq,vd,ia,ib,va,vb,theta_e,omega,r
0,0,0,0,0,0,0,0,0,0,0,0
0.01,0.000755570156614953,0.000422676405385657,-0.0371013025023045,-0.0211466744623857,-0.000855862720221853,-0.0001305396850438,0.0422666260223605,0.00610088623656758,2.23219589518316,-0.00126146153347504,0
0.02,0.000913532194740262,0.000506985807261416,-0.0449403898599443,-0.0253647060501657,-0.00103230211469959,-0.000161021810877344,0.0510435941095791,0.00758672881758924,2.23218596035849,-0.00142298220038739,0
0.03,0.000972350470228841,0.000539387838512257,-0.047872163984801,-0.0269857952612957,-0.00109862148107082,-0.000171567825127352,0.0543529517659487,0.0081076423700544,2.2321756965629,-0.00140542978808751,0
0.04,0.000953261693755603,0.00052987577537987,-0.0469921251340861,-0.026509907629572,-0.00107771686774206,-0.000167339616052109,0.0533662547866489,0.00794215822006308,2.2321662570249,-0.00125997719880678,0
0.05,0.000974318616378812,0.000543168155517544,-0.0480704576703795,-0.0271749430528672,-0.00110249962817992,-0.000169773323151156,0.0546257575967686,0.00807917307311862,2.23215743991912,-0.00119282600238696,0
0.06,0.00097578682652483,0.0005453644644474,-0.0481880012278102,-0.027284819476025,-0.00110500861426964,-0.00016893280407099,0.0547860691253855,0.00806420894813594,2.23214925099138,-0.00109849772791118,0
0.07,0.000990152359320683,0.000555129116407135,-0.048931300674363,-0.0277733446650144,-0.00112234390651824,-0.000170041718565326,0.055672757778597,0.0081347956884157,2.23214186536206,-0.00103646592206487,0
0.08,0.000974552724992218,0.000547337738887295,-0.0482078527889548,-0.0273835431145009,-0.00110524905311399,-0.000166601755064701,0.0548624845011256,0.00799770582035972,2.23213491119822,-0.000926594442008943,0
0.09,0.000969939998957552,0.000546045529608535,-0.0480174929101785,-0.027318882951577,-0.00110081621650486,-0.000164781611423007,0.0546725951957105,0.00793147689065388,2.23212864117836,-0.000844233235486168,0
0.1,0.000967474362880874,0.000545829171304751,-0.0479289168052991,-0.0273080756919888,-0.00109873845142931,-0.000163431766892781,0.0545961007103217,0.00788529335897433,2.2321229326208,-0.000772311672406782,0
0.11,0.000965540663252272,0.000545791082461084,-0.0478635329333394,-0.0273061496363039,-0.00109718987011555,-0.000162268502807827,0.0545433591320641,0.00784637288253435,2.23211772508747,-0.000707259288525836,0
0.12,0.000963832755403997,0.000545782694463319,-0.0478066359384368,-0.0273057450050106,-0.00109583763567228,-0.000161220985636125,0.0544982456985937,0.00781148934612395,2.23211297275844,-0.000647994287456302,0
0.13,0.00100138711460635,0.00056777846547439,-0.0496672528527736,-0.0284061906553707,-0.00113898454924349,-0.000166921345970776,0.0566424978786167,0.00808548746591787,2.23210842917215,-0.000660573114007827,0
0.14,0.00102367706057514,0.00058145843172182,-0.0508467522083192,-0.029090606669697,-0.00116497779897074,-0.000169809776142165,0.0579937147421684,0.00826950161431913,2.23210417878287,-0.000649651090900994,0
0.15,0.000970708416188699,0.000551680047203242,-0.0482138075217755,-0.027600795467624,-0.00110488774355039,-0.000160775551293971,0.0550008859355461,0.00782800693008633,2.23210024050106,-0.00050944664110357,0
0.16,0.000960188374215633,0.000546750275412948,-0.0477181044991671,-0.0273541561775025,-0.00109355832863307,-0.000158201641964453,0.0544582337968997,0.00771803918743911,2.23209694822926,-0.000451891721860546,0
0.17,0.000957442955675114,0.000545933099061003,-0.0476004221618621,-0.0273132595279957,-0.0010908902602544,-0.000157157252789453,0.054340265812817,0.00767788039914247,2.23209399821392,-0.000412124818523419,0
0.18,0.000956179865780819,0.000545796674535548,-0.0475536822760187,-0.0273064408461694,-0.00108981007064947,-0.000156486279173893,0.0542992117821752,0.00765441111571431,2.23209131573396,-0.000378143837418134,0
0.19,0.000955252466312561,0.000545773017878895,-0.0475220266238888,-0.0273052551423512,-0.00108906402222255,-0.000155932732103623,0.0542735197109934,0.00763577311153884,2.2320888693001,-0.000347549550496637,0
0.2,0.000954446838427201,0.000545768118153518,-0.0474951246172917,-0.0273050003905216,-0.00108842555933903,-0.000155439402836042,0.0542521492292631,0.00761933151557368,2.23208663682659,-0.000319702908173429,0
0.21,0.000953718832161218,0.000545766408317373,-0.047470924663456,-0.027304925374647,-0.00108785028217705,-0.000154991441163447,0.0542330200384022,0.00760441816530518,2.23208459936243,-0.000294301744161636,0
0.22,0.000953055843885711,0.000545765304592492,-0.0474489066338501,-0.0273048763992993,-0.00108732666031246,-0.00015458312661929,0.0542156274097524,0.00759083397893403,2.23208273983002,-0.000271121227881072,0
0.23,0.000952450946858642,0.000545764372586135,-0.0474288188719577,-0.0273048301981368,-0.00108684896319484,-0.000154210530634465,0.0541997585788553,0.00757844190660942,2.23208104268276,-0.000249965397211485,0
0.24,0.000951898960594318,0.000545763534214547,-0.0474104876705743,-0.0273047838707457,-0.00108641305695084,-0.000153870517467241,0.0541852747932893,0.00756713677460213,2.23207949373892,-0.000230657076369731,0
0.25,0.000951395228479868,0.000545762770896656,-0.0473937578203637,-0.0273047374262473,-0.00108601525743306,-0.000153560227577527,0.0541720536744044,0.00755682254317571,2.23207808005618,-0.000213034864835259,0
0.26,0.000958470644640696,0.000550070461298498,-0.0477464347901185,-0.0275202640403163,-0.00109424488506355,-0.000154504435351684,0.0545827589053656,0.00760324919323925,2.23207684081235,-0.000210869345059259,0
0.27,0.000940130230575904,0.000539597060273429,-0.0468574726574327,-0.0269962669842534,-0.00107333870174597,-0.000151505343908112,0.0535593927854528,0.00747078438858526,2.23207553033116,-0.000162952215985266,0
0.28,0.000939223244828475,0.000539339098150362,-0.0467550315077105,-0.0269833650969503,-0.00107246464287021,-0.000151150773114279,0.0534706300560355,0.0074179973478635,2.23207445614642,-0.000148636085909942,0
0.29,0.000947807194202939,0.000544697518073882,-0.0472436917731084,-0.027251453149552,-0.00108253004773845,-0.000152192507443974,0.0540209313107737,0.00750646997138923,2.23207354611512,-0.000153032385936972,0
0.3,0.00093558250634771,0.00053834301728356,-0.0466490749039198,-0.0269335252325994,-0.00106897983497488,-0.000149699508545997,0.0533564107249374,0.00739218542775928,2.23207304628728,-0.000125516129945053,0
0.31,0.000946786390261549,0.000544532105395404,-0.0472008710132153,-0.0272431647719867,-0.00108162302887407,-0.000151694779080011,0.0539820561960238,0.00748664544700307,2.23207227775847,-0.000136216566480827,0
0.32,0.000948593026316943,0.000545556063379979,-0.0472934369533752,-0.0272943933626786,-0.00108367779717625,-0.000151995328135555,0.0540865765871075,0.00750302079075269,2.23207150909698,-0.000130310948462866,0
0.33,0.000948715624242393,0.000545725213202855,-0.0473033985396832,-0.0273028758112517,-0.00108387854001754,-0.000151936350148304,0.0540996529958862,0.00750240539383424,2.23207079536995,-0.000122080350395228,0
0.34,0.000948551100859625,0.00054575291833985,-0.0472989928031573,-0.0273042565364288,-0.00108376581008034,-0.000151812738989095,0.0540970287802039,0.00749857468816787,2.23207014175944,-0.000114053576307244,0
0.35,0.000948350836236503,0.000545757239356026,-0.0472925233646985,-0.0273044646496787,-0.00108361050329886,-0.000151685694910158,0.0540920553115802,0.00749440512482865,2.23206954482491,-0.000106634404088977,0
0.36,0.000948158953230118,0.000545757713301715,-0.0472861722342373,-0.0273044806768546,-0.00108345944077368,-0.000151566890900174,0.0540870568538673,0.00749046263492468,2.23206899994496,-9.98461912644223e-05,0
0.37,0.000947982060157914,0.000545757571588068,-0.0472802873720679,-0.0273044872460863,-0.00108331982305559,-0.000151457830110404,0.0540824202117715,0.00748681653270472,2.23206850263338,-9.36476908772487e-05,0
0.38,0.000947820386870437,0.000545757347187378,-0.0472749034373004,-0.0273044653407226,-0.001083192159512,-0.000151358228543936,0.0540781610921133,0.00748350288596459,2.23206804874699,-8.79899171800217e-05,0
0.39,0.000947672655827467,0.000545757126633584,-0.0472699789212001,-0.0273044659830744,-0.00108307549563405,-0.000151267229205423,0.0540742780987848,0.00748045572989083,2.2320676344957,-8.28261064492898e-05,0
0.4,0.000947538107309698,0.000545756922720254,-0.0472654965618423,-0.0273044439852082,-0.00108296924024334,-0.000151184351663428,0.0540707298842,0.00747769993840219,2.23206725641873,-7.81132059825673e-05,0
0.41,0.000947415056314888,0.000545756736169077,-0.0472613910633007,-0.0273044445365172,-0.00108287206445359,-0.00015110855711072,0.0540674926919478,0.00747515957636724,2.23206691135729,-7.38118551027443e-05,0
0.42,0.000947302715525196,0.000545756565825668,-0.0472576403241315,-0.0273044421364305,-0.00108278334664485,-0.000151039359809972,0.0540645334408975,0.00747284103970741,2.23206659642824,-6.98861180511688e-05,0
0.43,0.000947200414051253,0.00054575641033616,-0.0472542266025074,-0.0273044200261975,-0.00108270255692084,-0.000150976345958425,0.0540618278571669,0.00747074651625871,2.23206630900028,-6.63031949322333e-05,0
0.44,0.000947106932548103,0.000545756268414708,-0.0472511033411068,-0.0273044204664827,-0.0010826287325418,-0.000150918765133989,0.0540593651685037,0.00746881393132794,2.23206604667189,-6.30331496921801e-05,0
0.45,0.000947021483702136,0.00054575613887943,-0.0472482442823755,-0.0273044208757922,-0.00108256125176283,-0.000150866132381213,0.0540571108010065,0.00746704486240242,2.2320658072513,-6.00486603609619e-05,0
0.46,0.000946943862276145,0.000545756020650782,-0.0472456511878024,-0.0273043986790304,-0.00108249995225389,-0.000150818320337306,0.0540550522962417,0.00746545809937386,2.23206558873804,-5.7324790841283e-05,0
0.47,0.000946872732514722,0.000545755912741716,-0.047243268231055,-0.0273043990347694,-0.001082443779494,-0.000150774507484461,0.0540531733418919,0.00746398361953672,2.23206538930638,-5.48387825706461e-05,0
0.48,0.000946807772765338,0.000545755814251927,-0.0472410892977117,-0.0273043993666079,-0.00108239247933377,-0.000150734495190542,0.0540514552603662,0.0074626353952354,2.23206520729009,-5.25698643731572e-05,0
0.49,0.000946748517366707,0.000545755724359459,-0.0472391002620822,-0.0273043996763438,-0.00108234568399546,-0.000150697996481608,0.0540498869160661,0.00746140466782497,2.23206504116836,-5.04990789112537e-05,0
0.5,0.000946694500657541,0.000545755642314391,-0.0472372861592887,-0.0273043999657612,-0.00108230302572486,-0.00015066472447141,0.0540484565100719,0.00746028217051186,2.23206488955304,-4.86091242906461e-05,0
0.51,4.70122378312477,0.0301540342624853,4.93949822506525,-1.50345300977008,-0.173842736373987,4.69810525933703,-1.71634352619584,4.86961790781321,0.0433998530987658,13.3626953965574,2317.00968208863
0.52,4.72008928092948,-0.0247061505524658,3.99705397687131,1.24796013425911,-0.94567080471736,4.62445239384359,0.44365809159678,4.1637738277293,0.196478341032712,28.4182024685154,2317.00968208863
0.53,4.68177153614764,0.039782423164042,5.91382847568471,-1.97168997382591,-2.04564150110462,4.21140335361426,-4.39513669937017,4.42082593940934,0.460670695703296,43.7676723586258,2317.00968208863
0.54,4.72739965875933,0.0274917626989926,3.63329643678574,-1.34911518578559,-3.50367721275371,3.17384771523218,-3.60679878718434,1.41843480316962,0.84056737041272,60.1423384620945,2317.00968208863
0.55,4.67596742982745,-0.0105230634248201,6.20589321060146,0.552530256230027,-4.55850074891686,1.04156279781652,-5.92256452484177,1.93432925700996,1.34391397652194,76.9047029184501,2317.00968208863
0.56,4.65973986610159,-0.0237958164551777,7.01834282790343,1.22712307658172,-4.2953556048042,-1.8065608456109,-6.95320719407196,-1.554309110624,1.96381459974595,92.0808609311011,2317.00968208863
0.57,4.65280308959197,0.00101689529880294,7.36629328463157,-0.00452485890828897,-2.00902141620043,-4.19671425925576,-3.17513807873376,-6.64686357694599,2.69533781002011,107.866436878512,2317.00968208863
0.58,4.70816367140945,0.0813893568587842,4.59948619914284,-4.02676387668921,1.7812065046617,-4.35898299743649,5.51384142812628,-2.63963128489433,-2.73638462210923,123.969750014636,2317.00968208863
0.59,4.67135447529873,0.0258415724685093,6.44115421918427,-1.23284858084349,4.57184068450147,-0.959423356135447,6.55758912139492,-0.0800513183282772,-1.77211771826245,139.448292920277,2317.00968208863
0.6,4.63608004033556,-0.00322136848757909,8.20621066236823,0.220531673290457,2.94827264597544,3.57783970051841,5.39315766809781,6.18905307952098,-0.68992167874673,155.323050614093,2317.00968208863
0.61,4.64055708865339,0.0384653411586697,7.98380537485724,-1.86904304021948,-2.21477567830973,4.07811456071177,-5.50328788169593,6.07851072557834,0.505809881691717,171.302839545825,2317.00968208863
0.62,4.59587707915571,0.0318729581726229,10.2192487007846,-1.51578435281166,-4.46466795107161,-1.09079883518708,-9.54024373799451,-3.96413869994139,1.81735514498449,186.589393251497,2317.00968208863
0.63,4.6525903075399,0.0242092202007851,7.38507046533504,-1.1292425548736,0.454102917832244,-4.63043984910432,1.88228523017996,-7.22990019557309,-3.03863284037844,202.322607669749,2317.00968208863
0.64,4.61192777423014,0.0598918528464626,9.41982101134068,-2.91624524254486,4.60378800234926,0.280358445882632,9.17912873922015,3.60293072222928,-1.49698853347145,218.142889001632,2317.00968208863
0.65,4.57492284567644,0.0861380557146596,11.2717942661459,-4.22950123309977,-0.640020413032769,4.53075188897338,-5.96248687962026,10.4590045831077,0.15915897442765,233.851386323394,2317.00968208863
0.66,4.57887369058141,0.103059823883046,11.0759749609552,-5.07276250199884,-4.32314297168165,-1.5123294773286,-8.58743937104853,-8.64095051403245,1.9298162281638,249.490962125387,2317.00968208863
0.67,4.57846099047731,0.0202356237891795,11.0984019898871,-0.922583935386418,2.83925432796152,-3.59184484394084,7.64206379223588,-8.10089802690791,-2.4682685493644,265.065881649439,2317.00968208863
0.68,4.58522205067251,0.00550252465013656,10.7621145503584,-0.175724654422381,2.07645100607182,4.08810992405222,4.70541102807441,9.68055245355778,-0.468767001781405,280.605198431512,2317.00968208863
0.69,4.61676683044019,0.0599691558354722,9.18671827384871,-2.88624315841567,-4.60852278059183,-0.28222339922566,-8.94764939034181,-3.55889907135379,1.64494809006471,296.074977528215,2317.00968208863
0.7,4.59570935524575,0.142739710098521,10.2414976363658,-7.01304646523806,2.96202724933215,-3.51671916378691,12.0587490919574,-2.94239101692678,-2.41055401217866,311.558994037595,2317.00968208863
0.71,4.47838222807872,0.00579804733530187,16.1098670191121,-0.190541255454259,0.314046028163982,4.46736119989403,0.918805643668491,16.0847728467849,-0.0688877506636296,327.274372173001,2317.00968208863
0.72,4.56967282122207,0.0235053898042832,11.54739801004,-1.05980649443801,-3.14816131948408,-3.31233188295946,-7.14008934868937,-9.13699702860088,2.38674421661417,342.787731942258,2317.00968208863
0.73,4.56186329517092,0.115124710244708,11.9399631448355,-5.6144064793566,4.45521839458339,0.987359852993029,10.2355560314136,8.32572355674055,-1.32747156512016,358.09266758871,2317.00968208863
0.74,4.55758345268301,0.0671841350586222,12.1561451120133,-3.24475329244476,-4.43753216853466,1.04133994900495,-12.5689587345213,-0.567066348019694,1.35504058488594,373.781372806798,2317.00968208863
0.75,4.50386312599791,0.0429149850982564,14.8442893270029,-1.99275089487099,3.78964944526802,-2.43416963986683,13.6265496746488,-6.21619865489432,-2.13222582163693,389.044661135184,2317.00968208863
0.76,4.51036976975945,0.0237947189587218,14.5213012439061,-1.06171331499084,-3.14523787656222,3.23287493547904,-10.9379074526922,9.61028644400557,0.776934256949565,404.643862945867,2317.00968208863
0.77,4.51836701853816,0.0562221364412437,14.1237002482291,-2.6438305842215,2.71642882941239,-3.61106852019962,10.7230841889709,-9.56473806939504,-2.48421027193413,419.951994056503,2317.00968208863
0.78,4.53553585819477,0.0494072056831659,13.2675776122858,-2.30523594014848,-2.70957460850401,3.63754478101567,-9.87474547617166,9.1559887624771,0.651116289491016,435.340041006746,2317.00968208863
0.79,4.50916801154091,0.100919451329276,14.5882940694906,-4.89989792165442,3.02580710764246,-3.34473799262375,13.5856074225728,-7.22901061420603,-2.38383887506049,450.86759388909,2317.00968208863
0.8,4.49826974632845,0.0630351804083285,15.1356148116734,-3.01299716560525,-3.6936417485023,2.56815396314626,-14.2320405437537,5.96774744843,0.977250397602746,466.298214681202,2317.00968208863
0.81,4.45287050750669,0.0861869157802513,17.4080523320335,-4.1715428088703,4.27944566743172,-1.23362422178494,17.8947950582543,-0.467295649597699,-1.83210177460474,481.63438976866,2317.00968208863
0.82,4.43538873771095,0.14727004829567,18.2846443930289,-7.22289805363509,-4.38778236592793,-0.664625933130853,-16.6594755185589,-10.4384075566758,1.75431673864787,496.953684723639,2317.00968208863
0.83,4.47324855707368,0.0546456489284106,16.3942071110593,-2.58259201848875,3.33786206423573,2.97852574950169,10.3550129308738,12.9697153220765,-0.830010944724457,512.290735181283,2317.00968208863
0.84,4.413543105919,0.0927480899273829,19.3820863952635,-4.48910826821843,-0.796373253918892,-4.34209103962975,1.33629885264286,-19.8502310176398,2.98121219657032,527.64010273943,2317.00968208863
0.85,4.40288411199754,0.0917748486567742,19.9177632864322,-4.43360551172263,-2.4888979999714,3.63307003404348,-15.2014297968327,13.6121520818675,0.621474893174572,542.935190602866,2317.00968208863
0.86,4.41813445946925,0.166303540690949,19.1579489199984,-8.14189870367424,4.40212740421771,-0.410905447312877,19.5797368801827,7.06763220781709,-1.6262457534244,558.179262819992,2317.00968208863
0.87,4.42575957616936,0.0944194583171676,18.7794413921748,-4.5124356729662,-1.17065674208003,4.26917154169123,-9.67672555048662,16.714977634605,0.288964010274823,573.362629298983,2317.00968208863
0.88,4.37227912658957,0.163396381557672,21.4562394223832,-7.95185934853656,4.2867929394205,-0.875745072981616,22.4673150075984,4.3384367690311,-1.73495899624504,588.65392304796,2317.00968208863
0.89,4.39206634342239,0.112371217644721,20.469732781551,-5.44057633221288,-2.22474878671199,-3.78858375802914,-5.15003488151416,-20.5447553330266,2.63619941481126,603.967275800987,2317.00968208863
0.9,4.46790159103309,0.117514185964531,16.6808006919456,-5.64152626559964,-3.23565336370249,3.0832615070765,-16.1575342589829,7.00071546341216,0.835806077462535,619.089881508287,2317.00968208863
0.91,4.40213166138422,0.138954664874857,19.9721502360708,-6.76961756675255,3.40680776289247,2.79136748382356,10.5881900752259,18.2374542626748,-0.852812708182783,634.45551956047,2317.00968208863
0.92,4.38473738600667,0.15746458677198,20.8448040331379,-7.63193306518032,2.74442084222875,-3.42328369859588,19.3931640414221,-10.8008076528475,-2.42992400477694,649.53339703988,2317.00968208863
0.93,4.38211165995411,0.12144371026527,20.9791156331734,-5.87090979146337,-3.0884773997355,-3.11110246157079,-10.0826438996111,-19.3114258024413,2.3875503464777,664.80742780692,2317.00968208863
0.94,4.35591974805133,0.151946745901946,22.2917685698725,-7.4135985001416,-3.66301664608879,2.36208249549633,-22.9422319627904,5.05355135123587,1.03292135287949,679.965217706714,2317.00968208863
0.95,4.40447617284931,0.147295994882172,19.8669968055811,-7.10604152027461,1.06390403381664,4.27658914020675,-2.80020550036654,20.912968161324,-0.210394532307687,695.048067611488,2317.00968208863
0.96,4.40839282044022,0.0833781790038701,19.6742785669436,-3.9260277905837,4.3130145049051,0.915852095330394,18.2764807181119,8.27412738012995,-1.34264687109314,710.234225909285,2317.00968208863
0.97,4.38079582658056,0.14813479742326,21.0572827064869,-7.18579630975163,2.9683230856937,-3.22527115934941,19.8951473301847,-9.9613220154956,-2.3638551080502,725.41284553903,2317.00968208863
0.98,4.38959019537377,0.146166375693582,20.6208103281141,-7.09495655020781,-0.72580698318698,-4.33163605533313,4.30355515879301,-21.378391895384,3.00886146357418,740.534552674476,2317.00968208863
