t,iq,id,vq,vd,ia,ib,va,vb,theta_e,omega,r
0,0,0,0,0,0,0,0,0,0,0,0
0.01,0.000563036280929163,0.000305565125758765,-0.0262873793924018,-0.0152853914607609,-0.000304618109139884,0.000563549205754524,0.0136654573040849,-0.0271647710113486,0.992776094498261,-0.00364346703878452,0
0.02,0.000716974790641609,0.000382026181551678,-0.0338100263965485,-0.0191102253984737,-0.00039175237553481,0.000711707053547573,0.0178752631326634,-0.0344788858238462,0.992747255269357,-0.00409037213819888,0
0.03,0.000774014832532637,0.000412543636100687,-0.0367419139221177,-0.0206368042855712,-0.000422828481742676,0.000768444719999354,0.0194956197390697,-0.037359961734066,0.992718379545694,-0.00384087045529176,0
0.04,0.000759969900122455,0.000408099540275533,-0.0363792615371632,-0.0204145016592808,-0.000413475148946129,0.000757058640442873,0.019312443430112,-0.0369761014270681,0.992693519119539,-0.00317272642043398,0
0.05,0.00077101875760244,0.000418350534843264,-0.0371234458220883,-0.0209272939053548,-0.000417110641847306,0.000771690227381547,0.019654685575331,-0.0378126327414728,0.992672238495004,-0.00276640720811948,0
0.06,0.000768291385896993,0.00042063358038221,-0.0372023345581397,-0.0210414897665912,-0.000413564930387868,0.00077211936314404,0.0196576637243758,-0.0379517357320146,0.992654121982505,-0.00233340150887618,0
0.07,0.000772809538875093,0.000427026060603771,-0.0375747118404555,-0.0213612752869412,-0.000413843982623999,0.000779948073820954,0.0197942018411059,-0.0384233343848671,0.992639358015384,-0.00202891495212294,0
0.08,0.000760137806146813,0.000422563081800521,-0.0371395937048287,-0.0211380210269188,-0.000405660836991067,0.000769290795321347,0.019551319753133,-0.0379988322110688,0.992626529856278,-0.00164520861188876,0
0.09,0.000753510219981079,0.000421565137950998,-0.0369536523267244,-0.0210880992278348,-0.000400647872966468,0.000764837302332347,0.0194224880883436,-0.0378556112853244,0.992616114484356,-0.00135994915901074,0
0.1,0.0007490726367116,0.000421340628317518,-0.0368468805758427,-0.0210768741610693,-0.000397047756982419,0.000762227537429801,0.0193388825147319,-0.0377880252944417,0.992607562384651,-0.00113293265381765,0
0.11,0.000745688216788112,0.000421288992277608,-0.0367713547870013,-0.0210742745516831,-0.000394236321731662,0.00076033746080172,0.0192767878171063,-0.037744708664997,0.992600513960595,-0.000947788122443468,0
0.12,0.000742968743086455,0.000421276190468322,-0.0367123763972875,-0.0210736514359107,-0.000391961481157507,0.000758842789481314,0.0192275175617426,-0.0377120661591387,0.992594697701658,-0.000795538467059492,0
0.13,0.00076898433611901,0.00043679562099369,-0.0379618841066751,-0.0218499780645378,-0.00040526227719132,0.000786059673562614,0.019849427150979,-0.0390451844422253,0.99258932905789,-0.00085977353810379,0
0.14,0.00078306817906153,0.000445847926750855,-0.0388266284556627,-0.0223028073741734,-0.000412105535758643,0.000801339612301712,0.0203259273969105,-0.0398971047753979,0.992584494438429,-0.00085054500360423,0
0.15,0.000748407614263575,0.000426752041889695,-0.0371227137309846,-0.0213475599952804,-0.00039351255674072,0.000766406634908716,0.0194209076036679,-0.038165986694366,0.992580300212786,-0.000506022044982721,0
0.16,0.000738373576753146,0.000422491213806694,-0.0366933128740861,-0.0211344230670085,-0.000387436361775091,0.000757355550693047,0.0191776980530708,-0.0377528667181198,0.992577692733952,-0.000374490706513116,0
0.17,0.000735103905293217,0.000421540205936317,-0.0365654232230098,-0.0210868444412377,-0.000385216522596722,0.000754772897974391,0.0190965293944202,-0.0376431633773628,0.992575770676938,-0.000307156780291826,0
0.18,0.000733757278571232,0.000421327699270236,-0.0365209734537958,-0.0210762188133143,-0.000384203801068784,0.000753859544791276,0.0190650554649111,-0.0376100008189235,0.992574245979111,-0.000262696819622297,0
0.19,0.000733010729253178,0.000421280012924723,-0.0365007793942383,-0.021073834566811,-0.000383603740529991,0.000753412071008641,0.0190494006163416,-0.037596991048411,0.992573003881722,-0.00022899226588125,0
0.2,0.00073249288111769,0.000421269146587976,-0.0364885555516484,-0.0210732898938793,-0.000383175246273316,0.000753120339254252,0.0190394232461202,-0.0375898735785624,0.992571982845922,-0.000201974061962126,0
0.21,0.000732091856490353,0.000421266534531111,-0.0364796578074411,-0.0210731535687079,-0.000382840208222391,0.000752899298992621,0.0190320148357889,-0.0375849124831847,0.992571141023428,-0.000179884545959907,0
0.22,0.00073176775618546,0.000421265796724126,-0.0364726228933772,-0.0210731274770621,-0.000382568675907672,0.000752721813618129,0.0190261117106402,-0.037581058999997,0.992570446279553,-0.000161704767355556,0
0.23,0.000731502355612236,0.000421265504065664,-0.036466910536334,-0.0210731040490168,-0.000382346148864252,0.000752576736041331,0.0190213192426431,-0.0375779282637445,0.992569872733837,-0.000146710058954284,0
0.24,0.000731283553010457,0.000421265333019773,-0.0364622035203548,-0.0210731022188726,-0.000382162653448757,0.000752457189491112,0.0190173606376291,-0.0375753631661117,0.992569399193922,-0.000134333558684189,0
0.25,0.000731103051054718,0.000421265207524239,-0.0364583197054589,-0.021073103123955,-0.000382011269578144,0.000752358582224761,0.0190140930175495,-0.0375732486982197,0.992569008208905,-0.000124115715700572,0
0.26,0.000735835851396165,0.000424075376161704,-0.0366764968754348,-0.021213661899897,-0.0003844386763269,0.000757298639250481,0.0191199744550989,-0.03781020300254,0.992568842975753,-0.000154317747395382,0
0.27,0.00072525730738826,0.000417741143317567,-0.0362003835595625,-0.0208968121107667,-0.000379041275149278,0.000746212795704782,0.0188944079911851,-0.0372846600214454,0.992568177358107,-6.31916473998193e-05,0
0.28,0.000724433641997253,0.000417447479296725,-0.0360034593216863,-0.0208821248637082,-0.000378511847347276,0.000745516787903764,0.0187375163111675,-0.0371647373788724,0.992567958475799,-5.22844047430064e-05,0
0.29,0.000728959793065098,0.000420413219172195,-0.0363717927855842,-0.0210304818904184,-0.000380681309607138,0.000750474113661512,0.0189648882229648,-0.0374902853239495,0.992567980349535,-8.52741484719352e-05,0
0.3,0.000717870703850577,0.000414903499589957,-0.0358536523519512,-0.0207548687275752,-0.00037440697666947,0.000739799078966812,0.018681651610794,-0.0369762742304626,0.992568979855819,-2.8481719309109e-05,0
0.31,0.000727535548352939,0.000419845893675494,-0.0362951140503835,-0.0210021043846178,-0.000379799437518521,0.000749220218503212,0.018916222896282,-0.0374245935696155,0.992569007585229,-9.84926593920247e-05,0
0.32,0.000730034472077498,0.000420948482622764,-0.036411898080064,-0.0210572447829617,-0.000381289336501318,0.00075150941265846,0.0189838766119815,-0.0375346014821471,0.992568778131369,-0.000111193129767437,0
0.33,0.000730618375737982,0.000421194410239452,-0.0364414570556471,-0.0210695514603541,-0.000381643713422985,0.000752034585765629,0.0190018944928294,-0.0375610675668632,0.992568520580911,-0.00010950794441829,0
0.34,0.000730701443114318,0.000421249224359783,-0.0364478241796777,-0.0210722967391839,-0.000381683144836237,0.000752125976775823,0.0190057174440298,-0.0375668508360046,0.992568289551939,-0.000104832042487951,0
0.35,0.000730662270484158,0.00042126140945202,-0.036448206371252,-0.0210729095531612,-0.000381643533555338,0.000752114846215631,0.0190056952232407,-0.0375675766293006,0.992568093837913,-0.000100084948824261,0
0.36,0.000730600919861106,0.000421264091474532,-0.036447206684446,-0.0210730466847687,-0.000381590568185337,0.000752083623767829,0.0190047769841541,-0.0375671481943963,0.992567930902888,-9.59262124642921e-05,0
0.37,0.000730542564003153,0.000421264659668134,-0.0364460293695078,-0.0210730587158399,-0.000381541287122104,0.000752052257178195,0.0190037794197643,-0.0375665173819613,0.992567796010063,-9.24278976267557e-05,0
0.38,0.000730492097974792,0.000421264761510263,-0.0364449487148491,-0.0210730663041117,-0.00038149888575454,0.000752024803222577,0.0190028661098337,-0.0375659352325641,0.992567684534642,-8.95220009229532e-05,0
0.39,0.000730449897423497,0.000421264763649073,-0.0364440280287771,-0.0210730680341496,-0.000381463475253817,0.000752001775786193,0.0190020906936225,-0.0375654352378025,0.992567592465474,-8.71179666666831e-05,0
0.4,0.000730414914619437,0.000421264747130555,-0.0364432570316814,-0.0210730682758103,-0.000381434131390578,0.00075198267139862,0.0190014420479452,-0.037565015502895,0.992567516439037,-8.51317404888174e-05,0
0.41,0.000730385927204426,0.000421264729411772,-0.0364426109114133,-0.0210730684898214,-0.000381409818880846,0.000751966837676984,0.0190008984910556,-0.0375646637433368,0.992567453663533,-8.34914151522721e-05,0
0.42,0.000730362003855892,0.000421264713870982,-0.0364420734629861,-0.0210730686804597,-0.000381389754222068,0.00075195376932603,0.0190004463633086,-0.0375643711499086,0.992567401830723,-8.21369423695038e-05,0
0.43,0.000730342271458927,0.000421264700835919,-0.036441626158288,-0.0210730688517542,-0.000381373204625835,0.000751942990155226,0.0190000700748069,-0.0375641276358658,0.992567359033353,-8.10185591576543e-05,0
0.44,0.00073032591510628,0.000421264690027845,-0.036441249055833,-0.0210730690074678,-0.000381359486630408,0.000751934055151829,0.0189997528646876,-0.0375639223354477,0.99256732369658,-8.00951280883624e-05,0
0.45,0.000730312469133979,0.000421264681093343,-0.0364409360474271,-0.0210730676945505,-0.000381348209488578,0.000751926710011754,0.0189994903630346,-0.0375637507181689,0.992567294519587,-7.93326696127982e-05,0
0.46,0.000730301351470792,0.000421264673714085,-0.0364406722227005,-0.0210730678260737,-0.00038133888512189,0.000751920636751974,0.0189992684509844,-0.0375636070947936,0.992567270428901,-7.87031239798368e-05,0
0.47,0.000730292212868067,0.000421264667620743,-0.0364404518896514,-0.0210730679484591,-0.000381331220538532,0.000751915644606459,0.018999083122995,-0.0375634871539891,0.992567250537612,-7.81833219074356e-05,0
0.48,0.00073028458766452,0.000421264662589375,-0.036440261379414,-0.0210730680638549,-0.000381324825350835,0.000751911479163627,0.018998922903652,-0.0375633834408585,0.992567234113785,-7.7754132769285e-05,0
0.49,0.000730278359444829,0.000421264658434951,-0.036440102875182,-0.0210730681728058,-0.000381319601715584,0.000751908076873241,0.018998789598233,-0.0375632971605481,0.992567220553141,-7.73997607576734e-05,0
0.5,0.000730273120755369,0.000421264655004769,-0.0364399626033076,-0.0210730682771863,-0.000381315208126065,0.000751905215107495,0.0189986716524632,-0.037563220796243,0.992567209356309,-7.71071636006572e-05,0
0.51,4.70517117092854,-0.0338818989594257,4.74204675848056,1.70807520474985,-0.71871193875746,4.65007923372297,0.999305609566692,4.94023447453517,0.146144822455772,45.1646908342743,1905.25992743258
0.52,4.71465326193295,0.00852477330587909,4.26868935606319,-0.397193397729195,-2.90657858306366,3.71211920504859,-2.9500004018499,3.11078270582377,0.666095135950864,97.0478336327194,1905.25992743258
0.53,4.71886793173385,-0.0453620366182061,4.05883432216216,2.30873339018542,-4.71806294229868,-0.0982565215147052,-4.0844596272835,2.26308980705799,1.58200631268783,153.635202578826,1905.25992743258
0.54,4.69476359028047,0.0677036250935521,5.26498723647704,-3.327403680784,-1.17425807919436,-4.54604299505853,1.99022515404794,-5.90175479763061,2.90323457491882,205.945945742645,1905.25992743258
0.55,4.70271735029115,0.0292577210440013,4.86840350263553,-1.39593616239425,4.6763266061912,-0.49837331710117,4.98339908493647,0.903174398556674,-1.67074787457755,260.839882869865,1905.25992743258
0.56,4.63665330761299,0.0598831825426291,8.17276549891025,-2.91790707909211,-1.88601447635641,4.23616445449465,-6.07033892166657,6.20155327305131,0.431784127064678,314.179971868231,1905.25992743258
0.57,4.68133981252091,0.0634097060737324,5.93968460207731,-3.08024902741518,-1.057174779191,-4.56084912240694,1.74710954708171,-6.45874565790776,2.92736600372689,367.484979552859,1905.25992743258
0.58,4.62341767617565,0.0971360890879848,8.83720507544302,-4.75512738414613,2.17524149037647,4.08090074453196,-0.250168937962457,10.0321904630729,-0.46871444501001,420.865413407127,1905.25992743258
0.59,4.66263470114322,0.0746865889701847,6.87785015278271,-3.60776827668702,-1.59633478229466,-4.3814901238863,1.15849193847018,-7.67975983289204,2.80822056112768,473.58600281092,1905.25992743258
0.6,4.62145951448764,0.0676577767540237,8.93819213257526,-3.22984493509309,-0.80846434976446,4.55069786010493,-4.86354829383016,8.16511328134267,0.190461632476214,526.375867319682,1905.25992743258
0.61,4.61683412871836,0.0476675611288381,9.17118843665001,-2.22886413911688,4.10059103693168,-2.12192900831253,9.19219110485222,-2.14059696885231,-2.03799695825846,579.5278515003,1905.25992743258
0.62,4.5836830375836,0.120861976958905,10.8304868777887,-5.89195281917984,-3.1729092895798,-3.31019704045005,-2.92626003116549,-11.977126377533,2.40372932138929,632.709401365933,1905.25992743258
0.63,4.59775901803235,0.0855048036094623,10.1285365214252,-4.11187099004408,-3.6889815046856,2.74556269595609,-10.6294275830162,2.55147101924051,0.949573637536169,685.376079741288,1905.25992743258
0.64,4.54930294352705,0.0999324614161323,12.5532855147404,-4.82341541536422,0.635255380213409,4.50584002942165,-3.31073399075099,13.0341610365321,-0.118098760560645,738.042423557186,1905.25992743258
0.65,4.57043246953366,0.122456817502328,11.4988650330903,-5.93024867802481,3.36421876468126,3.09610735183502,4.11822503432279,12.2650710963744,-0.800088722704099,790.530377514652,1905.25992743258
0.66,4.53210003560163,0.0894240674912807,13.4176007576376,-4.24142927768701,4.07475131249876,1.98603351880995,10.0097742043043,9.89071042887328,-1.09755078033191,842.605340886064,1905.25992743258
0.67,4.48977562490225,0.1175657138061,15.5360729062249,-5.67265595239543,3.8674240381819,2.28362391122573,10.1554354585525,13.054337116413,-1.01122943027596,895.264713574443,1905.25992743258
0.68,4.53372978292521,0.155147002299254,13.3406318379538,-7.49453853947322,2.46972645188871,3.80515802428056,0.453676364271447,15.2949254170126,-0.541497728966059,947.146348079432,1905.25992743258
0.69,4.54974967027243,0.115093842540413,12.541942304609,-5.49261753056373,-1.28426591064666,4.36624893077407,-9.07077445320414,10.2562281043421,0.311358609339605,999.543066752197,1905.25992743258
0.7,4.52312997327319,0.143856836965722,13.8753842598934,-6.92731140637536,-4.51824234650975,0.254726604166432,-14.0410787154645,-6.58498596708635,1.5462725694127,1051.6766031084,1905.25992743258
0.71,4.47951847946369,0.199498780776686,16.058454473615,-9.69282844501959,-0.104695564737183,-4.48273626372469,10.0303559169635,-15.8498215612916,-3.12043733431264,1103.62160029281,1905.25992743258
0.72,4.44765385446212,0.126684096478157,17.6542444802253,-6.01922074480772,4.06408914032988,1.81131254312031,13.3081650619426,13.0688985467935,-1.12305904989254,1155.44623855734,1905.25992743258
0.73,4.45205541597241,0.183320683071477,17.4368201876814,-8.89546496715795,-4.17482978287439,1.55730542404374,-19.3375159117201,-3.03849857716618,1.25491387696289,1207.60334521235,1905.25992743258
0.74,4.48545391178803,0.176669309330979,15.7696278245683,-8.49785885515344,-0.720632181969962,-4.43071078924626,6.51780343835429,-16.6857126064932,3.01972646826603,1259.07457235615,1905.25992743258
0.75,4.47391912224883,0.189942412560698,16.3491567415968,-9.18915843497516,0.754351207410734,4.41395340804489,-7.04723335270241,17.3802203949471,-0.126836187909597,1310.99372982842,1905.25992743258
0.76,4.40288399565599,0.147991370942587,19.9037652979967,-7.09828950057882,0.931645419083678,-4.30573173086498,11.7437734970524,-17.5678504923538,-2.89490451142336,1362.62592990064,1905.25992743258
0.77,4.38349725592893,0.21156147924465,20.8759909426403,-10.2701724245634,-3.57031622642009,2.55198912528993,-23.1114112985161,2.673220390893,0.998445649368185,1414.17471592314,1905.25992743258
0.78,4.18137140338926,0.1340019942938,20.6135837750627,-6.3920674760056,3.62155040281045,2.0943247187243,14.1293320221882,16.3138082395284,-1.01445283110687,1464.99732219755,1905.25992743258
0.79,3.73761929153762,0.215117155217876,20.2126349274569,-10.4500069697268,1.50433028009365,-3.42827416746919,18.4841075965656,-13.2699292664497,-2.67059954295059,1511.0131865833,1905.25992743258
0.8,3.29540957953671,0.157499934423709,22.2053719473898,-7.56070567751267,-2.61093229385051,-2.01682004233751,-12.0027299977328,-20.1538404842706,2.27626998744431,1552.19501989539,1905.25992743258
0.81,2.95859231453466,0.172998171219816,21.102967811105,-8.42222691372734,-2.72625723291436,1.16220409173738,-22.7075086270781,-0.798879574167025,1.2262315171094,1589.21557396716,1905.25992743258
0.82,2.58511164518236,0.140102669779459,23.640444681496,-6.74714536623864,-0.955367867975457,2.40618021207407,-16.0271478295494,18.6420258497245,0.432101556788509,1622.13520837516,1905.25992743258
0.83,2.38555131425336,0.170503435693843,19.2019648094328,-8.30515665966805,0.48541631582113,2.34185770166635,-5.68482709042098,20.13389730371,-0.133031988925396,1651.68004107759,1905.25992743258
0.84,2.07392939517319,0.13829466460937,21.9327061598546,-6.76072049822527,2.07819007996026,0.0378753478877246,21.2812114750707,8.5942410545066,-1.48598932016662,1678.18540470091,1905.25992743258
0.85,1.81706149504122,0.103400670054571,23.2608219786793,-5.05828181850268,1.79984434345312,-0.27011944518859,23.6275150272278,2.89699632677141,-1.66291973718523,1701.80266606473,1905.25992743258
0.86,1.59122803883407,0.0862938904040031,24.2433623113527,-4.22667025756819,1.57335424308363,-0.253001448342732,24.5532619970907,1.65610474546381,-1.67605736260468,1722.93736105373,1905.25992743258
0.87,1.4508960586482,0.0942316456715098,22.0279064791652,-4.62804600154333,1.45298213561502,-0.0531214611100822,21.8880663857183,5.24976414152478,-1.54248423124481,1741.84017165579,1905.25992743258
0.88,1.29446830614398,0.0843766481599283,21.6250696508742,-4.14974075312052,1.2636556172761,0.293158822641477,19.5043784351323,10.2197459646712,-1.27774582914799,1758.72975074809,1905.25992743258
0.89,1.10840376054907,0.0776242685811224,23.5604963410665,-3.84211278028789,0.91386584151245,0.632007632223548,15.9934815806453,17.7219458689902,-0.895828167198219,1773.85318604915,1905.25992743258
0.9,0.988120724724375,0.0617585959050066,22.9827777687096,-3.06098650314716,0.44962821877379,0.882060743758779,6.33144814933494,22.3044945396802,-0.408995261183884,1787.41153448257,1905.25992743258
0.91,0.885694234811263,0.0772235676225402,22.2041460668463,-3.83571206046223,-0.0753154956600401,0.885858528822602,-7.57487745555965,21.2216403961116,0.171785744628399,1799.51703663854,1905.25992743258
0.92,0.778450408805614,0.0355339143997666,22.2872380729374,-1.73812237344418,-0.554203210477175,0.547819769211544,-17.712698936623,13.6382677303759,0.836805895101613,1810.35530937311,1905.25992743258
0.93,0.732722407696197,0.0305693004928247,19.8445725092479,-1.46264447238358,-0.378531390321684,0.628116705249801,-12.1627564796656,15.7484520427801,0.584058067783234,1820.01640382463,1905.25992743258
0.94,0.628155148845375,0.0556347030027802,20.8712467254775,-2.70493721227555,-0.608130688819631,0.166886717610853,-21.0188492671377,1.06470685329595,1.39130198081902,1828.6659425637,1905.25992743258
0.95,0.472244789367531,0.0229879102155429,24.9165698498136,-1.17758453726198,-0.379499414374793,-0.281999609201947,-18.5057618262615,-16.7259958643042,2.25849547632738,1836.40968949033,1905.25992743258
0.96,0.469995178746343,0.0386396553590476,21.6881851362547,-1.94632655400595,-0.0209843201868777,-0.471113732889806,2.75841754272104,-21.599923477163,-3.1040767738269,1843.29150442243,1905.25992743258
0.97,0.443991992790874,0.0401082809431898,19.9892981468887,-1.9759728965542,0.353534058625184,-0.27157178287634,17.9413022020062,-9.03250710431015,-2.13572971449726,1849.44952020381,1905.25992743258
