t,iq,id,vq,vd,ia,ib,va,vb,theta_e,omega,r
0,0,0,0,0,0,0,0,0,0,0,0
0.01,0.000496158926147246,0.000278740526040693,-0.0241674693677103,-0.013948054435689,0.000530502621560748,-0.000206002255740573,-0.025892606799683,0.0104013321885789,-1.42933407099146,-0.00313721844337281,0
0.02,0.000574936516614712,0.000321668605392284,-0.0280829683781821,-0.0160961580950426,0.000614540062385134,-0.00023740935439816,-0.0300715689696436,0.0119766505357112,-1.42935808412539,-0.00339952301931001,0
0.03,0.000604333658502975,0.000338294456945939,-0.0295425802403564,-0.0169281118475737,0.00064598128344031,-0.000249740849371399,-0.0316335776694124,0.0125953079285548,-1.42938238136248,-0.00332870244592373,0
0.04,0.000590074083491497,0.000330996237908628,-0.0288885440316989,-0.0165629156316613,0.000630829998108464,-0.000244539254526693,-0.03093432514741,0.012326624767845,-1.42940454678442,-0.00298958340499444,0
0.05,0.000603728583672562,0.000339318243684011,-0.029581797727725,-0.0169793409401839,0.00064551573841635,-0.000250867504266443,-0.0316790795246981,0.0126418628387945,-1.4294254578592,-0.00285080601139403,0
0.06,0.000604267789212496,0.00034023380231027,-0.0296388661281715,-0.0170251556806035,0.000646173654421255,-0.000251710567211912,-0.031741786429124,0.0126797991151412,-1.42944497643858,-0.00263969989628412,0
0.07,0.000615793039062118,0.000347493335937903,-0.0302240587631768,-0.0173884218447348,0.000658602130041749,-0.000257285677376497,-0.032372090417708,0.0129575732434028,-1.42946269481795,-0.00252181387715497,0
0.08,0.000603774897582259,0.000341131448608659,-0.0296698080412349,-0.0170700723435779,0.000645803417069201,-0.000252690994461721,-0.0317783085193973,0.0127210057253627,-1.42947949829849,-0.00225665573275327,0
0.09,0.000601481056461024,0.000340428097908119,-0.029583129482396,-0.0170348786359521,0.000643429531510006,-0.000252327543299625,-0.0316873435392894,0.0126988542607936,-1.42949474095858,-0.00207365282063044,0
0.1,0.000600421414077024,0.000340348932571664,-0.0295541206517968,-0.0170309086618381,0.000642365769333377,-0.000252407386527539,-0.0316578870346486,0.0126994521870144,-1.42950873321478,-0.00191265239060417,0
0.11,0.000599572789276763,0.000340338732316565,-0.0295335179781827,-0.0170303984361186,0.000641520915712031,-0.000252525042441262,-0.0316372544014732,0.012702255272079,-1.42952159774489,-0.00176546738388625,0
0.12,0.000598807297520719,0.000340336255035374,-0.0295152878297446,-0.0170302808455984,0.000640759712807586,-0.000252637955379453,-0.0316190390166876,0.0127050798113909,-1.42953342785366,-0.00163021797733668,0
0.13,0.000624495020398668,0.000355214696775727,-0.0307750996631823,-0.017774795427413,0.000668283332121877,-0.000263759169160592,-0.0329709729935272,0.0132651819295962,-1.4295448632718,-0.00167609183728529,0
0.14,0.000641988171063574,0.000365756263188931,-0.0317100942027605,-0.01830229008937,0.000687083424371035,-0.000271740361010386,-0.0339707715662596,0.0136561552442994,-1.42955554303279,-0.00167551521316018,0
0.15,0.000602084824948668,0.000343135731346545,-0.0297245979872844,-0.0171703635507692,0.000644390563368663,-0.000254968759658147,-0.0318455759495474,0.0128153190523243,-1.42956550186482,-0.0012992970754656,0
0.16,0.000596836812180775,0.00034064008549892,-0.0294842399999978,-0.0170454798649927,0.000638841382730724,-0.000253242050089471,-0.0315899252935114,0.0127257774676327,-1.42957390563709,-0.00117178175281526,0
0.17,0.000595779999976562,0.00034036398010516,-0.029445258519626,-0.0170316725500605,0.000637754295355773,-0.000253122314465477,-0.0315492913231851,0.0127178353561008,-1.42958154346524,-0.00108070143012219,0
0.18,0.000595259934382107,0.000340332725872241,-0.0294312284592246,-0.0170301110266826,0.00063723323224605,-0.000253169037406773,-0.0315350919488324,0.0127184852077161,-1.4295885565185,-0.00100008080956156,0
0.19,0.000594835854777685,0.000340328539329045,-0.0294209393591164,-0.0170299010360345,0.000636811151591807,-0.00025322868324749,-0.0315247936870117,0.0127199286578691,-1.42959500455861,-0.000926316727259415,0
0.2,0.00059445246250409,0.000340327397164217,-0.0294117923801545,-0.0170298408506675,0.000636429912368478,-0.000253285282005092,-0.0315156538402364,0.0127213432244701,-1.42960093414494,-0.000858526943702871,0
0.21,0.000594100618800814,0.000340326645249331,-0.0294034120295346,-0.017029796624827,0.000636080082804671,-0.000253337519892686,-0.031507281287662,0.012722650585538,-1.4296063870883,-0.000796191553817594,0
0.22,0.000593777076221063,0.000340325986522949,-0.0293957022451259,-0.0170297679684456,0.000635758396393338,-0.000253385585153977,-0.0314995803837694,0.0127238651041909,-1.42961140171819,-0.000738867372830159,0
0.23,0.000593479610672788,0.000340325384218301,-0.0293886118426661,-0.01702973925733,0.000635462637189762,-0.000253429777578506,-0.0314924978094765,0.0127249796436638,-1.42961601326841,-0.000686151026214713,0
0.24,0.000593206068474476,0.000340324830592927,-0.0293820881453754,-0.0170297119500797,0.000635190663740603,-0.000253470413835267,-0.0314859812075443,0.0127260040972595,-1.42962025413883,-0.000637672064786051,0
0.25,0.000592954528769468,0.000340324321398143,-0.029376085719761,-0.0170296831394299,0.000634940566234576,-0.000253507779511881,-0.0314799848103305,0.0127269429316505,-1.42962415412506,-0.000593089876462313,0
0.26,0.000598187538257069,0.000343425947738979,-0.0296345197786499,-0.0171848959480019,0.000640557037795278,-0.000255844471969606,-0.0317576422907744,0.0128443593606712,-1.42962762890279,-0.000589838626907636,0
0.27,0.000583677173531532,0.000335162525249718,-0.0289388257516329,-0.0167713940044223,0.000625027448961368,-0.000249707127007562,-0.0310106436554593,0.0125329674382832,-1.42963124880128,-0.000453047903890898,0
0.28,0.000583202856067219,0.000334989051955891,-0.0288513543133495,-0.0167627044879491,0.000624532686280145,-0.000249604006424123,-0.0309227817474813,0.0125367649919098,-1.42963427862663,-0.000416548506521072,0
0.29,0.000591043281981833,0.000339734405612211,-0.0293037473973474,-0.0170001636948388,0.000632962108415909,-0.000253200704663764,-0.0314040509555935,0.0127082949587011,-1.42963687644767,-0.00044036812903385,0
0.3,0.000584820930610305,0.000336478339585079,-0.0290054674416154,-0.0168372268984094,0.000626343151424898,-0.000250853444371334,-0.03108579417528,0.0125889932729848,-1.42963845668209,-0.000381401986533629,0
0.31,0.000591019345401479,0.000339898204839876,-0.0293086959001344,-0.0170083568445581,0.000632960472332505,-0.000253368697270944,-0.0314100536236529,0.0127158322290611,-1.42964075494585,-0.000397543578441612,0
0.32,0.000591635837452107,0.000340275105469131,-0.0293420044337747,-0.0170272171069495,0.000633623290882387,-0.000253656533152723,-0.0314456558148724,0.0127298891185836,-1.42964299045126,-0.000377072479256423,0
0.33,0.000591593453060134,0.000340316433525024,-0.0293432014800553,-0.0170292839703485,0.000633586616991757,-0.000253704724827399,-0.0314471053722839,0.0127318321284237,-1.42964506088537,-0.000354013925397335,0
0.34,0.000591481345437993,0.000340320772091171,-0.0293407660532057,-0.0170295143552654,0.000633475751136722,-0.000253725999140086,-0.0314447023127487,0.0127324627715048,-1.42964696664923,-0.00033230146780856,0
0.35,0.000591369632770777,0.000340321048877081,-0.0293381066315295,-0.01702952547639,0.000633364743638774,-0.000253743099192137,-0.0314420485856522,0.0127329030237215,-1.42964871943602,-0.000312273458751084,0
0.36,0.000591265836313788,0.000340320893904284,-0.0293356057417355,-0.0170295147480273,0.000633261548576711,-0.00025375856855263,-0.0314395505323993,0.0127332949038547,-1.42965033135818,-0.000293848025544477,0
0.37,0.000591170247132601,0.000340320706211129,-0.0293332954136555,-0.0170295010842065,0.00063316650740325,-0.000253772768581723,-0.0314372423815492,0.0127336529890484,-1.42965181371577,-0.000276902767566019,0
0.38,0.000591082237147393,0.000340320528610137,-0.0293311617434346,-0.0170295000334816,0.000633079001675366,-0.000253785836685919,-0.0314351124224887,0.0127339949581963,-1.42965317692065,-0.000261319476292745,0
0.39,0.00059100149091956,0.000340320364724028,-0.0293292052060381,-0.0170294863212166,0.000632998717179094,-0.000253797826950232,-0.031433157448195,0.0127342960237062,-1.4296544305501,-0.00024698876808024,0
0.4,0.000590926985113796,0.000340320213940319,-0.0293273895373383,-0.0170294866776516,0.000632924638441031,-0.000253808888351758,-0.0314313452034312,0.0127345880295294,-1.42965558341212,-0.000233809970493686,0
0.41,0.000590858695325238,0.000340320075261792,-0.0293257273484992,-0.01702947292448,0.000632856739109282,-0.000253819028505744,-0.0314296841070386,0.0127348415591194,-1.42965664360603,-0.000221690493493614,0
0.42,0.000590795714636306,0.000340319947722498,-0.0293241858720727,-0.0170294732396451,0.000632794119263204,-0.000253828378784511,-0.0314281455865241,0.0127350893546886,-1.42965761858064,-0.000210545188325203,0
0.43,0.000590737960432028,0.000340319830428779,-0.029322772666699,-0.017029457996473,0.00063273669524922,-0.000253836954290664,-0.0314267328706225,0.0127353012369196,-1.42965851518647,-0.000200295750409438,0
0.44,0.000590684700422443,0.000340319722558242,-0.0293214617595296,-0.0170294582765878,0.000632683740348178,-0.00025384486123282,-0.0314254245368833,0.0127355118305568,-1.42965933972205,-0.000190870169327476,0
0.45,0.000590635910199966,0.000340319623353894,-0.0293202618195152,-0.0170294444586447,0.000632635228821196,-0.00025385210598266,-0.0314242249275367,0.0127356907719434,-1.42966009798113,-0.000182202222903901,0
0.46,0.000590590857470548,0.000340319532120073,-0.0293191452327441,-0.0170294447089639,0.000632590434208214,-0.000253858794250831,-0.0314231105975835,0.012735869999589,-1.42966079529058,-0.000174231011944904,0
0.47,0.000590549471823757,0.000340319448216456,-0.0293181168414408,-0.0170294449454254,0.000632549285467305,-0.00025386493842292,-0.0314220842978425,0.0127360350445863,-1.42966143654996,-0.000166900532376782,0
0.48,0.000590511345805968,0.000340319371054783,-0.0293171639291848,-0.0170294451695539,0.000632511377971747,-0.00025387059809474,-0.0314211333812234,0.0127361878391027,-1.42966202626408,-0.000160159281773556,0
0.49,0.000590476525421943,0.000340319300092937,-0.0293162957463547,-0.0170294313037101,0.000632476756142283,-0.000253875768890716,-0.0314202649731541,0.0127363132747392,-1.42966256857677,-0.000153959897507829,0
0.5,0.000590444278375675,0.000340319234833333,-0.0293154822405414,-0.0170294300511607,0.000632444693928208,-0.00025388055574654,-0.0314194530277866,0.012736442136546,-1.42966306729786,-0.000148258823990845,0
0.51,3.61383978566711,-0.0129262014090431,3.60110820455605,0.652590880724159,-0.574186225947593,3.56795673475526,0.0852288156278432,3.65876908365531,0.155983691225694,47.9021957966101,949.808139135578
0.52,3.46995646707538,0.00617592124059696,4.15951977229728,-0.297072375503281,-2.23237776511778,2.65652508725387,-2.90875528380921,2.98814314103779,0.700637519540875,100.453877274344,949.808139135578
0.53,3.32205185587457,0.0312729298757926,4.74395833551305,-1.54677048991455,-3.31829247502744,-0.16106389862087,-4.64647602494494,-1.81876336755667,1.62870991019845,152.958698581552,949.808139135578
0.54,3.16758085988315,0.0335801282379113,5.03330771813487,-1.66215787694987,-0.637547393714128,-3.1029388407893,0.670911741536047,-5.25802556368944,2.94954800601248,207.237822653963,949.808139135578
0.55,3.05140788978227,-0.00710204158487415,4.34614874027115,0.379985505265841,3.04557726257093,-0.188678791948452,4.31281679319182,-0.658034319116638,-1.63499644502789,255.018594768501,949.808139135578
0.56,2.9737341317411,0.0135105968535234,2.14926702385801,-0.643838955490237,-1.14502921689711,2.74448270443836,-1.42963034589662,1.72917159777211,0.399798381436225,300.690596662217,949.808139135578
0.57,2.78541603001999,0.0141002332736644,5.05766465204476,-0.676589673092362,-1.00385152513686,-2.59827315583853,-1.16648113282053,-4.96760174380475,2.77796782650124,346.605437566657,949.808139135578
0.58,2.70444816462827,0.0203598318942129,3.34145555563308,-0.982548661724615,1.97737579539095,1.84511228973143,1.75011359363265,3.01128369841007,-0.812457648079274,388.77660058371,949.808139135578
0.59,2.57114718602281,0.0157953494225747,4.12964339386218,-0.753394943031577,-2.09970891592316,-1.48400465418717,-2.91906949803005,-3.01671870851853,2.19219260849987,429.501923722459,949.808139135578
0.6,2.45036790078241,0.0432377301882934,4.41998439822846,-2.13205215647258,1.78206313991299,1.68238619700117,1.66922951214132,4.61471356795835,-0.796518022896734,469.430205303226,949.808139135578
0.61,2.29756775218956,0.00201616444066886,6.75705520213639,-0.0707264532369404,-0.819202141038133,-2.14656224995666,-2.33759914887024,-6.34022298149734,2.77789570944331,506.471785871675,949.808139135578
0.62,2.18716745886607,0.00434449238425527,7.09671982131517,-0.173627037151347,-0.721013488000371,2.06491160049487,-2.5165851112921,6.6377991795399,0.337925144844012,541.471834620176,949.808139135578
0.63,2.14835381964618,0.00614775885520707,3.92812074951188,-0.263580283314302,2.0650875172082,-0.592347428118106,3.85089142255528,-0.818683357707985,-1.84727380676476,575.478369075701,949.808139135578
0.64,1.99033898850663,0.0390910358173173,6.89264202004765,-1.91498408132552,-1.23250118053857,-1.56330362956845,-2.63346064098314,-6.65135798921163,2.49360579932378,607.972807935479,949.808139135578
0.65,1.91521444693459,0.0183538480036484,5.90484176949362,-0.877856662353218,-1.3375927500022,1.3708496914779,-4.78649322843709,3.56753012832693,0.782702677379557,638.87816184215,949.808139135578
0.66,1.84930211360262,0.0302493732314654,4.62288835565049,-1.47253877625783,1.22488043961085,1.38582150387947,1.88534976673045,4.47045002807114,-0.707473689979365,668.284966847975,949.808139135578
0.67,1.76553936275478,0.0156914271054431,4.40944056248331,-0.742590893497505,1.60816342383038,-0.728824988989333,4.33276329369157,-1.10533684911774,-1.98742355658262,696.222630417412,949.808139135578
0.68,1.67023003793759,0.0620692565013446,4.921120957711,-3.06175391109156,0.0624294434100313,-1.6702166137442,3.41957207204072,-4.67956144704031,-3.06708698680006,722.799411981343,949.808139135578
0.69,1.5661237685683,0.0409243572409306,6.03208469954935,-2.00318363465573,-1.16814413165252,-1.04396252287902,-3.01774870033008,-5.59392378195717,2.32624112816455,748.116731267879,949.808139135578
0.7,1.48921848201745,0.0274837144735239,5.87973789091625,-1.35062584838736,-1.48889270992513,-0.0415396205497932,-5.81085148657616,-1.62157727202992,1.61714179579659,772.40716071024,949.808139135578
0.71,1.39047847727878,-0.00158844995244306,6.94917134810194,0.104071023421921,-1.22687653960956,0.654375179468504,-6.07871480588103,3.36913037918686,1.07967059139088,795.179997068368,949.808139135578
0.72,1.3604101046066,0.021504793757126,4.79669703082827,-1.04287524344762,-0.864195503650579,1.05087784272978,-3.89980064003607,2.98118200499851,0.704030931349712,816.547177470992,949.808139135578
0.73,1.24039443238548,0.0724486064249019,7.30505641309026,-3.58541754722139,-0.510443502570138,1.13281709871883,-6.5617196207955,4.8127854517339,0.481691359621878,836.776458838995,949.808139135578
0.74,1.20229552516745,0.00517840348447696,5.78881576221593,-0.240166853811427,-0.468856144852501,1.10712025594981,-2.50111424950415,5.22613581506227,0.404899408497925,856.342577953968,949.808139135578
0.75,1.14185490124948,0.00216222581416459,5.50210207612175,-0.0826652480036022,-0.511091970712249,1.02108877586692,-2.5458899066708,4.87836093195271,0.465970141653998,874.540924711616,949.808139135578
0.76,1.06206575130195,0.0307222737599093,6.36609305427356,-1.49995335346565,-0.6243425135319,0.859723178697785,-5.07584947608308,4.12465185614375,0.657021935265971,891.641735380033,949.808139135578
0.77,1.01832026352839,0.00689160859907337,5.49797159503041,-0.330093591786242,-0.836663581986543,0.580532259188979,-4.72453893579777,2.8311455778943,0.970966659966042,908.112779943053,949.808139135578
0.78,0.927058175327949,0.000745503147140281,7.15233760582966,-0.00939985937771836,-0.913527354821045,0.157813776999958,-7.05051334261378,1.20261514656459,1.40053674473077,923.268485452951,949.808139135578
0.79,0.876027850687695,-0.0134343163277413,6.92175245428656,0.688328044833964,-0.81250381379616,-0.327784729056116,-6.7057335405804,-1.84867255577132,1.93891791069087,937.767706466127,949.808139135578
0.8,0.841677147549828,-0.0128383282238268,5.92258828940082,0.663418278572318,-0.437193054968072,-0.719338220913419,-3.71445191609901,-4.66047452745748,2.58022653317185,951.312689936928,949.808139135578
0.81,0.77602255802429,0.0460211598042999,6.65788932322538,-2.27138390383222,0.0903613284046889,-0.77211643425149,3.40041364549727,-6.15823530878957,-2.96585737700868,963.997827913733,949.808139135578
0.82,0.751439314918462,0.00193072015495244,5.37683571200698,-0.0794509259102786,0.63272289770733,-0.405372059227425,4.57748556732977,-2.82193206942146,-2.13802146931817,975.990732022767,949.808139135578
0.83,0.68773078640698,0.0110725122190381,6.21487479557795,-0.527318378188402,0.650959267607874,0.222144698370733,5.67042257337675,2.59789169058772,-1.22583242602724,987.095149975059,949.808139135578
0.84,0.607164132573472,0.0342998196480554,7.94131837553212,-1.7015114717906,0.174276539888612,0.582625479322728,0.188002339137729,8.11938014571789,-0.234219929379243,997.590870005942,949.808139135578
0.85,0.595954660955622,0.0019579030518199,6.34792636340867,-0.0953989670399904,-0.438965998016771,0.403081435797074,-4.75407890439072,4.2076126068114,0.831273547619023,1007.30927458001,949.808139135578
0.86,0.527144262494209,-0.00911016205987451,7.69603929766192,0.473857070369655,-0.48310255736796,-0.211130262155517,-7.28642950774151,-2.52220269268942,1.96553174030632,1016.29509458545,949.808139135578
0.87,0.523434415020242,0.015171665680157,5.89225723565279,-0.759396922105934,-0.00366600259391517,-0.523641410406086,0.888690603165911,-5.8741474299043,-3.11961678563659,1024.76127392789,949.808139135578
0.88,0.491756487032044,-0.00725958937974439,5.56066264749482,0.386550744566272,0.473131001016802,-0.134254236629232,5.21547988415238,-1.96701808211584,-1.8620469892335,1032.54333535248,949.808139135578
0.89,0.420839473655162,0.0182257214548426,7.27630713458811,-0.909746213513843,0.235269929828978,0.349408213451217,3.02315131775281,6.68078137644318,-0.549326242595392,1039.81028424889,949.808139135578
0.9,0.405140227114269,0.0271497800026397,6.3254188876915,-1.34148686372787,-0.333766541358979,-0.23124794063874,-4.11089755871203,-4.99109530785521,2.24361627512098,1046.44792275709,949.808139135578
0.91,0.40614458236628,0.00146042189207352,4.59324883265148,-0.0595103882910641,0.198036697134432,-0.354594164088565,2.30591781226917,-3.97293586256165,-2.62866006671803,1052.61935733601,949.808139135578
0.92,0.344193310182904,-0.0166256940054804,6.10732068677425,0.826313193170221,0.311142100026786,0.148108210666222,5.95340162329147,1.5934768828252,-1.17478626602412,1058.24288888914,949.808139135578
0.93,0.281332826847016,0.0282086488168976,7.73188141915163,-1.39356274318928,-0.0612998855854044,0.276018498215291,-3.74446932311167,6.90673272157705,0.318473155928877,1063.36277605447,949.808139135578
0.94,0.274822228231335,-0.0185526676222901,6.59009283718731,0.932655493689929,-0.259239958900746,-0.0930919025215326,-6.59361784721393,-0.907399337425084,1.84814533643162,1068.15897306359,949.808139135578
0.95,0.247004093778946,-0.0425979943980673,6.60820638558887,2.12140105616068,0.10669102082634,-0.226809694557639,-0.289495494152306,-6.93432955911981,-2.87268390674356,1072.3848540161,949.808139135578
0.96,0.213132632733486,-3.7698293538696e-05,6.9961386253012,0.0171648983611116,0.20422902500743,0.0609592150669835,6.70913543493945,1.98336885470327,-1.28090728085632,1076.14300068633,949.808139135578
0.97,0.251413368087455,0.0278306815496846,3.83391843013947,-1.39102726052252,-0.0569286607826601,0.246459643897517,-2.58129363907145,3.15765902487415,0.337252438121406,1079.56507366158,949.808139135578
