t,iq,id,vq,vd,ia,ib,va,vb,theta_e,omega,r
0,0,0,0,0,0,0,0,0,0,0,0
0.01,0.000494004521183437,0.000264416150495157,-0.0219656846365758,-0.0132293386454926,-0.000559338444151813,3.31190652975566e-05,0.0254875280207068,-0.00280938034881564,2.00310295756077,-0.00525077038240641,0
0.02,0.000593515590750564,0.000314320549521369,-0.0270586667332236,-0.0157261570878527,-0.000670601499566639,3.67667389685561e-05,0.0311579327349296,-0.00294392422067563,2.00306391824199,-0.00528037235881664,0
0.03,0.000624328767192662,0.000333451034718606,-0.0289096492703249,-0.0166832955919794,-0.000706593306375121,4.12541087055933e-05,0.0332395252371729,-0.00303877191475428,2.00302834759887,-0.00457196143903195,0
0.04,0.000603888350759141,0.000327191784098411,-0.0284705573705571,-0.0163701404408639,-0.000685409512144825,4.4152060263244e-05,0.0327095531626078,-0.00293926299373219,2.00300048671321,-0.00346945725536967,0
0.05,0.000611375565212878,0.000335414557504992,-0.0291313080037522,-0.0167815481041538,-0.000695651451100922,4.84981000330607e-05,0.033481803910474,-0.00303681900713086,2.00297807866725,-0.00287669510889201,0
0.06,0.000607499617568625,0.000336670237232944,-0.0292414820520538,-0.0168443640667599,-0.000692656908322169,5.12741780829899e-05,0.0336081039858517,-0.00304831427026731,2.00296017535541,-0.00228198127527166,0
0.07,0.00061312653392172,0.00034293654132955,-0.0296862560581869,-0.0171578899629568,-0.000700390317563804,5.46170398393254e-05,0.0341432599457286,-0.00314718715865094,2.00294671031136,-0.00193964650729257,0
0.08,0.000600475545534461,0.0003378181132014,-0.0293228324839412,-0.0169017999586263,-0.000686758024163071,5.52754433677127e-05,0.0337059556011132,-0.00306723063014189,2.00293544447546,-0.0014399539447947,0
0.09,0.000595522162937129,0.00033703466802321,-0.0292413318316567,-0.0168625948271041,-0.000681931403918829,5.66442790414591e-05,0.033615501793342,-0.00306604480951598,2.00292706661969,-0.0011230842500012,0
0.1,0.000592653773290593,0.00033691426757721,-0.0292178537857115,-0.0168565805956741,-0.000679275895727068,5.77405938387757e-05,0.033591643507144,-0.00307063115834933,2.00292066730552,-0.000892293490720662,0
0.11,0.000590630388315775,0.000336895391001851,-0.0292075501674842,-0.0168556371093606,-0.000677430310230579,5.8574182548586e-05,0.0335818767505216,-0.00307425487904576,2.0029157445238,-0.000717003617824782,0
0.12,0.00058910753165163,0.000336892144446694,-0.0292011530898849,-0.0168554682688094,-0.000676045849986038,5.92115660595436e-05,0.0335759853081048,-0.00307690801449521,2.00291195063713,-0.000582358261455868,0
0.13,0.00061348438541313,0.000350731020504061,-0.0302928146481632,-0.0175478674671626,-0.000703977413741435,6.15722407539822e-05,0.0348572626950087,-0.00324861653080608,2.00290811984341,-0.00076478722119715,0
0.14,0.000627571833077766,0.000359533250631823,-0.0312297420868392,-0.0179882536689682,-0.00072045605679359,6.36681569695904e-05,0.0358924890217226,-0.00325626975159699,2.00290474508645,-0.000834735615853808,0
0.15,0.000593293985726488,0.000340352747946908,-0.0295325639380106,-0.0170286133383568,-0.000681296159658886,6.06076675700928e-05,0.0339494142711629,-0.00309568661606908,2.00290189954012,-0.000326649149218934,0
0.16,0.000586353288201999,0.000337419762147171,-0.0292527717729964,-0.0168818740966553,-0.00067376506570614,6.08515464614518e-05,0.033633884032064,-0.00307963866971587,2.00290096344617,-0.000212772685995808,0
0.17,0.000584863836499205,0.000336971233614532,-0.0291968772306738,-0.0168594225653228,-0.000672224649961511,6.10683184015487e-05,0.0335737231851547,-0.0030826742847334,2.00290049090207,-0.000180031459906873,0
0.18,0.000584480477714012,0.000336902619049046,-0.0291854377771795,-0.0168559910882718,-0.000671847773149521,6.1166766016656e-05,0.0335618971569411,-0.00308435942140721,2.00290017589968,-0.00016569632573608,0
0.19,0.000584336587897272,0.000336892104937006,-0.0291828915988283,-0.0168554662281524,-0.000671712691325241,6.12176333821799e-05,0.0335593644849586,-0.0030849569207772,2.00289994277007,-0.000156804182209392,0
0.2,0.000584255679175692,0.000336890480225941,-0.0291821667531419,-0.016855386465753,-0.00067163852789033,6.12501605648949e-05,0.0335586723104227,-0.00308519401006468,2.00289976492787,-0.000150375383801888,0
0.21,0.000584199159526386,0.000336890218712868,-0.029181845029249,-0.0168553750345698,-0.000671587085241655,6.12736843380408e-05,0.0335583749480515,-0.00308532295118203,2.00289962816607,-0.000145502611928563,0
0.22,0.000584156784346631,0.000336890168644348,-0.0291816421468126,-0.016855372301186,-0.000671548577467258,6.12914555963225e-05,0.0335581892432986,-0.00308540896919259,2.00289952277578,-0.000141761707168874,0
0.23,0.000584124362679535,0.00033689015321524,-0.0291814913483272,-0.0168553724553127,-0.000671519124330518,6.13050737503399e-05,0.0335580521189805,-0.00308547498767975,2.00289944151678,-0.000138880170529584,0
0.24,0.00058409939159303,0.000336890144861633,-0.0291813710476629,-0.016855372592424,-0.000671496441070716,6.13155656713832e-05,0.0335579427395862,-0.00308552759466955,2.0028993788555,-0.000136658678495488,0
0.25,0.000584080183064948,0.000336890138961354,-0.0291812754472613,-0.0168553727163892,-0.000671478992621132,6.13236369362874e-05,0.0335578558289149,-0.0030855693644921,2.00289933053377,-0.00013494566281463,0
0.26,0.000589001824655029,0.000339643433783779,-0.0293873658207848,-0.0169931244300721,-0.000677101310280267,6.17626681429395e-05,0.0338026921894586,-0.00312434769596121,2.00289949011436,-0.000200288393019295,0
0.27,0.000577461437240385,0.000332824726145358,-0.0289077320090765,-0.0166519738652834,-0.000663766048271307,6.04039981769165e-05,0.0332242735367371,-0.00301543553649182,2.002898875375,-3.97200950994737e-05,0
0.28,0.000577065734807893,0.000332676769270992,-0.0286130838410182,-0.0166445701665896,-0.000663344755266289,6.04353436547267e-05,0.032953606808122,-0.00313210492470412,2.00289888960741,-3.52939486339981e-05,0
0.29,0.000582678105733006,0.000336245857997095,-0.0291235740694751,-0.0168231384442924,-0.000669935964215376,6.13258165181733e-05,0.0334919584771664,-0.00308046604587618,2.00289921286947,-0.00011412498265999,0
0.3,0.000574864385337468,0.000332459714033457,-0.0287671783457737,-0.0166337141078828,-0.000661254959941214,6.11588173346769e-05,0.0330889977834956,-0.00305764953586121,2.00290086258629,-6.85395850275737e-05,0
0.31,0.000582737243200795,0.00033621282571189,-0.0291010037554529,-0.016821476817426,-0.0006699759330537,6.12699593215192e-05,0.0334707718568168,-0.00308835444905592,2.00290084775942,-0.000164809223212336,0
0.32,0.000584174823994084,0.000336786685551484,-0.0291666601966535,-0.016850190220103,-0.0006715216842935,6.11892480497495e-05,0.0335424173007349,-0.0030869433269932,2.00290053722521,-0.000172981715789379,0
0.33,0.00058436522525816,0.000336874405890886,-0.0291792852722168,-0.0168545811662105,-0.000671731302587341,6.11893696623117e-05,0.033555719891815,-0.00308565354954793,2.00290023848143,-0.000166192266315651,0
0.34,0.000584330126650495,0.000336887796018502,-0.0291814868632998,-0.0168552520980575,-0.000671705022735113,6.1216390370626e-05,0.0335579993546639,-0.00308534895180263,2.00289999635509,-0.000158362204547438,0
0.35,0.000584266971431372,0.000336889825410358,-0.0291816856291355,-0.0168553541744657,-0.000671648510610159,6.12448084800986e-05,0.0335582220157765,-0.00308536475059714,2.00289980730693,-0.000151809830810234,0
0.36,0.000584211208506874,0.000336890121733116,-0.0291815422987126,-0.0168553703872456,-0.000671597988165315,6.12685282891431e-05,0.0335580981976789,-0.00308544440522449,2.00289966105811,-0.000146654973951743,0
0.37,0.000584166737856636,0.000336890156246123,-0.029181365381859,-0.0168553734789564,-0.000671557612485127,6.12872589277464e-05,0.0335579384882737,-0.00308552509014354,2.00289954818379,-0.000142659520513626,0
0.38,0.00058413216250609,0.000336890153194777,-0.0291812121510136,-0.0168553736379252,-0.000671526208444885,6.1301794144035e-05,0.0335577991392711,-0.00308559232642021,2.00289946112042,-0.000139574349239634,0
0.39,0.000584105445189758,0.000336890146304956,-0.0291810865861721,-0.0168553737790083,-0.000671501939795,6.13130216940309e-05,0.033557684967371,-0.00308564729196872,2.00289939397654,-0.000137194367024742,0
0.4,0.000584084839677816,0.000336890140297928,-0.0291809845891649,-0.0168553739061581,-0.00067148322250592,6.13216802157544e-05,0.0335575922386817,-0.00308569185950944,2.00289934219635,-0.000135358840572929,0
0.41,0.000584068948986404,0.000336890135559071,-0.0291809007589324,-0.0168553740225516,-0.000671468787941286,6.13283574519375e-05,0.0335575160390587,-0.003085728411751,2.00289930226491,-0.00013394330766985,0
0.42,0.000584056667169964,0.000336890131888473,-0.0291808295740593,-0.0168553741307191,-0.000671457631556697,6.13335181918488e-05,0.0335574513472722,-0.00308575935423825,2.00289927147115,-0.00013285168588371,0
0.43,0.000584047179321245,0.000336890129055147,-0.0291807686669578,-0.0168553742325161,-0.000671449013120672,6.13375048984863e-05,0.0335573960076715,-0.00308578575033789,2.00289924772381,-0.000132009859375717,0
0.44,0.000584039903363638,0.000336890126869757,-0.0291807185800182,-0.0168553743292718,-0.000671442403878931,6.13405622456432e-05,0.0335573505083766,-0.00308580742821893,2.00289922941064,-0.000131360668314825,0
0.45,0.000584034257220535,0.000336890125184503,-0.0291806730164549,-0.01685537442231,-0.000671437275117134,6.13429346970823e-05,0.0335573091280754,-0.00308582706779001,2.00289921528811,-0.000130860032003949,0
0.46,0.000584029949853632,0.000336890123884825,-0.0291806350357441,-0.0168553745122953,-0.000671433362440403,6.13447446742056e-05,0.0335572746423583,-0.003085843420585,2.00289920439725,-0.000130473956605673,0
0.47,0.000584026632016963,0.000336890122882633,-0.0291806007794319,-0.0168553746000262,-0.00067143034862075,6.13461388513629e-05,0.0335572435454652,-0.00308585812799642,2.00289919599845,-0.000130176227081106,0
0.48,0.000584024012672225,0.000336890122109649,-0.0291805661385262,-0.0168553746861658,-0.000671427969306496,6.13472394307719e-05,0.0335572121045921,-0.0030858729305264,2.00289918952164,-0.000129946627189079,0
0.49,0.000584022033611756,0.00033689012151346,-0.0291805362976161,-0.0168553747708466,-0.000671426171591084,6.13480710365409e-05,0.0335571850264955,-0.0030858856718501,2.00289918452687,-0.000129769566784946,0
0.5,0.000584020520212574,0.000336890121053856,-0.0291805087505341,-0.0168553748544663,-0.000671424796863996,6.13487069887306e-05,0.0335571600344769,-0.00308589741324607,2.00289918067496,-0.000129633023225995,0
0.51,4.69400312823258,0.0393371843198599,5.30068187016666,-1.95487372455242,-1.39037109829345,4.48353443066491,-3.47462487122105,4.45485595411918,0.309082518463384,95.821470878597,3750.21332836804
0.52,4.65979991065537,-0.00612551804137684,7.01185433097687,0.337902209446047,-4.60388226584639,0.719750520347253,-6.87364534164645,1.42593084658746,1.41440151878326,206.51206599908,3750.21332836804
0.53,4.65263312209531,0.0145744210473495,7.37141897037831,-0.691746224107232,1.01676946096705,-4.5401968289725,2.30798919806429,-7.03487855879818,-2.91814693873431,327.029735322599,3750.21332836804
0.54,4.63606058403752,0.0648719619429916,8.2013923437418,-3.18232787136343,0.570244808751994,4.60131361335044,-2.26862299047315,8.49961156665055,-0.109310183331416,437.694587061948,3750.21332836804
0.55,4.63577119877844,0.0539567125269831,8.21738663097554,-2.63191971844026,1.69089209454681,-4.31673138599676,5.52520920874236,-6.62755668756435,-2.75661747305025,554.208551115468,3750.21332836804
0.56,4.5771112890814,0.072835622600554,11.152064279231,-3.5691326696195,-4.54166169256195,-0.573203149739498,-10.537472170352,-5.10577378665586,1.71225420204666,667.826763288983,3750.21332836804
0.57,4.58558301973521,0.0506008995704841,10.7303340184641,-2.44387798050246,-3.02038631422605,3.45070986823831,-8.97704615195626,6.36594455811862,0.730030930802904,780.675825572754,3750.21332836804
0.58,4.54332274177212,0.049718850742801,12.8453805231418,-2.38107221408868,-2.4311633136341,3.83845000520556,-8.9890551506018,9.47998909136794,0.575539192870948,892.82436869851,3750.21332836804
0.59,4.52557289337238,0.0935837949133241,13.735047739096,-4.5405581646432,-4.2560589429465,1.5412755152997,-14.465698764457,0.10846242547782,1.24402634007255,1003.71433656711,3750.21332836804
0.6,4.46265808756794,0.0476019981167769,16.8831463970371,-2.2621711257938,-1.81582164132095,-4.0768094048742,-4.62818149547049,-16.3932298986852,2.73323480418805,1116.94205730258,3750.21332836804
0.61,4.47583483590002,0.0699881350290619,16.226811945494,-3.32501769225169,4.25786769509066,1.38150588431769,14.2790215207794,8.39492185653527,-1.24141769840195,1226.97794766588,3750.21332836804
0.62,4.48923946792566,0.112078938990192,15.5592387705417,-5.43239698410293,-4.30707674334618,-1.27079605597165,-13.141824346851,-9.94451109648603,1.88266513651561,1338.5656152848,3750.21332836804
0.63,4.46406993776252,0.0797009812770533,16.8205132198223,-3.80652738584302,2.0680750663302,3.95693545255352,4.11937473367002,16.7466434702895,-0.463747576202289,1449.5152547007,3750.21332836804
0.64,4.40674593173622,0.0908237043918779,19.6896281232091,-4.34189113952402,3.96955368562155,-1.91580327516202,19.7112723233878,-4.24254849011636,-1.99983980841943,1559.69579936689,3750.21332836804
0.65,4.38475197867518,0.151660603148254,20.7923497917648,-7.35204769259203,1.6255971726567,-4.07510548149293,15.0974266222288,-16.0761352483632,-2.72745255297631,1669.58855092765,3750.21332836804
0.66,4.38101624744659,0.0653950109568353,20.9823456669275,-3.08590691710095,2.0149048203224,-3.89072466680573,12.6448443240109,-17.0261435213313,-2.64882257630849,1780.28089586823,3750.21332836804
0.67,4.33925968511936,0.156482241833614,23.0734741461178,-7.56950337159338,4.22583794083521,-0.997975452959186,24.1054416046844,2.9343270961635,-1.76666129794891,1888.85712599187,3750.21332836804
0.68,4.33671930906613,0.141487714945336,23.204015845974,-6.84515895910408,0.503181911459279,4.30975186096458,-4.88332164307165,23.6946348839969,-0.0836140983456406,1998.34627519911,3750.21332836804
0.69,4.27195305153971,0.0915429524681315,26.4459585938188,-4.35980301048718,-2.96245952426263,-3.07925259662335,-14.7167998308334,-22.4011698572957,2.39694875462393,2107.27090841408,3750.21332836804
0.7,4.25868097181853,0.173172439363677,27.1133988564281,-8.43471382258669,2.58485500346747,3.38893448218368,8.64485858949124,27.0471295109923,-0.610960069997156,2215.42940152695,3750.21332836804
0.71,4.28383874705264,0.0774044822580542,25.8594791884653,-3.60696408316204,1.25157821553786,-4.09766004385603,11.4295535378584,-23.4752669786974,-2.8270880193745,2323.04291279374,3750.21332836804
0.72,4.24839023431033,0.168943098988449,27.6360256642108,-8.12924697213962,-3.88492531295208,-1.72763325577606,-21.1898270871434,-19.5147584884856,2.0289809736988,2430.08400924748,3750.21332836804
0.73,4.23948350919186,0.22914974756861,28.0856484954774,-11.217458439293,-4.12745866053611,0.994894485403316,-29.6552624978255,-5.93299514864481,1.38826429675804,2537.81041613245,3750.21332836804
0.74,4.21380438428904,0.22463466690092,29.3739975040251,-10.8873413669229,2.11449875204371,3.65178081902964,3.64607477828599,31.1138565613061,-0.471600502937102,2643.98419195242,3750.21332836804
0.75,4.19117740687023,0.149685970567459,30.5099206376726,-7.16810385409653,-1.69956806528784,3.83403734164105,-19.7971293508232,24.2963091774649,0.452954390532299,2750.6189169181,3750.21332836804
0.76,4.14043879544372,0.0957137329452438,33.0516113899567,-4.48417772342598,-3.50466380663677,-2.20674559927964,-25.078140733462,-21.9909918530443,2.15585212283617,2856.70353685984,3750.21332836804
0.77,4.11424393692265,0.124004804933629,34.3662554482413,-5.88342278195568,4.09174257235831,-0.447239405354693,34.7225558332213,3.16200783899026,-1.64953581308727,2962.21141445294,3750.21332836804
0.78,4.11419921668713,0.18840769358076,34.3735651270893,-9.05382232129222,-4.11797258738404,0.0665914644908648,-34.0906242944878,-10.0669267099674,1.60038932894674,3067.10886742448,3750.21332836804
0.79,4.06322435560836,0.353588685781212,36.9274822106235,-17.3012784493757,2.78047088610956,2.98392338611744,9.10481137636046,39.7501646311011,-0.663315093521209,3172.03389781457,3750.21332836804
0.8,4.08879667967245,0.25818072978995,35.6541610222449,-12.5722943800569,3.25576696167951,-2.48694532874599,36.6282407047482,-9.36235905389258,-2.16004831829777,3276.52176587369,3750.21332836804
0.81,3.1752755708162,0.108883655070821,41.6881670442235,-5.23057822400195,0.615266592507882,-3.1169981747039,14.5638246793001,-39.4101158432082,-2.91242958977152,3371.6077683368,3750.21332836804
0.82,2.4662283748764,0.187001260323054,38.8050607819621,-9.0796153299416,0.0467166394555146,-2.47286664096669,12.7033490836362,-37.7742912427323,-3.04702322843434,3445.54528829957,3750.21332836804
0.83,1.88625332082627,0.179166985210969,38.0670642555455,-8.77637294983227,0.642548161628188,-1.78246578057082,24.1757103201012,-30.6864975796999,-2.70090825972059,3503.3840784925,3750.21332836804
0.84,1.46511129654089,-0.0011725466819561,35.9984255052869,0.177603931738992,-1.09162034070728,-0.977198811845151,-26.9591399523154,-23.8562980164092,2.30014281734259,3548.51590836924,3750.21332836804
0.85,1.11902634067631,0.163313945595943,35.2839812568975,-8.10230182710336,0.0305252356702244,-1.13046875496,14.0188929423889,-33.3777960462403,-2.96967715348946,3583.58942906415,3750.21332836804
0.86,0.798118865016757,-0.00274151682286528,37.3395910875281,0.170981490903547,0.788573736286168,-0.123096308026682,36.8458589813353,-6.05450024210003,-1.72908153515164,3610.84849064869,3750.21332836804
0.87,0.633479457201855,0.137956619058532,34.6422561542346,-6.87968107438093,0.325156616097086,0.560893418081466,4.049159080211,35.0858979346966,-0.310940238349107,3632.237162381,3750.21332836804
0.88,0.418987051231712,-0.0461345706188305,36.9235114517921,2.32343581157315,-0.411756677099095,0.0901941604004413,-34.2443692522451,14.0024007376241,1.24548699646561,3648.78844569591,3750.21332836804
0.89,0.274035856678939,0.0696822539964942,37.4786903286476,-3.46752241165148,-0.130633571381457,-0.250771085446304,-5.21449767197177,-37.2757958259105,2.91034775238899,3661.94570612699,3750.21332836804
0.9,0.213257502344968,-0.0734682969392565,35.421890970785,3.71044701239419,0.216808516212216,0.0622127017531484,35.1793137669997,-5.55820653277206,-1.62312794970879,3672.04503803809,3750.21332836804
0.91,0.0937291171467923,0.0627704337214924,37.3950888391346,-3.10157975505444,0.043699358936223,0.103998272962894,-10.1915297766365,36.1129504066846,0.192307845195785,3680.07478763689,3750.21332836804
0.92,0.00823413427009291,0.0209962958882499,38.5475082498518,-1.01364067680591,0.0204958733842921,0.00941087575201833,-3.1967126441954,38.4281002388162,0.0567059356872662,3686.34737162356,3750.21332836804
0.93,-0.107041290878667,0.0399971489586424,41.8710109800625,-2.06036028212523,0.0834398462330058,0.0780730551368626,-37.8614111503627,-17.9983385535405,1.96538228120726,3691.26027364573,3750.21332836804
0.94,-0.0740264383957806,-0.00383695642543691,38.3303197380009,0.0757653039205317,-0.0484614889071381,0.0560902835531996,26.472398469156,-27.7205929029104,-2.37724617557739,3695.11017913635,3750.21332836804
0.95,-0.088053880854043,-0.093394838692497,37.5038987083884,4.56832463569972,-0.120786446152375,-0.043436347149997,19.1638233469478,32.5600964837818,-0.410758852842524,3698.23802868227,3750.21332836804
0.96,-0.055829605679008,0.143212193962887,34.7586199903003,-7.23806844118722,0.0551385034239244,0.143479694765869,-34.7233199116697,-7.40556228123537,1.57561753690641,3700.64011135343,3750.21332836804
0.97,-0.110051810574275,-0.089325434051134,36.6525546322485,4.42957936688961,0.0345174024977881,0.137473572383587,11.4573607703108,-35.0964359816845,-2.70577655855179,3702.50594842451,3750.21332836804
