t,iq,id,vq,vd,ia,ib,va,vb,theta_e,omega,r
0,0,0,0,0,0,0,0,0,0,0,0
0.01,0.000537309820003261,0.000301929728494075,-0.0253092581012834,-0.0151058471322353,-0.000533624031924406,-0.00030839714034534,0.0258960810556214,0.014076155340878,2.60678477183828,-0.00295212035963159,0
0.02,0.000646976709614497,0.000361073978086829,-0.0306582625940891,-0.0180648977451362,-0.000640413002981035,-0.00037259155391375,0.0311686072198314,0.0171693773855147,2.60676147238338,-0.00334861717735855,0
0.03,0.000688078635223646,0.00038377959572488,-0.0326849388693037,-0.0192008773106462,-0.000680906985335978,-0.000396364306751576,0.0331793858593183,0.0183332286405607,2.60673720527129,-0.00333975084188248,0
0.04,0.000674718540984332,0.000376861626880632,-0.0321790176796448,-0.0188547623850999,-0.000668154072537559,-0.000388381166786723,0.0326241402593908,0.0180736469966929,2.60671462107041,-0.00303375134546609,0
0.05,0.000690141791315952,0.000386321373390803,-0.0330010038982142,-0.0193280490191208,-0.000684162850189699,-0.000396813671739842,0.0334507155069974,0.0185388610557771,2.60669325460085,-0.00290614787338941,0
0.06,0.000691561720617841,0.000387845093291001,-0.033167602663189,-0.0194042795772498,-0.000686205535413157,-0.000397244751988188,0.0336015972993165,0.0186426551561151,2.60667315825512,-0.00271063227360029,0
0.07,0.000702374556552237,0.000394878549870805,-0.0337609369478787,-0.0197561719646992,-0.000697775973965156,-0.000402948851589131,0.0342071476656384,0.0189730926018565,2.60665477112456,-0.00258663052215852,0
0.08,0.000691433005066231,0.000389221380992447,-0.0333416551681916,-0.0194731330811817,-0.000687338185033538,-0.000396407748803411,0.0337502330590066,0.0187560830083136,2.60663725806421,-0.0023459864728772,0
0.09,0.000688522083465156,0.000388306909666443,-0.0332870988754952,-0.019427381784552,-0.000685073796751186,-0.000394358730750084,0.0336833608256795,0.0187319331099813,2.60662123454388,-0.00216677045431712,0
0.1,0.000687085401853791,0.000388157670803141,-0.0332947098747279,-0.0194199238113313,-0.000684218782716413,-0.000393188738676446,0.0336811023705659,0.0187417845890853,2.60660643885317,-0.00200850583657457,0
0.11,0.000685975036879311,0.000388132006615881,-0.0333118766969859,-0.0194186406998004,-0.000683635976097331,-0.000392237247041496,0.0336890073909886,0.0187567458988241,2.60659275311237,-0.00186337455428273,0
0.12,0.000684985861030777,0.000388126395063126,-0.0333295311639378,-0.0194183528685949,-0.00068313178248552,-0.000391380500427562,0.0336979984612339,0.0187716535085177,2.60658008989947,-0.00172930647560303,0
0.13,0.000711959874735437,0.000403867862257956,-0.0346408744194356,-0.0202059194905669,-0.000710431283488079,-0.000406550740793312,0.0350443409671182,0.0194977826734923,2.60656788809366,-0.00176123758192061,0
0.14,0.000728199007416421,0.000413727174343839,-0.0356062261249458,-0.0206991918409956,-0.000727197327320407,-0.000415485278115669,0.0359611093647007,0.0200763167685497,2.60655636151477,-0.00173808247203335,0
0.15,0.000690160784439369,0.000392251400396517,-0.0337425255535137,-0.019624733647252,-0.000689332408738784,-0.000393705346361183,0.0340867628334125,0.0190205362961667,2.60654555818509,-0.00140912949596426,0
0.16,0.000682959075267797,0.000388785837180262,-0.0334553208877087,-0.0194513498090583,-0.000682682774121518,-0.00038927079983008,0.0337913451739231,0.0188615613465773,2.60653626872344,-0.00127341950570284,0
0.17,0.000681173508754534,0.000388225783345648,-0.0334150428771576,-0.0194233255937747,-0.00068129383936729,-0.000388014577462603,0.0337468599259754,0.0188409159209593,2.60652779594461,-0.00117723386318935,0
0.18,0.00068037120097572,0.000388134523372876,-0.0334170552859029,-0.0194187657913608,-0.000680809268873094,-0.000387365613816607,0.0337441108876633,0.0188447082556854,2.6065199770921,-0.00109334997045258,0
0.19,0.000679776989859623,0.000388118957552715,-0.0334257660383798,-0.0194179900185298,-0.000680495685868307,-0.000386857470742182,0.0337480215182944,0.018852353041808,2.60651274561609,-0.0010166200628048,0
0.2,0.000679253036096872,0.000388115665479214,-0.033435022328578,-0.0194178252287429,-0.00068022827024403,-0.000386403878342346,0.0337527258292628,0.0188601737484344,2.60650605458106,-0.000945773134334609,0
0.21,0.00067877262177875,0.000388114411447773,-0.0334437901008462,-0.0194177578644285,-0.000679984610612421,-0.000385987043539188,0.0337572555226471,0.0188675413440582,2.60649986310799,-0.000880241629773734,0
0.22,0.000678328751310621,0.000388113539927253,-0.0334519326476158,-0.0194177226289187,-0.000679759731337521,-0.000385601766569385,0.033761485404163,0.0188743702744949,2.60649413381321,-0.000819606404580309,0
0.23,0.000677918360829242,0.000388112779867626,-0.0334594822823054,-0.0194176740752905,-0.000679551851269099,-0.000385245525973661,0.0337653934899228,0.0188807103564668,2.60648883218149,-0.00076349807971163,0
0.24,0.000677538518790085,0.000388112083857289,-0.0334664620699952,-0.0194176416317258,-0.000679359447930137,-0.000384915801946827,0.0337690174429447,0.0188865653563229,2.60648392628723,-0.00071157806813883,0
0.25,0.000677187082088767,0.000388111440834006,-0.0334729215449031,-0.0194176091291744,-0.000679181431092467,-0.000384610736086936,0.033772369157614,0.0188919851399072,2.60647938659077,-0.000663533617521919,0
0.26,0.000682278039830933,0.000391210454630387,-0.0337293247901837,-0.0195726529188101,-0.000684444893077446,-0.000387406933066327,0.0340365670852296,0.0190333442708993,2.60647530464379,-0.000651526893910629,0
0.27,0.000668972084357918,0.000383629449070724,-0.033133654067808,-0.0191933642543965,-0.000671139973873359,-0.00037982408995975,0.0334066206575415,0.0187142181116454,2.60647110843792,-0.000532228930900686,0
0.28,0.000668342098891364,0.000383450632537894,-0.0329731127999758,-0.0191844283174282,-0.000670666260894482,-0.000379370946755335,0.0333171334222746,0.0185805564531535,2.6064675116861,-0.000492136637260078,0
0.29,0.000674641682163894,0.000387357691563275,-0.0334302861774991,-0.0193798928208095,-0.000677240807205633,-0.000382795336415715,0.0337184676080541,0.0188740356527204,2.60646434796515,-0.000496409770705017,0
0.3,0.000666119009103356,0.000382889147824315,-0.0330460851389956,-0.0191563412334738,-0.000669051616707564,-0.00037774140359704,0.0333302841745896,0.018657473283061,2.60646219220516,-0.00042539092077645,0
0.31,0.000673947569781228,0.000387266540323795,-0.0334225980467341,-0.0193753337748452,-0.000676810303419692,-0.000382241433198088,0.0337107175632988,0.0188695824131778,2.60645945999564,-0.000442858823668377,0
0.32,0.000675140945980241,0.000387972391756928,-0.0334913316083466,-0.0194106518631076,-0.000678027072858302,-0.000382906205454924,0.0337761999763792,0.018910605855092,2.60645677883443,-0.00042256600167366,0
0.33,0.000675190965117243,0.000388085966754513,-0.033506203558262,-0.0194163364819555,-0.000678151237815151,-0.00038288961283576,0.0337887213967571,0.0189204150493729,2.60645427116458,-0.000397435241669117,0
0.34,0.000675053490524963,0.000388104016487849,-0.0335114698614515,-0.0194172390904362,-0.000678097547576408,-0.000382760576150155,0.0337922274250107,0.0189244062476605,2.60645194603526,-0.000373073382735345,0
0.35,0.000674894245157054,0.000388106676195615,-0.0335148604567553,-0.0194173720735445,-0.000678019449896486,-0.000382620778076393,0.0337941116302698,0.0189271822730989,2.60644979365519,-0.00035033710759669,0
0.36,0.000674741344242303,0.000388106871943376,-0.0335177399308535,-0.0194173799079593,-0.000677942406189032,-0.000382487803165286,0.0337956245024584,0.0189295878732524,2.60644780179685,-0.000329264355415352,0
0.37,0.000674598920676551,0.000388106687592333,-0.033520359400539,-0.0194173673403109,-0.00067787032126086,-0.000382364135720857,0.0337969844265334,0.0189317852418236,2.60644595859541,-0.000309758708429876,0
0.38,0.000674466731078981,0.00038810645801981,-0.0335227621537133,-0.019417367910999,-0.000677803363394643,-0.000382249388043928,0.0337982425367513,0.0189337941372684,2.60644425297408,-0.000291708027417469,0
0.39,0.0006743446219824,0.000388106236050926,-0.033524994355142,-0.0194173523673734,-0.000677741503781993,-0.000382143394172301,0.0337993974054318,0.0189356688421807,2.60644267466707,-0.000275004550116138,0
0.4,0.000674231593278564,0.000388106029097822,-0.0335270562711895,-0.0194173353402676,-0.000677684242484264,-0.000382045283553612,0.0338004619323159,0.0189374018041012,2.60644121417163,-0.000259547862214796,0
0.41,0.000674126877696877,0.000388105837328804,-0.0335289560953426,-0.0194173358140045,-0.00067763119178694,-0.000381954390103639,0.033801456791284,0.0189389900930381,2.60643986269425,-0.000245244923505529,0
0.42,0.000674030088932422,0.000388105659820941,-0.0335307176610325,-0.0194173201885531,-0.000677582157057281,-0.000381870376448474,0.0338023653873631,0.018940471070907,2.6064386120967,-0.000232009617576854,0
0.43,0.000673940449134872,0.000388105495544762,-0.0335323419866201,-0.0194173206077789,-0.000677536743651626,-0.000381792568882775,0.0338032160314685,0.0189418289672035,2.60643745484932,-0.000219762252441583,0
0.44,0.000673857571998976,0.000388105343519923,-0.0335338466682879,-0.019417303480858,-0.000677494756423433,-0.000381720630864806,0.0338039889339424,0.0189430958133532,2.60643638398414,-0.000208429084022956,0
0.45,0.000673780796094454,0.000388105202833858,-0.0335352328197096,-0.0194173038532071,-0.000677455859772216,-0.000381653989514946,0.0338047149299196,0.0189442544774603,2.60643539305303,-0.000197941872715833,0
0.46,0.000673709909738728,0.000388105072642206,-0.0335365214286008,-0.0194172881413561,-0.000677419947326868,-0.000381592459116319,0.0338053759469936,0.0189453399383034,2.60643447608912,-0.000188237472596789,0
0.47,0.000673644135082089,0.000388104952161949,-0.0335377029476945,-0.0194172884734204,-0.000677386623861708,-0.000381535367215624,0.0338059948566252,0.0189463274125,2.60643362757158,-0.000179257451226315,0
0.48,0.000673583308074384,0.00038810484066956,-0.03353879616803,-0.0194172873313134,-0.000677355807064275,-0.000381482569593788,0.0338065662693542,0.0189472418252159,2.60643284239126,-0.000170947737814324,0
0.49,0.000673527148256668,0.000388104737494902,-0.033539812151444,-0.0194172715691119,-0.000677327355153408,-0.000381433822131225,0.0338070846077742,0.0189480992362187,2.60643211582007,-0.00016325829765131,0
0.5,0.000673475052400306,0.000388104642017766,-0.0335407439469305,-0.0194172718499648,-0.000677300961646967,-0.000381388603282042,0.0338075727856515,0.0189488778810743,2.60643144348346,-0.000156142830838207,0
0.51,4.70135960543022,-0.0112500193881465,4.93276140651529,0.569308964620018,-0.675719981230347,4.65255964061432,-0.133701695587002,4.96370543519663,0.141834804432717,43.9258793046022,887.092331692944
0.52,4.72050993420732,0.0303087208827956,3.97606829000366,-1.50241006773495,-2.81972331544089,3.78593358128092,-3.59456678057028,2.26835727309976,0.646578552560577,93.8644515013406,887.092331692944
0.53,4.70723543269693,0.051941248678455,4.64071049185941,-2.57631552124422,-4.69890706059953,0.284667785321091,-4.7624404744349,-2.34366300088605,1.52132247176727,145.233570581772,887.092331692944
0.54,4.68444961422299,0.0222462230024889,5.7809551257696,-1.08719220671608,-1.64579857496605,-4.38587621043635,-0.985598884072868,-5.79913992762895,2.7873520332324,200.942991573706,887.092331692944
0.55,4.69604521434771,0.0187427385930707,5.20218218134226,-0.903109180522249,4.5402237383925,-1.19981679884272,5.26204249178693,-0.434987878506175,-1.82516288966052,253.739716140046,887.092331692944
0.56,4.67669760061442,0.029921498306041,6.17063230295405,-1.45019188283804,-0.980129804955042,4.57293574294373,-2.74778788681124,5.71221684150758,0.217536194973603,304.010088669229,887.092331692944
0.57,4.66521679486307,-0.00543843869605287,6.74582813342709,0.318958329848465,-2.20617992332707,-4.11060183739516,-3.47788859248781,-5.78897422348375,2.64784838191444,358.624625654371,887.092331692944
0.58,4.65536747077982,0.0670464502276746,7.23943072934443,-3.29180407611052,3.45882426101722,3.1166450304585,3.06928398600636,7.33654054536054,-0.822989047906144,409.129715164129,887.092331692944
0.59,4.40892813699246,0.031331862713176,6.73942907927681,-1.50685627236947,-3.0805955830936,-3.1542922908648,-3.58897501554614,-5.89998122691646,2.37512033158236,461.525611102449,887.092331692944
0.6,3.94783631659792,0.0220915267402617,5.83876287792838,-1.05190909891844,1.38618272638135,3.69653852506438,1.03249113570105,5.84222789282998,-0.353170313307193,508.600180369371,887.092331692944
0.61,3.48602220451542,0.0196647245133734,8.11214311344903,-0.922913655491251,1.28656628690115,-3.23998220692246,3.8921633617096,-7.17702583765282,-2.75795598332038,549.433738364506,887.092331692944
0.62,3.17590102031903,0.0148196579818909,4.60590656096269,-0.678770476366433,-3.13221274205764,0.525176400476938,-4.65511929158403,0.0704910563690532,1.40933837400722,586.196269573978,887.092331692944
0.63,2.81258293356839,0.0310475015201845,5.6958721539235,-1.49630013574535,1.25111397723193,2.5191864801014,1.12966582060812,5.7797689247774,-0.449912948794646,619.370303651883,887.092331692944
0.64,2.51145392242331,0.0564099271211563,5.52020100841445,-2.77072612179411,2.16513205098412,-1.27388621396674,6.17050568993853,-0.272767200609434,-2.08015887812952,649.015590409931,887.092331692944
0.65,2.22808842115333,0.00959318101313267,6.17525903427925,-0.433040072272113,-0.803695364049032,-2.07811063310055,-1.79808679307932,-5.92353203158341,2.77687198212774,675.371906329141,887.092331692944
0.66,1.96266495688057,0.0510761873424022,7.37234432560829,-2.51255253866842,-1.9593582066032,0.124811570365687,-7.46157493555282,-2.23366975984092,1.53320006870912,698.921067652744,887.092331692944
0.67,1.76210123648987,-0.00691649409092698,6.64151506278634,0.387351722466337,-0.776824468274299,1.58164229553335,-2.55612862801599,6.14214702878013,0.452617891882653,719.905479269497,887.092331692944
0.68,1.57003336815571,0.0606643873550451,6.67332518831649,-2.99540115998694,0.782381278661725,1.36255806474996,0.443779567212986,7.30128460436892,-0.482613388125526,738.602270803584,887.092331692944
0.69,1.40680968931725,0.0171651850531174,6.26802838741752,-0.81979253475757,1.35577671287891,0.37586919313782,5.79068496006514,2.5353909676402,-1.28815225291882,755.3452462314,887.092331692944
0.7,1.2482723213881,-0.0117281932792033,6.48535430413783,0.623084159935492,1.15114188079927,-0.482901345132894,5.71019766545524,-3.13714789928545,-1.97739250590859,770.425853852051,887.092331692944
0.71,1.10364255597635,0.0517667675542175,6.81509226693873,-2.57795549011512,0.560386800432204,-0.952193952662156,5.88608125300765,-4.29480902938589,-2.56278481494435,783.889755311916,887.092331692944
0.72,0.9859879783635,-0.0032329820593352,6.51346087800166,0.172290878471429,0.0878880216449749,-0.982068450415586,0.387657670119727,-6.50419697478943,-3.05561657564511,795.83174045352,887.092331692944
0.73,0.901163967841748,0.00912634732127132,5.29293746697908,-0.442401049378561,-0.295925847449122,-0.851238908863564,-1.26797783273731,-5.15782298392732,2.81714756271072,806.411648151194,887.092331692944
0.74,0.782546969208365,0.0178140360052332,6.40246490643784,-0.871687675910089,-0.494698815611766,-0.606605457219361,-3.24450599345063,-5.58789559145163,2.48021998958236,815.77560324158,887.092331692944
0.75,0.696667925141364,-0.012285790343518,6.39384107147869,0.638892804294866,-0.552365366062538,-0.424723016729417,-5.51706189544443,-3.2941487071082,2.20866143295771,824.194720332109,887.092331692944
0.76,0.604866985166483,0.0355564035906145,7.09366235753771,-1.77035315093413,-0.565760181411731,-0.216895700071842,-5.73353210231237,-4.53660727345043,1.99560141850801,831.802167049951,887.092331692944
0.77,0.577390786795172,-0.00891376762870655,4.963202041912,0.446606593004191,-0.555042148087344,-0.159335463020237,-4.9076865181067,-0.864549014080758,1.83491133429273,838.560325280311,887.092331692944
0.78,0.490478571230377,0.037480405834481,6.20937788053392,-1.86833884586362,-0.490569946464498,-0.0362648215703477,-5.86029286830987,-2.77561366257327,1.72085373162833,844.555581303075,887.092331692944
0.79,0.475756111630991,0.00773066286075696,4.19700106520555,-0.370018204425916,-0.474922280785057,-0.0291970566397748,-4.15565276739366,-0.694464894574607,1.6484443813849,849.902691054342,887.092331692944
0.8,0.389246556809176,0.0239627817295939,6.08810842640313,-1.18300744293933,-0.38991183338466,0.00747389340520521,-6.0326095446392,-1.43951134195556,1.61311487892606,854.662663764384,887.092331692944
0.81,0.353807469977648,0.0233103969784276,5.60693199907661,-1.17225031529806,-0.354458642285077,0.00906484024656991,-5.55526079466222,-1.39675865749043,1.61101746957113,859.003592355259,887.092331692944
0.82,0.334133976869557,0.0168016911927851,4.62316740922085,-0.837285458270413,-0.334503222557676,-0.00595024572043592,-4.55555856576215,-1.14961297236243,1.638824733978,862.789340732138,887.092331692944
0.83,0.285500419821787,0.00877990151765259,5.33694691724695,-0.42624361631843,-0.284450250940695,-0.0259929053561122,-5.24554586583108,-1.07188366319598,1.69266567603358,866.106609790941,887.092331692944
0.84,0.221241189185421,0.0365631902119662,6.98955539295448,-1.83360168545314,-0.224104020401864,-0.00786884428469214,-6.48950801693866,-3.17840611473181,1.76967792212652,869.147045350108,887.092331692944
0.85,0.234426953220506,0.0171957757062685,4.92662872100882,-0.867418677273544,-0.2292074658308,-0.0521116945206362,-4.45758847695873,-2.27024022659206,1.86757336421879,871.845334910745,887.092331692944
0.86,0.184500309109418,-0.0131124352599302,6.19093941844317,0.660099084575191,-0.163702693370956,-0.0861030092564208,-5.93486221674003,-1.88172052988804,1.98405419391879,874.211584418365,887.092331692944
0.87,0.204387009461923,0.0164189440365372,4.0862264413845,-0.808673120470517,-0.183154707850756,-0.0921845125396192,-3.07091688850771,-2.81436817241801,2.11725290309241,876.36339541262,887.092331692944
0.88,0.171895001598287,0.0212843082338876,4.67769638455726,-1.07698872805917,-0.145680693430885,-0.093691242456095,-2.90409216991479,-3.82191010557629,2.26551951896602,878.355784175377,887.092331692944
0.89,0.171607445990062,0.00304076953136791,3.82774829483672,-0.155247580218099,-0.11473876455513,-0.127645515812101,-2.3907612306585,-2.99332917631343,2.42711085276074,880.009753401762,887.092331692944
0.9,0.133471765665157,0.020843522084598,4.93986332828604,-1.03450708662982,-0.0866275959437463,-0.103657244144694,-1.65830754697092,-4.76680927813268,2.60036531737496,881.513016938288,887.092331692944
0.91,0.0739118277953638,0.0012403452837378,7.20036928412968,-0.0707998512158281,-0.0270227833349275,-0.0688060021023455,-2.45299582025884,-6.77001786944193,2.78414144733098,882.911971216842,887.092331692944
0.92,0.0796867693956959,-0.0274857245675303,6.24840072122446,1.36455645999813,0.014112454126044,-0.0831040607327058,-2.3659929026226,-5.94193600523099,2.97766071803337,884.151793978734,887.092331692944
0.93,0.116550301607835,0.0373145777291466,3.82137947017131,-1.86335450353122,-0.0318252023990024,0.118167284001302,-3.63735859850844,2.20105735652971,0.572927780187667,885.259601416178,887.092331692944
0.94,0.0994696269243231,0.0137681706206043,4.17820980722401,-0.678988145031038,-0.0603671635045725,0.0802469611456677,-3.427353510797,2.48429265713665,0.782492476122878,886.199948943826,887.092331692944
0.95,0.0404742584697835,0.0257889444451674,6.68285247612783,-1.30526986919141,-0.0200618750243291,0.0435976653593168,-6.3250739867397,2.52144516326959,0.998572551540835,887.023023447918,887.092331692944
0.96,0.0292740616289973,-0.0118792552521324,6.84862016880547,0.591139694176914,-0.031573006976436,-0.0011102342408568,-6.22971256226881,2.90580896586663,1.22045418297412,887.787803540511,887.092331692944
0.97,0.068102246468714,0.0234844835603495,4.55588973693609,-1.16628610159698,-0.0646925600299514,0.0316908444026493,-4.66482336502432,-0.596470903750605,1.44735869413739,888.433983720144,887.092331692944
