t,iq,id,vq,vd,ia,ib,va,vb,theta_e,omega,r
0,0,0,0,0,0,0,0,0,0,0,0
0.01,0.000442574294453615,0.000247053866335993,-0.0204239760758001,-0.012358181701693,-0.00015712174970619,-0.000481892492940016,0.00819003753518046,0.0224229065664835,-2.94764295178219,-0.00393445832503983,0
0.02,0.000564354753664785,0.000311225620699043,-0.0262277023637595,-0.015568187687337,-0.000196638549999112,-0.000613751542252882,0.0102221935145255,0.0287361723077674,-2.94767506252506,-0.00469500636593707,0
0.03,0.000612925754445314,0.00033711119529692,-0.0285867054441846,-0.0168630495696318,-0.00021270201909494,-0.000666393119359595,0.0110392717333323,0.0313001062064984,-2.94770946239748,-0.00474093298181524,0
0.04,0.000606689488724107,0.000334003559455392,-0.0284559752714553,-0.0167075912390931,-0.000210875461950267,-0.000659668138539714,0.0109129198590631,0.0311415207369833,-2.94774176061968,-0.00429734904950404,0
0.05,0.000619862942195514,0.000342426415435397,-0.0291934594378226,-0.0171289285433427,-0.000216623170925848,-0.000674210886083312,0.011185260769763,0.0319460202294924,-2.9477719256918,-0.00406142594260405,0
0.06,0.00062148790571872,0.000344391391580773,-0.0293984247601888,-0.0172272140860566,-0.00021825732903182,-0.000676177776826093,0.0112431295583362,0.0321657631851286,-2.9477999633853,-0.0037424378090097,0
0.07,0.000628228173126814,0.000349485308486084,-0.0298220115967459,-0.0174820255225252,-0.000221975145652992,-0.000683767250656391,0.0114124218893215,0.0326302040855831,-2.94782527488972,-0.0035039762141834,0
0.08,0.000620579888482044,0.000346035582767856,-0.0295872503977242,-0.0173094683696865,-0.000220078752575377,-0.000675592602975152,0.011289067492422,0.0323663411044614,-2.94784901978673,-0.00314910172136367,0
0.09,0.00061729624397945,0.000345227458702287,-0.0295391252661649,-0.0172690335555319,-0.000219932366644842,-0.000672210090057547,0.0112593473570414,0.0323110900237945,-2.9478704501586,-0.00286279566050148,0
0.1,0.000615248979896789,0.000345036681757566,-0.0295377487883549,-0.0172594965300645,-0.000220152330871026,-0.000670160107910315,0.0112508827486306,0.0323076842458855,-2.94788992014414,-0.00261146914295609,0
0.11,0.000613626115640388,0.000344990308958581,-0.0295473788525521,-0.0172571699376633,-0.000220431064739503,-0.000668554761234304,0.0112473186613519,0.032316487034386,-2.94790764232186,-0.00238496257358006,0
0.12,0.000612209735967308,0.000344977831591326,-0.029558930336824,-0.0172565573965822,-0.000220702208048048,-0.000667158901960643,0.0112450159484762,0.0323275231367525,-2.94792378213498,-0.00217925943350383,0
0.13,0.000633164444687128,0.000357472341227013,-0.0305787423998852,-0.0178815499969771,-0.000228940733098293,-0.000690123053872784,0.0116625622906202,0.0334483775072922,-2.9479390788023,-0.00219363925412727,0
0.14,0.000644717147902038,0.000364713783076331,-0.031315892206873,-0.0182437823148747,-0.000233833649222727,-0.000702850032977142,0.0118766545100136,0.0342412875855275,-2.94795344723201,-0.00213081385319503,0
0.15,0.000617484782070671,0.000349581419251359,-0.0299989658388958,-0.0174868334581545,-0.000224233419546566,-0.000673211703948403,0.0113877070069529,0.0328031618128537,-2.94796675044443,-0.0017165489609213,0
0.16,0.000609833932871276,0.000346044916950136,-0.0297052153670036,-0.0173099352235203,-0.000222242609841437,-0.000665020851251403,0.011271000944426,0.0324807360623691,-2.94797794193304,-0.00151130206968665,0
0.17,0.000607261678122926,0.000345217668431312,-0.0296354700521364,-0.0172685515658065,-0.000221932333786737,-0.000662335280302805,0.0112441326891534,0.0324042194545819,-2.94798789883595,-0.0013684532490372,0
0.18,0.000606045372939734,0.000345023476312761,-0.02962263165096,-0.0172588421392069,-0.000221981739693617,-0.000661102337396563,0.0112373665356897,0.0323896516075286,-2.94799690773936,-0.00124963756776,0
0.19,0.000605226347190275,0.000344977267677583,-0.0296239322081324,-0.0172565298457713,-0.000222099373773961,-0.000660287902900537,0.0112351125241894,0.0323903909880511,-2.94800509836758,-0.0011443057549906,0
0.2,0.000604554415104705,0.000344965706979763,-0.0296284475109251,-0.0172559470390068,-0.000222222214502202,-0.000659624641137956,0.0112339135095466,0.0323946260571206,-2.94801255522657,-0.00104910147644396,0
0.21,0.000603961190500745,0.000344962308896361,-0.0296334028472812,-0.0172557799785313,-0.000222337476331351,-0.00065904033321853,0.0112330163335539,0.0323993804111567,-2.94801934666775,-0.000962570077840461,0
0.22,0.00060342570806428,0.000344960879642066,-0.0296381319492986,-0.0172557087675229,-0.000222443156366398,-0.000658513200947452,0.0112322371841879,0.0324039380068495,-2.94802553274003,-0.000883797264796688,0
0.23,0.000602939236515974,0.00034495996670232,-0.0296424936873441,-0.0172556592293421,-0.000222539546361521,-0.000658034385015662,0.0112315321593271,0.0324081454698879,-2.94803116757617,-0.000812055480100058,0
0.24,0.000602496372550087,0.000344959225750817,-0.0296464736638188,-0.0172556282829804,-0.000222627381683674,-0.000657598506150438,0.0112309025854157,0.0324119875240134,-2.94803630034073,-0.000746708972436338,0
0.25,0.000602093196175475,0.000344958571804546,-0.0296501053191286,-0.0172555857457947,-0.000222707363652682,-0.000657201691505053,0.0112303138502633,0.0324154906748375,-2.94804097577999,-0.000687185550220102,0
0.26,0.000605579739370778,0.000347186054903999,-0.029826959913765,-0.0173670086154105,-0.000224225332061056,-0.000661050662141936,0.0113057721298471,0.0326104284316085,-2.94804505902811,-0.00067124234305028,0
0.27,0.000596885340962928,0.000342226292321433,-0.0294536467524588,-0.0171189112961997,-0.000221033269319285,-0.00065156368780537,0.01113424913627,0.0321963185342246,-2.94804935368976,-0.000538415529080019,0
0.28,0.000596054972326202,0.000341970932193879,-0.0292897946886067,-0.0171061467632996,-0.000220944694849067,-0.000650698924479204,0.0111533513547465,0.0320330311326583,-2.94805289909083,-0.000488355185563164,0
0.29,0.000599520336373677,0.000344258878161734,-0.0296035513807983,-0.0172205872620691,-0.000222525393177884,-0.00065453896622723,0.0112054068868378,0.0323629067993978,-2.94805591768289,-0.000484904903552623,0
0.3,0.000590664040040399,0.000339677948707738,-0.0292107715451212,-0.0169914370504789,-0.000219734424043726,-0.000644966588224006,0.011056132824821,0.0319333686644796,-2.94805761782075,-0.00038148785007936,0
0.31,0.000597887478958604,0.000343722744098655,-0.0295489168169066,-0.0171937689672707,-0.000222316007935856,-0.000652832562700153,0.0111897303292448,0.0323040881547696,-2.94806003896983,-0.000420443779514036,0
0.32,0.000599579368979352,0.000344667475855379,-0.0296369988010823,-0.017241029151104,-0.000222919323379673,-0.000654674013446497,0.011219247695556,0.0323995874243845,-2.94806250836558,-0.000406890217218541,0
0.33,0.000599867741850593,0.000344887954744907,-0.029660860353294,-0.0172520597764296,-0.00022308174277564,-0.000654998889374049,0.0112255583677388,0.0324250989629885,-2.94806482539672,-0.000381975767341813,0
0.34,0.000599809296519279,0.000344939245863451,-0.0296681421698698,-0.01725462555148,-0.000223144710399215,-0.000654950924687224,0.0112267448051059,0.0324327144071294,-2.94806695332393,-0.000356059876116074,0
0.35,0.00059967383847295,0.000344951028715375,-0.02967107135478,-0.0172552143884389,-0.000223183596747941,-0.000654819827817797,0.0112268223243683,0.0324356803447762,-2.94806889610032,-0.000331627440830588,0
0.36,0.000599529299095727,0.000344953598962073,-0.0296727828251548,-0.0172553405908996,-0.000223215075863106,-0.000654678085640972,0.0112266744649595,0.0324373642572046,-2.94807066691748,-0.000309160293397634,0
0.37,0.00059939232649548,0.00034495403308618,-0.0296740986333508,-0.0172553590921529,-0.000223242899946489,-0.000654543393234984,0.0112264919037809,0.0324386409492648,-2.94807228024985,-0.00028864069824057,0
0.38,0.000599265957679267,0.000344953982945632,-0.0296752193707386,-0.0172553670971539,-0.000223268115102726,-0.00065441904553717,0.0112263319004741,0.0324397258067851,-2.94807374991164,-0.000269935464874461,0
0.39,0.000599150696473854,0.000344953833153475,-0.0296762297036509,-0.0172553549411021,-0.000223291010312083,-0.000654305608111522,0.0112261691004389,0.0324406999137753,-2.94807508864817,-0.000252893274004538,0
0.4,0.000599045621605928,0.000344953672368554,-0.0296771416185714,-0.0172553412826148,-0.000223311857459673,-0.000654202191347365,0.0112260198860252,0.0324415784903697,-2.94807630811042,-0.000237368600755179,0
0.41,0.000598949695378239,0.0003449535202124,-0.0296779569640546,-0.0172553404055097,-0.000223330882382443,-0.000654107778332357,0.0112258982629173,0.0324423659781608,-2.9480774189218,-0.000223226915893819,0
0.42,0.000598862548469642,0.000344953380272925,-0.0296787065754259,-0.0172553266608666,-0.000223348166016362,-0.00065402200517903,0.0112257734445148,0.0324430875956015,-2.94807843076189,-0.00021034517150671,0
0.43,0.000598782920389945,0.000344953252481565,-0.0296793723654613,-0.0172553271562545,-0.000223363956514492,-0.000653943632952041,0.011225675796407,0.0324437307070417,-2.94807935244888,-0.000198611153612645,0
0.44,0.000598710674639289,0.000344953135995207,-0.0296799884915652,-0.0172553118844346,-0.0002233782845931,-0.000653872525751162,0.0112255695629503,0.0324443229714525,-2.94808019201519,-0.00018792261313263,0
0.45,0.000598644608944514,0.000344953029863414,-0.029680532140189,-0.0172553123106741,-0.000223391385343564,-0.00065380750193353,0.0112254902464104,0.0324448479699233,-2.94808095677745,-0.000178186402710627,0
0.46,0.000598584480431121,0.00034495293317791,-0.0296810251490715,-0.0172553127058087,-0.000223403308966423,-0.000653748321499866,0.0112254184276624,0.0324453240328858,-2.94808165340069,-0.000169317672085253,0
0.47,0.000598529871604535,0.000344952845101403,-0.0296814776019042,-0.017255298802843,-0.000223414138919059,-0.000653694573235505,0.011225338363631,0.0324457582440252,-2.94808228795579,-0.000161239130449952,0
0.48,0.000598479987636346,0.000344952764868034,-0.0296818779652828,-0.0172552976903182,-0.000223424030934007,-0.000653645475768403,0.0112252790344555,0.0324461444323675,-2.94808286597298,-0.00015388037333681,0
0.49,0.000598434469245764,0.000344952691779869,-0.0296822339829479,-0.0172552980100106,-0.000223433056726512,-0.000653600675267004,0.0112252279680664,0.0324464879562902,-2.94808339249005,-0.000147177269163857,0
0.5,0.000598393141806744,0.00034495262520077,-0.0296825603128961,-0.0172552983076416,-0.000223441252265649,-0.000653559999219817,0.0112251810672878,0.0324468028690196,-2.94808387209492,-0.000141071400353336,0
0.51,4.73179579334616,-0.0157928473216039,3.41085567697673,0.7992547180365,-0.879044517539406,4.64945390128119,0.163377727198165,3.4994359933743,0.183520849454448,56.9799755092595,1704.26003371109
0.52,4.73962222510795,0.0153838962339804,3.02014415489331,-0.749381320545925,-3.51890986045016,3.17514234248281,-2.74904530526437,1.45794135325235,0.839953058557505,122.34139457376,1704.26003371109
0.53,4.75369125731507,0.0245225192882721,2.31736286420685,-1.19454462567126,-4.35903612676138,-1.89657216298645,-1.63792451776504,-2.02837639042394,1.98634057388447,191.616356622378,1704.26003371109
0.54,4.6973331162386,-0.00740698297622711,5.13608127035987,0.409903014034042,2.32870574734561,-4.07947580095631,2.18286901891398,-4.66716553626729,-2.62447129931594,263.069672069956,1704.26003371109
0.55,4.75860669353559,0.00884822082927594,2.07321543993181,-0.387783973298939,2.10743372159763,4.26651368963545,0.566699985144492,2.03161261001117,-0.456934474880939,328.50474585399,1704.26003371109
0.56,4.71116935481355,0.0361588284061782,4.44599019332815,-1.74865146173204,-3.79618626172047,-2.79023189303878,-2.51568200400254,-4.06152124068377,2.21230907746724,398.955538834647,1704.26003371109
0.57,4.69349643898092,0.0226496572496491,5.33051883944966,-1.06500582676486,3.70415198071793,2.88247808897891,3.53289375886161,4.13126254277885,-0.904680053125164,466.814967791688,1704.26003371109
0.58,4.67326457240135,0.0315047095372067,6.34308994133983,-1.48844115966659,-1.74710116349998,-4.33451633228917,-0.947359897348858,-6.44614274699307,2.76518635330942,533.794322120368,1704.26003371109
0.59,4.66211776585974,0.0249857207647548,6.90149616785489,-1.1521376111782,-2.80293489311595,3.72552309534382,-5.09565999719816,4.79503072179539,0.650369112156296,601.831593111413,1704.26003371109
0.6,4.68102513122024,0.060036979471557,5.95724677756597,-2.89425896551476,3.88674292322143,2.60937351998668,3.25909940952948,5.76574324498475,-0.966731982666215,669.844011702297,1704.26003371109
0.61,4.64041545028524,0.046003880063076,7.98887506624446,-2.18186184297307,4.01487580833846,-2.32730405229859,8.0264396899613,-2.0393410281996,-2.08621992103459,738.048607029869,1704.26003371109
0.62,4.65445373578793,0.0838079257342739,7.28819545152912,-4.07768245268777,1.88103010027996,-4.25824953576547,6.76418822103437,-4.89806541759779,-2.70762669959853,806.73732219911,1704.26003371109
0.63,4.66792533284886,0.0934678769987252,6.61587808969151,-4.54238165856028,1.33306949689516,-4.47450431595841,6.34199589090037,-4.91753618690171,-2.83201928510778,873.927370113058,1704.26003371109
0.64,4.67155207223198,0.0814033375228715,6.43584166682793,-3.921919336606,2.87480355650309,-3.68314129221945,7.09684536029625,-2.53698545036508,-2.46141314098118,941.483539824762,1704.26003371109
0.65,4.61904840535546,0.0596090114368303,9.06242617769056,-2.82917553620272,4.61644878234201,-0.166018207658759,9.12520592326344,2.61962197631201,-1.59383883025571,1009.08401177334,1704.26003371109
0.66,4.62782158666883,0.0727224531409587,8.62518741006749,-3.48626531669346,1.13674301235628,4.48662863596799,-1.4057872799834,9.19628543709923,-0.232427871831004,1077.07967442746,1704.26003371109
0.67,4.59269678483861,0.0788094027784658,10.3828791349649,-3.76944216181764,-4.59040968805374,-0.16496537592952,-10.1682696880478,-4.31499303518641,1.62387586838965,1144.07480974542,1704.26003371109
0.68,4.25652433402258,0.0473833280373261,8.06474655991681,-2.19274868219226,3.10429245244805,-2.91266423666998,7.42480655850329,-3.83673447449161,-2.31322575212569,1208.91181499718,1704.26003371109
0.69,3.76791815123593,0.0723021484786714,8.56075042824729,-3.45196703296115,-1.69017171199539,3.36834594111982,-7.04053398410568,5.96937228777363,0.484257857111593,1266.95736254673,1704.26003371109
0.7,3.30209801697719,0.0854487504034076,10.6347085732895,-4.12439736619543,1.62746593710618,-2.87445776212302,9.0125871590568,-6.99149145558239,-2.60053933097118,1318.58569838106,1704.26003371109
0.71,2.9757810781964,0.0601029932346175,8.0933144799178,-2.89287815628397,-2.39149026029092,1.7719084993535,-8.27374907806761,2.32713546901065,0.953324934048282,1364.53585867502,1704.26003371109
0.72,2.6117961112591,0.0453958856014184,9.3697000903908,-2.16654669410974,2.60066033307006,0.245164322880786,9.07085769496246,3.19448666288773,-1.4594247245793,1405.23021140909,1704.26003371109
0.73,2.34747284762016,0.0355360575703447,7.68263635275206,-1.66848731662118,-1.05226284402916,-2.0987221085168,-1.83636421997701,-7.64424736033192,2.69197638924816,1441.11281848078,1704.26003371109
0.74,2.07140113546365,0.0467582981489225,8.37328619405112,-2.23314920517576,-1.46717467745931,1.46297213516459,-7.6019294181154,4.16047427369234,0.809401842909826,1473.1031159942,1704.26003371109
0.75,1.83235613825827,0.0383122318110039,8.46625217006803,-1.84445023614151,1.40393374790828,1.17812006009715,5.15524875738249,6.96439751380479,-0.851725604667387,1501.73440026135,1704.26003371109
0.76,1.67249032753512,0.0494244178141697,6.06684751307292,-2.38494905192194,1.1950182922592,-1.17115240252527,6.07477680982625,-2.36467914058962,-2.31656574514779,1526.74166921435,1704.26003371109
0.77,1.43747822192682,0.0135509518769692,8.52696854149299,-0.628313640957671,-0.657175140915497,-1.27853357444119,-3.26496076139173,-7.90215171744993,2.67622899231109,1549.35253814628,1704.26003371109
0.78,1.29925136989384,0.0565668861787678,7.17458721522904,-2.76084286636991,-1.29698850825034,0.095261452065058,-7.2536778856269,-2.54580285436262,1.54099037434908,1569.10664907077,1704.26003371109
0.79,1.11882437643511,0.06485056354695,8.90368587122571,-3.20963375180475,0.321478107865043,-1.07360393398184,6.05966515681969,-7.27033899494473,-2.79275293679073,1586.81570968129,1704.26003371109
0.8,1.00058704634623,0.00352072049589014,8.3151841423399,-0.119266148532691,-0.506906366072705,-0.86268926550853,-4.08422840696965,-7.24400373101153,2.61386782138606,1602.34602231221,1704.26003371109
0.81,0.860350211157803,0.0090137370385568,9.54569626826039,-0.422565310712964,-0.830564031534557,-0.224604369538394,-9.07352100549951,-2.99501172793321,1.84537966190939,1616.23545751332,1704.26003371109
0.82,0.759949634038261,0.0576933642906717,9.45988898771123,-2.86140881677719,-0.678043790750005,0.34800659244248,-9.82906386441623,1.03279408682349,1.17237627864945,1628.57246072929,1704.26003371109
0.83,0.71061921866139,0.017273843917807,7.34104643869873,-0.829766789799402,-0.377700094924056,0.602179954755205,-4.74266737801109,5.66450190944753,0.584498432706058,1639.42402021668,1704.26003371109
0.84,0.63802539493841,-0.0137591022740836,6.93559691993729,0.697680785215302,-0.0595565330860776,0.635388650235798,0.197655105989347,6.96779703873316,0.0718975906328114,1649.15843072229,1704.26003371109
0.85,0.50092515390249,0.050879715390319,10.1919871854008,-2.51470598573206,0.230294696303986,0.447748934230656,1.38090144094463,10.4064143773179,-0.373828477779374,1657.67272279355,1704.26003371109
0.86,0.495086823449729,0.0186104895886944,7.26347518890453,-0.91072277314005,0.354678461884902,0.345919790921587,4.34576304231044,5.89082603455885,-0.760326549916334,1665.32410870941,1704.26003371109
0.87,0.423404533959029,-0.00364644701057637,7.99756699625051,0.179601218753831,0.374555724304469,0.197465706753396,7.18885844147081,3.5090809004335,-1.09423838378947,1672.10073279876,1704.26003371109
0.88,0.389284896404814,0.0144347685443295,7.18555603511814,-0.698585992680016,0.385043643407178,0.0590972569884713,6.92562498562214,2.03861631542517,-1.38143954420816,1678.0578104712,1704.26003371109
0.89,0.363509928010068,0.0482925220939076,6.20310782436197,-2.39931602351671,0.360197627114422,-0.0687699416403348,6.32885258831723,2.0447222248303,-1.62737154747754,1683.35764215812,1704.26003371109
0.9,0.313224578350683,-0.0149588444304681,6.72125334138826,0.74375960595284,0.306140909196978,-0.0679054285437179,6.28935640002443,-2.48443573151765,-1.83679470121112,1688.02416598726,1704.26003371109
0.91,0.232484916204326,-0.00257968993077763,9.00411390300837,0.111994114575137,0.211128490131681,-0.0973686382640133,8.08610833831727,-3.96250700958925,-2.01400582186848,1692.14901088254,1704.26003371109
0.92,0.206091182352205,0.0344955798950156,8.72744883135553,-1.71233090745202,0.15177877791759,-0.14362006492641,8.19798094324408,-3.44870246538483,-2.16273936779983,1695.82617013092,1704.26003371109
0.93,0.221865264620939,-0.0018349585731381,6.52151983247574,0.0917440122527793,0.168694300171695,-0.144117298780772,4.86306987185109,-4.34616949861057,-2.28605790659672,1699.08218862699,1704.26003371109
0.94,0.177413959660817,-0.0257896769384986,7.50691834088772,1.27200713881723,0.140317811565182,-0.111587330269526,4.21554747296518,-6.34042464202007,-2.38698573868198,1701.91413215335,1704.26003371109
0.95,0.132702924272747,0.0099360375362784,8.63386862544124,-0.496219932784059,-0.0523600605530582,0.122340569768744,-4.42063523019559,7.43289350284426,0.479132002569453,1704.43180719871,1704.26003371109
0.96,0.115770187494765,0.0352602609133231,8.49977669679353,-1.758536800854,-0.0144047757425428,0.120160412566101,-5.03597488218783,7.0694846036529,0.414955410590487,1706.64204135032,1704.26003371109
0.97,0.155078583969449,-0.0240517125097255,5.67990427679465,1.19530141466431,-0.077916546921538,0.136223580177749,-0.914836317396709,5.73176522354333,0.36569049034004,1708.55525339128,1704.26003371109
