t,iq,id,vq,vd,ia,ib,va,vb,theta_e,omega,r
0,0,0,0,0,0,0,0,0,0,0,0
0.01,0.000535591524734382,0.000295453176864254,-0.0259160227290653,-0.0147802209159836,-0.000565328612011448,0.000233568879621601,0.0274091645594659,-0.011782735784648,1.68310100603204,-0.00280809101165438,0
0.02,0.000668907975976531,0.00036410874508689,-0.0324864068216481,-0.0182147629565124,-0.000705492978201761,0.000286867070751907,0.0343227406634047,-0.0144600723060511,1.68307870855966,-0.00318931893040886,0
0.03,0.000718861600076075,0.000391041851582941,-0.0349846773942502,-0.0195621047031529,-0.000758142770374467,0.000308050757964135,0.0369558901603405,-0.0155198510061704,1.68305587194555,-0.00308904072285984,0
0.04,0.000706398322503304,0.000385779890807779,-0.034478744286943,-0.0192988736716644,-0.000745162253589063,0.000304233347963718,0.0364233401579146,-0.0153156986239646,1.68303541424164,-0.00267495759882782,0
0.05,0.000719776856650461,0.000395437181637381,-0.0352028734124495,-0.0197819799147871,-0.000759532516033238,0.000312345393881761,0.037196733621985,-0.0157153438936944,1.68301702884428,-0.002442120650392,0
0.06,0.000719589132363729,0.00039739601821976,-0.0352676429332278,-0.0198799784924124,-0.000759560164809421,0.000314325421732937,0.0372718102241225,-0.0158060857122006,1.68300058483324,-0.002164991003313,0
0.07,0.00072689723283864,0.000403771781275318,-0.0356818106714992,-0.0201989259444548,-0.000767531654666696,0.00031985371273024,0.0377188574334404,-0.0160771893072788,1.68298638207672,-0.00196796995101123,0
0.08,0.000715835160187051,0.000399084327680189,-0.0352091451927984,-0.0199644317034706,-0.000756010259941902,0.000316443935038338,0.0372227055781623,-0.0158975667286394,1.68297347947635,-0.00168866356359994,0
0.09,0.000711067259123118,0.00039813023310324,-0.0350303900357299,-0.0199167148686576,-0.000751162006000877,0.000316037925332455,0.0370395558054035,-0.0158705722314341,1.68296235061403,-0.00147480814054556,0
0.1,0.000708037123593325,0.000397934739052802,-0.0349285434607276,-0.019906929991943,-0.000748125964633986,0.000316190078863646,0.0369371001224406,-0.0158726067341459,1.68295265564616,-0.0012948730018964,0
0.11,0.000705651979345244,0.000397893549575136,-0.0348521256106087,-0.0199048668530334,-0.000745748516531335,0.000316422412035993,0.0368607970189183,-0.0158794214990579,1.68294418723201,-0.0011391854464689,0
0.12,0.000703627941816894,0.000397883887566261,-0.0347882414622222,-0.0199043856969306,-0.000743733768789019,0.000316644832032992,0.0367971427474458,-0.0158863652114052,1.68293678493183,-0.00100344248700137,0
0.13,0.000729055093462061,0.000413013149891341,-0.0360387165998975,-0.020661232187727,-0.000770691983609902,0.000328838954027007,0.0381243447185099,-0.0164987863028502,1.68292987065939,-0.0010314709278533,0
0.14,0.000743179544504631,0.000421981289150358,-0.036823342329038,-0.0211098751676048,-0.00078572912414206,0.00033617523293375,0.0389541386247517,-0.01685705946709,1.68292354448715,-0.00100531560534461,0
0.15,0.000708519355153933,0.000402773522232818,-0.0351076312757107,-0.0201489936658329,-0.00074913556452469,0.000320970548187602,0.0371415949889741,-0.016094397820734,1.68291786929587,-0.000713603314353386,0
0.16,0.000699667976399676,0.000398871082098287,-0.0347023605106299,-0.0199537712439824,-0.000739901766056998,0.00031808614229358,0.03671695762776,-0.0159459033744778,1.68291357349842,-0.000591319698313514,0
0.17,0.000696909043208643,0.000398077742963982,-0.034586169935715,-0.0199140757860738,-0.000737070250415423,0.000317609114953947,0.036596998003775,-0.0159195886362473,1.68290997219321,-0.000515223475349918,0
0.18,0.000695652766859359,0.000397916042794045,-0.0345398549659743,-0.0199059890994668,-0.000735802781715622,0.000317591271245773,0.0365500195303859,-0.0159168481624674,1.68290685935586,-0.000455844511122917,0
0.19,0.0006948226956093,0.000397882717812974,-0.0345121877826556,-0.0199043190969534,-0.000734973331340549,0.000317653014602707,0.0365222960118332,-0.015918383029776,1.68290414603597,-0.000405588354912033,0
0.2,0.000694159143031606,0.000397875529966128,-0.0344909675850447,-0.0199039702798848,-0.000734312386960673,0.000317721846205638,0.0365011322628415,-0.0159204968950625,1.68290177562803,-0.000362033310003842,0
0.21,0.000693593685947699,0.000397873703836748,-0.0344731136258294,-0.0199038694249759,-0.000733749616622521,0.000317784810048547,0.0364833461019903,-0.0159224696058188,1.68289970355375,-0.000324041233196251,0
0.22,0.00069310248669658,0.000397873012702841,-0.0344576514992162,-0.0199038401718689,-0.000733260847524617,0.000317840401443396,0.0364679489108126,-0.015924236329165,1.68289789197715,-0.000290844319520818,0
0.23,0.0006926737442776,0.00039787259224812,-0.0344441628381051,-0.0199038194473513,-0.000732834245700243,0.000317889106454979,0.0364545173722564,-0.0159257824098697,1.68289630808182,-0.000261824018667089,0
0.24,0.000692299134989203,0.000397872261885106,-0.0344323771518418,-0.0199038029128988,-0.000732461510452754,0.00031793169830899,0.0364427817541335,-0.0159271348566774,1.68289492323728,-0.00023645176106692,0
0.25,0.000691971732113522,0.000397871980538877,-0.0344220745701661,-0.0199037862243324,-0.000732135746038989,0.000317968929793541,0.0364325226832871,-0.015928314873513,1.68289371242477,-0.000214268244776895,0
0.26,0.000696595371883641,0.000400690095973539,-0.0346480072233455,-0.0200447743906825,-0.000737045307693216,0.000320252836909222,0.0366727935654698,-0.0160431791433868,1.68289277319134,-0.000224705560391577,0
0.27,0.000685387084204441,0.0003941784877918,-0.0341159261848164,-0.0197190253365752,-0.000725178578668343,0.000315036766858501,0.0361075937347217,-0.0157790384485438,1.682891545681,-0.000140574781452727,0
0.28,0.000684617283305606,0.000393933829962757,-0.0340062452806105,-0.0197067796547225,-0.000724385986688631,0.000314880341207598,0.0359972186177446,-0.0157791677293553,1.68289073633134,-0.000122623739840538,0
0.29,0.000689496771994802,0.000397071336543794,-0.0343190735656053,-0.0198637411999958,-0.000729585637053856,0.000317452741523279,0.0363256324885005,-0.0159001713566941,1.68289018340082,-0.00014099597620259,0
0.3,0.000679606453334109,0.000392037875550122,-0.03384353379968,-0.019611936072556,-0.000719194432966235,0.000313557004178818,0.035824914590479,-0.0157031306161857,1.68289044728282,-8.93727846329139e-05,0
0.31,0.000688310180409101,0.000396686182574636,-0.0342628077167473,-0.0198444755966113,-0.000728363360711004,0.000317202847834345,0.0362675622855817,-0.0158873260871913,1.68289002987885,-0.000131693937384344,0
0.32,0.000690210337859457,0.000397630303031006,-0.0343563396043095,-0.0198916949000599,-0.000730357028987576,0.000317928889195423,0.0363657804483455,-0.0159238063724239,1.68288948761077,-0.000133358300579373,0
0.33,0.000690545977477705,0.000397821991938809,-0.0343747146673575,-0.0199012909736058,-0.000730711840321939,0.000318082207446638,0.0363851053859297,-0.0159313055627327,1.68288897232692,-0.000126610310498161,0
0.34,0.000690531777700516,0.000397860848355753,-0.0343760635823264,-0.0199032393632289,-0.000730701929699933,0.000318122744552143,0.036386656447882,-0.0159331075785592,1.68288851224281,-0.000118806096046256,0
0.35,0.000690448090888434,0.000397868669612104,-0.0343738306107606,-0.0199036190554242,-0.000730619514270031,0.000318140173254201,0.0363844735164067,-0.0159337493796848,1.68288810775861,-0.000111540587329672,0
0.36,0.000690358160172129,0.000397870195584563,-0.0343710719561921,-0.0199036994967711,-0.00073053020594443,0.000318152007778568,0.0363817355289274,-0.0159341507768279,1.68288775359045,-0.000105085510036832,0
0.37,0.000690275796356077,0.000397870450654932,-0.0343684772079855,-0.0199037158893914,-0.000730448288987613,0.00031816170048333,0.0363791539619464,-0.0159344685764675,1.68288744381019,-9.94178102436566e-05,0
0.38,0.000690202803953842,0.000397870454457696,-0.0343661571487432,-0.0199037191519004,-0.000730375668898956,0.000318170066782723,0.0363768445111027,-0.015934741186003,1.68288717293167,-9.44568298418897e-05,0
0.39,0.000690138775527016,0.000397870413250233,-0.0343641142463482,-0.0199037194708712,-0.000730311962321503,0.00031817736078476,0.0363748106907306,-0.0159349786295658,1.68288693608771,-9.01180025254427e-05,0
0.4,0.000690082911390098,0.000397870368172857,-0.0343623296812787,-0.0199037033071692,-0.000730256377832065,0.000318183715953898,0.0363730322169458,-0.0159351697138664,1.68288672900583,-8.63241291178137e-05,0
0.41,0.000690033900539748,0.000397870326920828,-0.0343607566406664,-0.0199037035712915,-0.000730207612326748,0.000318189289320452,0.0363714661923447,-0.0159353525154629,1.68288654794708,-8.30069551206439e-05,0
0.42,0.000689991117909097,0.000397870290478341,-0.0343593803517383,-0.0199037038120113,-0.000730165043731767,0.000318194154174698,0.036370096044611,-0.0159355124579495,1.68288638964154,-8.0106627772205e-05,0
0.43,0.000689953690383235,0.000397870258538369,-0.0343581715197823,-0.0199037040325984,-0.000730127803468036,0.000318198409967389,0.036368892617699,-0.0159356529255106,1.6828862512302,-7.75707751033405e-05,0
0.44,0.000689920919470234,0.000397870230595903,-0.0343571078825218,-0.0199037042356748,-0.000730095196575368,0.000318202136156665,0.0363678337495014,-0.0159357765019809,1.68288613021262,-7.53535971643992e-05,0
0.45,0.000689892281301145,0.000397870206161098,-0.0343561742337219,-0.0199037044232029,-0.000730066701722402,0.000318205392452338,0.0363669042946091,-0.0159358849698039,1.68288602440301,-7.34150473956771e-05,0
0.46,0.000689867252007023,0.000397870184795821,-0.0343553539994249,-0.0199037045971576,-0.000730041797670884,0.000318208238414166,0.0363660877528496,-0.0159359802544041,1.68288593189029,-7.17201112991859e-05,0
0.47,0.000689845365926581,0.000397870166114827,-0.0343546323191583,-0.0199037047592941,-0.000730020021107155,0.000318210726967724,0.0363653693305803,-0.0159360640805749,1.68288585100345,-7.02381744630497e-05,0
0.48,0.000689826215606195,0.000397870149781147,-0.0343539961830963,-0.0199037049111573,-0.000730000966632158,0.000318212904421791,0.0363647360765159,-0.0159361379582372,1.6828857802816,-6.89424696990618e-05,0
0.49,0.000689809451797712,0.000397870135499731,-0.0343534346024905,-0.0199037035988551,-0.000729984286750071,0.000318214810481888,0.0363641768878898,-0.0159362017182556,1.68288571844736,-6.7809593591028e-05,0
0.5,0.000689794841674864,0.000397870123013172,-0.0343529415320063,-0.0199037037336401,-0.000729969749711532,0.000318216471751307,0.0363636860651428,-0.0159362589704642,1.6828856643836,-6.68190837853558e-05,0
0.51,4.72551142803929,0.00910981432093716,3.72508581432662,-0.447063650876162,-0.567202740536748,4.69135612551152,-0.897976588638018,3.64276931444885,0.122247583682035,37.7939188955211,1465.7034344606
0.52,4.71316725239228,0.0466174975840623,4.3430451561334,-2.3128678789431,-2.45087214261248,4.02608301959487,-4.2584873156549,2.46509327127126,0.556718010872551,80.8820086902382,1465.7034344606
0.53,4.70565451335307,-0.020235096003608,4.71948458240023,1.04373997958456,-4.55593346678451,1.17773685701997,-4.29859071952896,2.21021394767025,1.31352788941962,126.309686310142,1465.7034344606
0.54,4.69859489944513,0.0425777733153869,5.07338861318036,-2.09451565542518,-3.14732316377219,-3.4889774717896,-1.7960781269311,-5.18655677816497,2.41669328462613,173.866529990663,1465.7034344606
0.55,4.67889764503019,0.0525040725395465,6.05926309629377,-2.57476594065601,3.00221155370411,-3.58908980621938,5.89584947057016,-2.92968393169764,-2.43377761650943,216.917187042604,1465.7034344606
0.56,4.68486767460908,0.00902556712727165,5.76184210770179,-0.397773373077377,2.92931622628335,3.65611447248198,3.28313784786704,4.75163698132736,-0.673551902831608,263.538021164099,1465.7034344606
0.57,4.67248604739263,0.0665423350109045,6.38207537554809,-3.25408586746017,-4.606629073414,0.784552308902597,-6.80670389106701,-2.23354943337157,1.41634580968864,307.258617096345,1465.7034344606
0.58,4.61579449102522,0.0253508195971412,9.21789651735083,-1.18602074936063,2.94027624352383,-3.55822667338696,6.82078264598274,-6.31293794669036,-2.44550848343671,352.055995304635,1465.7034344606
0.59,4.64082176621876,0.0338110454011105,7.96788495399234,-1.60291609945554,-1.35238935565756,4.4395284528095,-3.9072467676865,7.12670704872557,0.302979525952155,397.169868932418,1465.7034344606
0.6,4.66461919873319,0.0606980314965768,6.77943257900299,-2.93922536183956,1.03820837939278,-4.54801933606009,4.45140430372009,-5.89785991235383,-2.90414958180169,441.939251052264,1465.7034344606
0.61,4.66043074011524,0.0492589386669421,6.99027509221868,-2.35433236676351,-2.18813262156142,4.11510835299733,-5.41382477574253,5.00972335120808,0.499278590028526,486.458079236747,1465.7034344606
0.62,4.63588614439568,0.0660568064376998,8.21906070088244,-3.17897174930102,4.07485122990322,-2.21164900009763,8.75526528552117,-1.00207283557234,-2.05381268817556,530.7855376967,1465.7034344606
0.63,4.57741883207169,0.103634447412835,11.1441136999336,-5.07024955052561,-4.20094295123919,-1.82087385156932,-8.00081334778783,-9.26745307166499,2.00243389123825,575.666380085557,1465.7034344606
0.64,4.58948641097984,0.0729616966502271,10.5424589420031,-3.52265347109066,-0.393594204077804,4.57316001559786,-4.575287383585,10.1301171453649,0.101750799864725,620.132788488674,1465.7034344606
0.65,4.57665242898156,0.063133802943387,11.1859541307161,-3.00161771348332,4.56165683233009,0.375526665941422,10.8470156568163,4.05925240077082,-1.47486523124138,664.028120367338,1465.7034344606
0.66,4.46371685218501,0.0561791015463764,11.8404802191197,-2.66586026734953,1.74928882807394,-4.10705646709498,7.21584800076119,-9.75885856103615,-2.72635562136202,708.326619900509,1465.7034344606
0.67,4.26088183678713,0.0345718344647727,12.6248140852554,-1.59878572302752,-2.14866666847865,-3.67961149940719,-4.89040587528436,-11.7484457206221,2.62118042785985,750.750190209913,1465.7034344606
0.68,4.11709688078139,0.0902849169256636,10.7593559803214,-4.34882984324268,-3.79909173343164,-1.58919479389264,-8.06670417686748,-8.34292190060921,1.98891188629457,790.855625278102,1465.7034344606
0.69,3.92207800087196,0.113947322593379,11.7107123058996,-5.5337082273381,-3.91935154976817,-0.185373316795703,-11.2547877578545,-6.41034023921554,1.64710266521671,829.516418427469,1465.7034344606
0.7,3.71888075452592,0.093477519080033,13.4212590043266,-4.51270530235209,-3.71974750745125,0.0478601480029405,-13.364903332736,-4.67697138260601,1.58306116854562,866.628800688146,1465.7034344606
0.71,3.60874293813104,0.0904260329409513,10.8373969969517,-4.3568587818061,-3.54582388255638,-0.677004767218741,-9.66681016370487,-6.55623164424739,1.78450812930729,902.058302846511,1465.7034344606
0.72,3.43733313076004,0.0809905501773207,11.6482867164753,-3.88480898491475,-2.74656864819272,-2.06837597689672,-6.72778829673773,-10.271863945398,2.23982108586715,935.95418128405,1465.7034344606
0.73,3.2195686804799,0.0323559257341426,15.0653131466044,-1.50088866417168,-0.683817731858423,-3.1462775948497,-1.5817433849609,-15.0570387145555,2.93762864373903,968.464837064203,1465.7034344606
0.74,3.12048380180894,0.0627342137417017,12.7549941404578,-3.01103513236463,2.0236897567913,-2.37613857070326,10.7163110957511,-7.54432797474553,-2.41602764052828,999.393553831258,1465.7034344606
0.75,3.0082219818215,0.0610070761162345,11.4854253905531,-2.89734917806599,2.88709415413979,0.847235917783331,10.0808083937616,6.21988189517024,-1.26507637058351,1028.71602265375,1465.7034344606
0.76,2.87011808996323,0.0647541803009739,11.7906909774068,-3.12990910319795,-0.214857463582559,2.86279709803952,-4.26245952146544,11.4301427614379,0.0974688222148664,1057.13492009495,1465.7034344606
0.77,2.70998114828486,0.07284507536797,13.347553373348,-3.50865509383595,-2.70528764385901,-0.17527975652781,-12.9707704738188,-4.71454716143389,1.66237124946751,1083.9551537715,1465.7034344606
0.78,2.57297455012767,0.0532758538243977,14.1355103662623,-2.56659486301385,0.655571131237926,-2.4886266984208,6.35088962212667,-12.8866699931798,-2.86331442411117,1109.71574394249,1465.7034344606
0.79,2.43850932719354,0.0456305936474564,14.9219128075888,-2.14595698922697,1.97014562961692,1.43768427966221,10.5898867624728,10.7295345469829,-0.921681135546075,1134.11650449466,1465.7034344606
0.8,2.35082290640072,0.0913446219839846,13.6530234294709,-4.47064809362565,1.18215552337852,2.03401585435546,2.44745070743226,14.156331734507,-0.48763902747201,1157.66771913795,1465.7034344606
0.81,2.15644880988621,0.0465264914277727,17.9566762427455,-2.22884809078532,-2.11185633695302,-0.438747075358454,-16.9980474820002,-6.20293215328392,1.79720879941438,1179.95876043101,1465.7034344606
0.82,2.09919139170677,0.124550589335887,15.5690369000239,-6.10123857485671,1.81485856010469,-1.06226444689373,16.6435608729129,-1.61613848765118,-2.04108508494297,1201.16691467386,1465.7034344606
0.83,2.00232078951778,0.0632335535378643,15.3698964338298,-3.05605697235899,-1.0035722299689,1.73381942706367,-10.7109584888383,11.4389059291237,0.556271251030906,1221.55353929359,1465.7034344606
0.84,1.93161908874281,0.0811114433154357,14.0904834669151,-3.97146042159232,0.222474169940092,-1.92047822532352,6.12967668999034,-13.2944080683523,-2.98429682851549,1240.93606354704,1465.7034344606
0.85,1.81699630842751,0.0512396436080266,15.2268000184908,-2.49363774859512,0.238792282448072,1.80196540803632,-0.906248850757363,15.4029990925414,-0.103557325081021,1259.32044117597,1465.7034344606
0.86,1.7226633769825,0.0412580748580011,15.5188463984749,-2.00371123996626,-0.437660889799471,-1.66665061865937,-1.63144554160217,-15.5623853479282,2.9087372378108,1276.8477266391,1465.7034344606
0.87,1.68845893348749,0.0503612092128649,12.9721992024622,-2.46184802677893,0.445088183185762,1.62951720784271,0.650296954678584,13.1877125281852,-0.236819330903242,1293.50820040521,1465.7034344606
0.88,1.55683149636548,-0.00565341277954479,15.4676126470513,0.332814709378457,-0.183272464753209,-1.54601664700446,-2.20697944684894,-15.31296993895,3.01996702690315,1309.35251867774,1465.7034344606
0.89,1.47723991960249,-0.00211556570790628,15.5193982097612,0.152004547695946,-0.159925193876787,1.46855922183918,-1.50688882986769,15.446815601608,0.107039832765968,1324.44895025822,1465.7034344606
0.9,1.39069046095151,0.0575445281293331,16.0937441756304,-2.83455900414089,0.544536925313215,-1.28094139907709,9.46375996694892,-13.3221835157218,-2.69827673613162,1338.73611318567,1465.7034344606
0.91,1.32387390182872,0.0128454029065292,15.8158948220457,-0.593427821076617,-1.01368316678272,0.851618194791768,-12.5850084151736,9.59751263561808,0.881767178074964,1352.33591403344,1465.7034344606
0.92,1.30044046021141,0.0665945163388196,13.522280958139,-3.26851594746637,1.27499635621076,-0.264508056229947,13.8629091130238,1.16405744434355,-1.7241880365981,1365.22202785288,1465.7034344606
0.93,1.18934657422805,0.0875351174378987,15.7579138503063,-4.30393282770957,-1.09786220745536,-0.465731944206219,-12.0486381220945,-11.0302314618472,2.04547055448732,1377.47576798195,1465.7034344606
0.94,1.12385223484884,0.0991283805187156,15.8667705349632,-4.87356240166222,0.943167795549809,-0.619116136953892,16.28414366181,-3.21444908088528,-2.06369650378425,1389.08190944233,1465.7034344606
0.95,1.04864653528665,0.0484624681839244,16.5740035005146,-2.40361676776738,-1.01459218795746,-0.269464021581482,-15.0816200048003,-7.28146301454381,1.87657330908391,1400.18135566593,1465.7034344606
0.96,0.979116807640714,0.0240466634570783,17.1080357951717,-1.18307089382868,0.392089908572149,0.897504021508453,5.3664845876601,16.2875838809538,-0.38732442209384,1410.70986290475,1465.7034344606
0.97,0.921831702775516,-0.00484700707793312,17.1662482777355,0.289340156845795,0.497724371022764,-0.775930172251096,8.94797964924462,-14.6525580652637,-2.57650583024082,1420.54967017144,1465.7034344606
0.98,0.902648788638949,0.0665307389895508,15.4556890976672,-3.25607806761209,-0.903652779549817,0.0511158377975725,-15.397867616393,-3.51938101577109,1.5878638278871,1429.85896044437,1465.7034344606
