t,iq,id,vq,vd,ia,ib,va,vb,theta_e,omega,r
0,0,0,0,0,0,0,0,0,0,0,0
0.01,0.00123015376308808,0.000696243494510369,-0.0589779686246769,-0.0348543462257002,-0.001315223366384,-0.000517900358182268,0.0642020157542473,0.0239024560873091,2.46095344554358,-0.00451918363404692,0
0.02,0.00136508127844735,0.000772695432939297,-0.0658580268744659,-0.0386815908508087,-0.0014595672945356,-0.000574602855522604,0.0715068860542877,0.0268385994673038,2.4609200312233,-0.00472481478338795,0
0.03,0.00141734395892035,0.000802756958896863,-0.0684699662824592,-0.0401864709077138,-0.00151583922834677,-0.000596250003564296,0.0743210695634926,0.0279189424168633,2.46088666518271,-0.00461082790457535,0
0.04,0.00138503312189545,0.000785634286596223,-0.0670835017802983,-0.0393293058791106,-0.0014822157716257,-0.000581871452613922,0.0727832112080532,0.0273787267469443,2.46085637987552,-0.00419858584865038,0
0.05,0.00141511555425015,0.000803277501019803,-0.0686317106276866,-0.0402125274043089,-0.00151487666758257,-0.000594100544974727,0.0744447782601653,0.0280238122624247,2.46082718595144,-0.00403827445933656,0
0.06,0.00141501362753327,0.000804000988518812,-0.0687499874840178,-0.0402487493973201,-0.00151539102671481,-0.000593524381804423,0.0745481393093298,0.0280908798832937,2.46079973253653,-0.00377759237200273,0
0.07,0.00145149705820798,0.000825561828083315,-0.0705820406378513,-0.0413281030753225,-0.00155512377518644,-0.000608264815540541,0.0765407168637763,0.028833231285914,2.46077446558921,-0.00367929776571827,0
0.08,0.00141404077937549,0.000804911018645151,-0.0689256169831581,-0.0402943026126705,-0.0015155151373299,-0.000592120715899336,0.074695474116212,0.0281949932808075,2.46075030364895,-0.00330518727630696,0
0.09,0.0014112154206874,0.000804050316744621,-0.0688920395758533,-0.040251214545727,-0.00151308103084695,-0.000590433459023249,0.0746414837205007,0.0281943664112055,2.46072809772459,-0.00308371175939965,0
0.1,0.00141000777059861,0.000804009393884566,-0.068927786729853,-0.0402491792228506,-0.00151230124386673,-0.000589489581249939,0.0746629871479387,0.0282218809035823,2.46070742822629,-0.00288306720019888,0
0.11,0.00140894633976398,0.000804002774058904,-0.0689640605656606,-0.0402488376867165,-0.00151163928177044,-0.000588639899121076,0.0746860992993805,0.0282488434502871,2.46068817708993,-0.00269643581309496,0
0.12,0.00140796031149477,0.000803997910805438,-0.068997962219149,-0.040248602652753,-0.00151102534284789,-0.000587849719397208,0.0747077646169565,0.0282739935600142,2.46067024646336,-0.00252261705763223,0
0.13,0.00147462493272446,0.000842250084063693,-0.0722178272212959,-0.0421635329733685,-0.00158272389388,-0.000615539577979555,0.0782231097018847,0.029568956524169,2.46065260652525,-0.00261349565273354,0
0.14,0.00154145996426852,0.000881587316574469,-0.0758378740382377,-0.0441327651882343,-0.00165537296635608,-0.000642678271334221,0.082032582384678,0.0311406411157582,2.46063620242332,-0.00271674995693816,0
0.15,0.00141124972569958,0.000807197544203397,-0.069374889398021,-0.0404087786146974,-0.00151561129319336,-0.000588316302340754,0.0750709093415076,0.0284623126038349,2.46062071769448,-0.00206576735922252,0
0.16,0.00140477012598301,0.000804114081487673,-0.0691294282056619,-0.0402544308088251,-0.00150914415456503,-0.000585202942271568,0.074796836169032,0.0283677694379948,2.46060736457906,-0.00191407739058619,0
0.17,0.00140383384508789,0.000803983237914943,-0.0691408164425693,-0.0402478819087085,-0.00150846029373522,-0.000584539180625827,0.0747992691710106,0.028379813740846,2.46059497488708,-0.00179298455796028,0
0.18,0.0014031883783626,0.000803974862610101,-0.0691620847865176,-0.0402474493651067,-0.00150805415951644,-0.000584025561808701,0.0748126506151555,0.0283957472229373,2.46058343714493,-0.00168109460592316,0
0.19,0.0014025968941091,0.00080397176034208,-0.0691823446609744,-0.0402473063005688,-0.001507685635181,-0.000583551766564804,0.0748255999363343,0.0284107738615003,2.46057269089969,-0.00157691929703265,0
0.2,0.00140204662088754,0.000803969064919187,-0.0692012400007099,-0.040247171914773,-0.00150734293332896,-0.000583110852096279,0.0748376762764274,0.0284247897849361,2.46056268177029,-0.00147989140266509,0
0.21,0.00140153418264506,0.000803966561994194,-0.0692188381149532,-0.0402470403896118,-0.00150702379325687,-0.000582700252690004,0.0748489188681131,0.0284378472177795,2.46055335919286,-0.00138951897348253,0
0.22,0.00140105701823516,0.000803964230699441,-0.069235229704033,-0.0402469059044482,-0.0015067266153227,-0.000582317919412015,0.0748593815795245,0.0284500168116448,2.46054467607466,-0.00130534541953877,0
0.23,0.00140061241551361,0.000803962058993273,-0.0692504830196978,-0.0402468076725396,-0.00150644970953842,-0.00058196168552851,0.0748691390486658,0.0284613236586668,2.46053658855356,-0.00122694554123437,0
0.24,0.00140019819718315,0.000803960035961014,-0.0692646787018384,-0.0402467064621963,-0.0015061917215648,-0.000581629803833188,0.0748782126897229,0.0284718520843959,2.46052905577595,-0.00115392330762649,0
0.25,0.00139981238418817,0.000803958151441904,-0.0692778949480319,-0.0402466051863782,-0.0015059514206485,-0.000581320685029548,0.0748866550486411,0.0284816581870611,2.46052203969065,-0.00108590985263998,0
0.26,0.00141392038906438,0.000812114247097677,-0.0699713150701959,-0.0406549252513469,-0.001521174408968,-0.000587136129404286,0.0756406579864436,0.0287628013104269,2.460515617857,-0.00107965046125028,0
0.27,0.00136724708703987,0.000785622601088176,-0.067801377192762,-0.0393287260456164,-0.00147120994937757,-0.000567546256451412,0.0732442634098025,0.027911526636173,2.460509123248,-0.000837355787461914,0
0.28,0.00136256140308593,0.000782869574629922,-0.0672330253235182,-0.0391909163765931,-0.00146612409996765,-0.000565631038358748,0.0727795030308942,0.0275563342838995,2.46050342457161,-0.00076518368320227,0
0.29,0.00139690735408972,0.000803078864057281,-0.0692464546091163,-0.0402026073627989,-0.00150345288633669,-0.000579581949659722,0.0748333490232698,0.0284831702705522,2.46049846610881,-0.000851158943325288,0
0.3,0.00138874339640162,0.000798778664605813,-0.0688774496032148,-0.0399873172290905,-0.00149497375616819,-0.000575941875927527,0.0744338507781183,0.0283317924135438,2.46049497697967,-0.000786466716181135,0
0.31,0.00139764632460278,0.000803735491246785,-0.0693174589175165,-0.0402354521284098,-0.00150443298676685,-0.00057973043467903,0.0749038036632597,0.0285170460520544,2.46049037766079,-0.000777332457371019,0
0.32,0.00139781308530859,0.000803939605356669,-0.0693447912493443,-0.0402456969258252,-0.00150469908694296,-0.000579724907412105,0.0749290968131987,0.0285315026807004,2.46048601812459,-0.000736645927613838,0
0.33,0.00139760779867625,0.000803947012722118,-0.0693532691398386,-0.0402460562284028,-0.00150457793742503,-0.000579554646603178,0.0749348300505986,0.0285375581928543,2.46048195425843,-0.000697321004682225,0
0.34,0.00139740038119597,0.000803946347079918,-0.0693603961855241,-0.0402460385371559,-0.0015044490117334,-0.000579388233781263,0.0749394119385176,0.0285428224823031,2.4604781689938,-0.000660630001754673,0
0.35,0.00139720673528927,0.000803945413813757,-0.0693670081009022,-0.0402459729283808,-0.00150432839794493,-0.000579233079741056,0.0749436248716869,0.0285477361784514,2.46047464336336,-0.000626452908028545,0
0.36,0.00139702609330414,0.000803944531539143,-0.0693731470342363,-0.0402459405801212,-0.00150421587076322,-0.000579088360536074,0.0749475589544847,0.0285522795828364,2.4604713595648,-0.000594619982123973,0
0.37,0.00139685790775808,0.000803943709197195,-0.0693788626031955,-0.0402459081792817,-0.00150411110221052,-0.000578953620103625,0.0749512200162958,0.0285565109801088,2.46046830101029,-0.000564970551320157,0
0.38,0.00139670151474597,0.000803942943198043,-0.0693841932899149,-0.0402458395199189,-0.00150401368057965,-0.00057882832156078,0.0749546045964306,0.0285604819102915,2.46046545225013,-0.000537354849503306,0
0.39,0.00139655568094065,0.000803942229703995,-0.0693891443818421,-0.0402458070276632,-0.00150392283478363,-0.000578711487431688,0.0749577726951444,0.02856414980242,2.46046279889367,-0.000511633378315152,0
0.4,0.00139641985885265,0.000803941565118859,-0.0693937506887023,-0.0402457744923003,-0.00150383822517817,-0.000578602674394764,0.0749607184791355,0.0285675634981818,2.4604603275374,-0.00048767620771327,0
0.41,0.00139629334999006,0.000803940946092537,-0.0693980352909589,-0.0402457419167696,-0.0015037594166762,-0.000578501323065271,0.0749634568366738,0.0285707399934363,2.46045802569831,-0.000465362319872633,0
0.42,0.00139617507201783,0.000803940369502976,-0.0694019980346987,-0.0402457396806752,-0.0015036857321585,-0.000578406577023045,0.074966011600385,0.0285736591703608,2.46045588174818,-0.000444578997888866,0
0.43,0.00139606532696116,0.000803939832442961,-0.0694057043953408,-0.0402457070293017,-0.00150361736589438,-0.000578318656375916,0.074968377107404,0.028576409340291,2.46045388485681,-0.000425221256392294,0
0.44,0.00139596326531539,0.000803939332203778,-0.0694091587288419,-0.0402456743441222,-0.00150355378677468,-0.000578236887659174,0.0749705799885622,0.0285789740025304,2.46045202493753,-0.000407191311219109,0
0.45,0.00139586818858858,0.000803938866261914,-0.0694123697164904,-0.0402456416283303,-0.00150349455851075,-0.000578160715656648,0.0749726259791642,0.0285813591965654,2.46045029259508,-0.000390398085475419,0
0.46,0.00139577913086784,0.000803938432266644,-0.069415329716364,-0.0402456421622002,-0.00150343907617449,-0.000578089378273924,0.0749745363693477,0.0285835373752228,2.46044867907838,-0.000374756749453932,0
0.47,0.00139569674340479,0.000803938028028923,-0.0694181091741291,-0.0402456064775716,-0.00150338775290665,-0.00057802337052413,0.0749763017822572,0.0285856063975344,2.46044717623708,-0.000360188292133339,0
0.48,0.00139561994388277,0.000803937651508794,-0.0694206892220638,-0.0402455736785147,-0.00150333991003739,-0.000577961841444228,0.0749779409310278,0.0285875264148969,2.46044577647967,-0.000346619122059118,0
0.49,0.00139554799921426,0.000803937300806524,-0.0694230661150048,-0.0402455741286018,-0.00150329508859996,-0.000577904212071734,0.0749794752462369,0.0285892748692243,2.46044447273511,-0.000333980695598203,0
0.5,0.0013954814442402,0.000803936974152334,-0.0694252970054393,-0.0402455412819376,-0.00150325362783821,-0.000577850889087463,0.0749808892069616,0.0285909375694984,2.46044325841799,-0.000322209170699382,0
0.51,4.6752204702791,-0.0160514932031531,6.24007539855157,0.810490206975014,-0.797499042587843,4.60672762090643,-0.244227791857574,6.28774905199749,0.167983932641356,51.5704318367316,5611.74507666648
0.52,4.66911985650026,-0.00491012761925147,6.54636632435673,0.261251123579834,-3.21523951983467,3.38569626130454,-4.3133193648733,4.9313730601986,0.758529166330029,109.623997473269,5611.74507666648
0.53,4.68481616086884,0.0666300766435917,5.76281774125168,-3.3104630793623,-4.59609242108845,-0.909877181307848,-4.94761466597467,-4.43738022212863,1.7804584520528,169.716595867938,5611.74507666648
0.54,4.68016796519203,0.0538076236129821,5.99668796822896,-2.66761027835746,0.501999566236201,-4.65347868570033,3.36042532635215,-5.6377258545899,-3.02263558774402,234.675974324548,5611.74507666648
0.55,4.68259524189297,0.00930995885274166,5.87674296901976,-0.428533945345634,4.12845607524287,2.20966859721606,4.97278289502129,3.16088271614439,-1.07737624934358,294.952368579252,5611.74507666648
0.56,4.56520332151185,0.0436195761679874,11.7479028845672,-2.13206067317269,-4.38477570827654,1.27150541574777,-11.88803396857,1.11065442935145,1.29811014063214,354.207142650701,5611.74507666648
0.57,4.62371136887747,0.0691090678031876,8.82412084062,-3.40910261810159,3.82225496154916,-2.60266207849813,9.24360031260333,-2.01070697304479,-2.15365845200882,416.646781145127,5611.74507666648
0.58,4.61827376000654,0.0930653645189479,9.09781086596982,-4.60091941134008,-4.10510428236069,2.117836753714,-10.194286584473,-0.123056963386446,1.11465601096081,476.679276638855,5611.74507666648
0.59,4.65183577955668,0.059498696465717,7.42152129478428,-2.90258807053432,4.62541183829083,0.498679798110866,7.01996669918852,3.77148026356084,-1.45060843436484,536.354287587236,5611.74507666648
0.6,4.56533474659139,-0.0482105706702614,11.7484717492968,2.48698733911046,-1.87142089144201,-4.16441946189783,-7.1861208466955,-9.62140123088155,2.7086918811475,597.72997116486,5611.74507666648
0.61,4.57031112294753,0.0590348211274512,11.5016445713453,-2.88152544349071,-3.87831398512425,2.41865861655446,-11.3302471613941,3.49521329660481,1.02609432816451,658.468422803279,5611.74507666648
0.62,4.49540349166653,0.0651403623861586,15.2491336206294,-3.18459391379887,1.02146848572079,4.37829852252889,0.137625476120299,15.5775085878306,-0.214713375702616,718.622735931567,5611.74507666648
0.63,4.47583513141648,0.0704412508253403,16.2296058674399,-3.4439766569305,3.83740582564065,2.30485978375672,11.9601662046033,11.4985001710739,-1.01417713921725,778.764594627158,5611.74507666648
0.64,4.48477534477537,0.041921390584936,15.7847578844979,-2.00609654586346,4.4052242676554,0.842001453534105,15.0806908795704,5.0750140313487,-1.37258998527267,838.680187149328,5611.74507666648
0.65,4.5263005650871,0.014928812481511,13.7107271154953,-0.636699322460925,4.35481118440408,1.23419577990651,13.0031618927085,4.3939964559401,-1.29133038164797,898.19883066,5611.74507666648
0.66,4.4856480805705,0.0781512944368679,15.745640874582,-3.78021126688908,3.18345384194743,3.16113396801498,8.26807041604948,13.9231539303733,-0.771495330330607,957.579826234123,5611.74507666648
0.67,4.4396680409282,0.0674640755940084,18.0470403698765,-3.27359522508316,-0.759034432258265,4.37482233305324,-6.5714308407088,17.1239127688569,0.186985059323785,1018.08480169192,5611.74507666648
0.68,4.44765837341629,0.058412389588594,17.6499584507449,-2.79535668579298,-4.44804103102652,-0.00282845930247989,-17.6097990896198,-3.03809616981679,1.58456475098595,1077.55809336255,5611.74507666648
0.69,4.4221345320201,0.0728197224205644,18.9287300788867,-3.49825671015076,1.13346238269725,-4.27502509446065,8.51786862325659,-17.2621127480504,-2.86595438815049,1136.94801905451,5611.74507666648
0.7,4.51372185012712,0.112625991122768,14.3519571129089,-5.48799916022246,2.62602577217675,3.67292229676247,3.51081562802637,14.9589766153766,-0.595755084303931,1196.43248360298,5611.74507666648
0.71,4.37347722367482,-0.0203157975619808,21.366877761071,1.14282906348867,-3.74380201593965,-2.26089854329628,-18.9277132717591,-9.97953875822828,2.1094365770902,1256.26972427263,5611.74507666648
0.72,4.41101151468386,0.0681584408986156,19.4929077367946,-3.23167053010728,3.82384620143542,2.19997008695738,15.0892442280276,12.7566396467599,-1.03326408141972,1314.98859584886,5611.74507666648
0.73,4.48243685594007,0.139670026733306,15.9244006061755,-6.80522058763188,-2.64584745866276,-3.62094450514578,-3.37311889992806,-16.9858656181909,2.54170351918611,1374.13466459973,5611.74507666648
0.74,4.4421767675512,0.0647630100112138,17.940304576227,-3.05767819193954,-1.11127010776292,4.30141923430278,-7.68927839734753,16.4948150017313,0.267399660826175,1433.35049194281,5611.74507666648
0.75,4.46268305644525,0.131547085385895,16.9178565579205,-6.39605959423648,4.46224727834508,-0.14558133417093,16.9378881581437,6.34282221015341,-1.5739412784508,1492.52781424594,5611.74507666648
0.76,4.3511267476724,0.0989495509511208,22.4986537800656,-4.75666118107686,0.592475048398961,-4.31173611263123,8.2651577261333,-21.4593200094729,-2.98230074752754,1551.44905973015,5611.74507666648
0.77,4.36642185084078,0.153667626572084,21.7368599635371,-7.47776422756125,-3.28817342356228,-2.87700696132888,-10.7265799126795,-20.3309744551096,2.32477990144806,1610.38153779657,5611.74507666648
0.78,4.36446365090112,0.0413033213742238,21.8377760973607,-1.86526312176104,-4.27705561527562,-0.870082862854414,-20.9681986797035,-6.37983663743362,1.78095136850939,1669.59715261404,5611.74507666648
0.79,4.39106418942046,0.0405898561030189,20.5108481162067,-1.85586510862732,-4.3737718937104,-0.39142262813759,-20.2289250304414,-3.86389930773301,1.66929517850286,1728.71016475527,5611.74507666648
0.8,4.42227721822773,0.119037690192039,18.9533926534693,-5.73123613323434,-4.09054802572464,-1.68467285126296,-15.0003923290929,-12.9254164600127,1.98838348973401,1786.9802340934,5611.74507666648
0.81,4.42489581890629,0.0297169102539425,18.8256500963894,-1.3059424848492,-1.76726316264735,-4.05676805066288,-6.20180408265109,-17.8226881655331,2.73746585124143,1846.04014812522,5611.74507666648
0.82,4.34361323107636,0.0878194899820715,22.8930026723908,-4.16196871157654,2.97875259749791,-3.16254978251755,19.0013297906649,-13.4298555874821,-2.36589828742896,1904.4032253481,5611.74507666648
0.83,4.29438289879232,0.0917453974558319,25.3578225599548,-4.40460940328808,-0.41809394127582,-4.27496656778304,2.46323294922098,-25.6193722096299,3.06546297515454,1963.33904808994,5611.74507666648
0.84,4.22154880827621,0.145099150642056,29.0028352736107,-7.00135057185235,3.9575503871135,1.47659169631728,24.1374335758851,17.5376071374605,-1.17932832891285,2021.48148677971,5611.74507666648
0.85,4.28213524619767,0.128441743373872,25.976939163713,-6.17242488214003,-4.07573729453461,1.31967611712457,-26.6670035886764,1.33083313846096,1.28764654261944,2079.87857104458,5611.74507666648
0.86,4.31994380354674,0.04012186753462,24.0899077053128,-1.76580482086891,3.70835491165338,-2.21621932111255,21.6841458353865,-10.6414068292488,-2.10018307600486,2138.48698963898,5611.74507666648
0.87,4.28549317869426,0.0635742690494125,25.8158308817376,-2.94910697097676,-4.00796106031292,1.51846686211308,-25.2781432376538,6.01413588950212,1.22347718012843,2197.01964055025,5611.74507666648
0.88,4.3310352679191,0.0814901286381755,23.5422399635187,-3.83787356345085,4.20394095309029,1.04469497747184,21.7410187675573,9.81297299179266,-1.30841324689168,2255.29749499324,5611.74507666648
0.89,4.31911168782406,0.230116208904011,24.1419266796096,-11.2605765920991,-1.37916918739907,-4.099459914919,4.37894333454473,-26.2765687307727,2.87028861702344,2313.50686540931,5611.74507666648
0.9,4.18979330180158,0.133692792866715,30.611424058711,-6.40961736963915,-3.84470287723841,1.67047941036116,-30.8160455352733,5.3398328902104,1.19281465295289,2371.5604293646,5611.74507666648
0.91,4.24010683820356,0.105948227195854,28.0993848152726,-4.99021739414207,0.353941872158753,4.22663650878086,-3.33699319005469,28.3432915005844,-0.0585639014834239,2429.67044450988,5611.74507666648
0.92,4.20881174658915,0.0952777749106767,29.6678902243436,-4.54346682931927,3.3151150949335,2.59483835333972,20.0617052951472,22.3238612664451,-0.884041430935708,2487.98107973991,5611.74507666648
0.93,4.20800585921506,0.191618273589142,29.7118933196472,-9.3007898727629,4.09059553009039,1.00551433762335,25.8717791423293,17.3191322215035,-1.28425873693903,2545.74909115672,5611.74507666648
0.94,4.18239490880435,0.172783522853046,30.9961544428477,-8.41591767595889,4.03454716788037,1.11566593078331,26.9325337443235,17.4993681795732,-1.25972132432801,2603.90382796375,5611.74507666648
0.95,4.2417068619046,0.216418158376082,28.0343728409176,-10.5253422961892,3.22175304164268,2.76752981199293,13.0508379053364,26.9515216825351,-0.810115323650766,2661.6419390157,5611.74507666648
0.96,4.14473589992472,0.0857156339198091,32.8867687567823,-4.04870533072277,2.74384340666846,-3.10765284575113,25.2506278682404,-21.4554740422285,-2.39761065405024,2719.73384276117,5611.74507666648
0.97,4.24004497814896,0.10956330713184,28.1250847020237,-5.12979655568709,3.82752358794066,1.8275800170591,22.7295703967146,17.3407563785304,-1.09948910893913,2777.40313346144,5611.74507666648
0.98,4.14153803924754,0.231441357670952,33.0543188767531,-11.248078861844,-2.22801888038603,3.49883327713944,-28.418359682565,20.285564015839,0.622856871549297,2835.16450736508,5611.74507666648
0.99,4.2286904449334,0.0505947306317259,28.700662319127,-2.20831107151378,-1.58859512308063,-3.91927904604446,-8.40587198152113,-27.5308185780119,2.76846534322643,2892.96075768302,5611.74507666648
