t,iq,id,vq,vd,ia,ib,va,vb,theta_e,omega,r
0,0,0,0,0,0,0,0,0,0,0,0
0.01,0.000841925315720858,0.000356196522632875,-0.038976277791411,-0.0178209446171522,-0.00075392933568651,0.000517015238439561,0.0346369913111287,-0.0252391586712719,1.36992887418239,-0.0152299621762511,0
0.02,0.000897854662096875,0.000425476494121415,-0.043954654995897,-0.0212871143672142,-0.000794868276755873,0.000596118833711947,0.0388215579191007,-0.0296317325619866,1.36985643005868,-0.00502983326558073,0
0.03,0.000824575082866846,0.000452070361367456,-0.0412738247496914,-0.0226176364983437,-0.000717747791413323,0.000607560521127784,0.0359287351468883,-0.0304008565830669,1.36984416237923,-0.000230869027333631,0
0.04,0.00075134970065483,0.000443862765403422,-0.037896594464955,-0.0222070122344807,-0.000647640225128361,0.000584895431663953,0.0327017295511438,-0.0293240540987681,1.36985449431916,0.000736364242721542,0
0.05,0.000785222872819399,0.00045501121520292,-0.0392514917540917,-0.022764773805736,-0.000678607852788026,0.00060257908036507,0.0339180981665035,-0.0301409546649619,1.36985642157672,-0.000847581996509628,0
0.06,0.000796905002263574,0.000456791294498509,-0.0398248149446344,-0.0228538380682953,-0.000689697966261047,0.00060665689207138,0.0344620254621665,-0.0303427520319306,1.36985365571372,-0.000812515159042261,0
0.07,0.000810764731059671,0.00046511821988103,-0.0403997850180108,-0.0232704430983323,-0.000701616895767172,0.000617582495841321,0.0349422785461274,-0.0308657305356451,1.36985377109625,-0.00134653625658625,0
0.08,0.000798548630883827,0.000458405256650528,-0.0399635501430097,-0.0229345825842391,-0.000690985002503874,0.000608568008957086,0.0345817838044209,-0.0304496411678435,1.36985137995186,-0.000487872369841324,0
0.09,0.000791373956450438,0.000457333213448506,-0.0396354947624406,-0.022880951993236,-0.000684169225711993,0.000606084876613671,0.03427106170867,-0.0303315798886368,1.36985229885112,-0.000377272337571986,0
0.1,0.0007912168427238,0.000457162123444346,-0.0396088858169704,-0.0228723824456137,-0.000684049814158333,0.000605885427347375,0.0342467182324751,-0.0303178496055653,1.36985294618095,-0.000481134939441974,0
0.11,0.000792308583817919,0.000457134789052343,-0.0396531062132685,-0.0228710141229821,-0.000685125070010755,0.00060607651810332,0.0342903232780001,-0.0303253334501806,1.36985298942604,-0.000528986178965756,0
0.12,0.000792652125147293,0.000457130395241168,-0.0396702020308733,-0.0228707962763066,-0.000685462521267296,0.000606140843114657,0.0343071158568313,-0.0303285352938215,1.36985289941031,-0.00052648510540124,0
0.13,0.000835696845979193,0.000475715836110948,-0.0415759695411039,-0.0238006450382937,-0.000723929368120414,0.000632946320851214,0.0359888339181683,-0.0316201799604644,1.36984939392029,-0.00153024725901407,0
0.14,0.000847161569776471,0.000487389266773425,-0.0425162466630805,-0.0243846846636927,-0.000732832493882701,0.000646674229099732,0.0367935720088035,-0.0323801966531494,1.3698479716092,-0.00171479129827034,0
0.15,0.000797359239123318,0.000461962156506724,-0.0400168188036335,-0.0231125343939191,-0.000689107561090203,0.000611818240581279,0.0345983600429281,-0.0306347599241914,1.36984804328978,0.000121711269522428,0
0.16,0.00078525590293779,0.000457901478580291,-0.0393814582203725,-0.0229093850525424,-0.00067806082057268,0.000605420614770396,0.034016460011059,-0.0303087383994224,1.36985224449012,-0.000140960284802604,0
0.17,0.000789619645102702,0.000457253051719716,-0.039526088466864,-0.0228769438634721,-0.000682466916284792,0.00060565538503,0.0341646919924639,-0.0303057758700035,1.36985345936074,-0.000508812404521028,0
0.18,0.000792812546701955,0.000457149347845736,-0.0396690223803097,-0.022871742000426,-0.000685616082704384,0.000606191263200747,0.0343057787162268,-0.0303292180152546,1.36985314783742,-0.000574532760184957,0
0.19,0.000793052419385247,0.000457132706793439,-0.0396877722298187,-0.0228709133800183,-0.000685854278405355,0.000606223028518515,0.0343243080821943,-0.0303321581507297,1.36985286428718,-0.000535390784640332,0
0.2,0.000792616269207237,0.000457130045805485,-0.0396705574481203,-0.022870781028338,-0.000685427415024076,0.000606133391031658,0.0343074650887201,-0.0303285936415959,1.36985283091698,-0.000513545903023553,0
0.21,0.000792450843006627,0.000457129631786553,-0.0396625265444855,-0.0228707598257212,-0.000685265421394351,0.000606099943145061,0.0342996010772439,-0.0303269687380682,1.3698528661334,-0.000513375967059785,0
0.22,0.00079247179775878,0.000457129569299708,-0.0396628873789062,-0.0228707554718827,-0.00068528597641793,0.000606104053687231,0.0342999559923574,-0.0303270359581808,1.36985288170198,-0.000516789952236464,0
0.23,0.000792504161218178,0.000457129558628781,-0.039664238050662,-0.0228707554458776,-0.000685317690181636,0.000606110503492869,0.0343012794604739,-0.0303273055542229,1.36985288066104,-0.000517813363172973,0
0.24,0.0007925102148149,0.000457129556143891,-0.0396645426606468,-0.0228707555061595,-0.00068532362078708,0.000606111711219603,0.034301577845167,-0.0303273665067171,1.36985287788752,-0.000517570774442303,0
0.25,0.000792506838770575,0.00045712955562807,-0.0396643879413973,-0.0228707555973813,-0.000685320312384628,0.000606111037318974,0.0343014262012745,-0.030327335737241,1.36985287724167,-0.00051733770260458,0
0.26,0.000801428451382963,0.000460796387688264,-0.0400279282329929,-0.0230542074944139,-0.000693330711104661,0.000611484585767909,0.0346210446041437,-0.0305796467006898,1.36985316792116,-0.000897757346399631,0
0.27,0.000785873068780682,0.00045180752295231,-0.0394463210341766,-0.0226044979714604,-0.00067988112310735,0.000599573328687457,0.0341408331668539,-0.0300229759075634,1.36985096838744,5.23816417380108e-05,0
0.28,0.000783374275666633,0.000451599781560017,-0.0389018303759884,-0.0225941054958621,-0.0006774747980621,0.000598870200019999,0.0336094090118627,-0.0299040738969399,1.36985217711033,-5.96954288539477e-05,0
0.29,0.000789039947578796,0.000456246423413089,-0.0394966729394702,-0.0228265792966011,-0.000682099893236888,0.000604553201462544,0.0341459254744635,-0.0302505482456745,1.36985361484554,-0.000513643647721713,0
0.3,0.000776365930118803,0.000451007748659298,-0.0388272418765752,-0.0225644705457131,-0.000670729202565304,0.000596887245320315,0.0335424146854706,-0.0298599474182115,1.36985815065676,-0.000811820833753623,0
0.31,0.000797749161430181,0.000456151951111906,-0.0398335754241952,-0.0228218587108978,-0.000690653249678472,0.000606198330395525,0.034477017590901,-0.0303131361645728,1.36985448242352,-0.00098394565649252,0
0.32,0.000796594752546057,0.000456973238371122,-0.0398463215618118,-0.0228629408577656,-0.000689356949192715,0.000606774041114991,0.0344812477086297,-0.0303560037410908,1.36985251001085,-0.000606846326576388,0
0.33,0.000792867375384587,0.000457104488487002,-0.0396904530615761,-0.0228695080906077,-0.000685678378764103,0.000606158683217224,0.0343272048928173,-0.030331328173789,1.36985251591732,-0.000469488291842689,0
0.34,0.000791962480463298,0.000457125546488208,-0.039642909035009,-0.0228705573083849,-0.000684787679067827,0.000605998490353417,0.0342804176343364,-0.0303228559863611,1.36985283037321,-0.000489186984959027,0
0.35,0.00079228943311551,0.000457128929055596,-0.0396537206969416,-0.0228707250996537,-0.000685107432925174,0.000606067000385841,0.0342909810163243,-0.0303251752283985,1.36985292121822,-0.00051671521700762,0
0.36,0.000792528259184015,0.000457129460374271,-0.039664381800556,-0.0228707520418374,-0.000685341333309517,0.000606115205224923,0.0343014215193939,-0.0303273303198344,1.36985289787436,-0.000521626801048297,0
0.37,0.000792546187149267,0.000457129539662762,-0.0396657533578303,-0.0228707564282658,-0.00068535887185442,0.000606118875772374,0.03430276396015,-0.0303276091002822,1.3698528766556,-0.000518695682382647,0
0.38,0.000792513590859226,0.000457129552130647,-0.0396644362910984,-0.0228707566153032,-0.000685326927444139,0.000606112383677917,0.0343014732815566,-0.030327346490613,1.36985287416229,-0.000517061403918721,0
0.39,0.000792501134419817,0.000457129554950291,-0.0396638004732301,-0.0228707567363191,-0.000685314722678756,0.000606109898405799,0.0343008503129263,-0.0303272196134483,1.36985287679735,-0.000517049133652612,0
0.4,0.000792502764234319,0.000457129555673338,-0.0396637996536898,-0.0228707568111192,-0.000685316320259979,0.000606110223618165,0.0343008495302224,-0.0303272194832701,1.36985287796053,-0.000517304673045793,0
0.41,0.000792505092540751,0.000457129555736848,-0.0396638651511513,-0.0228707568836255,-0.000685318601656969,0.000606110688450657,0.0343009136929052,-0.0303272326299398,1.36985287788095,-0.000517381204850658,0
0.42,0.000792505674617359,0.000457129555688268,-0.0396638635080475,-0.0228707569618611,-0.00068531917190437,0.000606110804725321,0.0343009120609045,-0.0303272323858218,1.3698528776718,-0.000517363026094949,0
0.43,0.000792505441786716,0.000457129555671408,-0.0396638220140659,-0.0228707570427708,-0.000685318943731803,0.00060611075827131,0.0343008713841781,-0.0303272241848644,1.36985287762207,-0.00051734558572129,0
0.44,0.000792505208956072,0.000457129555674675,-0.0396637775694246,-0.0228707571236805,-0.000685318715595857,0.000606110711791071,0.0343008278181966,-0.0303272153926734,1.36985287763939,-0.000517343377570931,0
0.45,0.000792505208956072,0.000457129555678388,-0.0396637437608512,-0.0228707572038264,-0.000685318715602168,0.000606110711786735,0.0343007946742516,-0.030327208722823,1.36985287765102,-0.000517345498285194,0
0.46,0.000792505208956072,0.000457129555678743,-0.0396637101299634,-0.0228707572839722,-0.000685318715601664,0.000606110711787572,0.0343007617040424,-0.0303272020888611,1.36985287765031,-0.000517346467390392,0
0.47,0.000792505208956072,0.000457129555677769,-0.0396636766994642,-0.022870757364118,-0.000685318715599752,0.000606110711789,0.0343007289301061,-0.0303271954949903,1.36985287764683,-0.000517346414009814,0
0.48,0.000792505208956072,0.000457129555677042,-0.0396636432987348,-0.0228707574442638,-0.000685318715598569,0.000606110711789789,0.0343006961853795,-0.0303271889070173,1.36985287764464,-0.000517346244773358,0
0.49,0.000792505208956072,0.00045712955567681,-0.0396636098709008,-0.0228707575244096,-0.00068531871559774,0.000606110711790552,0.0343006634141163,-0.0303271823136087,1.3698528776432,-0.000517346203844348,0
0.5,0.000792505208956072,0.000457129555676283,-0.0396635764159726,-0.0228707576045554,-0.00068531871559697,0.000606110711791025,0.0343006306163041,-0.0303271757147923,1.36985287764175,-0.000517346218729337,0
0.51,2.77905770632093,0.0171131980853785,5.82693595691164,-0.821068231213423,-1.64587839847611,2.23931661317469,-4.13832810775585,4.18348851543967,0.639984025642715,190.307771883766,936.609543882735
0.52,2.13175349499498,0.0310391934272679,5.74082019852062,-1.50938952062624,-0.896605846343839,-1.93427876772041,-0.959703056224861,-5.85783606125942,2.72209960434223,367.444994184297,936.609543882735
0.53,1.59040393818865,-0.00899033695509988,9.03149937696886,0.505036753667894,0.559941920952794,1.4886002008344,3.69913891572428,8.2546601626547,-0.365434227997558,498.103284293996,936.609543882735
0.54,1.18736964428141,0.00216118296469836,10.9092605904442,-0.0901858057416638,0.600792791285308,-1.02415788080373,5.61475110685156,-9.35385856841365,-2.60924840264786,599.336051734254,936.609543882735
0.55,0.85748608605175,0.0655788315482028,13.6164319848836,-3.22586772573841,-0.783334554627254,-0.354922451313661,-10.3865715133223,-9.37723705478133,2.07254783633712,674.606422742204,936.609543882735
0.56,0.690277893610896,0.0516929107724098,11.4883082089288,-2.53634471652649,-0.53471568675745,0.439584874361628,-10.854355212246,4.53841855174022,0.957477327635658,732.31936094281,936.609543882735
0.57,0.480242548559221,0.00501274021059286,14.0053445681754,-0.205326031287947,-0.0961559991532067,0.470544425998144,-3.14784593118105,13.6485494191138,0.21201278833663,776.306020168969,936.609543882735
0.58,0.353829327649458,0.0526302671678543,14.2550845075747,-2.5909193150039,0.138898184510613,0.3296550203875,1.03240126721112,14.4517972874801,-0.251107834403678,810.024933971099,936.609543882735
0.59,0.273457866452047,-0.0463786396324346,13.6926919785576,2.30220408398175,0.0904556047602637,0.262198334293175,8.58724782852153,10.9109638435617,-0.500205963620918,835.17876848083,936.609543882735
0.6,0.219386891859065,-0.0321761496201156,12.8670041440623,1.60960989286026,0.0945353445132203,0.200571636982211,8.45767521051634,9.82946436403975,-0.586075070069015,854.881386161854,936.609543882735
0.61,0.0889907939746099,0.0108560998877817,16.6877870462959,-0.514860982457675,0.0554329046517165,0.0704585651207762,8.21409811792213,14.5353331727528,-0.545214574415488,869.822259085083,936.609543882735
0.62,0.0625853958233021,0.00479596191066141,15.990646913724,-0.270178967502903,0.0293061725716048,0.0555074884156294,6.11573756696998,14.7773996158263,-0.409289574564051,881.090621067619,936.609543882735
0.63,0.0176589333966807,0.00589114839362667,16.7406184438523,-0.298195998881394,0.00929280321575105,0.0161303244386919,3.0446146159871,16.4641291472253,-0.200669236964616,889.648678186527,936.609543882735
0.64,-0.000969213112798006,-0.0428271739192751,16.4403860798945,2.17297797724352,-0.042677966761183,-0.00370099352893473,1.1191188435621,16.5455643832285,0.0638757272647492,896.693722543191,936.609543882735
0.65,0.015634764980943,0.0308873150652532,14.7073898479458,-1.56961619408257,0.0230413675092589,0.0258373274789172,-6.8337192795269,13.1175947469347,0.373952766994201,901.762641279081,936.609543882735
0.66,-0.0445263281153772,0.00654595881558263,17.0118055176371,-0.305711150204652,0.034224802517406,-0.0292250982016843,-11.4227892603769,12.6101099039733,0.718065733079745,906.071100447054,936.609543882735
0.67,0.0161614653302624,-0.00211131492638395,13.4388408647719,0.0729121246493579,-0.015293512992535,0.00563551884805734,-11.8679334875827,6.30554634436197,1.08784136189941,909.154735086332,936.609543882735
0.68,0.0348747603939199,-0.027732150243443,12.1314981897705,1.40276225124961,-0.0372897919343622,-0.0243883678656485,-11.9498006537785,2.51858186225694,1.47819151360878,911.585427781603,936.609543882735
0.69,-0.0749815680961654,-0.0381956130535022,17.2965756604998,1.87313765208976,0.0831114054674849,-0.0131770517154664,-17.0297711968171,-3.55908235745236,1.88469758430075,913.411770075878,936.609543882735
0.7,0.0301341319632715,0.0386758819160651,11.7819672947704,-1.9308562618488,-0.048274820387773,0.0085692162823407,-7.46199578749097,-9.31995590689286,2.30401887820065,915.265393906437,936.609543882735
0.71,-0.0596054870497085,-0.00080320259780535,16.1205253021982,0.0349570590891077,0.0581553042042311,-0.0130927389708735,-15.7659519811346,3.36263529740443,1.36282879806936,916.104760033597,936.609543882735
0.72,-0.0223976585679807,0.00856480907219073,14.126610118776,-0.436181400320913,0.0198835017492271,0.0134036346548017,-13.6628034745303,-3.61651335933579,1.79869284743128,917.152661911815,936.609543882735
0.73,-0.0725810109965045,0.0278022825189893,16.5555557394312,-1.36506868005709,0.0396361489330229,0.0668576530271564,-12.1306815161659,-11.3488503512927,2.24064066242887,917.822581539035,936.609543882735
0.74,-0.034766444185517,-0.0250295793825132,14.5374951079619,1.23619081701066,0.0377012262023143,0.020342149055892,-7.4617998774155,-12.5374827752416,2.68957064662765,918.802720070792,936.609543882735
0.75,-0.0530069595859178,0.0810604367776107,15.3504968950943,-4.02811246965267,-0.0812002931804033,0.0527924669108832,4.06868200570636,-15.3397937316938,-3.13894885246609,919.523179596118,936.609543882735
0.76,-0.0168773645187305,0.00705936138534578,13.5116056008257,-0.374886070611674,-0.0138377551353511,0.0119664760510804,6.35382319135437,-11.9303376453146,-2.67996273897366,919.936088226837,936.609543882735
0.77,-0.0323068225569841,0.0450726476354924,14.2223010493736,-2.22734803006688,-0.0529387750609212,-0.0165154607459465,12.6939608100498,-6.78957180822,-2.2172940712001,920.575213556178,936.609543882735
0.78,-0.0358459338738949,-0.00101593698056007,14.3871489658548,0.0231503155055938,-0.0350785002537015,0.00744727622632464,14.1483137522044,-2.6107104917989,-1.75165919197984,920.787210310795,936.609543882735
0.79,-0.0828912167033057,-0.0118326578078786,16.7688360938694,0.615052766366008,-0.0828742470025414,-0.0119509322278427,16.2652959641864,4.12459707679347,-1.2857867104003,920.800938783863,936.609543882735
0.8,-0.0614135829709219,-0.015640563304497,15.6546511564959,0.74962855679255,-0.055498986641225,-0.0305960434632554,11.9327772134109,10.1606532161982,-0.817588450694544,921.082103944302,936.609543882735
0.81,-0.0731180746504613,-0.0318423722046847,16.2847817774522,1.61359149347567,-0.0548896878927065,-0.0578559562297036,7.07574682223021,14.7557311562239,-0.348370642189511,921.255129012435,936.609543882735
0.82,-0.037844665189283,0.00896669410055525,14.5274335103649,-0.483297405031891,0.013499259161827,-0.0364745156028657,-2.24514202880381,14.3610319284612,0.121824753016131,921.244119536151,936.609543882735
0.83,-0.053956874987566,-0.012373951425924,15.4010472961902,0.636450813158209,0.0198150361679986,-0.051689683438534,-8.05940687643107,13.1393792949741,0.591499938509569,921.229795814013,936.609543882735
0.84,-0.0548411663947166,-0.00227455434862766,15.441099762985,0.0763457768484536,0.0467673943186178,-0.0287321763475162,-13.4429510582267,7.59739806869552,1.06133392884899,921.309470555897,936.609543882735
0.85,-0.049618248607498,0.0101820468828791,15.196363068053,-0.49651087397889,0.0499654450062749,0.00831257955905072,-15.2042911245555,0.0741953086669368,1.53325508504144,921.639314764466,936.609543882735
0.86,-0.0795351265738432,0.0162990239722409,16.643923997015,-0.855006765168251,0.0651752132896321,0.0484116320135554,-14.7199763341197,-7.81495612974572,2.00753828425658,921.892042092139,936.609543882735
0.87,-0.0819685472549254,0.0565102349661089,16.8083153526158,-2.82104846171685,0.00542660489058872,0.0994122796960678,-8.04860130067374,-15.0232418778081,2.48347427080267,922.113049781151,936.609543882735
0.88,-0.0673095246966894,0.0143012050594607,16.1023947873999,-0.754078830461512,0.0670402545980861,0.0155145365535286,-16.0861490615051,-1.04477803521697,1.58885811320078,921.905219629347,936.609543882735
0.89,-0.00289393676424629,0.0320084847008735,12.848569566289,-1.59592595874378,-0.0126570274190365,0.0295417944572646,-10.5485903376471,-7.50732718442844,2.06574750994313,922.656119670722,936.609543882735
0.9,-0.0530749109566479,0.00608337959540104,15.2633150758882,-0.340779291610806,0.0246664028827518,0.0473869417580795,-8.26092049712729,-12.8390852544708,2.54753423395171,923.184576048776,936.609543882735
0.91,-0.0406878330238189,0.0270348311025809,14.6601863148585,-1.35347038023848,-0.0224583619001085,0.0433820680659993,-0.245909466449092,-14.7204780286123,3.03282705176904,923.233276963462,936.609543882735
0.92,-0.0443874819030725,-0.00510848624737728,14.8063290044774,0.24146338410202,-0.0115797913694683,0.043153836599714,5.22266900885582,-13.8567460674802,-2.76484671632011,923.643998478333,936.609543882735
0.93,-0.020909819240107,-0.0159091867653933,13.7007755632563,0.792124155464236,-0.00556356300409303,0.0256781917371454,9.90215467530146,-9.50189688950561,-2.27781816140699,923.534929612373,936.609543882735
0.94,-0.0457047781828892,-0.00546150862184316,14.9111446260713,0.282578254657786,-0.0434150967705422,0.0152932729517924,14.4909535275066,-3.52623742723928,-1.79054903112709,923.727225516347,936.609543882735
0.95,-0.0183691095180622,0.025751447691647,13.5575550271836,-1.29644372149036,-0.0108669056044408,-0.0297064236367552,12.7258097658343,4.85199241981071,-1.30187376369662,924.019601279353,936.609543882735
0.96,-0.0680483661946619,0.0104531769952835,16.0211392056923,-0.497843983702891,-0.0421626116696262,-0.054425758867046,11.2781206058745,11.3898527505683,-0.811533325874409,924.142225409482,936.609543882735
