t,iq,id,vq,vd,ia,ib,va,vb,theta_e,omega,r
0,0,0,0,0,0,0,0,0,0,0,0
0.01,0.000370974198256143,0.000205949937889329,-0.0174246711251073,-0.0103006210840686,-0.000175977327324964,-0.000386094823788106,0.00889084362199092,0.0181844674990776,-3.06245332871411,-0.00358756738182941,0
0.02,0.000501216926298101,0.000273353084595879,-0.0236581462957216,-0.0136717918408913,-0.000232888728610628,-0.000521251528680658,0.0117594116522733,0.0246645903246498,-3.06248360995468,-0.00452232854786167,0
0.03,0.000559182141951779,0.000303143722940604,-0.0264726442212499,-0.0151617852797734,-0.000258024968328857,-0.000581381028547511,0.0130232533582325,0.0275875967946125,-3.06251725819862,-0.00467180776118225,0
0.04,0.000561859564882827,0.000304388821567009,-0.026721133279389,-0.015224047370937,-0.000259073482188317,-0.000584140099780945,0.0130665881643842,0.027839807036504,-3.06254944829099,-0.00427389348949997,0
0.05,0.000574838108563729,0.00031266689944892,-0.0274381331500524,-0.0156380782321189,-0.000266318840106077,-0.000597723779410423,0.0134235685851165,0.0285868579594636,-3.06257943579964,-0.00401066382833947,0
0.06,0.000577051472684618,0.000315206175202074,-0.0276476969898936,-0.0157650822957006,-0.000268692105996325,-0.000600123226669546,0.0135344328510682,0.0288054178243453,-3.06260712258104,-0.00366750053947906,0
0.07,0.000581236908063057,0.000319214198634513,-0.0279373589437891,-0.0159655419575535,-0.00027237237702818,-0.000604605107600486,0.0137121338686752,0.029109653716938,-3.06263191343155,-0.0033828157004908,0
0.08,0.000575446386411535,0.000317212615556908,-0.0277579587436602,-0.0158654343003507,-0.00027084752180143,-0.000598668528516885,0.0136271529014004,0.0289226033225805,-3.062654868338,-0.00302014361767873,0
0.09,0.000571859622904881,0.000316596601306787,-0.0276711712083713,-0.0158346234249442,-0.000270528469424024,-0.000595038808397416,0.0136038731506343,0.0288333773664175,-3.0626753818691,-0.00271231898348023,0
0.1,0.000569187576034235,0.000316406107364003,-0.0276185707509759,-0.0158250964772799,-0.000270560119874611,-0.000592355081874381,0.0135990521988157,0.0287799393351648,-3.06269378236581,-0.00244179126514348,0
0.11,0.000566973944266462,0.000316346384191258,-0.0275799594992171,-0.0158221125412219,-0.000270684808669014,-0.000590139155304722,0.0135995958232134,0.028740988234415,-3.06271031107173,-0.0022006949969327,0
0.12,0.000565048209618618,0.000316326930460846,-0.0275482085187246,-0.015821133389206,-0.000270825902580938,-0.000588213852794378,0.0136015481968695,0.0287090567758402,-3.06272516646445,-0.00198465973269129,0
0.13,0.000581432477213692,0.000326461023102803,-0.0283605431185242,-0.0163279924351469,-0.000279646039381626,-0.000605341736395525,0.0140432410986683,0.0295586048788599,-3.06273902984242,-0.00196939867482327,0
0.14,0.00059026437941283,0.000332262477634898,-0.0289064423682488,-0.0166181630361585,-0.000284741720336873,-0.000614599499143379,0.0142898986495109,0.0301254800737173,-3.06275198050171,-0.00188879225684058,0
0.15,0.000569888981496105,0.000321210219035392,-0.027921980345584,-0.0160653711879048,-0.000275335593132568,-0.000593413656059388,0.0138167050937401,0.0291003745367127,-3.06276386624464,-0.00152290031693053,0
0.16,0.000562195932526033,0.000317816444119941,-0.0276038598391176,-0.0158956363004851,-0.000272563941663792,-0.000585474556583423,0.0136728323452807,0.0287697408238725,-3.06277373621443,-0.00131363205512064,0
0.17,0.000558906392028454,0.000316773907704709,-0.0274847357036802,-0.0158434901684885,-0.000271788654913856,-0.000582110806215528,0.0136304738476619,0.0286467635189099,-3.06278233139382,-0.00116634042927742,0
0.18,0.000557186727210496,0.000316453270290436,-0.0274345885610126,-0.0158274580388903,-0.000271608829514965,-0.000580369162677141,0.0136186577589282,0.0285954058955291,-3.0627899639246,-0.00104786039060905,0
0.19,0.000556063241004888,0.000316354315159534,-0.0274089453112056,-0.0158225091411388,-0.000271602579628227,-0.00057923951821005,0.0136159380051136,0.0285693596504189,-3.06279679359502,-0.000946098977774402,0
0.2,0.000555197386837822,0.000316323468962356,-0.0273925235926167,-0.0158209625337678,-0.000271643529264229,-0.000578372257613381,0.0136158638280612,0.0285527836906079,-3.06280292281893,-0.000856233662426467,0
0.21,0.000554468054899991,0.000316313579150261,-0.0273800161599669,-0.0158204733870907,-0.000271694255517713,-0.000577642913726208,0.0136165178014913,0.0285402015773078,-3.06280842959298,-0.000775993633273218,0
0.22,0.000553829236359087,0.00031631016511365,-0.027369545760135,-0.0158203040424924,-0.000271743984814738,-0.000577004462996017,0.0136173142433213,0.0285296829269388,-3.06281337923582,-0.000704042103967331,0
0.23,0.000553260616410627,0.000316308777068003,-0.0273603919528262,-0.0158202348715055,-0.000271789915132711,-0.000576436288026245,0.0136180925763236,0.0285204914716516,-3.06281782883316,-0.000639417790365994,0
0.24,0.000552751368320773,0.000316308045133565,-0.0273522498971318,-0.0158201946144414,-0.000271831563813782,-0.000575927474176444,0.0136188072283233,0.0285123170182943,-3.06282182914817,-0.000581338550425125,0
0.25,0.000552294123412012,0.000316307545343705,-0.0273449538001472,-0.0158201775462634,-0.00027186911556768,-0.000575470630004043,0.0136194668562575,0.0285049932201147,-3.06282542562966,-0.00052912921656718,0
0.26,0.000554628859016688,0.000317919011479184,-0.0274648859973095,-0.0159007660632665,-0.00027329364412372,-0.000577924089475108,0.0136904562007762,0.028630852821014,-3.06282848723341,-0.000512602497597547,0
0.27,0.000548816121197163,0.00031461049661214,-0.027208356456567,-0.0157352957602476,-0.000270454625172442,-0.000571868162417939,0.0135457764124215,0.0283620544938966,-3.06283176829973,-0.000409670738393833,0
0.28,0.000547872874586542,0.000314306739903945,-0.0270900591872083,-0.0157201057644336,-0.000270227531724638,-0.000570903226961257,0.0135400156482839,0.0282428930574694,-3.0628344087627,-0.000365112894739484,0
0.29,0.000549755924990239,0.000315692289421919,-0.0272704786698373,-0.0157894043446766,-0.000271461885464191,-0.000572888857809744,0.0135949666889038,0.0284281757622493,-3.06283659358098,-0.000355542480537199,0
0.3,0.000540949054147673,0.000311193423124984,-0.0268664419916443,-0.0155643845697992,-0.000267670399636031,-0.000563755073536545,0.0134024595656939,0.0280076748395316,-3.0628375831343,-0.000252201705070086,0
0.31,0.00054720353137237,0.000314736305294345,-0.0271621753269886,-0.0157415925915891,-0.000270711139960953,-0.000570268467756871,0.0135558966926896,0.0283164116842295,-3.06283916548122,-0.00029539799240381,0
0.32,0.000549190866312974,0.00031582383927939,-0.0272607597726675,-0.0157959818370447,-0.000271639929395575,-0.00057233473934118,0.01360240988042,0.0284189463390954,-3.06284086734779,-0.000293278040299569,0
0.33,0.000549736567479234,0.000316157587151727,-0.0272922862286833,-0.0158126707372721,-0.00027193064353814,-0.000572904563293386,0.0136166131023762,0.0284516658748474,-3.06284249274229,-0.000277392774208601,0
0.34,0.000549803549436686,0.000316259932944864,-0.0273011342040825,-0.0158177846523693,-0.00027202825870485,-0.000572978982708332,0.0136210576256019,0.0284608683862261,-3.06284398660522,-0.000258339461642949,0
0.35,0.000549719092803323,0.000316291249114189,-0.0273024283776737,-0.0158193593428823,-0.00027206689760421,-0.000572896882943818,0.0136225641699316,0.028462263978351,-3.06284534078527,-0.000239580729508353,0
0.36,0.000549593981635786,0.000316300769424373,-0.0273013264545422,-0.0158198298949703,-0.000272086929917175,-0.000572772576121599,0.0136231547067648,0.0284611858487807,-3.06284656206713,-0.000222159573823365,0
0.37,0.000549464469842513,0.000316303607775828,-0.0272995481414355,-0.0158199774790692,-0.000272100576992242,-0.000572643389826345,0.0136234730095612,0.0284594096797978,-3.06284766136987,-0.000206307131214308,0
0.38,0.000549342442936957,0.000316304403246096,-0.0272976896386674,-0.0158200100884529,-0.000272111535177379,-0.000572521534571603,0.0136236798528232,0.0284575460304563,-3.06284865015271,-0.000191990034691739,0
0.39,0.000549230626043318,0.000316304579195529,-0.027295917891127,-0.0158200237445552,-0.000272121015340709,-0.000572409836056245,0.0136238581377966,0.0284557687339251,-3.06284953928076,-0.000179095967080478,0
0.4,0.000549129461136546,0.00031630457183216,-0.027294292653445,-0.0158200286252476,-0.00027212942333309,-0.000572308766494485,0.0136240135946205,0.0284541380247083,-3.06285033871406,-0.000167495851081601,0
0.41,0.00054903845883692,0.00031630451438031,-0.02729282666255,-0.0158200160076678,-0.000272136935674375,-0.000572217846052659,0.0136241367829792,0.0284526657913374,-3.06285105747184,-0.000157064047923624,0
0.42,0.00054895638603534,0.000316304447117027,-0.0272914928991509,-0.0158200164431425,-0.000272143694209039,-0.000572135846401225,0.0136242605169201,0.0284513273907,-3.0628517036859,-0.000147684327140776,0
0.43,0.000548882520513917,0.000316304381846655,-0.0272902867484066,-0.0158200168431129,-0.000272149771735513,-0.00057206204649969,0.0136243723201965,0.0284501170930332,-3.06285228467467,-0.000139251073016265,0
0.44,0.000548816163780725,0.000316304321688681,-0.0272892017325428,-0.0158200172105607,-0.000272155230099926,-0.000571995748476494,0.0136244728930424,0.0284490283512216,-3.06285280702084,-0.000131668949075087,0
0.45,0.000548756651825426,0.00031630426714733,-0.0272882303328325,-0.0158200044656539,-0.000272160125442678,-0.00057193628880959,0.0136245499562898,0.0284480525604055,-3.06285327664218,-0.000124852111716146,0
0.46,0.000548702984362267,0.000316304217969311,-0.0272873456112067,-0.0158200047794228,-0.000272164539254579,-0.000571882668845261,0.0136246318705075,0.0284471648520472,-3.0628536988618,-0.000118723337756017,0
0.47,0.000548654730209018,0.000316304173709714,-0.0272865467063995,-0.0158200036144248,-0.000272168507758132,-0.000571834457401464,0.0136247043473517,0.0284463631589029,-3.0628540784633,-0.000113213183573154,0
0.48,0.000548611365501802,0.00031630413390274,-0.0272858261205993,-0.0158200038833195,-0.000272172074166588,-0.000571791131030879,0.0136247710027823,0.0284456401768982,-3.06285441974856,-0.000108259209841066,0
0.49,0.000548572366369138,0.000316304098107775,-0.0272851744097407,-0.0158200041331994,-0.000272175281467938,-0.000571752166398569,0.0136248312414089,0.0284449863242636,-3.06285472658521,-0.000103805277945495,0
0.5,0.000548537325357401,0.000316304065923253,-0.0272845862893839,-0.0158200043658243,-0.000272178163306905,-0.000571717156335816,0.0136248855796897,0.0284443962856992,-3.06285500245086,-9.98009151676006e-05,0
0.51,4.72064375311442,-0.0243622455014888,3.96829185830444,1.22611457770808,-0.788700080462225,4.65435528788929,0.567130080729344,4.11449397883695,0.162698902899904,50.617411002722,2930.06328242697
0.52,4.72788305555616,-0.0117255303745323,3.60684730700349,0.602832751860122,-3.21517198671628,3.46636477753171,-2.00324824968922,3.05937105838286,0.745340722878665,108.478614510717,2930.06328242697
0.53,4.76142664373026,0.0143481782913268,1.93020549205185,-0.691624821936671,-4.68042172945944,-0.874666786981531,-1.76718375439662,-1.03975945009541,1.75855652470797,168.660969633678,2930.06328242697
0.54,4.69877772334046,0.0376537871288884,5.06327142939399,-1.8525675220748,0.389345881349253,-4.68277051388621,2.30486296586944,-4.8740466452556,-3.05062575430139,233.560650031274,2930.06328242697
0.55,4.71462836662584,0.0387281841993969,4.27144068115808,-1.89516586833497,4.25748005527132,2.02560709087703,3.01368399232465,3.57135379870998,-1.11850069708816,292.635549186238,2930.06328242697
0.56,4.68023856445502,0.0032205272599907,5.9917404001198,-0.111186242650979,-4.43028790528884,1.50903693402754,-5.70885200372144,1.82272439018858,1.24319184585674,353.335728916631,2930.06328242697
0.57,4.69827289762692,0.0122741121646848,5.09082937025283,-0.554274234199422,3.72810043266332,-2.85922822425575,4.38382528044735,-2.64685464546826,-2.22243852013687,413.710632744025,2930.06328242697
0.58,4.71499876547903,0.018449091718971,4.25537212979495,-0.859700348357403,-4.03846306772776,2.43359194978388,-4.09416086852671,1.44399564910219,1.03237752415831,475.55460748852,2930.06328242697
0.59,4.68469322465048,0.0434207143149106,5.77153061810559,-2.09161441120697,4.68459936587363,0.0525808784076304,5.72746028355722,2.20943776132607,-1.55030422831319,534.798598780062,2930.06328242697
0.6,4.66740387689772,0.0374330072765066,6.63696178793175,-1.78385731868926,-2.45685259056855,-3.96861884392168,-1.92389911212268,-6.59772846624359,2.59528894749684,594.835859913529,2930.06328242697
0.61,4.65305123654405,0.024803623255659,7.3556021837546,-1.14495113019144,-3.62867167289657,2.91277237695443,-6.47258166536574,3.677156939995,0.899735468491946,655.376432985741,2930.06328242697
0.62,4.69005709474941,0.0359079882789829,5.50638061389727,-1.69095284593882,1.65990627705931,4.38664291765476,0.323228311087769,5.75109315271485,-0.354092229489857,715.709899633777,2930.06328242697
0.63,4.6470108384784,0.0623127836525418,7.65982265957351,-3.00254224577985,4.29701510045815,1.77038240004155,5.86161375784687,5.77318172826984,-1.166577278517,775.888805006846,2930.06328242697
0.64,4.65337682982415,0.0495519248248923,7.34269461900606,-2.35667386567006,4.6524694215555,0.104401125899535,7.26072158411044,2.59826828005607,-1.53771196164557,836.470662804518,2930.06328242697
0.65,4.68316975916498,0.051087842190757,5.85427262345976,-2.43896245663832,4.66329624896468,0.434001215630829,5.57033004876676,3.03190846868564,-1.46708778076746,897.207191730114,2930.06328242697
0.66,4.66439725595752,0.083977651609096,6.79414870821394,-4.06560690763468,3.85982572926107,2.62019070815239,3.20806301771569,7.23864268154582,-0.956413666445995,956.571580489302,2930.06328242697
0.67,4.64953094429619,0.091520764430177,7.53872574633436,-4.44601037043214,0.122210723284642,4.64882550666337,-4.39614972767025,7.5679099931447,-0.0066011337752895,1016.92895074416,2930.06328242697
0.68,4.65240101202143,0.0772283017276916,7.39659673252059,-3.71313385033175,-4.55730910781647,0.939006433981597,-7.95705868671557,-2.27644970736849,1.38419413225005,1076.59478159656,2930.06328242697
0.69,4.60998474795621,0.0531846431089784,9.51883559117699,-2.51765412531715,0.275255345725785,-4.60206719608709,3.18915554476171,-9.31536903283492,-3.07031625815132,1136.93428827146,2930.06328242697
0.7,4.63356123348578,0.112370154218434,8.34144464242367,-5.44677208553931,3.41128161661434,3.13778177829026,2.2170517271215,9.71245110740313,-0.802888977150936,1196.08753846013,2930.06328242697
0.71,4.67055557704728,0.079343086461882,6.49322410883458,-3.78923457847877,-4.44076259495307,-1.44914191814413,-4.9012187641729,-5.70072913266446,1.90321452351518,1255.83850755405,2930.06328242697
0.72,4.58437220199504,0.0718443235898641,10.8039582749043,-3.41508485582735,4.35422840560655,1.4360797627799,9.0856826492123,6.77042759182735,-1.2365474049742,1315.67464284672,2930.06328242697
0.73,4.66577120333733,0.0773692949598574,6.73560496577777,-3.68204963317359,-3.39302298221153,-3.203560826936,-2.24840181789496,-7.33965619231927,2.34406192723978,1375.3451048021,2930.06328242697
0.74,4.615117700446,0.110577077857738,9.26988088450519,-5.33471146755747,-0.250789933881499,4.60962504854584,-6.04352117778963,8.8241537740801,0.0783072966182857,1434.86768860186,2930.06328242697
0.75,4.63321128240268,0.114182833150157,8.36690341862936,-5.49958828928497,4.53771469739054,-0.942777721340285,9.21713979570534,3.91086667565348,-1.7510074023494,1494.19959765807,2930.06328242697
0.76,4.58145319963551,0.103982019883433,10.9565274077046,-4.98111259996251,-0.117399112990866,-4.58112902341535,4.94900324609477,-10.9710684274336,3.13866398496978,1553.81048536778,2930.06328242697
0.77,4.56782798332636,0.0875596096433067,11.639586198975,-4.18088136793099,-3.79393234955768,-2.54534801107432,-7.14432547907004,-10.0954618193123,2.18089017279343,1613.53806062639,2930.06328242697
0.78,4.58703065545074,0.113016670588249,10.6812186580245,-5.42244161980408,-4.57935191913372,-0.288373026828079,-10.166353229618,-6.33534270196574,1.6583190618205,1672.46582114821,2930.06328242697
0.79,4.55925341785575,0.107698552965679,12.0719380683953,-5.17836134507554,-4.55922986346157,0.108691115830246,-12.0730651296997,-5.17573311921825,1.57057862329531,1732.17773722938,2930.06328242697
0.8,4.56475372379942,0.104272595805783,11.7988002190991,-4.9676712522944,-4.32882851474326,-1.45227167676108,-9.41026107682856,-8.67965614221039,1.91732418189753,1790.95690382554,2930.06328242697
0.81,4.59283509960284,0.104937957789446,10.3967244868658,-5.01420864792822,-2.06690332553037,-4.10281084989795,0.0641379456665083,-11.5425324233757,2.69777191688075,1850.41927120106,2930.06328242697
0.82,4.5535945590754,0.127707726836905,12.3608076528781,-6.16009399913807,-2.80132167927922,3.59223183009326,-12.6210657401002,5.60758624487711,0.690357250421473,1909.5124274234,2930.06328242697
0.83,4.5307519506036,0.184339033930049,13.5049975479517,-8.95881088462807,-3.39417739758442,-3.00686779075098,-3.52802047273363,-15.8176585745389,2.3364246873041,1968.28286952971,2930.06328242697
0.84,4.52367521091057,0.198439212712745,13.8609023966364,-9.6465439952013,4.26692948959363,-1.51536407037554,16.0792569597349,5.16119384670365,-1.86820554537596,2027.17101047222,2930.06328242697
0.85,4.52570262529133,0.196550318379278,13.7616899142264,-9.54455404815927,-2.55412977013719,3.7412614714188,-15.886925000895,5.2998335152618,0.642417771007981,2086.07430814474,2930.06328242697
0.86,4.51462303617532,0.145123777238289,14.317871249713,-6.9871487267686,1.8035144183508,-4.1412821459405,12.4486859634273,-9.94242939312679,-2.69873076054269,2145.04661732381,2930.06328242697
0.87,4.39854501989328,0.157441316869458,14.7654238122227,-7.62542527276315,-2.62293088868639,3.53443342184577,-15.1747469761479,6.774356438433,0.674209666611479,2203.73435139765,2930.06328242697
0.88,4.09424247346239,0.174718531277861,13.9522753045907,-8.48812700193376,3.92728438872531,-1.17037828361166,15.6040631215034,4.81949170309329,-1.81778004109886,2258.73451243602,2930.06328242697
0.89,3.83245448335191,0.165360372032933,12.2685793422246,-8.006983081249,-2.80972539733807,-2.61160766792343,-2.91881804768282,-14.3565427016531,2.36278728119933,2309.71921798628,2930.06328242697
0.9,3.49994618698021,0.129421645671213,15.207985837381,-6.27249320571511,-1.93294978673948,2.92062979442266,-13.9554240646585,8.71051912467178,0.621605472985952,2357.50748957709,2930.06328242697
0.91,3.24244205959053,0.129876525182639,15.2552968328837,-6.27241134431294,2.38153527876575,2.20422052834769,6.330745925066,15.2311812268096,-0.784011572900769,2401.33318172961,2930.06328242697
0.92,3.03513334061713,0.0756257304417834,13.8355007805552,-3.60910690433485,2.86969890195927,-0.99125267138318,14.278782323806,-0.75040645321563,-1.87847393404277,2442.45145766969,2930.06328242697
0.93,2.80998089387194,0.129484747532345,14.0418133714559,-6.27137174859306,1.12553745995186,-2.57796903589123,11.8307603212924,-9.82526012826032,-2.68389139573936,2480.21190239181,2930.06328242697
0.94,2.60956214605432,0.094770446782264,13.8229750182361,-4.57531570420036,-0.301168058926278,-2.59385694131066,3.46606578204793,-14.1419425872968,3.06230268523048,2515.58518309029,2930.06328242697
0.95,2.40427092850946,0.119964373141886,14.6329901471534,-5.87187530997284,1.14639088138689,2.11676595200604,1.02244068834048,15.7339739208308,-0.446498090018928,2548.37792774323,2930.06328242697
0.96,2.22355370667225,0.122181443287865,14.8124003894163,-5.94486098522707,1.17943735743644,1.88892745001579,1.93616631863035,15.8429743866692,-0.503270809622493,2578.65031114064,2930.06328242697
0.97,2.10910086447306,0.130759074149788,12.3327757291238,-6.38794791239632,0.837482981924657,1.94010995744574,-1.83256353739137,13.767532335091,-0.345586450647789,2606.77623327955,2930.06328242697
0.98,1.9228355159457,0.107645383225809,14.0435871141077,-5.26106734086453,0.0866193439682608,1.92389735671176,-5.41427141310645,13.9852362747957,0.0109317857839158,2632.93778813586,2930.06328242697
