t,iq,id,vq,vd,ia,ib,va,vb,theta_e,omega,r
0,0,0,0,0,0,0,0,0,0,0,0
0.01,0.000596137788633687,0.000312662807549376,-0.0264236104506489,-0.0156456892290093,0.000634657831001791,0.000224383002497566,-0.0294410638160035,-0.00873032313722623,-0.747922938075907,-0.00878563232709182,0
0.02,0.000685593479811949,0.000360137148731387,-0.0314792849257876,-0.0180213086451302,0.000730317482885766,0.000257630665194245,-0.0346217491350227,-0.0108188461285627,-0.74798380247744,-0.00777320114228303,0
0.03,0.000707230205067217,0.000378549820521514,-0.0331372143851922,-0.018942690930767,0.000758544424496422,0.000260930806233531,-0.0364254011306408,-0.0114057296733118,-0.748032990753107,-0.0060314198238366,0
0.04,0.000676430402960601,0.000370333231969516,-0.0323723597604284,-0.0185315225511985,0.000731579604350985,0.000243918173263258,-0.0356041216321985,-0.0111235573142676,-0.748066366585328,-0.00402037592383334,0
0.05,0.000683826978037,0.000379635412424742,-0.0330555487339096,-0.0189970071271034,0.000743435392546378,0.000242994237313423,-0.0364103205134756,-0.0113068183850749,-0.748090729852188,-0.00309712503934337,0
0.06,0.00067827424049032,0.000380632265457918,-0.0330950702762511,-0.0190468946074648,0.000740393051716334,0.000238233070312502,-0.0364739696462469,-0.0113012127235322,-0.748108250068896,-0.00223498273047027,0
0.07,0.000687255013505223,0.000388828340845859,-0.0336432563256025,-0.0194570266686337,0.000752512505393272,0.000239231815316752,-0.0371476222014451,-0.0114236048492943,-0.748119608842622,-0.0019054022732392,0
0.08,0.000670976994117995,0.000381616779804871,-0.0331080235733695,-0.0190961509965398,0.00073615546487151,0.000232199536614677,-0.0365191162895369,-0.0112764512701787,-0.748128762630406,-0.00121107586133135,0
0.09,0.000666337573156198,0.000380840306838965,-0.0330027034010645,-0.0190572949949963,0.000732431588204053,0.000229323067557053,-0.0364190539663253,-0.0112254813929218,-0.748134435159038,-0.000880133125459237,0
0.1,0.000664192394943109,0.000380756094336599,-0.0329717577559242,-0.0190530923560943,0.000730911418060409,0.000227805267330776,-0.03639496443585,-0.0112055210302073,-0.748138210579697,-0.000677056794135489,0
0.11,0.000662890943242439,0.000380746546474316,-0.0329570859228596,-0.0190526111234639,0.000730019654662214,0.000226855987560017,-0.0363846594618232,-0.0111950015183496,-0.74814076838035,-0.000542244000936413,0
0.12,0.000662029535071386,0.000380745183697125,-0.0329480837227224,-0.0190525468711319,0.000729433053127325,0.00022622427195317,-0.0363785078455406,-0.0111883837174163,-0.748142508512056,-0.000450965934252015,0
0.13,0.000692992240597601,0.000397456420231158,-0.0342788326633783,-0.0198887793720025,0.000762745560719619,0.000237548018543543,-0.0378967407411365,-0.0115947813636639,-0.748145379430848,-0.000890776816371681,0
0.14,0.000712217491469815,0.000409405432166359,-0.0355326561144828,-0.0204867046411666,0.000784582766926641,0.000243508613573759,-0.0391879723018228,-0.0121069213459103,-0.748147809030082,-0.00113576322084543,0
0.15,0.000666747011268983,0.000383825178057164,-0.0332568374814469,-0.0192066569129541,0.000734901409258819,0.000227581332749714,-0.036701584666697,-0.0113095796558745,-0.748149825374436,-0.000219194775232164,0
0.16,0.000660113637606891,0.000381074925576014,-0.032969556243533,-0.0190690414882327,0.000728372869522869,0.00022459090898874,-0.0364052784217249,-0.011192662114623,-0.748149074442442,-0.00013087267939717,0
0.17,0.000659426578283495,0.000380779382678187,-0.0329278993382039,-0.0190542581090545,0.000727688666857908,0.00022428899782651,-0.0363660950070142,-0.0111722173651507,-0.748148228507904,-0.000155087168195337,0
0.18,0.000659561791772457,0.000380747728200118,-0.0329237606492557,-0.019052667189632,0.000727757307980296,0.000224410094195687,-0.0363621064397595,-0.0111702890558822,-0.748147599631519,-0.000184863837763866,0
0.19,0.000659748870885356,0.000380744409482991,-0.0329247428783903,-0.0190524976279571,0.000727882044065017,0.000224549789389316,-0.0363626454744397,-0.0111711402091118,-0.748147162965885,-0.000207237957826807,0
0.2,0.000659891246788783,0.000380744110603635,-0.032925995134005,-0.0190524781414369,0.00072797861363372,0.000224654564698193,-0.0363634797409062,-0.0111720821706233,-0.748146864212632,-0.000222807919994339,0
0.21,0.00065999042554795,0.000380744117967677,-0.0329269173054251,-0.0190524920477643,0.000728046042743936,0.000224727401148245,-0.036364114993867,-0.0111727560244214,-0.748146660502051,-0.000233465702470477,0
0.22,0.000660058412098261,0.000380744145667417,-0.0329275457162061,-0.0190524932740669,0.000728092281842188,0.000224777314165655,-0.0363645418381287,-0.0111732208317115,-0.748146521705825,-0.000240733745092602,0
0.23,0.000660104861811479,0.000380744166974439,-0.0329279626063827,-0.0190524931430584,0.000728123875080008,0.000224811413879909,-0.0363648242882826,-0.0111735299192314,-0.748146427155125,-0.000245685887157899,0
0.24,0.000660136468571224,0.000380744181749887,-0.032928227247464,-0.0190524930795211,0.000728145372918008,0.000224834616934698,-0.0363650035524398,-0.0111737262735791,-0.748146362748188,-0.000249059398257547,0
0.25,0.000660158005405673,0.000380744191842676,-0.0329283903169557,-0.0190524930617421,0.000728160021556444,0.000224850427462455,-0.0363651139823026,-0.011173847403095,-0.74814631887498,-0.000251357404413196,0
0.26,0.000666710293974081,0.000384237390873093,-0.0331959719506055,-0.0192272903935552,0.000735177696740346,0.00022727679787327,-0.0366752592824356,-0.0112510713351933,-0.748146018490674,-0.000383860015778245,0
0.27,0.000650479754195031,0.000374881939888375,-0.0325364449151743,-0.0187591377558403,0.000717279492637612,0.000221744242120576,-0.0358834731781023,-0.0110861106677308,-0.748146988326008,-4.58311874048627e-05,0
0.28,0.000650187300440626,0.00037468009104594,-0.0321229299854929,-0.01874903522822,0.000716932567555503,0.000221667295419816,-0.0355947604526333,-0.0107899018142691,-0.748146858054423,-4.61562934592262e-05,0
0.29,0.000658692044344468,0.000380092201253342,-0.0328653079325987,-0.0190198659360504,0.000726684850154803,0.000224219578297252,-0.0362982847213523,-0.0111498112996367,-0.748146192690993,-0.000230110248815529,0
0.3,0.000651031462589526,0.000376498687078807,-0.0325038347544677,-0.0188400470501013,0.000718839011043891,0.000221051357957747,-0.0359205520302416,-0.0110072970541582,-0.748143393067632,-0.000212034137552423,0
0.31,0.000659735769953496,0.000380288206572045,-0.032871621121773,-0.0190296795490806,0.00072753799947094,0.00022485298650393,-0.0363097455969257,-0.0111478497299088,-0.748143791499117,-0.000353423637996443,0
0.32,0.000660794960307301,0.000380695520607664,-0.0329263253612992,-0.0190500532467512,0.000728557243812304,0.000225351728342357,-0.0363619005078237,-0.0111740602272104,-0.748144487967413,-0.000342485123766351,0
0.33,0.000660749736920914,0.000380739209772336,-0.0329327427483097,-0.0190522463083152,0.00072855862328416,0.000225288466498862,-0.0363678795877512,-0.0111772522835392,-0.748145029299517,-0.000318151355923216,0
0.34,0.000660598281011539,0.000380743833667323,-0.0329322458907676,-0.0190524813379531,0.000728459065305478,0.00022517403474948,-0.0363677180898746,-0.0111767144312825,-0.748145408577506,-0.000298918082316566,0
0.35,0.000660476226683927,0.000380744280436747,-0.032931131676771,-0.0190524909595455,0.000728376420099461,0.000225084081496287,-0.036366970069768,-0.0111758817648089,-0.748145668592813,-0.00028539839213077,0
0.36,0.000660390021143761,0.000380744294101792,-0.032930231220125,-0.0190524943416575,0.000728317826055742,0.000225020758524113,-0.0363663619675735,-0.0111752130222742,-0.748145845971424,-0.000276123173906831,0
0.37,0.000660330823952857,0.000380744272149377,-0.0329295811366622,-0.0190524946908383,0.000728277566438467,0.000224977296764101,-0.0363659213347953,-0.011174731909622,-0.748145966839506,-0.000269794698219439,0
0.38,0.000660290369626043,0.000380744253832392,-0.0329291149784811,-0.019052493499656,0.000728250051224676,0.000224947598205757,-0.0363656042632527,-0.0111743880543392,-0.748146049179238,-0.000265482224060082,0
0.39,0.000660262837402545,0.000380744240992904,-0.0329287812567939,-0.0190524937049279,0.000728231324779334,0.000224927386314469,-0.0363653780159057,-0.0111741412732425,-0.748146105268241,-0.000262544388313498,0
0.4,0.000660244094535808,0.00038074423220793,-0.0329285369754651,-0.019052493870247,0.0007282185765154,0.000224913626859065,-0.0363652123840271,-0.0111739607250506,-0.748146143475404,-0.000260543147652979,0
0.41,0.000660231347058121,0.000380744226219481,-0.0329283540185953,-0.0190524940083081,0.000728209906110788,0.000224904268700639,-0.0363650883139189,-0.0111738255862278,-0.74814616950125,-0.000259179932583204,0
0.42,0.000660222674116681,0.000380744222139561,-0.0329282123486157,-0.0190524941278444,0.000728204007068789,0.000224897901722982,-0.0363649922242063,-0.0111737210230293,-0.748146187229591,-0.000258251334288658,0
0.43,0.000660216678727631,0.00038074421936029,-0.0329280939302142,-0.0190524942352133,0.00072819992919725,0.000224893500491989,-0.0363649118800273,-0.0111736337159268,-0.748146199305713,-0.000257618789876219,0
0.44,0.000660212662399045,0.000380744217467153,-0.0329279991101405,-0.0190524943335854,0.000728197197426869,0.000224890552016672,-0.0363648475397316,-0.0111735638513768,-0.74814620753177,-0.000257187912115015,0
0.45,0.000660209868431333,0.000380744216177607,-0.0329279140447934,-0.0190524944264024,0.000728195297058149,0.000224888500971509,-0.0363647898020157,-0.011173501235719,-0.748146213135146,-0.000256894406023404,0
0.46,0.000660208005786191,0.00038074421529929,-0.0329278405667402,-0.0190524945149885,0.000728194030150289,0.000224887133561551,-0.0363647399238548,-0.0111734471808269,-0.74814621695202,-0.000256694475015229,0
0.47,0.000660206725217656,0.000380744214701057,-0.0329277723892465,-0.0190524946009278,0.000728193159149793,0.000224886193481038,-0.0363646936360265,-0.0111733970570432,-0.74814621955189,-0.00025655828565162,0
0.48,0.000660205910310407,0.000380744214293431,-0.0329277112540067,-0.0190524946847515,0.000728192604883199,0.000224885595181498,-0.0363646521280982,-0.0111733521264717,-0.748146221322821,-0.000256465515934039,0
0.49,0.0006602053282338,0.000380744214015718,-0.0329276507044327,-0.0190524947675176,0.000728192208975149,0.000224885167858264,-0.0363646110115028,-0.0111733076464178,-0.748146222529093,-0.000256402322891476,0
0.5,0.000660204862572515,0.000380744213826649,-0.03292758844452,-0.0190524948497551,0.00072819189224073,0.000224884826081557,-0.0363645687267113,-0.0111732619271153,-0.748146223350747,-0.00025635927694389,0
0.51,4.66762278236875,0.0558656081055117,6.61981202435127,-2.75494944170509,-2.380352658527,4.01543828562963,-5.796440871659,4.22053680062831,0.547076895767372,169.523869353904,1117.67711401451
0.52,4.6107818323429,0.0603580214850572,9.46320964733223,-2.94055103578034,-2.65159664420916,-3.77253064038447,-2.91221473651536,-9.47196825120383,2.54203333819997,376.011093884772,1117.67711401451
0.53,4.01864164505433,0.0239901027381095,10.3491499248082,-1.0922402948094,1.09919062077819,3.86546713549444,1.71885006546495,10.2636956053955,-0.271079031123637,568.827099947876,1117.67711401451
0.54,2.94194407119203,0.027500139166738,10.1431696596546,-1.26121746113217,2.84751210871611,-0.739909431208465,10.1463385640001,-1.23546508387985,-1.81567108494473,716.8641911283,1117.67711401451
0.55,2.15715871625514,0.0673077184027107,9.05479047571396,-3.2694709207033,1.37213761317058,-1.665863867966,8.42955325999306,-4.64987123449081,-2.42138704256859,825.530683283133,1117.67711401451
0.56,1.58625971612163,0.0483264461713747,8.27571482454841,-2.33443215311491,1.10284234868541,-1.14118100507145,7.55801641469619,-4.10041671174162,-2.34282137540967,905.234297463616,1117.67711401451
0.57,1.08720242836077,0.0144144195114391,11.9159924854442,-0.669244079552042,1.06411706627848,-0.223319871436235,11.8221282020639,-1.63586347998356,-1.76440077871807,963.493162627774,1117.67711401451
0.58,0.847013737139946,0.0338368502914103,8.1725597532823,-1.66728783497248,0.643220764348671,0.552127024924638,4.84826969503352,6.78711003372101,-0.821530865983187,1006.07688229266,1117.67711401451
0.59,0.596170182836329,0.0635697981329057,9.33848167036379,-3.13975291544306,-0.167135132226953,0.575782818181681,-6.44498150589847,7.45167777526513,0.388739602107363,1036.7794491023,1117.67711401451
0.6,0.412129504080336,-0.0159528549262308,10.3190133700287,0.797507365130711,-0.398565085662079,-0.106071175184312,-10.2422435564043,-1.4881202436507,1.79221103289841,1059.29934360821,1117.67711401451
0.61,0.302792749563182,-0.0140188674858327,9.70940130667874,0.727121489166892,0.0724584601990508,-0.294329321303875,1.16913874470452,-9.6661416288907,-2.94647652333448,1075.56651780174,1117.67711401451
0.62,0.229584546139361,0.016678087475352,8.97246133671074,-0.844166114580089,0.225632039845148,0.0455785588097001,8.41632011031022,3.22230269660722,-1.29895739709017,1087.64031746291,1117.67711401451
0.63,0.190285126910943,0.00826176516784834,7.69560176388128,-0.388199841889459,-0.0707857920916039,0.176822108134607,-3.52106538801227,6.85383718502546,0.424174558808527,1096.34512067103,1117.67711401451
0.64,0.14156781982572,0.00898554332227839,7.72292907283522,-0.456509138768098,-0.119529390787236,-0.0763865978888727,-5.96137428136456,-4.93092797912396,2.20282986309208,1102.78533155786,1117.67711401451
0.65,0.111198503518204,0.0207928948477541,7.58469574917464,-1.01818378177387,0.0724173332065512,-0.0869090416014877,6.49271796867542,-4.05079266320242,-2.26204677728909,1107.38873152453,1117.67711401451
0.66,0.0373348789342494,-0.0295968038760748,10.0732395066002,1.48392849081502,-0.0120245148812193,0.0461007052721022,5.42069653472945,8.61906300020807,-0.415150893108392,1110.54585515002,1117.67711401451
0.67,0.00641019988144827,-0.0170493823848154,10.7059005449673,0.829880645062394,-0.00838897028235805,-0.0161677852480012,-10.5316622774912,2.09501743110869,1.45179553020697,1113.0171401089,1117.67711401451
0.68,-0.00275149143765649,0.0396025752713293,10.539237933192,-1.96684151974975,-0.0393991293039728,-0.00486243594730384,3.94341915583024,-9.96962622858429,-2.94943264872302,1114.71347050319,1117.67711401451
0.69,0.031624471830582,0.0246851372226944,8.38087906608664,-1.24571530641583,0.0396739916830713,-0.00595294903372402,6.68627275553161,5.20429603151509,-1.05695084288149,1115.99230327118,1117.67711401451
0.7,-0.0179176677431664,0.0100516526527072,10.4531846376909,-0.51196009280191,0.0176947642485382,0.0104390543917461,-10.4395737724803,-0.739237211739085,1.59255201362462,1116.9476702764,1117.67711401451
0.71,-0.0138910214017551,-0.0156890823898189,10.024064207552,0.791487941457809,0.00983848140817867,0.0185016773671866,2.76511769573812,-9.66759745372728,-2.78421588339836,1117.60415253118,1117.67711401451
0.72,0.017765440775584,-0.0209097518244169,8.2065354103398,1.02672762036293,0.000188850540693829,0.0274370724163998,6.9498516025986,4.48340894291776,-0.873403141367481,1118.1648727355,1117.67711401451
0.73,-0.0386960531469009,-0.0157661626476274,10.7748168634334,0.804361992440957,0.0254948530454027,-0.0331054207339605,-8.90437756812794,6.12010921304778,1.04314866676446,1118.83521704147,1117.67711401451
0.74,-0.0119721987665062,-0.00417274248482445,9.3625966714257,0.205279486088289,0.00624246346694217,0.0110352604415702,-1.87295517128099,-9.17564139586831,2.96215825377451,1119.06491630047,1117.67711401451
0.75,-0.00156452390120429,0.0113352998652644,8.7859176447314,-0.591537014876424,0.000377424948987452,-0.011436533936503,8.55888792498044,2.07067679457599,-1.40065089716386,1119.13567250085,1117.67711401451
0.76,-0.0188481644513164,0.0116878971298695,9.55940196688039,-0.571341709976824,0.019519261729425,-0.0105289441085269,-5.25405913140737,8.00646363618987,0.521043907702907,1119.42651000065,1117.67711401451
0.77,-0.00670776233581431,0.0226726186236852,8.87488730497732,-1.14751457457425,-0.0130640556934202,0.0197071601111895,-4.82275670931065,-7.53799921051382,2.44384090409548,1119.6340549405,1117.67711401451
0.78,-0.0433776912068287,0.0157599226136196,10.6303669122659,-0.800352457796534,-0.0461514362239255,-0.0002102134419952,10.2776733335876,-2.83102377138762,-1.91473182994787,1119.72450535225,1117.67711401451
0.79,-0.0165240797954198,0.0319707809972338,9.29215487687934,-1.59322754320994,0.032131108686368,-0.0162101173729031,-1.68417236765072,9.27610261351162,0.00979565231369801,1119.78248531512,1117.67711401451
0.8,-0.0117430050043783,-0.0495613568282194,8.99974558609603,2.45950806382324,0.0286358827072727,-0.0421214016713863,-9.28532505016031,-0.909581905785303,1.9352162542877,1119.79722572614,1117.67711401451
0.81,-0.0468482772252793,-0.0204226414193154,10.7521812821428,1.03680795499568,-0.0155076043923024,0.0486966073513382,6.30501949953867,-8.77103769060659,-2.42219999686534,1119.80831472884,1117.67711401451
0.82,0.00804668168922065,-0.00886065555756142,8.07424685232288,0.44235024510839,-0.00394894271435206,0.0112989448426014,4.24047274107779,6.88531240422463,-0.497277974034709,1119.69406483785,1117.67711401451
0.83,-0.0513877506344615,-0.0293463704274428,10.9761244382411,1.44170394299271,0.0466895242515251,-0.0363593000166469,-10.6593302725692,2.98872817152789,1.42803106064696,1119.73616162279,1117.67711401451
0.84,-0.0469047429566377,0.0452628321088634,10.8304420363726,-2.25243273072581,-0.0540559679393123,0.0364243217162303,4.46337371466335,-10.1217697559727,-2.93132473124145,1119.59338182082,1117.67711401451
0.85,-0.0185730133718839,0.0182117364301856,9.3486929255804,-0.923555586394768,-0.00597584184454179,-0.0253162691517481,7.41047487117664,5.77372293426152,-1.00738150135088,1119.72876198484,1117.67711401451
0.86,-0.0211225050077031,0.0164508814613785,9.48933425623589,-0.843494237543729,0.0194854875369282,0.0183604873057603,-9.3683015007274,-1.73028152241485,1.66477782968358,1119.67517061223,1117.67711401451
0.87,-0.00728062231393108,-0.0248239102853207,8.76352254143912,1.25076033882881,0.0192341440914934,0.0172997596572736,2.66204005287574,-8.44258677872985,-2.69438292168933,1119.80188867518,1117.67711401451
0.88,0.0211420787958862,0.0219889396734192,7.30005512202256,-1.11843365191592,0.030503963129808,-9.59017624603837e-05,4.27232635160156,6.0240290639834,-0.768909973685978,1119.72435731107,1117.67711401451
0.89,-0.0168738340452192,-0.000418889440204243,9.18115615890964,0.0370075535101937,0.0152752462176585,-0.00718112781801183,-8.38826520097039,3.73256009884508,1.15616065453592,1119.8794677621,1117.67711401451
0.9,-0.00967388293963336,0.0197814390286966,8.79221639305263,-0.990474809705701,-0.0191757453276755,0.0108249772426505,0.469620909447393,-8.83535882985715,3.08251448847414,1119.97984979428,1117.67711401451
0.91,-0.0265012674936635,-0.0107159774084566,9.65951707321892,0.510957880990396,-0.0284751347602608,0.00251317547621483,9.38795071546375,2.33103612326743,-1.27456992259677,1119.81708235479,1117.67711401451
0.92,-0.0282916133661017,0.0209302489781732,9.75929782651309,-1.03312020617287,0.0337891759885191,-0.00983779930483385,-6.73244832540052,7.14040411831134,0.650532566300563,1119.77333715032,1117.67711401451
0.93,-0.0212678612162717,-0.00740229968504194,9.51801709411713,0.359706079009963,0.017668348668909,0.0139622855097447,-5.41633306912319,-7.8348818722113,2.57449681569376,1119.44345162008,1117.67711401451
0.94,-0.0309226882245837,-0.0128587790810232,10.0717648006125,0.618316168136543,-0.0274490952321452,0.0191861412854694,9.70533502367264,-2.76210665270355,-1.78674837875388,1119.19408772872,1117.67711401451
0.95,-0.0215589974128371,0.0373920214827501,9.63069871768485,-1.86232233860036,0.0399347129524853,-0.0163759684115402,-3.13093523707281,9.29601241527368,0.133855074954979,1119.19680887028,1117.67711401451
0.96,-0.0147085379331202,-0.044693527631192,9.20369079570851,2.21775695533018,0.0338257001841793,-0.0327058787880737,-9.17785262291639,-2.32236762980192,2.05509065909886,1119.36996679686,1117.67711401451
