t,iq,id,vq,vd,ia,ib,va,vb,theta_e,omega,r
0,0,0,0,0,0,0,0,0,0,0,0
0.01,0.000635115519699879,0.000358305317031011,-0.0309024695524817,-0.0179237220406291,-0.000722801868014894,9.64980993103991e-05,0.0353510955053408,-0.00514999833049169,1.95172337506156,-0.00209808288853587,0
0.02,0.000799298944731319,0.000447217956269373,-0.0389653375074365,-0.0223714524921558,-0.000908270711771451,0.000118012785733312,0.0444894949952645,-0.00628205768387698,1.95170621392679,-0.00252207709023667,0
0.03,0.000864442284523847,0.000482630475483362,-0.0421703830860931,-0.0241429099828124,-0.000981907801441748,0.000126687444547342,0.0481232654274002,-0.00673592136756486,1.95168757397652,-0.00259437220685481,0
0.04,0.000854798844052898,0.000477276001993614,-0.0417565570177131,-0.023875068268705,-0.000970962711510278,0.00012531902780419,0.0476394081669731,-0.00664196720176967,1.95166966215156,-0.00241605326085966,0
0.05,0.000874813472848349,0.000489260023613558,-0.0427749181243297,-0.0244745520697319,-0.00099399571657235,0.000129021309941995,0.0488075234878567,-0.00682077492220945,1.95165246225458,-0.00234523395383875,0
0.06,0.000878269106432239,0.00049190276276079,-0.0429902563168542,-0.0246067408983387,-0.000998183948542655,0.000130206590450624,0.0490564557478478,-0.00686425416824347,1.9516360179578,-0.00222374394967476,0
0.07,0.00088983883005024,0.000499425870864665,-0.043594692959254,-0.0249830706557341,-0.00101171903808944,0.000132905725691134,0.0497573609384981,-0.00698971430296383,1.95162069339458,-0.00213916508669331,0
0.08,0.000879527783127891,0.000494141656940288,-0.0431393460304368,-0.0247187466233646,-0.00100018067468703,0.000131847322309418,0.0492362881020706,-0.00691430000027194,1.95160592509571,-0.00198404645999058,0
0.09,0.000876074475311912,0.000492972594670612,-0.0430127104902553,-0.0246602664103634,-0.000996538421851013,0.000132059225970812,0.0490968936494847,-0.00690775195847438,1.95159215691106,-0.00186055849725088,0
0.1,0.000874293270702447,0.000492712179631071,-0.0429644343228901,-0.0246472293747405,-0.000994786309749438,0.000132492313314689,0.0490471409183018,-0.00691422448849131,1.95157924241297,-0.00174972806165273,0
0.11,0.000872962773151552,0.000492652504264516,-0.0429356595050558,-0.0246442464545991,-0.00099352731943813,0.000132943442097124,0.049019234546678,-0.00692274403014313,1.95156711003986,-0.00164678622945526,0
0.12,0.000871792811907687,0.000492637275908388,-0.0429125050683367,-0.0246434959642964,-0.000992433972530217,0.000133375420060225,0.0489973805305618,-0.00693121098550901,1.95155570804181,-0.0015503179201248,0
0.13,0.000902852806225902,0.000510852547748535,-0.0444469331167356,-0.0255546777206403,-0.00102803726336175,0.000138754821144519,0.0507604558810474,-0.00720746388389156,1.95154467143133,-0.00156736018206409,0
0.14,0.000920424372722565,0.000521493856208023,-0.0454024776526539,-0.0260869977687309,-0.0010483034417043,0.000142115312599869,0.0518453112784863,-0.00734711698711581,1.95153407853358,-0.00154173570117177,0
0.15,0.00088053653822178,0.000498998835443881,-0.0434282692742233,-0.0249617119585022,-0.00100291130282495,0.000136063777633533,0.0495942412933336,-0.00703653796922031,1.95152401231562,-0.00132329521138634,0
0.16,0.000870509645610474,0.000494031013385159,-0.0429696354503336,-0.0247132079383879,-0.000991755155714132,0.000135186524482578,0.0490760425065451,-0.00697669472145238,1.95151504766173,-0.00121621082957764,0
0.17,0.000867533608092473,0.000492932770839755,-0.0428500640047767,-0.0246582659546147,-0.000988582991377455,0.000135280992371086,0.0489445589471357,-0.00697052469849525,1.95150673824405,-0.00113862367824567,0
0.18,0.000866250122946191,0.000492688906087406,-0.0428108000377608,-0.0246460789549295,-0.000987299732482649,0.000135539189630103,0.0489035235211505,-0.0069741805928754,1.95149895544263,-0.00107111299097539,0
0.19,0.00086539948381698,0.000492633746563622,-0.0427910784431494,-0.0246433014289614,-0.000986488507522069,0.000135811263785032,0.0488841308559235,-0.00697928722058097,1.95149164666266,-0.00100892972819864,0
0.2,0.000864683011562238,0.000492620326458832,-0.0427765517632039,-0.0246426513386127,-0.00098581740902649,0.000136071792025557,0.0488703546713403,-0.00698441694373245,1.95148477850502,-0.000950780946334515,0
0.21,0.000864029522813253,0.000492616195378627,-0.0427638597274342,-0.0246424403108787,-0.000985208289283027,0.000136317126474343,0.0488584477452579,-0.00698925226235173,1.95147832334195,-0.000896195836348453,0
0.22,0.000863419922770617,0.0004926141848276,-0.0427521520880357,-0.0246423281885839,-0.000984640754142404,0.000136547733091609,0.048847494147075,-0.00699379455402352,1.95147225608932,-0.000844906663172483,0
0.23,0.000862847922702986,0.000492612708067183,-0.0427411928868129,-0.0246422628048724,-0.000984108372838944,0.000136764499671617,0.0488372552739818,-0.00699808422613505,1.95146655337774,-0.00079670281505297,0
0.24,0.000862310439780577,0.000492611410890654,-0.0427308975195872,-0.024642200283025,-0.00098360814908313,0.000136968265490629,0.0488276361313354,-0.0070021130699305,1.95146119329063,-0.000751395968914892,0
0.25,0.000861805436731046,0.000492610211427557,-0.0427212282131433,-0.0246421377134636,-0.000983138158602786,0.000137159732724351,0.0488186004325609,-0.00700589344300534,1.95145615523976,-0.000708811378347658,0
0.26,0.000867065637031516,0.000495918627192594,-0.04298920811293,-0.024807631591855,-0.000989250376284859,0.000138281584955192,0.0491288519325358,-0.00706020588686922,1.95145151266543,-0.000689208428481037,0
0.27,0.000853871064902317,0.000488437041649297,-0.0423647808747102,-0.0244333701880539,-0.000974219991987689,0.00013624223406874,0.0484100389782854,-0.00694495237057692,1.9514468429839,-0.000606085021265363,0
0.28,0.000852789714363956,0.000488097410363254,-0.042252261043124,-0.0244163889859125,-0.00097308928856889,0.000136332737817312,0.0482992348215456,-0.00697119286929326,1.95144265315766,-0.000568401914062263,0
0.29,0.000858269378733825,0.000491610513435972,-0.0426009477513561,-0.0245921307112636,-0.000979481408214435,0.000137562328982873,0.0486882290470115,-0.00700499782294017,1.95143882690905,-0.000556171606837662,0
0.3,0.000846132730658486,0.000485189614973014,-0.0420229136047476,-0.0242709299132445,-0.00096582753985871,0.000136112907616139,0.0480322144205974,-0.00692168220445434,1.95143578628658,-0.000489886908754512,0
0.31,0.000856228804422668,0.000490967402526454,-0.0425209304466625,-0.0245599544275557,-0.000977347080609135,0.000137729589745433,0.0486019401741187,-0.00700516229968341,1.95143244886541,-0.000497454143463541,0
0.32,0.000858349885535635,0.000492242370257097,-0.0426330731277613,-0.0246237297287483,-0.000979789565770986,0.000138128504957036,0.0487297269038849,-0.00702287020699377,1.95142917867761,-0.000478212579505663,0
0.33,0.000858613652514119,0.000492523280846602,-0.0426549101785328,-0.0246377779676187,-0.000980138386030662,0.000138294362461906,0.0487551982836031,-0.00702795175331505,1.95142607367103,-0.00045393945994099,0
0.34,0.000858455276963723,0.000492584766069444,-0.0426558060665882,-0.0246408690442687,-0.000980013782396943,0.000138413151913348,0.0487571578347917,-0.00703063143113017,1.95142314786668,-0.000429671912424766,0
0.35,0.000858211217814953,0.000492597840333828,-0.0426520477935492,-0.0246415130987589,-0.000979791666042436,0.000138518655201255,0.0487538884496869,-0.00703275975808883,1.95142039612057,-0.000406521274999675,0
0.36,0.000857959181107892,0.000492600256806073,-0.0426474194032269,-0.0246416451363876,-0.000979558205997144,0.000138617064304476,0.0487496221540106,-0.00703472789975482,1.9514178092946,-0.000384681448906666,0
0.37,0.000857717332736717,0.000492600348512248,-0.0426428284688085,-0.0246416373829891,-0.000979333362561145,0.000138709376777698,0.0487453397850878,-0.00703654474662719,1.95141537779043,-0.000364134960835507,0
0.38,0.000857488578841857,0.000492599953461124,-0.042638441881422,-0.0246416238473834,-0.000979120515507924,0.000138796228715432,0.0487412460106885,-0.00703827317151543,1.95141309234929,-0.000344818494626147,0
0.39,0.000857273329119031,0.000492599475847901,-0.0426343055942446,-0.0246416073530036,-0.00097892019422701,0.000138877851938334,0.048737384483954,-0.00703989915455291,1.95141094421251,-0.000326661528419763,0
0.4,0.000857070885071017,0.000492599003416997,-0.0426304098116244,-0.0246415849910554,-0.00097873178172442,0.000138954595628853,0.0487337449728787,-0.00704142403899035,1.95140892513482,-0.000309595192387635,0
0.41,0.000856880899668032,0.000492598554139617,-0.0426267611045008,-0.0246415450644153,-0.000978554961461311,0.000139026613120615,0.0487303291794012,-0.00704283490428336,1.95140702736371,-0.00029355414750443,0
0.42,0.000856702087934891,0.000492598130664799,-0.042623317802275,-0.0246415255291301,-0.000978388540439842,0.000139094391484528,0.0487271124648518,-0.00704418282799258,1.95140524361061,-0.000278476837830873,0
0.43,0.000856533986411133,0.000492597732338473,-0.0426200779431885,-0.0246415059534854,-0.000978232087214269,0.00013915810909454,0.0487240853703054,-0.00704544990517359,1.95140356702602,-0.000264305372261846,0
0.44,0.000856376071222466,0.000492597357851536,-0.0426170353144159,-0.024641483428721,-0.000978085114056446,0.000139217965744113,0.0487212410023851,-0.00704663605883045,1.9514019911706,-0.000250985329945628,0
0.45,0.00085622740885712,0.000492597005818919,-0.0426141619684028,-0.0246414841920227,-0.000977946752934913,0.000139274312936744,0.0487185631181513,-0.00704777632715986,1.95140050999296,-0.000238465557799825,0
0.46,0.000856087887294367,0.000492596674905502,-0.0426114698928203,-0.0246414645036337,-0.000977816898587732,0.000139327196685929,0.0487160465594061,-0.0070488259258086,1.95139911780485,-0.000226697975592414,0
0.47,0.000855956805842229,0.00049259636384742,-0.0426089406620183,-0.0246414447827877,-0.000977694899277,0.000139376881408171,0.0487136817672773,-0.00704981091938001,1.95139780925955,-0.000215637391659436,0
0.48,0.000855833524211005,0.000492596071455453,-0.0426065578225479,-0.0246414221214439,-0.000977580159413292,0.000139423608826688,0.0487114523504759,-0.00705073496598886,1.9513965793319,-0.000205241329435879,0
0.49,0.000855717458135649,0.000492595796610648,-0.0426043067881002,-0.0246414227432561,-0.000977472135487483,0.000139467599614226,0.0487093544750561,-0.00705162806235227,1.95139542329857,-0.000195469864350022,0
0.5,0.000855608612009493,0.000492595538261019,-0.0426022015621258,-0.0246414029331486,-0.000977370830587357,0.000139508855548504,0.0487073848723098,-0.00705244463675297,1.95139433671985,-0.000186285470503848,0
0.51,2.84211564203709,0.0123402115375075,1.76294938790034,-0.615769876956809,-0.110570155222769,2.83999081764479,-0.69142739635377,1.73467323759751,0.0432555084493284,13.2813551958287,361.077828640456
0.52,2.73556281752955,0.0165571415040469,2.11560221082796,-0.82515083475401,-0.510912553240884,2.68747956839226,-1.21737388450644,1.91693699423771,0.193919087957214,27.7573348133406,361.077828640456
0.53,2.64865468422967,0.0235309262371518,1.64265529495627,-1.17243705197621,-1.12834400868378,2.39640671398842,-1.76918704540507,0.971031542878705,0.448939340502239,41.7644002257573,361.077828640456
0.54,2.53241984815559,0.0346854531545594,2.71742468463486,-1.7288250041118,-1.80230656153219,1.77933819895233,-3.15739344953702,0.635688143924165,0.805506581658517,55.4901269810062,361.077828640456
0.55,2.48241835192067,-0.0052505622280441,0.481298523483094,0.270914710171994,-2.366802856309,0.748780796844976,-0.376310603565635,0.404268943326901,1.26227633825861,69.1474405358656,361.077828640456
0.56,2.38246832622985,0.0110219072350179,0.604719248505811,-0.542803879606659,-2.3116563583847,-0.576646935886359,-0.452243455338166,-0.67512760151935,1.81988523219834,83.0717246373129,361.077828640456
0.57,2.23157261377423,0.0306156195078091,3.31989817666228,-1.52489500169005,-1.39605183989979,-1.7412331569946,-0.838281761963139,-3.55588418781388,2.47949764328611,96.6246595190579,361.077828640456
0.58,2.146158346597,-0.039936720232729,3.34615282207697,2.00624527637449,0.235326109197385,-2.1335913883921,-1.69300167596137,-3.51503970715277,-3.05034722150432,108.666732410194,361.077828640456
0.59,2.08920285624888,-0.0193668992210093,2.33177561873423,0.979497434681223,1.68483159093925,-1.23551048620278,1.28098403217713,-2.18075048320016,-2.21280227719217,119.76291073974,361.077828640456
0.6,2.06256464477859,-0.0242554742704567,-0.144925046224491,1.22641984699935,1.97793990392828,0.585247792281965,0.194673470579822,-1.21951266905657,-1.29487599878093,130.737765833983,361.077828640456
0.61,1.91128970894929,0.0235813059576161,3.35342765974854,-1.17171052840396,0.577157248718498,1.82221676531027,-0.148250092350998,3.54914138090569,-0.29439986126455,142.256455622447,361.077828640456
0.62,1.86456572215313,0.0391309061052094,1.97254898165423,-1.94798600871669,-1.2936464059323,1.3433597941205,-2.77226762476822,0.0114539007811973,0.787531714448896,152.66657322423,361.077828640456
0.63,1.81962508528201,-0.0473583428376304,0.9031428922516,2.38275657622083,-1.67882965523447,-0.70342679244481,-1.70509776693985,1.89363079572681,1.94155197370273,162.141729971731,361.077828640456
0.64,1.6680216623193,0.0318845801269283,5.02216830098399,-1.5836841118013,0.00867210799288101,-1.66830383532475,1.70529800201602,-4.98218712351317,-3.11728166197359,172.049442505196,361.077828640456
0.65,1.67625586172098,0.0538913547428688,1.18745309182745,-2.68632788110026,1.61105067155257,-0.466104844171326,1.81396560602726,2.30996344348073,-1.82028513448647,181.535135116161,361.077828640456
0.66,1.60123607207431,-0.000641544221806012,1.9657499805757,0.0464817153751194,0.708033077037737,1.43619167659175,0.911602226508745,1.74221551956751,-0.458427323299957,189.998330704594,361.077828640456
0.67,1.50560937234336,0.0767987652506423,3.59606437616842,-3.83424638717065,-1.19539476583937,0.918579874717508,-5.13768889964545,-1.11232959393281,0.966566830592046,198.904240371528,361.077828640456
0.68,1.45104279281443,0.0415982222039167,3.37768857904698,-2.06999496092942,-0.951575826189859,-1.09624771182444,-0.538673190130795,-3.92472807587123,2.45538392841266,207.067925689174,361.077828640456
0.69,1.43410103671607,-0.00363655322515091,1.5106703749402,0.197810694211522,1.08891110822881,-0.933237165143654,1.01544514118023,-1.1358367918499,-2.28189736822633,214.784515972936,361.077828640456
0.7,1.34897004417521,-0.0156663854014569,2.88447362095493,0.79248566708798,0.833388669811886,1.06086235711462,2.42557816133828,1.75065478771902,-0.677497184580695,222.747515313572,361.077828640456
0.71,1.35730205153489,0.0227306138379278,-0.0211878934730029,-1.12179301400677,-1.11546261173426,0.773646367359957,-0.606184751455804,-0.944144342887613,0.9811472392949,229.73663943982,361.077828640456
0.72,1.23717934206283,-0.00112981678587643,3.34183792877393,0.0635446505264552,-0.536507272450927,-1.11479771596476,-1.50918238404856,-2.98232915629379,2.69213610632313,237.088520637311,361.077828640456
0.73,1.19634068732046,-0.0135418162946629,3.05340392805166,0.691288804099257,1.16013552087568,-0.292403820305864,2.77564510181757,-1.44808495167597,-1.82901559260351,243.562206374959,361.077828640456
0.74,1.12767037427703,0.0412312548736602,4.09598563603309,-2.05662807999812,0.0632015456259845,1.12665258799287,-1.97640730252133,4.13529098910421,-0.0194910805317316,250.227119056534,361.077828640456
0.75,1.12948318931986,0.0396843782563761,1.798287355637,-1.97218712276996,-1.10002946340774,-0.259311211613827,-1.21511900632687,-2.37630916783291,1.83742160168817,256.284399984159,361.077828640456
0.76,1.07214659892744,-0.0388064229556155,2.44959139039455,1.94731433980498,0.634630792143048,-0.865013309561289,-0.234075736218408,-3.12053515724771,-2.5448068483591,262.443506859978,361.077828640456
0.77,1.03644156751661,-0.0141298679386313,2.18849640657113,0.720046967693761,0.57362360822558,0.863346241163137,1.83010633316386,1.399533839024,-0.600077094854289,268.03577601615,361.077828640456
0.78,0.996352468218047,0.0277733851246293,2.13093483213473,-1.38422922889849,-0.974139532071263,0.211049221513506,-2.34966844981368,-0.96748746394574,1.38530959283712,273.717026397705,361.077828640456
0.79,0.963124038812638,0.0335156263470562,1.91023529762607,-1.66311351293446,0.223924384694254,-0.937330828089796,2.11138117323067,-1.39893351898109,-2.87230717810954,278.862648381036,361.077828640456
0.8,0.873372199486356,0.0287733219966315,4.48130691979826,-1.43490975629223,0.651816114382453,0.582016027206913,2.25215790694571,4.13144798833488,-0.808976540095916,284.092189981552,361.077828640456
0.81,0.846341358189985,-0.0104663769500246,4.11296970286452,0.537620726083336,-0.816272409540978,0.223836085230901,-3.80421000589911,1.65334269067635,1.29079186901017,288.794581248699,361.077828640456
0.82,0.831658099247232,0.0166847344466365,3.04260754970538,-0.828629108665445,0.21734622426674,-0.802928510643423,1.64908568501153,-2.68786221833299,-2.85717674610775,293.662267075973,361.077828640456
0.83,0.847414004618939,-0.0320602477236366,0.647547828553353,1.61853784664092,0.513696232322247,0.674725526126244,1.66125505827679,-0.528407591375232,-0.68853495434796,298.056753090015,361.077828640456
0.84,0.744725864113876,-0.0134487764578306,4.14777286498415,0.681215566717244,-0.744257169165078,0.0296436909772791,-4.10143359842062,0.919954795402041,1.51293073468234,302.421385662744,361.077828640456
0.85,0.718751057846827,0.00816006080259685,3.88490034245687,-0.406192771484925,0.401156659040705,-0.596441954137647,2.53905068871582,-2.96827640871935,-2.53815274902682,306.657030091853,361.077828640456
0.86,0.751514616790009,0.0291554061405468,0.779964574354732,-1.44630267027933,0.232611230295908,0.715203658055856,-1.17939383891467,1.14418806322894,-0.275670841377655,310.546087120568,361.077828640456
0.87,0.689311089615592,-0.0121956051556327,2.42713985175662,0.613569010142955,-0.617097929140797,-0.307390072875307,-2.45514588152097,-0.489625868029415,2.01524982223298,314.457043646186,361.077828640456
0.88,0.634079093240116,-0.0360235418177386,3.85413002811736,1.81486051254292,0.602408779770713,-0.20114088123617,2.90911786311574,-3.11208454450139,-1.9498030749114,318.031443789586,361.077828640456
0.89,0.608044949811558,-0.0104683565509276,3.80674917757602,0.53120297501795,-0.24362414849932,0.557203303784353,-0.974444391423221,3.71806051990382,0.394966287670914,321.570809808117,361.077828640456
0.9,0.619440837909524,0.04073066145447,1.96702909785362,-2.03690426235185,-0.266027371341697,-0.560888024608833,1.16917662264321,-2.57899369344994,2.76437765441074,324.959568941992,361.077828640456
0.91,0.574189192638169,0.0251287004015945,3.0379381409223,-1.24533137480853,0.528945340141758,0.224814384923798,2.20448815320825,2.43313591143558,-1.12516958712671,328.076301041976,361.077828640456
0.92,0.572891987846225,0.0270745201427079,1.88772866360288,-1.34984219280498,-0.543277084116713,0.18381585691392,-2.18649606168022,-0.777707158975266,1.29176504259821,331.246391349309,361.077828640456
0.93,0.512701090265872,-0.0617818352745282,3.77652388693418,3.09029732781519,0.336195612091406,-0.391984583294021,-0.471556999378954,-4.85692333058932,-2.55258375450528,334.208548972653,361.077828640456
0.94,0.517205511611912,-0.00299421963247826,2.46506892271066,0.160305498644973,0.0446945604567097,0.515279441525206,0.386853160095275,2.43979656511235,-0.0923111000852752,337.006695234207,361.077828640456
0.95,0.452881634549118,-0.000110243212991912,4.601893291775,0.00746310300060411,-0.309653883261198,-0.330478833886086,-3.15276659277283,-3.3522440809532,2.38847183370164,339.773412562332,361.077828640456
0.96,0.43337826819899,-0.00906680297205887,4.56968794803497,0.452147546159505,0.425075919969256,0.0849081416919492,4.57817926868887,0.356033607488917,-1.39456108300909,342.405764337422,361.077828640456
0.97,0.455916856542095,0.0151363478011336,2.47605618623327,-0.747668698287171,-0.40475288964624,0.210391034568969,-2.5562933633949,0.393988527809738,1.12462114858122,344.862272711484,361.077828640456
