t,iq,id,vq,vd,ia,ib,va,vb,theta_e,omega,r
0,0,0,0,0,0,0,0,0,0,0,0
0.01,0.000477873088459598,0.000237690273326089,-0.0196709810172192,-0.011889021583017,3.50586739932492e-05,0.000532569473482644,-0.00338522576839551,-0.0227340400034449,0.395824617276049,-0.0111560624169868,0
0.02,0.00063685634648853,0.000306405496685263,-0.027705590367206,-0.0153260875246791,3.722090378162e-05,0.000705751329282022,-0.00346127568668976,-0.0314723413020111,0.395740756659775,-0.0110873264765236,0
0.03,0.000681679958234285,0.000335164622334655,-0.0308610840971814,-0.0167645865402022,4.65317313840991e-05,0.000758193700512888,-0.00357464759945433,-0.0349382278894758,0.395670071428689,-0.0083725997667062,0
0.04,0.000650356441629389,0.000333849611174816,-0.0306532577476888,-0.0166988029193401,5.74243281806444e-05,0.000728780838512799,-0.00359562492686126,-0.0347209405239913,0.395624663511521,-0.0048377145507844,0
0.05,0.000639408755692483,0.000342454783989102,-0.0308089136103481,-0.0171292234413404,6.96031572484246e-05,0.000721993238496236,-0.00393374629288854,-0.0350303453259662,0.395597954500222,-0.0029812287024836,0
0.06,0.000624589091233323,0.000344741120887779,-0.0305748184604099,-0.0172435849290133,7.7434485703467e-05,0.000709198049731152,-0.00413001045901803,-0.0348583384385934,0.395582912915457,-0.00167790370441596,0
0.07,0.000619678425598951,0.000349471712621,-0.0305279882811531,-0.0174802134747378,8.36966077913993e-05,0.000706488999857225,-0.00436663570671971,-0.0349062805841789,0.395576461389709,-0.0011619654397568,0
0.08,0.00060870464012603,0.000346605576387409,-0.0302136912730351,-0.0173368495088775,8.52835434272461e-05,0.000695257852680788,-0.0043556080882823,-0.0345609920201523,0.395572013180233,-0.000580179756089108,0
0.09,0.000602919500403654,0.000345843677742307,-0.0300300894471698,-0.0172987350512866,8.68107361167403e-05,0.000689625745963842,-0.004391236802502,-0.0343768751622945,0.395570517342592,-0.000322127623659026,0
0.1,0.000600214636466468,0.000345641162635456,-0.0299352154295006,-0.0172886064433645,8.76663246747486e-05,0.000687051700132229,-0.00441845793381797,-0.0342854235069546,0.395570245383581,-0.00022596541596078,0
0.11,0.000599123647050939,0.000345587352507406,-0.0298918103839487,-0.0172859151831056,8.8036974590088e-05,0.000686024237016245,-0.00443269541041707,-0.0342443338838111,0.395570378258418,-0.000201076883487872,0
0.12,0.000598782141845421,0.000345573068144771,-0.0298748293161216,-0.0172851989846704,8.81552491341902e-05,0.000685703617366913,-0.00443857102606053,-0.0342283890630813,0.395570579426543,-0.000202429435882443,0
0.13,0.000621901132143519,0.00035744806438539,-0.0307675815436574,-0.0178791831783574,9.02057980715426e-05,0.000711612992355064,-0.00464273334591892,-0.0352810755540355,0.395568994165273,-0.000800332081456005,0
0.14,0.000634192901676557,0.000364252134593352,-0.0316430771760026,-0.0182195161628333,9.17497892716624e-05,0.000725577170438369,-0.0046195160208839,-0.0362200935132282,0.395566545412542,-0.00102620601909965,0
0.15,0.000609937631643072,0.000350533676556273,-0.030420016537062,-0.0175333316453394,8.84385124853532e-05,0.00069790859172516,-0.00445767842692065,-0.0348270617156078,0.39556437972192,-0.000179536160629948,0
0.16,0.00060026521719546,0.000346887431810663,-0.0300317845573517,-0.0173509426078703,8.87999622960957e-05,0.000687578205020434,-0.00443892396778714,-0.0343985355369818,0.395565737367519,3.08242602036612e-05,0
0.17,0.000597310430475461,0.000345918414427504,-0.0298820129904275,-0.0173024760724041,8.90430469810843e-05,0.000684478367502687,-0.00445184679206912,-0.0342416623243694,0.395567630128614,1.03978955580419e-05,0
0.18,0.000597008268654648,0.000345660963858025,-0.0298396070119558,-0.0172896046122374,8.89208992128548e-05,0.000684100466642478,-0.00445625915132273,-0.0341975778184905,0.395569107518566,-6.52517664704906e-05,0
0.19,0.000597499013340444,0.00034559260202106,-0.029838166734972,-0.0172861796736904,8.86680780647865e-05,0.000684527055306646,-0.00445362180824914,-0.0341949331715122,0.395570039644091,-0.000133278122170925,0
0.2,0.000598055652112808,0.00034557446720416,-0.0298480072401817,-0.0172852701842483,8.84365002822084e-05,0.000685033766193572,-0.00444897312328633,-0.034203665588657,0.395570552602886,-0.000179249939251787,0
0.21,0.00059846584121085,0.000345569663385417,-0.0298579283709451,-0.0172850289654973,8.82738354972733e-05,0.000685410450252344,-0.00444491899925858,-0.0342127287428612,0.395570803286217,-0.00020583235613592,0
0.22,0.000598716366906258,0.000345568392953686,-0.029864934760068,-0.0172849642765052,8.81760533103874e-05,0.000685641149459851,-0.00444215582826004,-0.0342191696255277,0.395570910557034,-0.00021944215413303,0
0.23,0.000598850768375887,0.000345568057148738,-0.0298690913849128,-0.0172849479490738,8.81239280324939e-05,0.00068576504592613,-0.00444053778056811,-0.0342229991377408,0.395570948185935,-0.000225602046256189,0
0.24,0.000598914796797546,0.000345567968008248,-0.0298712548101896,-0.0172849434698546,8.80991678431488e-05,0.000685824096224199,-0.00443969972738173,-0.0342249938060189,0.395570956254652,-0.000227971234603857,0
0.25,0.000598941281281471,0.000345567943929469,-0.0298722375558605,-0.0172849420130727,8.80889416975059e-05,0.000685848526021121,-0.00443931977030631,-0.0342259000899321,0.395570954103451,-0.000228636921259041,0
0.26,0.000602414487471384,0.000347584859367,-0.0299912309508358,-0.017385836708201,8.86114259978678e-05,0.000689830750517264,-0.00448655426828424,-0.0343745848380506,0.395571432449662,-0.000359519150367187,0
0.27,0.000596162309070731,0.000343257578128844,-0.0297870461104385,-0.0171693849939777,8.70284155393315e-05,0.000682393814881216,-0.00436554318608981,-0.0341027554568132,0.395570089486072,-9.63117590645466e-05,0
0.28,0.000595022876434663,0.000342962761010863,-0.0293856461702912,-0.0171546379821131,8.71953758480675e-05,0.000681228776074153,-0.00450660559327089,-0.0337266706208841,0.395570165408377,-6.67179503260962e-05,0
0.29,0.000597209154407486,0.000344875476698686,-0.0298087478198749,-0.017250306096072,8.811743386507e-05,0.000683983323177755,-0.00443182514976617,-0.0341539665754796,0.395570902215989,-0.000174063505419158,0
0.3,0.00058600217264404,0.00034011258569113,-0.029316631978281,-0.0170120782166069,8.80383841705071e-05,0.000671806787850263,-0.00440150304471002,-0.0336080717498837,0.395574486269374,-4.55574262067436e-05,0
0.31,0.000595694450131497,0.000344118184284793,-0.0296760723877843,-0.0172124342697559,8.79998183522082e-05,0.000682294096884113,-0.004447879141957,-0.034016959549528,0.39557452583299,-0.000336565033709365,0
0.32,0.000599223992666377,0.00034518278125026,-0.0298292538471669,-0.0172656904658314,8.76228506366513e-05,0.000685961210204343,-0.0044380316601283,-0.0341788286417823,0.395573480906322,-0.00038184203332774,0
0.33,0.000600079011887348,0.00034546566847558,-0.0298825879415411,-0.0172798320504068,8.75551252046889e-05,0.000686859118490369,-0.00443056463649394,-0.0342334887905988,0.395572455914929,-0.000348582772606886,0
0.34,0.0005999724963409,0.000345540805587969,-0.0298937045846828,-0.0172835950042145,8.76659972940801e-05,0.000686789718625977,-0.00442977793577372,-0.0342451937869495,0.395571738041852,-0.000304278116550295,0
0.35,0.00059964222725999,0.000345560746615999,-0.0298903326057158,-0.0172845941761066,8.78119546687867e-05,0.00068649260078487,-0.00443201384501499,-0.0342424653375105,0.395571313053356,-0.000270089009239824,0
0.36,0.000599349792286871,0.000345566031915204,-0.0298840927250512,-0.0172848599299475,8.792966980877e-05,0.000686224765725674,-0.00443467112854508,-0.0342368087411635,0.395571090926516,-0.000248651687870396,0
0.37,0.000599153516137639,0.000345567430257184,-0.0298789157507754,-0.017284930431729,8.80066628693864e-05,0.000686044176453123,-0.00443673457865649,-0.034232058260499,0.395570988038071,-0.000236910646843149,0
0.38,0.000599040816372737,0.000345567799630783,-0.0298755445631108,-0.0172849354777725,8.80504589897902e-05,0.000685940318463541,-0.00443803967386582,-0.0342289491697652,0.395570947085985,-0.000231199856614818,0
0.39,0.000598983190793766,0.000345567897296563,-0.0298736168880707,-0.0172849400949971,8.80727628174558e-05,0.000685887179458218,-0.0044387871618287,-0.0342271720800134,0.395570934627307,-0.000228770823855688,0
0.4,0.00059895728838645,0.000345567923369804,-0.0298726330023136,-0.017284941707472,8.80827688270546e-05,0.000685863287258567,-0.00443916781757365,-0.0342262647890336,0.395570933397922,-0.000227927868519657,0
0.41,0.000598947334876452,0.000345567930547332,-0.0298721705593171,-0.0172849418171186,8.80866094386272e-05,0.000685854105343095,-0.00443934604198997,-0.0342258381090306,0.395570935509756,-0.000227753996990012,0
0.42,0.000598944657324054,0.000345567932665087,-0.0298719744047198,-0.0172849419050096,8.80876415177787e-05,0.000685851635585486,-0.00443942162700478,-0.0342256571465542,0.395570937886332,-0.000227808863873261,0
0.43,0.000598944599116394,0.00034556793336595,-0.0298718877667739,-0.0172849419850635,8.80876633960999e-05,0.000685851582296729,-0.00443945502574154,-0.0342255772376766,0.39557093963288,-0.000227908268832417,0
0.44,0.000598945297608323,0.0003455679336305,-0.0298718440285086,-0.0172849420628534,8.80873937564189e-05,0.000685852227044557,-0.0044394719149674,-0.0342255369117266,0.39557094069775,-0.000227990219986371,0
0.45,0.000598945996100253,0.000345567933740218,-0.0298718108908345,-0.0172849421406449,8.80871243131435e-05,0.000685852871689146,-0.00443948473634584,-0.0342255063655598,0.395570941267933,-0.0002280434076839,0
0.46,0.000598946461761539,0.000345567933786819,-0.029871775052719,-0.0172849422191352,8.80869447347738e-05,0.000685853301432348,-0.00443949860919036,-0.0342254733264287,0.395570941538738,-0.000228073300939012,0
0.47,0.000598946752799843,0.000345567933805867,-0.0298717363713827,-0.0172849422981483,8.80868325286273e-05,0.000685853570012875,-0.00443951358356358,-0.0342254376631338,0.395570941650203,-0.000228088210445382,0
0.48,0.000598946927422826,0.000345567933812412,-0.029871695192811,-0.0172849423775099,8.80867652215664e-05,0.000685853731156596,-0.00443952952311145,-0.0342253996952478,0.395570941686268,-0.000228094753672175,0
0.49,0.000598946985630487,0.000345567933813777,-0.0298716498224726,-0.0172849424572202,8.8086742789887e-05,0.000685853784870243,-0.00443954707927645,-0.0342253578592939,0.395570941691347,-0.000228097150166773,0
0.5,0.000598946985630487,0.000345567933813765,-0.0298716022893189,-0.0172849425371049,8.80867427931203e-05,0.000685853784869822,-0.00443956546934677,-0.034225314027568,0.395570941686617,-0.000228097740644613,0
0.51,4.71592357281434,-0.00687388594749894,4.20445342361379,0.366984259950918,-2.39923556239654,4.06000629446134,-1.81753007997292,3.80902749357143,0.532276330538699,164.980751574613,1748.34238005163
0.52,4.70452832997676,0.00832650309263183,4.77509895423949,-0.363150827762147,-3.01738993494092,-3.60943404410233,-2.77712887225724,-3.90141048511415,2.44706836541201,361.509431693736,1748.34238005163
0.53,4.63302322189175,0.0568782947790858,8.35144435307382,-2.7693536800394,2.01797360117751,4.17084186465465,1.03722688574517,8.73728235638083,-0.438351097920522,559.206872189179,1748.34238005163
0.54,4.6725657513949,0.029155915843869,6.37564938215289,-1.35993911834732,4.41331841882668,-1.53503788310988,6.47348172621401,-0.769658229431173,-1.89928749522964,756.062095418724,1748.34238005163
0.55,4.64151128852986,0.0868238784005392,7.92991992165204,-4.2120871080855,4.31586858496758,-1.71010051888787,8.90372552248969,1.16145580633946,-1.92934950433981,949.291986542363,1748.34238005163
0.56,4.49750776454178,0.0825248385112187,11.3553418189248,-4.00063994131376,2.37498745770897,3.82018599243675,2.38169354483284,11.8015441202903,-0.537871618630989,1144.25553513294,1748.34238005163
0.57,3.30163963768688,0.0819662554408568,10.1838821046571,-3.96498733343863,-2.74825551158567,-1.83156610779277,-6.05149994923324,-9.10010591368661,2.18346752948361,1303.67737449682,1748.34238005163
0.58,2.38344014522644,0.0543595548078719,11.5576499655523,-2.6189988212908,0.907209370407046,2.20470248453654,1.70913997678305,11.7267756903556,-0.367567492185082,1421.6796375215,1748.34238005163
0.59,1.72783626794758,0.0679392180860743,11.9568089743537,-3.32114311802773,1.37847517610365,-1.04395406750258,11.7075952718122,-4.11430254247896,-2.17966898263706,1507.55837410742,1748.34238005163
0.6,1.25408427715996,0.052740119730739,12.0937030407699,-2.57113334360416,-0.433403333278356,-1.17799424665498,-1.24705946322297,-12.3009439720741,2.83107664976963,1570.21361091586,1748.34238005163
0.61,0.895266009919131,0.0372314190256663,12.8313740430068,-1.80138191072328,-0.844663449230611,-0.299050271046581,-11.2360301121362,-6.45296551509444,1.95263466860456,1615.96924906989,1748.34238005163
0.62,0.611115815262095,0.0174803119234415,14.3813653836155,-0.873825110763683,-0.594314397031024,0.143382350552799,-14.2515461169375,2.1167602363182,1.3626595259267,1649.78429384656,1748.34238005163
0.63,0.486519248061411,0.0145638036441384,11.3150114269745,-0.726472358592696,-0.397336599418178,0.281134682801009,-9.82983111366436,5.65081108843668,0.98494834456093,1674.39340346365,1748.34238005163
0.64,0.348513499017677,0.0101451190208305,11.4928974255266,-0.484767601313611,-0.233035217780735,0.259343728883843,-8.27802312922076,7.98724132182354,0.761118963504636,1692.20878512211,1748.34238005163
0.65,0.246995802931242,0.0167634812499438,11.6455062741075,-0.805561868288452,-0.136139173827978,0.206770564439675,-7.6892435229975,8.78306782098138,0.65002808618729,1705.29418343319,1748.34238005163
0.66,0.183544062574711,-0.0107590458104851,11.20437829489,0.52020725214987,-0.115617199078069,0.142957487563694,-6.10091172186342,9.41209778541538,0.621503656753469,1715.00566744782,1748.34238005163
0.67,0.134031379123219,0.0162496921148122,11.0708343225243,-0.803499424475785,-0.0686311587198488,0.116267911034254,-7.37194396252094,8.29839901037339,0.653894345996721,1722.03614395549,1748.34238005163
0.68,0.0751213551469607,0.0112179939144826,12.1036230534147,-0.536317809196738,-0.0417729962014977,0.0634356222869361,-8.47613053352085,8.65682037415175,0.730570667128918,1727.13094667817,1748.34238005163
0.69,0.0685925066558157,-0.0158389529041504,11.0069841632933,0.770114474068675,-0.0616296552005078,0.0340233742931906,-7.67778032932911,7.92454830818304,0.839435533782985,1730.98523333479,1748.34238005163
0.7,0.0133102145113603,0.0198580077978064,12.7033875455083,-0.985389766785494,0.000171471744402216,0.0239054989798799,-11.0557679773149,6.3338015879596,0.973130908263464,1733.86937593353,1748.34238005163
0.71,-0.00924987375707495,0.00629546068280569,13.082607573296,-0.30621006828323,0.0110614920282462,0.00168415671468624,-11.9323035167474,5.37294316990206,1.12430339314419,1735.90997486303,1748.34238005163
0.72,0.0273934403799152,0.0123074874278183,10.699628459252,-0.63481087914098,-0.0228899110016078,0.0194403394253379,-10.4540669382261,2.36590753610506,1.28897031133969,1737.49679525346,1748.34238005163
0.73,-0.00954036528678107,0.0418975024854682,12.1749417754202,-2.08239964364262,0.0285654563608512,0.0321003736305566,-11.6695547329001,4.04809681783488,1.06749077068706,1738.59751224545,1748.34238005163
0.74,-0.0308823405544831,0.01317719412568,12.8817279243297,-0.690734077083247,0.0334638558947932,0.00274367487167174,-12.4399818116449,3.4150959587754,1.24930110349546,1739.5683346614,1748.34238005163
0.75,-0.0260695474959182,0.0137579115705039,12.4298270313062,-0.701828388542267,0.0276686419744309,0.0101660065273686,-12.4126599270472,0.958663992559791,1.43731322318371,1740.18705843417,1748.34238005163
0.76,-0.0271982657173132,0.0308949736264517,12.3433477669451,-1.52734602767766,0.0253546439378086,0.032425099601939,-12.2335728662821,-2.24292552470607,1.62901170722373,1740.63792240479,1748.34238005163
0.77,0.00812282897931608,8.23334477909803e-05,10.4527841448483,-0.0343223040817466,-0.00788544686849227,-0.00195111688733085,-10.1122409716871,-2.64659345761344,1.82349289810483,1740.97850883838,1748.34238005163
0.78,0.00522401055098212,-0.0211089480357743,10.5611012313584,1.05381298639936,0.00446498866002409,-0.0212824305397586,-9.9702639897693,-3.63884830731008,2.0201980946853,1741.17831165837,1748.34238005163
0.79,-0.0657158214352384,0.00481879574525852,14.0572942111878,-0.222635958200061,0.0495178826217048,0.0434714766255498,-11.0797134512037,-8.6543074332377,2.21806655528734,1741.43103743384,1748.34238005163
0.8,-0.0682399876993981,0.0109252320668914,14.1348568826715,-0.576541107031412,0.0370143616743488,0.0583608914151415,-8.93041826773445,-10.97151804925,2.41762901160098,1741.50691461185,1748.34238005163
0.81,-0.0238569093088593,0.00977238573398759,11.9334649402565,-0.482689900799077,0.00346585994205819,0.0255468091856306,-5.54893413471106,-10.5759115441319,2.6179727564469,1741.65561667762,1748.34238005163
0.82,-0.0730991755906398,0.0414182168666518,14.3804181447484,-2.07192458760363,-0.0160816174748043,0.0824641724619744,-2.59838697164013,-14.29467322677,2.81868796357523,1741.72347768249,1748.34238005163
0.83,-0.0197538216080936,-0.0218963317948152,11.6557828458111,1.07520998913265,0.0241187846646818,0.0169690023422631,-2.47302219114969,-11.4410450358136,3.0207007810218,1742.00092952661,1748.34238005163
0.84,-0.0414918978810681,0.0123820601440022,12.6610540835979,-0.605952319047055,-0.0157862500505682,0.0403198129028844,1.65569086833572,-12.56694698283,-3.05842051980654,1742.25674505074,1748.34238005163
0.85,-0.0349179365368456,-0.0299099371705194,12.3170431025821,1.46375266340843,0.0187443427282289,0.0419823325843418,2.0996076835812,-12.2247196379118,-2.85321632679128,1742.2573053877,1748.34238005163
0.86,-0.0299709731958505,0.0248857231292507,12.0875372916717,-1.25588735012272,-0.0361210182754289,0.0145887110026294,6.83690233651449,-10.047018326584,-2.6476084338689,1742.40878777756,1748.34238005163
0.87,-0.0425796302704938,-0.011317128918373,12.718393503157,0.584629546852182,-0.0187923310749518,0.0398490980286433,7.75072560298998,-10.1007711406285,-2.44115108919427,1742.46255033673,1748.34238005163
0.88,-0.0671198439719579,-0.0242739791730264,13.9300923177249,1.18112554344135,-0.0379203169430057,0.0604677524194052,10.2457544136147,-9.51141661507911,-2.23445624692199,1742.42813353914,1748.34238005163
0.89,-0.0111703752233988,0.000723850673123414,11.1978398535186,-0.0356860880844672,-0.010342057063298,0.00428288432344261,10.0628359721024,-4.91245591130292,-2.02812860990173,1742.44090213877,1748.34238005163
0.9,-0.051051504799645,0.0337606659901062,13.1966454723386,-1.67053460481685,-0.057836924595112,-0.0200232081291441,13.1980448967681,-1.65944222297093,-1.82179198891579,1742.49863091219,1748.34238005163
0.91,-0.0204288808870863,-0.0415869503072486,11.6488061855691,2.05521422658917,-0.000784392676668192,0.0463270799671759,9.66606622346822,-6.81804626191802,-2.01047573581645,1742.56036041239,1748.34238005163
0.92,-0.0410039776674997,0.0387960044223561,12.7297235828729,-1.93200778447771,-0.0488415564526288,-0.0283012103448061,12.8322977683,-1.05387407279755,-1.80336101477228,1742.54095652772,1748.34238005163
0.93,-0.0470080096556979,-0.029619518156838,12.9294298541179,1.45832405826815,-0.0462713050759057,0.0307576844740612,12.8899977502217,-1.7733649964847,-1.59519851803247,1742.80514641163,1748.34238005163
0.94,-0.0516638074581347,0.0287480470210584,13.153059060554,-1.45607902644967,-0.0454880483456065,-0.0377681964926043,12.660158031489,3.85272986328037,-1.38563540186496,1742.92905764784,1748.34238005163
0.95,-0.0349676448218375,0.0115637572741218,12.2888818280901,-0.562052577584652,-0.0278090571399078,-0.0241477329716544,11.1228040807107,5.25506889268427,-1.17512808135922,1743.06550541216,1748.34238005163
0.96,-0.0723789742645858,-0.00200062592733615,14.1720519987103,0.0653775434221534,-0.0606152455817125,-0.0396044242826907,11.6826873532763,8.02285163037002,-0.964418949177336,1742.98208100336,1748.34238005163
