t,iq,id,vq,vd,ia,ib,va,vb,theta_e,omega,r
0,0,0,0,0,0,0,0,0,0,0,0
0.01,0.000873226192175235,0.000481245171423749,-0.0414037689332586,-0.0240851688357809,0.00084485360547144,0.000529474534837552,-0.0411659983509848,-0.0244893450196908,-0.507275088052905,-0.0049704989326424,0
0.02,0.000986978171526074,0.000543392957594738,-0.0472905546962855,-0.0271955175457083,0.000954457254572757,0.000598676178435341,-0.0467454664627778,-0.0281221283554181,-0.507311228865109,-0.00493190186555389,0
0.03,0.00102727696445113,0.000568041854653158,-0.0494634755585141,-0.0284291529609349,0.000995601010076922,0.000621890777438885,-0.048880390232658,-0.0294203943397608,-0.507344951701927,-0.00447784007266362,0
0.04,0.000997623130496449,0.000555288282983673,-0.0483415631911208,-0.0277908616699852,0.00097006323071923,0.000602141441961156,-0.0477782152937455,-0.0287485802687,-0.507372991323319,-0.00369927663833792,0
0.05,0.00101763108270739,0.000568936627015354,-0.0494924351167982,-0.0284739275392329,0.000991728887700508,0.000612972853682882,-0.0489351476386009,-0.0294213699356148,-0.50739771713274,-0.00330578781234816,0
0.06,0.00101512711053328,0.000569972007300331,-0.0495691976898594,-0.0285257520807555,0.000991430173416627,0.000610260068237053,-0.0490183718401165,-0.0294622319849187,-0.507419088415479,-0.00283998450971052,0
0.07,0.00103522027182371,0.000583604642059565,-0.0506612129944697,-0.0292080164171382,0.00101311988925331,0.000621179104145977,-0.0501458421059973,-0.0300842358150449,-0.507436860598714,-0.00259342253135978,0
0.08,0.00100994855650264,0.000571082331307307,-0.049632352654402,-0.0285813125866026,0.000989904560077953,0.00060516119988812,-0.0490986114620001,-0.0294887811156644,-0.507452700087858,-0.00209951714269108,0
0.09,0.00100506061968327,0.000570125005162865,-0.0495238538646406,-0.0285333988951086,0.000986700438993826,0.000601341512320134,-0.0490043954792571,-0.0294165969790224,-0.507465792404126,-0.00179286453659001,0
0.1,0.00100239994631777,0.000570049537612483,-0.0495004026700843,-0.02852961934231,0.000985348123774666,0.000599041903946477,-0.0489900213125931,-0.029397395396689,-0.507476865325199,-0.00154286557599766,0
0.11,0.00100027649402701,0.000570041657986775,-0.0494866545587101,-0.0285292210969076,0.000984314901806135,0.000597180651416017,-0.0489832679107507,-0.0293851135882263,-0.507486253469522,-0.00133174651932391,0
0.12,0.00099848781322646,0.000570039250738955,-0.0494755566155532,-0.0285291051243149,0.000983448273705906,0.000595610739904563,-0.04897800703527,-0.0293750807397369,-0.50749421526329,-0.00115277857072465,0
0.13,0.00104416076320538,0.000596141215961296,-0.0516629468075173,-0.0298354492265387,0.00102846182902275,0.000622834099121615,-0.0511829898649678,-0.0306515195686662,-0.507501934683756,-0.00128025806654698,0
0.14,0.0010789029641093,0.000617380481299026,-0.053635397057655,-0.0308984377795398,0.00106391297630555,0.00064286813850238,-0.0530708156777543,-0.0318584023147149,-0.507508618092718,-0.00136014680320189,0
0.15,0.00100144171124257,0.000573642512016945,-0.0497955106753314,-0.028709432121551,0.000988045055742887,0.000596421160281552,-0.0492917002608205,-0.02956607281254,-0.507514496398747,-0.000744576933511316,0
0.16,0.000993757689350397,0.000570308212059433,-0.0494733992991134,-0.0285425596493929,0.000981398782991305,0.00059132244218248,-0.0489894242461281,-0.0293654773770416,-0.50751828583564,-0.000616014839592664,0
0.17,0.000992446874797616,0.000570053384712036,-0.0494406362484145,-0.02852982023083,0.00098054084075572,0.000590297654007933,-0.0489624585768393,-0.0293428833818835,-0.507521392311387,-0.000542296239957902,0
0.18,0.000991802709601785,0.000570033365195839,-0.049434439651202,-0.0285288032337563,0.000980211820337447,0.000589741841385436,-0.0489586351569914,-0.0293378336136689,-0.507524017266504,-0.000482945098783126,0
0.19,0.000991298204754656,0.000570031332172377,-0.0494311116320309,-0.0285287057683318,0.00097996615812562,0.000589299736413084,-0.0489569977906616,-0.0293348635128834,-0.507526242613707,-0.000432894101842565,0
0.2,0.000990874026576097,0.000570030746925704,-0.0494284562253753,-0.0285286778881562,0.000979760600372514,0.00058892746152773,-0.0489557382097216,-0.0293324639812481,-0.507528129842667,-0.000390471616368787,0
0.21,0.00099051469173545,0.000570030337303902,-0.049426220274201,-0.0285286527083069,0.000979586541122916,0.000588612052579128,-0.0489546764349954,-0.0293304437588307,-0.507529730385114,-0.000354495600518727,0
0.22,0.000990209800008351,0.00057002999645623,-0.0494243137363699,-0.0285286538691772,0.000979438858436472,0.00058834442929047,-0.0489537906455014,-0.0293287105296987,-0.507531087797084,-0.000323984719518543,0
0.23,0.000989951397251226,0.000570029707842046,-0.0494227024504246,-0.0285286283535026,0.000979313694078355,0.000588117611819905,-0.0489530189892837,-0.0293272583967596,-0.507532239011322,-0.000298108606062042,0
0.24,0.000989732070785462,0.000570029463073906,-0.0494213240661277,-0.0285286292162776,0.000979207456683121,0.000587925095135238,-0.0489523784503143,-0.0293260055491072,-0.507533215350657,-0.000276163199951247,0
0.25,0.000989546427608216,0.000570029255465647,-0.049420170335733,-0.0285286063672732,0.000979117535095166,0.000587762143173639,-0.048951822024062,-0.0293249678225951,-0.507534043379212,-0.000257551406391008,0
0.26,0.000999477638083366,0.000575612043543062,-0.0498856476846824,-0.0288080185917747,0.00098882372080851,0.00059372756620098,-0.0494222625329904,-0.0295959413809473,-0.507534598171115,-0.000308928031683351,0
0.27,0.000971256162946258,0.000559551698769548,-0.0485870027654155,-0.0280042271547411,0.000961072175063623,0.000576868192896307,-0.0480886517722319,-0.0288516056223887,-0.507535700411853,-0.000106538263263354,0
0.28,0.000970343188840056,0.000558927802020615,-0.0482629540625387,-0.0279730074625654,0.000960083478061844,0.000576373062479985,-0.0479038857088747,-0.0285835549806971,-0.507536190822471,-9.04183913526231e-05,0
0.29,0.000987365713817047,0.000569182643848874,-0.0493390960560925,-0.028486239466796,0.000977319071178988,0.000586265612150397,-0.0488754569061362,-0.0292745956557625,-0.507536272817759,-0.000196772222670719,0
0.3,0.000978622797764459,0.000564741659023278,-0.0489227934129134,-0.0282639876034448,0.000969187913377592,0.000580784392269189,-0.0484788522685482,-0.0290188489312474,-0.507535063371159,-0.000166723399941817,0
0.31,0.000988272504830662,0.00056962593139004,-0.0493736355449322,-0.0285084146535962,0.000978146716394277,0.00058684346015214,-0.048911599547831,-0.0292940441499256,-0.507535442702198,-0.000220004445177134,0
0.32,0.000989039475916968,0.000569998073027529,-0.0494134615383614,-0.0285270456952601,0.000978844993465909,0.000587332416050682,-0.0489472523908212,-0.0293197714979471,-0.50753591730857,-0.000214883447502653,0
0.33,0.000989024460394323,0.000570026340396393,-0.049416501996882,-0.0285284659861977,0.000978862644117487,0.000587305147223578,-0.0489499835909343,-0.0293217180189146,-0.507536333541273,-0.0002060254737881,0
0.34,0.000988951933804735,0.000570028413896781,-0.0494163160085989,-0.0285285740042936,0.00097882941448361,0.000587240408493385,-0.0489499979844394,-0.0293214856360237,-0.507536687777901,-0.000198107885048153,0
0.35,0.000988885111422807,0.000570028503316221,-0.0494159100335513,-0.0285285830565847,0.000978797191690883,0.000587181671822843,-0.0489498173933127,-0.0293211117255438,-0.50753698831461,-0.000191356653167385,0
0.36,0.000988828107175403,0.00057002845193909,-0.049415547891113,-0.0285285597680264,0.000978769590889082,0.000587131628777556,-0.048949628503382,-0.0293207940751547,-0.507537243208053,-0.000185627702432788,0
0.37,0.000988779445571008,0.000570028398669459,-0.0494152220165964,-0.0285285600253092,0.00097874602042339,0.000587088915564546,-0.0489494766829692,-0.0293204985723408,-0.507537459382994,-0.000180768713914618,0
0.38,0.000988738467377834,0.000570028352751611,-0.0494149571947449,-0.028528560254614,0.000978726171430194,0.000587052945798739,-0.0489493535483835,-0.0293202580472098,-0.507537642719647,-0.000176647802768919,0
0.39,0.000988703426366057,0.000570028313751583,-0.0494147151674631,-0.0285285604622821,0.00097870919775134,0.000587022188697653,-0.0489492406570277,-0.0293200388170271,-0.50753779820679,-0.000173152875423513,0
0.4,0.00098867374045907,0.000570028280671122,-0.0494145084536262,-0.0285285606504612,0.000978694818097488,0.000586996131901504,-0.0489491442193434,-0.0293198516144686,-0.507537930074505,-0.000170188844089166,0
0.41,0.000988648711164943,0.000570028252615094,-0.0494143374405255,-0.0285285608216921,0.000978682694310067,0.000586974161889183,-0.0489490645310084,-0.0293196966011294,-0.507538041910751,-0.000167675063307852,0
0.42,0.000988627407156869,0.00057002822882038,-0.0494141855065216,-0.0285285580689768,0.000978672374860876,0.000586955462124671,-0.048948991062145,-0.0293195605145432,-0.50753813675867,-0.000165543137879098,0
0.43,0.000988609362782033,0.000570028208640079,-0.0494140547714379,-0.0285285582147628,0.000978663634380939,0.000586939623441805,-0.0489489300072,-0.0293194422511413,-0.507538217198528,-0.000163735062144145,0
0.44,0.000988593995959593,0.000570028191525246,-0.0494139376728592,-0.028528558350809,0.000978656190769252,0.000586926135258872,-0.0489488752131729,-0.0293193365081468,-0.507538285418957,-0.000162201641780713,0
0.45,0.000988580957443583,0.000570028177009804,-0.0494138349989931,-0.0285285584783828,0.000978649874966098,0.000586914690763515,-0.0489488271187055,-0.0293192438829057,-0.507538343276669,-0.00016090115532159,0
0.46,0.000988569897988039,0.000570028164699354,-0.0494137447796369,-0.028528558598746,0.000978644517807825,0.00058690498338597,-0.0489487848134638,-0.0293191625759399,-0.507538392345062,-0.000159798218994557,0
0.47,0.000988560584762317,0.000570028154259009,-0.0494136685182204,-0.0285285587127564,0.000978640006624109,0.000586896808500704,-0.048948749068071,-0.0293190938353622,-0.507538433959843,-0.000158862823983009,0
0.48,0.000988552668520454,0.000570028145404649,-0.0494135999014376,-0.0285285588216861,0.000978636172088306,0.000586889859916426,-0.0489487168483941,-0.0293190320876644,-0.507538469253123,-0.000158069519958417,0
0.49,0.000988545916431806,0.000570028137895128,-0.0494135367367541,-0.0285285589263811,0.000978632901391338,0.000586883933329715,-0.0489486871176935,-0.0293189753692842,-0.507538499185068,-0.000157396722618275,0
0.5,0.000988540212081051,0.000570028131526341,-0.0494134812138848,-0.0285285590272679,0.000978630138251966,0.00058687892630218,-0.0489486609644846,-0.0293189255538329,-0.507538524570157,-0.000156826126419792,0
0.51,4.65083017530954,0.00597972687703074,7.45955723955001,-0.287186488848658,-1.01737233176695,4.53819464272505,-1.921289401498,7.21360640215362,0.22181952007928,68.175121952858,5411.58298159553
0.52,4.6659894332574,0.00924105392151509,6.70284536410212,-0.434396206714337,-3.93398485941852,2.50904482108493,-5.89127505362347,3.22640888326741,1.00503509719758,145.939314601213,5411.58298159553
0.53,4.64667471242232,0.0553959949320761,7.66996148098841,-2.73931142527574,-3.24953467806556,-3.32192398699442,-3.31677162119336,-7.43849193165782,2.37913083641061,230.523878714081,5411.58298159553
0.54,4.63694739950315,-0.025070517878784,8.15777243499331,1.30867762515457,4.37228973260966,-1.54434199928056,7.2347307700666,-3.99005750740117,-1.9157357274988,310.188062835955,5411.58298159553
0.55,4.63040041876268,0.0755856428074382,8.48689435713851,-3.72721745108206,-2.74299109794065,3.73126266350877,-8.10442566410912,4.49864539742905,0.650243385652818,391.856128153836,5411.58298159553
0.56,4.55750861635515,0.0121587476256129,12.1333765771152,-0.518895987598595,2.80770438562794,-3.58996221515226,7.90822760460953,-9.21672481751113,-2.47519507520173,470.067062463559,5411.58298159553
0.57,4.57929816183502,0.00596617417611212,11.0458707458821,-0.193951741993839,-4.3710766698821,1.36517251519079,-10.6054646988367,3.09402591047412,1.26937875784435,549.789712824002,5411.58298159553
0.58,4.54291804863426,0.0616534162210483,12.8670376018382,-2.96638167887199,2.92404095515423,3.47733950498357,5.85059983660076,11.8376753826008,-0.68560770385229,629.538624929611,5411.58298159553
0.59,4.50812945414761,0.0538869182234165,14.6086915547966,-2.5921293751462,3.95924117425179,-2.15651206799734,14.1242821945111,-4.54286871156309,-2.05759175981425,709.852808507181,5411.58298159553
0.6,4.53805408695249,0.0403088135931928,13.1148729787865,-1.90098772667659,1.27967373835138,-4.3540779529004,5.62871157553335,-11.9971352241331,-2.84685721300994,789.34424816208,5411.58298159553
0.61,4.47772682798649,0.115378410073907,16.1336810712673,-5.61487648001318,0.261711877338205,-4.47156087030483,6.95219275625686,-15.604150687398,-3.05736978211385,867.396912131858,5411.58298159553
0.62,4.44294021779521,0.111509532955058,17.8756873846444,-5.44151863201505,1.84140765564648,-4.0449190351067,12.7065905578062,-13.7001051416539,-2.68929708650113,946.949333908341,5411.58298159553
0.63,4.44615934638335,0.069456182299618,17.7173936534385,-3.34034121484738,4.36680329497374,-0.839157957537295,18.0282060615876,0.218411317121834,-1.74502913881679,1025.73587328561,5411.58298159553
0.64,4.42714589589965,0.0765872171949752,18.6708184471911,-3.65006202632504,1.05711200775863,4.29976750400197,0.584213959805803,19.0152861754211,-0.223774359076519,1103.86192620727,5411.58298159553
0.65,4.37436907826422,0.0594814259853405,21.3126064734365,-2.78772981706705,-4.19497230343737,-1.24130989132641,-19.5252871085294,-8.98675667602203,1.87208815408939,1182.09871339463,5411.58298159553
0.66,4.36832636190257,0.101471690456994,21.6177873155759,-4.91612438448004,4.2868336161993,-0.845948730763716,22.1397653495068,1.15230102574526,-1.74240473345266,1260.50417640014,5411.58298159553
0.67,4.37823913389604,0.0919510394147112,21.125307849577,-4.40626680478501,-4.35986171958617,0.41114315428488,-21.3904878919308,-2.85321689317728,1.49777124679226,1338.18547757049,5411.58298159553
0.68,4.34788207429434,0.1669918052445,22.6464450989242,-8.10511361300422,3.69402394890997,2.29916329560744,14.2093663971044,19.4074276732166,-0.975679563448754,1415.33529386195,5411.58298159553
0.69,4.32453797644219,0.103099667453713,23.816965409726,-4.94974681802569,1.01894282189752,-4.20404730906103,10.9415311008467,-21.7262682497442,-2.87997008400347,1493.42367095159,5411.58298159553
0.7,4.24446664115295,0.126665077452848,27.8239450393657,-6.14525653528299,-3.79377311107622,-1.90757088764256,-21.5513771332251,-18.6406609083365,2.06652796907379,1570.80826825409,5411.58298159553
0.71,4.29245385899311,0.172454657968859,25.4280902334676,-8.34082278527462,-4.08596054566832,1.32658477297225,-26.7361678274556,-1.15517425475741,1.29701846896733,1647.66975885428,5411.58298159553
0.72,4.31725931178054,0.135529184491058,24.1914174329086,-6.47809182444026,-3.77152201574057,2.10540205419031,-24.4611876812808,5.37034899427128,1.09303345159929,1724.7126554938,5411.58298159553
0.73,4.28408376932953,0.117511944088484,25.8539000734745,-5.56759931749549,-4.24081111706479,0.618630640217482,-26.3281483433285,-2.50018318950277,1.45336550762033,1801.75187794644,5411.58298159553
0.74,4.20995380263381,0.174884752980609,29.5641684053422,-8.52419013981696,-3.04044718993578,-2.91718641542627,-14.313311332219,-27.2365744862704,2.37702479599438,1878.88480748482,5411.58298159553
0.75,4.23248005246231,0.185011333649097,28.4417409428359,-8.962603340241,3.92475965054371,-1.59511074021021,29.7999850841835,-1.10533952988582,-1.91314260929183,1955.16621184243,5411.58298159553
0.76,4.20145205030545,0.123620149349571,29.9970113660551,-5.94041173866996,-0.43848928626102,4.18033592169043,-9.89259376822375,28.9351995164552,0.133925843465069,2031.90901270506,5411.58298159553
0.77,4.19254489407532,0.194570953903831,30.4463775784159,-9.39637466172903,-1.81163516559275,-3.78593034427838,-3.19981409575812,-31.7022862611459,2.7416535201812,2108.01114674677,5411.58298159553
0.78,4.20726559762884,0.151960931862704,29.7144465157493,-7.29969144971567,1.67997799235209,3.86029142410471,4.07208629931939,30.3257636370343,-0.374370784115768,2184.45818784917,5411.58298159553
0.79,4.11042053279013,0.200106281694564,34.5608855486784,-9.72840200891429,0.657558938759072,-4.06241501110046,16.6911589312695,-31.7883914202496,-2.93247612836587,2260.60684401943,5411.58298159553
0.8,4.16182486819955,0.155987385963283,31.99488453166,-7.49964883524853,-4.02662738408709,1.06366827905313,-32.860629434818,-0.310486704828227,1.34999993384125,2336.58252489887,5411.58298159553
0.81,4.1193282856597,0.227309733608989,34.1240517721629,-11.0234739083349,0.614138483751855,4.07962855696501,-7.7616966948759,35.0103406263599,-0.0942905583199417,2412.21075871722,5411.58298159553
0.82,4.11557898843897,0.190349674057789,34.3158824102338,-9.11183241957904,3.53110932590926,2.12261403391453,23.5126605973615,26.6037603971463,-0.983336965993036,2487.82858602167,5411.58298159553
0.83,4.03100329775307,0.196156804179115,38.5491090468763,-9.51501777604133,3.95149745767251,0.820446780924647,34.9337357340653,18.8733536831384,-1.31745207406697,2563.75980722662,5411.58298159553
0.84,4.10640722679779,0.274694589755116,34.7833451212985,-13.3103097642805,3.78027008378648,1.62714336294219,24.8936103037275,27.7011481692477,-1.09754041392573,2639.03382354849,5411.58298159553
0.85,4.04765669787488,0.250171668726682,37.7254298426464,-12.1339636977177,-0.489817075156797,4.02569122518975,-18.7898574604705,34.8910072718626,0.182805661906174,2714.47969988371,5411.58298159553
0.86,4.06990990119062,0.176740963957195,36.6173300849366,-8.49333370421051,-4.05063517333752,0.4333112791872,-37.0804580365063,-6.16483671828972,1.5076269238579,2789.85787784164,5411.58298159553
0.87,3.98555157969117,0.17684046735699,40.8397879548458,-8.5079089295482,0.781523300436131,-3.91217526143056,18.0287100954944,-37.6196545284891,-2.90007989119022,2864.87449415122,5411.58298159553
0.88,4.06465612700687,0.182175627676034,36.8890770378833,-8.73257894453396,2.01889152140815,3.5325195561978,9.08372384724306,36.8041831969742,-0.474422566119365,2939.91580341662,5411.58298159553
0.89,4.01597329208041,0.267923466673256,39.3276748025738,-12.9540886398072,-2.61423341507662,-3.06032810629746,-13.1088780095099,-39.2763508385997,2.5012619526356,3014.67573158501,5411.58298159553
0.9,3.87405131467148,0.316336172265822,46.4281752225738,-15.4512275795516,1.29235650890774,3.66580916258272,-3.11995916302672,48.8321793803446,-0.257464403706852,3089.65563876967,5411.58298159553
0.91,4.00802798359834,0.228826982022707,39.7336687242988,-11.0241471495721,2.32140689197122,-3.27531985413906,33.40250324456,-24.1778623468846,-2.46798319585515,3164.26956666352,5411.58298159553
0.92,3.90208583296041,0.261481593796645,45.0350216672076,-12.7460887729837,-3.40653042601105,-1.92098852894695,-30.6717577473522,-35.3533482468405,2.15116959283588,3238.87484406321,5411.58298159553
0.93,3.81277953681571,0.30408529862649,48,-14.7106959932607,-3.80141925480557,0.423045286458635,-48.4361241120391,-13.2040318694436,1.53955198620239,3312.90687329668,5411.58298159553
0.94,3.85019356594898,0.314019518664673,47.6379345799163,-15.2062873148979,-2.98577419118635,2.45107144584217,-47.8166518316456,14.6346094090275,0.964810165446758,3387.08245661964,5411.58298159553
0.95,3.82472885478457,0.270549374658759,48,-13.0214351234418,-2.91202337282094,2.49436718485761,-46.3190909585479,18.1135194108645,0.933116595890232,3461.08285488652,5411.58298159553
0.96,3.84485358484667,0.338131559544884,47.9128963425079,-16.3789315881168,-3.77112432197519,0.822103028017599,-49.600775608843,-10.1822440992798,1.44387327373366,3535.09690517136,5411.58298159553
0.97,3.77837632958067,0.277576722332907,48,-13.5306438514319,-2.49388348180123,-2.85196804047934,-18.0536345382758,-46.4881124911806,2.49641102564923,3609.07110396027,5411.58298159553
0.98,3.8573332782232,0.24510151912362,47.2966722077438,-11.7698626368855,2.98847155618349,-2.45114922676019,45.269841354119,-18.0595219258655,-2.19427813457255,3682.52062709492,5411.58298159553
