t,iq,id,vq,vd,ia,ib,va,vb,theta_e,omega,r
0,0,0,0,0,0,0,0,0,0,0,0
0.01,0.000492051963875644,0.000280965980919332,-0.0243192325266672,-0.0140612530992998,-9.55765119828292e-05,-0.000558499908634761,0.00488798714079586,0.0276631793386098,-2.79225201822067,-0.000844816201671957,0
0.02,0.000558186702841826,0.000318313044032038,-0.0276170005918656,-0.0159303298210699,-0.000108035382973351,-0.00063342240665781,0.00551561825477848,0.0314014662900752,-2.7922585092633,-0.000932463365103817,0
0.03,0.000584132051803412,0.000333070100872357,-0.0289019967452666,-0.0166688685801658,-0.00011302524613276,-0.000662850842781251,0.00576995412013097,0.0328615919434501,-2.79226528787226,-0.000948239332350041,0
0.04,0.00057084552375821,0.000325608003458359,-0.0282542542962693,-0.0162954073716859,-0.000110565552024638,-0.000647812042660841,0.00564095675978763,0.0321251115808436,-2.79227175723873,-0.000896450253311297,0
0.05,0.000584819319206416,0.000333663885038679,-0.0289491953248635,-0.0166985732870045,-0.000113356490148908,-0.000663698373086209,0.0057821343650277,0.032916032293752,-2.79227817130901,-0.000892796849192781,0
0.06,0.000585813147530642,0.000334321192951576,-0.0290046435883324,-0.0167314691346964,-0.000113638131549792,-0.000664856434829501,0.00579427309233425,0.0329793542754091,-2.79228444545896,-0.000866954733110683,0
0.07,0.000599278799029889,0.000342170527457953,-0.0296741239646835,-0.0171243077874408,-0.000116408939701083,-0.00068019461008246,0.00593446265678915,0.033742817061496,-2.79229045536374,-0.000864185970470647,0
0.08,0.000586679562382858,0.000335014215192007,-0.0290596878619372,-0.016766158381658,-0.000114000736729989,-0.000665906348763456,0.00580842381087723,0.0330428772709838,-2.79229640418763,-0.000815893360138605,0
0.09,0.00058544745327011,0.000334428055279247,-0.0290048980229713,-0.0167368166031823,-0.000113875433524138,-0.000664547387578949,0.00579979295157746,0.0329813210931636,-2.79230210408402,-0.00078866551934108,0
0.1,0.000585180219036715,0.000334379036405445,-0.0289974392135263,-0.0167343690113414,-0.000113924491986675,-0.000664278886360894,0.00580022754073206,0.0329734430659831,-2.79230761600384,-0.000763959675353926,0
0.11,0.000584999715114711,0.0003343739635989,-0.0289940681626196,-0.0167341170723958,-0.000113985041290247,-0.000664106937608087,0.0058013203538794,0.0329701584006347,-2.79231295045571,-0.000740186515588478,0
0.12,0.000584831667711548,0.000334372517442134,-0.0289911327285065,-0.0167340470361589,-0.000114044619824959,-0.000663947953282365,0.00580242932646803,0.0329673462838853,-2.79231811351782,-0.000717188745838875,0
0.13,0.000611264779458004,0.000349573807030848,-0.0302984595187985,-0.0174948126076552,-0.00011928581010025,-0.000693986579608432,0.00607004989467937,0.0344560533384969,-2.79232326643319,-0.000740970062499311,0
0.14,0.000631915620643032,0.000361614730321616,-0.0313560291663529,-0.0180974137761245,-0.000123536383486425,-0.000717510506371397,0.00627453423131479,0.035655955612569,-2.79232828141844,-0.000755199172134309,0
0.15,0.00058834602149103,0.000336596416651828,-0.0291798160267987,-0.0168453432404189,-0.000114941633708851,-0.000668009438217391,0.00584293482890377,0.0331826364960732,-2.79233317304958,-0.000657144571325532,0
0.16,0.000584534283460003,0.000334550285870124,-0.028996750128108,-0.0167429364546439,-0.000114326428067184,-0.000663727120254461,0.00580950569410575,0.0329755528036503,-2.79233770517158,-0.000630519531930901,0
0.17,0.000584083065111932,0.000334382143032939,-0.0289790425101866,-0.0167345273917503,-0.000114325740321774,-0.000663245105243701,0.0058078078120479,0.0329560112915802,-2.79234207462592,-0.000610514092055552,0
0.18,0.000583919805271823,0.000334367552316857,-0.028975371512981,-0.0167338021129682,-0.000114370700249253,-0.000663086225128788,0.00580852182193039,0.0329522891726115,-2.79234630228075,-0.000591637912396233,0
0.19,0.000583784994395721,0.000334365541440924,-0.0289729607991644,-0.0167336914773767,-0.000114417654316947,-0.000662958396406065,0.00580937760931036,0.032949962362989,-2.79235039401176,-0.000573409162612667,0
0.2,0.000583656368592772,0.000334364585158265,-0.0289707181726123,-0.0167336456975746,-0.000114463394723321,-0.000662836754921884,0.00581023247111565,0.0329478164435897,-2.79235435429652,-0.000555769430902443,0
0.21,0.000583532050158945,0.000334363740451246,-0.0289685556136813,-0.0167336042925723,-0.000114507680812012,-0.000662719213186327,0.005811059838141,0.0329457479884868,-2.79235818736688,-0.00053869662111172,0
0.22,0.000583411806260199,0.000334362929419166,-0.028966465929413,-0.0167335628965051,-0.000114550521854765,-0.000662605525328876,0.00581185820563312,0.0329437487218554,-2.79236189731006,-0.000522172254312978,0
0.23,0.000583295345858231,0.000334362144908968,-0.0289644388108718,-0.0167335215092341,-0.000114592013420262,-0.000662495415009258,0.00581263123267246,0.0329418089345697,-2.79236548808105,-0.000506178690617392,0
0.24,0.000583182567564995,0.000334361385576594,-0.0289624732265217,-0.0167334940339745,-0.000114632191551014,-0.000662388786089115,0.00581339246365005,0.0329399323928514,-2.79236896350822,-0.00049069887749094,0
0.25,0.000583073499533992,0.000334360650576913,-0.0289605745534226,-0.0167334526596932,-0.000114671048346502,-0.000662285664335373,0.00581411404970344,0.0329381146120354,-2.79237232729648,-0.000475716311916143,0
0.26,0.000588631803044527,0.00033760157146777,-0.0292376893808738,-0.016895641368597,-0.000115816646081755,-0.000668617024239835,0.0058718012700117,0.0332539791218163,-2.79237555506184,-0.000471288614844945,0
0.27,0.000572573282885785,0.000328408170468035,-0.0284500413860572,-0.0164355553542665,-0.000112674873235803,-0.000650381782990624,0.00570909368508784,0.0323564303341147,-2.79237878841115,-0.000428858783823613,0
0.28,0.000571962382140727,0.000328094275040418,-0.0283896295380746,-0.0164198375992619,-0.000112590931906002,-0.000649700009197268,0.00571509364507477,0.0322942694099631,-2.79238184007422,-0.000414366889883351,0
0.29,0.000581758993711919,0.000333845835415289,-0.0289086384886711,-0.0167076847679134,-0.000114645288967781,-0.000660872927502959,0.00580808036410647,0.0328804244506777,-2.79238473987585,-0.000418827511353588,0
0.3,0.000576822926675455,0.000331132485992712,-0.0286681844988941,-0.0165718941466006,-0.000113786298526675,-0.000655306104264068,0.00576284225962249,0.0326080071019294,-2.79238733231695,-0.000398756353071308,0
0.31,0.000582011217979237,0.000334093138287352,-0.0289265744576918,-0.0167200653002323,-0.000114794896503821,-0.000661193931188909,0.00581375247156593,0.0329014828799521,-2.79239007918519,-0.000395793182601361,0
0.32,0.00058236964369082,0.000334334632320265,-0.0289469961163864,-0.0167321530610459,-0.000114900955771211,-0.000661613042967082,0.00581821178851219,0.0329247922059407,-2.79239276242031,-0.000384624579757952,0
0.33,0.000582322990376496,0.000334353854019627,-0.0289473777460921,-0.0167331164086968,-0.000114936699143039,-0.000661575483228411,0.00581907199917246,0.0329254652843417,-2.79239536154071,-0.000373113981398567,0
0.34,0.000582244612893677,0.000334354921768995,-0.0289461102462244,-0.0167331689732157,-0.000114966183020431,-0.000661501912103488,0.00581963788944598,0.0329242776247026,-2.79239787734657,-0.000361913970700235,0
0.35,0.000582165886083719,0.000334354521591341,-0.0289447415857026,-0.0167331487929655,-0.000114994353267668,-0.000661427519645779,0.0058201673700721,0.0329229704883228,-2.79240031235385,-0.000351068735990508,0
0.36,0.000582089545779102,0.000334354017041769,-0.0289434093275401,-0.0167331213377372,-0.000115021556839777,-0.00066135534282218,0.00582067497880772,0.0329216955212828,-2.79240266914399,-0.000340571453785275,0
0.37,0.000582015591988057,0.000334353519090447,-0.0289421159811216,-0.016733093882798,-0.000115047899700753,-0.000661285419331033,0.00582116677653175,0.032920457556283,-2.79240495022883,-0.000330411333083666,0
0.38,0.000581944024710584,0.000334353036324136,-0.0289408641013585,-0.0167330664276533,-0.000115073391558088,-0.000661217751841888,0.00582164196923233,0.0329192589799289,-2.79240715803978,-0.000320577576066612,0
0.39,0.000581874626147537,0.000334352568976292,-0.0289396453078154,-0.0167330528451822,-0.000115098108732938,-0.000661152135519113,0.00582211653780423,0.032918096650354,-2.79240929493073,-0.000311059701926492,0
0.4,0.000581807599065029,0.00033435211661184,-0.0289384721568247,-0.0167330239326459,-0.000115121982977379,-0.000661088760491348,0.00582255882138212,0.032916972361889,-2.79241136317963,-0.000301847564004807,0
0.41,0.000581742725667219,0.000334351678755843,-0.0289373360855052,-0.0167329964749658,-0.000115145089843554,-0.000661027421699354,0.00582298759462491,0.0329158837983965,-2.79241336499172,-0.000292931341363592,0
0.42,0.000581679788153862,0.000334351254944169,-0.0289362284850151,-0.0167329828851164,-0.000115167504845037,-0.000660967914090564,0.005823417537403,0.032914827105055,-2.79241530250086,-0.000284301528519365,0
0.43,0.000581619047499189,0.000334350844726874,-0.02893516459411,-0.0167329554248421,-0.000115189139660992,-0.000660910482506972,0.00582381744016635,0.0329138070991735,-2.79241717777267,-0.000275948925324416,0
0.44,0.000581560126314039,0.000334350447668449,-0.0289341276990119,-0.0167329418294307,-0.000115210124338625,-0.000660854771961565,0.00582421914887173,0.0329128175529801,-2.7924189928063,-0.000267864627161272,0
0.45,0.000581503125981566,0.000334350063347485,-0.0289331248879006,-0.0167329282305491,-0.000115230425094952,-0.000660800877359615,0.00582460727107888,0.0329118603710768,-2.79242074953695,-0.000260040015449253,0
0.46,0.000581448089676611,0.000334349691355832,-0.0289321603041868,-0.0167329007657301,-0.000115250028031843,-0.000660748838922158,0.00582496742525405,0.0329109346934672,-2.79242244983724,-0.000252466748456337,0
0.47,0.000581394698218719,0.00033434933129859,-0.0289312199505531,-0.0167328871616541,-0.000115269043191067,-0.000660698356391527,0.00582533051366712,0.032910036842861,-2.79242409551985,-0.000245136752406318,0
0.48,0.000581342994782861,0.00033434898279327,-0.0289303078223423,-0.0167328735544028,-0.000115287456617406,-0.000660649470010148,0.00582568220012908,0.0329091658202728,-2.79242568833925,-0.000238042212871291,0
0.49,0.000581293080751014,0.000334348645469598,-0.0289294308020836,-0.0167328460850794,-0.000115305234415925,-0.000660602274725609,0.00582600716354999,0.0329083233418198,-2.79242722999359,-0.000231175566441157,0
0.5,0.000581244695149439,0.000334348318969196,-0.0289285775863472,-0.016732831017368,-0.000115322466632999,-0.000660556525004918,0.00582633400423146,0.0329075077618503,-2.79242872212658,-0.000224529492659908,0
0.51,3.65199779968511,-0.0107481946927869,3.07379238478973,0.540878531640812,-0.179456091435711,3.64760180993494,0.398294260818087,3.09549848854439,0.0462156491557516,14.2655892392513,574.794413741775
0.52,3.58617952322747,0.00435510924042209,2.79578625945128,-0.211823465735176,-0.740330726846368,3.50893330724305,-0.787690617390031,2.69087968524205,0.209149389900367,30.1409107504588,574.794413741775
0.53,3.520031427,-0.012508342636914,2.54737755193883,0.635495102898852,-1.66056879540703,3.1037540143226,-0.632324427586315,2.54816644593871,0.48771567537201,45.8618332143189,574.794413741775
0.54,3.41779988633646,0.00786793546322895,4.0150775851663,-0.381102329027423,-2.63319957323194,2.17891669757728,-3.34152379433846,2.25838564730757,0.881825219238007,61.7468492050605,574.794413741775
0.55,3.33328779702874,-0.0335735238216939,4.31138467921596,1.69448525358884,-3.28773686082308,0.550200920853232,-3.94836919599705,2.42274613175003,1.39491154936095,78.4026966400597,574.794413741775
0.56,3.25373009741017,0.01951924990293,4.40168939785887,-0.961838756240799,-2.9254640318732,-1.42435976709741,-3.51967598934172,-2.81280718825188,2.02989463839264,94.5149666140814,574.794413741775
0.57,3.16106020189146,0.0216047606886496,5.66352588776389,-1.06263481366338,-1.149028649401,-2.9449111240447,-1.02993890003402,-5.66956295412423,2.77641984597424,108.976701919555,574.794413741775
0.58,3.11040310111187,0.0133004945486533,4.92442975700462,-0.642798091441084,1.43927137988521,-2.75740498469211,2.86586341608772,-4.05586300290861,-2.65625103410734,123.185046029065,574.794413741775
0.59,3.03066910269987,0.00085058705258384,5.23348240008366,-0.0226958271607222,3.00632820317086,-0.38333623410449,5.19449930193827,-0.637989133699637,-1.697341056922,138.450192097859,574.794413741775
0.6,2.99712042362402,-0.00642986596701745,3.66162152146393,0.346680663738629,1.76417496085514,2.4229029869915,2.44147741802838,2.75079037120525,-0.631498493170681,152.096608599444,574.794413741775
0.61,2.91918907774192,-0.0381363253624794,4.3542184944056,1.93764948256331,-1.51525800695412,2.49541828623606,-0.541912053936962,4.73497999363244,0.532645253518646,165.799594136092,574.794413741775
0.62,2.86422077452574,0.00749889727125697,3.73379799330394,-0.349080279265101,-2.79106386559333,-0.643256851393223,-3.5569225609111,-1.18802625890757,1.79992930061154,179.529596610596,574.794413741775
0.63,2.77275974641927,0.0255803555713112,5.2895523313126,-1.24823364996242,0.0318202428547786,-2.77269515780204,1.35745801095235,-5.26258100736648,-3.12089153905538,192.362842790184,574.794413741775
0.64,2.74293848524089,-0.00111516413381696,3.53876414458234,0.0846273289514545,2.73185267963634,-0.246360942867148,3.51669695297683,-0.403554205417957,-1.6611405062138,205.511593106115,574.794413741775
0.65,2.67089732897761,0.0330536528153117,4.18088253765474,-1.6223549831745,0.326032708159746,2.65112952514851,-1.15362479664779,4.33370099495302,-0.109989535735967,217.977909532422,574.794413741775
0.66,2.61820074913483,0.0158701985265965,3.78545957317412,-0.761133434734114,-2.61585736802957,0.111880543871092,-3.81082710413482,-0.621791820464967,1.53411366991357,230.204714932073,574.794413741775
0.67,2.5518798488915,0.00141211648005857,4.10399874677434,-0.0425548100343204,0.315099294562554,-2.53235171171337,0.551230490605479,-4.06703351001799,-3.01724604384469,242.491178959866,574.794413741775
0.68,2.51039863563548,0.0245298635286084,3.41210747078216,-1.18942730834065,2.34691911517414,0.891444721132738,2.74457438758746,2.3504310551456,-1.19802150891485,253.871114348276,574.794413741775
0.69,2.44937716330201,0.0488377778513552,3.56960650749837,-2.40945875357424,-1.5533821421772,1.894422745064,-4.15030450439424,1.1500237494744,0.706739815202836,265.449071519955,574.794413741775
0.7,2.33850635724316,0.00436448187769145,6.29656116854386,-0.189190743817203,-1.01648595645039,-2.10603592844658,-2.55581705749527,-5.75762753704829,2.69378451588181,276.82261910379,574.794413741775
0.71,2.32242725126824,0.01058660418376,4.46232845314084,-0.495940720346954,2.32011699568765,0.10410350591024,4.43239645866958,0.715677339994744,-1.52139807405561,287.612318272853,574.794413741775
0.72,2.24395579268299,0.00874577782371133,5.72710773944833,-0.397994565803554,-1.30838172162836,1.82306098599419,-3.67981829474352,4.40648386486652,0.626393557537932,298.153499506179,574.794413741775
0.73,2.19117704956617,0.0342940063108865,5.70867315199108,-1.67980071470964,-0.65968647588662,-2.08979585006446,-0.0234680212357488,-5.95064104524732,2.85147183000037,308.657997509619,574.794413741775
0.74,2.13537190715581,0.0429361140739553,5.8948034911701,-2.11627618251602,1.95066059948573,0.869816025016766,4.43391629390318,4.42354149735884,-1.13124576945762,318.957898531808,574.794413741775
0.75,2.11190687337211,0.0337876606353958,4.54839397063163,-1.66084134720719,-1.98846828869939,0.712240207124327,-4.84094770722416,-0.107270632478322,1.24284541533161,328.950810199589,574.794413741775
0.76,2.04947573968265,-0.00316228465212831,5.22226361458552,0.186965590809191,1.06927886900489,-1.7484288684106,2.55809353456056,-4.55666005543643,-2.59425541424112,338.637066280826,574.794413741775
0.77,2.00748987163326,0.00649209252441484,4.92284667993043,-0.29613086511319,0.16249234734605,2.00091328373556,0.0873630346675306,4.93097156993918,-0.0777973468028052,348.069392102508,574.794413741775
0.78,1.95032286279543,0.0162948948496906,5.41287306012141,-0.77810739981021,-1.1687063827351,-1.56145771114525,-2.58034833856478,-4.82145707668268,2.50742536855189,357.285745879258,574.794413741775
0.79,1.87058599942765,-0.00511442785103544,7.06455671138991,0.297003390210108,1.68423553970467,0.81392185461671,6.49763108991284,2.7887206316945,-1.12336517518149,366.295890264944,574.794413741775
0.8,1.89569197564163,0.017255245456838,3.5264387391636,-0.82099113700755,-1.8955719891839,-0.0274343549080154,-3.50610669856422,-0.903887408033667,1.59437027529532,375.085803453484,574.794413741775
0.81,1.77758848094196,0.00824814780866623,7.18456320009398,-0.371855526501434,1.67522549739232,-0.594565700664342,6.90459145999387,-2.02060428568139,-1.90720460692092,383.701106533451,574.794413741775
0.82,1.78748995685545,0.0147268880946911,4.48801440741832,-0.69530851513113,-1.43123440337579,1.07093665064074,-4.02740363211213,2.09898719301913,0.936647891102241,392.102048996496,574.794413741775
0.83,1.67726563543453,0.000863661310828141,7.8348362918759,-0.00906336821254436,1.07952216522377,-1.28368713186315,5.05267938600906,-5.98791891121933,-2.44185868174264,400.322495477472,574.794413741775
0.84,1.66567812081685,0.00351649987322489,6.29221435078205,-0.150634990557607,-0.827495615098905,1.44559571628149,-3.26800996735513,5.37910431111309,0.522008348490705,408.335205727658,574.794413741775
0.85,1.64145186792514,0.0136502642351586,5.41674168960247,-0.658218011593833,0.629733552933341,-1.5159110187404,2.72529007749608,-4.72727569284524,-2.73955196362544,416.143131044692,574.794413741775
0.86,1.61600313847052,0.00733582859659221,4.64649111194553,-0.341095364570757,-0.52954865215892,1.52679343164832,-1.86425839858033,4.26975014777717,0.338393801785744,423.736794701909,574.794413741775
0.87,1.55621467484675,0.0452879732312147,5.64942804431988,-2.23843591677277,0.460927155657402,-1.4870780987915,3.94673146968137,-4.62059988396237,-2.81193496721739,431.083715508786,574.794413741775
0.88,1.52501852841718,0.0116271737869915,5.27263373902721,-0.54915078398554,-0.546715421261048,1.42369903818937,-2.43877900601585,4.70686627059834,0.374270952939034,438.23292907918,574.794413741775
0.89,1.46984841141163,0.0442291755645562,6.13509678665392,-2.17673776675634,0.627540209640537,-1.32988866368006,4.72358938200261,-4.47943112873352,-2.67061583972115,445.227647974066,574.794413741775
0.9,1.44464591785484,0.00754779883199364,5.53131906405317,-0.338504512992199,-0.831520911575666,1.18136860075687,-3.48309492149413,4.31023498913179,0.618538085797773,452.08386609938,574.794413741775
0.91,1.44257128183501,0.0181406241013776,3.78344449270816,-0.885926551665094,1.03817134263736,-1.00176905958631,3.36252789362175,-1.94749178405574,-2.32577706785425,458.846346138221,574.794413741775
0.92,1.37401573064746,0.0254172350201738,5.38884137819645,-1.24900678261269,-1.18719860103383,0.692188374365008,-5.31380065070858,1.53725469161872,1.06143458184226,465.360261560931,574.794413741775
0.93,1.339837943447,0.0488182536146811,5.34078608904566,-2.41289005806484,1.29801507118233,-0.335716862206536,5.73463492099664,1.20830327490147,-1.78746898274047,471.649618398857,574.794413741775
0.94,1.320040681667,0.0347047847980094,4.61307289093991,-1.69966720390444,-1.31446018326661,-0.12611998235988,-4.37207460521276,-2.24817120068884,1.69273626610495,477.81946188323,574.794413741775
0.95,1.25670239481771,-0.0189753079479283,6.07277568567232,0.967775392668822,1.09039571604496,0.625058520366755,5.78209213190906,2.09346705664636,-1.06538382228229,483.908896229037,574.794413741775
0.96,1.22659003256266,0.00118757321084706,5.8999608863053,-0.0380100009882001,-0.731857660098986,-0.984331693925698,-3.48516071418207,-4.7607392300387,2.5032281212881,489.771648558809,574.794413741775
0.97,1.17545133695357,-0.00553693986245504,6.84242818518511,0.308197538269521,0.192259671241594,1.15963473648518,1.45474234506734,6.69309598776821,-0.169009241369258,495.410186702209,574.794413741775
