t,iq,id,vq,vd,ia,ib,va,vb,theta_e,omega,r
0,0,0,0,0,0,0,0,0,0,0,0
0.01,0.000946122103122848,0.000514643097155053,-0.0455192378411522,-0.0257506724724604,-0.000948915840958281,0.000509473530465897,0.0456590523568674,-0.0255019427553304,1.57625221107615,-0.00688629661163659,0
0.02,0.00111446446251327,0.000601771418945254,-0.0539951226868509,-0.0301102253389601,-0.00111770049592489,0.000595739439917848,0.0541570666283576,-0.0298179656942366,1.57620091333495,-0.00701253414295886,0
0.03,0.00117001799914278,0.000635235761192912,-0.0569115404299427,-0.031784661454272,-0.00117340389415804,0.000628959372130789,0.0570809805052245,-0.0314793551781778,1.5761529158689,-0.00629471891513598,0
0.04,0.00113521532235169,0.000622199070837075,-0.0554911586553578,-0.0311323552482541,-0.00113850762725271,0.000616154115899561,0.0556559109622556,-0.0308368579329844,1.57611354514486,-0.00504697276067925,0
0.05,0.00115445928776924,0.000637867415585295,-0.0565999364453365,-0.0319163439894092,-0.00115781349928281,0.000631758646842774,0.0567677840819395,-0.0316168390212039,1.57608009310878,-0.00438702293898205,0
0.06,0.00115019804641803,0.000639891136684069,-0.0565626551310452,-0.0320176068081856,-0.00115354516463973,0.000633837333964305,0.0567301452654011,-0.0317198946934509,1.57605193753843,-0.00366383061567395,0
0.07,0.00116545777254439,0.000652713926435771,-0.0574188508040312,-0.0326591989679203,-0.00116885745239686,0.000646606174826425,0.0575889694790682,-0.0323582802265626,1.57602932841013,-0.00323626554494495,0
0.08,0.00114099923165952,0.000641805710878299,-0.0563738041928414,-0.0321133782390461,-0.00114432965164122,0.00063584861841345,0.0565404547695945,-0.0318190483129886,1.57600964993292,-0.00255469728671158,0
0.09,0.00113312129723551,0.000640390060388765,-0.0560919998096949,-0.0320425669673938,-0.00113643448331996,0.000634491898147409,0.0562577866102858,-0.0317505903287211,1.575993950941,-0.00210635230518689,0
0.1,0.00112858362034529,0.000640204265487582,-0.0559517037595175,-0.0320332553016202,-0.00113188777925391,0.000634344184836461,0.0561170375909941,-0.031742726581416,1.57598114578834,-0.00175612739709183,0
0.11,0.00112516525723112,0.000640178180467454,-0.055850947097756,-0.0320319627602342,-0.00112846267239786,0.000634347661642469,0.0560159425958309,-0.0317425440866032,1.57597065547588,-0.0014716695632815,0
0.12,0.00112241011348914,0.000640173139685323,-0.0557705890110156,-0.0320317046582324,-0.00112570208320581,0.000634366559256851,0.0559353112230303,-0.0317431828953963,1.5759620543104,-0.001238826203919,0
0.13,0.00116978108286687,0.000667396654545334,-0.0580661330196166,-0.0333938474264256,-0.00117320757973864,0.000661354709044473,0.0582375873421484,-0.0330939310200049,1.57595378419503,-0.00142504815592826,0
0.14,0.00119899308367055,0.000685641335059994,-0.0596917271092781,-0.0343067399481326,-0.00120250837410929,0.000679457184250568,0.0598676221239018,-0.0339988604571835,1.57594655239224,-0.00148777156537814,0
0.15,0.00112834079967895,0.000646056535233974,-0.0561791162002244,-0.0323260934034928,-0.0011316491670759,0.000640243836046139,0.0563446574007923,-0.032036682009175,1.57594031987098,-0.000756157373795215,0
0.16,0.00111640312218447,0.000640929518326041,-0.0556330094039742,-0.0320695457576676,-0.00111968308072056,0.00063518216082712,0.0557971283943736,-0.0317831396087235,1.57593686639951,-0.000573861429320412,0
0.17,0.00111387286015476,0.000640265055299892,-0.0555279991566437,-0.0320363008678985,-0.00111714780536587,0.000634533585079425,0.0556918670235069,-0.0317505781218983,1.57593429588717,-0.000490281477340466,0
0.18,0.00111294369950959,0.0006401786035434,-0.0554959918238674,-0.0320319708281699,-0.00111621690155175,0.00063445421537183,0.0556597722540325,-0.0317465276255642,1.57593222914838,-0.000432142010802128,0
0.19,0.00111236250967035,0.000640167079282851,-0.0554782754879518,-0.0320313877649015,-0.00111563458900688,0.000634447559794434,0.05564199955795,-0.0317461295035417,1.57593054077377,-0.000386104734500161,0
0.2,0.00111191431057165,0.000640165317551271,-0.0554650825466985,-0.0320313138240803,-0.00111518550896389,0.000634449642167524,0.0556287624878127,-0.0317462002652808,1.57592915720049,-0.000348609592733172,0
0.21,0.00111155140025984,0.000640164868522733,-0.0554544770578842,-0.0320312800030986,-0.00111482188135663,0.000634452320634742,0.0556181209496929,-0.0317462839782176,1.57592802272282,-0.000317901481671405,0
0.22,0.00111125430835505,0.000640164629202557,-0.0554457977587893,-0.0320312782684636,-0.00111452420187966,0.000634454642779303,0.0556094122211832,-0.0317463785184205,1.5759270923862,-0.000292724840548926,0
0.23,0.00111101076749816,0.000640164449613126,-0.0554386784802852,-0.0320312763362846,-0.00111428017925132,0.000634456562873276,0.055602268805666,-0.0317464555349778,1.57592632944048,-0.000272079010409651,0
0.24,0.0011108114207256,0.000640164304478625,-0.0554328526913108,-0.0320312506687017,-0.00111408043739241,0.000634458137439007,0.0555964230986719,-0.0317464945392594,1.57592570376464,-0.000255147948065386,0
0.25,0.00111064762436824,0.000640164185724016,-0.0554280531055572,-0.0320312513567222,-0.00111391631703732,0.000634459430410266,0.0555916072903212,-0.031746548370314,1.57592519066089,-0.000241263155471755,0
0.26,0.00112048187279677,0.000645729315942797,-0.0558955500099719,-0.0323097084340645,-0.00112377886794234,0.000639974243778882,0.0560605206615904,-0.0320226137778121,1.57592501745421,-0.000317657938431417,0
0.27,0.00109582171619803,0.000631416047251994,-0.0547320842302227,-0.031593543366639,-0.00109904494423405,0.000625788837366166,0.0548933630138932,-0.0313124851084809,1.57592392534831,-8.87786470442602e-05,0
0.28,0.00109519119042349,0.000631141446208951,-0.0545139820638733,-0.0315798072127254,-0.00109841286529551,0.000625517742400051,0.0546751856049177,-0.0312998808803006,1.57592368008708,-7.76146033175287e-05,0
0.29,0.00110787010082784,0.000638995442615617,-0.0553037579193447,-0.0319727864694592,-0.00111113201366059,0.000633306390470182,0.0554669727478113,-0.0316887937418999,1.57592389259901,-0.000186761640509585,0
0.3,0.00109452212473293,0.000632348043096814,-0.054658936373442,-0.0316401565603054,-0.00109775137244294,0.00062672534130821,0.0548205163620109,-0.0313593657212499,1.57592587789059,-0.000125851282787457,0
0.31,0.00110823973107632,0.00063915206029664,-0.0553105148846978,-0.0319806017806684,-0.00111150360480572,0.000633459070675805,0.0554738278754442,-0.0316964724836954,1.57592572806086,-0.000234656512598893,0
0.32,0.00111026682011068,0.000640033113208966,-0.0554093073780625,-0.0320246910573974,-0.00111353489768102,0.000634330221169678,0.0555728307717258,-0.0317400797329731,1.57592527286228,-0.000240149629127058,0
0.33,0.00111047381503188,0.000640147129178794,-0.0554215859508273,-0.032030402892445,-0.00111374220454735,0.000634443648149557,0.0555851249629483,-0.0317457521821536,1.57592484711673,-0.000231439635833179,0
0.34,0.00111041386223851,0.000640161824909427,-0.0554208009185088,-0.0320311423599547,-0.00111368210113994,0.000634459049209118,0.0555843323864147,-0.0317465155330352,1.57592448969483,-0.000222211254462684,0
0.35,0.00111032829711543,0.000640163670672112,-0.0554184315161599,-0.0320312358805005,-0.0011135963598088,0.000634461661603144,0.0555819541479485,-0.0317466375674483,1.57592419527431,-0.000214314124995927,0
0.36,0.00111025262717805,0.000640163862612734,-0.055416223129858,-0.0320312507921755,-0.00111352053853,0.000634462510652024,0.055579738195428,-0.0317466772342734,1.57592395362006,-0.000207785910076193,0
0.37,0.00111018953007379,0.000640163848843492,-0.0554143563462482,-0.0320312511063266,-0.0011134573164287,0.000634463041116643,0.0555778651455066,-0.0317466981365528,1.57592375541158,-0.000202424057527656,0
0.38,0.00111013772525572,0.000640163815382615,-0.0554128166378164,-0.0320312513786868,-0.00111340540898681,0.000634463454266737,0.0555763202982225,-0.0317467153376576,1.57592359285966,-0.000198025618299584,0
0.39,0.00111009542275162,0.000640163785070386,-0.0554115569257248,-0.0320312251496841,-0.00111336302230546,0.000634463789268229,0.0555750562361782,-0.0317467029763443,1.57592345955357,-0.00019441834409566,0
0.4,0.00111006061457049,0.000640163759839034,-0.0554105119147773,-0.0320312253598241,-0.00111332814509163,0.000634464064213801,0.055574007769431,-0.031746714619827,1.57592335023162,-0.000191460060075906,0
0.41,0.0011100319764014,0.000640163739099107,-0.0554096440852072,-0.0320312255469118,-0.00111329945031116,0.000634464290112392,0.0555731371060462,-0.0317467242385583,1.5759232605789,-0.000189034026768495,0
0.42,0.00111000846050646,0.000640163722083939,-0.0554089247244909,-0.0320312257148776,-0.00111327588799082,0.000634464475511856,0.0555724154215558,-0.0317467321804271,1.5759231870567,-0.000187044485666471,0
0.43,0.00110998925197841,0.000640163708129208,-0.0554083324757626,-0.0320312258667534,-0.00111325664138908,0.000634464627159335,0.0555718212672427,-0.0317467387193276,1.57592312676241,-0.000185412903574236,0
0.44,0.00110997341949469,0.00064016369668493,-0.0554078366089586,-0.03203122600603,-0.00111324077768308,0.000634464751930023,0.0555713238379231,-0.0317467441485753,1.57592307731651,-0.000184074876450498,0
0.45,0.00110996061380932,0.000640163687299799,-0.055407432703362,-0.0320312261340047,-0.00111322794639059,0.000634464853337224,0.0555709186509729,-0.0317467486006407,1.57592303676691,-0.000182977587766796,0
0.46,0.00110994990359974,0.00064016367960296,-0.0554070848998261,-0.0320312262541531,-0.00111321721518389,0.000634464937567155,0.0555705697969216,-0.0317467523518036,1.57592300351305,-0.00018207772375714,0
0.47,0.00110994117245063,0.000640163673291394,-0.0554067960929788,-0.0320312263669136,-0.00111320846681476,0.000634465006375396,0.0555702801286867,-0.0317467554606243,1.5759229762422,-0.000181339763687254,0
0.48,0.00110993407111602,0.000640163668114908,-0.0554065560440625,-0.0320312264735885,-0.00111320135135745,0.000634465062501049,0.0555700393734719,-0.0317467580407345,1.57592295387771,-0.000180734577728379,0
0.49,0.00110992825034994,0.000640163663870138,-0.0554063531595929,-0.0320312265754861,-0.00111319551900983,0.000634465108513428,0.0555698359099461,-0.031746760201906,1.57592293553743,-0.000180238277098345,0
0.5,0.00110992347732176,0.000640163660388583,-0.0554061806305605,-0.0320312266734749,-0.00111319073648359,0.000634465146244663,0.055569662906183,-0.0317467620201969,1.57592292049651,-0.000179831271103323,0
0.51,4.67920103725619,-0.0100158578528655,6.04079924598535,0.511320957337138,-1.07275845088457,4.55458142648956,-0.874375817523094,5.99901421747275,0.229177381857799,70.3259278282095,4298.471778501
0.52,4.68217742874558,0.0612769433962402,5.89295743310258,-3.04285960169276,-3.99723865304804,2.43898000988635,-6.6209881225657,0.385302666506042,1.03602170518904,150.128023864231,4298.471778501
0.53,4.7154295615136,-0.0254561077747797,4.23146376115467,1.30970178284716,-3.01231805571318,-3.62792831988778,-3.72375050875463,-2.39880938603047,2.44324077310666,235.480220627902,4298.471778501
0.54,4.6442288268175,-0.0421398126702783,7.79282482054893,2.14937996007541,4.53946938534734,-0.981761100853333,7.12808029091359,-3.81292856775818,-1.79286151160944,320.708409047501,4298.471778501
0.55,4.69331831475462,-0.0119879397551339,5.33982848198095,0.665076265503936,-3.52732844256679,3.09601914925766,-3.56419703931591,4.03145062239926,0.847871629803031,400.974746479107,4298.471778501
0.56,4.55533693130614,-0.0320958985233717,12.2405165960948,1.67266837748858,3.75420200976119,-2.58032788116718,9.08132684002858,-8.37601151293974,-2.18000524398461,484.633980626973,4298.471778501
0.57,4.61916919450103,0.107598275320866,9.05056398646846,-5.31707097542557,-4.60573847103288,-0.368068706530545,-8.45568696646433,-6.21975161530089,1.67383174050942,568.268944083734,4298.471778501
0.58,4.57499758218448,0.0807672822083205,11.2610228491631,-3.96919570979594,0.767471503568157,4.51088835176398,-2.23157676816386,11.7296724302014,-0.150871616583133,650.179542070406,4298.471778501
0.59,4.60020449539808,0.0441694183895928,10.0027007545518,-2.12837495263738,4.51996471245061,0.856592864319362,9.39307845433418,4.04401773918565,-1.3739029593932,731.872686420693,4298.471778501
0.6,4.54091011507465,0.0786078287394947,12.9695721454642,-3.84175735956914,4.10108431869801,-1.95119227008915,13.3965258868186,-1.871361913154,-1.99756728013653,813.485424864911,4298.471778501
0.61,4.51573109737554,0.0911771864932529,14.2306571082015,-4.44757168398801,4.02203389987092,-2.0550873293927,14.7436811607245,-2.21728695624104,-2.02298298195777,894.4972417435,4298.471778501
0.62,4.53159082608654,0.0211017645415033,13.4400329796449,-0.905622590660104,4.50274924815187,0.510891287659381,13.2408600701197,2.47674451128209,-1.45316085480245,974.942774205057,4298.471778501
0.63,4.45698380468779,0.0480236149467892,17.1728751491745,-2.28669453779553,1.31169478030565,4.25986709958899,2.68401658481398,17.1152758602005,-0.287931671908628,1057.11087897255,4298.471778501
0.64,4.47468993321358,0.0768201539629221,16.2901922288114,-3.67064923328178,-4.44412207965423,0.527759675977256,-16.5773505088624,-2.00885010683662,1.46976137851237,1136.77426949486,4298.471778501
0.65,4.51415508673706,0.0898970373725665,14.3196200313963,-4.33808619630813,2.76029094640764,-3.57301994335638,12.3577298548302,-8.4354621998563,-2.46391120329656,1217.91922355459,4298.471778501
0.66,4.43969737743062,0.125266413010901,18.0453160014001,-6.12263252136108,-1.92098659097578,4.00454928733362,-13.7040473311286,13.2408136203257,0.475484591442578,1298.75681299379,4298.471778501
0.67,4.40714466758697,0.0861440084097569,19.675910587563,-4.164290938304,3.28892976402449,-2.93484001583373,17.6453288921284,-9.65013703308057,-2.27981866919079,1378.94520374234,4298.471778501
0.68,4.38983649888248,0.0476795991657317,20.5443488035695,-2.23012021523706,-4.24943674537791,-1.10237252239404,-19.2455020828062,-7.52690862956634,1.83547836124928,1458.94166079315,4298.471778501
0.69,4.39744914658969,0.0752697916970397,20.1668758190745,-3.58637962526162,-1.03013881176776,4.27575005898079,-8.53014174124193,18.62261208834,0.253535265703086,1538.53613989017,4298.471778501
0.7,4.32864934012675,0.141980501990709,23.6099818080601,-6.88210163194033,3.03430383978406,3.09036628583037,10.9139483271006,22.0381554528201,-0.743456443111686,1617.93275273695,4298.471778501
0.71,4.26963638448599,0.119197247612103,26.5638821454358,-5.7801417576126,3.95604986387391,1.61048822228172,21.9862572841456,15.9891952270918,-1.15627837706203,1697.90472987692,4298.471778501
0.72,4.29749435935921,0.128529922610257,25.1743227121995,-6.21163969911218,3.65230209543563,2.26840629372406,17.5450667231749,19.091925661098,-0.985114842575701,1777.28933779508,4298.471778501
0.73,4.28613549798765,0.0233773670339681,25.7456896930258,-0.986342402788736,1.01023178001303,4.1654454454537,4.97174456492995,25.2803315857645,-0.232478576317882,1856.86665389216,4298.471778501
0.74,4.33332965562675,0.18427301019488,23.3894722815884,-8.93845891858166,-3.78105577968626,2.12492814879037,-24.9027114552188,2.6112111420712,1.10129080624656,1935.5305458088,4298.471778501
0.75,4.24637890125359,0.120739135807207,27.7406038579138,-5.77246392254928,-0.655075244541671,-4.19728342334846,2.22942909689729,-28.2469836981003,3.01519618809969,2014.64353603397,4298.471778501
0.76,4.26542546119287,0.141829103466586,26.7919258131455,-6.82716641695893,3.08695639721888,2.94697642699292,13.8777401049495,23.912879785618,-0.775354175035176,2093.64515853067,4298.471778501
0.77,4.2029070356082,0.151126262375136,29.9216032224325,-7.27739578275298,-2.65340077392787,3.26293288776576,-25.1776019835226,17.7299516958968,0.718677129959759,2172.31434960006,4298.471778501
0.78,4.23557965439841,0.205733075261073,28.2917974948376,-9.97612300665414,3.91337178256056,-1.63339597111935,29.9982185577567,-0.236048922588331,-1.91766780824644,2250.84241311263,4298.471778501
0.79,4.16411546607945,0.0875775441250202,31.8689180618909,-4.16311882112505,-3.14999911581664,-2.72489137607932,-20.8693575341811,-24.4423692154595,2.30498866194665,2329.70872484175,4298.471778501
0.8,4.24602749523727,0.0864269357153553,27.7771964226825,-4.043607753084,-3.04550050567431,2.95992327188823,-23.06780276995,15.9937450314732,0.819999154724932,2408.10209730087,4298.471778501
0.81,4.11386325091059,0.187182146558583,34.3894837969889,-9.04206014029628,0.560272202455876,4.07982880306738,-5.87935438215664,35.0689127212851,-0.0910047699307141,2486.1594839527,4298.471778501
0.82,4.16318596238023,0.191433427057283,31.9274823953082,-9.26076037396093,1.90711291706723,3.70562875041605,4.87058332678168,32.8846960281453,-0.429351099066524,2564.17517248246,4298.471778501
0.83,4.12593929146987,0.155791687171435,33.7939724138181,-7.53403156210514,0.955716730884968,4.01674639689801,-0.81373218844378,34.6140440141019,-0.195848536423342,2642.47440403314,4298.471778501
0.84,4.0829835173523,0.0511332542876759,35.9459984867266,-2.31237897909129,-2.29328552633115,3.37849234235993,-22.4558576157557,28.1637419831173,0.608871371788921,2720.33866456475,4298.471778501
0.85,4.02568717140137,0.137019086417329,38.8151592395187,-6.60843110436749,-3.74217944784683,-1.49031017313209,-32.8988949294977,-21.6321672716405,1.98381328714961,2797.94944689829,4298.471778501
0.86,3.99905175807748,0.173908697274172,40.1513217700323,-8.45018234444631,2.7074407544289,-2.94829166807283,34.3866258221609,-22.3851331490737,-2.35529394847187,2875.56694347468,4298.471778501
0.87,4.0835346092349,0.158234518809901,35.9315264231484,-7.62930179470777,-0.484047746360521,4.05783080561592,-13.1692194858582,34.290705666484,0.157456323913525,2953.17540612425,4298.471778501
0.88,4.024575639555,0.214801120781023,38.8839281111087,-10.3844000317844,0.17480574769034,-4.02651108908975,14.0904149925344,-37.6995468766954,-3.04488442400719,3030.35064241902,4298.471778501
0.89,3.96200584944984,0.226981834118468,42.016901929624,-11.0007023565221,3.40258999178388,2.04239870052512,28.5377286875871,32.7419233010845,-0.972967234499251,3107.80101055129,4298.471778501
0.9,4.06184516130508,0.272889458946159,37.0294209044582,-13.3012504117681,0.136848964367702,-4.06870091456388,16.9565973226604,-35.50457832834,-3.04088795726184,3185.10647656367,4298.471778501
0.91,3.9715113211078,0.159975970099596,41.5506254307897,-7.72537013745021,-3.94184293543664,-0.510263419269854,-39.6594197092156,-14.6036381007842,1.73978751529051,3262.27231620901,4298.471778501
0.92,3.93015853179645,0.249203465327916,43.6227251542726,-12.0348271008545,-2.65184065053902,2.91135528857827,-39.7235238346683,21.6753516093559,0.802106694348051,3339.01209934188,4298.471778501
0.93,3.7351605304088,0.202647940152815,41.9321787468731,-9.74660723697098,-1.35721932903045,3.48574899676928,-26.1862522804232,34.1699306203206,0.425503469953835,3414.29920040016,4298.471778501
0.94,3.40373321974086,0.149736207255991,42.8541121405962,-7.14438899110357,-1.74223063320942,2.92787519946421,-29.4845508804703,31.9089091131608,0.580734877224397,3484.15126212827,4298.471778501
0.95,3.15013525026175,0.219454814307888,41.0980325461091,-10.644839605987,-2.89219808016763,1.2675577996838,-42.2821660961717,3.81828752374407,1.22729430071996,3548.480082013,4298.471778501
0.96,2.82178661482226,0.182668029853953,44.2035190965092,-8.80405333929455,-2.17835478849225,-1.80294695545201,-26.1210984374657,-36.7307864350442,2.32682441391786,3607.70689654555,4298.471778501
0.97,2.53689824482862,0.175672747361999,46.1961561962569,-8.46928712622273,-2.05896920162435,-1.49243406740219,-30.0090106979902,-36.1285613976432,2.26713977951198,3662.40541975692,4298.471778501
0.98,2.43378336754228,0.116340659931245,40.0462235316132,-5.66973365574687,2.02317695251458,-1.35778925024928,37.2107257259307,-15.8495359496927,-2.1141078505087,3713.0108449234,4298.471778501
0.99,2.18976783300312,0.174737881311214,41.7767846449346,-8.51580404898464,-0.139124609092494,2.19231859745913,-14.3827740031403,40.1366972463423,0.143003766342713,3759.459066483,4298.471778501
