t,iq,id,vq,vd,ia,ib,va,vb,theta_e,omega,r
0,0,0,0,0,0,0,0,0,0,0,0
0.01,0.0011486568169806,0.000647653484446416,-0.0567222949294801,-0.0324142155567118,-0.000400919468759072,0.00125623688000374,0.0195038688147199,-0.0623514170928143,0.822328927543027,-0.00149447255135191,0
0.02,0.00129630134232038,0.000729685381587907,-0.0641195109844526,-0.0365198236941591,-0.000453263477272591,0.00141682396449787,0.0221293266626148,-0.0703939067888485,0.822317708015816,-0.00158243715978303,0
0.03,0.00135326768229727,0.000762300246961475,-0.0669695503253054,-0.0381521471382307,-0.000472792280173614,0.00147949401697877,0.0231059584659666,-0.0735297333423687,0.822306462864394,-0.00154563477495387,0
0.04,0.00132046689607378,0.00074518739292022,-0.065401314074549,-0.0372956591465523,-0.000460389661652733,0.00144463782092165,0.0225390181965418,-0.0718351636219308,0.822296235962355,-0.00139599441921128,0
0.05,0.00135105729072646,0.000763411331139886,-0.0669479271837784,-0.0382077463178125,-0.00047038701748012,0.00147881328000666,0.0230508083732582,-0.0735562170467605,0.822286486756897,-0.00133827847107146,0
0.06,0.00135157318588594,0.000764726140779722,-0.0670131118278421,-0.0382735687826846,-0.000469856700247489,0.00148013203074262,0.023053101105329,-0.0736490173297732,0.822277349083911,-0.00124552426257647,0
0.07,0.00138213728211293,0.000783251627724231,-0.0685523120304061,-0.0392007335853042,-0.000479630692593066,0.00151451014445657,0.0235492539338612,-0.0753760548018977,0.822268999021891,-0.00120208288538504,0
0.08,0.00135065592264648,0.000766153726040557,-0.0670390527559055,-0.0383450144356002,-0.000468188928328687,0.00148056140726965,0.0230222830451086,-0.0737193950725748,0.822261040380699,-0.00107745456986835,0
0.09,0.00134670428507606,0.000764910599899158,-0.0668764041536561,-0.0382827844553148,-0.000466128917040463,0.00147696462042224,0.0229449298298581,-0.0735632735356314,0.822253775738764,-0.000997723695671348,0
0.1,0.00134501695209497,0.000764816477201041,-0.0668227024500994,-0.0382780731750013,-0.00046494678441988,0.00147575043041792,0.0229082961141198,-0.0735234276803869,0.822247059065035,-0.000926706827441904,0
0.11,0.00134360911985924,0.000764805899590861,-0.0667805647506336,-0.0382775582618372,-0.000463913328547335,0.00147478742692431,0.0228773163278495,-0.0734945147105375,0.822240842241762,-0.000861186476329101,0
0.12,0.00134231805244522,0.000764801652488491,-0.0667421539075783,-0.038277343203606,-0.000462961807245332,0.00147390830332202,0.0228488973265777,-0.0734683469387261,0.822235087539214,-0.000800553053542918,0
0.13,0.00140341489995527,0.000799988201313882,-0.0697707234994663,-0.0400383811848755,-0.000483769463852386,0.00154127272392067,0.0238688681066555,-0.0768199385631846,0.822229475277775,-0.000827037194343933,0
0.14,0.00145247298775302,0.000829183591662068,-0.0722991085372774,-0.0414995520702829,-0.000499834182356837,0.00159605419675569,0.0247264533060038,-0.0796114088823025,0.822224242803313,-0.000840876179581247,0
0.15,0.00134759535177696,0.000769456280201715,-0.0670702686908901,-0.0385102807614067,-0.000463637118121308,0.0014809175608294,0.0229295992764773,-0.0738626843785868,0.82221933341958,-0.000646660523000218,0
0.16,0.00133853758468629,0.000765126499005388,-0.0666431327485551,-0.0382935938403018,-0.00045994154653114,0.00147158254911935,0.0227638237684027,-0.0734133148630999,0.822215146995611,-0.000591404079845583,0
0.17,0.00133703994592965,0.000764810474509467,-0.0665862496988945,-0.0382777764384021,-0.000459053723141847,0.00147033348537009,0.0227326311799162,-0.0733630990189872,0.822211299745675,-0.000549997029878888,0
0.18,0.001336192620649,0.000764785420810503,-0.0665600866327969,-0.038276513861094,-0.000458444748697461,0.00146974006945203,0.0227140610135191,-0.0733444481757009,0.822207740638059,-0.000512429817354456,0
0.19,0.00133545017106125,0.000764781607876748,-0.0665379261147535,-0.0382763364154877,-0.000457898547708096,0.001469233469242,0.0226977042995629,-0.0733293103784127,0.822204446236135,-0.00047771445825696,0
0.2,0.00133476627847431,0.000764779481857777,-0.0665175774535697,-0.0382762345435204,-0.000457394463128692,0.00146876784384804,0.0226826416515863,-0.0733154554567313,0.822201396707412,-0.000445584017622354,0
0.21,0.0013341334922184,0.000764777615134981,-0.0664987536413231,-0.038276138414855,-0.000456927980464342,0.00146833708539258,0.022668708965296,-0.0733026373444314,0.82219857383878,-0.000415842068331372,0
0.22,0.00133354785416902,0.000764775894146826,-0.0664813335318921,-0.038276045122129,-0.000456496251797451,0.00146793842504437,0.0226558182104187,-0.0732907718583069,0.822195960782793,-0.00038831074699027,0
0.23,0.00133300550680258,0.000764774301280583,-0.066465195210919,-0.0382759806283146,-0.000456096439547775,0.00146756923206268,0.0226438612389987,-0.0732797954123349,0.822193541944833,-0.000362825720208947,0
0.24,0.00133250392061092,0.000764772826564003,-0.0664502777439959,-0.0382758871824464,-0.000455726675676411,0.00146722778455531,0.0226328316438588,-0.0732696245632411,0.822191302889392,-0.000339234893097968,0
0.25,0.00133203922226088,0.000764771461219956,-0.0664364482353758,-0.0382758225189802,-0.000455384108434812,0.00146691144631259,0.0226225917755412,-0.0732602114724866,0.822189230253884,-0.000317397477264595,0
0.26,0.00134494235690778,0.000772308924459541,-0.0670790423400044,-0.0386530601706843,-0.000459704516576303,0.00148121665385043,0.022836486789151,-0.0739739944368261,0.822187357793714,-0.000315961751394489,0
0.27,0.00130639016246081,0.000750398039526887,-0.0651917962804898,-0.0375564496701363,-0.000446370004885015,0.00143892539523046,0.0222000589205274,-0.0718861224300454,0.822185435486595,-0.000243366235864412,0
0.28,0.00130461139943451,0.000749462393937651,-0.0650228669810038,-0.0375096133885629,-0.000445701276763964,0.00143702997719331,0.0221080551406392,-0.071736867961232,0.822183789931733,-0.000224092466326169,0
0.29,0.00132845016350651,0.000763658046464463,-0.0662898354158661,-0.0382201029635093,-0.000453502393440674,0.00146365604839183,0.0225525995907392,-0.0731197565757959,0.822182366132633,-0.000242261241718334,0
0.3,0.00131743986981715,0.000757873066747923,-0.0657525454890002,-0.0379305702223357,-0.000449371923047725,0.0014519243336559,0.022355958145776,-0.0725419639316368,0.822181427864169,-0.000217546842348586,0
0.31,0.00132899471583423,0.000764266045646648,-0.066326323864811,-0.0382505419800967,-0.000453484262033387,0.00146447313643225,0.0225584513545598,-0.0731669424786556,0.822180133538096,-0.000220173468707647,0
0.32,0.00132964391520612,0.000764728465831297,-0.0663636308870422,-0.0382736613983082,-0.000453643335441854,0.00146525434375966,0.0225699572778651,-0.0732093005691167,0.822178894544614,-0.00020839178346052,0
0.33,0.00132945860045473,0.000764761269284819,-0.0663595171747407,-0.03827530967393,-0.000453483556214251,0.00146515276799536,0.0225657373900658,-0.0732077341975732,0.822177744443264,-0.000196373792849296,0
0.34,0.00132922555297891,0.000764762998633931,-0.0663526848936524,-0.0382754012116538,-0.000453310081617904,0.00146499589920082,0.0225605916024736,-0.0732031750476425,0.822176679573987,-0.000185162052220896,0
0.35,0.00132900496176307,0.000764762524703422,-0.066346120104898,-0.0382753792141991,-0.000453147348691425,0.00146484585808731,0.0225557248644739,-0.0731987129859702,0.822175693832689,-0.000174776828639874,0
0.36,0.00132880055225808,0.000764761935639124,-0.0663400317200078,-0.0382753455213515,-0.000452996656906206,0.00146470671286633,0.0225512204847906,-0.0731945649487504,0.822174781356188,-0.000165162964438113,0
0.37,0.00132861127674924,0.00076476137942747,-0.0663343917985527,-0.0382753146873902,-0.000452857129919767,0.00146457786138187,0.0225470476871733,-0.0731907227064672,0.822173936700148,-0.000156263618436421,0
0.38,0.001328436087494,0.000764760863733696,-0.0663291708461861,-0.038275283805198,-0.000452727987476771,0.00146445859846235,0.0225431864714888,-0.073187164169837,0.822173154824056,-0.000148025721775378,0
0.39,0.00132827357170527,0.000764760386282937,-0.0663243194165478,-0.0382752845464712,-0.000452608189202701,0.00146434796301458,0.0225395787124593,-0.0731838789942597,0.822172431061654,-0.000140400114590176,0
0.4,0.00132812352815442,0.000764759944290111,-0.0663198470773784,-0.03827525066329,-0.00045249758320548,0.00146424581803096,0.0225362761928433,-0.0731808252554207,0.822171761093763,-0.00013334128810138,0
0.41,0.00132798466047887,0.000764759535126992,-0.0663157072019464,-0.0382752196514513,-0.000452395215637646,0.00146415128108505,0.0225332189382948,-0.0731779987792779,0.822171140921692,-0.000126807115798142,0
0.42,0.00132785567230273,0.000764759156356775,-0.0663118517931658,-0.0382752202624181,-0.000452300132954073,0.00146406346974023,0.0225303519441206,-0.0731753880457731,0.822170566844716,-0.000120758602246037,0
0.43,0.00132773682806218,0.00076475880572337,-0.0663083096279003,-0.0382751891773815,-0.000452212525382868,0.00146398256390263,0.0225277391383761,-0.0731729663303813,0.82217003543647,-0.000115159650383473,0
0.44,0.00132762634992214,0.000764758481137697,-0.0663050062395301,-0.0382751897147534,-0.000452131087197114,0.00146390735344474,0.0225252826357355,-0.0731707294094074,0.822169543525726,-0.000109976846098493,0
0.45,0.00132752438589807,0.000764758180665498,-0.0663019623585399,-0.0382751556573706,-0.000452055923838319,0.00146383793903954,0.0225230424781416,-0.0731686429470782,0.822169088176822,-0.000105179258815088,0
0.46,0.00132742985665707,0.000764757902516409,-0.0662991363948246,-0.038275156130937,-0.000451986241786823,0.00146377358598976,0.0225209409471259,-0.0731667293406178,0.822168666672186,-0.000100738256902045,0
0.47,0.00132734256096802,0.000764757645032558,-0.0662965297107344,-0.038275124929585,-0.000451921891049249,0.00146371415726683,0.0225190239182888,-0.0731649410703594,0.822168276496155,-9.66273368022667e-05,0
0.48,0.001327261419489,0.000764757406678818,-0.066294098918361,-0.0382751253493346,-0.000451862078500533,0.00146365891817296,0.0225172163525322,-0.0731632950299395,0.822167915320508,-9.28219648634426e-05,0
0.49,0.001327186448022,0.000764757186034944,-0.0662918546053477,-0.0382751257432288,-0.000451806813519795,0.00146360787940706,0.0225155473886134,-0.0731617752892017,0.82216758098955,-8.92994309191463e-05,0
0.5,0.00132711731312281,0.000764756981785526,-0.0662897891836383,-0.0382750944732737,-0.000451755849785273,0.00146356081396189,0.0225140328550649,-0.0731603535499269,0.822167271508182,-8.60387127582932e-05,0
0.51,4.69468067628084,0.00324877554082739,5.266547222637,-0.157273219149728,-0.229499879421978,4.68906888541132,-0.418175485440194,5.25227415288883,0.0495965800193807,15.2460513518898,3990.61295504178
0.52,4.6883904464226,-0.000223491063646164,5.58208844570397,0.0229322549764609,-1.03968195252487,4.57165904958463,-1.21524446257835,5.4482490949068,0.22356797932719,32.254070055421,3990.61295504178
0.53,4.69186405125825,0.0737745648291279,5.40957253956353,-3.67338120422623,-2.27990179093199,4.1013508488802,-5.88454088151769,2.85120731377242,0.523077021204674,49.5604787615134,3990.61295504178
0.54,4.68355919046487,0.0465043597484101,5.82595329774613,-2.30105177572418,-3.79089290928809,2.75082174929107,-6.08192476913468,1.49892034633881,0.952998021106276,68.0053841827247,3990.61295504178
0.55,4.59547319099594,0.000106211812754609,10.2315213078578,0.0186287618974621,-4.5900073684808,0.224067440149843,-10.2184556585074,0.51724197338884,1.52204180337576,86.9424782018601,3990.61295504178
0.56,4.69739672515217,0.0429494772344359,5.1367466524739,-2.11359059996343,-3.76009403594543,-2.81586105692605,-2.80092535769934,-4.79669141560643,2.22272355907844,104.061495497922,3990.61295504178
0.57,4.59209141271166,0.0346987266653461,10.4034762491431,-1.69005508756054,-0.459268333820319,-4.56919907006494,0.72060299486658,-10.5151954612962,3.04897119549898,121.75255948526,3990.61295504178
0.58,4.63142189712482,0.0176255628828215,8.43850977531765,-0.839195922255048,3.52395553326585,-3.00534804127562,6.98355724588896,-4.81067824921319,-2.27312757212365,139.984860351988,3990.61295504178
0.59,4.55481392302753,0.0591685045538441,12.2705850934827,-2.90147870898014,4.24183035757324,1.66033309998526,10.27481867249,7.30848400713282,-1.18471956740443,157.260794026197,3990.61295504178
0.6,4.59730518856042,0.1117450517868,10.1476468799708,-5.53628090901357,-0.0543598614745061,4.59834176185545,-5.89915226286954,9.94108374794068,0.0361229289705452,175.285277006365,3990.61295504178
0.61,4.54803908507192,0.0154870806677128,12.6127365640419,-0.724098452020311,-4.46679656662755,0.855936797534576,-12.5292234718239,1.61987696916641,1.38487450344053,193.186864243012,3990.61295504178
0.62,4.61187390240742,0.0350605172410002,9.42273543925214,-1.67418372382208,-1.29543545122117,-4.42633676117117,-0.967551116775726,-9.52127507929873,2.86448047551649,210.410321959118,3990.61295504178
0.63,4.54966216437463,0.0605103256780777,12.535213297267,-2.95081964242586,4.40661272115351,-1.133512962089,12.8775044857327,-0.0937400130159087,-1.809268852899,228.212281082838,3990.61295504178
0.64,4.57384724096675,0.0972273038349563,11.3278308679641,-4.7921076470852,0.421007477780024,4.5554675320941,-3.97757138448406,11.6388562047903,-0.0709022594126539,246.083188098418,3990.61295504178
0.65,4.53992580065862,0.0181151765817971,13.0259159730744,-0.833771494938997,-4.42876849507334,-0.998631089118588,-12.5087051210724,-3.7285329604851,1.79656471924877,263.773837505958,3990.61295504178
0.66,4.51321835279038,-0.017905425162011,14.363395285836,0.970980950755957,2.75109832910213,-3.57783712427294,7.93802913339224,-12.0098968197617,-2.49005472285551,281.351051849011,3990.61295504178
0.67,4.52934586870723,0.0227701092503556,13.5592052754641,-1.05993289089637,1.63651443707501,4.22342431842878,3.84519920282853,13.0456869702574,-0.364644227341212,298.878937074666,3990.61295504178
0.68,4.47910203573159,0.0544686759059472,16.0736130508259,-2.64013067676309,-4.2707854287716,-1.35118973669208,-14.4379039205015,-7.54176749047828,1.88937182020719,316.375223519001,3990.61295504178
0.69,4.5680258252445,0.0966927959503725,11.6298053673622,-4.73820387850816,4.09016527546039,-2.03635887218029,12.5397528339015,-0.67642275368053,-2.01157204494737,333.74738019924,3990.61295504178
0.7,4.52249546864163,0.101852061816793,13.9086438073891,-4.97779154734236,-2.07320124182192,4.02059395080981,-11.0228528948986,9.8349120640218,0.49860293881064,351.086040929977,3990.61295504178
0.71,4.53852691990492,0.0307499257575008,13.1093447536884,-1.40154477546123,-0.0519673930901938,-4.53833356538401,1.34024272369809,-13.1157537743835,3.13691759469191,368.563174896417,3990.61295504178
0.72,4.44913883724371,0.0484492205015818,17.5812125717833,-2.32783590649995,1.6936828868103,4.11444066659898,4.35282185889712,17.1921725609804,-0.379614289513577,386.258041255435,3990.61295504178
0.73,4.55035527492513,0.0613255201816372,12.5229031354589,-2.93799946160049,-2.71867697456212,-3.64942316749514,-4.96577750912164,-11.8657489231128,2.51480074960524,403.502045325769,3990.61295504178
0.74,4.40643169077214,0.102459007479104,19.7216366483417,-4.98969968024251,3.0679589668386,3.16461148823189,9.73222380624132,17.8640385907962,-0.746643796199855,420.91369584363,3990.61295504178
0.75,4.49219056378556,0.10296727525196,15.4363271500663,-5.02138557603704,-3.10069306435102,-3.25208868910771,-6.68048514327505,-14.7941078554128,2.40293875323062,438.326475132805,3990.61295504178
0.76,4.41157428370018,0.100104969550263,19.4697948978337,-4.88473430425201,2.58681815239234,3.57496580570877,7.03149211573351,18.8013739182333,-0.603697402887935,455.682701020782,3990.61295504178
0.77,4.50084595255657,0.0778974273574193,15.0088515103796,-3.73944608013391,-1.58001482384308,-4.21511986238468,-1.50033654323817,-15.3947416640838,2.80026380916968,472.956560673227,3990.61295504178
0.78,4.47571469954584,0.0170755640208649,16.2681139004598,-0.725124325699369,-0.198349727030454,4.47135002347214,-1.50722967892122,16.2143638130219,0.0481462204812184,490.469234886282,3990.61295504178
0.79,4.38535446376616,0.0405300651678796,20.7889808565387,-1.89756277754343,2.31176797465257,-3.72675533009977,12.7245773789605,-16.5489455880155,-2.57712643225252,507.680628281911,3990.61295504178
0.8,4.40312261977626,0.0986059268798438,19.9034846548451,-4.74862767628901,-4.08084533174494,1.65647617307848,-20.2920968859159,2.63229371200727,1.2075920708123,524.817014972582,3990.61295504178
0.81,4.47933892815134,0.135429729590709,16.0956415345163,-6.59349245155534,4.16821759554523,1.64583733129862,12.1796063886729,12.4177698212425,-1.16450892130186,542.077859954706,3990.61295504178
0.82,4.38581944074586,0.119506125164754,20.7746069984911,-5.80489501554382,-1.27938617743336,-4.19676838648128,0.0822715366413602,-21.5702186701364,2.87293354728688,559.348082288011,3990.61295504178
0.83,4.48623044513815,0.1164948237743,15.7571559186599,-5.64880036408348,-2.9839925906149,3.35195806507271,-14.899484771494,7.62904068295926,0.753348874523194,576.553314267611,3990.61295504178
0.84,4.39092561529107,0.105606289556207,20.525462616778,-5.09887687339958,4.18740517753211,1.32552567934023,17.7586151622859,11.4858499259163,-1.2401790913655,593.745151916682,3990.61295504178
0.85,4.40547986453396,0.0967763250442375,19.8008865564624,-4.64012649293904,0.0521319533545412,-4.4062343053159,5.30651241494544,-19.6327992981744,-3.10779806987143,610.888711348285,3990.61295504178
0.86,4.34386571545081,0.213890349925549,22.8847899510201,-10.4870750256338,-4.27377300670905,0.80609101395893,-24.1042249708126,-7.25800883521343,1.43357286777623,628.024744887664,3990.61295504178
0.87,4.22517995939682,0.0878773375146804,28.8223821954499,-4.23674618986058,0.85377191824099,4.13895417072481,1.06828869174858,29.1125143704381,-0.182628502497135,645.234268823483,3990.61295504178
0.88,4.28970579848824,0.116159409289055,25.5993996316105,-5.65235960534064,2.48957753535344,-3.49529291210529,19.923872078231,-17.0387133322113,-2.49560994254683,662.401693030407,3990.61295504178
0.89,4.29886830356551,0.0860206857398993,25.1445303945201,-4.09233773327227,-2.89687981048861,-3.17738188031575,-13.4869559811537,-21.6124190049733,2.42234790636984,679.411590420099,3990.61295504178
0.9,4.23626245587316,0.164745304519454,28.2781493367241,-8.05272288110376,-3.8586136248764,1.75617809584333,-29.2220244990894,3.25167032224019,1.18255264415653,696.561679558842,3990.61295504178
0.91,4.25362512563799,0.152188049938288,27.4133950581797,-7.42359639442213,-0.137984616571287,4.25410956107062,-9.27414540991516,26.8438864354411,0.0681874172344312,713.66391801275,3990.61295504178
0.92,4.21837244423763,0.143630799337472,29.1794606269678,-6.94413914538602,3.44593749580667,2.43737782459252,19.0347484197508,23.1806027434154,-0.921139288336241,730.675622960512,3990.61295504178
0.93,4.26343428297058,0.118645742860285,26.9298245737115,-5.72404550244542,4.14035655744282,-1.02391223976861,27.5310702406541,-0.142547848498625,-1.78541117487813,747.751794266846,3990.61295504178
0.94,4.19904718019618,0.0714026072055116,30.1527226613713,-3.4059878659302,2.37047116530318,-3.46669323827411,20.2187100479263,-22.6272225700443,-2.52482982591247,764.836995673859,3990.61295504178
0.95,4.25240498154123,0.150378043976202,27.4884697802609,-7.26300767208846,-0.141649623409039,-4.25270467671279,7.31941273279238,-27.4735044825404,-3.13954014213406,781.691911089183,3990.61295504178
0.96,4.20541050703793,0.119473213316079,29.8417690359355,-5.7472513298159,-2.07758896945456,-3.65832959906647,-8.91770682274578,-29.052307689162,2.65350747297427,798.745744133188,3990.61295504178
0.97,4.22904448310782,0.0532928501306742,28.6637471086315,-2.46524176739525,-3.22246723698844,-2.73922658327416,-19.9837492187263,-20.6963180890308,2.28791467082408,815.778675016267,3990.61295504178
0.98,4.21613188835426,0.174373319979858,29.3130208963238,-8.54113271978221,-3.82741015841273,-1.7768245929178,-22.141390798411,-21.0229150147473,2.0467613343053,832.777483588789,3990.61295504178
