t,iq,id,vq,vd,ia,ib,va,vb,theta_e,omega,r
0,0,0,0,0,0,0,0,0,0,0,0
0.01,0.000968349947180967,0.000550220128632642,-0.0478570142748876,-0.0275360720576887,0.000611636237150096,0.000930776516443541,-0.0305706119054755,-0.0459778943341017,-0.0646557383715649,-0.0015199496498175,0
0.02,0.00110053741949111,0.000624179905138045,-0.054455842047135,-0.0312374188759181,0.000693994492903146,0.00105790113408503,-0.0346911876542988,-0.0523233845448315,-0.0646673553383471,-0.00165890613303621,0
0.03,0.0011519382602512,0.000653356268668325,-0.0570108660582082,-0.032697559261389,0.000726444773168204,0.00110730039319751,-0.0363140435866165,-0.0547782755182045,-0.0646793313702604,-0.00166434590462472,0
0.04,0.00112529737456892,0.000638734814154106,-0.0557211886884365,-0.0319658299861392,0.00071014414504394,0.00108165227188963,-0.0355010892333645,-0.0535381902831969,-0.0646905796244302,-0.00154780675580066,0
0.05,0.00115251231108368,0.000654569351302908,-0.0570831846179739,-0.0327582791272628,0.000727717054498091,0.00110777865634664,-0.0363805302594724,-0.0548457093631668,-0.0647015665918911,-0.00152041842604046,0
0.06,0.00115414360751776,0.000655894004572824,-0.0571844851404863,-0.0328245660575369,0.000729156153089172,0.00110931317328376,-0.0364538098401487,-0.0549421261491252,-0.0647121525999043,-0.00145410056322715,0
0.07,0.00118000029445374,0.000671180546453914,-0.0584775576246957,-0.0335895981962156,0.000746094080536309,0.00113411976609076,-0.0373014199631698,-0.0561826478680389,-0.0647221229004613,-0.00143113032355269,0
0.08,0.00115514047203996,0.000657280516791861,-0.0572725797847421,-0.0328939677842498,0.000730626104067587,0.00111020389296466,-0.0365298473857346,-0.0550248285936981,-0.0647318575322811,-0.00132734397002561,0
0.09,0.00115229045454244,0.000656111013435871,-0.0571503805652157,-0.0328354312790179,0.00072928484476941,0.00110742880979823,-0.0364640321941369,-0.054906337541062,-0.0647410254010485,-0.00126298847933268,0
0.1,0.00115140966909615,0.000656009734903198,-0.0571242764037229,-0.0328303761351814,0.000729136447648757,0.00110655006171706,-0.0364577775280677,-0.0548802970977776,-0.0647497483104403,-0.00120472978995712,0
0.11,0.0011507323805097,0.000655998227871697,-0.0571073702158659,-0.0328298024801212,0.000729090328082811,0.00110586888012116,-0.0364565669429356,-0.0548631605960775,-0.0647580557650982,-0.00114950793445949,0
0.12,0.00115010154189056,0.000655994394843584,-0.0570919684256929,-0.0328296043323615,0.00072905442492113,0.00110523384323326,-0.036455806498709,-0.0548475154575703,-0.0647659682490024,-0.00109693463231246,0
0.13,0.00120175949445758,0.000685732000446515,-0.0596513973147865,-0.0343178316189193,0.000762082049157708,0.00115485289509396,-0.0381070095583839,-0.0573049613135569,-0.06477378493444,-0.00112988974729951,0
0.14,0.00124142026158049,0.000709054667060321,-0.0616887992996657,-0.0354850427617406,0.000787931931421335,0.00119291494172436,-0.0394040952244107,-0.0592622434470934,-0.0647812819985799,-0.00114544692783485,0
0.15,0.00115645823930601,0.000660437561884714,-0.0574495953703323,-0.0330519527692987,0.000733924714467009,0.00111127311940022,-0.0367020775992348,-0.0551891754783364,-0.0647884900576975,-0.000960528889924254,0
0.16,0.00114851041655738,0.000656356321958903,-0.057071060582961,-0.0328477003322422,0.000729344644353755,0.00110360146251657,-0.0364741025602395,-0.0548244217079024,-0.0647949910129329,-0.000905270407048349,0
0.17,0.00114736589170016,0.000656011678710871,-0.0570268867517537,-0.03283046482803,0.000728933407821837,0.00110247716484433,-0.0364543804275596,-0.0547812320148481,-0.0648011508491973,-0.000863281694925837,0
0.18,0.00114684176023623,0.000655980635657335,-0.0570126790035316,-0.0328289193355233,0.000728874951444272,0.00110195186942817,-0.0364522393094676,-0.0547669404040735,-0.064807015048179,-0.000824226100150629,0
0.19,0.00114639236881178,0.00065597600394212,-0.0570015988039789,-0.0328286920249388,0.000728847378216102,0.00110149965060606,-0.0364516007255944,-0.0547556945971823,-0.0648126002404437,-0.000787109555385987,0
0.2,0.00114596882170356,0.000655973684125845,-0.0569912650140424,-0.0328285723988669,0.000728823488658064,0.00110107326593763,-0.0364511032868622,-0.0547451963446928,-0.0648179199152994,-0.000751764632418064,0
0.21,0.00114556576370126,0.000655971649770612,-0.0569814388460827,-0.0328284644315327,0.000728800928354233,0.00110066749343171,-0.0364506364131914,-0.0547352131171114,-0.0648229867147646,-0.000718100489797752,0
0.22,0.00114518191421927,0.000655969726540391,-0.0569720811301224,-0.0328283535698117,0.000728779454221197,0.00110028105768365,-0.0364501837176719,-0.0547257063302959,-0.0648278126607529,-0.000686036647232872,0
0.23,0.00114481626167296,0.000655967895690681,-0.0569631647073325,-0.0328282729263721,0.000728758995166289,0.00109991294206948,-0.0364497771239799,-0.0547166463191528,-0.0648324092026618,-0.000655496982208307,0
0.24,0.0011444679550073,0.000655966151723732,-0.0569546693044182,-0.0328281922780096,0.000728739503056609,0.00109956228970015,-0.0364493857677486,-0.0547080144126201,-0.0648367872454216,-0.000626409037586944,0
0.25,0.00114413617931501,0.000655964490437957,-0.0569465753374616,-0.0328281116235975,0.000728720932771034,0.00109922828005578,-0.0364490089582051,-0.0546997906888249,-0.0648409571752747,-0.000598703804646738,0
0.26,0.00115492727712313,0.000662296205661442,-0.0574857494511706,-0.0331449805411622,0.000735742908353928,0.00110958354903247,-0.0368003645985775,-0.0552171557620324,-0.0648448786018877,-0.000590678340470099,0
0.27,0.00112360554061249,0.000644429832070486,-0.0559510428164863,-0.0322508478076643,0.000715888698166653,0.00107948255715168,-0.0358088742580689,-0.0537434731007889,-0.0648488109418124,-0.000514200242430501,0
0.28,0.00112239791422838,0.000643848408583846,-0.0558326445871068,-0.0322217402248579,0.00071523412591319,0.00107831256889149,-0.0357723485820258,-0.0536270810471206,-0.0648524159858659,-0.000488752637658166,0
0.29,0.00114112532383414,0.000654942454999884,-0.0568275462788597,-0.0327769592858018,0.000727522175582002,0.00109627921082782,-0.0363910591814452,-0.0545837877739499,-0.0648557530452329,-0.000497421422430676,0
0.3,0.00113108985111501,0.000649539797771823,-0.0563388594333193,-0.0325065804665103,0.000721483508652841,0.00108661297016317,-0.0360897279468424,-0.0541135509146824,-0.064858544950019,-0.000462937373152577,0
0.31,0.00114146607707086,0.000655417816413263,-0.0568559450688495,-0.0328007591301265,0.000728025066845484,0.00109658416057323,-0.0364169704833835,-0.0546103703521317,-0.0648616303123145,-0.000459685114196451,0
0.32,0.00114216414811349,0.000655909887168139,-0.0568962174593904,-0.0328253616997958,0.000728564623984203,0.00109724669514175,-0.0364442947246273,-0.0546488546442939,-0.0648646148839354,-0.000441374133548792,0
0.33,0.00114202007320717,0.000655950135934526,-0.0568947438300229,-0.0328273799009065,0.000728598572450654,0.00109709824020618,-0.0364463687283594,-0.0546471495428521,-0.0648674616212595,-0.000422593983685842,0
0.34,0.00114181150132502,0.000655952526586142,-0.0568898262662174,-0.0328274980404604,0.000728590412544797,0.00109688797624946,-0.0364463160303731,-0.0546421358295134,-0.0648701733932475,-0.000404588602480328,0
0.35,0.00114160677090578,0.000655951787792699,-0.0568848425598018,-0.0328274590367527,0.000728579236339715,0.00109668184249626,-0.0364460951635922,-0.0546370709975333,-0.0648727562910419,-0.000387428730634087,0
0.36,0.00114141092418129,0.000655950831024173,-0.0568800527141172,-0.0328274326785256,0.000728568282863462,0.00109648467739731,-0.0364458927501482,-0.054632203274887,-0.0648752164117697,-0.000371083648323858,0
0.37,0.00114122458735862,0.000655949898436837,-0.0568754995213871,-0.0328273790840602,0.000728557840895401,0.00109629708588547,-0.0364456720884603,-0.0546275777364906,-0.0648775595897058,-0.00035551545811598,0
0.38,0.0011410472145147,0.00065594900833412,-0.0568711670304215,-0.032827325470759,0.00072854789953121,0.0010961185179418,-0.0364454596114013,-0.0546231764975176,-0.0648797913833515,-0.000340687303452198,0
0.39,0.0011408779104775,0.000655948160334503,-0.0568670212913224,-0.0328272961301336,0.000728538406272488,0.00109594807643778,-0.0364452776503076,-0.0546189639114034,-0.0648819170872131,-0.000326564012797757,0
0.4,0.00114071706860765,0.000655947352578299,-0.056863092256028,-0.0328272424775848,0.000728529390400425,0.00109578615034599,-0.0364450799428145,-0.054614972833112,-0.0648839417447069,-0.000313112080617679,0
0.41,0.00114056348064283,0.000655946583169778,-0.0568593293609341,-0.0328272160019116,0.000728520777041894,0.00109563153056421,-0.0364449148556434,-0.0546111492918456,-0.0648858701589061,-0.000300299593562566,0
0.42,0.00114041765634794,0.000655945850291173,-0.0568557673965559,-0.0328271623127991,0.000728512602535657,0.00109548472256397,-0.0364447306207215,-0.0546075313646861,-0.0648877069048902,-0.00028809615525562,0
0.43,0.00114027827104665,0.000655945152210287,-0.0568523490548466,-0.0328271328846595,0.000728504784111841,0.00109534440138957,-0.0364445751280908,-0.0546040583676173,-0.0648894563400469,-0.000276472814225287,0
0.44,0.00114014575425399,0.000655944487276737,-0.0568491042576485,-0.0328271063442886,0.000728497352591731,0.00109521099273107,-0.0364444292180998,-0.0546007613939873,-0.0648911226147872,-0.000265401995223097,0
0.45,0.00114001940747311,0.000655943853917788,-0.0568460062174752,-0.032827079783969,0.000728490265506783,0.00109508379677983,-0.0364442884695714,-0.054597613757077,-0.0648927096821331,-0.000254857433805128,0
0.46,0.00113989923070401,0.000655943250636347,-0.0568430625707641,-0.0328270532030239,0.0007284835255455,0.00109496281088618,-0.0364441535840559,-0.0545946229399902,-0.0648942213074317,-0.000244814114023948,0
0.47,0.00113978464187009,0.00065594267600492,-0.0568402515523057,-0.032827026603537,0.000728477097516944,0.00109484745167567,-0.0364440233492915,-0.0545917670924381,-0.0648956610765626,-0.000235248209077779,0
0.48,0.00113967540813564,0.000655942128664235,-0.0568375684941212,-0.0328269970757537,0.000728470968753757,0.00109473748439919,-0.0364438947465981,-0.0545890416204053,-0.0648970324057315,-0.00022613702478547,0
0.49,0.00113957164592608,0.000655941607319374,-0.0568350258715092,-0.0328269704397868,0.000728465149119335,0.00109463302294876,-0.0364437745715337,-0.0545864584768878,-0.0648983385476455,-0.000217458945746109,0
0.5,0.00113947277315977,0.000655941110736969,-0.0568326009037287,-0.0328269437870402,0.000728459603066589,0.00109453348428786,-0.036443658614424,-0.0545839950047202,-0.0648995826015289,-0.000209193384059211,0
0.51,4.7369331713256,0.0414496038244047,3.15430951930672,-2.07036159804406,-0.217535734864402,4.73211708892743,-2.23968268876643,3.0364267064898,0.0546878053287498,16.8416667879345,852.354873343283
0.52,4.65670119865854,0.0011192071248296,7.1668773490029,-0.0470954836877868,-1.14075244154158,4.51481463332985,-1.80299814752055,6.93653707553503,0.247729162925045,35.8307459712672,852.354873343283
0.53,4.64896580904038,0.0198224771787084,7.55471104969074,-0.977817532422088,-2.53320484959974,3.89822385378166,-4.9610972470233,5.78076986885045,0.580523499871246,55.0219412433209,852.354873343283
0.54,4.72817244372173,-0.0557255548761357,3.59550705109501,2.80955566431602,-4.14346592408311,2.27824716196418,-1.74742043113516,4.21518633303625,1.05628994050848,74.9785510183607,852.354873343283
0.55,4.68226808009301,0.011524718911756,5.89186965342083,-0.556582120309037,-4.65365679435668,-0.516958057623465,-5.79141832899998,-1.2179431054331,1.68389050355109,96.4315979820214,852.354873343283
0.56,4.62462192766661,0.0413148082512396,8.77535375963484,-2.04250260705288,-2.92209543083823,-3.58471661087874,-3.88893316141821,-8.12741344909787,2.46661306280025,116.738971867054,852.354873343283
0.57,4.67982460157217,-0.0542552750023639,6.01645300607548,2.74992771234517,1.21254333458203,-4.52033633683451,-1.17282333374907,-6.51032215986677,-2.89111316485772,135.709612582935,852.354873343283
0.58,4.5931728249606,-0.0328528100758448,10.3503536444174,1.68151787706253,4.45520947520005,-1.11777656048698,9.6000835482689,-4.21849722076977,-1.82376678238201,155.984791519014,852.354873343283
0.59,4.70192102138595,0.00428322760191224,4.91434125398448,-0.174626072205525,2.67436751493985,3.8672778581871,2.64778554993288,4.14372729644149,-0.604112847778767,176.249152588617,852.354873343283
0.6,4.66121360220235,-0.0182199637083111,5.06796942744238,0.96389794542831,-3.21561041366789,3.37447683055379,-2.78142204443998,4.34477902515132,0.757387129904714,195.445222923511,852.354873343283
0.61,4.44352085390394,0.0523170996858672,10.3886670182151,-2.57387153162324,-3.44650297943927,-2.80521512022072,-6.33120644454485,-8.62931295255912,2.26574740876143,215.607912716856,852.354873343283
0.62,4.2992922013451,0.0135519461722535,12.6892426586478,-0.620577951962538,2.98756193358057,-3.09169383684934,9.29128671957249,-8.66452464588825,-2.3701697459124,234.087620276664,852.354873343283
0.63,4.2756636027245,-0.0137276298420101,8.66387477825192,0.741421075740572,2.34219277770728,3.57709668356056,5.38823717606803,6.82490523884548,-0.582935160606199,252.914422640225,852.354873343283
0.64,4.19213213766609,-0.0049112629205319,7.86353912523632,0.294194510122447,-4.07912776307251,0.966805395458345,-7.58124855559682,2.10866505689492,1.33690624298706,271.323995780446,852.354873343283
0.65,4.12566607641439,-0.036049377823081,6.48914167899422,1.872463009237,1.04670630536517,-3.99084277340347,-0.223920149701147,-6.75018053222124,-2.89383056059395,288.558315023208,852.354873343283
0.66,3.96272830844728,0.0801001015494812,9.79897765271295,-3.94627525528452,2.65126213716248,2.94625877222051,3.41994728083965,9.99484927475728,-0.71253495268093,306.034462345906,852.354873343283
0.67,3.86997649792431,0.0030960975447798,9.74121773025894,-0.0991122888707372,-3.86907387710881,-0.0836361989851212,-9.73654981893083,-0.317401539999895,1.59320958460718,323.115932215767,852.354873343283
0.68,3.78405043761117,0.0404167413233988,9.55363582696261,-1.96988664435041,2.88851389777662,-2.44482283401391,8.61426466557649,-4.57677344613145,-2.26251318875254,339.598213769453,852.354873343283
0.69,3.70237432694458,-0.00367493066552815,9.27290928770353,0.248787412767025,-1.04342722444454,3.55230190006729,-2.36574557979859,8.96950331324947,0.284704518171153,355.526487596161,852.354873343283
0.7,3.64336431481449,0.0481911941731517,7.89749958224463,-2.33395859323598,-0.745373899789659,-3.56662917488935,0.777540704235075,-8.19837135166198,2.94879861822132,371.09918482832,852.354873343283
0.71,3.50614057206754,0.0188198101646743,10.5145119348661,-0.864050399764311,1.86842753687394,2.96687620837202,4.82167617261956,9.38365510918679,-0.556649124898397,386.370452866753,852.354873343283
0.72,3.48829823624067,-0.0220837407025858,7.23482421747228,1.18502064174287,-2.51041919378918,-2.422087477367,-6.05565257850826,-4.1323149961597,2.33195760394665,401.367150130622,852.354873343283
0.73,3.38016789151823,0.0878609731281894,8.54934502174584,-4.3171970032362,2.80802277602388,1.8836832575518,4.47628450179746,8.46713454036074,-0.953935288955577,416.027531427295,852.354873343283
0.74,3.30338841126092,-0.0238069517251656,8.40799387287898,1.27339866114984,-2.75301939027272,-1.82587677661605,-7.73644594275425,-3.53034124291547,2.14920713395607,430.300936261629,852.354873343283
0.75,3.22697551616762,0.000408430490919764,8.32650014375023,0.0625223576818565,2.58215777966066,1.93541529127438,6.6995625355569,4.94473209802565,-0.927466897114744,444.270524622286,852.354873343283
0.76,3.13980671434961,0.0747734589956863,8.84636196911395,-3.67445204881651,-2.22086983176186,-2.22074637543668,-3.44551975244477,-8.93801496883678,2.37997686372723,457.988456846518,852.354873343283
0.77,3.03370878387402,0.0159740426855181,10.37842088948,-0.74580266844798,1.46094144129809,2.65881444642005,4.29438637839757,9.47766255004325,-0.497171513142185,471.343734315341,852.354873343283
0.78,2.93534989916841,-0.0402427250134463,11.6080778412284,2.07162675243736,-0.360047545414508,-2.91346259157476,-3.63380658335464,-11.2176003799476,3.0049266078601,484.272691017917,852.354873343283
0.79,2.92032438611214,0.0116428412170368,8.81149770619789,-0.512757730888296,-0.900283144635457,2.77811452884113,-3.2369509944868,8.21142865622099,0.317370671197669,496.783640529051,852.354873343283
0.8,2.88363846012163,0.0937191773490738,7.19299256646816,-4.60752185897063,2.12930152851329,-1.94685106096142,8.4603911684291,-1.17905937904977,-2.27897500037366,509.001800984538,852.354873343283
0.81,2.68818675241629,0.100352163014183,13.5593669999896,-4.96094386463816,-2.67346232156012,0.298358488544291,-13.8883493554162,-3.94729649892277,1.49696964380979,521.083359896901,852.354873343283
0.82,2.61468445411873,0.0557777502495477,13.8389891294805,-2.73832349603613,2.11928982672287,1.53241527739123,9.38744684565597,10.5305212318672,-0.92341877225442,532.856100998191,852.354873343283
0.83,2.60544847882969,-0.00876896059169407,11.0580967654675,0.513040626802892,-0.296778139323626,-2.58850563192847,-1.80605437765343,-10.9216703092591,3.02407318475025,544.147688428014,852.354873343283
0.84,2.48098337616635,0.10301383123598,14.1116611022695,-5.08053454338644,-1.65488141535142,1.85128546241907,-13.4771702228179,6.58154184800482,0.770937436424824,555.321933265554,852.354873343283
0.85,2.49835168035621,0.0682761864572632,10.045315113586,-3.36195583716973,2.47401928538598,0.354473316222931,9.33357275792853,5.00954312834747,-1.40116485449283,566.299857979927,852.354873343283
0.86,2.46120417110611,-0.0122429500657357,8.87996765644961,0.693277240232878,-0.839425263942736,-2.31366399633808,-3.72060077697821,-8.0926873638962,2.78857552011325,576.783068134654,852.354873343283
0.87,2.33625783168909,0.0425766718116357,12.1109021628534,-2.08619516264545,-1.59895224723776,1.70389704506008,-9.94196014814534,7.22382100190351,0.771857116649038,587.24863314308,852.354873343283
0.88,2.3094840921577,-0.0218166600750296,10.5285503676568,1.16354078322153,2.11801546223376,0.9209795004912,10.1483519380208,3.03564703820698,-1.1700742739112,597.192034976079,852.354873343283
0.89,2.20030202384356,0.0669872507359351,13.1406268441584,-3.31152510055766,0.157973462826632,-2.19564584415014,4.63564445440732,-12.733933910672,-3.03933273154159,607.091594300569,852.354873343283
0.9,2.12195756337311,0.0334497048368846,14.2559269740135,-1.60809006160709,-2.10117437067201,0.298142663067733,-14.3451508650421,0.184537784276716,1.44560622115146,616.53642609517,852.354873343283
0.91,2.08312198306107,0.063141689102343,13.4633927231421,-3.12186578459106,0.643520247382241,1.98223756407351,0.770183522749885,13.7991234118635,-0.283607481415149,625.97446320936,852.354873343283
0.92,2.13129968410504,0.0501364330015819,8.36344046614572,-2.43664826575989,1.96549986412661,-0.825688978670919,8.67536756968868,-0.78891617589468,-1.94498220630268,634.987207287932,852.354873343283
0.93,1.9532908081914,0.0276660150489865,14.6281332532598,-1.34725717395511,-0.784256448370007,-1.789148460286,-4.44089819597083,-14.0027071518661,2.74263970910679,643.954164532171,852.354873343283
0.94,1.97870120976209,0.0675848345730926,10.8194468370077,-3.30620879042261,-1.82838883148367,0.759486977033849,-11.2908950728677,0.712134031061264,1.21123987646185,652.480603295254,852.354873343283
0.95,1.95212531816441,-0.0131101512400796,9.60734399136384,0.707167715041868,0.484454743523302,1.89110251846953,3.1304804110323,9.11050147586484,-0.257498436724178,660.983296110947,852.354873343283
0.96,1.81767000637371,0.0140071464224942,13.915694153002,-0.669335942364023,1.81642786523607,-0.0686313530060113,13.9295246443047,0.250793834340512,-1.60085610795215,669.167238483813,852.354873343283
0.97,1.74367742851457,0.0453247223247005,15.20446300515,-2.2022646880642,0.288516489307742,-1.72023938466788,5.0654733214898,-14.5040216857444,-2.94943254956681,677.10605962589,852.354873343283
