t,iq,id,vq,vd,ia,ib,va,vb,theta_e,omega,r
0,0,0,0,0,0,0,0,0,0,0,0
0.01,0.00127426644417249,0.000717665426616342,-0.0627193369274154,-0.0359232270795344,-0.000894692459487786,0.00115685955856366,0.0438033949264714,-0.0574930957710404,1.17121759070908,-0.00329048098317161,0
0.02,0.00142095141276671,0.000800027744773003,-0.0701066672339948,-0.0400459240572038,-0.000997749509154438,0.00128982294398587,0.0490033734891107,-0.0641661141954236,1.17119327124595,-0.00341475889714201,0
0.03,0.00147775752233087,0.000832871275900955,-0.0729589013301375,-0.0416899174850776,-0.00103727006486387,0.00134220440677405,0.0509896909015263,-0.0667914809311796,1.17116924462476,-0.00329541104682769,0
0.04,0.00144211254224744,0.000814549574611318,-0.0712809759798153,-0.0407728289594005,-0.0010115339793311,0.00131147954717771,0.0497993866440178,-0.0652948865369039,1.17114772406704,-0.00295074451946496,0
0.05,0.00147404171672927,0.000833617301378626,-0.0729052515418097,-0.0417272741689143,-0.00103350052370719,0.00134148926768459,0.0509229321285414,-0.066807156019204,1.17112730664505,-0.00280441378765734,0
0.06,0.00147363740849823,0.000834608229929158,-0.0729433216149496,-0.0417768827905199,-0.00103271707394461,0.00134226433848708,0.0509374320679187,-0.0668686332912598,1.17110836725288,-0.00258617713100644,0
0.07,0.00150951277706662,0.000856235133570277,-0.0747505859764777,-0.0428594096359664,-0.00105732554956826,0.00137616500112366,0.0521798323279584,-0.0685699948694508,1.17109122677742,-0.00248825732330427,0
0.08,0.00147174595815522,0.000835780218849857,-0.0729525773765777,-0.0418355202392775,-0.00103047388623431,0.00134264228644718,0.0509209094900264,-0.0669279483944121,1.17107502979897,-0.00219878954154841,0
0.09,0.0014678790621526,0.000834706173350751,-0.0728081006367982,-0.0417817613716533,-0.00102731018874957,0.00134016309195082,0.0508077651155048,-0.0668229459513991,1.17106039854511,-0.00202042721004151,0
0.1,0.00146608586071397,0.000834645784110224,-0.0727613187665045,-0.0417787587059289,-0.0010256639030837,0.00133942334376757,0.0507649444014439,-0.066802654195529,1.17104699314771,-0.00186181740782301,0
0.11,0.00146454144095216,0.000834638740277403,-0.0727233084879369,-0.0417784042433226,-0.00102422753059699,0.00133882837757693,0.0507292478264314,-0.0667881581832784,1.17103469999473,-0.00171664171553581,0
0.12,0.00146313113175044,0.0008346348059765,-0.0726887443473216,-0.0417781895805785,-0.00102291486261129,0.00133828739510379,0.0506967396770268,-0.0667750796745374,1.17102342618094,-0.00158351951587737,0
0.13,0.00153157456655975,0.000873945297417016,-0.0760704375231815,-0.0437459150893589,-0.00107064607129085,0.00140114882358708,0.0530451583642227,-0.0699044185018959,1.171012422768,-0.00164545353640162,0
0.14,0.00159387715520397,0.000910940370380946,-0.0792948625768979,-0.0455977253107362,-0.00111362184376746,0.00145948728441012,0.0552938247569106,-0.0728657719945005,1.17100231161749,-0.00170074105124241,0
0.15,0.0014669124505701,0.000838614359576128,-0.0729669484036674,-0.0419773848450027,-0.00102480812269518,0.00134345617471611,0.0508734307052842,-0.0670684012486027,1.17099289204853,-0.00124385862589118,0
0.16,0.00145876179838927,0.000834830504990141,-0.0725922116069321,-0.041788010614833,-0.00101876256834318,0.00133680618858711,0.0506014338090194,-0.066748497463257,1.17098503741802,-0.00113141462330671,0
0.17,0.00145745801571662,0.000834630407693428,-0.0725502839650833,-0.0417779750361257,-0.00101762993111391,0.00133612166673706,0.0505662414571974,-0.0667232952305698,1.17097787873072,-0.00104576248818922,0
0.18,0.00145661368595726,0.000834617865645112,-0.072529010037301,-0.041777355452032,-0.00101684830804719,0.00133578813072791,0.0505464487227275,-0.0667147753280861,1.17097131615818,-0.000968207685527442,0
0.19,0.00145585957865346,0.000834615301462868,-0.0725104866684918,-0.0417772246167555,-0.00101614663858131,0.00133549834260208,0.0505290357714437,-0.0667077485573343,1.17096529787258,-0.000897140132669175,0
0.2,0.00145516926697127,0.000834613416771305,-0.0724935593470521,-0.0417771169660493,-0.00101550413815109,0.00133523349882722,0.0505131173251188,-0.0667013390187807,1.17095977860728,-0.000831968444223961,0
0.21,0.00145453594960325,0.000834611712408895,-0.0724780213672036,-0.0417770497250279,-0.00101491468016119,0.0013349905359858,0.0504984934966796,-0.0666954842519198,1.17095471697724,-0.000772200711174699,0
0.22,0.00145395501912484,0.000834610150327166,-0.0724637635006794,-0.0417769794611947,-0.00101437398410714,0.00133476766556358,0.0504850780335666,-0.0666901036850908,1.17095007503728,-0.000717388685878405,0
0.23,0.00145342251741884,0.000834608717567985,-0.0724506989126598,-0.0417769090899823,-0.00101387836212696,0.00133456337144076,0.0504727874813523,-0.0666851679903993,1.17094581798789,-0.000667121451335972,0
0.24,0.00145293425353763,0.00083460740338792,-0.0724387198288163,-0.0417768415295745,-0.00101342391498484,0.00133437604573436,0.0504615192915855,-0.0666806395395985,1.1709419139161,-0.000621022171439726,0
0.25,0.00145248650218305,0.000834606197986874,-0.0724277334395852,-0.0417767709657093,-0.00101300717561228,0.00133420425981185,0.0504511882780282,-0.0666764783477043,1.17093833355398,-0.0005787452563287,0
0.26,0.00146708800104758,0.000843044410805221,-0.0731517470251709,-0.0421991369541951,-0.00102316765778278,0.00134766428515228,0.0509534520241508,-0.0673475387771229,1.17093513906555,-0.000582246794873321,0
0.27,0.00142093067741406,0.000816867813310754,-0.0709039472079691,-0.040888871919326,-0.000990837417310388,0.00130558731109687,0.049392826771717,-0.0652657508958923,1.1709318181643,-0.000417337075920193,0
0.28,0.0014176196517641,0.000814922127275542,-0.0706129562552014,-0.0407914557960653,-0.00098854141733285,0.00130250889317832,0.0491625340587214,-0.0650628749901693,1.17092904525118,-0.000376448578021313,0
0.29,0.00144911603411931,0.00083357332261673,-0.0722981820242722,-0.041725059513275,-0.00101028922871888,0.00133195249121528,0.0503512152304599,-0.0665789969901698,1.17092674195882,-0.000436593827010076,0
0.3,0.00143920662243771,0.000828395861915743,-0.0718173509807501,-0.0414659198618386,-0.00100317543113793,0.00132332704214375,0.0500091138147494,-0.0661531779081255,1.17092545878836,-0.000394653599951638,0
0.31,0.0014499426826048,0.000834276673790083,-0.0723490626996039,-0.0417602877676075,-0.00101077228385847,0.00133292563237901,0.0503841394160769,-0.0666314265436808,1.17092331554191,-0.000399585251871037,0
0.32,0.00145031539949767,0.000834583490627431,-0.0723734871988388,-0.041775646806318,-0.00101099344086541,0.00133335540024972,0.0504005221981349,-0.0666551849263207,1.17092128142623,-0.000377289524785627,0
0.33,0.00145011731098184,0.000834598937781762,-0.072369485512327,-0.0417764162466407,-0.00101080247358618,0.00133329440182869,0.050396412059251,-0.0666544300049567,1.1709194120635,-0.000355314272687006,0
0.34,0.00144990490227199,0.000834599200564,-0.0723643103929767,-0.0417764232809102,-0.00101060443381927,0.00133321368488298,0.050391528190833,-0.0666525081852838,1.17091769747796,-0.000335074037983128,0
0.35,0.0014497084424055,0.000834598714608055,-0.0723594811752566,-0.0417763924337838,-0.00101042156593324,0.00133313834297278,0.050386987163951,-0.066650678955834,1.17091612504621,-0.000316507079098627,0
0.36,0.00144952816425973,0.000834598230910016,-0.0723550451313766,-0.0417763557150476,-0.00101025377630859,0.00133306917055138,0.0503828192736389,-0.0666489908013136,1.1709146829935,-0.000299479334193782,0
0.37,0.00144936250525723,0.000834597785305781,-0.0723509585084543,-0.0417763564142709,-0.0010100995972298,0.00133300560334869,0.050378966643998,-0.0666474671103651,1.17091336051004,-0.000283863444548514,0
0.38,0.00144921098169989,0.000834597376523581,-0.0723472287410745,-0.041776322510376,-0.00100995857039391,0.00133294746200572,0.0503754634997395,-0.0666460449403467,1.17091214768145,-0.000269542360061711,0
0.39,0.00144907163256006,0.000834597001612667,-0.0723437867985467,-0.0417763231146635,-0.00100982887847826,0.00133289398962651,0.0503722187436172,-0.0666447615359192,1.17091103541592,-0.000256408721619079,0
0.4,0.00144894420697395,0.000834596657772276,-0.0723406467317822,-0.0417762891300518,-0.0010097102803552,0.00133284509446261,0.0503692716618551,-0.0666435591434344,1.17091001537486,-0.000244364071073494,0
0.41,0.0014488269767408,0.000834596342429013,-0.0723377465713804,-0.0417762867435837,-0.00100960117495285,0.00133280010911674,0.0503665388963604,-0.0666424749893699,1.17090907991141,-0.000233318113979748,0
0.42,0.00144871992383561,0.000834596053221915,-0.072335107760351,-0.0417762526901309,-0.00100950153721885,0.00133275903152995,0.0503640643605245,-0.0666414595024764,1.17090822201308,-0.000223188042737226,0
0.43,0.00144862132005831,0.000834595787985572,-0.072332664414874,-0.0417762531458896,-0.00100940976755221,0.0013327211934313,0.0503617611759896,-0.0666405483134467,1.17090743524808,-0.000213897915815301,0
0.44,0.00144853126378973,0.000834595544734254,-0.0723304402831273,-0.041776219034919,-0.00100932594946888,0.00133268663728398,0.0503596777162198,-0.0666396873396255,1.17090671371841,-0.00020537808844516,0
0.45,0.00144844837608083,0.000834595321645584,-0.0723283836744971,-0.041776219432845,-0.00100924880630102,0.0013326548300531,0.0503577391157351,-0.0666389203560354,1.17090605201513,-0.000197564690521657,0
0.46,0.0014483723568759,0.000834595117049401,-0.0723264954181709,-0.0417762198044488,-0.00100917805569472,0.00133262565841619,0.0503559592525911,-0.0666382161254014,1.17090544517776,-0.000190399147786576,0
0.47,0.00144830274051366,0.000834594929412548,-0.0723247667472985,-0.0417762201515314,-0.00100911326325256,0.00133259894428454,0.0503543297475182,-0.0666375714659422,1.17090488865693,-0.000183827742721256,0
0.48,0.00144823911051826,0.000834594757330356,-0.0723231901467368,-0.041776183037991,-0.00100905404033675,0.00133257452845164,0.0503528579746754,-0.0666369491799177,1.17090437828081,-0.000177801211846727,0
0.49,0.00144818043719623,0.000834594599513541,-0.0723217263119578,-0.041776183344527,-0.00100899943388943,0.00133255201272815,0.0503514783229339,-0.0666364031312644,1.17090391022277,-0.000172274376410745,0
0.5,0.00144812665331771,0.000834594454779176,-0.0723203831332383,-0.0417761836321905,-0.00100894937776456,0.00133253137340394,0.0503502124017855,-0.0666359020836663,1.17090348097416,-0.000167205803697939,0
0.51,4.64781337041204,-0.100237918057262,7.610415985322,5.02325420616913,-0.611505777055578,4.60850056428607,4.15453911487204,8.1173467975958,0.110356860939553,33.9279971499089,5424.24521403789
0.52,4.71835008354446,0.0229738259759966,4.08473562190219,-1.13766179199944,-2.2376619485702,4.15406118292509,-2.95358916056604,3.04231006381645,0.498970805152103,72.1129197297527,5424.24521403789
0.53,4.54481985698856,0.0141692783530551,12.7625136757039,-0.689225398958899,-4.17832102216318,1.78807766516888,-12.0180572093055,4.35006757268882,1.16955436787154,111.059711549301,5424.24521403789
0.54,4.67820247872219,0.0919059025815914,6.09471926401751,-4.57376967671125,-4.00519743799781,-2.41917725880258,-2.71286974339952,-7.1207660906771,2.13380179880725,152.710198474079,5424.24521403789
0.55,4.65409362183387,0.0862245447700944,7.30155399360583,-4.29126305228638,1.15393362614525,-4.50959635658967,6.07764957574102,-5.89828830593711,-2.87255932217136,194.811437863794,5424.24521403789
0.56,4.6387068242977,0.0428447111050947,8.07243931500446,-2.10564618464117,4.48532055569182,1.18378046264675,7.22970868154075,4.16285175443203,-1.30352085806474,233.009372116872,5424.24521403789
0.57,4.56221496139044,0.0679160087789386,11.8986715160649,-3.36092149986667,-2.32404250634836,3.92647989513117,-9.07884740247611,8.39337280347018,0.549320138123807,273.524933086866,5424.24521403789
0.58,4.60348683495977,0.00832732521477952,9.83683859462789,-0.369234737873213,-1.95649122524991,-4.16704961207726,-3.83004372822778,-9.06810304684922,2.70443821440058,313.394765357174,5424.24521403789
0.59,4.53849516558543,0.00920062013438683,13.0883404449135,-0.415267048987109,4.12696496790389,1.88843405316341,11.716905515464,5.84732652291816,-1.13962605076054,353.181911141138,5424.24521403789
0.6,4.53737595687425,0.0593770013943172,13.1461846783715,-2.9067552290447,-4.5374196772352,-0.0559363473412441,-13.0680796967839,-3.23985965713523,1.59620894158609,392.325673303199,5424.24521403789
0.61,4.62423591010303,0.049643271560329,8.80527056527152,-2.42875395233159,4.59977625300874,-0.477577877371307,8.99232072902097,1.60306063360785,-1.66351692839559,432.858376481191,5424.24521403789
0.62,4.55934640176306,-0.00837100604522448,12.0517183959457,0.476547171749138,-4.54441776676052,-0.368750384627981,-12.0516765638686,-0.477603917465791,1.64992652100892,472.153843217986,5424.24521403789
0.63,4.49836052028029,-0.0267582859591928,15.1031252430247,1.43181576242655,3.83754085564668,2.34717778566652,13.6706687674447,6.57778868122373,-1.02781329707143,511.040004437015,5424.24521403789
0.64,4.59880281447588,0.0582658426526613,10.0833463178715,-2.82032452857064,-1.30491329152687,-4.41016819820376,-0.0238595263376546,-10.4703168116152,2.86658223258363,550.454546454942,5424.24521403789
0.65,4.4856988402359,0.0975455277292845,15.7408058741451,-4.7866914049977,-3.03958115638599,3.30029629109523,-14.3624850773828,8.02523560876298,0.766040731515878,590.003940796378,5424.24521403789
0.66,4.52945919212086,0.0741982727428843,13.5551816775555,-3.61157182495374,3.95735459500241,2.20473367239209,9.92267621743143,9.91599203521043,-1.04612097630125,629.336277748184,5424.24521403789
0.67,4.52878238044364,0.0766527314644359,13.5914725829349,-3.72433424923446,2.38294282138184,-3.85192536281305,10.4787254351304,-9.42311550538587,-2.57065814002167,668.51482827942,5424.24521403789
0.68,4.46221320569883,0.0298728984770232,16.9225272914078,-1.37114511710313,-2.78155722704656,-3.48929483933953,-9.38187725860278,-14.150347980354,2.47527493248328,707.575980915843,5424.24521403789
0.69,4.35197587717986,-0.000254777970841502,22.4369618011284,0.135818142735023,-4.34738625560221,0.199817028974548,-22.4069953417594,1.16715945250182,1.52480754266975,746.993411696564,5424.24521403789
0.7,4.37654301330125,0.0594440990233225,21.2112637586297,-2.88747105590471,-3.2822940306657,2.89554973095628,-17.9761487412889,11.6238236294218,0.861499999572605,786.485214703324,5424.24521403789
0.71,4.35996539331844,0.147076807798862,22.0427822482238,-7.24365847650493,-1.90188928338272,3.92603450979238,-16.6821515349385,16.1263962971335,0.484834976403555,825.207650565333,5424.24521403789
0.72,4.41058161435701,-0.00267476468626882,19.5147054950356,0.28543641250541,-1.69325641812952,4.07260604941522,-7.21728578735446,18.1332840480484,0.39341810764539,864.014272298147,5424.24521403789
0.73,4.38297286193567,0.0482675690672487,20.8980477700867,-2.30721742384176,-2.39224499629118,3.67286601231355,-13.5170028808984,16.10410773559,0.588321159522887,903.333851235642,5424.24521403789
0.74,4.30456716978347,0.110692794105219,24.8212457725062,-5.38084536986565,-3.7172013551795,2.1734685410413,-24.337947581176,7.26030620080813,1.06740813531833,941.680603226453,5424.24521403789
0.75,4.4288343268141,0.0887773113108183,18.6108269266599,-4.31838406929477,-4.30199765037724,-1.05606397605411,-16.868288617403,-8.9706275691291,1.83156108744291,980.926641504094,5424.24521403789
0.76,4.29121864071278,0.0644326496137748,25.4946529347332,-3.0911427660328,-1.17352720540548,-4.12814036666757,-3.6166346003806,-25.4254291218423,2.87963800943455,1019.52192639094,5424.24521403789
0.77,4.43631883494535,0.144334991482918,18.2426794204457,-7.05036457121026,3.82325260416454,-2.25488290600783,19.3886893142961,-2.56548624978421,-2.07114481296457,1058.03586382054,5424.24521403789
0.78,4.3623531152728,0.0707881418984808,21.9441665961497,-3.39821312928501,1.98141630026498,3.88704580734624,6.59518992281742,21.2037206629776,-0.455190438079695,1096.91538648914,5424.24521403789
0.79,4.37815017256324,0.105038095283522,21.1576007788928,-5.1300621710341,-4.32911235444882,0.661829402138449,-21.6386949303823,-2.39342647840453,1.44307897654223,1135.59067872052,5424.24521403789
0.8,4.31142216300265,0.0135155458424127,24.4972919808997,-0.553625207719246,1.98769415711545,-3.8259137046435,11.8524937774308,-21.4462632298505,-2.6593050399246,1174.07565562897,5424.24521403789
0.81,4.34222774060379,0.0421729018420907,22.9603687339668,-1.98204464197164,0.888494816709411,4.25056434671908,2.53541595199778,22.9058660459028,-0.196350869418417,1212.46679568696,5424.24521403789
0.82,4.23109604567654,0.0603800841465383,28.5203376632576,-2.89432645321955,-2.41486175711896,-3.47480390760479,-13.5401789365153,-25.2675748818755,2.54852450476678,1250.90440369891,5424.24521403789
0.83,4.28490322675893,0.0242505875760001,25.8334687717298,-1.0808477326213,2.80573930224365,3.23864334583668,15.9837061037143,20.3238155815078,-0.708239881316468,1289.31122942394,5424.24521403789
0.84,4.36636686120828,0.0725069564370244,21.7637595485879,-3.48243419537772,-2.31548229103931,-3.70256108461062,-8.24889914065165,-20.4387925421548,2.59932931069919,1327.69518699026,5424.24521403789
0.85,4.33993700872511,0.132640031681592,23.088846318259,-6.46345186041223,0.545663470879867,4.30753966833199,-4.23349642515119,23.59975725041,-0.0954520759140975,1365.8285582064,5424.24521403789
0.86,4.21464922534803,0.165596033409539,29.3567908332756,-8.07239783389643,2.35515716725766,-3.49913201473203,23.8501790583384,-18.9249500317065,-2.50990039095185,1403.90614455474,5424.24521403789
0.87,4.2499058671114,0.150346157736766,27.59759795849,-7.32807715122475,-1.78249330389465,3.86096121037558,-18.9868535805985,21.3266856056366,0.467878526131507,1442.26634810008,5424.24521403789
0.88,4.15411003534371,0.128626344742472,32.39101133534,-6.27033480258586,4.10679419274345,0.638291767731501,30.6831537393649,12.12595523945,-1.3856528773605,1480.61930238654,5424.24521403789
0.89,4.29325842829609,0.0359916404408918,25.4372924365869,-1.5503348353637,0.741642768333389,-4.22886856434388,6.12864500853819,-24.7365942475011,-2.95959892330306,1518.50855433403,5424.24521403789
0.9,4.3154287402457,0.0891316754943391,24.332583031949,-4.28788624473591,-3.90901473573809,-1.83042985757376,-19.9203767587803,-14.6164002149206,2.02938120381065,1556.89114426731,5424.24521403789
0.91,4.19959735132844,0.123188907442583,30.1278961562842,-5.90573023926543,-3.50115639355996,2.32243349270457,-28.7028382031138,10.8956347015073,1.01443011183959,1594.72943322342,5424.24521403789
0.92,4.20199423506836,0.0774844748920147,30.0118778509346,-3.66983426975605,-1.08137491475122,4.06120520155579,-11.7838253941904,27.8446036923876,0.278669357977209,1632.94639807915,5424.24521403789
0.93,4.12518107490239,0.0596662146532845,33.8564070520125,-2.82629532336233,0.790728438424639,4.04912675703915,3.22634248047386,33.8206291769552,-0.178393673001933,1671.08283042584,5424.24521403789
0.94,4.09338689872609,0.144547171730646,35.4500118431159,-6.96325180226134,1.56494971395252,3.78518725828956,5.85510170758669,35.6497966240001,-0.356741353572445,1708.82942761534,5424.24521403789
0.95,4.22749375679316,0.0374664171776391,28.7486531775514,-1.60427949817543,1.10979910453122,4.07939372256748,5.74895671908507,28.2136185001763,-0.256759237878881,1746.73312477205,5424.24521403789
0.96,4.15641226712966,0.0550477353853398,32.3067640916508,-2.50947058023739,-0.447085114239672,4.13266355854699,-6.39094573291002,31.7675976634314,0.121007453951043,1784.68471029343,5424.24521403789
0.97,4.15664465590121,0.191318922007822,32.2991493754551,-9.34301857761468,-2.77625967052504,3.09946446457554,-29.2988922069993,16.4955133888658,0.77644152786531,1822.64081070437,5424.24521403789
0.98,4.0949815394232,0.163377342829993,35.3864547360166,-7.94627062009328,-4.07832027961197,-0.403571135331434,-33.950430874053,-12.7558864457967,1.70930626847368,1860.42361386521,5424.24521403789
0.99,4.2228628154002,0.136128098696857,28.9964656049798,-6.55725372177261,-1.06373106273695,-4.0889579898934,0.00350433183382481,-29.7286491733502,2.91931151536042,1898.23529808335,5424.24521403789
