t,iq,id,vq,vd,ia,ib,va,vb,theta_e,omega,r
0,0,0,0,0,0,0,0,0,0,0,0
0.01,0.000858440087760034,0.000485837976925293,-0.041966578625265,-0.0243134082423605,-0.000346288651404955,0.000923602779339936,0.0165680769614877,-0.0455832685057626,0.873721174582591,-0.00232978456372346,0
0.02,0.000979212955390765,0.00055288402105654,-0.0479905075073071,-0.0276686750240379,-0.000395827232189892,0.00105254907486618,0.0190318315906752,-0.0520233964164096,0.87370341275785,-0.00252508998611056,0
0.03,0.00102563975088371,0.000579232267060335,-0.050294954011748,-0.0289872532927473,-0.000414487853922501,0.00110256371096974,0.0199511730033948,-0.0545141628229797,0.873685275240541,-0.00250672217908953,0
0.04,0.00100157608114229,0.000566320408063978,-0.0491736231793457,-0.0283410934695908,-0.000404309597798144,0.00107722198271034,0.0195053900245504,-0.0532991796899965,0.873668452866964,-0.00229957262120235,0
0.05,0.00102551026673943,0.000580418651107836,-0.0503807700326509,-0.0290466290899949,-0.000413590451912495,0.00110340384983406,0.01997704382751,-0.0546154407698806,0.87365223044987,-0.00223332293140301,0
0.06,0.0010267242129747,0.00058166854169622,-0.0504827175952305,-0.0291091879283565,-0.000413701630229246,0.00110514789193718,0.0200141953058549,-0.054729165751976,0.873636793153765,-0.00210921053240767,0
0.07,0.00104889913853249,0.000594995645622563,-0.051599152405212,-0.0297761257405703,-0.000422129696613801,0.00112960866691113,0.0204411266149756,-0.055957578001242,0.873622458147036,-0.0020535730455258,0
0.08,0.00102702211326619,0.000582957653269347,-0.0505756364562531,-0.0291737025157085,-0.000413071186168808,0.00110633911699811,0.0200424671495423,-0.0548388496596131,0.873608618598595,-0.00187726197507665,0
0.09,0.00102408294697267,0.000581883547150384,-0.0504687363879063,-0.0291199455820653,-0.000411493338751121,0.00110363380561126,0.0199943244293235,-0.0547292570195264,0.873595771883351,-0.00176279102328913,0
0.1,0.00102298674124602,0.000581784826394218,-0.0504491067689174,-0.0291150132209349,-0.000410703028752125,0.00110285922907755,0.0199817827513323,-0.0547131129320513,0.873583714124557,-0.00166005911007384,0
0.11,0.00102211428916361,0.000581773051896298,-0.0504383102258749,-0.0291144226375245,-0.000410029247826859,0.00110229466112819,0.0199732651337861,-0.054705954190138,0.873572384171635,-0.00156397391253046,0
0.12,0.00102130935828367,0.000581769190095325,-0.050428887822809,-0.0291142163159296,-0.000409402914282539,0.00110177922000687,0.0199655917321258,-0.0546999585513761,0.873561736891847,-0.00147372037529194,0
0.13,0.00106674569905689,0.000607964575534083,-0.052663740274939,-0.0304251529446166,-0.000427403288552286,0.00115104028621739,0.0208365273620822,-0.0571401662487846,0.873551303887207,-0.00151620654525493,0
0.14,0.00110065126181392,0.000628058354629299,-0.05445402386315,-0.0314307328471661,-0.000440481637396758,0.00118821985510616,0.021562708700119,-0.0590608269135495,0.873541411388732,-0.00153050033211693,0
0.15,0.0010267135908608,0.000585878166523678,-0.0507740279394929,-0.0293198500280921,-0.000410874590121648,0.00110841151873291,0.0200965086708151,-0.0550798135265005,0.873532012285571,-0.00124342631999711,0
0.16,0.00101916499405127,0.000582124265846066,-0.0504305975559285,-0.0291319883017204,-0.000407489181965364,0.00110069001656577,0.0199534119813097,-0.0547154389780775,0.873523738697483,-0.00115368590762506,0
0.17,0.00101792770313584,0.00058178833090919,-0.0503920276114137,-0.029115169498661,-0.000406747901139177,0.00109964113042046,0.0199342220086281,-0.0546779327940986,0.873516016411882,-0.00108637560449429,0
0.18,0.00101731832999712,0.000581756530494357,-0.050382629507198,-0.0291135874084632,-0.000406293209398153,0.00109922839906814,0.0199276369415813,-0.054670829642272,0.87350876433247,-0.00102472993724322,0
0.19,0.00101679824910809,0.000581751896669664,-0.0503763469268312,-0.0291133583511147,-0.000405890009185508,0.00109889364777098,0.0199225953470981,-0.0546667555174867,0.873501949605784,-0.000966950137018014,0
0.2,0.00101631448995421,0.000581749787547856,-0.0503706827424677,-0.0291132514942529,-0.00040551348681111,0.0010985839839617,0.0199179718301382,-0.0546631639285888,0.873495545456708,-0.000912665498195831,0
0.21,0.00101586041671524,0.000581748004866186,-0.050365383743432,-0.029113153355,-0.000405159938974209,0.00109829347228556,0.019913643791465,-0.0546598057885459,0.873489527110115,-0.000861652433845919,0
0.22,0.00101543353982577,0.000581746347003034,-0.0503603936417413,-0.0291130823223521,-0.000404827560511949,0.00109802036971288,0.0199095549949644,-0.0546566595206995,0.873483871321354,-0.000813712625744307,0
0.23,0.00101503227430075,0.000581744790290415,-0.0503556965517562,-0.0291130083460497,-0.000404515127052902,0.00109776364982976,0.0199057113595291,-0.0546536923312673,0.873478556248436,-0.000768660818437814,0
0.24,0.00101465545599546,0.000581743327230838,-0.0503512937155443,-0.0291129372455485,-0.000404221727967268,0.00109752256824091,0.0199021089724956,-0.054650909894888,0.873473561366094,-0.000726323022109217,0
0.25,0.00101430133867587,0.000581741952085656,-0.0503471537653259,-0.0291128661121895,-0.000403946006711751,0.00109729600751927,0.0198987245967677,-0.0546482902290422,0.873468867385618,-0.0006865357383922,0
0.26,0.00102374423780406,0.000587300843919984,-0.050817627629671,-0.0293910479068608,-0.00040761000589562,0.00110762296328666,0.0200804921788179,-0.0551637454205905,0.87346453417852,-0.000677477402540222,0
0.27,0.00099652931998823,0.000571803238876674,-0.0495085817402971,-0.028615471730664,-0.000396695631864499,0.00107826815090018,0.0195748522594453,-0.0537286706268171,0.873460156842122,-0.000564228526225159,0
0.28,0.000995531335240644,0.000571350213623068,-0.0493597807246519,-0.0285928106806846,-0.00039621734597725,0.00107728154203063,0.0194751315098599,-0.0536158188269176,0.873456260011296,-0.000529204521577375,0
0.29,0.00101139982701939,0.0005808132566888,-0.0502510996109706,-0.02906638552807,-0.000402300551912346,0.00109472732457509,0.0198540621839153,-0.0545512969101131,0.873452744392729,-0.000545101318258343,0
0.3,0.00100208767904187,0.000575861293145632,-0.0498065573080243,-0.0288185596234699,-0.000398339448225392,0.0010849523627415,0.0196723011737248,-0.0540759012516598,0.873450035168101,-0.000496341280757921,0
0.31,0.00101161889884466,0.000581212928533698,-0.0502781425401079,-0.0290863770401549,-0.000402205353481166,0.00109517675213889,0.0198616315026792,-0.0545841052015808,0.873446840883618,-0.000496943509107144,0
0.32,0.00101231076798937,0.000581688113976001,-0.0503202713292833,-0.0291101542178509,-0.000402427173427314,0.00109598655238807,0.0198784877100114,-0.0546294472935859,0.87344376439239,-0.000473483557889485,0
0.33,0.00101217926707369,0.000581729609931482,-0.0503219301649515,-0.0291122493048386,-0.000402296547489582,0.0010959350782062,0.0198782555014774,-0.0546321761723923,0.873440866177795,-0.000449165071981405,0
0.34,0.00101198191666391,0.000581732577410017,-0.0503199073358403,-0.0291123882174058,-0.000402140378882833,0.00109581171144811,0.0198764668764053,-0.0546310377580333,0.873438141890191,-0.000426096765269767,0
0.35,0.00101178980465741,0.000581732161465447,-0.0503176817782806,-0.0291123583384352,-0.000401990578970443,0.00109568904845807,0.0198746402178617,-0.054629636496835,0.873435581655737,-0.000404397826946077,0
0.36,0.00101160812516999,0.000581731485482255,-0.0503155318204852,-0.0291123350883646,-0.000401849112577051,0.00109557282315343,0.0198728756848696,-0.0546282857930688,0.873433175649358,-0.000384004155050566,0
0.37,0.00101143738872257,0.000581730824814451,-0.0503135089785713,-0.0291123117990759,-0.000401716183929743,0.00109546357831475,0.0198712165403999,-0.0546270138047828,0.873430914584732,-0.000364838856790476,0
0.38,0.00101127729089777,0.000581730201643519,-0.0503116232950442,-0.0291122643616815,-0.000401591535778428,0.00109536113906824,0.0198696854871432,-0.0546258086758345,0.873428789731271,-0.000346828096944288,0
0.39,0.00101112657787978,0.000581729615770049,-0.0503098358178487,-0.0291122380930151,-0.000401474198085636,0.00109526470345316,0.0198682231152227,-0.054624680292401,0.873426792883364,-0.000329902339379552,0
0.4,0.0010109849452618,0.000581729065135349,-0.0503081536768945,-0.0291122147013742,-0.000401363930316722,0.00109517407758309,0.0198668462148249,-0.054623619366291,0.873424916329356,-0.000313996222881528,0
0.41,0.00101085181096206,0.000581728547637283,-0.0503065687756081,-0.0291121912781535,-0.000401260279636335,0.00109508888901661,0.0198655500509986,-0.0546226186131904,0.87342315282282,-0.000299048322390149,0
0.42,0.00101072682573459,0.000581728061284415,-0.0503050834301285,-0.0291121678244262,-0.000401162972100261,0.00109500891474039,0.0198643360257806,-0.0546216796574824,0.873421495553344,-0.000285000913087492,0
0.43,0.00101060929108219,0.000581727604204444,-0.0503036811740042,-0.0291121414323104,-0.000401071466433273,0.00109493370736687,0.0198631930344453,-0.0546207898231715,0.873419938121327,-0.000271799747601639,0
0.44,0.00101049885776942,0.000581727174637216,-0.0503023620476951,-0.0291121179237549,-0.00040098548943638,0.0010948630437302,0.0198621170400603,-0.0546199537190481,0.873418474511981,-0.00025939384652595,0
0.45,0.00101039506012976,0.000581726770927585,-0.0503011191778806,-0.0291120943899891,-0.000400904678998515,0.0010947966258194,0.0198611043328988,-0.0546191648141629,0.873417099073451,-0.000247735301557682,0
0.46,0.00101029766533254,0.000581726391520584,-0.0502999562177823,-0.0291120708316803,-0.000400828851797342,0.00109473430508721,0.019860157422308,-0.0546184255611669,0.873415806494213,-0.00023677909048148,0
0.47,0.00101020581364401,0.000581726034953657,-0.0502988447471086,-0.0291120713361187,-0.000400757344267698,0.00109467553031872,0.0198592387811947,-0.0546177362713294,0.873414591782472,-0.000226482903310862,0
0.48,0.00101011971113275,0.00058172569985336,-0.050297808611419,-0.0291120477322438,-0.000400690310086949,0.00109462043471297,0.0198583973673578,-0.0546170754277039,0.873413450247335,-0.000216806978895066,0
0.49,0.00101003884730529,0.00058172538492781,-0.0502968350772484,-0.0291120211975252,-0.000400627353929135,0.00109456869122908,0.0198576095788008,-0.0546164511736986,0.873412377480777,-0.000207713951375385,0
0.5,0.00100996259526983,0.000581725088962896,-0.050295904839964,-0.0291120216335431,-0.000400567991490008,0.00109451989802229,0.0198568411882721,-0.0546158741144581,0.873411369339737,-0.000199168705886801,0
0.51,4.68442138006523,0.0546563603715323,5.77985175449024,-2.72967499420416,-0.381173681768594,4.66920738542081,-3.25530273604093,5.50098318254036,0.09312215767077,28.6834276177541,3650.83674885324
0.52,4.66163000622525,-0.0018770626930209,6.92052313942489,0.106649845189237,-1.90991017275022,4.25241589809008,-2.73555044438097,6.35781239728268,0.421731962140547,60.9937272594587,3650.83674885324
0.53,4.67890945004448,-0.0371439877253639,6.05765224195057,1.87953658308018,-3.93074893775072,2.53826438849685,-4.03052196214635,4.89721361226989,0.989479180880051,94.1127036345241,3650.83674885324
0.54,4.64745088582595,-0.0595309221744076,7.63169943843697,3.00486106270194,-4.50342110594094,-1.14958340690228,-8.12401086557898,1.12803979572354,1.80791911497511,129.777468353323,3650.83674885324
0.55,4.63944114791502,0.0944080845852056,8.03337429364099,-4.69534270534943,-1.24125720273556,-4.47130938406852,2.5579502286909,-8.94640912824526,2.8911525570014,165.024477480855,3650.83674885324
0.56,4.59830489354975,0.0640861213611028,10.0914931622809,-3.1665650710474,4.02103361641571,-2.23154735120038,10.3889786774833,-1.98355504898047,-2.06351018911185,197.359243130639,3650.83674885324
0.57,4.63003271527306,-0.057903659105909,8.50650992215101,2.93783189574177,2.13180131009074,4.11047186494837,6.6013022432509,6.11672919104172,-0.490943299094794,232.503458169227,3650.83674885324
0.58,4.66540648058127,0.0446622730674107,6.73922406683601,-2.1808903727534,-4.5277825387427,1.12569872947513,-7.06130150203133,-0.558072520735649,1.33668938969638,265.530502852112,3650.83674885324
0.59,4.61215323425492,-0.00783135250285505,9.40337096146536,0.443250865010169,1.22275438458976,-4.447121597314,2.04999020219271,-9.18789404266158,-2.8749670820122,300.32576070009,3650.83674885324
0.6,4.62687831664021,0.0565755067320004,8.66863721154677,-2.76002885581206,2.47993834751505,3.90654700950617,2.20801177355735,8.82540165647778,-0.553399889266284,333.05798974337,3650.83674885324
0.61,4.5953764767601,0.0934024630161414,10.2453606107105,-4.60343162412418,-4.18644308460853,-1.89734110865468,-7.25876253643949,-8.57142713910976,2.01663963846862,367.251026855767,3650.83674885324
0.62,4.55476991530129,0.0199755101731511,12.2773304503294,-0.93000974639287,4.52420977202629,0.527118526559507,12.0768120553706,2.39757621239163,-1.45042304865087,401.46493745481,3650.83674885324
0.63,4.61883672579097,-0.000716807479224979,9.07569188885546,0.109233023277692,-4.61474273076242,-0.194429273011494,-9.07228775684579,-0.27149580438222,1.61274843318741,435.185883499666,3650.83674885324
0.64,4.57259342889439,-0.0262048541215147,11.3895845941889,1.38937387920839,4.46573044099223,0.983132233599864,11.4280114853738,1.02642607847617,-1.35983338179872,468.717245210659,3650.83674885324
0.65,4.57150652627577,0.089913314995946,11.4456853668935,-4.41670541327076,-3.75447758582136,-2.60972304690758,-6.67629970863468,-10.2926198038216,2.19788921923447,502.335190290964,3650.83674885324
0.66,4.57199320543896,0.0864085474843679,11.4232543691738,-4.23623994075552,1.35153121366468,4.36851824834788,-0.900500333599022,12.1501262696191,-0.281142442466363,535.974066250598,3650.83674885324
0.67,4.5376687887534,0.0721785774381822,13.1413157561473,-3.51767761228556,2.60648992974592,-3.71508519816179,10.5648478761186,-8.57042734880901,-2.51389097664849,569.617989942011,3650.83674885324
0.68,4.58582612269744,0.060433358271395,10.735346353306,-2.9151725849587,-4.49604214374154,-0.905018486057717,-9.88254944500034,-5.10696671152836,1.78261166514756,602.978665991201,3650.83674885324
0.69,4.58201104824659,0.102749668520472,10.9280816379248,-5.0136998922639,-0.0863463192107335,4.58234951240012,-5.46021723137763,10.7119644641402,0.0412618331879893,636.133026105297,3650.83674885324
0.7,4.55766768185769,0.0641336437097769,12.1473147272624,-3.09132731536912,4.53448817608952,0.463535115616833,11.7081522831646,4.47579375844557,-1.45485516989795,669.843720251102,3650.83674885324
0.71,4.51079045987676,0.09640519306038,14.4933107965437,-4.70173265838131,1.81884743035299,-4.12896095395228,10.3860247425138,-11.1486697809196,-2.70528994040904,703.317565534195,3650.83674885324
0.72,4.57765144599715,0.0799106492049306,11.1523699500336,-3.84616992686688,-2.53767632608317,-3.81070562192006,-2.78053945756221,-11.4645967628036,2.57155275484308,736.402886549944,3650.83674885324
0.73,4.54619435934621,0.119572621383832,12.7275030230676,-5.84961857923556,-4.44484731592906,-0.962035915553106,-10.9770569329629,-8.70124082043612,1.81024261967385,770.01035262406,3650.83674885324
0.74,4.48236733897539,0.11321333225235,15.9210538502153,-5.51982646629385,-4.27886931720609,1.34004163606408,-16.8248401969988,-0.934447572048609,1.29254731360416,803.22133734409,3650.83674885324
0.75,4.51512955164562,0.109726714149114,14.285204345324,-5.3283414650985,-3.78910755576344,2.45786467300336,-14.9602011621785,2.94120164958232,1.01965679461883,836.369473335967,3650.83674885324
0.76,4.53647753209445,0.042680201762443,13.2201420061913,-1.98571594577379,-3.77023708893958,2.52324439799331,-12.1442330467633,5.58863366012354,0.990412918122718,869.882138803513,3650.83674885324
0.77,4.53387029884207,0.00512378928140222,13.3528191262085,-0.111734275769782,-4.23175372094687,1.62734955838972,-12.5084352359872,4.6743246691619,1.2048036651601,903.221315813796,3650.83674885324
0.78,4.44743639692771,0.0968993673692693,17.6768996891265,-4.703805574418,-4.43752495247107,-0.312173490723601,-17.169896043074,-6.30818827964094,1.66281342429278,936.321315951709,3650.83674885324
0.79,4.47914039498982,0.0801498713878368,16.0941082629156,-3.83497916111435,-3.19907856320288,-3.1360833895751,-8.55622745147154,-14.1604504781209,2.36414320282604,969.412855160146,3650.83674885324
0.8,4.42804179321232,0.131952935649608,18.6515379506676,-6.42498577268783,0.606223373141526,-4.38833213436705,9.43709441783195,-17.3234395849485,-2.97452656175364,1002.53590705598,3650.83674885324
0.81,4.44940852732203,0.0103115904119391,17.5857754216824,-0.355880970517501,4.34320398278224,-0.966396262330981,17.2512644990943,-3.43220361128461,-1.78741976994243,1035.69794928688,3650.83674885324
0.82,4.4347975682071,0.0809725114359913,18.3189361922309,-3.88751562306626,1.62966148293693,4.12531083309072,2.77732188984425,18.5197916849732,-0.35796652377067,1068.81658629714,3650.83674885324
0.83,4.45102935772222,0.0875691484893979,17.5099458055377,-4.19819631666939,-4.28246432884296,1.21648262267073,-18.0019239728136,0.392157752953872,1.31369688645839,1101.78370335364,3650.83674885324
0.84,4.4456842240599,0.10075113033993,17.7798221316132,-4.82715469845229,0.280953853237538,-4.43794140820615,6.33444852215198,-17.3002387103415,-3.05571097421306,1134.61705309825,3650.83674885324
0.85,4.50276590067113,0.110574654929575,14.9283952039744,-5.33200392241412,3.59589785790103,2.71231379196845,8.37951514967916,13.4562615555355,-0.90000953143649,1167.75811286961,3650.83674885324
0.86,4.39817932580462,0.0537187233412681,20.1604972040957,-2.49024364559459,-2.52580479369451,3.60099669915461,-13.7988149215528,14.9077049773433,0.623890421659938,1200.73643400195,3650.83674885324
0.87,4.4439045443312,0.130491680371264,17.8770070986485,-6.28789010971206,0.407032550946516,-4.42714808655003,8.40040690359666,-16.9869982248468,-3.02055451853212,1233.48186905362,3650.83674885324
0.88,4.3870849219089,0.136480845550175,20.7208490612342,-6.62202241401323,0.749211906710938,4.32479163105982,-3.65646520566218,21.4437643353476,-0.140434431431232,1266.5126527448,3650.83674885324
0.89,4.4430206333518,0.163145754630901,17.926945927122,-7.95590974795797,-0.875005867182282,-4.35906109363479,4.97170529667826,-18.972454681316,2.98019579404262,1299.32587632386,3650.83674885324
0.9,4.43299114079616,0.105797253460433,18.4313478165996,-5.04336876204615,-0.153497062228104,4.43159589370515,-6.1120794421881,18.1050444821004,0.0584844848806179,1331.99710352814,3650.83674885324
0.91,4.3833542233225,0.163863535370997,20.9161134413398,-7.97642995079964,2.03150242930577,-3.88762696063656,17.2992092184105,-14.2072022815427,-2.62269783784261,1364.97385517004,3650.83674885324
0.92,4.38947976145761,0.119307028065379,20.6127645507646,-5.76047912882368,-4.08071166216047,1.62159152486047,-21.3365361115005,1.67970502812396,1.21972449376492,1397.86189549637,3650.83674885324
0.93,4.3619329323988,0.113936418544317,21.9931512438817,-5.49304262254135,3.68802385050129,2.3319349245529,15.2198009278189,16.799698765361,-0.980850594889684,1430.55218272865,3650.83674885324
0.94,4.41505649489424,0.163840045124302,19.3399493777186,-7.98110221471665,0.717516174340131,-4.35944239015203,11.6680669325552,-17.3662848229518,-2.94137382050118,1463.27510938324,3650.83674885324
0.95,4.41838318990664,0.0929631785438136,19.1767095544448,-4.42945673923985,-4.41746098343812,-0.129578644909109,-18.9294141797437,-5.38920728419756,1.62115818938811,1495.9632773473,3650.83674885324
0.96,4.40434350857424,0.183178477911949,19.881760341059,-8.94285435300753,-0.434453518419807,4.3866896672346,-11.6349486299902,18.4360247509028,0.140283573469634,1528.71924978572,3650.83674885324
0.97,4.36326158556994,0.146722680093523,21.9389671682951,-7.11083252796417,3.95678303110147,1.84484342255694,16.3413531744822,16.2739791101969,-1.10089858915865,1561.4140534067,3650.83674885324
0.98,4.458600422317,0.139689646667349,17.1751935330744,-6.72414971565214,3.77173028348898,-2.38173919476577,18.2125977603858,-2.91594669283522,-2.10271545388563,1593.9657410393,3650.83674885324
