t,iq,id,vq,vd,ia,ib,va,vb,theta_e,omega,r
0,0,0,0,0,0,0,0,0,0,0,0
0.01,0.000462076282466591,0.000259049600021726,-0.0219364034062083,-0.0129591002581727,-0.000400566351224785,-0.000346652252777943,0.0196381203423568,0.0162323227949788,2.79512709763166,-0.00223799906640321,0
0.02,0.000574968902968543,0.000319314389847883,-0.0274179816962119,-0.0159738849470317,-0.000495593503107782,-0.000432363271592457,0.0243355399778893,0.0203639930902407,2.79510905977526,-0.00262082156814873,0
0.03,0.000618589092480475,0.000342962072221547,-0.029555226170562,-0.0171568749300585,-0.00053265786282195,-0.000465350458785922,0.0261744407590591,0.0219719913141538,2.79508991808593,-0.00263930913636248,0
0.04,0.000609644594495457,0.000338360775328545,-0.0292229677391332,-0.016926697222474,-0.00052530063033057,-0.000458490778154555,0.0258454954658936,0.0217371867192193,2.79507195285018,-0.00240275201575178,0
0.05,0.000623242779815029,0.000346832021305073,-0.0299422807288318,-0.0173504736699012,-0.000537894590163704,-0.000468394516905086,0.0264887579897138,0.0222693693663848,2.79505502693007,-0.00229198787493898,0
0.06,0.000624880416716382,0.000348553211827411,-0.0300958833994821,-0.0174365790845565,-0.000540077126448044,-0.000469341639063131,0.0266222702715997,0.0223841732783034,2.79503915228038,-0.00213152340163304,0
0.07,0.000632989484412703,0.000354141225723056,-0.0305460107338564,-0.0177161127143247,-0.000548094116315764,-0.000475062664070467,0.0270384036013367,0.0227122027146367,2.79502467472756,-0.00201885355379358,0
0.08,0.000624617403635882,0.000350036430282798,-0.0302200082722979,-0.0175107675979591,-0.000541396045164294,-0.000468575208190122,0.0267348420237532,0.0224749661582048,2.79501095290129,-0.0018303308194811,0
0.09,0.000621705072589497,0.00034919981080376,-0.0301440712116292,-0.0174689175603412,-0.000539625730585632,-0.000466113479786647,0.02666996630925,0.0224174264135124,2.79499843798152,-0.00168243172226264,0
0.1,0.000620081314836601,0.000349028138605022,-0.0301236188140946,-0.0174603391758036,-0.000538918025616305,-0.000464638397265442,0.0266552080519656,0.0224007977156485,2.79498693745136,-0.00155187842528964,0
0.11,0.000618819489215293,0.000348991847573495,-0.03011571013969,-0.0174585114938769,-0.000538460148287472,-0.000463458238260657,0.0266510395225525,0.0223936980681397,2.79497634984304,-0.00143287364045264,0
0.12,0.00061770855515133,0.000348983202874386,-0.0301108234091422,-0.0174580883081131,-0.000538079123376412,-0.000462411063862102,0.0266491997232441,0.0223889858604866,2.79496659843156,-0.00132352935002592,0
0.13,0.000640220166735701,0.000362246789645456,-0.0312111228539671,-0.0181215966271891,-0.000558206109555357,-0.000479072580887908,0.0276472627264059,0.0231981748821123,2.794957267095,-0.00133889038766007,0
0.14,0.000652996335752456,0.000370106726206331,-0.0319586465148677,-0.0185147962232951,-0.000569943366508534,-0.000488413515642453,0.0282712449112999,0.0237674036743121,2.79494845135483,-0.00131018050297394,0
0.15,0.00062297931194044,0.000353275020860333,-0.0304855118917338,-0.0176727916211635,-0.000543918588900376,-0.000465895945591155,0.0269790230005299,0.0226677373578174,2.79494021763682,-0.00106984204370861,0
0.16,0.00061576827228198,0.000349850159046567,-0.0301816278260623,-0.0175014630688177,-0.000538250740039934,-0.000460273657491395,0.0267147991307549,0.022439950427386,2.79493316510124,-0.000958145501016442,0
0.17,0.000613635705211334,0.000349152636271535,-0.0301125211902239,-0.0174665631524484,-0.000536873079131991,-0.000458501514750942,0.0266586385880609,0.0223866422096147,2.79492678604604,-0.000879460133014864,0
0.18,0.000612666398732295,0.000349009983677202,-0.0300953774036377,-0.0174594334218515,-0.000536412254714796,-0.000457635201698634,0.0266462390444053,0.0223727848348805,2.79492093589188,-0.000812319897205584,0
0.19,0.000611993309394676,0.000348980264443631,-0.0300898566758182,-0.0174579337716691,-0.000536158068498173,-0.000457009366752261,0.0266430732460983,0.0223679586540727,2.79491555274876,-0.000751652235760688,0
0.2,0.000611421402538523,0.000348973573448288,-0.0300870154921351,-0.0174576110857246,-0.000535959719137388,-0.000456471100848251,0.0266419152701353,0.0223652640669258,2.79491059533864,-0.000696028368219751,0
0.21,0.000610905541830068,0.000348971617560946,-0.0300849075166735,-0.0174575079688325,-0.000535784683040336,-0.000455984149199463,0.0266412041578318,0.0223631948922638,2.79490602910867,-0.000644847931834253,0
0.22,0.000610432754848519,0.000348970671571588,-0.0300830743494772,-0.0174574528006711,-0.000535625064195304,-0.000455537559828884,0.0266406234468153,0.0223613774837067,2.7949018229967,-0.000597715837714942,0
0.23,0.000609997578140762,0.000348969974039682,-0.0300813970207212,-0.0174574208478775,-0.000535478303969426,-0.000455126437484001,0.0266401100914754,0.0223597075940682,2.79489794855878,-0.00055430299923804,0
0.24,0.000609596860371425,0.000348969366707401,-0.0300798552831495,-0.0174573917310616,-0.000535343195432274,-0.000454747857806087,0.0266396386333381,0.0223581724072455,2.79489437963142,-0.000514313968416878,0
0.25,0.000609227865776654,0.000348968814280411,-0.0300784376808851,-0.0174573625445235,-0.000535218787425324,-0.000454399246660928,0.0266392029883159,0.0223567614935867,2.79489109212191,-0.000477478290644763,0
0.26,0.000613179395787156,0.000351438110589956,-0.0302778102654797,-0.0175809011846452,-0.000538885217889162,-0.000457275014551955,0.0268232031883229,0.0225022143722477,2.79488816016181,-0.000466415789936966,0
0.27,0.000603162611244012,0.000345733651957277,-0.0298229080175996,-0.0172955286702509,-0.000530117842919141,-0.000449791025162983,0.0264003021914274,0.022171269670702,2.79488513503393,-0.000383262663899617,0
0.28,0.000602436261595377,0.000345518378856976,-0.0296985954814574,-0.0172847514876198,-0.000529669719204858,-0.000449179683390081,0.0263479812602429,0.0220579484782675,2.7948825619952,-0.000352205213129022,0
0.29,0.000606730484039147,0.000348265396158745,-0.0300134076333971,-0.0174221766626535,-0.000533713494866016,-0.000452283729335788,0.0265842541224174,0.022307270343722,2.79488031300187,-0.000350148808082967,0
0.3,0.000598264437994412,0.00034384797393667,-0.0296237295340176,-0.0172011912044044,-0.00052668276428455,-0.000445821749979414,0.026244035403518,0.0220158337587746,2.79487883314,-0.000291320467284119,0
0.31,0.000605524438194282,0.00034792515760553,-0.0299731134988871,-0.0174051562675753,-0.000532985197695332,-0.000451263270810955,0.0265546292550386,0.0222750681849311,2.7948769467993,-0.00030821610656004,0
0.32,0.000606962742690166,0.000348754306228809,-0.0300495628282291,-0.0174466364710329,-0.000534254606007697,-0.000452333232348307,0.0266196612935239,0.0223328229952715,2.79487507258438,-0.000295607841672032,0
0.33,0.000607129337084936,0.000348922744606555,-0.0300658342864199,-0.0174550619801191,-0.000534470426750877,-0.000452431736930225,0.0266331539241773,0.0223452163139975,2.79487331601041,-0.000277777591286809,0
0.34,0.000607027177018458,0.000348956796467135,-0.0300688698639577,-0.0174567648704393,-0.000534468471729325,-0.000452323216480123,0.0266358233205596,0.0223474493102313,2.79487169129426,-0.000259981672392722,0
0.35,0.000606876760816625,0.000348963527542518,-0.0300690304295648,-0.017457100235314,-0.000534424365857207,-0.000452178663309447,0.0266362267693802,0.0223474464556926,2.79487019322253,-0.000243286345414438,0
0.36,0.000606725762130028,0.000348964716319267,-0.0300685930982341,-0.0174571562477517,-0.00053437479588113,-0.000452035508776745,0.0266361616807977,0.0223469793502387,2.79486881295316,-0.000227840697844053,0
0.37,0.000606583735459389,0.000348964791865799,-0.0300680489303421,-0.0174571714051096,-0.000534327178245188,-0.000451901228892267,0.0266360194314663,0.0223464285466687,2.79486754144928,-0.00021359823574706,0
0.38,0.000606452527276631,0.00034896465404704,-0.030067527055709,-0.0174571589687043,-0.000534282990659706,-0.000451777249876644,0.0266358565647575,0.0223459107571402,2.79486637019059,-0.000200475569578458,0
0.39,0.000606331505432216,0.000348964484887858,-0.0300670352533341,-0.0174571450453548,-0.000534242193137148,-0.000451662911101583,0.0266357004539682,0.0223454242158494,2.7948652912845,-0.000188386935137481,0
0.4,0.000606219863138899,0.000348964320467869,-0.0300665705939538,-0.017457145545115,-0.000534204548795249,-0.0004515574376203,0.0266355652297958,0.0223449605672919,2.79486429745152,-0.000177251356036742,0
0.41,0.000606117176707494,0.000348964167252483,-0.0300661466883711,-0.017457131560906,-0.000534169922816479,-0.000451460425158528,0.026635428480771,0.0223445422568277,2.79486338198415,-0.000166993805282264,0
0.42,0.000606022414635798,0.000348964025750768,-0.0300657439825693,-0.0174571319994723,-0.000534137967985037,-0.000451370900109878,0.0266353108867191,0.0223441409062919,2.79486253870334,-0.00015754507576078,0
0.43,0.000605935269647469,0.000348963895323913,-0.0300653767909609,-0.0174571165080897,-0.000534108581886912,-0.000451288570647587,0.0266351888929499,0.0223437801411566,2.79486176191704,-0.000148841396263599,0
0.44,0.000605854943075642,0.000348963775157767,-0.0300650322888661,-0.0174571168939389,-0.000534081494747842,-0.000451212683099069,0.0266350881729102,0.0223434369513848,2.79486104638187,-0.000140824019392038,0
0.45,0.000605780902931174,0.000348963664456335,-0.0300647090295914,-0.0174571172558414,-0.000534056527241869,-0.000451142734815997,0.026634993388113,0.022343115251311,2.7948603872681,-0.000133438829067119,0
0.46,0.000605712850057645,0.000348963562477005,-0.0300644151158442,-0.0174571031543009,-0.000534033579039387,-0.000451078442313507,0.0266348938113934,0.0223428274498439,2.79485978012707,-0.000126635976147315,0
0.47,0.000605649985781813,0.00034896346853309,-0.0300641319916183,-0.0174571020199825,-0.000534012379952266,-0.000451019052486557,0.0266348090267923,0.0223425466644209,2.79485922086025,-0.000120369542147112,0
0.48,0.000605592069159374,0.000348963381992305,-0.0300638671450621,-0.0174571023219062,-0.000533992849225323,-0.000450964336923066,0.0266347308186388,0.0223422837555184,2.79485870569269,-0.000114597229335461,0
0.49,0.000605538975654513,0.000348963302271504,-0.0300636324749689,-0.0174570881688181,-0.000533974945571611,-0.000450914176834954,0.0266346483627016,0.0223420552214681,2.79485823114731,-0.00010928007524251,0
0.5,0.000605489848388848,0.00034896322883346,-0.0300634017162294,-0.0174570884382014,-0.000533958378750817,-0.000450867764806515,0.0266345799638926,0.0223418264615403,2.79485779402065,-0.000104382189669299,0
0.51,4.74487057621633,-0.0284022104295837,2.7571072406089,1.42754847336331,-0.544256065872017,4.71363859511549,1.11923562647252,2.89600528184163,0.108969245559404,33.8422575894511,1898.04570151799
0.52,4.74377755614188,-0.00545012570232428,2.81243546485978,0.287053317877556,-2.27166293659161,4.16449309142681,-1.09180108615724,2.60771226165224,0.498220261141431,72.4208556874203,1898.04570151799
0.53,4.71898662388495,0.0325456204382277,4.05274486993847,-1.60537500737082,-4.33868390014822,1.85626398672426,-4.35823382852884,0.0881350723052938,1.17341897931253,112.142725222003,1898.04570151799
0.54,4.70572793449796,0.0395223909934472,4.71649191272224,-1.95058941467811,-3.95650336847625,-2.54784585643251,-2.87401144892365,-4.21783750503553,2.15131521155423,155.225473321477,1898.04570151799
0.55,4.70558805647349,0.0389772227662362,4.72435801510706,-1.91445096743447,1.35176475968345,-4.50741724445369,3.22369074358937,-3.94873386686332,-2.8419465850517,195.85237093008,1898.04570151799
0.56,4.68596884469811,0.0140845952002359,5.70622036300096,-0.657212228067529,4.47295306340275,1.39685120249052,5.24387028213021,2.34407832805133,-1.26509858917427,234.795189233959,1898.04570151799
0.57,4.65662102208085,0.0023123893307786,7.17468498938145,-0.0675698710127867,-2.67407025031312,3.81227923778152,-4.17828608345048,5.83288914596945,0.612185715343808,276.843222370974,1898.04570151799
0.58,4.68508357013263,0.0553098509322552,5.75255661047731,-2.70351259985895,-1.69475727806206,-4.36816494734259,0.514528031076894,-6.33530968774048,2.7832967381745,315.987588021964,1898.04570151799
0.59,4.70834102243385,0.0122123068603315,4.59081703714684,-0.543827007952021,4.0414870979814,2.4155757824631,3.6542579390439,2.83156278370627,-1.02947980357049,356.827257970302,1898.04570151799
0.6,4.6998603945066,0.0223108112271033,5.01600360927503,-1.04783158726962,-4.64120963611888,-0.74051239945501,-4.77953915689537,-1.84776857080208,1.73376143236685,397.778516622895,1898.04570151799
0.61,4.67466601723045,0.0593891989111037,6.27691626014339,-2.89763597198373,4.6643798137045,0.315579471928206,6.02440174630371,3.39154176770969,-1.49053815483892,437.744933723864,1898.04570151799
0.62,4.66441785855624,0.0723422441961938,6.79055709970256,-3.52443450142391,-4.48583133376397,-1.28036893297795,-5.48032372007187,-5.33847882850215,1.86433676054077,477.525830136525,1898.04570151799
0.63,4.64790214389106,0.0740832341027684,7.61766365608732,-3.60385708613744,3.28606787987422,3.2878930264869,2.70915656171462,7.97979048588967,-0.769182811036297,517.610277270894,1898.04570151799
0.64,4.65202190352366,0.0540984027148789,7.4130122298282,-2.59636841747948,0.0998549390272734,-4.65126471179528,2.84022475570937,-7.32304599302251,-3.1084991249739,557.878076493675,1898.04570151799
0.65,4.62472209356942,0.0505048052290229,8.77941745204846,-2.42814824297193,-4.16024929904538,2.02062637513538,-8.97554674570288,1.55358788064379,1.12957550825303,598.32229767606,1898.04570151799
0.66,4.65261717121324,0.0726205085724736,7.38608078325331,-3.52659454661493,2.76731616769181,3.74086641142999,1.43185709526118,8.0585881946969,-0.621303277346815,638.611889465483,1898.04570151799
0.67,4.61898635941095,0.095717350240454,9.0691152864261,-4.66677846468727,3.98960397094427,-2.32964738846616,10.1939908605179,-0.331999476859032,-2.07859583396679,678.276384315751,1898.04570151799
0.68,4.60639661966542,0.0947873677044289,9.70015205641199,-4.60261967928579,-0.562757427154406,-4.57287421004819,3.5922701010421,-10.1179372082862,3.03971849200402,717.976655122486,1898.04570151799
0.69,4.61134952864687,0.0714749234691692,9.454110924176,-3.4504870848166,-3.85245809834808,-2.53539340941577,-5.874451995274,-8.17171268733376,2.16835966688262,758.46453959522,1898.04570151799
0.7,4.61113342412885,0.0528402419469256,9.46655530243011,-2.49020646779551,-4.61132121205892,-0.0325611041382254,-9.41881648486595,-2.6650879104892,1.58931610455729,797.80481961402,1898.04570151799
0.71,4.59896819347552,0.0520460900103488,10.0765299716999,-2.46331329038876,-4.42086125059601,1.26854367014443,-10.3690805862968,0.294170753227438,1.30267570615539,838.114510210012,1898.04570151799
0.72,4.58190351491639,0.0962206758477329,10.9315069016424,-4.65982509870568,-4.39894762326885,1.28544079840383,-11.7675763668655,-1.6540736202394,1.30749352944137,877.724347647147,1898.04570151799
0.73,4.5698155061051,0.0832569361389965,11.5376775972263,-3.99306241165123,-4.57002831585168,-0.070616354817783,-11.3967273280192,-4.37917320640083,1.60446402591223,917.281560909153,1898.04570151799
0.74,4.59690920821264,0.0906372331999354,10.1848439193597,-4.36441315018172,-3.78875795569294,-2.60482293635589,-5.7342913230555,-9.48140553027492,2.1928074042433,957.184584026935,1898.04570151799
0.75,4.60008962176879,0.104077533976806,10.0276959617253,-5.03755694297171,-0.423523688143679,-4.5817337708519,4.32847002124531,-10.3535507691644,3.0720384167836,997.018748297671,1898.04570151799
0.76,4.57857798091219,0.117605357741481,11.1051313491848,-5.71149151509383,4.02872379802687,-2.17866746124217,12.4876428295294,0.06208197595355,-2.04085566961417,1036.76830047385,1898.04570151799
0.77,4.56464874171805,0.0930112392219957,11.803560797042,-4.47322708646634,2.57857225399712,3.76770943104773,2.7244440009155,12.3252266892921,-0.579796958785219,1076.34459677713,1898.04570151799
0.78,4.60292923201143,0.0811812164771578,9.89158650648839,-3.86561786353784,-4.20906381092548,1.86475996856741,-10.6162667913322,0.285244627473173,1.17138512234695,1115.77107803614,1898.04570151799
0.79,4.58482654575418,0.111233037421389,10.7987659642408,-5.35114270676564,0.213059940834335,-4.58122393088112,6.10092404516774,-10.3935942009351,-3.0708625672677,1155.16432648042,1898.04570151799
0.8,4.53018179696946,0.149552545687404,13.5330955377111,-7.26474231386567,3.16587576833437,3.24378539625979,3.76404114162324,14.891378378238,-0.740243233923436,1194.79111730792,1898.04570151799
0.81,4.52217318854279,0.0980000695285432,13.9356700089756,-4.70712758235274,-4.33743739452259,-1.28307880093155,-11.8417374124526,-8.72543430037309,1.88007683236633,1234.45700563906,1898.04570151799
0.82,4.57412513165367,0.118318828631953,11.3402701548824,-5.68474447006175,4.56965654821263,0.23422018831006,10.8689050999598,6.5410204711254,-1.4937243881318,1273.55890720022,1898.04570151799
0.83,4.52472780701722,0.136175726270678,13.8123573100038,-6.61010296046136,-4.50250806650604,-0.468109674187811,-12.8081072447605,-8.39208343701541,1.70447738434308,1313.28424839625,1898.04570151799
0.84,4.49287256833873,0.112503018842027,15.4073708999508,-5.38182304568196,-3.12966200217303,-3.22548858263884,-6.49392712678276,-14.9726419784793,2.39630701714909,1352.31966302111,1898.04570151799
0.85,4.54338091426407,0.146969307967816,12.8842736880962,-7.1240040106766,0.651833853643206,4.49878013875186,-5.64542146510628,13.5972481809821,-0.111553175154033,1391.85605158985,1898.04570151799
0.86,4.49781291092594,0.0889358362757061,15.1650426348074,-4.23332657701975,3.19651461260206,-3.16552126767262,13.903015626398,-7.3895688991551,-2.33155236775922,1431.19284246783,1898.04570151799
0.87,4.24185076472896,0.10643637189906,15.7868544316129,-5.07174191930383,-3.87059248485743,-1.7387180414489,-12.0401871796573,-11.4009311733637,2.01808177121344,1469.43219801473,1898.04570151799
0.88,3.88469999104929,0.126377720740073,17.0076755559661,-6.08631206632668,-1.2352696062007,3.68523735310965,-11.6315784231706,13.8206586590999,0.355944957479883,1504.92498919266,1898.04570151799
0.89,3.64792049677942,0.127378685295586,13.4962133743506,-6.14984605395903,3.23753896174719,1.68579083858585,8.7169407341976,11.9993052369661,-1.05582115748362,1537.76649401026,1898.04570151799
0.9,3.33965186134575,0.0959567100068233,14.7378881146347,-4.5938206183334,2.56768820008141,-2.13762942353163,14.4292538535559,-5.4868175824023,-2.23632462239041,1568.08722461738,1898.04570151799
0.91,3.06597327373476,0.0969313197622031,15.3506580670233,-4.65411037152375,-0.286206208140686,-3.05412406467524,3.69663040393521,-15.6089195685574,3.07975880763864,1596.05394334534,1898.04570151799
0.92,2.80082998055506,0.096910114300526,16.5524938411929,-4.66451491524284,-2.13571060544582,-1.81460198391164,-9.09467692203513,-14.5955336812688,2.30967263138014,1621.84776799625,1898.04570151799
0.93,2.60247670713872,0.0744901307953384,15.3359329334545,-3.58810341727545,-2.58429689928556,-0.315979947351937,-14.6258900883696,-5.84368583989671,1.7210766208085,1645.70770264218,1898.04570151799
0.94,2.38896521844807,0.106080676231259,15.70935766961,-5.19897773813175,-2.27352763243005,0.741269201708357,-16.5276037853617,-0.807218079221166,1.29999608527049,1667.71511771718,1898.04570151799
0.95,2.24256876644955,0.0970321813390356,13.4386439609581,-4.73659015054241,-1.87707774686517,1.23089765971588,-13.9697019396762,2.80710980907752,1.0336294263668,1687.94726544256,1898.04570151799
0.96,2.05462523975305,0.0630443787092172,14.0630122119511,-3.02079054039182,-1.5831726749577,1.31111546050849,-12.9555189162089,6.24884129852557,0.909795251279064,1706.52963044729,1898.04570151799
0.97,1.89081125452836,0.0721497872997326,14.1747820519332,-3.51143800615325,-1.45741756999475,1.20677538039567,-13.389319634113,5.82930208742184,0.917339776231573,1723.79852095715,1898.04570151799
0.98,1.70361930895917,0.0294027876109971,16.0043693436498,-1.39746911571972,1.6714463907475,-0.330832641429108,15.9987174523097,-1.46075251103937,-1.748945287819,1739.72096305226,1898.04570151799
