t,iq,id,vq,vd,ia,ib,va,vb,theta_e,omega,r
0,0,0,0,0,0,0,0,0,0,0,0
0.01,0.000763424492711209,0.00042979235425094,-0.0368593324614203,-0.0215210238278404,-0.000873120775464037,7.21008689060821e-05,0.0424768745390765,-0.00418090725698851,2.0011585727246,-0.00283631584966835,0
0.02,0.000842617986363898,0.000475405271755666,-0.0409623065053561,-0.0238049949929441,-0.000964121048676783,8.05347555742815e-05,0.0471584974530219,-0.00454581772909546,2.00113811194779,-0.00287307640827306,0
0.03,0.00087030775806178,0.000491656370810025,-0.0423892612921629,-0.0246187426413084,-0.000996064155704842,8.37721816631644e-05,0.0487947347034337,-0.00469103691690411,2.00111832502724,-0.00271187969491692,0
0.04,0.000851702821802419,0.000482358675071543,-0.0416074676942152,-0.0241531809834607,-0.00097527531404755,8.31002400263046e-05,0.0478899216325409,-0.00459488036558763,2.0011011020477,-0.00239972515573487,0
0.05,0.00086742895820213,0.000491808478377816,-0.0424468308581028,-0.024626352841247,-0.000993508417841731,8.51445864958945e-05,0.0488500740557818,-0.00467557150545477,2.00108487336035,-0.00223941199554851,0
0.06,0.000866454697729342,0.000492020875064935,-0.0424862062852303,-0.0246369858871211,-0.00099271029824067,8.57586641910267e-05,0.0488902267422936,-0.00466953179670844,2.00107012014156,-0.00203222800423172,0
0.07,0.000889719166429698,0.000505839279465886,-0.0436648189833717,-0.0253289185553017,-0.0010196170115082,8.86268672921347e-05,0.0502499663341664,-0.00480743335334657,2.0010569861868,-0.00194488610779339,0
0.08,0.000864664614379872,0.000492335599147129,-0.0425481294280127,-0.0246527441377473,-0.000991212458098483,8.68164757325423e-05,0.0489529608189548,-0.00465926371887541,2.001044802578,-0.00167620908333848,0
0.09,0.00086302845689931,0.000492026172530848,-0.042533266439755,-0.0246372515421665,-0.000989595412851934,8.72283826272711e-05,0.0489329402190966,-0.00465191133852417,2.00103399287818,-0.00152069407400252,0
0.1,0.000862082125073625,0.000492017319050322,-0.0425448867757548,-0.024636818775419,-0.000988730777378778,8.76246682212362e-05,0.0489432757952913,-0.00464714800288172,2.00102425343198,-0.00138270072195797,0
0.11,0.000861242604520203,0.000492015485916419,-0.0425559989152864,-0.0246367294059098,-0.000987966224825839,8.79818209955449e-05,0.0489532972617289,-0.00464286190863835,2.00101547446265,-0.00125836951018332,0
0.12,0.00086048626271703,0.00049201397283445,-0.0425660324976655,-0.0246366487716206,-0.000987277475340134,8.8303705896589e-05,0.0489623461892291,-0.00463899137039463,2.00100756115408,-0.00114629947939887,0
0.13,0.000901761671841782,0.000515586289444418,-0.0445671481910517,-0.0258169791465272,-0.00103462218966414,9.25216694646994e-05,0.0512733495066026,-0.0048775752694508,2.00099978156333,-0.00120520047690207,0
0.14,0.000952842027544671,0.000545671417643684,-0.0472774087478477,-0.0273234389332604,-0.00109359464357567,9.85696760231568e-05,0.054364895904205,-0.00511681408452859,2.00099286624128,-0.00131546350443517,0
0.15,0.000860839539853273,0.000493231569375764,-0.042704838130445,-0.0246976132193486,-0.000988104495516312,8.92838190498664e-05,0.0491138318952904,-0.00463754407431478,2.00098650510726,-0.000857618823266446,0
0.16,0.000858048319857529,0.000492036794995109,-0.0426019707604471,-0.024637796359048,-0.000985068866971202,8.93669634902089e-05,0.0489953674211994,-0.00462632611967451,2.00098143126452,-0.000776482147008954,0
0.17,0.000857554724114682,0.000492008746381543,-0.0426049899023183,-0.0246363741833637,-0.000984608138009157,8.95518058639063e-05,0.0489974973114623,-0.00462399769599873,2.00097687438782,-0.000711712501499351,0
0.18,0.000857160485731277,0.000492007342689761,-0.0426101081501876,-0.0246363226953224,-0.00098424886463273,8.97189836595428e-05,0.0490021087830892,-0.00462201766861936,2.00097276726668,-0.00065354064022659,0
0.19,0.000856806645624687,0.000492006620895102,-0.0426147927270647,-0.0246362827193761,-0.000983926628413645,8.98695326003239e-05,0.049006332782924,-0.00462020914775771,2.00096906514253,-0.000601110194310567,0
0.2,0.000856487671903461,0.000492005982529951,-0.0426190122377535,-0.0246362397847652,-0.000983636148634876,9.00052557722088e-05,0.0490101345525475,-0.00461857402186203,2.00096572806994,-0.000553849833636475,0
0.21,0.000856200128190042,0.000492005407295751,-0.0426228127382349,-0.0246362201283464,-0.000983374290569603,9.01276038050112e-05,0.0490135667235156,-0.00461711868706682,2.00096272005236,-0.000511249626334998,0
0.22,0.000855940989814935,0.000492004888710394,-0.0426262392549666,-0.0246362004173897,-0.000983138299710805,9.02378645693966e-05,0.0490166603370864,-0.00461580474307039,2.00096000864345,-0.000472850050541151,0
0.23,0.00085570746494102,0.000492004421196524,-0.0426293291596603,-0.0246361602555873,-0.000982925633787901,9.03372264095326e-05,0.0490194407173327,-0.00461459949524894,2.0009575645952,-0.000438236899167239,0
0.24,0.000855496871751624,0.000492003999730304,-0.0426321078240135,-0.0246361375445168,-0.000982733850977989,9.04268293671954e-05,0.0490219466066309,-0.00461352809976193,2.00095536154471,-0.000407036808463565,0
0.25,0.000855307116907474,0.000492003619780739,-0.0426346143155595,-0.0246361177019282,-0.000982561044731872,9.05075659010754e-05,0.0490242073211263,-0.00461256217248057,2.00095337572805,-0.000378913230544669,0
0.26,0.000863818423907299,0.000496826638285914,-0.0430480275733582,-0.0248776397407863,-0.000992308079232288,9.13436034022036e-05,0.0495006686047236,-0.00465976874042975,2.00095163733196,-0.000389211221527364,0
0.27,0.000832594601406595,0.000479216744734234,-0.041579027560962,-0.0239958548049151,-0.00095658501632735,8.83604281513288e-05,0.0477977699024326,-0.00447099240526225,2.00094979034988,-0.000238124385636415,0
0.28,0.000826741343728724,0.000475635601380615,-0.0410789596712113,-0.0238165303319674,-0.0009497714759145,8.75478056279465e-05,0.0472684704293517,-0.00451660801841707,2.00094829914472,-0.000194026081186543,0
0.29,0.000854009187768512,0.000491629831162058,-0.0426087763470797,-0.0246174201502376,-0.000981224922591601,9.07151308579436e-05,0.0489928976614367,-0.00460664469921169,2.00094721251908,-0.000288777206289546,0
0.3,0.000850610120875066,0.000489865440549003,-0.0424493112327864,-0.0245290540379059,-0.000977399710985743,9.05291806234245e-05,0.0488111087193524,-0.00459284026720247,2.00094693474684,-0.000271271587124006,0
0.31,0.000854480746632532,0.0004919535223853,-0.0426392479261037,-0.0246336203563335,-0.000981788378167257,9.08140685615391e-05,0.0490273425140001,-0.00460873101608562,2.00094580933923,-0.000271341789045853,0
0.32,0.00085448150790472,0.000492000864492259,-0.0426453159350091,-0.024635980630034,-0.000981808717285241,9.08578047003287e-05,0.0490338371906519,-0.00460839702725352,2.0009447661715,-0.000256972160447854,0
0.33,0.000854394080055433,0.000492001766674809,-0.0426466120585106,-0.0246360362309034,-0.000981729544455435,9.08960064481801e-05,0.049035034091985,-0.00460795321562186,2.00094382514144,-0.000243655268885175,0
0.34,0.000854312938576229,0.000492001628921764,-0.0426476677477614,-0.0246360365209763,-0.000981655660044175,9.09305503318601e-05,0.0490359898250236,-0.00460755484682594,2.00094297688465,-0.000231642311437281,0
0.35,0.000854239948298763,0.000492001483095722,-0.0426486251868251,-0.024636016423947,-0.00098158918848448,9.09616055720434e-05,0.0490368481425565,-0.00460717481881614,2.00094221227016,-0.000220813670495807,0
0.36,0.000854174057226699,0.000492001351151278,-0.0426494815055479,-0.0246360166761446,-0.000981529182031788,9.09896389365942e-05,0.0490376233849114,-0.00460685175786386,2.00094152305152,-0.000211052791514148,0
0.37,0.000854114568997327,0.00049200123220191,-0.0426502468652305,-0.0246360169116027,-0.00098147500672431,9.1014947328463e-05,0.0490383162606501,-0.00460656328018437,2.00094090179399,-0.000202254392575127,0
0.38,0.000854061252909036,0.000492001124978159,-0.042650950267166,-0.0246359967690032,-0.000981426451746699,9.10376323956833e-05,0.0490389446075103,-0.00460627911400765,2.00094034179612,-0.000194323567618107,0
0.39,0.000854012940550545,0.000492001028324411,-0.0426515698093302,-0.0246359969764039,-0.000981382454099574,9.10581862633087e-05,0.0490395054743763,-0.00460604570647829,2.00093983701738,-0.000187174768740576,0
0.4,0.000853969401220242,0.000492000941199202,-0.0426521269102421,-0.0246359971712049,-0.000981342803173219,9.10767095446882e-05,0.0490400098122531,-0.00460583588517123,2.00093938201319,-0.000180730883561141,0
0.41,0.000853930169256841,0.00049200086266328,-0.0426526279842239,-0.0246359973546317,-0.000981307074891829,9.10934003958099e-05,0.0490404634289953,-0.00460564721699306,2.00093897187493,-0.000174922403435733,0
0.42,0.000853894778999055,0.000492000791869803,-0.0426530764996877,-0.0246359975279295,-0.000981274845261143,9.1108456578294e-05,0.0490408694571566,-0.00460547847356613,2.0009386021789,-0.000169686673681058,0
0.43,0.000853863116160405,0.00049200072805613,-0.0426534908515372,-0.0246359773343213,-0.00098124600972762,9.11219289772892e-05,0.0490412361088034,-0.00460530367727881,2.00093826893721,-0.000164967217735951,0
0.44,0.000853834361575955,0.000492000670533654,-0.0426538518580371,-0.0246359774907931,-0.000981219823135051,9.11341620919564e-05,0.0490415629119242,-0.00460516801105207,2.00093796855527,-0.000160713127959346,0
0.45,0.000853808400959224,0.00049200061868264,-0.0426541733798,-0.0246359776398215,-0.000981196181056196,9.11452062007888e-05,0.0490418539604791,-0.00460504735077343,2.00093769779272,-0.000156878516505413,0
0.46,0.000853785117894892,0.000492000571943657,-0.0426544672759357,-0.0246359777817174,-0.000981174977182809,9.11551122098684e-05,0.0490421200199527,-0.00460493689464928,2.00093745372928,-0.000153422020339666,0
0.47,0.000853764046721671,0.000492000529813078,-0.0426547261989202,-0.0246359779177263,-0.000981155787823639,9.11640764286378e-05,0.049042354400506,-0.00460483983681438,2.00093723373187,-0.000150306355065563,0
0.48,0.00085374507102424,0.000492000491836361,-0.0426549586638212,-0.0246359780481585,-0.000981138506763344,9.11721493198477e-05,0.0490425648307308,-0.00460475274311343,2.00093703542757,-0.000147497912749117,0
0.49,0.000853727957971956,0.000492000457603925,-0.0426551659643208,-0.0246359781736278,-0.000981122922015713,9.11794297020309e-05,0.0490427524768587,-0.00460467517950949,2.00093685667753,-0.000144966399395454,0
0.5,0.000853712591149496,0.000492000426746953,-0.0426553539537447,-0.0246359782944528,-0.000981108927441213,9.11859676788219e-05,0.0490429226502626,-0.00460460480001882,2.00093669555326,-0.000142684508177366,0
0.51,4.61625021001017,-0.00163847561237893,9.18888303323328,0.0918434932885341,-0.936460122384685,4.52026670952108,-1.77093762298623,9.01708304060652,0.203924503204952,62.8284291119272,3274.07454084334
0.52,4.5795908283172,-0.025724677882886,11.0234890546267,1.31079400587344,-3.67436119223696,2.73356612190783,-8.01898238482991,7.67667984060141,0.925556891258553,134.327050853413,3274.07454084334
0.53,4.56973636986775,0.011685543908184,11.5179966116808,-0.549572329202232,-3.74241600273251,-2.62239385000044,-9.09924923530449,-7.083074123961,2.18456395611691,210.576695147583,3274.07454084334
0.54,4.56917657462596,0.055335157838714,11.5479252469968,-2.73241701594057,3.47267311846819,-2.97001312489896,10.6169711059687,-5.30100035788082,-2.26622203169681,287.404557819131,3274.07454084334
0.55,4.51445436554448,0.00420128280962973,14.2860830637279,-0.148349652246787,-0.44759479321327,4.49221268090117,-1.57725612380028,14.1995225286976,0.100240787917146,359.158290245931,3274.07454084334
0.56,4.55759885505627,-0.00157776590129255,12.1310256871196,0.142291513329808,-0.561591681893471,-4.5228668558541,-1.64016501367679,-12.0204779365977,3.01771155391274,434.752178447724,3274.07454084334
0.57,4.50705536449596,0.0330896743576758,14.6605825575577,-1.59528979845208,-0.814082347696183,4.43304781345187,-4.32066607520976,14.0999813877374,0.188957513864688,509.417796502568,3274.07454084334
0.58,4.46600888020036,0.0855426509967372,16.715300438549,-4.21523191259942,3.81841336883791,-2.31781625843118,16.5702096103153,-4.75369354272722,-2.09720270525522,582.702891842501,3274.07454084334
0.59,4.45788887803368,0.0148331151999744,17.1238103295868,-0.665427436098328,-2.8854913583789,-3.39807782296457,-10.5316465025177,-13.5185833511646,2.44091731728984,656.077767094641,3274.07454084334
0.6,4.44821985419276,0.0248481073683873,17.6099212210327,-1.15980277901321,-4.19112503139472,1.49055300841368,-17.0070823946672,4.71313232555446,1.23468737987378,729.752546759974,3274.07454084334
0.61,4.38050607235333,0.00120944017752755,20.9984034586687,0.038167870192893,-2.34753537043663,3.69836620647806,-11.2258259237405,17.7458512596387,0.565855447462439,802.833033574723,3274.07454084334
0.62,4.38149650486507,0.040789382772521,20.951712024295,-1.90798540744269,-1.79819749524401,3.99570533998566,-10.5083941458064,18.2260335108982,0.432190195879215,875.024989864299,3274.07454084334
0.63,4.37402810806125,0.112879078845107,21.3281218580247,-5.54501043469263,-3.1588220912114,3.02765694434255,-19.5055297628508,10.2552538428917,0.832397831856332,948.493912770356,3274.07454084334
0.64,4.38107867697623,0.0966020877151137,20.9786605345074,-4.68413176715195,-4.3155889625077,-0.760837856503254,-19.6599655554504,-8.69085971539309,1.76734924581574,1020.67337277881,3274.07454084334
0.65,4.34887396692074,0.0261669592308533,22.592113282831,-1.18349475005303,0.373013513595552,-4.33292631008092,3.25164400241599,-22.3881900494262,-3.04969937843427,1093.8238290826,3274.07454084334
0.66,4.35671071807304,0.0945824301185609,22.2035600492231,-4.59445045767513,3.83190919613385,2.07517373480981,17.0151989423849,14.9863290641354,-1.05275692483312,1165.81604724898,3274.07454084334
0.67,4.35350787827951,0.133543302663412,22.3670522231461,-6.48418889039192,-4.32034830323016,0.552680014750229,-22.8880374761849,-4.29737957457615,1.47422775764434,1237.69046143085,3274.07454084334
0.68,4.30348512053092,0.136196064951805,24.8716729882283,-6.6076608403012,4.20730669017726,-0.914933858554299,25.6578294550709,1.98420933076975,-1.75328824967977,1309.71283731063,3274.07454084334
0.69,4.2411859024788,0.118329065447528,27.990221925919,-5.74665770083168,-4.12994560397915,-0.972218563537988,-25.5837010229727,-12.7259907339222,1.82988681636302,1381.85406937666,3274.07454084334
0.7,4.24293026631612,0.114947361043438,27.9066833986932,-5.59738144900319,1.53834700388013,3.95590174755204,4.13641420849779,28.1603219956072,-0.343793404112632,1453.88492892158,3274.07454084334
0.71,4.27490925556488,0.16157350537753,26.3114190823571,-7.87774992944478,3.83533361026374,-1.8950385850783,27.2328567867795,-3.56668323643304,-1.99193506520689,1525.15229542083,3274.07454084334
0.72,4.19234404306392,0.111027555307172,30.4434660864208,-5.34809417102869,-0.00281231623453196,-4.19381303640594,6.13186951529649,-30.2953282679792,-3.11578602197176,1596.75504730041,3274.07454084334
0.73,4.22618438419764,0.119607470284113,28.7553069836967,-5.76041938062901,-2.39348901375056,-3.48513281486361,-10.7630836341733,-27.2801418957298,2.56809430516142,1668.10634719334,3274.07454084334
0.74,4.15423063901644,0.063821018145533,32.3569736889906,-3.01334331571899,-2.56621965178237,-3.26744885549966,-17.1943413429638,-27.5755074301465,2.49118602072797,1739.68131947968,3274.07454084334
0.75,4.10804241449948,0.147948145266712,34.6704299462602,-7.1716566547985,-0.982609407740161,-3.99153853605788,-0.0495459576303707,-35.4043629660376,2.93621772175676,1810.4952197388,3274.07454084334
0.76,4.13686719631268,0.148784348168021,33.2333491473817,-7.15903404160826,2.74270024624088,-3.10054871618846,28.0878010543107,-19.1515716298727,-2.38140948391296,1881.23349941801,3274.07454084334
0.77,4.11735306325702,0.196261926849142,34.2132605796548,-9.52722201609633,3.33832616691732,2.41799367135599,20.7717231348698,28.8071289239949,-0.896307503732748,1952.09450832706,3274.07454084334
0.78,4.12524990698452,0.164538371392422,33.8227115144518,-7.97145339673214,3.31756038314338,2.45734669408567,21.3587595423067,27.4102768001351,-0.893403508443877,2022.98746186565,3274.07454084334
0.79,4.07649217604537,0.111202528321642,36.264943746923,-5.35715122819065,-4.07607113033639,-0.125692498194937,-35.8926839464549,-7.45388847307844,1.62889544902488,2093.85930934367,3274.07454084334
0.8,4.13060341346644,0.197106362460665,33.5637716349115,-9.58542858199282,4.117949689431,-0.378451889648061,33.9526116813218,8.10107199562765,-1.61475950817947,2164.13280758274,3274.07454084334
0.81,4.04071372079209,0.194914414733496,38.0627602447505,-9.46198719569311,-3.83748318083808,-1.28026631575355,-32.0606078214044,-22.5924842649702,1.94100633132345,2234.49434635882,3274.07454084334
0.82,4.08520161441464,0.164777978102337,35.8429243887821,-7.95430739439401,1.25157054590816,3.89224808832873,1.92360336247685,36.6645057919554,-0.270799083498726,2304.75192491688,3274.07454084334
0.83,3.99249745395343,0.149672362941185,40.4827242654104,-7.26540715331524,3.62337166012571,-1.68333465141393,40.1394463415698,-8.97005866452028,-1.96823517765581,2375.13666271691,3274.07454084334
0.84,3.96281751191955,0.224692226032347,41.9713117798736,-10.907277049237,-0.264797665064322,-3.96033981190909,10.4818282358083,-42.0795791564885,3.13146913972447,2444.93835094499,3274.07454084334
0.85,3.98003440372883,0.163553137319731,41.1151086231093,-7.81913964721515,-2.63100114963305,-2.99086215567047,-19.7878480904566,-36.8786139905195,2.46118855312599,2514.77323809518,3274.07454084334
0.86,4.02832311254334,0.186425977795897,38.7052397994563,-8.95109991637863,-3.11991639998666,-2.5550466534571,-22.7938229389507,-32.5370467847679,2.30322991695381,2584.62996678915,3274.07454084334
0.87,3.90574193246737,0.28269092398793,44.8388409807703,-13.7733350609612,-2.07073527996263,-3.3236711031414,-8.7159366247291,-46.0896828797293,2.65666601920296,2654.3699254961,3274.07454084334
0.88,3.8854739048741,0.140609206881547,45.856732696941,-6.79378577340706,1.306032605124,-3.66209738385948,23.2680980637631,-40.0947761094728,-2.76284642401711,2724.12990315247,3274.07454084334
0.89,3.52619434004702,0.154015334547409,42.280552712863,-7.43060632200436,-1.04026656748417,-3.37277522459326,-3.49714229965801,-42.785850976155,2.88606931404098,2790.45257255304,3274.07454084334
0.9,2.9850412142731,0.166227167282812,44.2368282449837,-7.99852268752968,2.98437623174165,-0.177766783925957,44.2674217601051,7.82743310875854,-1.57466256747019,2848.26278271756,3274.07454084334
0.91,2.63733970193088,0.145293921938462,39.8854610707288,-7.09441658183068,-1.46777386117081,2.19597607445911,-29.6270094542554,27.6300753212625,0.644231893520386,2898.80959947597,3274.07454084334
0.92,2.1659997743984,0.100832813300154,44.4218215427265,-4.79531937476747,0.043956943042482,-2.16789992068137,7.74946421448366,-44.0027172055124,-3.07480018762904,2942.6496210913,3274.07454084334
0.93,1.92125951494546,0.152601296258633,40.1595287567537,-7.46331408014396,0.550049738397187,1.84715201450164,1.07882908809568,40.8328903559628,-0.210159911004347,2980.84401597759,3274.07454084334
0.94,1.64995090826815,0.11387497610296,39.4330530182731,-5.63755344158224,-0.480620803454932,-1.58250091727104,-3.33997178579178,-39.6937308352181,2.91564391045183,3014.13038940582,3274.07454084334
0.95,1.27358359122994,0.16014611170968,45.7408290895238,-7.92615846610121,0.178079102830306,1.2712001314038,-7.28073563847818,45.8479914760654,-0.0140936882936247,3043.01361570844,3274.07454084334
0.96,1.1197497468907,0.0849957266258947,42.5596740318621,-4.10252675409279,0.353233089801041,-1.06596911469144,20.1920389063495,-37.6887004853029,-2.74584696284037,3068.17372793559,3274.07454084334
0.97,0.982816294141123,0.0927194380332542,39.9627959893288,-4.54527939383466,-0.76333788520733,0.625971273482813,-35.6840386101147,18.5562392882981,0.978014044054115,3090.17195989744,3274.07454084334
