t,iq,id,vq,vd,ia,ib,va,vb,theta_e,omega,r
0,0,0,0,0,0,0,0,0,0,0,0
0.01,0.00126367001440303,0.000723969024670909,-0.0627638062903414,-0.0362762093754795,0.00121354582034799,0.000805170538395576,-0.0605587002225751,-0.0398484952546192,-0.464736954257015,-0.00115643312926713,0
0.02,0.00142039574445292,0.000814205671783873,-0.0706249532118341,-0.0407977142542969,0.00136446221772984,0.000904819210236369,-0.0681243055143045,-0.0448488182981751,-0.464745525273652,-0.00126695793006478,0
0.03,0.00145324487911922,0.000833007849258323,-0.0722590403603341,-0.0417398656633757,0.00139600116100872,0.000925744842856021,-0.0696993238263595,-0.045886703493946,-0.464754358903227,-0.00125985361419673,0
0.04,0.00143628382725262,0.000823513373851659,-0.0714302549981454,-0.0412640983636793,0.0013799192917003,0.000914826900420688,-0.0689029299962101,-0.0453584984408087,-0.464762602315265,-0.00120844353943728,0
0.05,0.00145288487849588,0.000833040343714071,-0.0722605740479628,-0.0417414813759283,0.00139588418377583,0.000925385341304757,-0.0697022156407607,-0.045886195788788,-0.464770923022935,-0.00118826487371897,0
0.06,0.00145274810250559,0.000833077491560203,-0.0722632363256885,-0.0417433484672702,0.0013958635631882,0.000925235142675302,-0.0697054488085008,-0.045887175462516,-0.46477900472138,-0.00115337307961535,0
0.07,0.00149030174588581,0.000854630488531926,-0.0741286249273587,-0.0428233119688433,0.0014319701130855,0.000949133373635405,-0.0715073312282224,-0.0470700612090019,-0.46478679010399,-0.00115520193408589,0
0.08,0.00145251261911029,0.000833162945344105,-0.0722695471358119,-0.0417476269322202,0.00139584866412544,0.0009249648150218,-0.0697128096370273,-0.0458898242554793,-0.464794423119745,-0.00108682972743576,0
0.09,0.00145215535013434,0.000833068036000848,-0.0722604532189748,-0.0417428589328042,0.00139561047646206,0.000924677733872418,-0.0697048083824496,-0.0458833200592724,-0.464801771591299,-0.00105488439230663,0
0.1,0.00145196881538536,0.00083306450991638,-0.0722595306019567,-0.0417427032907776,0.00139553029254802,0.000924502634455216,-0.0697045823247747,-0.0458820688697199,-0.464808890486083,-0.00102408730612487,0
0.11,0.00145178908158414,0.000833061471374272,-0.0722586846545371,-0.0417425305242494,0.00139545338521557,0.000924333707156452,-0.0697043651178685,-0.0458809093860028,-0.464815787173485,-0.00099425217469829,0
0.12,0.00145161465402454,0.000833058529132403,-0.072257849220792,-0.0417423924016736,0.00139537874135426,0.000924169781433926,-0.069704173702883,-0.0458797587812787,-0.464822468590047,-0.000965348308937643,0
0.13,0.00151649971093994,0.000870251480811893,-0.0754730961925963,-0.0436060478522633,0.00145771774192405,0.000965488476376628,-0.0728117016627882,-0.047917969063389,-0.464829237576415,-0.000997253214120478,0
0.14,0.00165269785086363,0.000948854731480153,-0.0823290315557126,-0.0475446581959939,0.00158904140511429,0.00105198997168887,-0.0794060673844158,-0.0522804018960932,-0.464835703580575,-0.00109752791674662,0
0.15,0.00145199232642101,0.000833544515304805,-0.0722992924669459,-0.0417667606077785,0.00139600052486965,0.000924262251497851,-0.0697454311062815,-0.0459045185432481,-0.464842011380431,-0.000881640644983263,0
0.16,0.00145095571011338,0.000833049452003263,-0.0722548824368947,-0.0417419478555208,0.00139509871122467,0.000923549375037868,-0.0697036119903671,-0.0458755351166484,-0.464847875335895,-0.000855442012466107,0
0.17,0.00145080375060913,0.000833044846812258,-0.0722539872298781,-0.0417417050837414,0.00139503171807049,0.000923407680907672,-0.0697032542299021,-0.0458744478296476,-0.46485355516734,-0.000830867347360921,0
0.18,0.00145065989139802,0.000833042414018834,-0.0722532849882106,-0.0417415987700816,0.00139497013287201,0.000923272501735151,-0.0697030968099019,-0.0458734842210563,-0.464859057705971,-0.000807063299578453,0
0.19,0.00145052120330911,0.000833040065726861,-0.0722526380414537,-0.0417414637052506,0.00139491078143179,0.000923142147342913,-0.0697029305912278,-0.0458725949037173,-0.464864388490147,-0.000784002278246796,0
0.2,0.00145038630807318,0.000833037790676977,-0.0722519838247515,-0.0417413603271705,0.00139485304088771,0.000923015383224152,-0.0697027817973073,-0.0458716964836903,-0.464869552881169,-0.00076166107523294,0
0.21,0.00145025560378588,0.000833035586552056,-0.0722513483408695,-0.041741256959501,0.0013947970925476,0.000922892558966232,-0.0697026340090457,-0.045870826042636,-0.464874556072715,-0.000740017222331003,0
0.22,0.00145012920686253,0.000833033451143276,-0.0722507433949791,-0.0417411536005741,0.00139474299138595,0.000922773772546222,-0.0697024927488596,-0.0458699937827444,-0.464879403096391,-0.000719048952716282,0
0.23,0.00145000676805716,0.000833031382311483,-0.0722501573041044,-0.0417410502506159,0.00139469058352574,0.000922658705888569,-0.0697023530036286,-0.0458691889207757,-0.464884098826781,-0.000698735178985798,0
0.24,0.00144988805453914,0.000833029377982299,-0.0722495840244001,-0.041740946909172,0.00139463976718757,0.000922547145167046,-0.0697022122805583,-0.0458684057251738,-0.464888647986208,-0.000679055471950728,0
0.25,0.00144977318272379,0.000833027436147522,-0.0722490347464877,-0.0417408435750313,0.00139459059708268,0.000922439188916075,-0.0697020758059662,-0.0458676538804173,-0.464893055149562,-0.000659990040089424,0
0.26,0.00146020922351219,0.000839021227622045,-0.0727698601815393,-0.0420411671918718,0.00140463098210323,0.000929074486220663,-0.0702042228826038,-0.0461982616463584,-0.464897313661708,-0.000651486694823911,0
0.27,0.00140638111330665,0.000808280915849004,-0.0701139404634432,-0.0405008727775444,0.00135302416192115,0.00089473543131416,-0.067636859484601,-0.0445144985607436,-0.46490151611209,-0.00058278724328481,0
0.28,0.00137231342917262,0.000788528435917313,-0.0683307096117504,-0.0395111137222757,0.00132009790540719,0.000873133874201005,-0.065952838990526,-0.0433640059578184,-0.464905565492668,-0.000533329562759524,0
0.29,0.00144900839511836,0.000832830223144757,-0.0722301868605407,-0.0417309404640136,0.00139408646006641,0.000921821268775208,-0.0696855208741802,-0.0458541106817466,-0.464909349613053,-0.00058918032800921,0
0.3,0.00144732926797098,0.000831938645829937,-0.0721511402956917,-0.0416862732679238,0.00139253981208496,0.000920715369758285,-0.0696103099965517,-0.0458032440676486,-0.464912740591095,-0.000573015032696216,0
0.31,0.00144915574966813,0.000833012538804228,-0.0722456733780426,-0.0417400945331008,0.0013943219837376,0.000921861422485673,-0.0697009696549314,-0.0458633583881657,-0.464916393359057,-0.000559020708320071,0
0.32,0.00144907179573832,0.000833015571724926,-0.0722456402317414,-0.0417402556700972,0.00139429031830014,0.000921780082359664,-0.0697012612344086,-0.0458630096944369,-0.46491993447767,-0.000543709758887761,0
0.33,0.00144898225360945,0.000833014079427728,-0.072245201653166,-0.0417401869199485,0.00139425200005109,0.000921695930420369,-0.0697011604802117,-0.0458624093755511,-0.464923365075298,-0.000528868992909192,0
0.34,0.00144889590352619,0.000833012614748375,-0.0722447959602262,-0.0417400836255479,0.00139421503841692,0.000921614768890448,-0.0697010386787568,-0.0458618614047108,-0.464926688591672,-0.000514491427143076,0
0.35,0.00144881183291416,0.000833011195670204,-0.0722443814831063,-0.0417400148776728,0.00139417904344417,0.000921535769313974,-0.0697009390578442,-0.0458612973248645,-0.464929908368678,-0.000500562637329449,0
0.36,0.00144873055626854,0.000833009820852186,-0.0722439877467161,-0.041739946129016,0.00139414424764315,0.000921459387637818,-0.0697008441236647,-0.0458607587905981,-0.464933027645053,-0.00048706861568982,0
0.37,0.00144865172434337,0.000833008488915157,-0.0722436010200142,-0.0417398773807069,0.00139411049612707,0.000921385307911983,-0.069700747864863,-0.0458602333091999,-0.464936049556991,-0.000473995791532418,0
0.38,0.00144857493906206,0.000833007198522627,-0.0722432049946612,-0.0417398431684912,0.00139407761205816,0.000921313170657723,-0.0697006739786445,-0.0458596906068237,-0.464938977144143,-0.000461331017752539,0
0.39,0.00144850099657844,0.000833005948379728,-0.0722428429368147,-0.0417397744172102,0.00139404595399974,0.000921243683973836,-0.0697005802565843,-0.0458592001226398,-0.464941813350695,-0.000449061557615796,0
0.4,0.00144842949881526,0.000833004737231964,-0.0722424983557368,-0.0417397056649022,0.00139401534501114,0.000921176488607152,-0.0697004903076979,-0.0458587314318421,-0.464944561028766,-0.000437175071947654,0
0.41,0.00144836009652656,0.000833003563863629,-0.0722421570540356,-0.0417396369126185,0.00139398562999358,0.000921111269061092,-0.0697003978941465,-0.0458582716509773,-0.464947222941931,-0.000425659606722491,0
0.42,0.00144829262446869,0.000833002427097104,-0.0722418139212574,-0.0417396026890232,0.0013939567362997,0.000921047874415196,-0.0697003317106401,-0.0458578005436134,-0.464949801766746,-0.000414503581044821,0
0.43,0.00144822764596025,0.000833001325791303,-0.0722415001835666,-0.0417395339331477,0.00139392891790846,0.000920986805069538,-0.0697002441476477,-0.0458573768055581,-0.464952300097161,-0.000403695775499885,0
0.44,0.00144816464651097,0.000833000258840542,-0.0722411931086817,-0.0417394651765522,0.00139390194548802,0.000920927598129934,-0.0697001559937848,-0.0458569644594201,-0.464954720445312,-0.000393225320872559,0
0.45,0.00144810334446352,0.000832999225174152,-0.0722408814920172,-0.0417394309443299,0.00139387569405911,0.000920869998913208,-0.0697000931968067,-0.0458565378398393,-0.464957065245744,-0.000383081687213299,0
0.46,0.00144804430313321,0.000832998223754017,-0.0722405962866816,-0.0417393621846124,0.00139385041747167,0.000920814508100266,-0.0697000080224481,-0.0458561554112884,-0.464959336856461,-0.000373254673252626,0
0.47,0.00144798660995562,0.00083299725357502,-0.0722402945722679,-0.0417393250364827,0.00139382570777286,0.000920760307260142,-0.0696999404484597,-0.0458557489947592,-0.464961537561462,-0.000363734396138503,0
0.48,0.00144793089584228,0.000832996313662765,-0.0722400105110547,-0.0417392907944639,0.00139380184904429,0.000920707957666874,-0.0696998802362598,-0.0458553618425714,-0.464963669574872,-0.000354511281499284,0
0.49,0.00144787720961409,0.00083299540307363,-0.0722397490812762,-0.041739222028997,0.0013937788643286,0.000920657500383586,-0.0696997962605763,-0.0458550150381156,-0.464965735039891,-0.000345576053813439,0
0.5,0.00144782498795941,0.000832994520893344,-0.072239484608661,-0.041739187780818,0.00139375650215718,0.000920608429405569,-0.0696997388158888,-0.0458546545306389,-0.464967736034384,-0.000336919727083051,0
0.51,0.422423026369943,0.0718724718190692,3.64581865033522,-3.60144851739616,0.0688000320896948,0.422934298676971,-3.62785437882758,3.61954384703496,0.00726894086084938,2.28432877109121,72.6158049614829
0.52,0.406659217630899,0.0752597774222313,3.73138377103783,-3.77116299693034,0.0617249882470829,0.408932487346892,-3.89289738408252,3.60419826774064,0.0331870636321875,4.7718609661708,72.6158049614829
0.53,0.43991231448644,-0.045357944766066,1.40313392082754,2.27294278874365,-0.0790406443764377,0.435123849181788,2.15835545970521,1.57370754279165,0.0769478561904617,7.14049177823679,72.6158049614829
0.54,0.413619796390389,-0.104055186008045,2.04651877253671,5.21428435365586,-0.15996535528035,0.395373118473205,4.88318254884997,2.74436305938783,0.1380022192455,9.49554166910712,72.6158049614829
0.55,0.409233345054815,0.0927267285583815,1.62632444147723,-4.64615038014953,0.00288776659427839,0.419597232710119,-4.88671207112673,0.593034297333772,0.215941802960658,11.7523899839119,72.6158049614829
0.56,0.428564797651213,-0.104084699297219,0.0387728167203191,5.21611281393408,-0.229921935937835,0.37634733131539,4.95538658383277,1.62895058972762,0.310162580794296,13.9535176430503,72.6158049614829
0.57,0.471899369940689,0.0315972119803135,-2.76459947455172,-1.58258601425465,-0.163880859475556,0.443655793440029,-0.315532738794854,-3.16986243202362,0.42069870251137,16.1804338649236,72.6158049614829
0.58,0.372836703093328,-0.0795918464930771,1.58902782142728,3.98913253129857,-0.261922139853625,0.277017800612484,2.58031515953115,3.4322239797292,0.547076126647765,18.2656301341592,72.6158049614829
0.59,0.389046196912096,0.0389594474554168,0.194037869099459,-1.95113851957879,-0.217107275571305,0.325175664482757,-1.62995763705824,-1.08987628592621,0.688499209786071,20.3071952557327,72.6158049614829
0.6,0.407762415282027,0.0895495765868379,-1.3182878402088,-4.48600380693721,-0.245489734387259,0.337674553814745,-1.99231073180592,-4.22998947202336,0.844798852101027,22.3214431240779,72.6158049614829
0.61,0.384540414139096,-0.0750343069727163,-0.730825055789704,3.76138795787027,-0.36634260154436,0.138904915762018,2.60351676243471,2.81137779380555,1.01567182495199,24.3109026905686,72.6158049614829
0.62,0.363482807808983,-0.0834155607507866,-0.246915348699832,4.18155574258702,-0.369064761138785,0.0535640684941088,1.74122358810957,3.8097921247749,1.20108440076394,26.2651771541691,72.6158049614829
0.63,0.357327717750036,-0.0745580370651994,-0.511605687182099,3.73785577085799,-0.364790980618197,-0.0130207228324498,1.13669874647043,3.59739101331312,1.40077165491859,28.222229178774,72.6158049614829
0.64,0.342205915267218,-0.0119986918004909,-0.341233415502489,0.602847439688754,-0.34134474750515,-0.0270669614002536,0.314336369047322,0.617298895583757,1.61487741795086,30.211173981455,72.6158049614829
0.65,0.320378426945926,-0.116613660999475,0.175853617777402,5.84335985367274,-0.277143534216513,-0.198576292205356,-1.74282991784117,5.580172286935,1.84343665608626,32.1310437824392,72.6158049614829
0.66,0.320524941696873,-0.0925211206986196,-0.373534190601332,4.63583335695171,-0.233394715971041,-0.238376388474004,-1.9579764375391,4.21862619522233,2.08573731211286,33.9489728148445,72.6158049614829
0.67,0.288043215587831,0.0244601051165734,0.754615798410107,-1.22605537428308,-0.223809398216652,-0.182965964207531,0.311810776553905,-1.40550020407092,2.34083699479665,35.633869027399,72.6158049614829
0.68,0.290756268123897,-0.0831401543257334,0.150160079668171,4.16579383262436,-0.0763197855324703,-0.292620544478545,-3.66296168674268,1.98974822199,2.60794900453712,37.2114127472464,72.6158049614829
0.69,0.313441441343191,0.0741671487012637,-1.42195258466856,-3.7164709753822,-0.150943884065614,-0.284538656356143,3.95514414332092,0.43696735514012,2.88620296801804,38.7002158655604,72.6158049614829
0.7,0.249098945636786,-0.089655167845628,1.37788300088052,4.49287748745493,0.0979557805739663,-0.245953245335229,-4.44415862113701,-1.52773159670421,-3.10806150216569,40.1173087867911,72.6158049614829
0.71,0.270124074183061,-0.00526636553544838,-0.0538514285206627,0.264762285374035,0.0931275634765,-0.253617836478705,-0.267841463489832,-0.0354964018714994,-2.80917459029712,41.4197045417083,72.6158049614829
0.72,0.330902860950064,0.00117302821479573,-3.4848099730995,-0.0572089397269853,0.196919790092199,-0.265933592556815,-2.03785158389704,2.82742538953846,-2.50066420332245,42.7741749264347,72.6158049614829
0.73,0.250192993436991,0.0757831236815186,0.147973945631903,-3.79541739281789,0.161368885783849,-0.205668905041014,2.2997896822548,3.02292191293206,-2.18219555554479,44.1168246595952,72.6158049614829
0.74,0.238332697230811,-0.0272710728975626,0.348753489955542,1.36899025576047,0.236460606087724,-0.0404050461566836,-0.0476308939797707,-1.41191168812429,-1.85396501682423,45.453703837372,72.6158049614829
0.75,0.161937931707225,0.00298594000990219,3.78927556607701,-0.14717338719063,0.161859343690726,0.00586194706254362,3.77558391902278,0.353886128552712,-1.51615914137425,46.7033594070276,72.6158049614829
0.76,0.177365020031967,-0.0158402548859635,2.63437304449728,0.795061832670075,0.157050986111197,0.083930040910826,2.73551948891941,0.298291436492288,-1.16907151619537,47.9987487947153,72.6158049614829
0.77,0.119857492909447,-0.0733714044639185,5.1267899308935,3.67568885381806,0.0365757284314705,0.135688605598456,6.24990424099719,0.856364714335329,-0.812607647205053,49.2424919330814,72.6158049614829
0.78,0.211280997830571,0.0684013619928584,0.202837931035251,-3.42812441778439,0.153055151417932,0.160911550210648,-3.00315349193679,1.66560780315899,-0.447283139297378,50.3988887672717,72.6158049614829
0.79,0.135146417422607,-0.105447857434903,3.67011638414454,5.28351320652305,-0.0952159929866832,0.142540238035921,5.5392833238019,3.27133097306278,-0.0736602747052974,51.5141913814365,72.6158049614829
0.8,0.269940219060526,0.00738985993386772,-3.36707787033908,-0.369706565463864,-0.0747198713084836,0.259498117002668,0.667519586729836,-3.32089053279482,0.307725201283782,52.5240819164771,72.6158049614829
0.81,0.227824756344905,-0.0520267961018326,-1.56056271572678,2.60832910892531,-0.186053996685664,0.141403031910663,3.0020323344501,0.475960705415615,0.696405789098907,53.4980360696474,72.6158049614829
0.82,0.136811623055381,-0.00131440241902005,2.68989148592792,0.0678693720427243,-0.122050880955477,0.0618282323437982,-2.35652656731548,1.29880906805631,1.09229346668957,54.5007789971507,72.6158049614829
0.83,0.216197118304279,0.0783574770779224,-1.57716832562892,-3.92347542208794,-0.209680837756151,0.0944194601497503,1.27716059300343,-4.03112641017054,1.49540207966391,55.4788289375937,72.6158049614829
0.84,0.115957437785495,-0.0208241550089627,3.13240227184227,1.04651215547595,-0.102670835768613,-0.0577795144682667,-3.3023380639815,-0.0411703215976175,1.90569636596727,56.4452057441833,72.6158049614829
0.85,0.152850469579876,0.0171614501333177,0.991898079902442,-0.859292579875372,-0.123337464581641,-0.0919002244395486,-0.13719753883427,-1.3051522417254,2.32296959270515,57.4168358015561,72.6158049614829
0.86,0.194422147812195,0.0107064317979148,-1.38213210902176,-0.537416836845048,-0.0845448499084062,-0.17540458259611,1.02696044717857,1.06979356104076,2.74746159530502,58.355126964885,72.6158049614829
0.87,0.179690619002818,-0.0479229919165612,-0.913513865861015,2.40071451961432,0.0545121041283041,-0.177802593387598,-2.43274724630857,0.824426238899154,-3.10473396095241,59.2039522706847,72.6158049614829
0.88,0.134185436054117,0.0249640873065811,1.11414920631861,-1.25090363925848,0.0390149297038105,-0.130792859760351,1.62147225070398,-0.420613966538744,-2.66776148495443,60.0165173320353,72.6158049614829
0.89,0.19264085544178,-0.015661581876787,-2.05273878814586,0.786093266060152,0.162405240618276,-0.104787032365383,-2.10732205234265,0.625198306950696,-2.22492455598673,60.7913686024667,72.6158049614829
0.9,0.201627611539946,-0.0396860153943209,-2.71673924310702,1.99103810216138,0.205482332006495,-0.00238427900091779,-3.06648399618331,-1.39340616492383,-1.77674310904865,61.4766842226942,72.6158049614829
0.91,0.0566118112329902,-0.0512438620111273,4.31507856924712,2.57061079850387,0.0423433558814577,0.0635442426785574,4.81310486111959,-1.43595422351391,-1.32345987430516,62.1922645913944,72.6158049614829
0.92,0.0684391320328609,0.010668940272536,3.49956799317127,-0.531514487903255,0.0590092521684625,0.0362718794449517,2.31876145947377,2.67447734777076,-0.865006900033262,62.9071066685706,72.6158049614829
0.93,0.0959761390166897,0.000908720582619038,1.86877717164754,-0.0466876581216263,0.0382940551804784,0.0880102856005063,0.686357886120815,1.73879863896071,-0.40093378241483,63.6983538077898,72.6158049614829
0.94,0.119542641648191,-0.00906620725306621,0.472559541134428,0.45316351900602,-0.017233800226853,0.11864078310566,0.419727840924354,0.502492024243252,0.0685555164369012,64.3753891294863,72.6158049614829
0.95,0.0959766517960493,-0.0318679666253647,1.44493343174773,1.59635512998721,-0.0768601212017975,0.0657237153214915,0.620628792539807,2.06179587376863,0.542759219760627,65.0093221019143,72.6158049614829
0.96,0.16985002607584,-0.029510825861317,-2.44629022421179,1.4795473295855,-0.160279106246463,0.0634864418739596,2.85887629404813,-0.0149163295537182,1.02162810616203,65.6356880691265,72.6158049614829
