t,iq,id,vq,vd,ia,ib,va,vb,theta_e,omega,r
0,0,0,0,0,0,0,0,0,0,0,0
0.01,0.000803441634994063,0.000451328450977569,-0.0386209879841644,-0.0225995644592815,0.000920141997388756,5.05424192651593e-05,-0.0447162600120909,-0.00166646846752991,-1.0041076156332,-0.00278970138925857,0
0.02,0.000886391712561969,0.00049923944449924,-0.0429540622308478,-0.0249986207310337,0.00101584728139321,5.46314188766403e-05,-0.049659954018755,-0.00196760449296882,-1.0041276259469,-0.00279743772395426,0
0.03,0.000915108015059581,0.000516236577943153,-0.044452986182037,-0.0258497389648535,0.00104920059575553,5.56865647978378e-05,-0.0513815275122112,-0.00205319642589703,-1.00414677183072,-0.00261261932601443,0
0.04,0.000895233850804856,0.000506513094965679,-0.0436452517631223,-0.0253628369659504,0.0010272139075506,5.32048036668166e-05,-0.0504386988976088,-0.0020295698913968,-1.00416321350305,-0.00228489286399609,0
0.05,0.000911483697221017,0.000516387753572624,-0.0445282906178898,-0.0258573038751526,0.00104622559906348,5.35802034686092e-05,-0.0514491893999208,-0.00208560282276176,-1.00417855274048,-0.00211117726878719,0
0.06,0.000910222686493081,0.000516603593264439,-0.0445755480985892,-0.0258681105431162,0.00104527824270103,5.27068014230458e-05,-0.0514948913261291,-0.00210114222999623,-1.00419233501544,-0.00189489855711748,0
0.07,0.000934539314747279,0.000531118950408335,-0.0458130540058734,-0.0265949350632125,0.00107358693420302,5.34992055989638e-05,-0.0529291741385695,-0.00215151420412381,-1.00420444851794,-0.00180129578846176,0
0.08,0.000907987865185847,0.000516924608994636,-0.0446500495349609,-0.0258841922112251,0.00104356616169964,5.12121163836987e-05,-0.0515664319074726,-0.00212636549870867,-1.00421557282288,-0.00152982583260712,0
0.09,0.000906145119105023,0.000516603646413284,-0.0446386523327294,-0.0258681098688907,0.00104183957579953,5.0483687099994e-05,-0.051548204191795,-0.00213331546478698,-1.00422530968279,-0.00137341640455942,0
0.1,0.000905050096903044,0.000516593322790604,-0.0446541503376189,-0.0258676040215131,0.00104091054609053,4.98956320087384e-05,-0.0515610276307683,-0.00214161384185365,-1.00423397631263,-0.00123626903230222,0
0.11,0.000904088836286565,0.000516590288938377,-0.0446686017476086,-0.025867447347449,0.00104009823413685,4.9374222716203e-05,-0.0515731535185998,-0.00214910458248256,-1.00424169402233,-0.00111418998587829,0
0.12,0.000903233034076083,0.0005165877237505,-0.0446814785554002,-0.0258673180000807,0.00103937510593014,4.89099105368058e-05,-0.0515839637851757,-0.00215577054058728,-1.00424856680256,-0.00100547735881385,0
0.13,0.000946631420123542,0.000541332856635629,-0.0467752500772437,-0.0271063878080607,0.00108927449410524,5.13165054362172e-05,-0.0540156537468681,-0.00223370322292996,-1.00425532802794,-0.00106642400479115,0
0.14,0.00100050348122801,0.000573109791181855,-0.0496532248226117,-0.0286975724032931,0.00115178524771789,5.34115328119659e-05,-0.0572980107302382,-0.00243543907429055,-1.00426124968027,-0.00118000365685563,0
0.15,0.000903458903442403,0.000517845110510057,-0.0448318833856693,-0.0259302732805937,0.0010402414200174,4.79514000703803e-05,-0.0517446981759873,-0.0021824415200644,-1.00426664756686,-0.000728878621537322,0
0.16,0.000900526177830862,0.000516607697108222,-0.044726057249743,-0.025868327838572,0.00103710294678255,4.74171640343893e-05,-0.0516221678990738,-0.00217769687306654,-1.00427080514462,-0.000653949579647691,0
0.17,0.000900006844273481,0.000516578682554817,-0.0447301151393206,-0.025866855851411,0.00103664934990188,4.71590962296437e-05,-0.051624809846623,-0.00218092648077967,-1.00427449128312,-0.00059541311569275,0
0.18,0.00089959650795101,0.000516576838570024,-0.044736175088721,-0.0258667825966313,0.00103630228366443,4.69370230899626e-05,-0.0516298909200499,-0.00218407121079801,-1.00427777345898,-0.000543490379894765,0
0.19,0.000899232635252196,0.000516575732831591,-0.0447416421175545,-0.0258667168624793,0.00103599480030405,4.67396383820231e-05,-0.0516344749727783,-0.00218690989858557,-1.00428069629507,-0.000497257233241764,0
0.2,0.000898908446314679,0.000516574759967648,-0.0447465003241729,-0.0258666753618419,0.00103572085648471,4.65637727646612e-05,-0.0516385576372949,-0.00218941788516908,-1.0042832991419,-0.000456085771989524,0
0.21,0.000898619880464757,0.000516573893736417,-0.0447508307139579,-0.0258666337479065,0.00103547701377247,4.64072322526858e-05,-0.0516421942691604,-0.00219165738744733,-1.00428561703141,-0.000419421722592133,0
0.22,0.000898362921369068,0.000516573122231611,-0.0447546852115756,-0.0258665891217314,0.00103525987858565,4.62678386538568e-05,-0.0516454271900834,-0.00219365711392913,-1.00428768116062,-0.000386771615236883,0
0.23,0.000898134192992757,0.000516572435100265,-0.0447581201415152,-0.0258665473136682,0.00103506659822699,4.61437597403734e-05,-0.0516483071125732,-0.00219544094383348,-1.00428951931109,-0.00035769600770803,0
0.24,0.000897930247209627,0.000516571823123723,-0.0447611635746235,-0.02586652392048,0.00103489425958914,4.60331268625818e-05,-0.0516508661447586,-0.00219700950821649,-1.00429115622239,-0.000331803567518155,0
0.25,0.000897748711380501,0.000516571278089167,-0.0447638753775719,-0.0258665033534861,0.00103474085741677,4.59346505857951e-05,-0.0516531464812552,-0.00219840695520355,-1.00429261392625,-0.000308745804840328,0
0.26,0.000906724074502773,0.000521625752595414,-0.0451957282683051,-0.0261196022127375,0.001045026831927,4.64854128331173e-05,-0.0521533735955769,-0.00221655048539413,-1.00429386294391,-0.000323641639639433,0
0.27,0.000873838167206006,0.000503105353715731,-0.0436594170823988,-0.0251922030611654,0.00100733871229787,4.44618725365178e-05,-0.0503593425844268,-0.00217449063327219,-1.00429524855942,-0.000177573270597084,0
0.28,0.000867646355377627,0.000499274981369514,-0.0431001936433228,-0.0250004043114207,0.00100005851238907,4.43697737178411e-05,-0.0497845458626393,-0.00203614858917349,-1.00429631383307,-0.000137727556930144,0
0.29,0.000896458910092898,0.000516182860378513,-0.0447370885440074,-0.0258470501858139,0.00103344428776016,4.55656332051006e-05,-0.0516201136577718,-0.00220021832122673,-1.00429700715971,-0.000236435068868113,0
0.3,0.000892933697162228,0.000514353030597767,-0.04457069519427,-0.0257554251374473,0.00102948772718527,4.52177751313306e-05,-0.0514305398315167,-0.00218823370551494,-1.0042969334887,-0.000224186951576381,0
0.31,0.00089700464968465,0.000516519793149322,-0.0447683362747321,-0.0258639146870175,0.0010340856331121,4.55734754221303e-05,-0.0516555324790075,-0.00220272105701355,-1.00429772988137,-0.000227415272267183,0
0.32,0.000897017168513028,0.000516567980424245,-0.0447746042600319,-0.0258663418449483,0.00103412209108196,4.553877186528e-05,-0.051662125547096,-0.00220399887438236,-1.00429846718294,-0.000216149293981515,0
0.33,0.000896938078255771,0.0005165688183554,-0.0447759448348078,-0.025866373266068,0.00103405583546036,4.54949389780779e-05,-0.0516632750170871,-0.00220465786419052,-1.0042991244692,-0.00020576234947318,0
0.34,0.000896865390755818,0.000516568623621948,-0.0447770301543382,-0.0258663551893256,0.00103399442486129,4.545548813982e-05,-0.051664182383948,-0.00220522534472524,-1.00429970981413,-0.000196503677219115,0
0.35,0.000896800314591163,0.000516568429158455,-0.0447779769538653,-0.0258663555526972,0.00103393943379378,4.54201882453253e-05,-0.0516649826252301,-0.00220570623477182,-1.00430023107624,-0.000188258412326024,0
0.36,0.000896742456171365,0.000516568255507983,-0.0447788222500973,-0.0258663529742564,0.001033890541508,4.53888034553257e-05,-0.0516656955151712,-0.00220613808005109,-1.00430069527097,-0.000180915824942833,0
0.37,0.000896691130877624,0.000516568100853801,-0.0447795823943714,-0.0258663319000152,0.00103384716965059,4.53609614068389e-05,-0.0516663265169737,-0.00220654245766974,-1.00430110864601,-0.000174377096304066,0
0.38,0.000896645205033339,0.000516567963127272,-0.0447802458077466,-0.0258663321810737,0.00103380836079027,4.5336049661056e-05,-0.0516668872598529,-0.00220687924035338,-1.00430147676509,-0.000168554220921965,0
0.39,0.000896604343255534,0.000516567840475926,-0.0447808358624939,-0.025866332439962,0.00103377383117197,4.53138846566229e-05,-0.0516673860030436,-0.00220717875369152,-1.00430180458252,-0.000163368827923887,0
0.4,0.000896568210161036,0.000516567731250131,-0.0447813715387322,-0.0258663113032583,0.0010337432971234,4.52942832233197e-05,-0.0516678273007714,-0.00220746899065399,-1.00430209651068,-0.000158751126398579,0
0.41,0.000896535788494033,0.000516567633980526,-0.0447818338105164,-0.0258663115259284,0.00103371589969021,4.52766965946564e-05,-0.0516682180534178,-0.00220770346141734,-1.00430235647881,-0.000154638966069946,0
0.42,0.000896506859286671,0.000516567547358496,-0.0447822400776856,-0.0258663117332202,0.00103369145356925,4.52610047383019e-05,-0.0516685614790796,-0.00220790935913756,-1.00430258798552,-0.000150977000809229,0
0.43,0.000896481131500647,0.000516567470218789,-0.0447826010595207,-0.0258663119264219,0.00103366971270417,4.52470492187378e-05,-0.0516688666300911,-0.00220809227456569,-1.00430279414703,-0.000147715943725623,0
0.44,0.000896458314097658,0.000516567401523465,-0.0447829246686317,-0.0258663121068151,0.00103365043109091,4.52346718468368e-05,-0.0516691401898049,-0.00220825630980666,-1.00430297773815,-0.000144811903805383,0
0.45,0.000896438129901991,0.00051656734034801,-0.044783217058532,-0.0258662909037291,0.00103363337446915,4.52237220926937e-05,-0.0516693758867832,-0.00220842267200677,-1.00430314122949,-0.000142225795177196,0
0.46,0.000896419969111857,0.000516567285869629,-0.0447834655869123,-0.0258662910640688,0.00103361802795457,4.5213871107505e-05,-0.0516695859996928,-0.00220854839331901,-1.00430328682187,-0.000139922811051394,0
0.47,0.000896403845589847,0.000516567237354981,-0.044783686828207,-0.0258662912153835,0.00103360440294028,4.52051249227814e-05,-0.0516697730480673,-0.00220866030144265,-1.00430341647487,-0.000137871955251284,0
0.48,0.000896389351882337,0.000516567194151508,-0.0447838745302188,-0.0258662913594879,0.00103359215535115,4.51972636136884e-05,-0.051669931761192,-0.00220875494929966,-1.00430353193343,-0.000136045625027352,0
0.49,0.000896376604404647,0.000516567155677621,-0.0447840471162492,-0.0258662914958583,0.0010335813831758,4.51903485412097e-05,-0.0516700776875771,-0.00220884214440212,-1.00430363475141,-0.000134419239551054,0
0.5,0.000896365195703152,0.000516567121415599,-0.0447841954363819,-0.025866291626296,0.00103357174239479,4.51841600402673e-05,-0.0516702031106465,-0.00220891690318513,-1.00430372631289,-0.000132970909078256,0
0.51,0.784079939638486,0.0189051727618238,1.77692789861596,-0.946178395285502,-0.00961603828710814,0.784248869370117,-1.01016087028307,1.74135043249018,0.0363674598358577,10.9074977040079,86.2452312374515
0.52,0.713367406728549,-0.0661127452857073,-0.214458578629796,3.3117532470016,-0.176275503211189,0.694399668087097,3.30480029597014,0.30331016258816,0.156188786704324,21.5489767255498,86.2452312374515
0.53,0.594326198612351,-0.038884262245762,0.956986539829037,1.94876472660487,-0.239471801229893,0.545333725917548,1.50490431210424,1.56485469245019,0.348444155860474,30.721246130831,86.2452312374515
0.54,0.497352299868589,0.0321142103385966,1.63611984447092,-1.60602674770283,-0.255888699263675,0.427681664651866,-2.25094248203562,0.435279223459817,0.603661033016784,38.7314749436591,86.2452312374515
0.55,0.452339790323851,0.0415085854658628,0.195618997183413,-2.07592683179932,-0.332918704591224,0.309029747291266,-1.42229056176888,-1.52473885008108,0.914102093559315,45.8699275631609,86.2452312374515
0.56,0.392065022378786,-0.0125675002466398,-0.21473855134645,0.630429130712845,-0.378683937376642,0.102329855898711,0.389274922811555,0.540387424683239,1.27483115882443,52.4144977578036,86.2452312374515
0.57,0.315603146835277,0.0284037430063548,0.750652817155433,-1.42302488428914,-0.316821522476749,-0.00602011666125634,-0.591760600901688,-1.4960945372636,1.67955211923736,57.8295414036024,86.2452312374515
0.58,0.25223694733721,-0.0278963923024141,1.63735269423498,1.3967380278289,-0.200590617410994,-0.155451248023813,-2.12565214532687,0.336754986257352,2.1199378677502,62.1608725901387,86.2452312374515
0.59,0.224345817758451,0.00489709312755211,1.19140686091009,-0.244106514074837,-0.121936916970779,-0.188378384499043,-0.417652823130941,-1.14219281111735,2.58894423863383,65.7308539913922,86.2452312374515
0.6,0.241105631358121,-0.052788761080907,-1.29602201969085,2.64608955678561,0.0384727661532669,-0.243799969305928,-2.56502183794565,1.4498710249244,3.08256327674385,68.8622354503964,86.2452312374515
0.61,0.135919081359828,0.0067273708677662,2.51855676774144,-0.334185440031908,0.0538293636467527,-0.124986614506825,1.40938130302058,-2.11387143491782,-2.68546492854553,71.64426377691,86.2452312374515
0.62,0.116627272880633,0.000985647344171062,2.23767838058304,-0.0512550913599378,0.0969750545571563,-0.0647976162670916,1.89910781451423,-1.1845763496584,-2.15140070928911,74.0170673689958,86.2452312374515
0.63,0.118214929338991,-0.0370938036529372,1.11194745828291,1.85669392898484,0.119292254803079,0.0334675623860276,1.05474666358279,-1.88977484679312,-1.6013297992794,76.0004401083746,86.2452312374515
0.64,0.0530525391228285,0.000348941195181075,3.52315166581403,-0.0165136552376076,0.045883286173844,0.0266348966062584,3.02690135313205,1.80298046565814,-1.03826701578167,77.623741818954,86.2452312374515
0.65,0.128596281888636,-0.050332773217075,-0.99989682381076,2.52345230601961,0.0125267680751197,0.13752625879044,1.80935080880565,-2.02332766740755,-0.463907654062215,79.0383327085257,86.2452312374515
0.66,0.0746534785414125,0.0739195422918171,1.03197506943841,-3.70362158766632,0.0644313005559972,0.0829810104760579,-3.80066557737503,0.580281464055948,0.120237747319763,80.3011194790519,86.2452312374515
0.67,0.0934706563217002,-0.0707138363773032,-0.476859340223449,3.53953774473012,-0.114629340692295,0.0244402230115679,2.9891153710503,1.95471521590189,0.71306036512415,81.3939514001472,86.2452312374515
0.68,0.0838899554124111,0.0165908835900802,-0.47928625560062,-0.830236285359074,-0.0768987313598501,0.0374081161332874,0.252046820953099,-0.924921620669521,1.31328973614295,82.2949762028458,86.2452312374515
0.69,0.105259527075066,-0.0342807125234993,-1.90206651552609,1.71935424962466,-0.0872414587495443,-0.068144428726323,1.2011169527899,2.26524924255779,1.91906205044814,82.9908215715065,86.2452312374515
0.7,0.0143745267301675,0.0278094319237628,2.26582895547481,-1.39239886532456,-0.0310225812358385,0.00419415976144218,-0.160601161086464,-2.65461159544723,2.53013922662174,83.6851550357038,86.2452312374515
0.71,0.0244211561351195,-0.00912501534601225,1.46094831264425,0.454767280181169,0.00923019704367745,-0.0243815962269851,-0.448465692910372,-1.46289499747039,-3.1372821780647,84.2781919009369,86.2452312374515
0.72,0.0336578756523352,-0.0233113426928056,0.736969818114008,1.16739227990986,0.038581372416279,-0.0137021528982079,-0.517047942711913,-1.28007447945091,-2.51779142554181,84.7635872625745,86.2452312374515
0.73,0.0512665167870292,-0.0230584912140207,-0.357734390585176,1.15716229265715,0.055941096326752,0.00552661761865843,-0.707707672341013,-0.982928439035398,-1.89499067380843,85.195185738437,86.2452312374515
0.74,0.0108372741061123,-0.0124051212781031,1.47164446640729,0.622309705874886,0.00666451384174005,0.01506379099791,1.59006023621054,-0.157210848084233,-1.26928454432096,85.5029923645725,86.2452312374515
0.75,-0.0218589640737908,0.0149923871930779,2.97879527050095,-0.753128179283905,-0.00106866548970952,-0.0264847869199952,1.17912001891308,2.83726969091568,-0.641507309132127,85.7600030087037,86.2452312374515
0.76,-0.00754373254033185,-0.041247472772681,2.10945170834547,2.06541956313023,-0.041333240345234,-0.0070586934581581,2.09005600055481,2.08504445903379,-0.0117468955236828,86.0403525603979,86.2452312374515
0.77,0.0436836163190671,0.0154193905151833,-0.515614782165824,-0.769618730318438,-0.0128105280010258,0.0445186063450567,-0.327207895248082,-0.866664056559516,0.619512994983505,86.1651352888059,86.2452312374515
0.78,-0.00194808904460006,0.0122751247666063,1.66682339620326,-0.613645258792224,0.00569837358967126,0.0110454641094876,-1.77517492215045,-0.0601226541072485,1.25189802505914,86.3414709476706,86.2452312374515
0.79,0.0281329876566575,-0.0459063245160425,0.0955359287893995,2.29669241174818,-0.0125592157699423,-0.0523557229374772,-0.801030219832917,2.15459363565053,1.88516590950327,86.5009550573884,86.2452312374515
0.8,-0.03036751702342,-0.012703758075448,2.89326889592729,0.63601756531341,0.0280118116898417,0.0172890128480507,-2.20192872906939,-1.98167432229072,2.51998092627915,86.6998020474271,86.2452312374515
0.81,0.0319696466219795,-0.0265195167370847,-0.250323168168095,1.33057527739289,0.0269697445468282,-0.0315907573853744,-1.33398789183055,0.231448831883764,-3.12742596327771,86.7544119572504,86.2452312374515
0.82,0.0042400148791877,-0.0142863989491059,1.11209762114272,0.716035981217872,0.0139374490828546,0.00527507669817067,0.103432118501315,-1.3186244507866,-2.49126625689822,86.787253172862,86.2452312374515
0.83,-0.0119518426363846,0.017093885794479,1.88826834726675,-0.858242948319301,-0.0162650636368404,-0.0130573802444871,2.05315865092354,0.294411045592976,-1.85497378154264,86.8554062100775,86.2452312374515
0.84,0.0351584748970625,0.00334062616985605,-0.486757744447906,-0.166986510910741,0.0341492490548959,0.00900593855635216,-0.51447857721312,-0.0113749810953627,-1.21821244266211,86.902955242332,86.2452312374515
0.85,-0.00847370901632027,0.0370171980833503,1.66586580174054,-1.85132809673011,0.0262928264046101,-0.027400072592829,-0.633268590387438,2.40862937862588,-0.580981548214437,86.9276119948999,86.2452312374515
0.86,0.0589044902474151,-0.021989222047889,-1.75992358307749,1.10127653346384,-0.0252944083276111,0.0575626420948106,1.19931245319571,-1.69463584909565,0.056742178906279,87.0395373374732,86.2452312374515
0.87,0.0307590077718975,-0.0332780747296532,-0.353699774185972,1.66442797164017,-0.0452564785636703,0.00232335206976518,1.50504228090905,0.7938965522746,0.694788389464574,87.0410522475453,86.2452312374515
0.88,-0.0147819524623706,0.0382246404143942,1.86698831150476,-1.91405594839371,0.0233637764616762,0.0336714003697255,-2.2650556581973,-1.42083721592065,1.33319182683433,87.1368248516747,86.2452312374515
0.89,0.0283043702648669,-0.0149034371739862,-0.309952334981533,0.748869251341399,-0.0202308225390543,-0.0247782895915543,-0.00730210340589671,0.810445732206038,1.97223217810556,87.1998907422662,86.2452312374515
0.9,0.00997723898818713,-0.0143766066822677,0.591302196619962,0.718921952674239,0.00735734527915299,-0.0158777072641912,-0.919242235739885,-0.146563207512907,2.61139956577557,87.2056716604741,86.2452312374515
0.91,-0.0286898387517508,0.00137125412660027,2.48307720947778,-0.0709150412155934,-0.0044878512627059,0.0283698145310294,0.340937600177454,-2.46058182633372,-3.03246113241964,87.2680096359664,86.2452312374515
0.92,0.0191957054241026,0.0643751656853197,0.0818750653744867,-3.22322439948712,-0.034077796805759,-0.0578907663501416,2.41641016984559,2.13467584116324,-2.39262430966519,87.2776969399877,86.2452312374515
0.93,-0.0214238886818383,0.00266615440477833,2.09343795727524,-0.13110564649597,-0.021552676149541,0.00125440677410658,2.0826048717787,-0.249856197736757,-1.75274383274792,87.2996791362166,86.2452312374515
0.94,-0.00841588927004244,-0.0694658004303307,1.44553562238181,3.47651719888602,-0.038277040315622,0.0585763843738105,2.83430240151051,-2.47840169595585,-1.11255998066533,87.2765234005689,86.2452312374515
0.95,-0.0147568284815324,0.00476423880495199,1.75905927374906,-0.240577174573305,-0.00247708555780368,-0.0153077106506263,0.586713950397965,1.67568900631849,-0.472714676498895,87.298465107356,86.2452312374515
0.96,-0.0467537858088465,-0.0130235497868629,3.35757436923172,0.65251776953002,-0.00506187400447295,-0.0482691078027472,0.0847006689598172,3.41934363308983,0.167183350985301,87.27935421025,86.2452312374515
