t,iq,id,vq,vd,ia,ib,va,vb,theta_e,omega,r
0,0,0,0,0,0,0,0,0,0,0,0
0.01,0.0014641412887791,0.000832399937888752,-0.0720853812301971,-0.0416929205559007,-3.40108019453087e-05,-0.00168387726258655,0.0022992198834294,0.0832425095699976,-2.64483379766604,-0.00340077375997729,0
0.02,0.0016248133169152,0.000925047243329308,-0.080216012969328,-0.0463333851353964,-3.89335440055394e-05,-0.00186928191998085,0.00250621335617098,0.0926018909602483,-2.64485862276925,-0.00357103840424482,0
0.03,0.00167175376448516,0.000952077271280269,-0.0825677056540525,-0.0476872758474443,-4.03746975754611e-05,-0.00192342966166025,0.00257812468165623,0.0953145086954254,-2.64488340480368,-0.00346268046248873,0
0.04,0.00164385067793915,0.000937201273996616,-0.0812621368266952,-0.0469421472776608,-4.06354396680008e-05,-0.00189180866907435,0.00254728561993616,0.093811573958913,-2.64490574218771,-0.00319276141089734,0
0.05,0.00166960358169653,0.000952198062401449,-0.0825727903742573,-0.0476933070460808,-4.15903560716052e-05,-0.00192159504379481,0.00258521187813147,0.0953217390039017,-2.64492754877379,-0.00305926099844937,0
0.06,0.00166880802361796,0.000952359351325726,-0.0825850186010609,-0.0477014043483402,-4.21506065141564e-05,-0.00192097159794718,0.0025884579636463,0.0953362950796383,-2.64494804286792,-0.00287246938355465,0
0.07,0.0017147650672353,0.00097898298998118,-0.0848742538104829,-0.0490349144414566,-4.36977161885764e-05,-0.00197406115408892,0.00267195247868858,0.0979842970282426,-2.64496704023372,-0.00281387146156518,0
0.08,0.00166735102078638,0.000952647233012615,-0.0826062848984443,-0.0477157953666024,-4.31691809756308e-05,-0.00191982618976247,0.00259451619643055,0.0953617529091033,-2.64498515179794,-0.00253419989851933,0
0.09,0.00166587781478453,0.00095234496310846,-0.08257614682136,-0.0477006867024573,-4.36374776096632e-05,-0.00191838619498192,0.00259718939476104,0.0953280134220604,-2.64500191120976,-0.00237942978648033,0
0.1,0.00166501590614012,0.000952335905311856,-0.082573115734369,-0.0477002051316787,-4.40702023558402e-05,-0.00191762338886187,0.00259970381152223,0.0953250782941094,-2.64501758091481,-0.00223598592990523,0
0.11,0.00166421548637549,0.000952330511496861,-0.0825705491565911,-0.0476999660663198,-4.44748818746582e-05,-0.00191691642308738,0.00260211312758525,0.0953226696962498,-2.64503223372732,-0.00210186609812193,0
0.12,0.00166346779199972,0.000952325501267202,-0.0825681859077362,-0.0476996903466226,-4.48529379033341e-05,-0.001916256029174,0.00260430264369079,0.0953204248364338,-2.64504593566196,-0.00197644999510735,0
0.13,0.00174185809105455,0.000997165285960557,-0.0864263261208778,-0.0499456219577576,-4.69603880386465e-05,-0.00200654004167678,0.00274237243802156,0.0997825355105328,-2.64505957017463,-0.00204578867597634,0
0.14,0.0018656703484256,0.00106916104569356,-0.0927497703446597,-0.0535517110733331,-5.13071821280133e-05,-0.00214969736560408,0.00290196879001865,0.107060189776642,-2.64507212416952,-0.00223630455976402,0
0.15,0.00166383566693444,0.000953625834816231,-0.0826809224878945,-0.0477648084570995,-4.58939831171147e-05,-0.00191719719948308,0.00261148431446206,0.09545046893582,-2.64508401304388,-0.00163392286989467,0
0.16,0.00166085298481259,0.000952322568972918,-0.0825611747080058,-0.0476995655236779,-4.61887232316242e-05,-0.00191395337309515,0.00261214889375939,0.0953140745035607,-2.64509436413371,-0.0015332474331709,0
0.17,0.00166029623207889,0.000952304413742379,-0.0825580784258704,-0.0476986360393365,-4.64564724766041e-05,-0.00191345474753222,0.0026137282234397,0.0953108840487762,-2.64510403429458,-0.00144466356336252,0
0.18,0.00165980212243406,0.000952300939734036,-0.0825564734202377,-0.0476984707026585,-4.67060811309776e-05,-0.0019130182193174,0.00261520921611002,0.0953093704297471,-2.6451130768105,-0.00136189502280366,0
0.19,0.00165934037625,0.000952297842652639,-0.0825549848583925,-0.0476983111694352,-4.6939475455117e-05,-0.00191261035002385,0.00261658389214101,0.0953079634769365,-2.64512153252161,-0.00128449845127928,0
0.2,0.00165890889804751,0.000952294947910004,-0.0825536057591514,-0.0476981545283913,-4.71575743192488e-05,-0.00191222921299212,0.00261785665155401,0.0953066555692917,-2.64512943950931,-0.00121212444863126,0
0.21,0.0016585051374387,0.000952292240730866,-0.0825522996634167,-0.0476980344994721,-4.736164885193e-05,-0.0019118725576996,0.00261907790752202,0.0953054306204306,-2.64513683338171,-0.0011444470718098,0
0.22,0.0016581274538627,0.000952289708962788,-0.082551069759674,-0.0476979173431649,-4.75525345201621e-05,-0.00191153893486644,0.00262021965208249,0.0953042752782728,-2.64514374743739,-0.00108116153882898,0
0.23,0.00165777445033155,0.00095228734125604,-0.0825499259103341,-0.0476978001487773,-4.77309471968984e-05,-0.00191122710978268,0.00262127759893555,0.0953031967490266,-2.64515021281289,-0.0010219828462502,0
0.24,0.00165744461344162,0.00095228512699375,-0.0825488669265371,-0.0476976800066524,-4.78976548572131e-05,-0.00191093574574849,0.0026222525337757,0.0953021925273561,-2.64515625862555,-0.000966644485572853,0
0.25,0.00165713608055655,0.000952283056243836,-0.0825478693367267,-0.0476975627394743,-4.80535886818598e-05,-0.00191066319933844,0.00262316335301845,0.0953012446788749,-2.64516191210202,-0.000914897243031753,0
0.26,0.00167188992063348,0.000960727194496837,-0.083280650508863,-0.0481205272417904,-4.84614106364621e-05,-0.00192765768243242,0.0026465583353712,0.0961470104589048,-2.64516715171697,-0.000903835136944949,0
0.27,0.00160926679212264,0.000925248965238872,-0.0802384973486806,-0.0463434827815214,-4.71018480090697e-05,-0.00185569573794263,0.00253343359325465,0.0926256798481067,-2.64517233615654,-0.000703444000572967,0
0.28,0.00158756728963594,0.000912461572463633,-0.0789611581578924,-0.0457030024453806,-4.62016521562079e-05,-0.0018305249049611,0.00257906497683121,0.091197463528343,-2.64517703963564,-0.00060778756028161,0
0.29,0.00165526363934342,0.000951828186175861,-0.0825041576217905,-0.0476747771043759,-4.8582045041323e-05,-0.00190879920280549,0.00262577371285265,0.0952519065911127,-2.64518108272421,-0.000737398771016479,0
0.3,0.00165126761753089,0.000949749767799952,-0.0823165799349496,-0.0475706864233332,-4.866332438977e-05,-0.00190429547260963,0.00262386620344555,0.0950373866703018,-2.64518403837913,-0.000700938317502081,0
0.31,0.00165566271311765,0.000952245142600673,-0.0825405093380258,-0.0476956663341028,-4.87715673947548e-05,-0.00190934836146486,0.0026274751193375,0.0952938017046862,-2.64518787136835,-0.00067715006182714,0
0.32,0.00165552114366145,0.000952271906349735,-0.0825425432917653,-0.047697033187549,-4.88694023487282e-05,-0.00190923645006247,0.00262805152542375,0.0952962316838752,-2.64519147315679,-0.000644317978826828,0
0.33,0.00165533811726678,0.000952270987884891,-0.0825419733545302,-0.0476969696567296,-4.89621939268234e-05,-0.00190907491220472,0.00262858808448457,0.0952956914260926,-2.64519484142185,-0.000613489285799787,0
0.34,0.00165516649954775,0.000952269837135098,-0.0825414154108981,-0.047696891543325,-4.9048929445196e-05,-0.00190892330554759,0.00262908527600966,0.0952951553414003,-2.64519799110994,-0.000584659656484952,0
0.35,0.00165500548639006,0.000952268757730846,-0.0825408647321695,-0.0476968528567318,-4.91302861142291e-05,-0.00190878106704718,0.00262959419467084,0.0952946449573237,-2.64520093640221,-0.000557700874045152,0
0.36,0.00165485495061093,0.000952267748294126,-0.0825403489365329,-0.0476968141324263,-4.92063487804337e-05,-0.00190864808365565,0.00263006825029171,0.0952941657287929,-2.64520369056306,-0.000532491550202705,0
0.37,0.00165471431012868,0.000952266804325779,-0.0825398705770193,-0.0476967724617963,-4.92774145296495e-05,-0.00190852384087355,0.00263050485191631,0.0952937184832637,-2.64520626599592,-0.000508918156103311,0
0.38,0.00165458275004618,0.000952265921582668,-0.0825394186332817,-0.0476967336685353,-4.93438899920384e-05,-0.00190840761963437,0.0026309154744743,0.0952932962738381,-2.64520867429849,-0.00048687452999623,0
0.39,0.00165446025958831,0.000952265096095693,-0.0825390203123,-0.0476966553983817,-4.94057976229858e-05,-0.00190829940810146,0.00263125095208055,0.0952929028245725,-2.6452109263169,-0.000466261399372834,0
0.4,0.00165434523048034,0.000952264324153279,-0.0825386211269444,-0.0476966165470091,-4.94639195500907e-05,-0.00190819778988733,0.00263160757477203,0.0952925277718148,-2.64521303219332,-0.00044698593389674,0
0.41,0.00165423742989276,0.000952263602283045,-0.0825382337469365,-0.0476966171068772,-4.95183817842159e-05,-0.00190810255818621,0.00263198020597666,0.0952921822276063,-2.64521500141071,-0.000428961327345662,0
0.42,0.00165413683627907,0.000952262927238889,-0.0825378797468302,-0.0476965752886126,-4.95692087313984e-05,-0.0019080136921088,0.00263228749788484,0.0952918461878716,-2.64521684283814,-0.000412106406686006,0
0.43,0.00165404299475883,0.000952262295984553,-0.0825375575782371,-0.0476965363550979,-4.96166302444175e-05,-0.00190793078985264,0.0026325707785974,0.0952915398256826,-2.64521856476783,-0.000396345266514781,0
0.44,0.00165395520683494,0.000952261705680225,-0.0825372522162211,-0.0476964973987098,-4.96609913334015e-05,-0.00190785323551399,0.00263283538608964,0.0952912485244001,-2.64522017495468,-0.000381606927220432,0
0.45,0.00165387323967675,0.000952261153670154,-0.0825369705427919,-0.0476964584200802,-4.97024144324614e-05,-0.00190778082276441,0.00263307873464491,0.0952909783168233,-2.64522168065048,-0.000367825015328381,0
0.46,0.00165379593990337,0.000952260637470921,-0.0825366722527358,-0.0476964588515399,-4.97414596201964e-05,-0.00190771253592155,0.00263335533886142,0.0952907125232646,-2.64522308863532,-0.000354937464594756,0
0.47,0.00165372421729309,0.000952260154760465,-0.082536418993496,-0.0476964198318074,-4.97777037207292e-05,-0.00190764917356897,0.00263356710027891,0.0952904677781061,-2.64522440525051,-0.000342886236495093,0
0.48,0.00165365669640671,0.000952259703366606,-0.0825361572531504,-0.0476964202203927,-4.98118112027754e-05,-0.00190758952494799,0.00263380941089076,0.0952902345675786,-2.64522563642544,-0.000331617058842608,0
0.49,0.00165359405418578,0.000952259281258038,-0.0825359350474203,-0.047696378253592,-4.98434685029767e-05,-0.00190753418407855,0.0026339880360482,0.0952900161595519,-2.64522678770435,-0.00032107918138238,0
0.5,0.00165353514803318,0.000952258886534842,-0.0825357084597883,-0.0476963786041854,-4.98732280107201e-05,-0.00190748214510477,0.00263419883882706,0.0952898142478538,-2.64522786427227,-0.000311225147238869,0
0.51,4.69799527762199,0.0444906496816288,5.10161153603618,-2.22150130423486,-0.655359150139017,4.65227293167508,-2.95618651500139,4.71407144598579,0.149417589161796,45.8234491343002,2962.43077865989
0.52,4.66444977277196,0.0701131397273382,6.78043049152834,-3.4958755581995,-2.8570467776443,3.68772168763142,-6.96378005332432,3.11466706692484,0.674181469885078,97.3985732036122,2962.43077865989
0.53,4.544854504837,-0.0770237237632143,12.7618551980813,3.88424969254281,-4.54375550217828,-0.126178685141901,-12.8031226557485,3.74598372028941,1.58161304839984,150.746542287756,2962.43077865989
0.54,4.55555038008995,0.0523700581267921,12.2288157139594,-2.59874872699552,-1.15466303190461,-4.40710054018271,-0.441856267220223,-12.4940862711588,2.89684695029009,208.473892311304,2962.43077865989
0.55,4.58131494665521,0.00680499960188774,10.9424806843312,-0.303240351564346,4.56236160574111,-0.416352647314041,10.9257737341585,-0.676244443784873,-1.6603170137633,261.507149173711,2962.43077865989
0.56,4.5127404904035,0.0484924457277597,14.3732037904969,-2.37492692680029,-1.90466348720175,4.0913854929034,-8.34787960761792,11.9391026114827,0.44643878172467,314.355830254221,2962.43077865989
0.57,4.52093382435836,-0.0762051770806034,13.9656569375645,3.86841687809061,-0.754056629328563,-4.4582562143743,-6.36360719780136,-13.0195516924559,2.9571867823363,369.100166802893,2962.43077865989
0.58,4.53370803698898,0.0310699415587534,13.3291466307281,-1.50711285125644,1.91395130223008,4.11001999005099,4.17340136727392,12.748343424834,-0.428963083498197,422.899352995196,2962.43077865989
0.59,4.55723927718116,0.0807690732031758,12.1548423964767,-3.96500727672938,-1.31835055455827,-4.36313021670963,0.506301923300054,-12.7751765056365,2.8658794817459,475.232979584768,2962.43077865989
0.6,4.43972021507696,0.0871349236173204,18.0332368732571,-4.28733915916839,-1.09294165248708,4.30397335346487,-8.91451221359981,16.2514732004923,0.268305108267572,529.186004770467,2962.43077865989
0.61,4.41005311229123,0.0168209641018433,19.5190578961213,-0.767039338942442,4.10788879340305,-1.60440052951141,18.4848116589756,-6.31614664426191,-1.93932912409333,582.959953206036,2962.43077865989
0.62,4.40015012362599,0.0539357852038113,20.016780468207,-2.62314677423189,-2.58298141871917,-3.56264468757732,-9.40745845071057,-17.8620302544171,2.52652978364884,636.256955008815,2962.43077865989
0.63,4.35358066829571,0.0392342653799562,22.3477974457477,-1.87944720631105,-3.8609458847851,2.01203897519384,-20.763975064087,8.47429713990797,1.09940288075087,689.38233612352,2962.43077865989
0.64,4.46118756465859,0.027729159988612,16.9701558973123,-1.28535415336072,-0.248613175373272,4.45434112775492,-2.33387804559764,16.8579755530408,0.0619713982702234,742.119676722617,2962.43077865989
0.65,4.37062193326626,0.0565208553165677,21.501179876496,-2.70694678303586,2.46919612404724,3.60674384890636,9.66246928387251,19.3975509873243,-0.58738781604671,794.695773658113,2962.43077865989
0.66,4.29595615056535,0.0720331449968847,25.2373996593371,-3.47253763619711,3.27403009423345,2.78229311245456,16.6617715493329,19.2709685287937,-0.849648330674135,847.699237459274,2962.43077865989
0.67,4.36711792120391,-0.0149611373985832,21.6822408979897,0.8552566584042,2.88033437289076,3.28262344378344,14.9971255241234,15.6823869459942,-0.72364115976267,900.954074535828,2962.43077865989
0.68,4.39752054417823,0.203131747710871,20.1650347912689,-10.0207906871291,1.12276968816499,4.25662280108721,-5.55915596635435,21.8206475401186,-0.211736629699629,953.005420000826,2962.43077865989
0.69,4.31081805301841,0.0193173502358475,24.5032397615044,-0.855037144380968,-2.71701077270469,3.34684596407666,-16.190180768502,18.4124385677528,0.686383290119207,1006.3206822282,2962.43077865989
0.7,4.31865402962074,0.0107376095187909,24.1146425627803,-0.36574063740418,-3.98441279343057,-1.66593595776202,-22.0831054898068,-9.69464821798966,1.96930576963552,1058.14818625061,2962.43077865989
0.71,4.36689666126455,0.120970589378381,21.7056716359397,-5.90133268279461,1.9716570804999,-3.89833152650883,15.5192982762083,-16.282299887127,-2.64564547961665,1110.83312121606,2962.43077865989
0.72,4.3586111061369,-0.0326236638592985,22.1232515277309,1.77005154191959,2.41084690928733,3.63130448433662,13.8414173525917,17.3489626863301,-0.593574069554532,1163.52649425356,2962.43077865989
0.73,4.29609445611598,0.0806250159949533,25.2524225943101,-3.9107022111808,-4.1604630316662,-1.07399968864687,-23.2797777652246,-10.5370957036516,1.84219022084617,1215.84999651051,2962.43077865989
0.74,4.29169975938292,0.0312344747826088,25.4754523930867,-1.43249255343398,4.28451099637899,-0.250255747206528,25.5153627721842,0.130277211777728,-1.62186169399719,1268.10603096928,2962.43077865989
0.75,4.24475267446166,0.0959528852654221,27.8262930809766,-4.67109881462402,-4.24547713669234,0.0552820528093419,-27.7802650510363,-4.93747146407519,1.58037687344036,1320.21483216733,2962.43077865989
0.76,4.24453969262303,-0.00675336123969572,27.8404297038897,0.480519658985444,3.81478337930335,1.86107242715896,25.2509691258817,11.7349471001647,-1.11850051852587,1372.38701784748,2962.43077865989
0.77,4.26067761288811,0.114608098686135,27.0371430687742,-5.57523573074482,-1.34619657620395,-4.04404049379666,-2.51135640244651,-27.4915159239106,2.84713905509405,1424.27305833013,2962.43077865989
0.78,4.28193514445661,0.138115551542817,25.97784045429,-6.70597855792257,-3.29742221601435,2.73515104084685,-24.6315377980998,10.635115833344,0.910579743123378,1475.98135758883,2962.43077865989
0.79,4.20059010897955,0.23576441761804,30.0487403963891,-11.5711004065018,2.71469717122633,3.21418129432789,8.82755534864575,30.965972140295,-0.645282982486643,1527.93674218637,2962.43077865989
0.8,4.17706106639293,0.0679017302775673,31.229008422719,-3.224026692531,4.0305466403071,-1.09870085904192,31.0563948810994,-4.59844018876276,-1.82066943939104,1579.9378259485,2962.43077865989
0.81,4.18706255475723,0.259623162418018,30.7327217369954,-12.750174562237,1.87177106608768,-3.75438012194704,26.4249284763536,-20.2185630486121,-2.61717365910215,1631.33102137433,2962.43077865989
0.82,4.2808634927533,0.0632738680667598,26.0464654379846,-2.96485310230836,0.396672331875236,-4.26291530376722,5.74398732458949,-25.5776333022692,-3.03402838774926,1683.38552139914,2962.43077865989
0.83,4.23242675622651,-0.00215547256602688,28.4721646955136,0.283343818393925,1.75123383991472,3.85313131502439,12.0519000967521,25.7972120630463,-0.42709601193098,1735.07628421263,2962.43077865989
0.84,4.0825726272014,0.115307261373271,35.9687199179702,-5.50673890259652,0.464811861621556,4.05766496327573,-2.40349187505288,36.3083490768351,-0.0858181517957819,1786.45462224979,2962.43077865989
0.85,4.14972149071275,0.206417272960322,32.6153205493695,-10.0852803993255,-2.28959570763776,3.46706620020823,-27.4323954227407,20.3208192906079,0.633342051613244,1837.99898730434,2962.43077865989
0.86,4.11495699302782,0.191390714284683,34.3576211081259,-9.35026706593412,-4.09347803956347,-0.461453139110143,-32.4477258934417,-14.6635161798902,1.7295287820743,1889.52929502649,2962.43077865989
0.87,4.17619537686556,0.187813306755607,31.2998002357773,-9.16727776015057,0.0662452005914267,-4.17989153416047,11.0518656720894,-30.685057299888,-3.08080337045999,1940.95436474786,2962.43077865989
0.88,4.0731575916059,0.170735089165223,36.4558197143878,-8.30098944742652,3.89730354982121,1.19615562418942,31.6069194130104,19.9733788346813,-1.23111157410082,1992.25666582679,2962.43077865989
0.89,4.0606799854889,0.20951378670674,37.0839208228045,-10.2102713889758,-3.29096158158499,2.38800959795013,-36.6596592746379,11.6420018594753,0.994627501045982,2043.38828429662,2962.43077865989
0.9,3.97562578030184,0.160634256834662,41.3408795148485,-7.73695648616457,1.59868920456771,-3.64356920294759,25.0790504817902,-33.7634423846539,-2.68773385570673,2094.56480484057,2962.43077865989
0.91,3.99135277710364,0.115719643426169,40.5588007655571,-5.5999781942841,-1.02421465816998,3.85943938430925,-16.9037990583458,37.2912543729985,0.288384415771179,2145.99983218182,2962.43077865989
0.92,4.11697123290549,0.148771687854557,34.2820950954197,-7.17318298559159,1.83566122344822,-3.68807985548131,22.6760720029586,-26.6929270930113,-2.64364368149378,2196.98932414711,2962.43077865989
0.93,3.75759895034903,0.169093833906655,41.1678431177227,-8.18827294635471,-3.23368940031798,1.92130046026137,-40.1635055500205,12.1955706198156,1.07965867007449,2246.90277041789,2962.43077865989
0.94,3.57809814051577,0.175588417107366,36.9863601770762,-8.55243177240607,3.3049787025028,1.3822927951008,29.6988138809993,23.645620787618,-1.12562682126342,2293.73578643156,2962.43077865989
0.95,3.38308177206826,0.0477935511181575,34.5447258293236,-2.22860932689539,0.433465834052309,-3.3555377915825,7.11518802743536,-33.8774096041788,-2.998998566692,2337.64900439522,2962.43077865989
0.96,3.02231668709966,0.179292913727117,41.0142967899959,-8.71533974125246,2.7834539373147,-1.19118776222773,41.5443904844357,-5.67391463277777,-1.91591205824076,2378.6275891548,2962.43077865989
0.97,2.85540786152538,0.100426914636711,38.5992038699959,-4.83942134896861,-0.22727581824177,-2.84811961182934,3.11855925494056,-38.7761927806713,3.09711912534131,2417.18728356798,2962.43077865989
0.98,2.67407205958843,0.0258620143220472,37.6460990847448,-1.1680004494781,-2.32207757256729,-1.32638077890035,-31.9179179228857,-19.995987517908,2.09944448215634,2453.20275652043,2962.43077865989
