t,iq,id,vq,vd,ia,ib,va,vb,theta_e,omega,r
0,0,0,0,0,0,0,0,0,0,0,0
0.01,0.000555360409004787,0.000310595691736835,-0.0269562916499231,-0.015544139763279,0.000530125724306316,-0.000351939744905504,-0.0256958172155334,0.0175495560662361,-1.64693562822254,-0.00227365308041102,0
0.02,0.000630421133071516,0.000351771818381045,-0.030730879419284,-0.0176048631804648,0.000601830127105366,-0.000398716334426645,-0.0293023814022136,0.0198919230253051,-1.64695258874319,-0.00236794228984292,0
0.03,0.00065852420676266,0.000368045532825024,-0.0321501347064869,-0.0184192943283976,0.000628606656091451,-0.000417091497206993,-0.0306552125671911,0.0208124844182938,-1.64696922965602,-0.00226004463788785,0
0.04,0.000641706859299104,0.000359795048933725,-0.0314036667337772,-0.0180063845118296,0.000612459931273975,-0.000407594164694024,-0.0299420318569039,0.0203444069904766,-1.64698394846978,-0.001981224719841,0
0.05,0.000656034601010739,0.000368689657998757,-0.0321487672130893,-0.0184515344328834,0.00062606340600697,-0.000417562059216965,-0.0306508042124537,0.020845396551256,-1.64699759999371,-0.00185430866437624,0
0.06,0.000655785752606206,0.000369408956019526,-0.032188706955479,-0.0184875237923647,0.000625755311038198,-0.000418268120726661,-0.0306876281137127,0.0208847042639684,-1.64701005696424,-0.00167987066759114,0
0.07,0.000669508050245017,0.000378094630135681,-0.0328937643482275,-0.0189222085584762,0.000638771725428241,-0.000427980445200185,-0.0313573061162393,0.0213721562519941,-1.64702109111675,-0.00158671113402025,0
0.08,0.000654365851722354,0.000370167278611565,-0.0322092095469405,-0.0185254793960017,0.000624272866551693,-0.000418929433368372,-0.0307047353770143,0.0209247650385358,-1.6470313657073,-0.00137710523411942,0
0.09,0.000651879727038778,0.000369520632982647,-0.0321276120698432,-0.0184931175150981,0.00062183941515002,-0.000418100966860791,-0.0306256499393388,0.0208865607157004,-1.64704044717342,-0.00123979414242796,0
0.1,0.000650648587728359,0.0003694658357897,-0.0321024170500358,-0.0184903777866782,0.000620612619889557,-0.000417957610963732,-0.0306005666023335,0.0208821592457452,-1.64704859767248,-0.00112095992680451,0
0.11,0.000649632235592537,0.000369459355407299,-0.0320841036382324,-0.0184900571212598,0.000619596653241311,-0.000417878264702893,-0.0305821778558927,0.0208806684808421,-1.64705592398369,-0.0010145400784848,0
0.12,0.000648726827482337,0.000369457004381075,-0.0320680359528616,-0.0184899328639209,0.000618691303787105,-0.000417811016369539,-0.0305660288134122,0.0208795217800596,-1.64706251047506,-0.000918902518625772,0
0.13,0.000677878220243141,0.000386263462372983,-0.0334947281268375,-0.0193310381083338,0.000646474661367591,-0.000436793837014709,-0.0319243494561263,0.0218270877223633,-1.64706886150205,-0.000958805095604192,0
0.14,0.000699991979419732,0.000399606644752129,-0.0346844617673248,-0.0199988113187328,0.000667504784180339,-0.00045178712340921,-0.0330596101684603,0.0225837666867316,-1.64707464363879,-0.000975654954556724,0
0.15,0.000651108430627025,0.000371901799627536,-0.0322549938838098,-0.0186122921996305,0.00062087238126982,-0.000420440986555938,-0.0307427541398404,0.0210163060328489,-1.64707994045216,-0.000686839032166513,0
0.16,0.00064618465924524,0.000369649460973466,-0.0320360234485912,-0.0184995736983443,0.00061613281761007,-0.000417822556722034,-0.0305329226917808,0.0208873563984745,-1.64708415625806,-0.000606508349898734,0
0.17,0.000645278999227115,0.000369465406998714,-0.0320080823769914,-0.0184903588996661,0.000615242257090605,-0.000417572315775759,-0.030505687087412,0.0208761530224233,-1.64708789713227,-0.000550467234927843,0
0.18,0.000644782435394316,0.000369449518146838,-0.0319981992340277,-0.0184895529752575,0.000614746946332713,-0.000417520691016098,-0.0304958240057788,0.020874698600314,-1.64709125586081,-0.000501544030643613,0
0.19,0.000644364567659061,0.000369447387684017,-0.0319906808164706,-0.0184894460712299,0.000614329196096734,-0.000417488571273673,-0.0304882725847664,0.0208741109970988,-1.64709427507182,-0.000457692082602577,0
0.2,0.000643991343568995,0.000369446459688416,-0.031984035780813,-0.018489411143483,0.000613955995426562,-0.00041746086385179,-0.0304815928856453,0.0208736523975767,-1.64709698941011,-0.000418279555377614,0
0.21,0.000643656305430337,0.000369445705426413,-0.0319780832311381,-0.018489365112234,0.000613620970911692,-0.000417436070357658,-0.0304756102271968,0.0208732271264189,-1.64709942969007,-0.000382847410522294,0
0.22,0.000643354967806886,0.000369445033667577,-0.0319727221704711,-0.0184893343233671,0.00061331964552804,-0.000417413775422896,-0.0304702213196656,0.0208728546069284,-1.64710162358549,-0.000350992791073174,0
0.23,0.000643084072789389,0.000369444430124317,-0.0319679001289052,-0.0184893034329035,0.000613048761518911,-0.000417393732134778,-0.0304653744956511,0.020872516305548,-1.64710359597257,-0.000322354402017227,0
0.24,0.000642840593579483,0.000369443887448576,-0.0319635650165282,-0.0184892724494473,0.000612805292092394,-0.000417375716483714,-0.0304610173488981,0.0208722089474461,-1.64710536921635,-0.000296607506740742,0
0.25,0.000642621559870725,0.000369443399477101,-0.0319596576211857,-0.0184892581579375,0.000612586267642341,-0.000417359508486277,-0.0304570891399031,0.0208719453721561,-1.64710696342344,-0.000273460163071835,0
0.26,0.000648801204561689,0.000373028098015544,-0.0322621388297345,-0.0186686475855045,0.000618474069129666,-0.000421405731764514,-0.0307449853242988,0.0210739147276788,-1.64710832486893,-0.000281708028606569,0
0.27,0.000630901275616559,0.000362848264824834,-0.0314086129358449,-0.0181591934372985,0.000601401703074123,-0.000409891783768032,-0.0299327521307466,0.0205009176069324,-1.64710984176989,-0.000181832632407684,0
0.28,0.000630239596453648,0.000362497113604416,-0.0312832651656782,-0.0181416230241816,0.000600768247715678,-0.000409491903273098,-0.0298090850619182,0.0204738763586424,-1.64711099825182,-0.000162828076237763,0
0.29,0.000640877849219365,0.000368877561794008,-0.0318963097464834,-0.0184609379296102,0.000610888716441938,-0.000416665392538248,-0.0303959819968423,0.0208390278835692,-1.6471118899616,-0.000197232616884103,0
0.3,0.000635117875419985,0.000365890435857865,-0.031620543621135,-0.0183114474893307,0.000605373159885844,-0.000413247944967766,-0.0301324113551757,0.0206689543512267,-1.64711210976138,-0.000168827847034842,0
0.31,0.000641186608932362,0.000369152994623026,-0.0319155091631049,-0.0184747242689354,0.000611175137599539,-0.000416964209607389,-0.0304140524106103,0.0208542700164277,-1.64711294631063,-0.000183892138845256,0
0.32,0.000641631632078918,0.00036941786715377,-0.0319402819456829,-0.0184879773397338,0.000611598327773875,-0.000417262743748944,-0.0304377254796797,0.0208693982785293,-1.64711376853512,-0.000174408699748732,0
0.33,0.000641579656301728,0.000369439181797804,-0.0319408619391194,-0.0184890391150342,0.000611544567087989,-0.000417280489470617,-0.0304382072718423,0.0208705238766908,-1.64711451407086,-0.000163805258769095,0
0.34,0.000641491937515828,0.000369440726775735,-0.0319394132247598,-0.0184891268984596,0.000611456705917848,-0.000417275752095049,-0.0304367420808255,0.0208705213666217,-1.64711518490412,-0.000154084965946796,0
0.35,0.00064140957540631,0.000369440684206187,-0.0319379400981076,-0.018489119336841,0.000611374335121789,-0.000417269798720239,-0.0304352612307236,0.0208704198659219,-1.6471157880578,-0.000145329178050373,0
0.36,0.000641335245940597,0.000369440529601831,-0.0319365991001315,-0.0184891044668121,0.000611300007545013,-0.000417264308770394,-0.030433913952909,0.0208703192973692,-1.64711633031819,-0.000137455898154505,0
0.37,0.000641268190715507,0.000369440381146812,-0.0319353788723317,-0.0184891048549777,0.000611232955415561,-0.000417259346042004,-0.0304326870730787,0.0208702414832651,-1.64711681782909,-0.000130377411325563,0
0.38,0.000641207887579055,0.000369440246905811,-0.0319342778093321,-0.0184891052121328,0.000611172655178396,-0.000417254882163901,-0.0304315800408686,0.0208701712251032,-1.6471172561183,-0.00012401359600667,0
0.39,0.000641153872584094,0.000369440126150559,-0.0319332947579021,-0.0184890887997529,0.00061111864221763,-0.000417250884089899,-0.0304305928789371,0.0208700918966972,-1.64711765015523,-0.000118292306234351,0
0.4,0.000641105152772117,0.000369440017578123,-0.0319323999065444,-0.0184890891048621,0.000611069924699283,-0.000417247277555044,-0.0304296932160155,0.0208700347507662,-1.64711800440797,-0.000113148670027353,0
0.41,0.000641061556950948,0.000369439919963448,-0.0319316024834361,-0.0184890741030232,0.000611026330346134,-0.000417244050750529,-0.0304288926113531,0.020869968682152,-1.64711832289321,-0.000108524364318832,0
0.42,0.00064102215036468,0.000369439832201681,-0.0319308717973608,-0.0184890743660487,0.000610986925700113,-0.000417241133517406,-0.0304281580566625,0.0208699219435899,-1.64711860922245,-0.00010436695458084,0
0.43,0.000640986760106997,0.000369439753298332,-0.0319302136221915,-0.0184890746104216,0.000610951537078986,-0.000417238513671043,-0.0304274964065779,0.0208698798352125,-1.64711886664214,-0.000100629300365651,0
0.44,0.000640954978724275,0.00036943968235975,-0.0319296205476901,-0.0184890748380538,0.000610919757065121,-0.000417236161041923,-0.0304269002113644,0.0208698418828295,-1.64711909807112,-9.72690207898518e-05,0
0.45,0.000640926516892026,0.000369439618582059,-0.0319290897386227,-0.0184890583149859,0.000610891296142229,-0.000417234054376042,-0.0304263678652105,0.0208697912649565,-1.64711930613378,-9.42480139831584e-05,0
0.46,0.000640900789106014,0.000369439561242379,-0.0319286023897955,-0.0184890585151378,0.000610865569581175,-0.000417232149753515,-0.0304258780160859,0.0208697599960351,-1.64711949318908,-9.15320250535272e-05,0
0.47,0.000640877680664732,0.000369439509691108,-0.0319281622006612,-0.0184890587030653,0.000610842462178628,-0.000417230439079609,-0.030425435584456,0.0208697317360153,-1.64711966135823,-8.90902576762948e-05,0
0.48,0.000640856900529876,0.000369439463343913,-0.0319277630750411,-0.0184890588801332,0.000610821682992308,-0.000417228900747589,-0.0304250344519858,0.020869706079494,-1.64711981254812,-8.68950248986734e-05,0
0.49,0.000640838157663144,0.000369439421675658,-0.0319273980520227,-0.0184890590477005,0.000610802941155909,-0.000417227513091392,-0.0304246676421489,0.0208696825492493,-1.64711994847283,-8.49214351977899e-05,0
0.5,0.000640821335649213,0.000369439384213819,-0.031927068173105,-0.0184890592063003,0.000610786119985818,-0.000417226267706382,-0.0304243361612012,0.0208696612721528,-1.64712007067374,-8.314711023815e-05,0
0.51,4.71894210248802,0.0483340699958143,4.05387930805147,-2.40381151708455,-0.647545163845994,4.67455195818124,-2.97492375779254,3.65541733448285,0.147891809291134,45.817242689897,1719.97416090358
0.52,4.68639874513307,0.0107239538069641,5.68220423750019,-0.502344871487639,-2.92669750576703,3.66017621314974,-3.95034557271247,4.11516284279565,0.67678873669175,98.9891416054525,1719.97416090358
0.53,4.63900811668935,-0.00407369736174212,8.05300283057743,0.250751505413552,-4.63447063219445,-0.2051703220426,-8.05630266971261,-0.0985809349558214,1.61415979749547,156.613133450483,1719.97416090358
0.54,4.66028149855081,0.0519285309314677,6.9906724469723,-2.52665276673041,-0.914489618620963,-4.56997034514385,1.18766873440802,-7.33777339809521,2.9552351578006,209.452408032032,1719.97416090358
0.55,4.6180716446244,0.0727873942310664,9.10263005732506,-3.55573659672954,4.61653217920693,-0.139693800827915,9.15319569372034,3.4234697747021,-1.58528644184712,264.456401556235,1719.97416090358
0.56,4.62622800690462,0.086205076417201,8.69638658206078,-4.21015065096043,-2.36815964365491,3.97507695387561,-8.16547650594214,5.16502676850143,0.555921873180152,319.067268154114,1719.97416090358
0.57,4.58131433933287,0.0843365112837982,10.9437322175465,-4.09609121256873,-0.294347209852148,-4.57262653657225,3.58990119591857,-11.1200650840987,3.09571648564253,373.24907594755,1719.97416090358
0.58,4.60509505006966,0.0267464674051596,9.75645580062186,-1.21425290327073,1.16223718202287,4.4560992500637,1.23072133214869,9.75439208280985,-0.249327480493367,428.232170589278,1719.97416090358
0.59,4.57130100046051,0.126756877367227,11.4479857275245,-6.18933509014095,-0.375450845860646,-4.55761964243548,5.55687577395676,-11.767981037904,3.08712126910426,481.970826616158,1719.97416090358
0.6,4.5526920087147,0.0786058208745207,12.3804155758624,-3.77764098898665,-2.25817347635905,3.95396458658377,-9.57207224104523,8.71324820517238,0.536174723513294,536.445820219909,1719.97416090358
0.61,4.52374722527381,0.126032291710599,13.8296098284372,-6.14062985293015,4.51251513597137,-0.342608003928121,14.1079113642624,5.47104011460528,-1.61872195095265,590.454328380524,1719.97416090358
0.62,4.5707455014329,0.0961675612969559,11.481785312628,-4.62791292837912,-1.16377173421044,-4.42115346819897,1.8106952067101,-12.2462383982322,2.90523999521539,644.315710881384,1719.97416090358
0.63,4.51598531153984,0.131251213524464,14.2219679193847,-6.35951777541046,-4.50998058019508,0.267255273771063,-14.4071193257049,-5.92813213168099,1.5406624286258,697.886844615316,1719.97416090358
0.64,4.51157540312264,0.148399471572733,14.4447243065492,-7.18046497434795,-2.30739339891314,3.87972559904387,-13.8352474142371,8.29427914450057,0.56941748182646,751.274757240037,1719.97416090358
0.65,4.53613840981093,0.114665340015314,13.2189028462151,-5.49731257151637,0.152490364717361,4.53502442130483,-5.38688270031476,13.2642878715623,-0.00833957149338886,805.137032292756,1719.97416090358
0.66,4.50656180385385,0.134342585941186,14.7002042918299,-6.48329739827917,1.00114916803382,4.39600359027345,-3.52581159514224,15.6747505234255,-0.194119981084344,858.691992548639,1719.97416090358
0.67,4.47595739996055,0.124255577192604,16.2329545858115,-5.96746320983944,0.0727890533147152,4.47709010948435,-6.15369269028525,16.1632762155244,0.0114968577857503,912.014236741099,1719.97416090358
0.68,4.48210441332902,0.11118263620472,15.9281957353901,-5.29383377699832,-2.46859011515593,3.74268411623682,-13.4425410920244,10.0513772405887,0.607879440349876,965.287040534145,1719.97416090358
0.69,4.44195112614832,0.161176212451408,17.9385549747976,-7.75811480750504,-4.44452000171382,0.0561206995348314,-17.7501349103322,-8.18002509869449,1.59443914691389,1018.21625301998,1719.97416090358
0.7,4.17920058634849,0.17181458300216,20.5468775412718,-8.32694937517646,-0.890048372363376,-4.08693671185658,4.65833283695555,-21.6751516205288,2.96825063484046,1070.38229226397,1719.97416090358
0.71,3.96109417515502,0.186922363918166,17.3391504216947,-9.04404218004205,3.96101880516547,-0.188512757407305,17.3427802737951,9.03707965414702,-1.57119783418862,1119.008629332,1719.97416090358
0.72,3.7040864605233,0.163463735911679,17.0730044958683,-7.89980746916521,-3.16037379705217,-1.93881777454621,-9.72118060938553,-16.1056849629416,2.1651687907819,1164.69635226036,1719.97416090358
0.73,3.44335557810324,0.170063666110103,17.8486645888149,-8.24879626079182,3.38908578670399,-0.632231617484064,18.7969384102557,5.76997172931752,-1.70587688071016,1207.26239378932,1719.97416090358
0.74,3.20834469810344,0.131387776256671,18.0867001371315,-6.31570814876766,-2.64285843103453,1.82374278973429,-18.6655917058453,4.31422965795786,1.00769867081101,1246.91324393067,1719.97416090358
0.75,3.0063001442112,0.184910096851947,17.4061490934104,-8.98245420240873,2.16016835377629,-2.09897712811395,19.0570299244741,-4.52638047650665,-2.28039831803796,1283.97573000627,1719.97416090358
0.76,2.71577140425945,0.0999209665127345,21.8989550802315,-4.80333588693294,-2.19568748484173,1.60136035565128,-20.8414918923461,8.26247450525365,0.977438113215315,1318.70571817284,1719.97416090358
0.77,2.59433897096455,0.1527409753613,18.5130501247847,-7.42547631908847,2.48992870070224,-0.744432379225273,19.7234982039395,2.97562465498076,-1.80250784661111,1351.01075737532,1719.97416090358
0.78,2.386391901107,0.125042923312096,20.0915305545477,-6.07013877295906,-2.27829897025777,-0.721010291509015,-16.6799482124928,-12.7395255946154,1.92964314583756,1381.18213873466,1719.97416090358
0.79,2.23683172906382,0.112302888847739,19.2712891883241,-5.40462106984891,0.989762056260613,2.00907919081776,2.67707007684758,19.8349643733564,-0.40758190103938,1409.27372883204,1719.97416090358
0.8,2.05349793726789,0.0774009433083984,20.7394355293964,-3.7082054752766,1.08847948240334,-1.74300232380094,14.7092151872164,-15.0835659742987,-2.54568907355794,1435.59516502995,1719.97416090358
0.81,1.95863410483432,0.140561361379195,18.2566447243493,-6.89509358661258,-1.94371472561242,-0.279245623726384,-16.3723610232578,-10.6204136776006,1.78512809295204,1460.07697161452,1719.97416090358
0.82,1.77197646893001,0.102378142096853,20.8213090779948,-5.00405403165834,-1.77440334353656,-0.0432974002354045,-20.3407490686227,-6.69487832603923,1.65290467283957,1482.83631497589,1719.97416090358
0.83,1.61780971629992,0.064591186990433,22.1981684391966,-3.12664649779825,0.00804773957486957,1.61907860633108,-3.90003786800477,22.0754230991224,0.0349333628338011,1504.06705584403,1719.97416090358
0.84,1.50827280134118,0.0838492911566763,21.7513390309998,-4.10203073501894,1.5054371361403,0.124806153785493,20.9785001841844,7.0604486978314,-1.43254612664975,1523.87472743385,1719.97416090358
0.85,1.40030258593197,0.0927918263262997,21.6103845899719,-4.5582199767428,0.435536597165232,-1.33407853132058,12.2805616966596,-18.3568487463783,-2.75986296390317,1542.33141367632,1719.97416090358
0.86,1.32590452480464,0.0374036142129829,20.1460936197218,-1.7783694033657,-0.990622418384355,-0.882093568420008,-13.4423648426461,-15.1106092963393,2.32650899565199,1559.50474958643,1719.97416090358
0.87,1.26495070611755,0.0835971162188675,18.3369902997991,-4.06525455303125,-1.17461456097977,0.476832674930836,-18.6856145710162,1.90244998338799,1.25116401664224,1575.45393776516,1719.97416090358
0.88,1.10836938261099,0.118985841332039,21.6182178793295,-5.82521498894625,-0.201762896909015,1.09632661747211,-11.743583438914,19.0622328691806,0.288941507226052,1590.32665234556,1719.97416090358
0.89,1.01517736205246,0.0311558791365319,22.0477395108163,-1.51619650224344,0.572391808229195,0.839001420201822,10.5827744313147,19.4011998264576,-0.568019407081869,1604.22228262545,1719.97416090358
0.9,0.966459276453258,0.0563836059587226,20.4880299679496,-2.7454485932347,-0.250703405005195,0.93507777579315,-9.05507862462803,18.5823144696106,0.320223450882135,1617.14183930568,1719.97416090358
0.91,0.86995296264839,0.0992249187838298,21.5919795191213,-4.85988585894393,0.3893586350229,0.784259902750021,2.77821930803381,21.9570846788135,-0.347249655451203,1629.10093323037,1719.97416090358
0.92,0.853282673438109,0.0141662018918908,18.9678091292686,-0.669567658075701,0.692599585783357,0.498595844184898,14.8075921802788,11.8727131623589,-0.930244931604301,1640.24683741408,1719.97416090358
0.93,0.733685954347497,0.0213228726195755,21.6886808829703,-0.978093238885738,0.729788537629145,0.0784756959106591,21.3551175066249,3.91337464415548,-1.43462135078513,1650.55086599922,1719.97416090358
0.94,0.685173387653138,0.049928943256479,21.072187784313,-2.48191084041791,0.641053272006459,-0.24699427720617,20.8834173036584,-3.75231410710696,-1.86581964659227,1660.19503374668,1719.97416090358
0.95,0.677637570879416,0.0522117189819019,18.5863011999579,-2.52808805456784,0.504100202038074,-0.455852747465202,16.2491647562758,-9.37051045731278,-2.22907882713809,1669.13080037619,1719.97416090358
0.96,0.599012624331228,0.0199980291276368,19.8590526995011,-0.980620854845912,0.328026974102219,-0.501611751794669,12.219883103982,-15.6849624898351,-2.52907588476303,1677.41235819227,1719.97416090358
0.97,0.539135331782677,0.0473326564398578,20.3586381235204,-2.3311346159356,0.151264505495007,-0.51964058321057,9.55053501591842,-18.1299645821989,-2.77075683211627,1685.09888862034,1719.97416090358
