t,iq,id,vq,vd,ia,ib,va,vb,theta_e,omega,r
0,0,0,0,0,0,0,0,0,0,0,0
0.01,0.00120462188315935,0.000687373638624201,-0.0595468571890709,-0.0344458733199035,0.000489356339616413,-0.00129773910064353,-0.0238915949331075,0.0645099843545072,-2.26246483663186,-0.00331786391309153,0
0.02,0.00135748373663792,0.000775504847624629,-0.0672373590329987,-0.0388623487926397,0.00055084026683789,-0.00146312845107862,-0.0269959892290497,0.0728173136620556,-2.26248912100766,-0.00357002346224044,0
0.03,0.00138675277646315,0.000792331015173743,-0.0686938450705206,-0.0397055367333286,0.000562613340526675,-0.00149477019293801,-0.0275780874649861,0.0743963916438692,-2.26251357480476,-0.00346293272791141,0
0.04,0.00137132217522748,0.000784033442437794,-0.0679581684158337,-0.0392897145349323,0.000555989392954786,-0.00147854953993881,-0.0272751115977135,0.0736074901759567,-2.26253571667881,-0.00324453157048356,0
0.05,0.00138561153476011,0.000792347135499346,-0.068678338637428,-0.0397063506492157,0.000561658359646468,-0.00149407938056635,-0.0275623514352713,0.0743883409092736,-2.26255759493359,-0.00311426775313497,0
0.06,0.00138510283267441,0.000792369160865134,-0.0686723742369401,-0.0397074568814316,0.000561221629871001,-0.00149378346032406,-0.0275555129060701,0.074385958512427,-2.26257829170759,-0.00295041715296769,0
0.07,0.00141973927889357,0.000812283565695113,-0.0703870742122023,-0.0407053942318241,0.000575162181084488,-0.00153122587379581,-0.0282379461256845,0.0762488539869632,-2.26259770878369,-0.00289838586704751,0
0.08,0.00138419727520395,0.000792425288745761,-0.068662645198087,-0.0397102557524685,0.00056043173809111,-0.00149327030435418,-0.0275434103012958,0.0743829537360497,-2.26261626761798,-0.00264985367732503,0
0.09,0.00138360111262659,0.000792353680685887,-0.0686493520552919,-0.0397066520108353,0.000559992367987119,-0.00149284458064267,-0.0275341793440663,0.0743721770514335,-2.26263365401991,-0.00251172108894557,0
0.1,0.0013831553315902,0.000792348774059687,-0.0686425241478178,-0.0397064134166063,0.000559627728088724,-0.00149256559554833,-0.0275278535631433,0.0743680890301771,-2.26265005883086,-0.00238172604336636,0
0.11,0.00138273501606578,0.00079234435406173,-0.0686360927310242,-0.0397062166093559,0.000559283778370331,-0.00149230270230933,-0.0275218754270681,0.0743642604736159,-2.26266553788591,-0.00225906806732696,0
0.12,0.00138233882793503,0.000792340183653639,-0.0686300407256817,-0.0397059869064173,0.000558959560194268,-0.00149205489574496,-0.0275162755219607,0.074360624443457,-2.26268014342962,-0.0021433319050252,0
0.13,0.00144315514328653,0.000827114846383295,-0.0716231403862652,-0.0414486381760212,0.000583582211067197,-0.00155764165956999,-0.0287081687160619,0.0776125305244424,-2.26269480065542,-0.00220446125930896,0
0.14,0.00157847811865892,0.000905330375798417,-0.0784658597863254,-0.0453681952953713,0.000637861189504419,-0.0017042151751913,-0.031475480636175,0.0849968141466961,-2.26270834522091,-0.00249008918452329,0
0.15,0.00138192319495778,0.000792707778523213,-0.0686472556973299,-0.0397244050907996,0.000558343665529096,-0.00149209573756413,-0.0275147243443418,0.0743869210200787,-2.26272123821951,-0.00181971720285201,0
0.16,0.00138091469776659,0.000792326445043337,-0.0686083149120096,-0.0397052946464998,0.00055779330600924,-0.00149116505652261,-0.0274960796678074,0.0743476758273749,-2.26273270298313,-0.00172684978527673,0
0.17,0.00138061853839696,0.00079232208600571,-0.0686036787324919,-0.0397050999338586,0.000557551915592637,-0.00149097877179951,-0.0274918299262568,0.0743448652140444,-2.26274351827899,-0.0016411408233289,0
0.18,0.00138034173346636,0.000792319165944366,-0.0685994300316721,-0.0397049363335539,0.000557325423914003,-0.00149080559890643,-0.0274879041293483,0.0743423089263281,-2.26275372323826,-0.00156027538908955,0
0.19,0.00138008026592873,0.0007923164144362,-0.068595403027437,-0.0397048056502996,0.000557111496390997,-0.00149064201657539,-0.0274841709004706,0.0743399035386669,-2.26276335231281,-0.00148397336294342,0
0.2,0.00137983369954731,0.000792313818003218,-0.0685916066961434,-0.0397046749659971,0.000556909756720521,-0.00149048775488923,-0.027480655730247,0.0743376303358504,-2.26277243800031,-0.00141197719952025,0
0.21,0.00137960110299952,0.000792311367904116,-0.0685880234382975,-0.0397045442796651,0.000556719447164267,-0.00149034223058219,-0.0274773427808204,0.0743354789406353,-2.26278101096563,-0.00134404391120767,0
0.22,0.00137938128270968,0.000792309055901041,-0.06858462103832,-0.0397044435670213,0.000556539610380773,-0.0014902046923929,-0.0274741859627262,0.0743334526819674,-2.26278910014252,-0.00127994422267539,0
0.23,0.00137917441393916,0.000792306874219997,-0.0685814340378854,-0.0397043128680263,0.000556370345196576,-0.00149007526185308,-0.027471248095678,0.0743315281901338,-2.26279673283165,-0.00121946179699107,0
0.24,0.00137897892444912,0.000792304815522862,-0.0685784082825533,-0.0397042150415538,0.000556210406971951,-0.00148995294487835,-0.0274684454532842,0.0743297200251317,-2.26280393479358,-0.00116239250548897,0
0.25,0.00137879449441185,0.00079230287288372,-0.0685755507583414,-0.0397041172007699,0.000556059517340257,-0.00148983754596786,-0.0274658025874452,0.0743280079965138,-2.2628107303355,-0.00110854373883107,0
0.26,0.0013881616624361,0.000797663574368419,-0.0690403111171865,-0.039972746551448,0.000559841693128691,-0.00149994575154115,-0.0276517628772883,0.0748315777984296,-2.26281711878129,-0.00108554960694341,0
0.27,0.00133714356464602,0.000768733039721744,-0.0665462767622123,-0.0385229945822748,0.000539011303416867,-0.00144511944614379,-0.0266560901495689,0.072124066166828,-2.26282334862548,-0.000888926342230185,0
0.28,0.00130114514772172,0.000747767113786741,-0.0646093549215636,-0.037472330540247,0.000524664304415056,-0.00140600914633348,-0.0258347678619123,0.0700793055688996,-2.26282918710658,-0.000738868800597778,0
0.29,0.00137788103249587,0.000792146651246243,-0.0685521720800597,-0.0396962985499424,0.000555420797661182,-0.0014891474723203,-0.0274510408167012,0.0743077167832526,-2.2628342821091,-0.000921122184119238,0
0.3,0.00137648020736318,0.000791439612557537,-0.0684872371708854,-0.039660858413111,0.000554787426231246,-0.00148771144153815,-0.0274233607340809,0.0742391044626376,-2.26283829958962,-0.000885545985085261,0
0.31,0.00137790898535203,0.000792290731943134,-0.0685616325107544,-0.0397035127442267,0.0005553371737339,-0.00148928116865355,-0.0274530623398145,0.0743195515657688,-2.2628431502671,-0.00085162757372023,0
0.32,0.0013777900679522,0.000792292283356086,-0.0685599500469132,-0.039703590228675,0.000555237799992114,-0.00148920902464135,-0.0274513769308884,0.0743186634169376,-2.26284773278356,-0.000815331150357093,0
0.33,0.00137767278012813,0.000792291056424213,-0.0685581098368459,-0.0397035251139043,0.000555141839574399,-0.00148913563692154,-0.0274496802889154,0.0743175577027918,-2.26285205671977,-0.000781067748738474,0
0.34,0.00137756212797614,0.000792289889655378,-0.0685563704278345,-0.0397034599817306,0.000555051313777529,-0.00148906639367025,-0.0274480794120025,0.0743165095880569,-2.26285613664813,-0.000748737839810702,0
0.35,0.00137745738359575,0.000792288788661352,-0.0685547084282251,-0.0397034276738023,0.000554965637981673,-0.00148900084248482,-0.0274465343082003,0.0743155298117197,-2.2628599863381,-0.000718232367043381,0
0.36,0.00137735907146598,0.000792287749764481,-0.068553162427028,-0.0397033625057238,0.00055488519890958,-0.00148893932254057,-0.0274451156363636,0.074314592784419,-2.26286361878283,-0.000689448374348137,0
0.37,0.00137726573578617,0.000792286769464658,-0.06855167118026,-0.0397033301599573,0.000554808859598083,-0.0014888809090558,-0.0274437334168518,0.0743137103335706,-2.26286704624132,-0.0006622887154397,0
0.38,0.00137717825027944,0.000792285844458237,-0.0685502893044079,-0.0397032649599044,0.000554737277563402,-0.00148882616354401,-0.0274424707499273,0.0743128670644174,-2.26287028028206,-0.000636661726177447,0
0.39,0.00137709527556231,0.00079228497162803,-0.0685489602373882,-0.0397032325788024,0.00055466940725648,-0.00148877423503277,-0.0274412413666418,0.0743120777471012,-2.2628733318192,-0.00061248091519387,0
0.4,0.0013770169574525,0.000792284148032008,-0.0685477010166801,-0.0397031972703589,0.000554605347434546,-0.00148872522008984,-0.0274400804292944,0.0743113260155883,-2.26287621115221,-0.000589664671988538,0
0.41,0.00137694355819712,0.00079228337089449,-0.0685465338408581,-0.0397031320265948,0.000554545287260158,-0.00148867928938171,-0.0274390215410353,0.0743106055094946,-2.26287892799868,-0.00056813599148891,0
0.42,0.00137687397124069,0.000792282637595462,-0.0685454121495232,-0.0397030995977366,0.000554488362750406,-0.00148863573989398,-0.0274379881284831,0.0743099350819055,-2.26288149152851,-0.000547822214161759,0
0.43,0.00137680822598956,0.000792281945663201,-0.0685443455881704,-0.0397030671546385,0.000554434585205907,-0.00148859459333424,-0.0274370079240473,0.0743092958503311,-2.26288391039289,-0.000528654780781412,0
0.44,0.00137674632244373,0.000792281292764394,-0.0685433418768542,-0.0397030346968973,0.000554383943926565,-0.00148855585247688,-0.0274360862645426,0.0743086929657286,-2.26288619275624,-0.000510569001046668,0
0.45,0.00137668791135722,0.000792280676698218,-0.0685423909313238,-0.039703002225945,0.000554336159929778,-0.00148851929706699,-0.0274352148121843,0.0743081202059716,-2.26288834632106,-0.000493503835249443,0
0.46,0.00137663287631473,0.000792280095387307,-0.0685414936943401,-0.039702969742036,0.00055429113406372,-0.0014884848552793,-0.0274343937520953,0.0743075783728906,-2.26289037835602,-0.000477401688263569,0
0.47,0.00137658048942013,0.000792279546871695,-0.0685406203521701,-0.0397029700667757,0.000554248296931288,-0.00148845206492925,-0.0274335786752139,0.0743070738991548,-2.26289229571884,-0.00046220821516129,0
0.48,0.00137653150797404,0.000792279029301523,-0.0685398148501334,-0.0397029375583518,0.000554208223111834,-0.00148842141147978,-0.0274328448237078,0.0743065844682106,-2.26289410488118,-0.000447872137799856,0
0.49,0.00137648520408003,0.000792278540931397,-0.0685390465322989,-0.039702905039676,0.000554170344196436,-0.00148839243248709,-0.0274321471952815,0.0743061159555697,-2.26289581194873,-0.000434345071755698,0
0.5,0.00137644157773259,0.000792278080114469,-0.0685383208410146,-0.0397028696000766,0.000554134652638356,-0.00148836512989462,-0.0274314914090981,0.0743056697517701,-2.26289742268332,-0.000421581363026456,0
0.51,4.57405004729498,0.0373636226308128,11.2993792264188,-1.86279659080017,-0.966827910015881,4.47085826971395,-4.29586314797965,10.6156272473628,0.221140078421273,67.7789898917518,4876.05777011978
0.52,4.46936165633222,0.0109252031334687,16.5359116439587,-0.525809464976895,-3.75162254525872,2.42912355656576,-14.1869796611034,8.51131350531208,0.99863481883433,144.57762537621,4876.05777011978
0.53,4.56451576508536,0.0443661063177483,11.7804469751411,-2.18869828691935,-3.26759982186106,-3.1874070849636,-6.80906728100661,-9.85930696793644,2.3534912683157,226.541027288555,4876.05777011978
0.54,4.55444357975817,0.0520625182683232,12.286357376164,-2.57000626221044,4.19712720691426,-1.76912126096234,12.3465958083831,-2.26298071291762,-1.95827456462641,309.211341743164,4876.05777011978
0.55,4.51551841397831,0.0193964284523976,14.2350521531598,-0.911434156648015,-2.48836206523521,3.76806807272802,-8.65376863678961,11.339299378974,0.587934110387058,386.45176033933,4876.05777011978
0.56,4.432227038001,0.0711454549743562,18.4021699771539,-3.50352879908059,2.38997443321676,-3.73332564889816,13.0891212346167,-13.4010999257359,-2.55610623915319,467.757703427183,4876.05777011978
0.57,4.49080087479657,0.106092330943836,15.47611780245,-5.25309415175114,-4.0784841077648,1.88268836042205,-16.2889444312639,1.33248253934829,1.16194564811353,548.351369722555,4876.05777011978
0.58,4.48087167739282,-0.00805798987072359,15.9752681481959,0.475021075568155,3.26596521849535,3.06785708794274,11.9881000765974,10.569782116131,-0.818464092578126,627.411565855309,4876.05777011978
0.59,4.33716677615887,0.0222928591920618,23.1632923614649,-1.03978515623025,3.45431789495549,-2.6228230013437,19.1443322276866,-13.0810477313468,-2.21507555000551,706.579137690257,4876.05777011978
0.6,4.37075246708717,-0.00471708048092823,21.4869705658773,0.322395550005884,0.487681212126623,-4.3434624914618,2.05401149362778,-21.3909999713334,-3.03086081080496,785.967025802523,4876.05777011978
0.61,4.5076932774487,0.0112582282572191,14.6428756908326,-0.458735107287094,-0.572689535800909,-4.47118017159271,-1.36888689082975,-14.5859656888376,3.01669918313984,864.944015850971,4876.05777011978
0.62,4.38096399224139,0.0434928049223107,20.9823749134865,-2.04519398795849,0.904516857375698,-4.28679208501168,6.53235523316139,-20.0442313538404,-2.92371470411252,942.922991460526,4876.05777011978
0.63,4.30350468501971,0.0104764322699755,24.8585320064419,-0.415865807492723,3.90220249811342,-1.81468399269325,22.7402974793362,-10.049797432607,-2.00365328579055,1022.4227335128,4876.05777011978
0.64,4.43512741118248,0.105537737532386,18.2806034708656,-5.13266776760174,2.24205724256683,3.82814219805369,4.37135344644237,18.4774460009461,-0.506030389826006,1100.3422548519,4876.05777011978
0.65,4.29381262533546,0.042096615628072,25.3496356576921,-1.97803166794355,-4.29362971364232,0.0578175463447787,-25.3567080385379,-1.88520415485182,1.56713495416875,1179.62351479299,4876.05777011978
0.66,4.34156727800234,0.0945689697312455,22.9652757744032,-4.60392351688211,3.76985507288434,-2.15553762409865,22.3775906646357,-6.9168951986927,-2.06843052606604,1257.78868594106,4876.05777011978
0.67,4.34344105253273,0.0309850191062224,22.8750063071462,-1.35687038141212,-3.95842952904421,1.78809281409732,-21.4631759739507,8.02739608435745,1.15364847906023,1335.66172106511,4876.05777011978
0.68,4.2002612694446,0.108358104838568,30.0375077210179,-5.23112547327649,4.10846852546663,0.880012832707917,27.9721002891311,12.1317001785474,-1.33399763948588,1413.78856225027,4876.05777011978
0.69,4.31584131879598,0.158187349345992,24.2620845120081,-7.76922765535222,-0.622972077886038,-4.27357172827298,5.10582076975434,-24.9587707528968,3.03347539680144,1492.14260909739,4876.05777011978
0.7,4.18696828288175,0.0931940524389621,30.7093826420551,-4.50072229025693,-4.16861556908609,-0.402532943298794,-29.9617804640805,-8.10027128017421,1.689315054322,1570.10453170073,4876.05777011978
0.71,4.26313835286234,0.141390805388149,26.9045536868667,-6.86085122919718,-3.29485945489759,2.70891881531472,-25.5164200121467,10.9470817317853,0.91583912245032,1647.35920786226,4876.05777011978
0.72,4.22084216822337,0.156698988859423,29.0230955719025,-7.67663329467274,-2.63877567710336,3.29801851239344,-24.7724325376105,16.9586957483823,0.711915668705624,1725.59543974462,4876.05777011978
0.73,4.18642538634014,0.173208095160087,30.7477702925702,-8.43598931283237,-3.60498358899496,2.1354746270324,-31.0756177970521,7.13423241718557,1.07735812250771,1802.62647393283,4876.05777011978
0.74,4.14223984283975,0.0840598655845965,32.9608984420085,-4.00702457365097,-3.78290795868705,-1.68962254740915,-28.108454609136,-17.6746103641461,2.01114852225483,1880.61320281014,4876.05777011978
0.75,4.17574293764874,0.00716698902349178,31.2896608144011,-0.16262187074126,1.50807658379589,-3.89391646860349,11.5019043607147,-29.0994074824572,-2.77037425064928,1958.07313075034,4876.05777011978
0.76,4.20498952562684,0.0556332102181984,29.8312490464504,-2.58160280548348,2.75625153591364,3.17617843256394,17.2800368864114,24.4533927691208,-0.701501545767523,2035.33699544517,4876.05777011978
0.77,4.11944147137875,0.0612766348265392,34.1126913073479,-2.86331637712826,-3.87252490141194,-1.40609521371607,-30.8705893723586,-14.7946274271831,1.93396317678544,2112.54168123427,4876.05777011978
0.78,4.15879520177118,0.14410709116196,32.1491337323163,-7.00065415218297,-3.66895628694506,1.96344191370268,-31.9412006267601,7.89529358655503,1.11406302144331,2189.65108592999,4876.05777011978
0.79,4.13296045309423,0.174905147962097,33.4450751469845,-8.50233093898771,4.10483501250937,0.512136151527821,31.5746070855575,13.9250447172053,-1.40437924198603,2266.33693455644,4876.05777011978
0.8,4.08862574456166,0.171235416062664,35.6660740697949,-8.25894877423695,-1.05120831989904,-3.95488850853998,0.352039088338208,-36.6081294644762,2.92365627310748,2342.83900713519,4876.05777011978
0.81,4.1463855353244,0.125692890560535,32.7823821323339,-6.04866390075215,-4.13819946341556,0.289165888845903,-32.9954776720902,-4.75072272872491,1.5313370692247,2419.98096428553,4876.05777011978
0.82,4.0273043563064,0.173495937219473,38.7407936755253,-8.35483285545457,-2.46404689620408,3.19025925464737,-31.3649743585145,24.2258273365829,0.700715484043246,2496.19581420266,4876.05777011978
0.83,4.10289391609157,0.207504130283784,34.9656309984306,-10.0838003568579,-1.52847410696271,3.8132090626047,-23.7904672069067,27.537103167045,0.431759466294829,2572.9625759374,4876.05777011978
0.84,4.05527742590865,0.15401097974273,37.3508039109332,-7.43966845490081,-2.57209562986682,3.13899959442266,-30.3238321477989,23.0411897128587,0.724418328373806,2649.745066596,4876.05777011978
0.85,4.01512201613675,0.107585166414264,39.3630115208177,-5.12365012600487,-4.0157674035306,0.0799470652340679,-39.3268137159055,-5.39445915326135,1.57767924862928,2726.22921797922,4876.05777011978
0.86,4.0066368389111,0.149850132588488,39.7917282933153,-7.23116642107323,-0.748537175849309,-3.938944772084,1.18688595697663,-40.4260152637311,2.99118002827224,2802.53799918196,4876.05777011978
0.87,4.06779416119852,0.106200138199794,36.7382899841646,-5.00240011194173,3.96635032370427,0.90900655491888,34.3391580497383,13.9838543426203,-1.3194056453331,2878.67523585074,4876.05777011978
0.88,3.97613949762978,0.20309237033091,41.3254486960693,-9.80204519203868,-3.65078897149574,1.58829207046542,-42.1330020711601,5.35564527856723,1.21147379444765,2954.60695704996,4876.05777011978
0.89,3.91753330521467,0.206390862040972,44.2601582485766,-10.068524148577,-0.883013624373205,3.82229660342725,-21.8947881960052,39.7612252901189,0.279668832339769,3030.9125880467,4876.05777011978
0.9,3.99579441504246,0.199951113516777,40.3515173502445,-9.66383670413801,2.68138863353238,-2.9692605899524,35.3466034128591,-21.7313671793881,-2.35709673402183,3106.76405684674,4876.05777011978
0.91,3.94454511984124,0.165632524849645,42.9183586677156,-8.01351022083985,-3.84138908344746,-0.911372725794519,-39.131417501894,-19.3632130877768,1.84570586278732,3182.77994888787,4876.05777011978
0.92,3.98515522553575,0.260543877794647,40.8921738588615,-12.6281915486712,-1.01067624076296,3.86366132317889,-24.8900702204526,34.8155929019488,0.321137908052443,3258.27353127561,4876.05777011978
0.93,3.92951808126741,0.176027286623728,43.6782804079948,-8.42766460062197,2.51295540441455,3.02607883110591,19.6548826001767,39.906181225385,-0.64825787535165,3334.02775144059,4876.05777011978
0.94,3.96248862155262,0.194170853977275,42.0339838282356,-9.3494351207443,3.55805345293411,1.75478603326215,32.2024815030471,28.5878981143296,-1.06365080028594,3409.70582289343,4876.05777011978
0.95,3.95959780958811,0.248868385387522,42.1826960816436,-12.076814044304,3.31137477446391,2.18521106302902,26.4097922166582,35.0392945312823,-0.924716280609065,3485.27213595837,4876.05777011978
0.96,3.89596682595578,0.204663050704895,45.3683736595505,-9.82463429048171,1.09564990378273,3.74432847939556,0.878458911535853,46.4116480788503,-0.232184875517399,3560.61672213802,4876.05777011978
0.97,3.83074398117444,0.236666949518666,48,-11.3972110182101,-3.12501848695615,2.22819885793009,-46.7584707616614,15.7334621436119,1.01308834980227,3635.98917059876,4876.05777011978
0.98,3.72751437481761,0.104191185645413,47.120715018646,-4.90301920496451,3.52683415751027,1.21105740700304,42.4001519965358,21.1335868196424,-1.21208322194573,3710.54465896475,4876.05777011978
