t,iq,id,vq,vd,ia,ib,va,vb,theta_e,omega,r
0,0,0,0,0,0,0,0,0,0,0,0
0.01,0.000896785666239238,0.000455941951518325,-0.0431979721946726,-0.0228100452452125,0.000405906861036118,-0.00092051464653763,-0.0190162216366378,0.0449971808059862,-2.25592546748844,-0.00453138913763019,0
0.02,0.00110092925351754,0.000552840803891984,-0.053597113742872,-0.0276577384859687,0.00050263146571698,-0.00112473987453536,-0.0239993841401457,0.0553320039454412,-2.25595784678866,-0.00414543534050191,0
0.03,0.00114590134603677,0.000590307556613882,-0.0561894160364272,-0.0295321295966119,0.000513714552467601,-0.00118222259529555,-0.0248190205518515,0.0584244244462242,-2.25598379187697,-0.00307652297457437,0
0.04,0.00108804258430758,0.000580805329241804,-0.0537482340836477,-0.029056754726769,0.000474908860845943,-0.00113825878851534,-0.0232287043145571,0.0565119010318099,-2.25600031697508,-0.00184166890842374,0
0.05,0.001085759569891,0.000595351586779647,-0.053829959361515,-0.0297844837067806,0.000463923661763465,-0.0011480819620336,-0.0228308487907568,0.0571273344208832,-2.25601090998188,-0.00127302334759352,0
0.06,0.00107098053395415,0.000597976982467117,-0.0532522609690752,-0.0299158170576882,0.000450811310862134,-0.00114076506681611,-0.0223000480159913,0.0568635847184474,-2.25601769264544,-0.000823625482985605,0
0.07,0.00107507291504563,0.000608214430551892,-0.0535114224212796,-0.0304279926740136,0.000447497023866595,-0.00115128318837148,-0.022176373324742,0.0574242416918162,-2.25602135784512,-0.000658144492604325,0
0.08,0.00105439747297645,0.000600298401202754,-0.0525844016962976,-0.0300319661336514,0.000436494918085435,-0.00113207084053574,-0.0217090657798789,0.0565310070189384,-2.256024212032,-0.000376444258624601,0
0.09,0.00104564396865481,0.000598868420154694,-0.0521957430156929,-0.0299604267656767,0.000430620661776023,-0.00112542460409142,-0.0214533308078537,0.0562296839595469,-2.25602563444332,-0.000245985867235342,0
0.1,0.00104165049995117,0.000598609984069066,-0.0520200543476978,-0.0299474835630254,0.000427691343415124,-0.00112269755136611,-0.0213254492317374,0.0561084934850304,-2.25602637462412,-0.000181695001354499,0
0.11,0.00103970566370003,0.000598563212581093,-0.0519351262230852,-0.0299451508027612,0.000426214663015619,-0.00112143071458552,-0.0212611457016857,0.0560529488596237,-2.25602677113029,-0.000148502238224271,0
0.12,0.00103871031235626,0.000598554711937244,-0.0518918901298143,-0.0299447280247232,0.000425449126292173,-0.00112079431525804,-0.0212279245875058,0.0560252640817206,-2.25602698746592,-0.000130812246136331,0
0.13,0.00108359420804031,0.000622128817231074,-0.0540313634849387,-0.0311240928122298,0.000445281556221304,-0.00116745235817869,-0.0221380457912936,0.0582924036386256,-2.2560278886172,-0.000371156240366296,0
0.14,0.00110736249527852,0.000636466486172141,-0.0553406045106378,-0.0318414019390209,0.000454609869836917,-0.00119359589066679,-0.0226977448489439,0.0596763752570257,-2.25602888649494,-0.000471200668816447,0
0.15,0.00105195969585122,0.000605399310117883,-0.0525675329246357,-0.0302871488642412,0.000431373055268624,-0.0011344799749554,-0.0215342002015197,0.0567180317517122,-2.25602971744641,-7.28925621976881e-05,0
0.16,0.00103766523882795,0.000599788751914874,-0.0518808131323368,-0.0300064771936279,0.000423856583017636,-0.00112108933267072,-0.0211801495417469,0.0560661101756971,-2.25602913427011,-1.18393565178427e-05,0
0.17,0.00103504911230939,0.000598775664687077,-0.0517451199022915,-0.0299557838479961,0.000422472869250804,-0.00111864902282213,-0.0211072047386436,0.0559409718164725,-2.25602846965429,-2.98428984783609e-05,0
0.18,0.00103532011970096,0.000598592827202031,-0.0517492970254126,-0.02994662837985,0.000422798950331459,-0.00111867876114368,-0.02111625995311,0.0559365163335892,-2.25602798837726,-5.67493503946928e-05,0
0.19,0.00103603113035803,0.000598559885152965,-0.0517774507975187,-0.0299450017143573,0.000423370654840882,-0.00111910309078515,-0.0211391051362236,0.0559530675906336,-2.25602768359396,-7.72451843597237e-05,0
0.2,0.00103660994709573,0.00059855398214972,-0.0518015487720593,-0.0299447008918189,0.000423822756411503,-0.00111946474849048,-0.0211579641077148,0.0559680812740725,-2.2560275014792,-9.04769312396293e-05,0
0.21,0.00103699237138534,0.000598552942783334,-0.0518177242373989,-0.0299446478195396,0.000424119633256141,-0.0011197059168874,-0.0211705278345055,0.055978274619604,-2.25602739576744,-9.8455049647455e-05,0
0.22,0.00103722531843708,0.000598552770285522,-0.0518276391532977,-0.0299446386995333,0.00042430017466216,-0.00111985317868238,-0.0211782138389842,0.0559845409523047,-2.25602733534325,-0.000103107795961809,0
0.23,0.00103736199002479,0.000598552747734336,-0.0518334686606516,-0.0299446385040322,0.00042440604839053,-0.00111993963956012,-0.021182729509511,0.0559882292902607,-2.25602730109689,-0.000105774027603757,0
0.24,0.00103744057036696,0.000598552748507471,-0.0518368174099514,-0.0299446384256051,0.000424466912165777,-0.0011199893616752,-0.0211853234865577,0.0559903480825291,-2.25602728177931,-0.000107287292422298,0
0.25,0.00103748515743518,0.000598552751370921,-0.0518387090654551,-0.0299446384157446,0.000424501445084055,-0.00112001757628778,-0.0211867887588768,0.0559915449823392,-2.25602727091209,-0.000108141571804227,0
0.26,0.00104576619495747,0.000603080487214159,-0.0522272848219165,-0.03017114825141,0.000428048041650362,-0.0011287638737192,-0.0213443152449927,0.0564128325241742,-2.25602709418827,-0.000170422586746164,0
0.27,0.00102828134261389,0.000592305096903291,-0.0514097044882151,-0.0296320836248,0.000421328620101116,-0.00110935568744615,-0.0210524030012517,0.0554780535291716,-2.25602763156953,-3.03297436008901e-05,0
0.28,0.00102701135520541,0.000591991584673634,-0.051187127127019,-0.0296163982261846,0.000420543781140745,-0.00110830920242913,-0.0208899974980589,0.0553250488652351,-2.25602756775876,-2.55327480273276e-05,0
0.29,0.0010346202449232,0.000597367814517235,-0.0517026123400188,-0.0298853553028003,0.000423033139733609,-0.00111728703550751,-0.0211189316446916,0.0558595140557428,-2.25602724465313,-9.11653253610446e-05,0
0.3,0.00101831512339153,0.000590136958229394,-0.0509053594738156,-0.0295236098425376,0.000414986178334727,-0.00110136905340003,-0.0207306512272743,0.0550748514386183,-2.25602579894035,-6.23451377532779e-05,0
0.31,0.0010349289127764,0.000597033216395923,-0.0516936366043641,-0.029868620577025,0.000423485354064588,-0.00111722274899565,-0.0211226460573828,0.0558408487049836,-2.2560259287682,-0.000161964614965963,0
0.32,0.001038706343075,0.000598278563034313,-0.0518798285829045,-0.0299309040188086,0.00042562153086634,-0.00112057771644524,-0.0212273700168154,0.0560069137816386,-2.25602634797397,-0.000164231968688854,0
0.33,0.00103904127904174,0.000598503380595699,-0.0519018580633661,-0.029942159469172,0.000425738198426368,-0.00112096389885573,-0.021237284419945,0.0560295773192471,-2.25602669449315,-0.000148254496061388,0
0.34,0.00103865536388983,0.000598543923159546,-0.0518877010368385,-0.0299441915377987,0.000425413479278333,-0.00112075116084555,-0.0212250241216724,0.0560221962866071,-2.25602692464218,-0.000133745182074918,0
0.35,0.00103825408056945,0.000598551209325731,-0.0518712115976614,-0.0299445561825879,0.000425098007813911,-0.00112050290930325,-0.021212018152304,0.0560120462355006,-2.25602706521192,-0.000123824177905247,0
0.36,0.00103796979440781,0.000598552504340373,-0.0518592177828761,-0.0299446237674948,0.000424876980703101,-0.0011203240360823,-0.0212026842722212,0.056004510008401,-2.25602714772977,-0.000117687398170474,0
0.37,0.00103779121331367,0.000598552726270972,-0.0518515963538864,-0.0299446358481025,0.000424738516578186,-0.00112021121271501,-0.0211967729029925,0.0559996971332952,-2.25602719518299,-0.000114062141014272,0
0.38,0.0010376850425426,0.000598552759572698,-0.0518470342286958,-0.0299446390525768,0.000424656260117913,-0.00112014405959742,-0.0211932370337403,0.0559968130372824,-2.25602722216862,-0.000111970360780843,0
0.39,0.0010376234588374,0.000598552761760962,-0.0518443709496807,-0.0299446392569013,0.000424608559053773,-0.0011201050944084,-0.0211911739455762,0.0559951280577372,-2.25602723741941,-0.000110778617591431,0
0.4,0.00103758830141024,0.000598552760003244,-0.0518428385885819,-0.029944639407935,0.000424581329101557,-0.00112008284725249,-0.0211899869033408,0.0559941585991723,-2.25602724600829,-0.000110104409370979,0
0.41,0.00103756839439022,0.000598552758476307,-0.0518419603643334,-0.0299446395282009,0.000424565911194037,-0.0011200702499259,-0.0211893065716597,0.0559936030087654,-2.25602725083578,-0.000109724495402745,0
0.42,0.00103755721851934,0.000598552757521507,-0.0518414574129605,-0.0299446396308495,0.000424557255588581,-0.0011200631776669,-0.0211889169333213,0.0559932848519718,-2.25602725354584,-0.000109510896187892,0
0.43,0.00103755081567664,0.000598552756968364,-0.0518411585930801,-0.0299446397238698,0.000424552296687833,-0.00112005912583344,-0.0211886854211723,0.0559930958475047,-2.25602725506635,-0.000109390958240302,0
0.44,0.00103754732321699,0.000598552756654785,-0.0518409858802329,-0.0299446398110143,0.000424549591814047,-0.00112005691574326,-0.0211885515913855,0.0559929866314084,-2.25602725591925,-0.000109323661411854,0
0.45,0.00103754534415652,0.000598552756478269,-0.0518408779406589,-0.0299446398951061,0.00042454805905693,-0.00112005566335767,-0.0211884679366886,0.055992918396899,-2.25602725639769,-0.000109285917251585,0
0.46,0.00103754429641862,0.000598552756379521,-0.0518408104504881,-0.0299446399773143,0.000424547247584024,-0.0011200550003322,-0.0211884156138381,0.0559928757549536,-2.25602725666582,-0.000109264753139152,0
0.47,0.00103754359792669,0.000598552756323869,-0.0518407569889325,-0.0299446400588173,0.000424546706627431,-0.00112005455831105,-0.0211883741600042,0.0559928419880019,-2.25602725681619,-0.000109252887527181,0
0.48,0.00103754336509605,0.000598552756292339,-0.0518407248862733,-0.0299446401393808,0.000424546526278356,-0.00112005441097519,-0.021188349248072,0.0559928217359423,-2.25602725690062,-0.000109246235626749,0
0.49,0.00103754313226541,0.000598552756274477,-0.0518406917224131,-0.0299446402199445,0.000424546345962092,-0.00112005426363419,-0.0211883235165533,0.0559928008115156,-2.25602725694803,-0.000109242506721014,0
0.5,0.00103754289943476,0.000598552756264621,-0.0518406579388395,-0.0299446403005082,0.000424546165663815,-0.00112005411629064,-0.02118829730636,0.0559927794944659,-2.25602725697486,-0.000109240416435388,0
0.51,4.66167603401981,0.0284391765659395,6.91698838464885,-1.41220422220309,-0.668245670231136,4.61361896531733,-2.42962541447448,6.62842133723522,0.149942202349324,46.0204330074547,3234.51155701899
0.52,4.73104030385338,0.0357228063703957,3.44981336190154,-1.76067845776918,-2.93841075650963,3.70806697641892,-3.53458297162588,1.58364266180827,0.677663112731352,98.1810481417494,3234.51155701899
0.53,4.63774538921071,-0.00565452299036173,8.11585783077212,0.317995989751474,-4.63585365576651,-0.132571305687856,-8.12152061393319,0.0957741941305148,1.59816625276798,154.028400007536,3234.51155701899
0.54,4.56348547609888,0.0452206021031643,11.8305344256217,-2.22265670607219,-0.985308588357859,-4.45607580491269,-0.264751239939465,-12.0346023785507,2.93388724800486,208.911582265306,3234.51155701899
0.55,4.52333181921994,-0.0392340851181584,13.8401004998571,2.03464839698233,4.51790363159657,-0.224981856622167,13.6976641756924,-2.83939642801792,-1.62922656399529,261.382177547115,3234.51155701899
0.56,4.49965697977118,0.0448680743535745,15.0259932816221,-2.17146421712672,-2.07438010560051,3.9932284253707,-8.9762733797526,12.2442740559642,0.489076620434535,314.920357085212,3234.51155701899
0.57,4.52807624463495,0.023211963627965,13.607366911909,-1.09544972292102,-0.686072843062728,-4.47585939529993,-0.909082261137206,-13.6210871010081,2.99461975873148,368.873697677966,3234.51155701899
0.58,4.47807866145644,0.0806116943265018,16.1098174925701,-3.96763157211767,1.79517298314419,4.10329632174462,2.52735712244335,16.3975847584825,-0.394407064871585,421.846621963694,3234.51155701899
0.59,4.47410272173009,0.0424569276400684,16.3113361655403,-2.04970731766629,-1.16744676807195,-4.31931311657486,-2.12269516593435,-16.3019984304341,2.88710413875346,474.457994980407,3234.51155701899
0.6,4.40466357524744,0.0523639971655826,19.78608144468,-2.52475167238018,-1.13063427406861,4.25740171203189,-7.7377963896087,18.3845015427576,0.271465146141111,526.802875515207,3234.51155701899
0.61,4.37968791149451,0.0318331522240587,21.0379381024182,-1.45374009565218,4.03981154074571,-1.69192265394417,20.0151974167758,-6.6407885250455,-1.96014602896249,578.52351898824,3234.51155701899
0.62,4.2514131523591,0.0544196902156646,27.4548909457903,-2.62393323728921,-2.67610023276469,-3.30393142164481,-14.9459338911725,-23.179195900628,2.47359889447337,631.033537401994,3234.51155701899
0.63,4.30701189578599,0.132240471858787,24.6782754250608,-6.4786202124839,-3.56924179306876,2.41419801082073,-24.3193994013147,7.71729295621843,1.00678652508125,682.921625261738,3234.51155701899
0.64,4.31995561577255,0.0865724861052815,24.0346043810047,-4.23294159023955,0.434326134770485,4.29893848830738,-2.28284611072493,24.2975022562513,-0.0806519074005057,734.980612416793,3234.51155701899
0.65,4.2622206294044,0.113323160303932,26.9250108233204,-5.46673211574158,3.10403160863884,2.92307280185641,15.2518492754414,22.8521872375582,-0.788831757556681,786.017033347605,3234.51155701899
0.66,4.19319330099378,0.0408653149673174,30.3801486622511,-1.84865209235417,3.79075812223342,1.79295646689701,26.528596870244,14.9199361726223,-1.11925130078654,837.533333676166,3234.51155701899
0.67,4.252635674717,0.0888265352085937,27.4119620093774,-4.24252045676414,3.77925157057177,1.9519369614728,22.0621121351444,16.8130261751395,-1.07316135493279,888.866692979094,3234.51155701899
0.68,4.14347263990639,0.0557653335625292,32.8741504108744,-2.56859003178173,2.55799204452253,3.26008465998042,17.901346217138,27.6920426043714,-0.651846729117354,939.96920425858,3234.51155701899
0.69,4.09224291856201,0.181037346586759,35.4398259825689,-8.81051746076792,-0.406942535898612,4.07598140303124,-13.7955674057913,33.8125539342051,0.143719719949182,990.99026157839,3234.51155701899
0.7,4.11019153630183,0.0629934225803919,34.5467303453791,-3.02099047413636,-3.95783382806809,1.11049269505725,-34.1727958710368,5.90110018196702,1.31257396181677,1042.2079408864,3234.51155701899
0.71,4.10804169009023,0.19475027629174,34.6586248374497,-9.51108258967534,-1.35403885711677,-3.88336361561122,-0.729363667957738,-35.9325617830203,2.85346872092472,1092.55829873514,3234.51155701899
0.72,3.99602565937689,0.123417897188122,40.2639369163948,-6.04209552367295,3.99697949907284,0.0872234586352401,39.8898135542353,8.15440426597528,-1.5181021000147,1143.35585866446,3234.51155701899
0.73,3.96458462425037,0.163850828828113,41.8404848917857,-7.91475335056582,-2.623926514666,2.97653959869222,-34.656596271044,24.7424701977369,0.763824898266347,1193.47532509395,3234.51155701899
0.74,4.01747154727677,0.122054576276809,39.2006260686913,-5.866992579745,0.967920316804724,-3.90103899148485,16.2399787855363,-36.1576240252796,-2.86801390467907,1243.93724379796,3234.51155701899
0.75,3.99775152890578,0.0426019211364663,40.191043225228,-1.92465118321757,-0.561916401690308,3.95829283505711,-7.97511035009862,39.4388368567451,0.151673105928663,1294.25705289334,3234.51155701899
0.76,3.99749894651514,0.104693664072987,40.2079571394278,-5.0280758059312,1.44950110589381,-3.72691630368852,20.1873854854064,-35.1344678471136,-2.74448381860162,1344.26533176793,3234.51155701899
0.77,3.89411622456321,0.122254828137956,45.3812729706909,-5.87139410604258,0.354568037454592,-3.87986712661981,11.3735036823859,-44.3235447496654,-3.01907470028595,1393.96135636326,3234.51155701899
0.78,3.95998631081281,0.193492354483059,42.0918222668776,-9.35434313963663,-3.43809215831837,1.97445009660361,-41.737522014814,10.8261024096116,1.09832143074284,1443.52830595816,3234.51155701899
0.79,3.70579515980805,0.140842560829305,48,-6.89212831242909,2.50669629557703,2.73298885382618,25.8256848984449,41.0430923810721,-0.704249041350092,1493.12905517857,3234.51155701899
0.8,3.85584667491709,0.124225492020166,47.3064284339707,-5.95828304964048,3.17001995048374,-2.19862663198459,42.9562803760329,-20.6919618290213,-2.14498663629648,1542.33442997631,3234.51155701899
0.81,3.72957512223965,0.129748811351911,48,-6.2979391142589,-0.44300702584248,-3.70544330971752,2.23803657278185,-48.3596446366782,3.05737684378045,1591.34760252955,3234.51155701899
0.82,3.81757261016424,0.180384233497139,48,-8.67651500483414,-2.8806535217191,-2.51161987437946,-28.6458549964115,-39.4803356641465,2.33507946002268,1640.03971370353,3234.51155701899
0.83,3.80966886167436,0.106724677052047,48,-5.07419325438529,-3.55207005755577,-1.38121877286649,-42.2614728831851,-23.3177045809972,1.96965977380985,1688.68450448551,3234.51155701899
0.84,3.77129119874988,0.0473325290006168,48,-2.14788148268727,-3.50858819564182,-1.38372199067327,-43.6153182322154,-20.1573165467592,1.95899982512186,1737.07918970881,3234.51155701899
0.85,3.76889106048043,0.056507073747688,48,-2.60612564227555,-2.84331689665056,-2.47452660126624,-33.9913132102674,-33.9909181562491,2.30194765149522,1785.15727856414,3234.51155701899
0.86,3.76785131328076,0.133156164437983,48,-6.39662892743535,-0.675687346737502,-3.7091617237023,-0.599640502545573,-48.4206287949982,2.99672677055114,1833.13530615484,3234.51155701899
0.87,3.7465251994565,0.154431938657334,48,-7.36178457975573,2.84231257746393,-2.44572269602063,42.2107644016267,-24.0093157093053,-2.24014031916688,1880.94756704872,3234.51155701899
0.88,3.61309978222083,0.232718893057312,48,-11.2212047078948,-3.53158141715352,0.797860146570797,-49.1672346613435,-3.53531764525591,1.41292587884938,1928.66517563453,3234.51155701899
0.89,3.73838505906751,0.245625046511259,48,-12.0359681969943,-0.18006141840099,-3.7421160322652,12.8754565066931,-47.7816612329805,-3.12406389487195,1976.34456916448,3234.51155701899
0.9,3.54219613037682,0.182302431078863,48,-8.68170848901804,3.12997398523322,1.66842753939062,36.6692766547484,32.1673158952656,-1.02964031621705,2023.68134187537,3234.51155701899
0.91,3.74423580028932,0.0404292738168859,48,-1.67484913467995,-3.69101385807338,0.630359384684483,-47.6635510436388,5.91532091558695,1.41244337779822,2071.06170035164,3234.51155701899
0.92,3.71941209036686,0.328532386164645,48,-16.2071915182241,3.08182832327415,-2.1081494284304,49.7864896611263,-9.37968571600129,-2.08264219544226,2118.28361909683,3234.51155701899
0.93,3.58381609188651,-0.0680090246268317,48,3.59748924832557,-3.14303763166235,1.72327521129091,-39.85434309915,26.9920963436902,1.05029760566907,2165.23655594938,3234.51155701899
0.94,3.7771386865523,0.350560767714592,48,-17.3180537721963,3.64807442100124,-1.03981850731131,50.367541860606,8.18692331567727,-1.75591914358454,2212.07199881723,3234.51155701899
0.95,3.5343865847339,-0.0561190546751096,48,3.00475220637203,-3.08631340276865,-1.72328391698385,-43.6987545370454,-20.0859997942038,2.06416107580381,2258.90812989534,3234.51155701899
0.96,3.70981737283693,0.374044646211869,48,-18.4544067109036,0.582715782097116,3.68281097186068,-15.7173956065704,48.9645647626731,-0.0564388556898797,2305.46446918607,3234.51155701899
0.97,3.72789499122869,-0.021248115726493,48,1.48130717775875,-1.53730877237848,3.39622353304638,-18.1913975888757,44.4439796228727,0.419357782304072,2351.80389942171,3234.51155701899
0.98,3.48636183003741,0.169259172410874,48,-7.96673949624352,3.06104423333552,1.67731203982752,36.7640121873041,31.8728151579487,-1.02101429455345,2398.0302019523,3234.51155701899
0.99,3.76382409982963,0.444681664247451,48,-21.8979656383583,2.97285155252218,-2.35080141305953,52.3574170919803,-6.49782844919179,-2.12227438062558,2444.380314869,3234.51155701899
1,3.70435456681889,0.37189458890165,48,-18.2740191881937,0.581616764326659,-3.6772639667857,29.871352438721,-41.7808817615448,-2.884667852034,2490.49942545189,3234.51155701899
