t,iq,id,vq,vd,ia,ib,va,vb,theta_e,omega,r
0,0,0,0,0,0,0,0,0,0,0,0
0.01,0.00053251399988196,0.00030128300104872,-0.0259062297000293,-0.0150761227910217,-0.00024937013242418,-0.000558710250349816,0.0125487255083857,0.0272204280604812,-3.04651822920727,-0.00174941958510446,0
0.02,0.000616171934940675,0.00034746654089707,-0.0300568454624808,-0.0173871445134128,-0.000287412069983713,-0.000646370754659575,0.0144557131782088,0.0315714920457541,-3.046531725076,-0.00192640865540045,0
0.03,0.000647904338430406,0.000365362801621851,-0.0316238867692818,-0.0182826700557225,-0.000302225010855259,-0.000679654361701188,0.0151989172369477,0.033216248337029,-3.0465456297535,-0.00192237538126036,0
0.04,0.000633210477255416,0.000357465413103198,-0.0309475481533423,-0.017887475508631,-0.000295766392285808,-0.000664273491316121,0.0148701153946258,0.0325052639571782,-3.04655860423666,-0.00176698722496039,0
0.05,0.000648412278847494,0.000366450863805912,-0.0317130706956994,-0.018337118958442,-0.000303277285167968,-0.00068025554554553,0.0152455050009787,0.0333098087942818,-3.04657110347635,-0.00171776481955333,0
0.06,0.000649489092560737,0.000367430970646407,-0.0317952898687223,-0.0183861556100622,-0.000304158924897399,-0.000681416867967611,0.0152869176030264,0.0333961274124977,-3.04658302111311,-0.00162491123738907,0
0.07,0.000662460872136207,0.000375294623440039,-0.0324495275080581,-0.0187796473343728,-0.00031076422469769,-0.00069507269989729,0.0156169469989157,0.0340845706432205,-3.04659410325803,-0.00157953524773901,0
0.08,0.000649862367525139,0.000368393488229702,-0.0318685571066708,-0.0184343235288004,-0.000305096549529138,-0.000681873121893539,0.0153286471098096,0.033473299714975,-3.04660481305011,-0.00144966388556461,0
0.09,0.000647826126585543,0.000367636678677838,-0.0317955271339198,-0.0183964521903924,-0.000304543048334104,-0.000679771247926441,0.0152982055983685,0.0333968547080001,-3.04661477121905,-0.00136202891454383,0
0.1,0.000647050162532473,0.000367551929197135,-0.0317817988767569,-0.0183922178278859,-0.000304538621405185,-0.000678987895004369,0.0152956045354385,0.0333826436695254,-3.04662412617791,-0.00128359398554419,0
0.11,0.000646452666033306,0.000367540792146638,-0.0317752743213305,-0.0183916602456958,-0.00030459016216335,-0.000678389354594138,0.0152959618554961,0.0333759610454009,-3.0466329257054,-0.0012102685273457,0
0.12,0.000645905926947921,0.000367537815177067,-0.0317698756405832,-0.0183915043330875,-0.0003046446502554,-0.000677842274516978,0.0152965947862344,0.033370445274192,-3.04664120408632,-0.00114133828356937,0
0.13,0.000673756644110544,0.000383626132683089,-0.0331347652002483,-0.0191965672909141,-0.000318025729090301,-0.000707090277685295,0.0159689095628353,0.0348053844685584,-3.0466493010667,-0.00117106582387546,0
0.14,0.000692996083263411,0.000395059280822045,-0.0341646429386271,-0.0197686644182191,-0.000327589077432097,-0.000727324413951056,0.0164410734881015,0.0358847324437969,-3.04665700854515,-0.0011744765090554,0
0.15,0.000649972620895255,0.000370542279575948,-0.0320248290110318,-0.0185418520396019,-0.000307265803044094,-0.000682168392075193,0.0154228715664509,0.0336381477327315,-3.0466643368644,-0.000967869594500553,0
0.16,0.000644606711879878,0.000367859756842972,-0.0317822195161792,-0.0184076213435777,-0.000305108349973347,-0.000676570401718624,0.0153124572811612,0.0333838082446529,-3.04667081081453,-0.000897063059924916,0
0.17,0.000643635619619966,0.000367565113713984,-0.0317506538936448,-0.0183928748300439,-0.000304911154459348,-0.000675573912721191,0.0153009704226009,0.0333508946104055,-3.04667685265402,-0.000844797603379609,0
0.18,0.000643195513393085,0.000367531682825529,-0.0317437962542153,-0.0183911946994787,-0.000304923418104629,-0.000675130887621763,0.0153001371181416,0.0333438217256111,-3.04668253112515,-0.000797292693634,0
0.19,0.000642836316819264,0.000367526889163275,-0.0317399880352892,-0.0183909585932405,-0.000304956290629292,-0.00067477122440529,0.0153004410603421,0.0333399265418745,-3.04668787275272,-0.000752793727876666,0
0.2,0.000642504827292544,0.000367525294328895,-0.031736713583759,-0.0183908781508832,-0.000304989504978012,-0.000674439542819836,0.0153008388015824,0.0333365823117214,-3.04669289806068,-0.000710951723214293,0
0.21,0.000642193652260548,0.000367524112458446,-0.0317336636385925,-0.0183908151601633,-0.000305021001690562,-0.000674128213895396,0.0153012226926847,0.0333334677807679,-3.04669762584415,-0.000671589519115997,0
0.22,0.000641900928275842,0.000367523035181343,-0.0317307929986617,-0.0183907689197487,-0.000305050662781729,-0.000673835348024072,0.0153015969115293,0.0333305376155349,-3.04670207372528,-0.000634557996774067,0
0.23,0.000641625725578246,0.000367522025280736,-0.031728099344871,-0.0183907088145809,-0.000305078550944996,-0.000673560011092973,0.0153019317576791,0.0333277863534925,-3.04670625827644,-0.000599718904035267,0
0.24,0.000641366762033701,0.000367521075396006,-0.0317255599633051,-0.0183906625351291,-0.000305104791255571,-0.000673300921323241,0.0153022574728712,0.0333251937683823,-3.04671019508732,-0.000566942410432657,0
0.25,0.000641123048897188,0.000367520181624731,-0.0317231643060863,-0.018390617688903,-0.000305129483754419,-0.000673057089608648,0.0153025632121378,0.0333227479615482,-3.04671389882543,-0.000536106399382737,0
0.26,0.000646781797397604,0.000370876651407409,-0.0320049691241045,-0.018558585129209,-0.000307937090940401,-0.000679007313677262,0.0154431930410236,0.0336191451308724,-3.04671732052611,-0.000527755892925329,0
0.27,0.00063105489115665,0.000361916891622186,-0.0312545554011001,-0.0181102367131088,-0.000300509773134631,-0.000662501311957017,0.0150680634142689,0.0328295807476861,-3.046720776132,-0.000445939520332104,0
0.28,0.000630542817250546,0.000361726708675429,-0.0311595495655086,-0.0181007125716437,-0.00030037099541188,-0.000661972598579949,0.0150676829157286,0.0327340534654312,-3.04672385995903,-0.000419206198918929,0
0.29,0.000639131196550595,0.000366883793424743,-0.031659263270279,-0.018358774878777,-0.000304693219450029,-0.000671010019525119,0.0152773416494611,0.0332559227505732,-3.04672665658379,-0.000425945427780047,0
0.3,0.000632554429579305,0.000363382804553474,-0.0313473192983234,-0.0181835826454162,-0.000301832397392489,-0.000664130539058287,0.0151325574938402,0.032928753524987,-3.04672883807285,-0.000385765618136274,0
0.31,0.000639093262336475,0.000367063897895149,-0.0316693282778722,-0.0183677836388837,-0.000304879265386659,-0.000670987881141791,0.0152855130775452,0.0332667239044165,-3.04673136309765,-0.000387690306776774,0
0.32,0.000639710996730972,0.000367465937348564,-0.0317053086621897,-0.0183879155373716,-0.000305222626070386,-0.000671640173742377,0.0153022277579223,0.0333044120323255,-3.04673380490839,-0.000370025329565182,0
0.33,0.000639649825760914,0.000367509411853617,-0.0317081703416784,-0.0183900883382381,-0.000305273246996186,-0.000671582691904255,0.0153041965135422,0.0333074313716921,-3.04673610985157,-0.000351144614165534,0
0.34,0.000639517638127899,0.000367513702950318,-0.0317072594978211,-0.0183902985764893,-0.000305291495499282,-0.000671450842659947,0.0153045643310474,0.0333065113338431,-3.04673827922782,-0.000333119084347957,0
0.35,0.000639384693429275,0.000367513736347515,-0.0317059861276925,-0.0183902949369642,-0.000305305490421895,-0.000671317875610359,0.0153047492890468,0.0333052121055756,-3.04674032027314,-0.000316130232682702,0
0.36,0.000639258325376783,0.000367513329889912,-0.0317047226943183,-0.0183902817854076,-0.000305318342966745,-0.000671191450823341,0.0153049198074943,0.0333039237171311,-3.04674224049351,-0.000300143638837093,0
0.37,0.000639139583301188,0.000367512899574644,-0.031703539001144,-0.0183902519136218,-0.000305330372759237,-0.000671072650140716,0.0153050623381395,0.0333027148663468,-3.04674404703149,-0.000285103095702406,0
0.38,0.000639027708953246,0.000367512489463593,-0.0317024147481769,-0.0183902372571218,-0.000305341700069732,-0.000670960720847568,0.0153052108203941,0.0333015682661034,-3.04674574661632,-0.000270952957259929,0
0.39,0.000638922528486147,0.000367512103028875,-0.0317013580821796,-0.018390222575885,-0.000305352349137138,-0.00067085548828065,0.015305349522738,0.0333004904863575,-3.04674734557986,-0.000257640550667406,0
0.4,0.000638823459820651,0.000367511739381807,-0.0317003557144898,-0.0183902064168412,-0.000305362378259923,-0.000670756371079777,0.0153054784560951,0.0332994680694636,-3.04674884987887,-0.000245116284190972,0
0.41,0.000638730386546685,0.000367511397232519,-0.0316994166613412,-0.0183901916903573,-0.000305371800992812,-0.00067066325152962,0.015305599851087,0.0332985101810247,-3.04675026511842,-0.000233333497766338,0
0.42,0.000638642960190834,0.000367511075317201,-0.0316985375392413,-0.0183901617169078,-0.000305380652663233,-0.000670575780998012,0.0153056975996285,0.0332976117925811,-3.0467515965705,-0.000222248293264979,0
0.43,0.000638560538915668,0.00036751077244105,-0.0316976994090895,-0.018390145497016,-0.000305388996233163,-0.000670493318907942,0.0153058025310554,0.0332967567205989,-3.04675284919628,-0.000211819371420897,0
0.44,0.000638482831688679,0.000367510487478993,-0.0316969000983824,-0.0183901459361623,-0.000305396861308852,-0.000670415574006857,0.0153059178992446,0.0332959430060445,-3.04675402766192,-0.00020200787802055,0
0.45,0.000638409898264739,0.000367510219372435,-0.0316961542685578,-0.0183901311331803,-0.000305404244155332,-0.000670342604343093,0.0153060107045364,0.0332951821563481,-3.04675513635845,-0.000192777259153522,0
0.46,0.00063834133041521,0.000367509967125581,-0.0316954524308301,-0.0183901163133708,-0.000305411185237676,-0.000670274002169728,0.0153060971401932,0.0332944661039832,-3.04675617941604,-0.000184093125030583,0
0.47,0.000638276837099059,0.000367509729800757,-0.0316947904097976,-0.0183901000224923,-0.00030541771381401,-0.000670209476480322,0.0153061762835674,0.0332937904951453,-3.04675716072125,-0.000175923121853023,0
0.48,0.000638216127283426,0.000367509506516112,-0.0316941633022194,-0.0183900851720686,-0.000305423859038636,-0.000670148736352101,0.0153062516193417,0.0332931506684046,-3.04675808392948,-0.000168236811281642,0
0.49,0.000638158850945342,0.000367509296441484,-0.0316935627774414,-0.018390085522312,-0.00030542965555547,-0.000670091432207621,0.0153063377494749,0.0332925395808816,-3.04675895248069,-0.0001610055570328,0
0.5,0.00063810512604885,0.000367509098795465,-0.0316930033125934,-0.0183900706431142,-0.000305435093602674,-0.000670037680420437,0.0153064031176253,0.0332919687136633,-3.04675976961032,-0.000154202418189533,0
0.51,4.72250326333889,-0.0144037132112303,3.87567252367318,0.729171502951023,-0.493328461424587,4.69668729727126,0.332305209717896,3.92964398375545,0.101603777127602,31.5113409567426,4936.31434152548
0.52,4.67972696843799,0.013371073937136,6.01544622841482,-0.650934108661543,-2.08265594073001,4.19077170903953,-3.27456102476862,5.08788351240822,0.464071798654271,67.468294951781,4936.31434152548
0.53,4.71248187703208,0.0237916179337312,4.3786687208424,-1.16139120315412,-4.17853946928641,2.17895832591065,-4.42446258898963,0.972471126706904,1.09517384918443,105.253388262034,4936.31434152548
0.54,4.65678072474752,-0.0104768101667183,7.16479333583924,0.559150243933671,-4.20024658428318,-2.0108816755714,-6.70962574187941,-2.5744581846452,2.01505272257876,145.227113515807,4936.31434152548
0.55,4.6991683454322,0.00718686815799918,5.04654521979409,-0.310896728479041,0.327445743797582,-4.68775149454989,0.66945761685774,-5.01159674459515,-3.0703251939764,181.307898673938,4936.31434152548
0.56,4.68517143334034,0.0240644161765247,5.74758325540977,-1.15162425554225,4.68234203499612,-0.164570724075274,5.77953704488695,0.978725319279814,-1.60079271223523,220.239646403322,4936.31434152548
0.57,4.65116011404322,0.0526578412733545,7.44937891012591,-2.56546545580722,-0.628958389303786,4.60873893806522,-3.62859347151594,6.99343753600765,0.146953899676221,256.602934950061,4936.31434152548
0.58,4.67558722460768,0.0325646330362315,6.22929043483314,-1.55347470518122,-3.87655155138493,-2.614292336311,-4.26269348966944,-4.80070694734341,2.17108881377517,294.659992926106,4936.31434152548
0.59,4.61352940603366,0.0113891059645677,9.33355056976032,-0.489299027354999,4.47519131072899,-1.1213590078328,9.17698237167435,-1.77131993903472,-1.81384493165579,332.580886943756,4936.31434152548
0.6,4.64310383463106,0.0446668755556747,7.85622476141081,-2.14670600212878,-3.16412335726083,3.39834249730277,-6.96555759575615,4.22014472993331,0.759342335022799,370.14773850955,4936.31434152548
0.61,4.65506962892986,0.0369489368776885,7.2593604377958,-1.7508997870781,2.0579499702192,-4.17562934109295,4.82508226261323,-5.69934603171628,-2.67574592479565,407.548481415581,4936.31434152548
0.62,4.664938576356,0.0804424764658584,6.76736729189836,-3.91465210649201,-1.94377377432127,4.24144626601059,-6.45513610682368,4.41055314225997,0.446961290209294,444.768128588892,4936.31434152548
0.63,4.61441275177432,0.0920818435495279,9.29518378819819,-4.48217105108976,2.90937464408597,-3.58285127935818,9.42463564474009,-4.20315856844636,-2.43960800890898,481.814810624582,4936.31434152548
0.64,4.61583732064173,0.0831134930752713,9.22548814698271,-4.03422214878738,-4.32401043379474,1.61734219996709,-10.0426765733459,-0.727479992202213,1.23087394088272,519.508014848428,4936.31434152548
0.65,4.58283076669233,0.0914860560488535,10.8774541910708,-4.44369918809412,4.1400439418947,1.96742056860606,7.74235475199758,8.83863196695804,-1.10721056345881,556.850842640277,4936.31434152548
0.66,4.57259813385222,0.110156447947938,11.3907890317184,-5.35873654610025,-0.253518711876166,-4.566893517421,4.99883572546921,-11.5532581346302,3.11022318295017,593.93223252394,4936.31434152548
0.67,4.63552694089545,0.0704202651364492,8.24611050634642,-3.36389540743244,-4.47052312963133,1.22779965016313,-8.82543213026178,-1.19410154893333,1.31795193652693,631.101421366334,4936.31434152548
0.68,4.59327912433272,0.0497739436646869,10.3603132507662,-2.33567370875739,0.970938044864176,4.48976278577544,-0.208111223106546,10.618293273714,-0.202140504953118,668.55961027952,4936.31434152548
0.69,4.56840144088652,0.088105792348057,11.6060641350694,-4.25065164836116,4.54578409082315,0.462494708465408,11.0099507674194,5.61691625734803,-1.45012023347943,705.649291812418,4936.31434152548
0.7,4.53936778073536,0.0604440664013465,13.0596384853335,-2.85814330263758,2.93249117164322,-3.46554596884473,10.7249979615807,-7.98107506731434,-2.42600313886797,742.629270130951,4936.31434152548
0.71,4.54523342604765,0.116139458089866,12.7682707841514,-5.6380442300233,-0.0634638407227483,-4.54627403616489,5.78561784262354,-12.7020828109499,-3.13000491015714,779.720564023257,4936.31434152548
0.72,4.57855661211799,0.0742473157711727,11.1040642580933,-3.53255537655153,-1.93796471393468,-4.14885358645164,-1.31123483481951,-11.5784219021516,2.72081764170228,816.855484885524,4936.31434152548
0.73,4.5380465633177,0.0774558998455148,13.1316169483987,-3.679183861061,-2.55848026353769,-3.74887246626884,-4.14226892195746,-12.9929737066289,2.55979770444389,853.754750707402,4936.31434152548
0.74,4.5516333761412,0.121083457260383,12.454363655478,-5.83522437961694,-2.17788248299359,-3.99860669292372,-0.46730553351814,-13.7456408785371,2.66945415700524,890.438411300103,4936.31434152548
0.75,4.5217129225873,0.0939992268868513,13.9525142526649,-4.50069873708864,-0.508911344684547,-4.49396627181376,3.20016660234054,-14.3069170966394,3.04961520857737,927.586680861174,4936.31434152548
0.76,4.54634617392735,0.161174775976251,12.722977046183,-7.82962773912144,2.27412609741064,-3.93999890033877,13.3847697803355,-6.63514531704749,-2.58267778795032,964.310582276591,4936.31434152548
0.77,4.54750755046577,0.088216287338112,12.6670861978818,-4.19386362012196,4.52078729700391,-0.500089242178814,12.9951102544108,3.0283121180711,-1.66157195685649,1001.39321969402,4936.31434152548
0.78,4.5094755412211,0.155628205339893,14.5708914146288,-7.52508669373504,2.1822463734322,3.94935318258708,-0.10513305750805,16.3989863529838,-0.470307258146769,1037.97140585664,4936.31434152548
0.79,4.47588546981649,0.141061514825981,16.2526526253257,-6.79545788172543,-3.66669999612342,2.57075090747974,-17.3189283653386,3.22206229891391,0.990832915152804,1074.75945240654,4936.31434152548
0.8,4.47618333591908,0.141653150571356,16.2400680045764,-6.82396411206124,2.32824828937579,3.82564279237426,2.06128978771988,17.4944956888448,-0.515076403613368,1111.57770057191,4936.31434152548
0.81,4.51793231276166,0.13345348781607,14.1549909182801,-6.40355075613235,-4.48978954168214,0.520876268904485,-14.6525352226854,-5.16453693286425,1.48482916247067,1148.28873687608,4936.31434152548
0.82,4.51710410375814,0.165360692434797,14.1987717573349,-7.98540809344391,2.46036627668639,-3.791855934412,14.694471584817,-7.03166884023529,-2.52943114099985,1184.94642338358,4936.31434152548
0.83,4.48282062834123,0.147181212436454,15.9153931491204,-7.06087380975853,0.110155259955815,4.48388324043791,-7.19206873521437,15.8565388832606,0.00825849555933411,1221.56966413488,4936.31434152548
0.84,4.44101103100856,0.131596329267949,18.0084152170223,-6.32111025575391,-1.55224671000923,-4.16298291164905,0.196493583339682,-19.084570830013,2.81431508121351,1258.34846596438,4936.31434152548
0.85,4.52882825735264,0.146601317590445,13.620079753034,-7.03445235552947,1.87653004406987,4.12436811216193,-1.25726100471858,15.2777415604282,-0.394633205922055,1294.83028653353,4936.31434152548
0.86,4.43057294110082,0.202722145442002,18.5353922246801,-9.83181717357264,-1.05314766243987,-4.30835848737832,6.07366209183258,-20.0832273963008,2.947574396595,1331.37161187969,4936.31434152548
0.87,4.47028086876232,0.172074431386337,16.5526349971332,-8.29332753303042,-1.04627741008774,4.34952000072415,-12.4702179152365,13.6843952027466,0.274539027350177,1367.85375082341,4936.31434152548
0.88,4.47157190056693,0.19815746543792,16.4907443514409,-9.6192587537179,3.68228923061915,-2.54459577636896,19.0812402797042,-0.617298650372634,-2.13119509289731,1404.46028794604,4936.31434152548
0.89,4.41319992261738,0.196834814357666,19.4120108746662,-9.51781834802938,-4.07185583267126,-1.71320389302451,-13.4611934841051,-16.9177806549125,2.01362738337925,1440.80705878748,4936.31434152548
0.9,4.43601705984602,0.232124515618698,18.2738724521291,-11.2567392595586,-0.399830369238725,4.4240552462453,-13.7363987561868,16.4912080323244,0.142411133698359,1477.15295120973,4936.31434152548
0.91,4.41376563338334,0.2123261122526,19.3892157613167,-10.2608864016933,4.41069739877991,0.268622226884271,18.1592088052743,12.3073398081711,-1.46190064091043,1513.53108220936,4936.31434152548
0.92,4.42113429225374,0.236932328896322,19.023588490213,-11.4821182445783,-0.850048363824703,4.34511025611286,-15.7806557495443,15.6431091072656,0.24673295984866,1549.89398154502,4936.31434152548
0.93,4.40125102645344,0.20299699580106,20.0206255697676,-9.81139139223411,3.37010865087356,2.83806026353721,8.04437414414608,20.7936743719197,-0.824800701147458,1586.28407075015,4936.31434152548
0.94,4.39821333869733,0.180174248387038,20.1754166765975,-8.68204942486752,4.37971767253243,-0.441380155176988,20.655966556282,7.46702523873666,-1.63029300074699,1622.64309767479,4936.31434152548
0.95,4.41702039455017,0.225854747471426,19.2379735955209,-10.9229980506953,3.52029126570042,-2.67742953921496,22.0469474400762,-1.82855764250735,-2.16993994013921,1658.78174575728,4936.31434152548
0.96,4.34094177752821,0.195977716984322,23.0448905988522,-9.46234096230292,2.63834690405123,-3.45272477839278,22.0554098343863,-11.5828224642009,-2.44399079933004,1695.05481559335,4936.31434152548
0.97,4.43963725485298,0.227377289107313,18.1131130202841,-10.9853327193637,2.6469612956423,-3.57150882480388,19.994883040115,-6.99764606513008,-2.45262036013777,1731.20280231594,4936.31434152548
0.98,4.35016756896388,0.188045701701173,22.5896535365404,-9.0574072015981,3.41708371139334,-2.69867707837075,23.61727957451,-5.8781950984913,-2.19606195472657,1767.46381346741,4936.31434152548
