t,iq,id,vq,vd,ia,ib,va,vb,theta_e,omega,r
0,0,0,0,0,0,0,0,0,0,0,0
0.01,0.000637292745119449,0.000333408239678232,-0.0298777042747577,-0.0166787504356163,-0.00071521190034558,-7.59936502037172e-05,0.0341118366077645,0.00269082367847144,2.15865863995282,-0.00358540971484547,0
0.02,0.000804558293533834,0.000412439153216379,-0.0382554557477487,-0.0206322717114567,-0.000898230293537997,-0.000102968162897867,0.0432758662813933,0.00404597677184357,2.15863153116394,-0.00366893964265297,0
0.03,0.000856087263533969,0.000443571593550656,-0.0411098701182216,-0.0221896659450989,-0.000958377191377249,-0.0001056140162952,0.0465149235862018,0.00433181020613038,2.15860706043351,-0.0030797839082423,0
0.04,0.000827120286353847,0.000437902058300727,-0.0401606693481102,-0.0219060585079835,-0.000931129867260035,-9.42515308013214e-05,0.0455678420322911,0.00404061064241479,2.15858873418056,-0.00218716640187751,0
0.05,0.000830001145123741,0.000448870468778896,-0.0405707754682076,-0.0224547432403846,-0.000939610665608646,-8.67086830887397e-05,0.0462134302735461,0.00381079761144679,2.15857510201336,-0.001686404758272,0
0.06,0.000820572661728086,0.000451153799599263,-0.0403458756917343,-0.0225689586932926,-0.000933031463762714,-7.95709224351154e-05,0.046089644689295,0.00359057575424386,2.15856502132484,-0.00123886952410676,0
0.07,0.000821832701600276,0.000458289154570023,-0.0405434456150899,-0.0229259193235716,-0.000938037147379697,-7.43252901230515e-05,0.0464520184171764,0.00340275537542267,2.15855816490566,-0.000985746534547408,0
0.08,0.000805804310955889,0.000453113687057937,-0.0399213115496529,-0.022667008594094,-0.00092182916047724,-6.97395142523991e-05,0.0457907402194269,0.00327299627346929,2.15855276696002,-0.000672739461485862,0
0.09,0.000797607635697429,0.000452034402412978,-0.0396202349230942,-0.0226130189993851,-0.000914409774773538,-6.60893734749221e-05,0.0455102625732642,0.00315081642439996,2.15854917028014,-0.000480773302588782,0
0.1,0.000792791604190793,0.000451808936590878,-0.0394502786564908,-0.0226017406196081,-0.000910277064229503,-6.36043174360663e-05,0.0453625806170149,0.00306585141121357,2.15854671666619,-0.00035499928238578,0
0.11,0.00078970774258406,0.000451761562467973,-0.0393439048744896,-0.0225993800981809,-0.000907684541189738,-6.19322347884505e-05,0.0452727536048019,0.00300875599440063,2.15854502499336,-0.000269864325105374,0
0.12,0.00078764321546421,0.000451751418301752,-0.0392734878183352,-0.0225988721431869,-0.0009059609064882,-6.07948576733498e-05,0.0452138749816809,0.00297008025177098,2.15854385320476,-0.000211370430742291,0
0.13,0.000818196141771264,0.000468788851522475,-0.0406980015661646,-0.0234511540145874,-0.000940833939903317,-6.35563627589383e-05,0.0468719278589516,0.0030506286041853,2.15854245805394,-0.000362296115148941,0
0.14,0.000834692093253754,0.000478840253166614,-0.0416665154618867,-0.0239539788340449,-0.000960135205039603,-6.43371326417347e-05,0.0479567319484078,0.00316914397686181,2.15854108767012,-0.000420242915014674,0
0.15,0.000796397657051221,0.000457393150253347,-0.0397536734467985,-0.0228810864791501,-0.000916374792340023,-6.0950488260021e-05,0.0457699777377457,0.00300130119569883,2.15853992591304,-0.000120054303555701,0
0.16,0.000785575442143033,0.000452924009979096,-0.0392585884825813,-0.0226575183595969,-0.00090489053931869,-5.86689523112151e-05,0.0452340058567793,0.0029128374498056,2.15853995343936,-4.87937658364595e-05,0
0.17,0.000782782761808003,0.000451992796900548,-0.0391254619759666,-0.0226109295736576,-0.000902050128735323,-5.78956464885901e-05,0.0450973852437878,0.00287780388336381,2.15854022262658,-4.04019955608173e-05,0
0.18,0.000782257560637005,0.000451798814077626,-0.0390960897274408,-0.0226012404968242,-0.000901505483907428,-5.77660978476172e-05,0.0450675686426909,0.00286959241142869,2.15854048462295,-4.68881016478762e-05,0
0.19,0.000782316755616774,0.000451758440710181,-0.0390945952022814,-0.0225992179568685,-0.000901532347330726,-5.78327034471046e-05,0.0450652028528962,0.0028704560821604,2.15854068916791,-5.50856755333523e-05,0
0.2,0.000782484917087553,0.000451750062921196,-0.0390992164867791,-0.0225987956254864,-0.000901667636228616,-5.79330527136238e-05,0.04506881405148,0.00287337668878318,2.15854083806972,-6.18887133884187e-05,0
0.21,0.000782639749369901,0.000451748342002245,-0.0391041145104649,-0.022598707981958,-0.000901795526290062,-5.80204322526818e-05,0.0450728412540632,0.0028761702639765,2.15854094358881,-6.6948557600083e-05,0
0.22,0.000782758842224861,0.000451748000771161,-0.039108024690704,-0.0225986902764577,-0.000901894441071201,-5.80868181846038e-05,0.0450760852498339,0.00287835647022503,2.15854101754213,-7.05649335497596e-05,0
0.23,0.000782844931352042,0.000451747941772599,-0.0391108831849778,-0.0225986872112546,-0.000901966048155752,-5.81346489940218e-05,0.0450784622215208,0.00287994634047603,2.15854106913107,-7.31085097516715e-05,0
0.24,0.000782905874771337,0.000451747937902657,-0.0391129132870174,-0.0225986856695871,-0.0009020167606261,-5.81684768613794e-05,0.0450801507005318,0.00288107490494137,2.15854110504717,-7.48855569033397e-05,0
0.25,0.000782948540986722,0.000451747942954615,-0.0391143315217459,-0.0225986856330055,-0.00090205226851135,-5.81921529975458e-05,0.0450813308536641,0.00288186245246498,2.15854113003023,-7.61235312534713e-05,0
0.26,0.000788535892056052,0.000454898367542919,-0.0393662490373835,-0.022756283958279,-0.000908448880100237,-5.8668646639169e-05,0.0453783604520425,0.00289040231587649,2.15854129475957,-0.000119740421684287,0
0.27,0.000776875105102522,0.000447667857788555,-0.0388415778728745,-0.0223945839770884,-0.000894735660962209,-5.82197288517151e-05,0.0447411763405793,0.00290046596646623,2.15854089492102,-2.65742663132951e-05,0
0.28,0.000775969261759119,0.000447380420741816,-0.0386185306570248,-0.0223802037990333,-0.00089382244269751,-5.79566819993367e-05,0.0445475842360005,0.0027887579547654,2.15854092503345,-2.16704653081509e-05,0
0.29,0.000781010932796514,0.000450837844011165,-0.0390251535116668,-0.0225531582929885,-0.000899935165609246,-5.78751798284551e-05,0.0449818731776472,0.00287030329892553,2.15854115736732,-6.42198330052755e-05,0
0.3,0.000768605886676239,0.000445069171732346,-0.038434956110868,-0.0222645810757393,-0.000886413059793931,-5.57984236931878e-05,0.0443306997578869,0.00278325002445145,2.15854230171683,-2.49854185257885e-05,0
0.31,0.000780124538137376,0.000450356509897362,-0.0389605157077223,-0.0225290802109081,-0.000898930552843905,-5.77853110637914e-05,0.0449147277107221,0.00285455321073255,2.15854233809722,-0.000103337461602764,0
0.32,0.000783146041141068,0.000451458227505169,-0.0391034243289028,-0.022584196459542,-0.000902055926968401,-5.85436380678083e-05,0.0450642171213834,0.00288791606634073,2.15854209983375,-0.000114437413595439,0
0.33,0.000783753625155041,0.000451687744255147,-0.0391361615819817,-0.022595682165424,-0.000902688832255499,-5.86893122738359e-05,0.0450978302023887,0.00289649908136723,2.15854185529158,-0.000109168745336356,0
0.34,0.000783728947700981,0.000451735524804914,-0.039138968278677,-0.0225980757971199,-0.00090269480086667,-5.86356915499563e-05,0.0451014937120286,0.00289605466031058,2.15854166166961,-0.000101618312948788,0
0.35,0.00078357795756812,0.000451745447842991,-0.0391349420979373,-0.022598573898149,-0.000902574658419801,-5.85435838659607e-05,0.0450984197527238,0.00289340129365744,2.15854151999835,-9.52055031686729e-05,0
0.36,0.000783433119736058,0.000451747491940901,-0.0391303589049119,-0.0225986604529694,-0.000902455264687224,-5.84614814435889e-05,0.0450946539355836,0.00289078341038866,2.158541419397,-9.03990711010009e-05,0
0.37,0.000783320313311649,0.00045174790132414,-0.0391266250035987,-0.0225986812112672,-0.00090236161907656,-5.83985275067359e-05,0.045091558322676,0.00288869255778892,2.1585413488295,-8.69535086368896e-05,0
0.38,0.000783238298722317,0.000451747975081403,-0.0391238624788918,-0.0225986858804564,-0.000902293410868292,-5.83529457631767e-05,0.0450892620997231,0.00288715467082248,2.15854129958453,-8.45270728465764e-05,0
0.39,0.000783180207478403,0.000451747982411628,-0.039121887556853,-0.022598687574317,-0.000902245073795906,-5.83206979546003e-05,0.0450876196212656,0.00288605664890833,2.15854126529493,-8.28309766776027e-05,0
0.4,0.000783139462115824,0.000451747978347494,-0.0391204918424723,-0.0225986877656612,-0.000902211164919606,-5.8298087091406e-05,0.0450864582921795,0.00288528151041625,2.15854124144144,-8.16491319842361e-05,0
0.41,0.000783111114985002,0.000451747973612226,-0.039119514582847,-0.0225986879231365,-0.000902187572970996,-5.82823579868613e-05,0.0450856451585251,0.00288473875497613,2.15854122485442,-8.08267324941322e-05,0
0.42,0.000783091324380321,0.000451747969922438,-0.0391188247276184,-0.0225986880572316,-0.000902171101990097,-5.82713770451944e-05,0.0450850711733003,0.00288435560856106,2.15854121332232,-8.02547894106349e-05,0
0.43,0.000783077587372366,0.000451747967274205,-0.0391183398494574,-0.0225986881747835,-0.000902159669143867,-5.8263755041456e-05,0.0450846677492832,0.00288408629126911,2.15854120530545,-7.98571273373056e-05,0
0.44,0.00078306804131599,0.000451747965415958,-0.0391179965450363,-0.022598688280875,-0.000902151724274722,-5.82584584078931e-05,0.045084382128568,0.00288389559431102,2.15854119973225,-7.95806695889132e-05,0
0.45,0.000783061405642656,0.000451747964120606,-0.0391177515012613,-0.0225986883790142,-0.000902146201619743,-5.82547766044524e-05,0.0450841782703869,0.00288375946469109,2.15854119585789,-7.93884829369324e-05,0
0.46,0.000783056749028199,0.000451747963219386,-0.0391175725557703,-0.0225986870165527,-0.000902142326073884,-5.82521928984477e-05,0.0450840286054615,0.00288366125437692,2.15854119316461,-7.92548821530644e-05,0
0.47,0.000783053547606853,0.000451747962592849,-0.0391174435451348,-0.0225986871053052,-0.000902139661634366,-5.82504165882131e-05,0.0450839212982948,0.00288358956154527,2.15854119129218,-7.9162008816622e-05,0
0.48,0.000783051277508081,0.000451747962156943,-0.0391173452105057,-0.0225986871915111,-0.00090213777230763,-5.8249157039517e-05,0.0450838395164345,0.00288353490598268,2.15854118999073,-7.90974476339124e-05,0
0.49,0.0007830497641089,0.00045174796185401,-0.0391172736865477,-0.0225986872756464,-0.000902136512751802,-5.82483173171071e-05,0.0450837800439413,0.00288349513615966,2.15854118908591,-7.90525678019382e-05,0
0.5,0.000783048658163344,0.000451747961643409,-0.039117214857185,-0.0225986873586662,-0.000902135592311256,-5.8247703693864e-05,0.0450837311343907,0.0028834624186698,2.15854118845687,-7.90213695197334e-05,0
0.51,4.66011173195474,-0.029141118958996,5.68031222675158,1.47045590832867,-0.691843675072258,4.60856191109319,0.647354061322033,5.83173390090906,0.142755427226538,43.9176892752913,471.727839180449
0.52,4.2074390523195,-0.0172279786327472,3.7999817726876,0.88788242501622,-2.52527068204327,3.3653897492926,-1.55587697422993,3.57874887558093,0.639640044064976,91.0840299250005,471.727839180449
0.53,3.65844292005232,-0.0138750989038934,7.49356136628023,0.717571984496867,-3.64304190582515,0.335622987967705,-7.39076244522729,1.43003565737372,1.47513591371095,136.741797892943,471.727839180449
0.54,3.31080526718971,0.00627532993043767,4.55928754788389,-0.279696613327257,-1.64474708760217,-2.87337396014529,-2.01445709701958,-4.0996701994262,2.62360264881795,174.983900278182,471.727839180449
0.55,2.87617073748338,0.0162596079849443,8.41839558136722,-0.787301756579571,2.22551518822293,-1.82200566217468,7.0391837136541,-4.68392152642668,-2.25117664647415,209.577773662155,471.727839180449
0.56,2.61164410979538,0.0327535101057919,5.76968880767088,-1.59492710293123,1.50370839232084,2.13556053988573,1.94684263226557,5.66064529591994,-0.600950516324119,239.495747309587,471.727839180449
0.57,2.30369197041897,0.0404515159377937,6.6448799187144,-1.99247587907665,-2.18010986886544,0.745489087371503,-6.93570147611628,0.142948581786079,1.25886833379604,267.1725147572,471.727839180449
0.58,1.99157207574349,-0.0048761302617758,9.65897101533321,0.26505282665485,0.32998478971846,-1.96405018980728,1.31557331368532,-9.57262978142808,-2.97758327627962,291.319887481058,471.727839180449
0.59,1.7946449921742,0.0259790245311843,8.48765035211947,-1.2809853583596,1.26111696891544,1.27710984193415,4.95128571343321,7.01184011313133,-0.764622595315845,312.472968046662,471.727839180449
0.6,1.54822645209584,0.00692757330812377,10.8680706085795,-0.303716065378995,-1.54789573873112,-0.0327401933294532,-10.8567220274403,-0.582055856711716,1.59641908579887,331.351552611992,471.727839180449
0.61,1.40896945787506,-0.0203368283122648,8.95318810523787,1.06039181865002,1.15580543398114,-0.806053545733914,6.64996906964235,-6.08785014842126,-2.19420501627632,348.212117564967,471.727839180449
0.62,1.26709743862812,-0.0234454807748707,8.13453013813246,1.21460344093089,-0.5325566084807,1.1499865513606,-2.16977721514624,7.93334159881816,0.415191592272227,363.248311550217,471.727839180449
0.63,1.09901422249726,-0.00102361523450117,9.51110893883541,0.0850806342062231,-0.0135703686813759,-1.09893091417671,-0.211371873419477,-9.50914054433096,3.12831318704807,376.625086609337,471.727839180449
0.64,0.966288201579658,0.0350046277446595,9.91204602666319,-1.7475739500507,0.364036927457577,0.895776382766837,1.75516453123002,9.91070474859873,-0.349795062684909,388.482318478572,471.727839180449
0.65,0.865847079509112,-0.0171438419877386,9.33292749791896,0.858726439139248,-0.477959807253716,-0.722176916733393,-6.01053332098302,-7.19127498959965,2.53714709238231,399.053396155974,471.727839180449
0.66,0.771744044065455,0.0169970151924663,9.09055313849914,-0.84657517047815,0.55823916003173,0.533148017236325,5.83615411962662,7.02097934586849,-0.78636365198063,408.377701394817,471.727839180449
0.67,0.70991696182453,-0.0198236252804578,7.82939967099451,1.00506027188662,-0.54550745603876,-0.454749034316238,-6.7731970482593,-4.05381882966484,2.23779051140438,416.615219102254,471.727839180449
0.68,0.624032815099842,0.00813649403272876,8.26447370147422,-0.38243593002608,0.517290777855654,0.349132364586943,6.57131673557882,5.0264877562405,-0.964060508302763,423.904160572059,471.727839180449
0.69,0.529816224870168,0.0626844457428916,9.54693001221678,-3.10575171936936,-0.473372047957585,-0.246076159117887,-6.14837145957925,-7.93644094009163,2.16795316067776,430.434569977984,471.727839180449
0.7,0.473915281637978,-0.0295739816439193,9.24038079864878,1.47010142510836,0.364654104454364,0.304134343119722,8.32050810624432,4.27960049047399,-0.937966707335659,436.302779711322,471.727839180449
0.71,0.433396921892135,-0.0142167384340277,8.51578151406681,0.707827775857604,-0.319817985025288,-0.292833509031401,-6.92649340383086,-5.00432253979349,2.27938626034126,441.464468042089,471.727839180449
0.72,0.381058249814407,0.0123662900991641,8.71462151849778,-0.6046020340947,0.268996897443592,0.27018324161235,5.50297909883109,6.78434911160416,-0.750756785344711,445.989014702744,471.727839180449
0.73,0.28522285299117,0.00205644196733637,11.3174159981595,-0.077844617908513,-0.164530876948144,-0.232993337571404,-6.39755228923297,-9.33602106716046,2.53395337330547,450.104753442218,471.727839180449
0.74,0.23700103152224,-0.00132112860990391,11.8035507874372,0.0496331893343764,0.0989489873419313,0.21536093477559,5.03265387112362,10.6770159529036,-0.43626439115292,453.689865180225,471.727839180449
0.75,0.283964565074727,-0.0163329957984234,7.7993949384627,0.815460102913331,-0.0518059988105422,-0.279676204667241,-2.65055618783297,-7.38038538835889,2.90097863929651,456.78163523222,471.727839180449
0.76,0.21717372123711,0.0151011577649982,9.6351206456199,-0.736961028955883,0.0201363583677074,0.21676484316767,-0.513190708103878,9.6496267653711,-0.0232059330634887,459.598386833051,471.727839180449
0.77,0.158462974544114,0.0333947994966639,11.245057495763,-1.67347671066115,0.00092647131224402,-0.16194094165991,4.01729166481845,-10.6354694331713,-2.92816895198739,462.060752145082,471.727839180449
0.78,0.146664870325888,0.0173989448043507,10.6551892132815,-0.882861708825375,-0.0505105474590306,0.138787578923344,-5.58648176860412,9.11612436382887,0.467119168897563,464.240513375678,471.727839180449
0.79,0.146257164012719,0.00334050602645285,9.62869045619223,-0.155228151013288,0.0956882150319544,-0.110662019272895,6.57763071412772,-7.03353039864036,-2.40579654292769,466.181833995816,471.727839180449
0.8,0.0924620646526794,-0.0220071764117757,11.3738807964482,1.1207363415016,-0.0902429222997328,0.0298289153047788,-9.09066793884543,6.92682977592372,1.01789629397884,467.884014172577,471.727839180449
0.81,0.0933923129405873,0.0031909382188413,10.4866041025319,-0.176167109989318,0.0894649198203493,-0.0269876698632453,10.1824063297206,-2.51366302243285,-1.82961835721381,469.442068146464,471.727839180449
0.82,0.133928898263589,0.0166558536723179,7.69188939983605,-0.823754728104455,-0.134553073425681,0.0104803474825851,-7.64587931429531,-1.17654745021852,1.61679135134315,470.819199034539,471.727839180449
0.83,0.0602430336507928,0.0605711516719765,10.7043825883248,-3.01106542073506,0.0777276584068817,-0.0354471245223537,8.9558527431312,6.59113216439534,-1.21054986985024,472.024368172882,471.727839180449
0.84,0.115518380473935,-0.0500913426996957,7.39186042113588,2.48980852990919,-0.0580603758801859,-0.1117256979993,-7.3067901065615,-2.72938918804532,2.25318292223725,473.023052451219,471.727839180449
0.85,0.0661288781333909,0.0282008480320342,9.31514331813541,-1.40289674868158,0.0589773959956373,0.0411094042097492,3.75049127590775,8.64140205720137,-0.55896141041487,473.984081646611,471.727839180449
0.86,0.0834118556650606,0.0336997975663889,8.00430788246248,-1.66624974642291,-0.0513242139660393,-0.0738853103280531,-0.146520178518301,-8.17458651749386,2.91843270474113,474.768234895071,471.727839180449
0.87,0.0182829723179556,-0.0191552630950343,10.8317171367053,0.940363885359285,-0.0211801795008405,0.0158931172943287,-0.34527294950618,10.8669759803187,0.118360638377994,475.509435749547,471.727839180449
0.88,0.0447752233437501,-0.0195074080956805,9.15428448573543,0.985497181726892,0.0375059499110603,-0.0312835950198049,3.22180866719387,-8.62508423454302,-2.67686195068266,476.094443645923,471.727839180449
0.89,0.00760902660407474,-0.0376452789910986,10.6831139091282,1.88941121904521,-0.0313509098953446,-0.0221852375446636,-6.48087335486084,8.70040677832463,0.815274134806704,476.667795196309,471.727839180449
0.9,0.0147053624333783,0.00413020827489189,10.0244170451624,-0.222393468662013,-0.0145549141527288,-0.00463257797534971,-8.25205845969164,-5.69578152039539,2.15275054603246,477.180108175363,471.727839180449
0.91,0.034577040019266,0.0454795498761797,8.7817216968582,-2.26321836148986,0.057120643933399,0.00109233239798344,3.35275712502029,8.42613867518691,-0.630924869916444,477.587956655514,471.727839180449
0.92,0.0107560216100311,-0.0144068786289675,9.73863649997022,0.704636182569221,0.0110137614260034,-0.0142108132053144,-3.27813220867772,-9.19735843874575,2.8714378461961,477.963415236185,471.727839180449
0.93,-0.0182699770746484,0.0121955743943692,10.9969164735858,-0.623424179565351,0.0138420497041147,-0.0170564286152052,-1.64357714604177,10.8912572185078,0.0931475840218435,478.2786840279,471.727839180449
0.94,-0.0306970483354853,0.0173338157353823,11.4186493564653,-0.853884846465174,-0.0291344890634558,0.0198482112914661,5.82178011358827,-9.86009882130785,-2.6828743940126,478.588650533855,471.727839180449
0.95,-0.0235141948953104,0.0249106458774047,10.913166295014,-1.27110999200608,0.0341729308072059,0.00238084851471515,-8.88604948165797,6.46150476312858,0.826126858715772,478.782224228587,471.727839180449
0.96,0.0383628860586848,0.0273140304720609,7.71130390437949,-1.37376430968664,0.0256524318052955,-0.0394932909473871,7.67702296171329,-1.55394811032868,-1.94681321648483,478.942403405813,471.727839180449
