t,iq,id,vq,vd,ia,ib,va,vb,theta_e,omega,r
0,0,0,0,0,0,0,0,0,0,0,0
0.01,0.00112416849436424,0.00063775783017048,-0.0541300140562903,-0.0319554579854287,0.000897177116186104,-0.000930356424096114,-0.0428465991903459,0.0459932457499417,-1.85830799351608,-0.00373569776127798,0
0.02,0.00126022316672478,0.000716561590750939,-0.061180802546197,-0.0359039974551762,0.00100527281120469,-0.00104453315808641,-0.0484869005937814,0.0517803833924277,-1.85833492232879,-0.00389602970451731,0
0.03,0.00128911136023435,0.000733411762253014,-0.0626939044408213,-0.036748285474392,0.00102816825097264,-0.00106891110939506,-0.049697051190667,0.0530204228792498,-1.85836126481095,-0.00367890902436662,0
0.04,0.00127220663439526,0.000724837549750486,-0.0620473150970862,-0.0363186450382025,0.00101436517215954,-0.0010559178432233,-0.0491976594488347,0.0524261727853992,-1.85838428472138,-0.00333791179514338,0
0.05,0.00128659879504067,0.000733437561739094,-0.0628570811242627,-0.0367495555976879,0.00102570331320127,-0.00106826954915781,-0.0498507712753906,0.053070171352073,-1.85840641167636,-0.00312010442458218,0
0.06,0.00128551521357869,0.000733471560698921,-0.0629324573985532,-0.0367512631763902,0.00102463293840497,-0.00106801555992035,-0.0499214903895964,0.0530942024759996,-1.85842669037289,-0.00286926723529338,0
0.07,0.00131852906103368,0.000752597907822854,-0.0645887638920073,-0.0377096141558486,0.0010508446145546,-0.00109574088712217,-0.0512368863549635,0.0544839875333019,-1.85844507646096,-0.00276384448217017,0
0.08,0.00128365422166931,0.000733549928074903,-0.0630658059760561,-0.0367551856071147,0.00102278830391374,-0.00106759905543485,-0.0500463635700417,0.0531375671802747,-1.85846215660388,-0.00243068955696742,0
0.09,0.00128259903856822,0.000733458309967824,-0.063112455772458,-0.0367505937010575,0.00102178599247686,-0.00106722761010717,-0.0500915785380063,0.0531471727430671,-1.85847759912388,-0.00223884761026309,0
0.1,0.00128178995954711,0.0007334540735359,-0.063162269125618,-0.0367503917439382,0.00102099631856048,-0.00106700838603458,-0.0501386524129857,0.0531618196513223,-1.85849170082245,-0.00206421738415289,0
0.11,0.00128105212670962,0.000733450568402913,-0.06320780712427,-0.0367502102208963,0.0010202760666716,-0.00106680880921322,-0.0501816855349012,0.0531752129249642,-1.85850457882792,-0.00190474370159226,0
0.12,0.00128037808821533,0.000733447368302577,-0.0632493797510555,-0.0367500592743431,0.00101961809744361,-0.00106662646986534,-0.0502209667132205,0.0531874552686116,-1.85851633933103,-0.00175910851938325,0
0.13,0.00133809527547171,0.000766351902891761,-0.0660182597471502,-0.0383987786939496,0.00106561244647793,-0.00111456911818731,-0.0524075243553806,0.0555547317171931,-1.85852806314121,-0.00182347115223158,0
0.14,0.00145568846839008,0.000834578478573796,-0.0721638550355813,-0.041817323665035,0.00115899757228284,-0.00121337330667231,-0.0573297368355815,0.06057732089211,-1.85853846120611,-0.00211885778071809,0
0.15,0.00127944506310382,0.000733903002405453,-0.0634030417587664,-0.0367728966228,0.00101856025843982,-0.00106683095491623,-0.0503601407916067,0.0532545570796018,-1.85854809146097,-0.00136909013508763,0
0.16,0.00127810510150539,0.00073343868025511,-0.063390069553781,-0.0367496186408913,0.00101739864750506,-0.00106601357413652,-0.0503538829430837,0.0532289569768032,-1.85855608017173,-0.00126699638993354,0
0.17,0.00127768275030443,0.000733434572708073,-0.0634156270629142,-0.0367494208923956,0.00101698705635789,-0.00106589718550594,-0.0503780575340823,0.0532363880330151,-1.85856337160697,-0.00117668760164706,0
0.18,0.00127730114458943,0.000733432749030373,-0.0634391561939418,-0.0367493307594511,0.00101661456307767,-0.0010657939019614,-0.0504002901983762,0.0532433150525617,-1.85857003029986,-0.00109423014107781,0
0.19,0.00127695271723489,0.000733431092238917,-0.0634606445181956,-0.0367492376668417,0.00101627445357045,-0.00106569960314172,-0.0504205975000492,0.053249631167707,-1.85857611117734,-0.00101892808360629,0
0.2,0.00127663444021527,0.000733429579079273,-0.06348026184427,-0.0367491778739857,0.00101596377717035,-0.00106561345941664,-0.0504391293241056,0.053255421801513,-1.85858166438008,-0.00095016043860809,0
0.21,0.00127634363721043,0.000733428197076351,-0.0634981675191224,-0.0367491180223509,0.00101567992209466,-0.00106553474667323,-0.0504560455110956,0.0532607024464516,-1.85858673569751,-0.000887360175550068,0
0.22,0.00127607856321992,0.000733426934873761,-0.0635145420201091,-0.036749024780774,0.00101542117354614,-0.00106546300199581,-0.050471526364026,0.0532654944297673,-1.85859136694629,-0.000830009468887063,0
0.23,0.00127583583850736,0.000733425782096389,-0.0635294608784298,-0.0367489952462708,0.00101518425285739,-0.00106539729557282,-0.0504856147259066,0.0532699141810995,-1.85859559631291,-0.000777635427892223,0
0.24,0.00127561465186138,0.000733424729266074,-0.0635431067948197,-0.0367489352395214,0.00101496834755858,-0.00106533742401018,-0.0504985106673028,0.053273924979869,-1.85859945867182,-0.000729806197397405,0
0.25,0.00127541255732302,0.000733423767723906,-0.0635555613616485,-0.0367488722780676,0.0010147710806896,-0.00106528271751476,-0.0505102829259329,0.0532775779521386,-1.8586029858704,-0.000686127396890205,0
0.26,0.00128491591268724,0.000738796335126052,-0.0640193108682849,-0.0370180852696558,0.00102235512080618,-0.00107313509607782,-0.0508783703383753,0.0536675156197187,-1.85860618059995,-0.000681327917544425,0
0.27,0.00123673123054227,0.000711661289877066,-0.0617881142937591,-0.03565843937822,0.000983851473223388,-0.00103344192228894,-0.0491247236061144,0.0517306185686165,-1.85860933962299,-0.000469934625430106,0
0.28,0.00120824623416129,0.000694868017174168,-0.0599469877884974,-0.0348170071793447,0.000961302176671475,-0.00100925648315143,-0.0475980316893762,0.0504013165813944,-1.85861215742011,-0.000333394476883802,0
0.29,0.0012744308204967,0.000733243706918985,-0.0635797715758299,-0.0367398535250557,0.00101386881092499,-0.00106484284483755,-0.0505354557680303,0.0532763728213052,-1.85861427699726,-0.000545103268152257,0
0.3,0.00127281049328521,0.000732416148679766,-0.0635105489232082,-0.0366984024820988,0.00101254894163703,-0.00106359043219351,-0.0504807916040203,0.0532170296831457,-1.85861531548261,-0.00052664214519517,0
0.31,0.00127457355915292,0.000733415211650245,-0.0636061951522749,-0.0367484604881376,0.00101395360675162,-0.00106505103808555,-0.050558179725321,0.0532922871798503,-1.85861745799201,-0.000506878375790614,0
0.32,0.00127447053315119,0.000733419264697051,-0.0636135712996858,-0.036748660463166,0.00101385157521389,-0.00106502767153523,-0.0505650909499483,0.0532946721217115,-1.8586194232326,-0.000482575925706821,0
0.33,0.00127436773965173,0.000733418796310928,-0.0636198984461244,-0.0367486305304692,0.00101375123177221,-0.0010649998623134,-0.0505710706666036,0.0532965302415974,-1.85862121798041,-0.000460350941605448,0
0.34,0.00127427391013173,0.000733418349412637,-0.0636256767786197,-0.0367486005700455,0.00101365964342291,-0.00106497446006621,-0.0505765324479111,0.0532982246884409,-1.85862285698731,-0.000440054395395256,0
0.35,0.00127418787920913,0.000733417941193288,-0.0636309344049789,-0.0367486009632881,0.00101357567342852,-0.00106495116424256,-0.0505814939022998,0.0532997932512061,-1.85862435376712,-0.000421519101824992,0
0.36,0.00127410976575726,0.000733417568386602,-0.0636357562938905,-0.0367485709518244,0.00101349942353585,-0.00106493001803341,-0.050586053093969,0.0533012024111168,-1.85862572066196,-0.000404592227195637,0
0.37,0.00127403828797844,0.000733417227921518,-0.0636401505220451,-0.0367485409196201,0.00101342965352953,-0.00106491066610967,-0.0505902085425761,0.0533024841616993,-1.85862696894278,-0.000389134199323373,0
0.38,0.00127397274614813,0.000733416916993491,-0.0636441479960432,-0.036748538331038,0.00101336568229173,-0.00106489291762781,-0.0505939815391192,0.0533036741287998,-1.85862810890252,-0.00037501755753913,0
0.39,0.00127391325914711,0.000733416633040303,-0.0636478148471091,-0.0367485082591683,0.00101330761451925,-0.00106487681344289,-0.0505974505862953,0.0533047388911478,-1.85862914994049,-0.000362125901701864,0
0.4,0.00127385866036133,0.000733416373721933,-0.0636511476967945,-0.0367485085419203,0.00101325432310417,-0.00106486202887121,-0.0506005955689548,0.0533057333805831,-1.85863010064107,-0.00035035293241096,0
0.41,0.00127380883460372,0.000733416136902365,-0.0636541909975111,-0.0367485088069476,0.00101320568984907,-0.00106484853713604,-0.0506034673153571,0.053306641488144,-1.8586309688433,-0.000339601574502641,0
0.42,0.00127376355027164,0.000733415920629305,-0.0636569789807732,-0.0367484786873686,0.0010131614856036,-0.00106483627789565,-0.0506061068880424,0.0533074441746237,-1.85863176170601,-0.000329783176611368,0
0.43,0.00127372199000187,0.000733415723120521,-0.0636595126781989,-0.0367484789226723,0.00101312092016909,-0.00106482502405346,-0.0506084976854898,0.0533082003032707,-1.8586324857669,-0.000320816780183431,0
0.44,0.00127368403860706,0.000733415542748372,-0.0636618245115388,-0.0367484791444949,0.001013083877197,-0.0010648147474142,-0.0506106790985311,0.0533088902600387,-1.85863314699638,-0.000312628451925637,0
0.45,0.00127364958089959,0.000733415378026387,-0.0636639436381838,-0.0367484489883982,0.00101305024085104,-0.0010648054193903,-0.0506126874144625,0.0533094934819743,-1.85863375084658,-0.000305150674180936,0
0.46,0.00127361791593214,0.000733415227596415,-0.0636658669179353,-0.0367484491874874,0.00101301933410124,-0.00106479684475054,-0.0506145021161859,0.0533100675635306,-1.85863430229669,-0.000298321788206507,0
0.47,0.00127358892851709,0.000733415090219187,-0.0636676176774536,-0.0367484493765085,0.00101299104200641,-0.00106478899422247,-0.0506161539485271,0.0533105902402066,-1.85863480589367,-0.000292085485758528,0
0.48,0.00127356261865443,0.000733414964761413,-0.0636692225096998,-0.0367484495554731,0.0010129653604642,-0.00106478187093392,-0.0506176681891607,0.0533110692709577,-1.85863526579025,-0.00028639034479684,0
0.49,0.00127353840426756,0.000733414850189732,-0.0636706765996777,-0.0367484497265581,0.00101294172759857,-0.00106477531250157,-0.0506190400185215,0.0533115034825452,-1.85863568577854,-0.000281189405488334,0
0.5,0.00127351675224518,0.000733414745559105,-0.0636720254505496,-0.0367484195260704,0.00101292058766966,-0.00106476945407332,-0.0506203215029258,0.0533118768529109,-1.85863606932144,-0.000276439782978052,0
0.51,4.6369925236559,-7.44404128432685e-05,8.15224982235174,0.01569355676791,-1.18560428250701,4.48286093418958,-2.06910044249324,7.88531843444717,0.258538986405929,79.3380136037085,5443.45695399283
0.52,4.53824664451085,-0.0110461111249756,13.0916239583299,0.581243753399014,-4.18301221595621,1.7601742595965,-11.8276975376334,5.64216564143984,1.17006206114663,169.768985624789,5443.45695399283
0.53,4.45731073500885,0.0488296761651874,17.140772201209,-2.41640586802192,-1.67649189072971,-4.13030002130802,-4.0234527712427,-16.836178805487,2.76696431830418,267.791299013177,5443.45695399283
0.54,4.42821334990862,0.00680429673331773,18.5981119057854,-0.289942187526488,4.14082237782615,1.56930233099206,17.2777580574394,6.88860722068066,-1.20700149456047,360.181092613559,5443.45695399283
0.55,4.49769582030894,-0.015868888653147,15.1266190592301,0.846604936633842,-4.40406458063778,-0.913090731101429,-14.9913143224356,-2.18902694541039,1.77170084849476,454.978601924542,5443.45695399283
0.56,4.48396603536607,-0.0259451863182849,15.8158203431987,1.39018627600776,3.33345636207045,2.9991154097803,12.7423822566215,9.47124518933358,-0.843932362193719,545.866163721189,5443.45695399283
0.57,4.33469359253608,0.0593984326689787,23.2822666425337,-2.87543073796907,1.49193880870985,-4.07028442569341,10.997403629482,-20.7217073464797,-2.77655371889502,638.648617876575,5443.45695399283
0.58,4.46064349669733,0.0877284372792119,16.987759105236,-4.27682306584476,-3.52239925528328,-2.73820016976762,-10.5136432065053,-14.0120834096995,2.25124875015749,731.325749183456,5443.45695399283
0.59,4.33817488950291,0.0838014614023384,23.1142916374109,-4.07887472411393,-4.32379361132958,-0.362757306573183,-22.5723010439212,-6.43419944491087,1.67381304285539,824.382831906497,5443.45695399283
0.6,4.34333011978362,0.0555303985150779,22.859759644301,-2.67864384779491,-4.2655651907138,-0.820093749732077,-21.8523044964242,-7.22637751948391,1.77352227657102,917.246697770302,5443.45695399283
0.61,4.38121235592347,0.107325815444443,20.9689367108803,-5.22155936638079,-2.54528986720291,-3.56763787824262,-7.43302866353256,-20.2906646980489,2.54639638243062,1007.87568023636,5443.45695399283
0.62,4.26107282472795,0.109983366166218,26.9794140837249,-5.38806139919436,3.12786919839192,-2.89573345393172,23.821312732193,-13.7646303857983,-2.29187039750934,1100.49706025252,5443.45695399283
0.63,4.21903996208413,0.0232178438212389,29.0846193731774,-1.02565499871746,0.766761785395917,4.14884485542555,4.11865976334012,28.8097846922334,-0.177248201269763,1191.41460050213,5443.45695399283
0.64,4.27946868214539,0.105238922963102,26.0668526343757,-5.0722957994747,-2.27168107154401,-3.62827680057053,-8.92157868201417,-25.0122854765465,2.60678598945323,1282.02776355008,5443.45695399283
0.65,4.23995095035992,0.0596062684393672,28.0464503863833,-2.7736608420185,1.00413676102384,4.11976289777164,3.55408792891815,27.9582730642636,-0.225017692643384,1373.09299343761,5443.45695399283
0.66,4.25862066525098,0.075167965340089,27.1168823018637,-3.56916215107594,2.84989947923057,-3.16537093431361,21.1067453651512,-17.3945256998997,-2.39094264093179,1464.09784330243,5443.45695399283
0.67,4.15690547335218,0.124570591859577,32.2065895051167,-6.08077784617737,-2.92618964475819,-2.95513030332869,-17.5184082947204,-27.7010042703352,2.39107340660198,1555.09855930595,5443.45695399283
0.68,4.12256795602949,0.145410557466275,33.927502185439,-7.05704892858288,-4.11920980579472,0.220955556953093,-34.0511620909025,-6.43394936119851,1.55246463038754,1644.77935618007,5443.45695399283
0.69,4.17081232202726,0.168048237610085,31.5194232680618,-8.24631439189827,-4.05917550025712,0.973144333514098,-32.5199737143048,-1.98167954578744,1.37576746634978,1735.59633584543,5443.45695399283
0.7,4.08712822296538,0.19287361126571,35.7078377196933,-9.39229876323768,-3.97282545460234,-0.979017491236237,-31.5546741771158,-19.1720496622018,1.85956629452423,1824.92303383004,5443.45695399283
0.71,4.11339493836215,0.165240205273413,34.3987131659417,-8.01445519934525,-0.730669442387244,-4.05135093645856,3.19629420682966,-35.1750858273072,3.00330839545799,1915.02471901998,5443.45695399283
0.72,4.10220377393362,0.0719150969551931,34.9626036590413,-3.33855595812091,4.09102831389254,0.31102237696808,34.4987909841823,6.58506120961818,-1.47738776792612,2004.86958116622,5443.45695399283
0.73,4.11642474119263,0.20152214831751,34.2559450202659,-9.8067251995702,-3.31171698280773,2.45318047683985,-33.9355080950751,10.8638353586778,0.982153028711979,2094.36037406254,5443.45695399283
0.74,4.01213262885587,0.222394621298328,39.4750162428208,-10.8244567163791,3.14943984604459,-2.49553526427879,38.4915868625708,-13.9227695296913,-2.18549627907716,2183.75280950578,5443.45695399283
0.75,4.00576611101375,0.040306183742689,39.7978034396423,-1.80400907891402,1.15286336228763,-3.83649485761274,13.5585521699169,-37.4604494157885,-2.83961630405952,2273.53872405093,5443.45695399283
0.76,4.07386066345557,0.104787704164478,36.3975644204539,-4.92337718555554,-4.07492639146996,0.0479173485943418,-36.3253018887373,-5.43090980816633,1.58475409299917,2362.11721236125,5443.45695399283
0.77,3.97043732151205,0.0936471616014301,41.5731904905623,-4.45264516155368,-1.37924753006308,3.72435478516033,-19.4907914156758,36.9900698362399,0.378253591615405,2451.51017642631,5443.45695399283
0.78,3.91794119684151,0.122191089170975,44.2023889395921,-5.86112989101903,0.808792746222544,3.83549842625942,1.99780324529854,44.5445037435534,-0.176648129291261,2540.14870812255,5443.45695399283
0.79,3.85694706399452,0.21127090238128,47.2564469055552,-10.2173443006017,0.522360365062608,3.8272464903192,-6.36387637589815,47.9277265908459,-0.0809244771915364,2628.57196163293,5443.45695399283
0.8,3.90696012108507,0.168062486295707,44.760089863927,-8.03620551889706,-2.27573990636518,3.18018714317664,-33.9164528167613,30.2939015661103,0.664108470415843,2717.10382826819,5443.45695399283
0.81,3.82305886636417,0.208045897062611,48,-10.170268864833,-3.47748379236361,-1.60192654788499,-37.6901009975657,-31.4148158609324,2.05684210127695,2805.60543301198,5443.45695399283
0.82,3.89467589572791,0.17951861487654,45.3825438504374,-8.71691284790525,3.07551523028025,-2.39623315521787,42.0807958757327,-19.0988605523933,-2.18662215621616,2893.92244000243,5443.45695399283
0.83,3.83828516079497,0.200268264390636,48,-9.6408022648084,-1.65942384128483,3.46682172432855,-31.4189291792219,37.5472496667889,0.498558368662745,2981.51082576565,5443.45695399283
0.84,3.82162008771936,0.157106064871277,48,-7.59856437117227,2.3000904335167,-3.05598534160824,36.2942478485471,-32.3181953953354,-2.45531038861615,3069.67049774621,5443.45695399283
0.85,3.73998604519497,0.280915880029145,48,-13.6485229781384,-3.71916030608347,0.483999966486299,-48.6715351476122,-11.0165260340781,1.51635740858925,3156.73934622225,5443.45695399283
0.86,3.93199543395238,0.291507045422846,43.531988363841,-14.1717083179584,-3.93602745042634,-0.23076472790231,-41.2768967854879,-19.8012403479948,1.7033599272549,3244.04174583185,5443.45695399283
0.87,3.81610201067865,0.179743212713384,48,-8.59313595125647,-2.23424799997953,3.09888335582507,-36.5988684996093,32.2236684755954,0.67173784519333,3331.31020011482,5443.45695399283
0.88,3.80557971722216,0.281701782428478,48,-13.6763472695088,-0.774617860995094,3.73654386402508,-26.3368371333228,42.3959135347858,0.278301724730325,3418.168406058,5443.45695399283
0.89,3.70741818573774,0.317519198012674,48,-15.4409851191546,-1.57250558626341,3.37238702200917,-37.3097261969454,33.9176702112471,0.521752457639332,3504.99521482731,5443.45695399283
0.9,3.81691796166511,0.264309670805722,48,-12.9368452222275,-3.71719080515834,0.906209052155971,-49.4966977794208,-4.6302130875963,1.4008086156868,3591.93910148591,5443.45695399283
0.91,3.78192169429883,0.208481866708816,48,-9.99457308262106,-1.05720741705772,-3.6371292069258,-1.10399776486346,-49.017065192023,2.91378670916966,3678.05058899878,5443.45695399283
0.92,3.69429246879315,0.151884399765073,48,-7.30125191332345,3.52538022626477,1.11470174312915,42.6482697214169,23.2041670669534,-1.22346013871773,3764.54578353149,5443.45695399283
0.93,3.6625037516672,0.159936862764865,48,-7.50763641455249,-3.65933205681558,0.22091271807938,-48.1183801251721,-6.70716770794918,1.5541408192653,3850.43740469791,5443.45695399283
0.94,3.67645997344904,0.288981291177806,48,-13.9768586415722,-1.63490892079382,3.30559237410369,-36.5900822746126,34.0663830869021,0.537751128733201,3936.37434655733,5443.45695399283
0.95,3.69165325066667,0.3447510816313,48,-16.7690759264009,3.6109176586524,-0.841683250324037,49.8292218777797,10.1119016253326,-1.70668470311765,4022.27037875333,5443.45695399283
0.96,3.63477777504669,0.33682484989017,48,-16.3480131515432,-0.985272588141371,-3.51486818821618,7.44542951941224,-50.1579815510403,2.96069461918301,4108.06787181763,5443.45695399283
0.97,3.63532014648492,0.0498167540282379,48,-2.10954532609753,-3.36404753206475,-1.37884679295059,-43.3336653598865,-20.7519547985301,1.97349121167587,4193.86463159376,5443.45695399283
0.98,3.71538961785805,0.169962653796107,48,-8.11802678730971,-3.71926204636757,0.00985629862175622,-47.6060156034501,-10.1769168849677,1.61385997492066,4279.50926009355,5443.45695399283
0.99,3.62474939196837,0.302072619665295,48,-14.5716200115295,-3.54384180840475,-0.819293146028385,-41.2571057821829,-28.5338979503007,1.88113660380838,4364.7956503178,5443.45695399283
1,3.7697447358318,0.395900085028248,48,-19.3824591926868,3.72656665104912,-0.693118493437804,49.3838868040146,15.5213223819508,-1.65005205566325,4450.32013072644,5443.45695399283
