t,iq,id,vq,vd,ia,ib,va,vb,theta_e,omega,r
0,0,0,0,0,0,0,0,0,0,0,0
0.01,0.000422178229026268,0.000234465711246041,-0.0205983417518319,-0.0117268861424549,-0.000118863408869684,-0.000468059950055275,0.00607705326005001,0.0229102807751864,-2.88332689528392,-0.00239526843152015,0
0.02,0.000569388884377852,0.000310735270854407,-0.0278295875168615,-0.0155415250456215,-0.000155017940415969,-0.000629864706389561,0.00791891023195638,0.0308758125859151,-2.88334709295616,-0.00301441028007833,0
0.03,0.000634675539577612,0.000344345177426211,-0.0310516485276262,-0.017222543095627,-0.000170855842489567,-0.00070156605023476,0.00872209152591762,0.0344201392556375,-2.88336951114101,-0.00311177736727833,0
0.04,0.000637386212980233,0.000345604522703882,-0.0312342776651622,-0.0172855296107606,-0.000171396329268649,-0.000704504768560081,0.00873709490643492,0.034612610531205,-2.88339094529091,-0.00284588173864032,0
0.05,0.000652068894972775,0.000354970256802606,-0.0319944582277794,-0.0177539604629849,-0.000176716885790975,-0.000721088669500404,0.00899659960816634,0.0354670222164294,-2.8834109141326,-0.00267125502705444,0
0.06,0.000654563770512399,0.000357823197203815,-0.032159468841559,-0.0178966511731535,-0.000178851624711999,-0.000724225977483856,0.00909308763284807,0.0356628282205168,-2.88342935577353,-0.00244345936537998,0
0.07,0.000659391305984212,0.000362387717594208,-0.0324330870862853,-0.0181249430059797,-0.000182044444023932,-0.000730055869554325,0.0092445522724813,0.0359855102811943,-2.88344587417054,-0.00225500854354901,0
0.08,0.00065280568620039,0.000360080493085566,-0.0321498991213254,-0.0180095471541675,-0.000181505972941823,-0.000723096679028986,0.00920582095500006,0.0356821056378973,-2.88346117706841,-0.00201394269209486,0
0.09,0.000648773464803822,0.000359375369439756,-0.0319867747012267,-0.0179742787129314,-0.000181863370914,-0.000719015562497304,0.00921384838660443,0.0355152565659583,-2.88347485838524,-0.00180957720634772,0
0.1,0.000645786792889103,0.000359158842986406,-0.0318710521946609,-0.017963448777312,-0.000182425191123776,-0.000716070321971788,0.00923335134987933,0.0354004898669438,-2.88348713689088,-0.00162996697807315,0
0.11,0.000643317015169811,0.000359091426803758,-0.0317774545702765,-0.0179600802606634,-0.000182998292729689,-0.000713663127581195,0.00925437479499927,0.0353090307016369,-2.88349817241361,-0.00146982904609489,0
0.12,0.000641168723960585,0.000359069607716167,-0.0316968106266551,-0.0179589951529547,-0.000183532584769173,-0.000711578601490119,0.00927425869903669,0.0352306888435243,-2.88350809621107,-0.00132626065784843,0
0.13,0.00065987003177113,0.000370615621579229,-0.0326265136956697,-0.0185364735759188,-0.000189929874167684,-0.000732605651552619,0.00959566035792978,0.0362769010647232,-2.8835173626715,-0.00131669841189315,0
0.14,0.000669955651479939,0.000377223521602294,-0.0331758585151802,-0.0188669655408944,-0.000193751330448625,-0.00074404205670737,0.00977532304794125,0.0368923167644557,-2.88352602153846,-0.00126333533892184,0
0.15,0.000646701446417558,0.000364594141826279,-0.0320269188869302,-0.0182353050870387,-0.000187480625484534,-0.000718333254221556,0.00945808589335315,0.0356201417212416,-2.88353397132623,-0.001018862626388,0
0.16,0.000637997731357677,0.00036074303111526,-0.0316202024493274,-0.0180426803340187,-0.000185982941586678,-0.000708933695880323,0.0093758675128389,0.0351776722503597,-2.88354057700278,-0.000879565494754904,0
0.17,0.000634303840033276,0.00035956821970734,-0.0314546137142516,-0.0179839321407109,-0.000185793761047912,-0.000705061234546431,0.00936152391043787,0.0350025200411167,-2.8835463344388,-0.000781557986327967,0
0.18,0.000632381726287033,0.00035920940126186,-0.031373490636094,-0.0179659756558833,-0.000185940928605401,-0.000703110242256528,0.00936504259054367,0.0349194526480323,-2.88355145102367,-0.00070263791380154,0
0.19,0.000631126692983232,0.000359099419115535,-0.0313234684629431,-0.0179604747796868,-0.000186158071681382,-0.000701867842084915,0.00937264860678371,0.0348696399315294,-2.8835560325006,-0.0006347746218261,0
0.2,0.000630158224783327,0.000359065358267482,-0.0312862407153779,-0.0179587825164082,-0.000186375158472329,-0.000700921978592656,0.00938065555358296,0.0348331742589913,-2.88356014662638,-0.00057478749894278,0
0.21,0.00062934156053761,0.000359054496425101,-0.0312553902685352,-0.0179582299874992,-0.000186575640936137,-0.000700128889157037,0.00938812241158606,0.0348031694348006,-2.88356384508742,-0.000521184518055977,0
0.22,0.000628625191949147,0.000359050754925117,-0.0312285200843804,-0.017958045720677,-0.000186757149162816,-0.000699434660137726,0.009394916521282,0.0347771105229376,-2.88356717124019,-0.000473087101813186,0
0.23,0.000627987054620346,0.000359049227142223,-0.0312046500264653,-0.0179579688790861,-0.000186920597379223,-0.000698816698825636,0.00940103716792883,0.0347539829329478,-2.88357016302468,-0.000429861891443347,0
0.24,0.000627415215865931,0.000359048412929644,-0.0311832815056788,-0.0179579238420451,-0.000187067604802078,-0.000698263078761152,0.00940653967970545,0.0347332849790115,-2.88357285421002,-0.000390992295754012,0
0.25,0.000626901297083572,0.000359047851092277,-0.0311640794374672,-0.0179579037557948,-0.000187199885551064,-0.000697765575611692,0.00941150401985353,0.0347146906449047,-2.88357527505203,-0.000356031608723882,0
0.26,0.000629580506237354,0.000360890270978255,-0.0312990024980751,-0.0180500440901476,-0.000188299125253147,-0.000700825827827243,0.00946623872693299,0.0348686388233825,-2.8835773382047,-0.000344975994312188,0
0.27,0.000622920422059013,0.000357099119380864,-0.0309809935716423,-0.017860434692485,-0.000186334399684509,-0.000693418434118232,0.00936412576932725,0.0345127547244042,-2.88357954698699,-0.000275854640808138,0
0.28,0.000621856004262647,0.000356755858257804,-0.0308952405035433,-0.0178432690286758,-0.000186275329783713,-0.00069230133175716,0.00936947032386096,0.0344254435156872,-2.88358132672611,-0.000246023988826847,0
0.29,0.000624031410241956,0.000358347950675084,-0.0310426139057607,-0.0179228977785615,-0.000187260674761335,-0.000694810689619501,0.00940891077973359,0.0345882428120005,-2.88358280138103,-0.000239688222446896,0
0.3,0.000614056633260318,0.000353247441494896,-0.0305600882507142,-0.0176677850936286,-0.000184874588398559,-0.000683864526304845,0.00928538512402704,0.0340565888941418,-2.88358347748957,-0.000170815835694496,0
0.31,0.000621174078012139,0.000357278124493732,-0.0309080587672879,-0.0178693922103048,-0.00018695653775557,-0.000691774635576095,0.00939156916119971,0.034444472755701,-2.88358455035175,-0.000199482926373772,0
0.32,0.000623417092606358,0.000358506796908055,-0.0310196369767628,-0.0179308410334793,-0.000187573023706166,-0.000694256692845495,0.00942255407278235,0.034568025877732,-2.88358570125553,-0.000197815922352095,0
0.33,0.000624026380173468,0.000358881235496804,-0.0310517973956288,-0.0179495648511215,-0.000187780369587035,-0.000694941146531036,0.00943249028381321,0.0346038888983531,-2.8835867994722,-0.000187020133514198,0
0.34,0.000624097403143255,0.000358995258125109,-0.03105762099503,-0.0179552767520507,-0.000187873197870215,-0.000695038722294296,0.00943656214627159,0.0346109676254972,-2.88358780868306,-0.000174160984257877,0
0.35,0.000623999904902998,0.000359029900859915,-0.0310550412205743,-0.0179570039372515,-0.000187932206750361,-0.000694953118344231,0.0094389220668575,0.0346089052966115,-2.88358872373857,-0.000161527622942137,0
0.36,0.000623857529862232,0.000359040354951676,-0.0310500701527352,-0.0179575342208038,-0.000187979215599211,-0.000694817967925655,0.0094407317406775,0.0346042262734147,-2.88358954932528,-0.000149802306534475,0
0.37,0.000623711018117578,0.000359043445403116,-0.0310447027621018,-0.0179576815508661,-0.000188020102755544,-0.000694676954251399,0.0094422694094659,0.0345990671069125,-2.88359029281416,-0.000139132521059936,0
0.38,0.000623572833215358,0.000359044300591812,-0.0310395620399691,-0.0179577316879184,-0.00018805665216582,-0.000694543435422059,0.00944365268654743,0.0345941030082328,-2.88359096190469,-0.000129493067557362,0
0.39,0.000623446461070457,0.000359044483040186,-0.0310348347882146,-0.0179577305372156,-0.000188089490316048,-0.000694421179296485,0.00944487854918482,0.0345895262409038,-2.88359156388437,-0.000120807822610772,0
0.4,0.000623332024817,0.000359044468242599,-0.0310305427342113,-0.0179577354723402,-0.000188119050226883,-0.000694310425011613,0.00944599716090502,0.0345853723893561,-2.88359210543125,-0.0001129902087177,0
0.41,0.000623228880844733,0.000359044400376819,-0.0310266692107852,-0.0179577374492352,-0.000188145639757462,-0.000694210585918411,0.00944700424019169,0.0345816229737263,-2.88359259259414,-0.000105956215742807,0
0.42,0.000623136094497676,0.000359044322689682,-0.0310231819242508,-0.0179577230707481,-0.000188169543016717,-0.000694120768312251,0.00944789526277908,0.0345782432997166,-2.8835930308284,-9.96281965933149e-05,0
0.43,0.000623052450089254,0.000359044247728925,-0.0310200331805482,-0.0179577235111166,-0.000188191085750893,-0.000694039799026938,0.0094487127109078,0.0345751951596914,-2.88359342504621,-9.39356006363217e-05,0
0.44,0.000622977245789126,0.000359044178746004,-0.0310171997777729,-0.0179577224599349,-0.000188210453261943,-0.00069396699946419,0.00944944688750251,0.0345724519165563,-2.88359377966803,-8.8814725652483e-05,0
0.45,0.000622909550279735,0.000359044116215923,-0.0310146458733901,-0.017957722831613,-0.000188227886407681,-0.000693901468507937,0.00945010989370947,0.0345699796202665,-2.88359409867046,-8.42081873239843e-05,0
0.46,0.000622848894561244,0.000359044059819365,-0.0310123576322629,-0.0179577083238168,-0.000188243507039046,-0.000693842751929698,0.0094506896209358,0.0345677607004473,-2.8835943856314,-8.00643379259369e-05,0
0.47,0.000622794062944869,0.000359044009040572,-0.0310102829470061,-0.0179577086413879,-0.000188257627078736,-0.000693789673542341,0.00945122819749054,0.0345657523230916,-2.88359464376876,-7.63367081677762e-05,0
0.48,0.000622744819263921,0.000359043963346025,-0.0310084178289527,-0.0179577089347449,-0.000188270308285469,-0.000693742004316713,0.00945171238338365,0.0345639468154567,-2.88359487597821,-7.29834931606682e-05,0
0.49,0.00062270046502395,0.000359043922235095,-0.0310067343159661,-0.0179577077517179,-0.000188281730206166,-0.000693699068260566,0.00945214799917725,0.034562316745824,-2.88359508486348,-6.99670859799922e-05,0
0.5,0.000622660650984035,0.000359043885250753,-0.0310052213135941,-0.0179577080042261,-0.000188291983137374,-0.000693660527135582,0.00945254077231802,0.0345608521078063,-2.88359527276794,-6.72536567082682e-05,0
0.51,2.25351636360693,0.014032626764806,0.0528131549701318,-0.700442724497944,-0.0908968977842705,2.2517261533391,-0.702141987206691,0.0201462016628691,0.0465726572315686,14.3211122316254,528.779955006252
0.52,2.21644199147925,0.0289417249444223,0.200018931282934,-1.44454285573814,-0.433555378758963,2.17381748511333,-1.45451213098725,-0.105385462691061,0.209918117995995,30.2116194073606,528.779955006252
0.53,2.12900748257399,-0.0165457930639384,2.84187359558608,0.832560045990223,-1.01522557396702,1.87143358366988,-0.600788649478564,2.89973356743793,0.489284174140758,45.9431834472836,528.779955006252
0.54,2.15837797540034,0.00228216155756578,-0.413347481642722,-0.107176476297258,-1.66736729606793,1.37057907212892,0.25162209926711,-0.345006169238015,0.883840183781701,61.7371243569089,528.779955006252
0.55,2.06264169796037,0.0126767570379552,2.43020826642739,-0.62554092500148,-2.02893284329974,0.371595198722284,-2.5020013285311,-0.192880841693358,1.395801573356,78.0654423924508,528.779955006252
0.56,2.05801255353412,-0.000691609989440067,0.526449900798475,0.0417612085834707,-1.84440205889672,-0.913015440157477,-0.49040004010526,-0.195962489415284,2.03011574443741,94.9126304539699,528.779955006252
0.57,1.99714204591242,-0.0213396761547739,1.67171356730661,1.07615812566948,-0.680664420650187,-1.87769211528157,-1.59423780545127,-1.18791766643626,2.78314048120113,110.261686223148,528.779955006252
0.58,1.94482645903726,-0.0147696724315689,2.60202310173525,0.750341740030058,0.949395111687635,-1.69741480519606,0.595265485418296,-2.64181678976135,-2.63921765468464,124.511659624641,528.779955006252
0.59,1.91721300897356,0.0204014011063407,2.23581618621436,-1.00627528235129,1.90489302338415,-0.21795528992654,2.32764766370286,0.770402697339454,-1.67407878029518,138.971050565966,528.779955006252
0.6,1.87784989829406,0.0156111868179857,2.18786539398715,-0.770483565966623,1.07112633879249,1.54248251724999,0.596442335942779,2.24157454650215,-0.598656121706907,154.314078018191,528.779955006252
0.61,1.82306878744299,-0.0184936855325699,3.1990115663487,0.939224114140027,-1.01975770258437,1.51129614840152,-0.978475071198151,3.18722504276975,0.583438817824389,167.978006964933,528.779955006252
0.62,1.83569973609575,0.0202295796525808,0.84784376794616,-0.994040244724474,-1.76315975772879,-0.511341789530919,-0.524258292785093,-1.19670727641437,1.86408671415924,181.671915421448,528.779955006252
0.63,1.74486423936455,-0.0146872493289847,3.47482889608509,0.747757317521128,0.201357585397775,-1.73326918045319,-0.371547266321351,-3.53490162407152,-3.03435616087152,195.761733316732,528.779955006252
0.64,1.72877471418128,0.0238700669030033,2.65126952937048,-1.17493508584808,1.72892472798606,0.00714684859671795,2.62976532159235,1.22230803264785,-1.55285602625509,208.459631452019,528.779955006252
0.65,1.68165029246335,-0.0293936694818731,3.1450407727844,1.48353332045216,-0.0717359460609574,1.68037663873026,1.40385634685207,3.1814053392756,0.0251872093488486,222.047879754315,528.779955006252
0.66,1.65703018186706,0.0277562768531688,2.75313163095428,-1.36811872083954,-1.64719098309321,-0.182431630315451,-2.55758456957554,-1.70594366294485,1.69784901248486,234.256528661382,528.779955006252
0.67,1.62846923586693,-0.00860065766787443,2.37527417316157,0.444431126895377,0.521933360277691,-1.54258600762051,0.327651312669218,-2.39417857344602,-2.82061566044951,247.177964127948,528.779955006252
0.68,1.56546025715011,0.0496745816952469,3.92350847276038,-2.46299687254849,1.31563536491074,0.849845260844151,1.82517244927424,4.25781843910898,-0.965546823102725,258.938339494187,528.779955006252
0.69,1.57397206209664,0.0286258076729912,1.74127816504216,-1.41546566674445,-1.28973220152249,0.902661806814512,-2.2349127150462,-0.201885754598309,0.978333785710265,271.19333769413,528.779955006252
0.7,1.51244312117857,0.0486289688487078,3.210680961566,-2.41202542402,-0.250034794393599,-1.49242472942665,1.96197347497655,-3.50385487236125,3.00773982737996,282.714001508385,528.779955006252
0.71,1.49785236321714,0.00257202296547132,2.28230831146604,-0.107511066465043,1.37442889475842,0.595410388346101,2.04977548631386,1.00941087457299,-1.16027884600291,294.041732154765,528.779955006252
0.72,1.46279917841172,0.0118822634654946,2.36561879388649,-0.579410646540759,-1.25292685741833,0.755047623999229,-2.33102188291444,0.705837061004725,1.03657019023191,305.426676734194,528.779955006252
0.73,1.39686032483733,0.02017030604496,4.11731223297345,-0.984812532554216,0.219850198165346,-1.37959831063874,1.67679187819022,-3.88722069675803,-2.96912456755305,316.063487795542,528.779955006252
0.74,1.40766202155865,0.0338080610565944,1.96893071380823,-1.66861603035323,0.836491068870615,1.13266854976674,-0.234353269616588,2.57022297817702,-0.612096601791311,326.677060751562,528.779955006252
0.75,1.34177065364775,0.0217438363065838,3.65961302759171,-1.07146157719555,-1.3052742145465,-0.311577448233445,-3.27973891643516,-1.94527891654283,1.82132181500826,337.221297132752,528.779955006252
0.76,1.32734938217859,0.0328996338584649,2.85250251388289,-1.63204381055966,1.21890984628122,-0.526495541212452,3.25571368625703,0.447957569880189,-1.95374934948578,347.33023781753,528.779955006252
0.77,1.29795630457029,0.0390768212158973,2.81901177886093,-1.92905200323263,-0.731120366265705,1.07316381627485,-3.21741123420621,1.14731599419523,0.628145764789485,357.014800148931,528.779955006252
0.78,1.24757124696372,0.0165889467415283,3.80442927749817,-0.807009856086488,0.157969712460827,-1.23764081192794,1.33090061134481,-3.65426471373216,-3.00134510963129,366.692579155868,528.779955006252
0.79,1.21830128793184,0.010147222471467,3.73599152826483,-0.48937055114075,0.343879624104931,1.1688061423631,0.553995802262224,3.72695651794681,-0.277811709649968,376.256669547227,528.779955006252
0.8,1.18597588498846,0.00546485868279517,3.85810510607156,-0.259219289089214,-0.700859929820462,-0.956746582552894,-2.05576387084668,-3.27505794706794,2.51396452051012,385.542717110103,528.779955006252
0.81,1.15056219956569,0.0263981514978174,4.18402725306616,-1.30842352703708,0.925260097029226,0.684385849004352,2.50386723320334,3.59843091624602,-0.911000490412564,394.476716220915,528.779955006252
0.82,1.13271616962821,-0.0315820664655901,3.66341932422879,1.59824012229027,-1.01074034242413,-0.512296113645021,-3.99509336641606,-0.119338289118628,2.01203628285736,403.09116886336,528.779955006252
0.83,1.13050118545689,0.00972353017083424,2.35594960551889,-0.460151131532995,1.08737722965716,0.309415962389697,2.13062680343496,1.10574275131255,-1.2849701885215,411.526936491635,528.779955006252
0.84,1.1274362664752,-0.00641693717893121,1.10521527877924,0.347160451633265,-1.10551346426782,-0.221345188266803,-1.15114143239535,0.129979206983494,1.76271123500506,419.777743114904,528.779955006252
0.85,1.05470419718248,-0.0012682745857385,3.35119418395534,0.0874053983810502,1.04138735685581,0.167077601896923,3.32325737579277,0.44057073947457,-1.41291699007445,427.847490664412,528.779955006252
0.86,1.03656756384325,0.0373758880271823,2.88630434766263,-1.84704961758436,-1.02619022934142,-0.151006240341104,-2.50398261082152,-2.33931959378323,1.75294181340547,435.72881174339,528.779955006252
0.87,0.958035842652011,-0.00897575600356804,5.46859727520073,0.469236830696331,0.922729462064619,0.257844099873787,5.40243411437894,0.969249710554218,-1.30767906646426,443.341287824165,528.779955006252
0.88,1.00417727841324,-0.0107947670227538,1.83388010869426,0.560705596325802,-0.921042125345041,-0.400212364647055,-1.90763025827703,-0.196096446988379,1.96995438128487,450.794422218187,528.779955006252
0.89,0.953547185691196,0.0186824154546532,3.0579540994199,-0.915005469609252,0.803297078949316,0.514115814713296,2.03459136567063,2.45942193580368,-0.981888077926715,458.019174868423,528.779955006252
0.9,0.90282630781661,-0.0174818328469304,4.30396993399706,0.893412329463532,-0.595766605725415,-0.678574320224305,-3.56153590130202,-2.57639376006947,2.40172304622486,465.047538630459,528.779955006252
0.91,0.873846488947254,0.0199589969230848,4.48900085527977,-0.979370740758544,0.395895221992958,0.779277242710684,1.05823467862895,4.47106643783153,-0.447213516061715,471.866461565822,528.779955006252
0.92,0.876074833659007,0.0424110955779636,3.13108155703111,-2.10125082268915,-0.134183804587001,-0.866775935167409,1.76079780135081,-3.33444415748567,3.03637649700567,478.483312623294,528.779955006252
0.93,0.833743405650126,0.0249222287407556,4.02416589838684,-1.22581136061948,-0.210208034277866,0.807193760057344,-2.30653227370183,3.51801556846117,0.284642907452387,484.895160720503,528.779955006252
0.94,0.839866331461272,-0.00544156529800585,2.50746117871913,0.294968367560799,0.558490421789638,-0.627290613770316,1.43362488918219,-2.07824146281474,-2.42062949969163,491.154331181559,528.779955006252
0.95,0.783152221212502,-0.0350404912342928,4.15935871605418,1.77584002987277,-0.743229895415598,0.249328217770342,-3.24082215848748,3.15451176532454,1.20241470875749,497.203845294319,528.779955006252
0.96,0.805076768197267,0.000524393425146208,1.88775022303553,-0.00203658161763767,0.795269604710331,0.125280219920364,1.86424394921821,0.296984090548095,-1.41389725979934,503.119536048634,528.779955006252
