t,iq,id,vq,vd,ia,ib,va,vb,theta_e,omega,r
0,0,0,0,0,0,0,0,0,0,0,0
0.01,0.000711026257201714,0.000400633663172052,-0.0349163657524077,-0.0200564641260182,-0.000563384655256326,0.000590477265200487,0.0275546311105517,-0.0293625042350884,1.27503968291332,-0.00123617776326415,0
0.02,0.000787941425483387,0.000444263256535781,-0.0388068060052625,-0.0222406493896562,-0.000624237941733554,0.000654636176208453,0.030639250008322,-0.0325860558603098,1.2750306303187,-0.00127090709778372,0
0.03,0.000817300344225024,0.000461316018470703,-0.040283385172626,-0.0230943467444775,-0.000647345626919405,0.000679511560517058,0.0318025851558022,-0.0338333496705285,1.27502174463234,-0.00121926612023244,0
0.04,0.000798270023839921,0.000451574307030154,-0.0393969557768023,-0.0226066612468448,-0.000631975940674716,0.000664650882899782,0.0310965370327444,-0.0331087094550673,1.27501384763497,-0.00108952824204723,0
0.05,0.000815077430973515,0.000461594965239251,-0.04025470902285,-0.0231083089786869,-0.000645127481311915,0.000679140385540983,0.0317705637627886,-0.033838835981212,1.27500635589348,-0.0010312239124015,0
0.06,0.000814595859190247,0.000461982624558234,-0.0402670277961201,-0.0231277185160459,-0.000644549123164652,0.000679375291743297,0.031776455557746,-0.0338612132605663,1.27499943923005,-0.000947667645024533,0
0.07,0.000835467742414469,0.000474464243902387,-0.0413163142059565,-0.0237525619286208,-0.000660871772531997,0.000697403160035435,0.0325978114628863,-0.0347649925293881,1.27499319982792,-0.000911882275725587,0
0.08,0.000813368173270049,0.000462479266460016,-0.0402698206919751,-0.0231525728774287,-0.000643221753933286,0.000679500281428226,0.0317714716673986,-0.0338861871194763,1.27498732833863,-0.000800648236145844,0
0.09,0.000811513544051571,0.000462010505592146,-0.0402067830137319,-0.0231291143755471,-0.000641580742289748,0.000678514620755947,0.031717831554281,-0.0338455387548302,1.27498204398331,-0.000734048576406503,0
0.1,0.000810599738364337,0.000461990427496194,-0.0401872155447425,-0.0231281098399947,-0.000640709207890816,0.000678232115030223,0.0316992435414465,-0.0338390265360946,1.27497721829156,-0.000674678442518053,0
0.11,0.000809797982971192,0.000461987979955943,-0.040170955444382,-0.0231279783788677,-0.000639940001451702,0.000677998865330893,0.0316835788400789,-0.0338343003044602,1.27497280843704,-0.000620486062001942,0
0.12,0.000809066554703923,0.000461986361838287,-0.0401561555413594,-0.0231279011838982,-0.000639238084946592,0.000677786662024907,0.0316693079798676,-0.0338300395079625,1.27496877845777,-0.000570964569873157,0
0.13,0.000847486081715903,0.000484009080814426,-0.0420486375265828,-0.024230400901396,-0.000669565596502176,0.000710055885824267,0.0331580296327962,-0.0354364969565973,1.27496483451645,-0.000595218222722655,0
0.14,0.000886657377033557,0.000507181585924345,-0.0440780142425783,-0.0253904540748145,-0.000700277017819383,0.000743644110890924,0.0347609204527618,-0.037137917375251,1.27496124185036,-0.000625066949675213,0
0.15,0.000810455098894615,0.000463742364864387,-0.0402800536468064,-0.0232158144510902,-0.000640046988109565,0.000679878151808225,0.0317618253784456,-0.0339505995682872,1.27495790282374,-0.00044356917251317,0
0.16,0.000806735576885692,0.000462049531362411,-0.040113070587076,-0.0231310649363062,-0.000636980713077338,0.000677176219024856,0.0316267111169754,-0.0338209364290042,1.27495514382534,-0.00040368472327086,0
0.17,0.000806143332404305,0.000461982652288523,-0.0400971786933911,-0.0231277085237073,-0.000636431997198491,0.000676941176423326,0.0316124033217198,-0.0338131719445577,1.27495263494025,-0.000372600247682639,0
0.18,0.000805721476856022,0.00046197917964269,-0.0400884678292638,-0.0231275431184184,-0.000636027929546469,0.000676816321853436,0.0316040416096686,-0.0338105465428549,1.27495034270322,-0.000344421834085688,0
0.19,0.00080534112348282,0.000461978251020168,-0.0400807570552282,-0.0231274998812963,-0.000635662953511474,0.000676705873420125,0.0315966076092759,-0.033808323301593,1.27494824794435,-0.000318680461791306,0
0.2,0.000804993715649049,0.000461977489663936,-0.0400737175017209,-0.0231274609643135,-0.00063532956547309,0.000676605074195006,0.0315898205180707,-0.033806294158036,1.27494633363083,-0.000295156889786524,0
0.21,0.000804676226552195,0.000461976797159764,-0.0400672821422942,-0.0231274220050235,-0.000635024888197291,0.000676512957793339,0.0315836169658027,-0.0338044358956945,1.27494458421831,-0.000273659678161803,0
0.22,0.000804386211471993,0.000461976164326682,-0.0400614055964747,-0.0231273844608269,-0.000634746576154312,0.000676428811977016,0.0315779526366885,-0.0338027371323567,1.27494298550185,-0.000254014257444197,0
0.23,0.000804121005110496,0.000461975585916017,-0.0400560247943132,-0.0231273645954166,-0.00063449207251841,0.000676351863125736,0.0315727620188241,-0.0338011954515615,1.27494152450028,-0.000236061111902442,0
0.24,0.000803878836726422,0.000461975057250755,-0.0400511153134987,-0.0231273269721074,-0.000634259676759245,0.000676281598223493,0.0315680316805547,-0.033799770214388,1.27494018935084,-0.000219654467326219,0
0.25,0.000803657402526848,0.000461974574058388,-0.0400466206250672,-0.0231273084764233,-0.000634047179039048,0.000676217348539103,0.0315636964271804,-0.0337984805679855,1.27493896921249,-0.000204661106662226,0
0.26,0.000811815213008234,0.000466657908775776,-0.0404497329138416,-0.0233617673306981,-0.000640484338349085,0.000683076391206811,0.0318808986042514,-0.0341403188297977,1.2749378836641,-0.000206845949378406,0
0.27,0.000784628945458265,0.000451264974528308,-0.0391308311854673,-0.022591170693042,-0.000618966488540267,0.000660426487469359,0.0308439389301681,-0.0330186973368084,1.27493675333995,-0.000142821933260247,0
0.28,0.000781759544845501,0.000449532550536954,-0.0389002150663068,-0.0225044416619428,-0.000616726249341049,0.000657933304616073,0.0306485986817182,-0.032868526367449,1.27493581406284,-0.000126264841105713,0
0.29,0.000802038804521308,0.000461488500183943,-0.039987937492465,-0.0231029757062563,-0.000632637980420561,0.000675282952168488,0.031514525198743,-0.0337582187457062,1.27493505330106,-0.000154854123551936,0
0.3,0.000797485903023419,0.000459114043968415,-0.039768081314733,-0.0229841137963634,-0.000628974942420699,0.00067168444428689,0.0313388643368186,-0.0335804312142932,1.27493466727625,-0.000141781053770646,0
0.31,0.000802515882802378,0.000461861242353049,-0.0400169071516339,-0.0231216389254578,-0.000632984902314208,0.000675779300349052,0.0315367571584276,-0.0337845525723236,1.27493394366636,-0.000142479396288002,0
0.32,0.000802612093762886,0.000461967976922496,-0.0400251010330911,-0.0231269758326529,-0.00063304535250188,0.000675909880407202,0.0315430159492075,-0.0337920681329406,1.27493326242552,-0.000134516498975432,0
0.33,0.000802508193321765,0.000461971897303976,-0.0400232442765922,-0.0231271842837523,-0.000632944402046255,0.000675883731247843,0.0315411580239834,-0.0337917458238623,1.27493263901729,-0.000126873292069827,0
0.34,0.000802405269928172,0.000461971833807766,-0.0400211575610636,-0.0231271742529762,-0.000632845584054596,0.000675854022095607,0.0315391456471934,-0.0337911457825881,1.27493206927402,-0.000119872883416555,0
0.35,0.000802310740687,0.000461971633764449,-0.0400192256568914,-0.0231271746004482,-0.000632754868506341,0.000675826598622931,0.0315372799883257,-0.0337905992565205,1.27493154860738,-0.000113474832567615,0
0.36,0.000802224522882093,0.000461971445412379,-0.0400174668129644,-0.0231271557985079,-0.000632672130194309,0.000675801581209455,0.0315355869697087,-0.0337900834555214,1.27493107279148,-0.00010762788761545,0
0.37,0.000802145535084701,0.000461971273061319,-0.0400158478225524,-0.023127154648721,-0.00063259633080342,0.000675778661134152,0.0315340239666198,-0.0337896240224152,1.27493063796281,-0.000102284602847126,0
0.38,0.000802073461741183,0.0004619711155413,-0.040014372002481,-0.0231271358121585,-0.00063252716644058,0.000675757747523925,0.0315326043360571,-0.0337891882325194,1.27493024059081,-9.74015936492489e-05,0
0.39,0.000802007454253817,0.00046197097158409,-0.0400130143775984,-0.0231271360820952,-0.000632463823564299,0.000675738593797531,0.0315312933511659,-0.0337888041005355,1.27492987744872,-9.29392114964724e-05,0
0.4,0.000801947488103571,0.000461970840022329,-0.0400117896566946,-0.023127117215354,-0.000632406277065102,0.000675721193566712,0.0315301161324468,-0.0337884394268027,1.27492954558818,-8.88612231779385e-05,0
0.41,0.000801892307241118,0.000461970719789466,-0.0400106496284769,-0.0231271174554461,-0.000632353323956118,0.000675705181300935,0.0315290153216614,-0.033788116821409,1.27492924231445,-8.5134516644442e-05,0
0.42,0.000801842015822174,0.000461970609910103,-0.0400096128052781,-0.0231271176813568,-0.000632305062485281,0.000675690588001613,0.0315280141186108,-0.0337878234695915,1.27492896516499,-8.17288321492175e-05,0
0.43,0.000801796031770129,0.000461970509493171,-0.0400086622379304,-0.0231271178947783,-0.000632260934604423,0.000675677244530883,0.0315270962340003,-0.0337875545022107,1.27492871188941,-7.86165165488594e-05,0
0.44,0.00080175410999286,0.000461970417723667,-0.0400077968129321,-0.0231270975265355,-0.000632220704717111,0.000675665079953983,0.0315262665305497,-0.033787289984127,1.27492848043135,-7.57722987692699e-05,0
0.45,0.000801715692936723,0.000461970333857213,-0.0400069988033146,-0.0231270977189197,-0.0006321838384413,0.000675653932186278,0.0315254959921458,-0.0337870641606825,1.27492826891138,-7.31730846091615e-05,0
0.46,0.000801680535509591,0.000461970257213637,-0.0400062652454415,-0.0231270979017737,-0.000632150100370803,0.000675643730205619,0.0315247877235049,-0.0337868565456273,1.27492807561192,-7.07977692241561e-05,0
0.47,0.000801648521296143,0.000461970187170491,-0.0400055988069187,-0.023127098075441,-0.000632119378268649,0.000675634440469021,0.0315241442231757,-0.0337866679666347,1.27492789896354,-6.86270657616195e-05,0
0.48,0.000801619184635093,0.000461970123160287,-0.0400049839471473,-0.0231270982412739,-0.000632091225902208,0.000675625927570283,0.0315235505769292,-0.0337864939390999,1.27492773753176,-6.66433487556432e-05,0
0.49,0.00080159262968179,0.000461970064662669,-0.0400044329900309,-0.0231270792880571,-0.000632065742166676,0.000675618222211248,0.0315230241011647,-0.0337863198168629,1.27492759000594,-6.48305110158849e-05,0
0.5,0.000801568066048927,0.000461970011203177,-0.0400039128778992,-0.0231270794404971,-0.000632042170346037,0.00067561109424339,0.0315225219888947,-0.0337861725628882,1.27492745518815,-6.31738328401415e-05,0
0.51,4.66097448129946,0.0360267566720885,6.95239322507251,-1.79501941666807,-0.342390474897124,4.64852124930292,-2.35337401918501,6.783767167885,0.0812523103319101,25.0285583206067,1404.60596635293
0.52,4.62945789326726,0.026960700056585,8.52967568835238,-1.33027373980055,-1.64189438916258,4.32860139995802,-4.31252986741803,7.47844112859759,0.368370140369704,53.390924065771,1404.60596635293
0.53,4.60472176039212,-0.0130769637647088,9.76800064229136,0.686364835303313,-3.52074301630831,2.96782784384914,-7.0067548291282,6.84034502049671,0.867566612071763,83.2515707876877,1404.60596635293
0.54,4.62759288344326,0.0431003781380115,8.62610657891896,-2.12468493521816,-4.62731315525309,-0.0666820868903321,-8.57328009136914,-2.32870549012655,1.59451938046534,114.583809370207,1404.60596635293
0.55,4.60569008756924,0.0153746989375865,9.72298215301064,-0.717642266130671,-2.62389605879256,-3.78520634004989,-4.9213634217141,-8.41614962089643,2.53878482774799,142.916651539369,1404.60596635293
0.56,4.57670070330686,0.034801064460066,11.1743430437169,-1.69322431190559,2.38684955768769,-3.90516960332111,7.33780786064925,-8.59590174613964,-2.58537287287315,173.530707790884,1404.60596635293
0.57,4.547853704501,0.0200979251121476,12.6186632949518,-0.93068630761763,4.26094269055973,1.58988824509865,11.4736563747691,5.33404628291432,-1.20924637741303,202.140999624874,1404.60596635293
0.58,4.57757446738596,0.0321173577566002,11.1346565500442,-1.52657688106128,-1.68572043889563,4.25600353982732,-5.58815891073176,9.75107652772976,0.384139149045651,231.709404163494,1404.60596635293
0.59,4.52559795895684,0.00971021691048435,13.7356038326388,-0.402927991375785,-3.68443979528131,-2.62793351692431,-10.9307711223107,-8.32750900840664,2.19250651262631,261.402608869114,1404.60596635293
0.6,4.54129167084995,0.0219993134941998,12.9531691378624,-1.01150276912758,3.98256000420578,-2.1824366708855,11.8711775571366,-5.28042346530663,-2.06725728533254,290.798082038624,1404.60596635293
0.61,4.51942699933348,0.0950367496430879,14.0487352307752,-4.65648955353646,-0.675401419472094,4.46968514647981,-6.97919155166439,13.0514651220388,0.170997963010995,319.975676464946,1404.60596635293
0.62,4.52150483387928,0.0803263727931403,13.9472602373925,-3.90081502718741,-2.30870717348976,-3.88848678486075,-3.51727502108153,-14.0488861633923,2.62356051773739,348.992282917977,1404.60596635293
0.63,4.45052392618445,0.0516867777733965,17.4988027184413,-2.45077731102963,3.75710315253753,2.38621261452733,13.3235683014681,11.605900814814,-0.993339428580407,378.167322935701,1404.60596635293
0.64,4.45453141638262,0.0372730283385478,17.3010621602731,-1.75575588411325,-4.24538482315529,-1.34942473725065,-15.8979074139251,-7.04740877603232,1.8869212520059,407.629870146231,1404.60596635293
0.65,4.48056856527462,0.0930974919537819,16.0018747246552,-4.50759858427318,4.34566296594758,1.0951598958722,14.2400519535604,8.57900693905778,-1.30314970387069,436.272962093818,1404.60596635293
0.66,4.46212428688951,0.00489656435477936,16.9268988298737,-0.118752558654683,-4.05468201057299,-1.86282874176008,-15.3238142791245,-7.19129488380687,2.00255906147956,465.609032098026,1404.60596635293
0.67,4.40729141293532,0.104486260859159,19.6713454943606,-5.05520262307478,3.12049195141712,3.11410740957705,9.93602151230245,17.714185943077,-0.762719062529,494.282912534087,1404.60596635293
0.68,4.39188182752418,0.0965253526285714,20.4447216588502,-4.65546009568848,-0.855266852551841,-4.30888172749767,1.04637669528573,-20.9419447096484,2.96762471850777,523.151856659931,1404.60596635293
0.69,4.3727020128122,0.139298844706125,21.406714866171,-6.80257230542509,-2.45021038898963,3.62441665798451,-18.05904932101,13.3563905660703,0.626301869224944,552.099432240302,1404.60596635293
0.7,4.40161563556304,0.0942986335703511,19.9640927437573,-4.54504629915345,4.39807194021477,0.200189021231879,19.6155591452961,5.86960683182279,-1.50388990797754,580.939794096928,1404.60596635293
0.71,4.36586121984066,0.0901023081896062,21.7549135612587,-4.32167937901843,-1.29879041034366,-4.16917330976406,-1.88875246278902,-22.099452274823,2.86023375333619,609.670947181836,1404.60596635293
0.72,4.33487126961598,0.105821355082493,23.3075550132973,-5.08439230083433,-3.91706351110811,1.8598173386865,-23.3605274047768,4.83517581245367,1.15191890647985,638.328980061205,1404.60596635293
0.73,4.36383100016631,0.092159992552493,21.8628849752489,-4.3820955671941,1.56727306139397,4.07371692846576,3.2955685611126,22.0528394738635,-0.346156036177225,667.033780970863,1404.60596635293
0.74,4.3143247365875,0.107919360775741,24.341533011638,-5.2217017690212,4.29885236190193,-0.38067425934944,24.6231437579704,3.67112928069622,-1.63410949835885,695.824421771242,1404.60596635293
0.75,4.35168210868382,0.126682937669971,22.4770397370591,-6.09556361990866,1.69535588648864,-4.00985712462226,14.8946863382229,-17.9031150940735,-2.71248633933698,724.189534074373,1404.60596635293
0.76,4.26418283968351,0.111755522957087,26.8554911307974,-5.40266701301453,-1.91699457531635,-3.81062677067309,-6.54794814932457,-26.599447170263,2.70169767258734,752.940734733045,1404.60596635293
0.77,4.30271062649561,0.143259856437368,24.9326584865649,-6.90554395429452,-3.89952525515905,-1.82415594349865,-19.0872257691352,-17.4643009865963,2.04162787044872,781.266224131838,1404.60596635293
0.78,4.26878836167849,0.115989082753246,26.6323438100835,-5.54353964288635,-4.27024457653864,0.0319186569579811,-26.5180347843308,-6.0668278175476,1.59048654468674,809.694424252759,1404.60596635293
0.79,4.32916298693006,0.140599812805959,23.6173089865636,-6.78655752040492,-0.174190958889296,4.32794154126503,-8.48391820877712,23.0620419427977,0.0726922359233351,838.162715588371,1404.60596635293
0.8,4.27143721168931,0.139504256904962,26.5073125026007,-6.73736727592559,-0.0226523855529498,4.27365466088774,-7.73819088752727,26.2326158762224,0.0379486105708691,866.571757849237,1404.60596635293
0.81,4.23856557857102,0.165087152993578,28.1546624340716,-8.00587200800863,-0.726737778797281,4.17906019731702,-13.7277381354865,25.8520445819793,0.211107119158282,894.897379551602,1404.60596635293
0.82,4.21698056512089,0.181117694192557,28.5826791604183,-8.77864348612194,-2.20230833014649,3.60077307320585,-23.2315666462644,18.823613909237,0.591843778925577,923.123699528839,1404.60596635293
0.83,3.98652149479314,0.179815941208548,29.0478487485107,-8.70034819393228,-3.61290034201888,1.69459095943543,-30.1637232803219,3.10215626301778,1.1772983239704,950.490177309853,1404.60596635293
0.84,3.77943781212792,0.0991873308138274,28.8700690334164,-4.76478092828149,-3.53663184144622,-1.33649673415425,-24.9282952244501,-15.3220142439367,1.95834583190483,976.604321354943,1404.60596635293
0.85,3.57238205892111,0.175222801459288,29.1240773567863,-8.5123357953299,-0.939325603344033,-3.45112793387249,2.05037596167544,-30.2732175526869,2.92486071791114,1001.14143446628,1404.60596635293
0.86,3.33008864815341,0.0640864549818231,31.7741509433911,-3.03557171573812,2.62253556402137,-2.05326683451408,27.2156259359167,-16.6769622153152,-2.21580062335123,1024.60334742252,1404.60596635293
0.87,3.17752012556608,0.137362338979556,30.3054613747017,-6.6240291424484,2.58636176141286,1.85100929215626,19.7753972174201,23.9004689516084,-0.906421201502554,1046.66727379355,1404.60596635293
0.88,2.98960814753969,0.163318557571283,31.1383956930271,-8.00241201539759,-1.45299682956762,2.61786746042448,-23.3484995944086,22.1017160213774,0.561271856875176,1067.79005289432,1404.60596635293
0.89,2.78891840379745,0.0806400739579165,33.0168873897385,-3.89518664245557,-2.33475547701306,-1.52757505449834,-24.8687458168301,-22.0642881911956,2.17907823351768,1087.72473153066,1404.60596635293
0.9,2.64698898708095,0.177461955241758,32.3318911717436,-8.64405527970425,1.77074996950708,-1.97547158642607,29.1790083073579,-16.3907398435578,-2.34384490719496,1106.55372418207,1404.60596635293
0.91,2.52349129575279,0.0757731543249955,31.1392331285169,-3.57627891411771,1.16305131122186,2.24077253154388,10.2871082455568,29.607718835599,-0.448745494599898,1124.47116001671,1404.60596635293
0.92,2.41618746826911,0.129333956282552,29.5040038764798,-6.28115759315047,-0.588713174844824,2.34693543836053,-14.6998791661258,26.3410846009542,0.299249334516364,1141.50105234938,1404.60596635293
0.93,2.26165760163573,0.130483758127045,30.5851713848082,-6.35661002972676,-1.55332269265102,-1.64903296833842,-14.7836620768378,-27.5191303515569,2.44370303065802,1157.62121802272,1404.60596635293
0.94,2.16073049499217,0.07961894191471,29.3186607058652,-3.81200983670295,2.15990711086989,-0.0994822613052823,29.3524706728027,3.54228033659409,-1.57999088614719,1172.90273681539,1404.60596635293
0.95,2.00894216764085,0.0768013906626476,30.9053194260543,-3.66704367105673,-1.37105257501986,1.47036115395662,-24.5092982667645,19.1802053321299,0.78867313122392,1187.39007669538,1404.60596635293
0.96,1.90010420767547,0.103269134787265,30.6535359848327,-4.98088057473752,0.123354580800837,-1.89890604338951,8.58976179566401,-29.8440016078103,-3.02242715632161,1201.11427232252,1404.60596635293
0.97,1.72058612713005,0.112046692095348,34.2212679614548,-5.430901883694,0.852715710744286,1.49861502686039,10.0706450791484,33.1537627404466,-0.452285912513689,1214.16023258329,1404.60596635293
0.98,1.62537126155367,0.06611819451097,33.8574291183895,-3.25804806138455,-1.34329520180409,-0.917475533374091,-25.2138544482176,-22.8298472956162,2.21068044953215,1226.51690431827,1404.60596635293
