t,iq,id,vq,vd,ia,ib,va,vb,theta_e,omega,r
0,0,0,0,0,0,0,0,0,0,0,0
0.01,0.000765188658289568,0.00043382456417734,-0.0380007230989652,-0.0217228346343017,0.000875340294128092,8.65840905385808e-05,-0.0435738306951174,-0.00415424832511091,-0.956437974678015,-0.000876112113319765,0
0.02,0.000845469282581827,0.000479858777415546,-0.0420344914124417,-0.0240278853174642,0.0009674773945653,9.52378341695731e-05,-0.0481987379947196,-0.00459558449473146,-0.956444389620842,-0.00091207860812456,0
0.03,0.000873989775780162,0.00049629990320917,-0.0434615775533162,-0.024851144530239,0.00100026060538226,9.82366704138559e-05,-0.0498394582574923,-0.00474515631833484,-0.956450773798753,-0.0008857051903191,0
0.04,0.000856235645849447,0.000486891606980231,-0.0425966034105355,-0.0243800365073741,0.000980330187374878,9.56851184487376e-05,-0.0488611126548788,-0.00463124954440854,-0.956456532220439,-0.000809303772901073,0
0.05,0.000872601929250298,0.000496456522252281,-0.0434201241083423,-0.0248589857255318,0.00099921790733151,9.72973745083048e-05,-0.0498101578335196,-0.00471428949958587,-0.956462109330955,-0.000775919755932387,0
0.06,0.000872242584849455,0.00049667417237044,-0.0434149070861157,-0.0248698852663377,0.000999050230106337,9.69071620118739e-05,-0.0498122019604475,-0.00470211508881346,-0.956467341034686,-0.000725590639048006,0
0.07,0.000896089534861123,0.000510618503108687,-0.0446068833012926,-0.0255681293751724,0.00102657514821,9.92530870159313e-05,-0.0511887360734393,-0.00481835831009559,-0.956472161134526,-0.000708478376831092,0
0.08,0.0008714488045955,0.00049699566512392,-0.0433982254945934,-0.0248859781959353,0.000998587801699197,9.61775050646352e-05,-0.0498078906134391,-0.00467888015318063,-0.956476756998216,-0.000634830607697835,0
0.09,0.000870223892455775,0.000496680346680994,-0.0433477475259124,-0.0248702077228912,0.000997405499586305,9.57249140768784e-05,-0.0497575713076047,-0.00466246129406321,-0.956480983832312,-0.00059303767364492,0
0.1,0.000869619776749283,0.000496671295227613,-0.0433272968681242,-0.0248697440569343,0.000996906993464767,9.53801761247418e-05,-0.0497406107231828,-0.00465085672116191,-0.956484918720073,-0.000554779798855295,0
0.11,0.000869070255649158,0.000496669412444765,-0.043308897960411,-0.0248696533081872,0.000996457204120126,9.5061321626739e-05,-0.0497255403737545,-0.00464014361338383,-0.956488583012118,-0.00051916886637451,0
0.12,0.0008685589769841,0.000496667809280581,-0.043291786370943,-0.024869571333542,0.000996038800497817,9.47645354450031e-05,-0.0497115258011647,-0.00463017796867904,-0.956491995346256,-0.000486006948280564,0
0.13,0.000910112395039636,0.000520464779254952,-0.045356750742247,-0.0260611504177539,0.00104371187389895,9.92657157936308e-05,-0.0520857931145874,-0.00484649921237119,-0.956495369654159,-0.000504109177306428,0
0.14,0.000961835451399672,0.000550727270779634,-0.0479724789917843,-0.0275764920150281,0.00110342198788033,0.000104344999936833,-0.0550967447100485,-0.00511569886015956,-0.95649848365052,-0.000537000271492097,0
0.15,0.000869472873669098,0.000497907079423494,-0.0433596688483007,-0.0249316209697635,0.000997500805674786,9.42691914921646e-05,-0.0498028059839984,-0.00461812980918311,-0.956501423831355,-0.000397193942100808,0
0.16,0.000866823868702065,0.000496690809495227,-0.0432346309451845,-0.0248707169576047,0.00099463529255362,9.37337420324865e-05,-0.0496655351463406,-0.0045957038176103,-0.956503958378485,-0.000369816627741296,0
0.17,0.000866414792877377,0.000496661751720783,-0.0432200368781108,-0.0248692737909365,0.000994284475283188,9.35193624333447e-05,-0.0496527881383439,-0.00458835446784062,-0.956506313626781,-0.000346859950845313,0
0.18,0.000866084826682023,0.00049666007934826,-0.0432089691602038,-0.0248691805710152,0.000994014073327866,9.33283636050338e-05,-0.0496437001079918,-0.00458194257373191,-0.956508506804056,-0.000325544436198023,0
0.19,0.000865778663091331,0.0004966591058414,-0.0431987170268255,-0.02486914000125,0.000993763510441539,9.31506639498618e-05,-0.0496353081896697,-0.00457596526232757,-0.956510549175145,-0.000305696125482458,0
0.2,0.000865493628880768,0.000496658212568912,-0.0431891731947595,-0.0248690994150133,0.000993530246664234,9.29852176889073e-05,-0.0496274944100715,-0.00457040321405745,-0.956512451112448,-0.000287212624967665,0
0.21,0.00086522821064858,0.000496657380905943,-0.043180285937108,-0.0248690559020922,0.000993313035563438,9.28311579710365e-05,-0.0496202148700173,-0.0045652285074364,-0.956514222272176,-0.000270000052920758,0
0.22,0.000864981069623651,0.000496656606330474,-0.0431720106228544,-0.0248690152838651,0.000993110781458336,9.26877077620957e-05,-0.0496134364978937,-0.00456041020944807,-0.956515871646784,-0.000253971019248449,0
0.23,0.000864751041650246,0.000496655884923969,-0.0431643097971584,-0.0248689746496676,0.000992922531634201,9.25541908177322e-05,-0.0496071270500352,-0.00455592869045842,-0.95651740761035,-0.000239044143704637,0
0.24,0.000864536846159827,0.000496655213042638,-0.0431571387666329,-0.0248689340001711,0.000992747238334375,9.24298641667249e-05,-0.0496012500423799,-0.00455175779898053,-0.956518837960644,-0.000225143641779272,0
0.25,0.000864337081818259,0.000496654587291694,-0.0431504454732424,-0.0248689139433402,0.000992583755193555,9.23139155807408e-05,-0.0495957748469908,-0.00454785032593662,-0.956520169959889,-0.000212198939911561,0
0.26,0.000872823305563229,0.000501528083333492,-0.0435734418187342,-0.0251129302118015,0.00100232765677554,9.32212935403606e-05,-0.0500820921751537,-0.00459218239106823,-0.956521393368468,-0.00021080021986927,0
0.27,0.000841487919169876,0.000483769294316202,-0.0420253029912487,-0.0242237061409622,0.000966485188356566,8.96717844108027e-05,-0.0483044529537661,-0.00442649472464928,-0.956522620019277,-0.000161183589250064,0
0.28,0.000835468544403115,0.000480193413966919,-0.0416854525091809,-0.0240446564907167,0.00095950528594095,8.91235645362134e-05,-0.0479235365483783,-0.00437688260614636,-0.956523707875924,-0.00014352488638589,0
0.29,0.000862967341969242,0.000496273838814585,-0.0430933671362803,-0.0248498515970973,0.000991245376100628,9.18311535174686e-05,-0.0495381643029654,-0.00453030827123299,-0.956524642292974,-0.000167889124194025,0
0.3,0.000859543131778844,0.000494479697756855,-0.0429254436954194,-0.0247600067893097,0.000987413116340957,9.13230779142522e-05,-0.0493491580502574,-0.0045069116239397,-0.956525296660024,-0.000157504948560698,0
0.31,0.000863337742388819,0.000496601787720117,-0.0431153802639914,-0.0248662670103291,0.000991737223397112,9.17751204217429e-05,-0.0495656214769109,-0.00452950526494355,-0.956526175647384,-0.000153713889847662,0
0.32,0.000863310740868649,0.000496650226541535,-0.0431160252160344,-0.0248686911688762,0.00099174315209011,9.17191534266817e-05,-0.0495675494671611,-0.00452785497815372,-0.956527002886191,-0.000145791864213795,0
0.33,0.000863197647789075,0.000496650987582134,-0.0431122724301751,-0.0248687262539097,0.000991651242273511,9.16525848642707e-05,-0.0495645064190775,-0.00452562515225851,-0.956527773458463,-0.000138306143571948,0
0.34,0.000863090259006354,0.000496650676079226,-0.0431086746900151,-0.0248687089453703,0.000991563370857807,9.15902331840595e-05,-0.0495615596330346,-0.0045235301347781,-0.956528491051512,-0.000131332465548635,0
0.35,0.000862990204385692,0.000496650362508596,-0.043105321361814,-0.0248686887123235,0.000991481487093427,9.15321593571586e-05,-0.0495588106678315,-0.00452158082596554,-0.956529159302776,-0.000124838232340882,0
0.36,0.000862896781090056,0.000496650069944381,-0.0431021856905001,-0.0248686890388058,0.000991405030250908,9.14779360531012e-05,-0.0495562512104729,-0.00451974244528143,-0.956529781604983,-0.000118790541709029,0
0.37,0.000862809997812776,0.000496649797471498,-0.0430992759375067,-0.0248686658669814,0.00099133400721043,9.14275658774353e-05,-0.0495538626337831,-0.00451805560092612,-0.956530361117566,-0.000113158690926226,0
0.38,0.000862729268135101,0.000496649543722302,-0.0430965700738991,-0.0248686455935029,0.000991267938246035,9.1380709025223e-05,-0.0495516421634795,-0.00451648587867059,-0.956530900782855,-0.000107914086837358,0
0.39,0.000862653772799005,0.000496649307411414,-0.0430940339400299,-0.0248686458762671,0.000991206153382872,9.13368916294242e-05,-0.0495495720744026,-0.00451499902405365,-0.956531403340566,-0.00010303010231734,0
0.4,0.000862583753330732,0.000496649087340735,-0.0430916859295836,-0.0248686255793692,0.000991148849547438,9.12962513321727e-05,-0.0495476437006414,-0.00451363912769081,-0.956531871342378,-9.84819411238165e-05,0
0.41,0.000862518386127622,0.000496648882394817,-0.0430894907508947,-0.0248686258364741,0.000991095353275972,9.12583119885258e-05,-0.0495458519206463,-0.00451235211650992,-0.956532307164341,-9.42465120075828e-05,0
0.42,0.000862457679884891,0.000496648691534649,-0.0430874543300292,-0.0248686055190376,0.000991045671284344,9.12230772560956e-05,-0.049544177882666,-0.00451117490623058,-0.956532713019136,-9.03023114757278e-05,0
0.43,0.000862400927415585,0.00049664851379258,-0.0430855464100077,-0.0248686057541463,0.000990999225297174,9.11901382828223e-05,-0.049542620574146,-0.00451005634668658,-0.956533090967149,-8.66293146176121e-05,0
0.44,0.000862348074859555,0.000496648348267433,-0.0430837690574278,-0.0248686059785946,0.000990955970960908,9.11594628531461e-05,-0.0495411698409856,-0.00450901433785516,-0.956533442927539,-8.32088734383618e-05,0
0.45,0.00086229912656412,0.000496648194119333,-0.0430821269286573,-0.0248685856342395,0.000990915911511677,9.11310523818395e-05,-0.0495398176477676,-0.00450806827481308,-0.95653377068697,-8.0023622181189e-05,0
0.46,0.000862253317135051,0.000496648050567388,-0.0430805858676093,-0.0248685858405329,0.000990878421175986,9.11044647126118e-05,-0.0495385597892731,-0.00450716478609651,-0.956534075909604,-7.70573891600646e-05,0
0.47,0.000862210592712005,0.000496647916882626,-0.0430791470258083,-0.0248685860383222,0.000990843455663645,9.10796678582287e-05,-0.0495373853642266,-0.00450632125938101,-0.956534360144983,-7.42951146565151e-05,0
0.48,0.000862171132265094,0.000496647792387466,-0.043077822930812,-0.0248685656719735,0.000990811160972845,9.105676408846e-05,-0.0495362927693947,-0.00450556164140112,-0.956534624836342,-7.17227744603288e-05,0
0.49,0.000862134170400471,0.000496647676450213,-0.0430765786430002,-0.0248685658547511,0.000990780911385333,9.10353114453553e-05,-0.0495352771541486,-0.00450483213009708,-0.956534871327546,-6.93273086661317e-05,0
0.5,0.000862099711465264,0.000496647568482888,-0.0430754174840567,-0.0248685660305574,0.000990752710230819,9.10153116719516e-05,-0.0495343293910556,-0.00450415137627232,-0.956535100869949,-6.70965553707345e-05,0
0.51,4.63547214611271,-0.00068947484332213,8.22773955887622,0.041640475317726,-0.284345419815097,4.62674293374859,-0.461915479443022,8.2148686092799,0.0612309933637544,18.8619709159133,996.480384469099
0.52,4.58481644780314,-0.0623571023499324,10.7621707953259,3.13854128032638,-1.31612610992576,4.39229351603822,0.0698086285944086,11.2102581750579,0.277530568187857,40.1918362070261,996.480384469099
0.53,4.62252173873188,-0.0101567234350166,8.87858528254771,0.535227637692329,-2.81451708640214,3.66692022744293,-4.96511174830489,7.37993296517437,0.652436873024024,62.317528195452,996.480384469099
0.54,4.59506778719987,0.0259868909995364,10.2530575621403,-1.27520481722573,-4.26737856135663,1.7043484096685,-10.0093521389068,2.5620707362992,1.19647123260807,86.2357659258876,996.480384469099
0.55,4.57295155396729,-0.0129123426915019,11.3607489207336,0.685484080724361,-4.3075007605094,-1.53541194528913,-10.940297977399,-3.13789493619442,1.91038270559075,108.149111266013,996.480384469099
0.56,4.58789929620964,0.0364920158410095,10.6152880034356,-1.77260998072001,-1.64745922341856,-4.28205905220306,-2.07337891511508,-10.5606621674016,2.78226817470907,130.215066824763,996.480384469099
0.57,4.48695974818062,0.0871537277577021,14.736781334951,-4.31073551488715,2.75448346517892,-3.54305297647539,12.6204748968719,-8.74521458689816,-2.4613435034826,152.740921600044,996.480384469099
0.58,4.38960533922136,0.0564703707400134,15.2265802918098,-2.77829630162131,4.19978185394741,1.27814565529372,13.6656582272332,7.26756237943548,-1.26250227196997,174.899437393696,996.480384469099
0.59,4.34454193647568,0.0107852856330863,13.2783114210165,-0.461904819455405,-0.41074191338771,4.32509561059275,-1.74789269809757,13.1708686642784,0.0971656547892084,195.864055973057,996.480384469099
0.6,4.28747537858907,0.0458411066082525,11.8194786209178,-2.21724689370033,-4.28558514980695,-0.135301340779439,-11.7152740470367,-2.71451886358982,1.61304856501214,217.080237553614,996.480384469099
0.61,4.18947119181138,0.110325903548233,12.5225425520947,-5.44832075469921,0.473252789338826,-4.16411724971743,7.13654263538809,-11.6433685086575,-3.00210000145268,237.840899846105,996.480384469099
0.62,4.04496217950402,0.0701478243737317,15.6586964119027,-3.4364530916316,3.77351200682025,1.45850844538716,13.2112893647481,9.08106912714645,-1.18463087529515,258.086276844916,996.480384469099
0.63,3.9417058038466,0.0556470779740175,16.8263508331787,-2.70556063171441,-2.73060037621491,2.84323105406156,-13.7501061432908,10.0687994190635,0.779310439285184,277.814724311899,996.480384469099
0.64,3.85125954305952,0.0236888472013841,17.4413742495039,-1.0950611710921,-0.994373761987167,-3.72075020002153,-3.33980257935018,-17.1536122554597,2.886595772092,297.082116748784,996.480384469099
0.65,3.78690712640206,0.0947657938341699,16.8431983337993,-4.63895931237364,3.49380285968524,1.4638947084169,13.4678022182443,11.1279637411258,-1.14900143833364,315.914582137242,996.480384469099
0.66,3.69993045535499,0.0573899391926297,17.4307772305991,-2.75937665833384,-3.47556913128077,1.27011739350035,-17.3694578334267,3.12219297580129,1.23594172300152,334.560471918914,996.480384469099
0.67,3.67738453292462,0.0588751786292097,14.7708050863404,-2.86664532081068,2.07123373288717,-3.03917984222753,10.8553941758512,-10.4189613484685,-2.52737495825169,352.913072317592,996.480384469099
0.68,3.55280134242274,0.0752574651708728,17.385078004023,-3.65605287222274,-0.365190531524026,3.53478386050264,-5.78035347091182,16.7986658268379,0.124127560064593,370.47112917683,996.480384469099
0.69,3.48065474829208,0.0337452936658107,17.430454115636,-1.61071099842422,-0.850652989278249,-3.37527565000027,-2.53003403272403,-17.3209136130573,2.9044040522825,388.044911897319,996.480384469099
0.7,3.38204487141953,-0.00653718205017695,18.8165381320354,0.440810251512541,1.53155076025544,3.01539757176484,8.94605380494218,16.5597265155938,-0.471888519762361,404.984121594246,996.480384469099
0.71,3.31139649308914,0.00375993896266702,18.8941940970602,-0.10788548521073,-1.82601261281129,-2.76243349412038,-10.3109001823093,-15.833115526824,2.55864774446335,421.864513722526,996.480384469099
0.72,3.22551546818945,0.0285231402882685,19.8243355212417,-1.29608293632139,1.77185051058837,2.69542378359861,9.6533407089502,17.3636725088189,-0.572685644273377,438.012247483331,996.480384469099
0.73,3.18397870164599,0.103809012665354,18.5387510497787,-5.08773291923634,-1.46099087990873,-2.83090132863534,-3.36599559860016,-18.9272393753911,2.6977505692846,454.097594032292,996.480384469099
0.74,3.09160866423453,0.0176194913831371,19.9026242098034,-0.79604274084246,0.629124215436594,3.02697163858499,3.1585854688378,19.6665063577125,-0.199222961415926,469.811205714322,996.480384469099
0.75,3.00177575232221,0.0382948110999726,21.2212787286461,-1.83898461838544,0.437268665189048,-2.97000341316816,5.17442633010055,-20.6627647583741,-2.98265778052641,485.130644042615,996.480384469099
0.76,2.91010134773081,0.0818553608070416,22.6714494796159,-3.97681561425568,-1.64421434121433,2.40248815903485,-16.5427358878702,16.0046110006066,0.628286090787062,500.042805672764,996.480384469099
0.77,2.87095988358226,0.0467469140654693,21.5394864284662,-2.20042364800147,2.66580356332885,-1.06681174011937,20.9094534904821,-5.6201507597333,-1.93518001330382,514.694821276849,996.480384469099
0.78,2.79551355862998,0.0895461507944724,22.2854434592587,-4.34288976931641,-2.68164867084186,-0.794779828492314,-19.7863223208528,-11.1356692991294,1.89094739506207,529.054187418721,996.480384469099
0.79,2.73788368489925,0.119119353808512,22.1942582955509,-5.82419897979184,1.32676337140923,2.39789396112006,4.67690276754596,22.4640373830876,-0.46189562879677,543.133253306149,996.480384469099
0.8,2.64877327799433,0.0353717270778713,23.7333232945489,-1.6961299634215,1.06905435004817,-2.42371075706991,11.4096952117066,-20.8798071502673,-2.7128267192361,556.940114177162,996.480384469099
0.81,2.6434256790751,-0.0224451844538012,21.1286332548183,1.2007521059768,-2.61647447935219,0.377179540799216,-20.7047022220145,4.37907007643523,1.41913623971616,570.41780394132,996.480384469099
0.82,2.55815999666403,0.0259703649729399,22.5640514731286,-1.20638116340316,1.53746540563842,2.0447633493522,12.4050846471619,18.8866526756373,-0.634566828814242,583.560821961973,996.480384469099
0.83,2.49491812577391,0.028618324320449,22.9780387666782,-1.30528284815006,1.27713585758093,-2.14344569888839,13.1007954554168,-18.9225576313555,-2.59277255299368,596.379407457607,996.480384469099
0.84,2.42135320666554,0.0648359099159891,23.9663230117584,-3.10521293661294,-0.912529385407122,-2.24375693144615,-5.52470298676096,-23.5266793873195,2.78209662843162,609.0126409333,996.480384469099
0.85,2.40448782785075,0.0548567335776997,22.142748224728,-2.6680525982945,-2.00535361915824,1.32782824101244,-20.1582401525245,9.54280658737833,1.00874329714768,621.395817516038,996.480384469099
0.86,2.38289737228195,0.0239764707005205,20.6191891937398,-1.06655003188136,1.50839897855038,1.8448596910019,12.057792780207,16.7600156696624,-0.675332883673873,633.359747869447,996.480384469099
0.87,2.21194321699629,0.0629513546379397,26.6213616426036,-3.09136881696779,1.64943863061044,-1.47512978144861,22.3346396514942,-14.8127420995139,-2.27201364619461,645.247981996529,996.480384469099
0.88,2.23399230689229,0.0337443831915256,22.9924393641706,-1.56955134425648,-1.3637959991889,-1.76972336348009,-12.5004886962409,-19.3611348245002,2.50012446823749,656.724289896409,996.480384469099
0.89,2.21858299638026,0.0752999163830406,21.3217713249699,-3.70756163743873,-1.9130003181537,1.12614846799999,-20.5021221747772,6.93014661174092,1.07266812386897,668.068170846195,996.480384469099
0.9,2.10841849580802,0.110276304007055,24.39351938666,-5.39213145700029,0.674438076748318,2.00068055854073,1.38171764125927,24.9441320970837,-0.272885363377749,679.043661948877,996.480384469099
0.91,2.0694717005558,0.0334182705711048,23.9685638907805,-1.60319186244387,2.06946722037025,0.0336945696266074,23.9039854925451,2.37944462142427,-1.53836919486158,689.914985863609,996.480384469099
0.92,1.99199266472994,0.0620091236635666,25.5251683713392,-2.97570897166071,0.748404309068178,-1.84709796652034,13.0385726902653,-22.1446310980767,-2.72551093031703,700.436123852488,996.480384469099
0.93,1.95927136283315,0.0571815552192593,24.865595037797,-2.74261877368561,-1.29788131056947,-1.46884924588939,-13.8067742798829,-20.8612741294929,2.44708705837349,710.735700132431,996.480384469099
0.94,1.960996042838,0.0275908486129831,22.5436343345041,-1.30435509575891,-1.93168957816581,0.338883620966057,-22.4644235614984,2.29487805193652,1.41119867805198,720.858784246173,996.480384469099
0.95,1.84932615938678,0.0573399325078698,25.9413223737005,-2.8246199851357,-0.750115239573425,1.69133741134404,-13.7923474248525,22.1517908320941,0.44843482152807,730.755330503222,996.480384469099
0.96,1.80456402584134,0.107949589059185,26.0154813696376,-5.27547025634391,0.870601347464301,1.58434773043423,6.37791464459154,25.7673836876357,-0.442711239924938,740.373212525741,996.480384469099
0.97,1.75375066821963,0.0677310506951937,26.4308670134966,-3.26106619144937,1.69222912255336,0.465391768611534,24.2097654103649,11.0956091570159,-1.26381281588387,749.786164804633,996.480384469099
