t,iq,id,vq,vd,ia,ib,va,vb,theta_e,omega,r
0,0,0,0,0,0,0,0,0,0,0,0
0.01,0.00124012044617217,0.000710745307906937,-0.0618309204349148,-0.0356155760524871,0.000879860605800462,-0.00112645591484373,-0.0438013208876571,0.056329177766729,-1.9580657931486,-0.000826831729168278,0
0.02,0.00139648757816853,0.000800768807059568,-0.0696559380578052,-0.0401266608873435,0.000990641578883502,-0.00126887253123622,-0.0493427945843512,0.0634616990261621,-1.95807192600773,-0.000908833538571205,0
0.03,0.00142768617933359,0.000818626655148784,-0.0712090817466491,-0.0410215167232,0.00101277712042456,-0.00129719695170963,-0.0504425462476362,0.0648771738404796,-1.95807825664155,-0.000904377980687711,0
0.04,0.00141182439817319,0.000809730299573496,-0.0704204907480951,-0.0405757050578419,0.00100144240195855,-0.00128297482628615,-0.0498803505101859,0.0641668449522377,-1.95808417264004,-0.000869409569086786,0
0.05,0.00142737534696278,0.000818652577348858,-0.0711949718290497,-0.041022821897044,0.00101246408545321,-0.00129711560748625,-0.0504282165310006,0.0648736534167631,-1.9580901546602,-0.00085566773310183,0
0.06,0.00142725441109477,0.000818682181331621,-0.0711896065820489,-0.041024285478395,0.0010123333782494,-0.00129710323386442,-0.0504223184090221,0.0648732756270172,-1.95809597345126,-0.000831866845811224,0
0.07,0.00146358648180214,0.000839529045887648,-0.0729980675760028,-0.0420689331715326,0.00103809330580699,-0.00133013408987279,-0.0517019048758718,0.0665238757156245,-1.95810158980263,-0.000833835641763845,0
0.08,0.0014270474970756,0.000818753014317741,-0.0711805175199012,-0.0410278482582842,0.00101210060188267,-0.00129710193471171,-0.0504118349653147,0.0648737027040667,-1.95810710224355,-0.000786363182835563,0
0.09,0.00142674199883762,0.000818672197071532,-0.0711659093089647,-0.0410237991764507,0.00101184136079386,-0.00129691709761724,-0.0503994932323262,0.0648647040274312,-1.95811241973545,-0.000764479417585495,0
0.1,0.00142658062436685,0.000818668645326754,-0.0711584540721542,-0.0410236148333508,0.00101168658965881,-0.0012968580774181,-0.0503923251722554,0.0648619774881068,-1.95811757976185,-0.00074333606343507,0
0.11,0.00142642448858422,0.000818665477708014,-0.0711512414667505,-0.0410234450729453,0.0010115367226891,-0.00129680123560824,-0.0503853861944001,0.0648593483312464,-1.95812258710377,-0.000722818692348128,0
0.12,0.00142627261816377,0.000818662404714071,-0.0711442235305281,-0.0410233093477791,0.0010113909620921,-0.00129674594119835,-0.0503786242461396,0.0648568166862328,-1.95812744627956,-0.000702908426351314,0
0.13,0.00148942791363092,0.000854867934509351,-0.0742873335800841,-0.0428375615013371,0.00105618556523838,-0.00135412951638214,-0.0526032835259149,0.0677241402168514,-1.95813237506872,-0.00072603445530395,0
0.14,0.00162683586914347,0.000934139536684637,-0.0811739037391111,-0.0468098901005395,0.00115346444858721,-0.00147943617130804,-0.0574788973459256,0.0740036811203849,-1.95813709038912,-0.000800841166234152,0
0.15,0.00142659949180965,0.000819083996511743,-0.0711620670432738,-0.0410444495714424,0.0010115158919931,-0.00129727418212906,-0.0503862362753507,0.0648838486874708,-1.95814169626027,-0.000645047466089795,0
0.16,0.00142569695986646,0.00081865228134595,-0.071117629839454,-0.0410228141771596,0.00101083772875383,-0.00129653787652085,-0.050352985094748,0.0648472470429043,-1.95814599067517,-0.000626925450676423,0
0.17,0.00142556406505675,0.000818648046104074,-0.0711114744758527,-0.0410225999829463,0.00101071087743567,-0.00129648796724241,-0.0503470964826071,0.0648449333970028,-1.95815015734646,-0.000609850671124375,0
0.18,0.00142543803880553,0.000818645482402258,-0.071105646315751,-0.0410224643773622,0.00101058991464922,-0.00129644207457976,-0.0503414891600498,0.0648428098613965,-1.95815420072445,-0.000593283092441618,0
0.19,0.00142531585425477,0.000818643000230678,-0.0710999952165079,-0.0410223287876298,0.00101047263362127,-0.00129639758674536,-0.050336053549424,0.0648407471580746,-1.95815812445986,-0.000577205751747451,0
0.2,0.00142519677092621,0.000818640591438736,-0.0710944846207699,-0.0410222271926404,0.00101035834719312,-0.00129635422013694,-0.0503307427353917,0.064838763120847,-1.95816193209287,-0.00056160413552428,0
0.21,0.00142508157128571,0.000818638253838203,-0.071089154060456,-0.0410220916302952,0.00101024777619877,-0.00129631227185075,-0.0503256187693557,0.0648368099326074,-1.95816562705878,-0.000546464167183061,0
0.22,0.00142496970570033,0.000818635985327462,-0.0710839764729812,-0.0410219900546124,0.00101014040817151,-0.00129627153575778,-0.0503206307065949,0.0648349404607004,-1.95816921269157,-0.000531772186685796,0
0.23,0.00142486109974106,0.000818633783867038,-0.0710789485434327,-0.0410218884868772,0.00101003617074674,-0.00129623198518901,-0.0503157881023242,0.064833122157673,-1.95817269222628,-0.000517514938191136,0
0.24,0.00142475602822064,0.000818631647477406,-0.0710740843952286,-0.04102175295827,0.00100993531502637,-0.00129619372536099,-0.0503111166609202,0.0648313290679799,-1.95817606880247,-0.000503679558094241,0
0.25,0.00142465382509729,0.000818629574236556,-0.0710693511317132,-0.0410216514071737,0.00100983722107348,-0.00129615650602605,-0.0503065600601374,0.0648296118249231,-1.95817934546638,-0.00049025356341935,0
0.26,0.00143456458290054,0.000824321115755607,-0.0715628467532355,-0.0413068549734538,0.00101685938513725,-0.00130517348856443,-0.0506555405894278,0.0652802689242151,-1.95818251771924,-0.000484104931546537,0
0.27,0.001381986260055,0.000794281273325316,-0.0689469041634372,-0.039801552355599,0.000979521335912304,-0.00125750018553822,-0.0488019008671917,0.062898439053656,-1.95818564920267,-0.000435361801873668,0
0.28,0.00134629918592758,0.000773605386910526,-0.06712793841296,-0.03876550577733,0.00095428580386283,-0.00122487770705166,-0.047508927842415,0.0612521536683451,-1.95818867494187,-0.00039860833562496,0
0.29,0.00142397429513458,0.000818454015875062,-0.0710368360125402,-0.0410128664807275,0.00100925860136382,-0.00129574953014817,-0.0502789845425372,0.064809806364545,-1.95819151025272,-0.00044020367921561,0
0.3,0.00142248561275973,0.000817662753050642,-0.0709630482416551,-0.0409732320253648,0.00100817585005187,-0.00129445708758806,-0.0502254723113891,0.0647453619145784,-1.95819406538923,-0.000428770050786228,0
0.31,0.00142410222224614,0.000818614953780549,-0.0710437794246127,-0.0410209296861719,0.00100930938414202,-0.00129595221711388,-0.0502820239179065,0.0648201615083606,-1.95819680804241,-0.000418696883264906,0
0.32,0.00142402558871982,0.00081861682546633,-0.0710402460299639,-0.0410210425367031,0.00100923427147318,-0.00129592768685193,-0.0502785371228881,0.0648190650316569,-1.9581994710313,-0.000407789868430396,0
0.33,0.00142394515524132,0.000818615203271137,-0.0710365142872217,-0.0410209410207158,0.00100915706264722,-0.00129589840615347,-0.0502749527772383,0.0648176911618283,-1.95820205522864,-0.000397201242468661,0
0.34,0.00142386677526232,0.000818613616216926,-0.0710328756521656,-0.0410208734562059,0.0010090818411105,-0.00129586985623276,-0.0502714467763289,0.0648163800403942,-1.95820456296013,-0.000386925914620869,0
0.35,0.00142379084000379,0.000818612076038753,-0.0710293499126173,-0.0410208058910162,0.0010090089617126,-0.00129584219806998,-0.0502680501209157,0.0648151078221626,-1.95820699648848,-0.000376954631105685,0
0.36,0.00142371750785315,0.000818610581399731,-0.0710259453161017,-0.0410207043817416,0.00100893856874957,-0.00129581549251302,-0.0502647831280271,0.0648138463070392,-1.95820935800926,-0.000367278395392484,0
0.37,0.00142364599637362,0.000818609130954206,-0.0710226229776446,-0.0410206368178839,0.00100886993550649,-0.0012957894448958,-0.0502615840076169,0.0648126437712168,-1.95821164965317,-0.000357888477092148,0
0.38,0.00142357646395328,0.000818607723396879,-0.0710193910642699,-0.0410205692539621,0.0010088032064365,-0.00129576411596023,-0.0502584730113027,0.0648114719754995,-1.95821387348782,-0.000348776404145164,0
0.39,0.00142350925983808,0.00081860635746013,-0.0710162673075191,-0.0410205016888134,0.00100873870277048,-0.00129573963852767,-0.0502554664264195,0.0648103377198266,-1.9582160315197,-0.000339933955178051,0
0.4,0.00142344380194731,0.000818605031914029,-0.0710132228500953,-0.0410204312134306,0.00100867588349903,-0.00129571579353832,-0.0502525385067497,0.0648092275075142,-1.95821812569585,-0.000331353152084833,0
0.41,0.0014233804395351,0.000818603745565514,-0.0710102753661195,-0.0410203636472076,0.00100861506998479,-0.00129569271376534,-0.0502497032950607,0.0648081535000006,-1.95822015790596,-0.000323026252831129,0
0.42,0.00142331905618206,0.000818602497255408,-0.071007419291348,-0.0410202960800259,0.00100855615249033,-0.00129567035602335,-0.0502469566197267,0.0648071109938222,-1.95822212998315,-0.000314945744465407,0
0.43,0.00142325902784403,0.000818601285860136,-0.0710046236456142,-0.0410202624453615,0.00100849855133303,-0.00129564848531945,-0.0502442568606363,0.0648061197933039,-1.9582240437072,-0.000307104336343266,0
0.44,0.00142320113694872,0.000818600110288608,-0.0710019277601246,-0.0410201948754533,0.00100844298911808,-0.00129562739801042,-0.0502416659626309,0.064805132007994,-1.95822590080452,-0.000299494953548642,0
0.45,0.00142314510869725,0.000818598969481932,-0.0709993180932549,-0.041020127304205,0.00100838920963486,-0.00129560699100374,-0.0502391584583521,0.064804174025729,-1.95822770295072,-0.000292110730511073,0
0.46,0.00142309071025901,0.000818597862412898,-0.0709967832241146,-0.0410200597322603,0.00100833699558383,-0.0012955871770396,-0.0502367236674554,0.0648032416146743,-1.9582294517718,-0.000284945004809255,0
0.47,0.00142303755042271,0.000818596788083676,-0.0709943038119008,-0.0410200260871677,0.00100828598307599,-0.00129556780899591,-0.0502343307617837,0.0648023589604893,-1.95823114884563,-0.000277991311161199,0
0.48,0.00142298629519622,0.000818595745527283,-0.0709919133197623,-0.0410199585121408,0.00100823678713107,-0.00129554913916348,-0.0502320362619745,0.0648014759562934,-1.9582327957035,-0.000271243375591633,0
0.49,0.00142293627857264,0.000818594733803994,-0.070989578632503,-0.0410199248611342,0.00100818878953031,-0.00129553091655707,-0.0502297837744894,0.0648006429906483,-1.95823439383113,-0.000264695109770762,0
0.5,0.00142288805014257,0.000818593752002799,-0.0709873274254835,-0.0410198572829186,0.00100814249759952,-0.00129551334944505,-0.0502276244650559,0.0647998077707112,-1.95823594467041,-0.000258340605520499,0
0.51,4.55793297222895,0.0455537104159844,12.1050903104519,-2.27803809566475,-0.188697492365406,4.55425310849534,-2.89700041432263,11.9720531901972,0.0514036077992867,15.7741136041732,2924.34534552959
0.52,4.55304887354869,0.0231384642733527,12.351225830179,-1.14903188192189,-1.02421552585864,4.43641431677002,-3.95776995210458,11.7562371012145,0.231972285999854,33.5095406180985,2924.34534552959
0.53,4.50976154734161,-0.0071995291448268,14.5178295643017,0.377721810618851,-2.33675109741978,3.85714860432008,-7.17925703550577,12.6241165014614,0.543094023317964,51.4432388172793,2924.34534552959
0.54,4.47972998049946,0.0140892850303767,16.0215240019499,-0.682400757898829,-3.73466800293046,2.47395111391187,-13.7596095439493,8.23577849006976,0.988878579719034,70.4605853286988,2924.34534552959
0.55,4.51010013479558,-0.0218136223490237,14.5053161045483,1.11544971442645,-4.50977395168391,-0.0584633621716169,-14.5139016410555,0.997538225858579,1.57892272363378,90.3462683959803,2924.34534552959
0.56,4.52422660867589,-0.0270591715950121,13.8012415829975,1.38743743078883,-3.33009608370644,-3.06264896432833,-11.147112162207,-8.25476482401464,2.30840195698571,108.433480662115,2924.34534552959
0.57,4.57249006036629,0.0184173821908008,11.3903540346897,-0.879730408747546,0.104457679063843,-4.57133384751102,1.18548551114191,-11.3626015828471,-3.11471819340818,126.481004784337,2924.34534552959
0.58,4.45901481732387,0.016724468325946,17.0664598388682,-0.801375096378095,3.80558263443417,-2.32392634596015,15.0137507778296,-8.15435718239142,-2.11526829344978,145.965308118393,2924.34534552959
0.59,4.55596307882617,0.0597232381752306,12.2213703057377,-2.93825296005311,3.8173535550117,2.48760492780605,8.51452174248562,9.24652054039614,-0.980149125494107,163.764055335848,2924.34534552959
0.6,4.50416386190709,-0.00773290800650894,14.8137742462027,0.434458103234354,-1.30077112568197,4.31225536945206,-3.83759163253219,14.3146621239498,0.291248632636122,183.014564773084,2924.34534552959
0.61,4.47648946001185,0.0800584230491652,16.199865288993,-3.94489704419522,-4.45043088416211,-0.488909175608698,-15.5679498090057,-5.96965550221279,1.69809645059428,201.047667949175,2924.34534552959
0.62,4.44986638651735,-0.0257821618388798,17.5335805037434,1.35698293938118,0.473222248390967,-4.4247074797498,0.413438865973666,-17.5811523024836,-3.04084155494039,219.702261010378,2924.34534552959
0.63,4.47964477722579,-0.00662544237450224,16.0472891623795,0.391699706477356,4.38133141188039,0.933378961560146,15.7810629895327,2.93717024387063,-1.36237767200181,238.517119605517,2924.34534552959
0.64,4.51185815699177,-0.0197264517732041,14.4392693947196,1.05137514959617,-1.98641646022596,4.05109896302918,-5.35429889363727,13.4509989858028,0.451517799280162,256.822008007052,2924.34534552959
0.65,4.40973360172587,0.0601817124313098,19.5481132508477,-2.92589621879377,-3.01839718426491,-3.2153772274374,-11.0230519850452,-16.4067646196961,2.40142944397431,275.021744146528,2924.34534552959
0.66,4.49684160678919,0.0984457904848188,15.1954525150298,-4.83755957985495,4.36072236263594,-1.10244114864303,15.8926969865617,1.3137512392021,-1.79653072421023,293.4307952339,2924.34534552959
0.67,4.40729756030586,0.0837945067602415,19.6754985421547,-4.10119266909996,-1.73486303543571,4.05235037388427,-11.8248356543153,16.2517163998097,0.423514636145702,311.849143754725,2924.34534552959
0.68,4.36192688936795,0.0261028022214345,21.9467973489804,-1.20535024264443,-1.57440552133538,-4.06796445398232,-6.67209097055697,-20.9427310818162,2.77830524584571,330.277196504505,2924.34534552959
0.69,4.40375018940899,0.0955694529901935,19.8585180013125,-4.67779614246129,3.79188060457171,2.24138143378977,14.4049107431946,14.4478739072389,-1.01524806082065,348.643650717405,2924.34534552959
0.7,4.41455358507986,-0.0229965015127358,19.3212454367582,1.27143571480545,-4.41044179583144,-0.191873292061285,-19.3557430357119,0.531305505169069,1.60906403661494,367.063692952706,2924.34534552959
0.71,4.35359913441809,0.0552952046729243,22.3719169609166,-2.68281083537767,4.07934830921628,-1.5217753957007,21.9642309799694,-5.02719603189685,-1.91515047781155,385.628036272756,2924.34534552959
0.72,4.43211900229854,0.0446936310267514,18.4489214030541,-2.14052748961145,-3.65205733384886,2.51160379070245,-16.5008354236999,8.52449348582195,0.978441266373612,404.004100685233,2924.34534552959
0.73,4.38602388438465,-0.00385871083442857,20.7566600622178,0.316226942012403,3.33978880024264,-2.84306721232822,15.588357093856,-13.7091961665063,-2.27690790640933,422.12685419378,2924.34534552959
0.74,4.40584659437071,0.107749045744713,19.7685999906191,-5.25862434151951,-3.34105871756439,2.87409476457786,-18.6281074673302,8.45247228566445,0.884841447348055,440.422241323702,2924.34534552959
0.75,4.33881025459241,0.0470156600996501,23.123552351995,-2.24407868005755,3.71671164567105,-2.23909344168217,21.0721843611727,-9.7825154610914,-2.10217190729046,458.862662176548,2924.34534552959
0.76,4.43304247443646,0.122265957085379,18.4151219631699,-5.9743984002435,-4.2731096737076,1.18631709963493,-19.3119426367469,-1.36346058184804,1.32756600304679,476.879075073943,2924.34534552959
0.77,4.397271692848,0.0381770834579124,20.2068177693605,-1.79223096099963,4.33389817760484,0.744837174540271,19.5654907237296,5.35902499726966,-1.39191418519537,495.372700187374,2924.34534552959
0.78,4.29360723391377,0.153415153549996,25.3931952708479,-7.52749609237345,-3.28874496412186,-2.76455346293367,-13.7956365024991,-22.6088030858563,2.30552983646902,513.440410575512,2924.34534552959
0.79,4.27617679139044,0.0457854558611623,26.267971831047,-2.15052361590459,0.668526824865467,4.22384376411225,1.7008577915937,26.3009159291462,-0.146265704335103,531.732016124877,2924.34534552959
0.8,4.340026818053,-0.062830083704448,23.0787775578538,3.2734167118445,2.76714067141177,-3.34405635500605,11.9023451666703,-20.0419412749294,-2.46479447673282,550.066464870827,2924.34534552959
0.81,4.28980277916028,0.205100308321009,25.5932073963309,-10.1082809549927,-4.29422527062384,-0.0640573625764795,-24.9096510136218,-11.6918302705882,1.63348706162214,568.152706700518,2924.34534552959
0.82,4.25099071048526,0.0972071907292302,27.5371849480787,-4.69363332789264,1.81431112730994,3.84560091427605,6.88771205725843,27.0718704802179,-0.417961994767218,586.246598295289,2924.34534552959
0.83,4.32709486702194,0.131708487302661,23.7354017587276,-6.42529862914895,3.0288373452257,-3.09309577123007,21.5665605181673,-11.8125876309208,-2.33626184052422,604.439121665095,2924.34534552959
0.84,4.30879552915217,0.0119394997807712,24.6536916795436,-0.428070568605395,-3.58471593705316,-2.39074739659669,-20.2341532187257,-14.0913732958444,2.16175077790157,622.673549347547,2924.34534552959
0.85,4.30340489575113,0.0522682365109353,24.9266088459298,-2.44753602849788,-2.05458946353164,3.78162502129277,-14.3013162539217,20.5620673711107,0.509836551270082,640.854634477083,2924.34534552959
0.86,4.22887016193382,0.121364531822826,28.6568517788498,-5.90527245288077,3.64376060214054,2.14966994451872,21.1085528313366,20.261204159289,-1.00910134261647,658.956778803516,2924.34534552959
0.87,4.30630654326791,0.0597035027038614,24.7884894304156,-2.79727172220081,2.88030381053028,-3.20182612143006,18.8857437579787,-16.2979329989302,-2.39514545602291,677.057696094171,2924.34534552959
0.88,4.25815037116742,0.098268973023043,27.1998001281054,-4.71475159598753,-2.15243459605426,-3.67539476576884,-9.07796462184977,-26.0700703479142,2.63487743524245,695.149780030869,2924.34534552959
0.89,4.22925709088464,0.0553521623370967,28.6480079738554,-2.5750735837159,1.32170829796369,-4.01780618967208,11.7429257234425,-26.2572477667661,-2.81069366096259,713.325691633767,2924.34534552959
0.9,4.25464628570436,0.111395537635349,27.3821037827808,-5.42257773567154,-2.68579560105035,-3.30165503522727,-12.4228144956515,-24.9971525753837,2.48486851842094,731.524219380337,2924.34534552959
0.91,4.25107911985728,0.0802842851518427,27.564064683454,-3.82320457956165,-4.24840522878262,-0.170798892799073,-27.2903124181131,-5.44365715788581,1.62986112844234,749.494705689925,2924.34534552959
0.92,4.23713928999089,0.145812430517853,28.2647312075323,-7.07509899651117,-3.24785094280599,2.72508254572082,-26.6231782501734,11.8388528119906,0.907097959355533,767.514924245841,2924.34534552959
0.93,4.19858064921353,0.0434269755154371,30.1963693683436,-1.99803402332294,-1.26671423329174,4.00317379354542,-11.3056534470352,28.0712497606241,0.316801808147406,785.661841985714,2924.34534552959
0.94,4.19979937005058,0.205228375199201,30.1391234601846,-10.0450264447784,0.794953886754335,4.12898071593927,-5.69805282318264,31.2538239780154,-0.141375552920981,803.569997621463,2924.34534552959
0.95,4.28131640991549,0.0689060182708565,26.0670714448226,-3.26047060518784,1.99065916249539,3.79100175942174,8.83500990015254,24.7399572016806,-0.467433049774255,821.69241457384,2924.34534552959
0.96,4.18889167970537,0.0997828800374789,30.6921322121378,-4.75286593045318,2.65231242570979,3.2437646221449,15.1066678145169,27.1364202101539,-0.661603457375201,839.604978464735,2924.34534552959
0.97,4.24221951413656,0.186121911988365,28.0295852685757,-9.09208478430166,2.94890295776498,3.055329625086,11.7503592737725,27.0231884312447,-0.723829153082838,857.571145544566,2924.34534552959
0.98,4.17497430981923,0.148938791446067,31.3957030263534,-7.27198266183939,2.65935511055058,3.2218664850109,13.3398785785795,29.3363177624906,-0.654383839814492,875.644165334972,2924.34534552959
