t,iq,id,vq,vd,ia,ib,va,vb,theta_e,omega,r
0,0,0,0,0,0,0,0,0,0,0,0
0.01,0.00114254976027703,0.000650789116571216,-0.0561658056430735,-0.0325871252609738,-0.000537456071765862,-0.00120003641606355,0.0270130844494105,0.0590492313653524,-3.04490912617804,-0.00247667182357937,0
0.02,0.00126307483998431,0.000719869152410926,-0.0622504344169109,-0.0360462095614935,-0.0005946031235195,-0.00132665623787591,0.0298698443571753,0.0654388126949394,-3.04492742641485,-0.00262332595538108,0
0.03,0.00130593218657974,0.000744424848509209,-0.0643823748097244,-0.0372757921300766,-0.000614933252083743,-0.00137167209146523,0.0308891779905741,0.067678900317094,-3.0449459699172,-0.00259312188844566,0
0.04,0.00128027410105698,0.000730381109478648,-0.063169977162486,-0.0365725516762086,-0.000603453952775166,-0.00134476825728471,0.0303073465404662,0.0664037822453965,-3.04496306733341,-0.00241826379217605,0
0.05,0.00130499700393818,0.000744653127557783,-0.0644137799570984,-0.0372872056315455,-0.000615297247350239,-0.00137074241127662,0.0308998066662677,0.0677102111956382,-3.04497992195668,-0.00235871009638222,0
0.06,0.00130494513400219,0.000744970701101133,-0.0644478136656769,-0.0373031019143159,-0.000615640445911231,-0.00137071149029011,0.030913438220007,0.0677451211242069,-3.04499604672126,-0.0022482662321866,0
0.07,0.00134104757402154,0.000765899953001644,-0.0662426877083762,-0.0383511110591296,-0.000633011557788689,-0.00140865457139176,0.0317845093829732,0.0696322221215354,-3.04501122487162,-0.00222585220930271,0
0.08,0.00130461623528775,0.000745441967377681,-0.0644995501044627,-0.0373267240117546,-0.000616182220787726,-0.00137041114957862,0.0309339880115553,0.0677979695479794,-3.04502595319908,-0.00204290281471492,0
0.09,0.00130320507567029,0.000744977316899788,-0.0644621373030638,-0.0373034526919083,-0.000615874754222869,-0.00136895323479618,0.0309153707688442,0.0677580591416356,-3.04503980300642,-0.00194495836664251,0
0.1,0.00130265121038549,0.000744963484756224,-0.0644649642237693,-0.0373027463135474,-0.000615932388745136,-0.00136839251022272,0.0309152868827805,0.0677603979611993,-3.04505296294903,-0.00185366755107267,0
0.11,0.00130214320650916,0.00074495997981554,-0.0644685471499255,-0.037302583258739,-0.000615994975591952,-0.00136787882936691,0.0309156267987401,0.0677635618089718,-3.04506547065432,-0.00176694340371328,0
0.12,0.00130166104683258,0.00074495686537097,-0.0644719842341295,-0.0373024290081219,-0.0006160546003343,-0.00136739129056447,0.0309159476118914,0.0677666005068175,-3.04507735852537,-0.00168451796892879,0
0.13,0.00136391965576824,0.000780643987936481,-0.067534798608909,-0.0390894017522674,-0.000645593031957426,-0.00143279150624937,0.0324002953588619,0.0709869791803721,-3.04508920932757,-0.00174386937530504,0
0.14,0.00144242961839021,0.000826348125547191,-0.0715675002517926,-0.0413779474000987,-0.000683536735243918,-0.00151533229364941,0.0342904681963233,0.075221043692657,-3.04510039321828,-0.001844441323251,0
0.15,0.00130364959941081,0.000746782701564109,-0.0646455250998063,-0.0373938353034086,-0.000617726573776791,-0.0013695256702411,0.0309925004003322,0.0679470952511109,-3.04511113826506,-0.0014578793160055,0
0.16,0.00129997943676208,0.000744986858251906,-0.0644883989026546,-0.0373039127461214,-0.000616305799722244,-0.00136569363921819,0.0309187856427135,0.0677817393814741,-3.04512077696074,-0.00138365227477109,0
0.17,0.0012995306798759,0.000744944043016229,-0.0644872462332783,-0.0373017673218772,-0.000616318897315365,-0.00136523720721934,0.030917381237629,0.0677801026075798,-3.04512992439885,-0.00132005253797578,0
0.18,0.00129917586545857,0.000744940856153308,-0.0644896447943277,-0.037301628768844,-0.00061636176458985,-0.00136487837689229,0.0309176016021015,0.0677822078843773,-3.04513861820397,-0.00125976925272269,0
0.19,0.00129884073177753,0.000744938672358747,-0.0644920259144953,-0.037301502904046,-0.000616403141009492,-0.00136453949735932,0.0309178071102389,0.0677843103450241,-3.04514688117139,-0.00120247726993018,0
0.2,0.00129852212256375,0.000744936615608223,-0.0644942835114625,-0.0373014109281115,-0.000616442488595278,-0.00136421732957611,0.0309180305233023,0.0677863057810712,-3.04515473465868,-0.00114802454139448,0
0.21,0.00129821934583111,0.000744934661002579,-0.0644964300760708,-0.0373013189546965,-0.000616479877650023,-0.00136391116994685,0.0309182382800857,0.0677882027344975,-3.04516219895861,-0.00109627027472218,0
0.22,0.00129793147025703,0.000744932803080527,-0.0644984638133259,-0.0373012269833153,-0.000616515419409254,-0.00136362007913481,0.0309184318556217,0.0677899988223115,-3.04516929335714,-0.00104708074281441,0
0.23,0.00129765803018023,0.000744931037059299,-0.0645004038934926,-0.0373011350120754,-0.000616549179571354,-0.00136334358194674,0.0309186106408946,0.0677917125587598,-3.04517603618572,-0.00100032884763858,0
0.24,0.00129739809427812,0.000744929358401091,-0.0645022442266562,-0.037301043040602,-0.000616581267599961,-0.00136308074026786,0.0309187763991713,0.0677933373435037,-3.0451824448666,-0.00095589378967768,0
0.25,0.00129715084114093,0.000744927762791213,-0.0645039821048892,-0.0373009819937053,-0.000616611781354183,-0.00136283072593223,0.0309189612913926,0.0677948729458501,-3.0451885359587,-0.000913660755750872,0
0.26,0.0013098034389386,0.00075222170055518,-0.0651339696542871,-0.0376661951831244,-0.000622661876096171,-0.00137612307716203,0.0312222322658752,0.0684569096208305,-3.04519427585154,-0.000902927780986332,0
0.27,0.00126290040181744,0.00072553304608574,-0.0628597107351739,-0.0363298189139515,-0.000600619073437913,-0.00132686561282433,0.0301113326356347,0.0660644126813855,-3.04519997825576,-0.000758113463917345,0
0.28,0.0012535562035466,0.000720053416167617,-0.062250144173577,-0.0360554137946124,-0.000596071134920355,-0.00131703427430708,0.0298972127358735,0.0654311086881292,-3.04520524455217,-0.000701002998560481,0
0.29,0.00129526214792638,0.000744361567615825,-0.0644605447016457,-0.0372726041407624,-0.000616259259049053,-0.00136088305920482,0.0308963523045683,0.0677482417258104,-3.04521002775602,-0.000762351206727689,0
0.3,0.00129027579765134,0.000741707486455677,-0.0642263192390255,-0.0371397258490971,-0.000614102688660681,-0.0013556620217624,0.0307868968934556,0.0675021947703261,-3.0452139659299,-0.000724159235807728,0
0.31,0.00129579805843131,0.000744847484960428,-0.0645058014562152,-0.0372969529193565,-0.000616702843390478,-0.00136145803719407,0.030916805256107,0.0677953705744965,-3.04521847072395,-0.000705793425984879,0
0.32,0.00129575872770101,0.000744917158179318,-0.0645136263251845,-0.0373004360040753,-0.000616781839129864,-0.00136142293791565,0.0309198111380182,0.0678033611770755,-3.04522277594316,-0.000676247878121296,0
0.33,0.00129559599218195,0.000744917681399946,-0.0645149506142438,-0.0373004534261751,-0.000616803589322135,-0.0013612584836171,0.0309199785408348,0.0678045544605294,-3.04522686837359,-0.000647879936055122,0
0.34,0.00129543802309204,0.000744916697832644,-0.0645160467929747,-0.0373004260662182,-0.000616823103771723,-0.00136109875359429,0.0309201095763749,0.0678055226533922,-3.04523075801298,-0.000620911004110614,0
0.35,0.00129528820956735,0.000744915729578562,-0.064517103739548,-0.0373003648948084,-0.000616841585262416,-0.00136094726154569,0.0309201976697617,0.0678064545031542,-3.04523445489738,-0.000595278383834548,0
0.36,0.00129514549087977,0.000744914808508597,-0.0645180905302766,-0.0373003345903421,-0.000616859180741566,-0.00136080294885646,0.0309203108211105,0.0678073251570238,-3.04523796857894,-0.000570916010121614,0
0.37,0.00129501022926445,0.000744913933024676,-0.0645190463448633,-0.0373002704819531,-0.00061687586627726,-0.00136066617034397,0.0309203815047461,0.067808167110448,-3.04524130813618,-0.000547760938349825,0
0.38,0.00129488136399925,0.000744913100887949,-0.0645199381464259,-0.0373002401450828,-0.000616891753568024,-0.0013605358646823,0.0309204807451883,0.0678089537139891,-3.04524448219842,-0.000525753339543368,0
0.39,0.00129475914090224,0.000744912309954756,-0.0645207972478651,-0.0373001789225154,-0.000616906828115534,-0.00136041227129737,0.0309205417280386,0.0678097096616436,-3.04524749896672,-0.000504836349525181,0
0.4,0.0012946428484909,0.000744911558185906,-0.0645216061429928,-0.0373001485553464,-0.000616921167051255,-0.00136029467701366,0.0309206281199432,0.0678104232267472,-3.0452503662358,-0.000484955922077522,0
0.41,0.00129453214401471,0.000744910843644085,-0.0645223648981716,-0.0373001181734568,-0.000616934811596791,-0.00136018273592407,0.030920709689205,0.0678110912765939,-3.04525309141424,-0.000466060689297616,0
0.42,0.00129442702747366,0.00074491016448659,-0.0645230898084627,-0.0373000877764084,-0.000616947769588826,-0.00136007644351673,0.0309207853448335,0.0678117298128977,-3.045255681544,-0.000448101828870352,0
0.43,0.00129432726603712,0.000744909518963106,-0.064523784777296,-0.0373000573647106,-0.000616960070867196,-0.00135997556375272,0.0309208551651529,0.0678123425141261,-3.04525814331695,-0.00043103293791818,0
0.44,0.00129423227762415,0.000744908905408656,-0.0645244354730283,-0.0373000240295443,-0.000616971778489505,-0.00135987951317343,0.030920918064196,0.0678129146386207,-3.0452604830941,-0.000414809913106814,0
0.45,0.00129414206224336,0.000744908322240955,-0.0645250558726998,-0.037299993591619,-0.000616982899169774,-0.00135978828791227,0.0309209789008397,0.0678134604715294,-3.04526270692143,-0.000399390836685036,0
0.46,0.00129405638705983,0.000744907767955917,-0.0645256476868132,-0.0372999631407205,-0.000616993461680375,-0.00135970165253083,0.0309210350030859,0.0678139812578482,-3.04526482054448,-0.000384735868179433,0
0.47,0.00129397490282758,0.000744907241123947,-0.0645262061456256,-0.0372999326781922,-0.000617003505670621,-0.00135961925590097,0.030921087201027,0.0678144720812005,-3.04526682942476,-0.00037080714145004,0
0.48,0.0012938974931313,0.000744906740386182,-0.0645267374168501,-0.0372999022039273,-0.000617013048091768,-0.00135954097881922,0.0309211352530071,0.0678149389202033,-3.04526873875264,-0.000357568666852428,0
0.49,0.00129382368581748,0.000744906264450348,-0.0645272293581797,-0.0372999025653958,-0.000617022139820268,-0.001359466348157,0.0309212113655769,0.0678153725029692,-3.04527055346211,-0.000344986238245117,0
0.5,0.0012937538431168,0.00074490581208915,-0.0645277109901532,-0.0372998720677127,-0.000617030751212549,-0.00135939572145927,0.0309212516565089,0.0678157956370882,-3.0452722782417,-0.000333027344606733,0
0.51,4.67694643517297,0.0616127343036696,6.15393873578201,-3.08018776881555,-0.479379482684237,4.65272171939037,-3.77083918799557,5.75667355972146,0.115842725362588,35.6210182302238,3609.91726904151
0.52,4.64824934371097,-0.080647650346661,7.59024215522868,4.04968132849395,-2.3939650154619,3.98517973365825,-0.287988624275421,8.59818337729843,0.523598130621161,75.6488584300124,3609.91726904151
0.53,4.66850273062273,-0.013807752560655,6.579028460071,0.709739199904581,-4.39970179032629,1.56132397536909,-5.95432248581228,2.88676097819956,1.22683158704096,116.426212921231,3609.91726904151
0.54,4.56683144489002,0.0224000091545384,11.6641895479862,-1.09651164325373,-3.60652872907302,-2.80167837783307,-8.49922785108695,-8.06342244524305,2.23615680869184,159.546387891113,3609.91726904151
0.55,4.49747397453759,-0.0407283391015345,15.1337705593497,2.06205939812271,1.91349262308423,-4.07031656393592,4.44025299403813,-14.6139403876354,-2.71119803460678,204.381156133353,3609.91726904151
0.56,4.61930337423426,0.0803431245301107,9.0440819073513,-3.98959678414493,4.07409083919975,2.178578094726,5.9578327595076,7.88774548630195,-1.06235356562337,244.972175265094,3609.91726904151
0.57,4.51507049036839,-0.0508027104677956,14.2575690274447,2.58867003089792,-3.51618060485279,2.83282833974165,-9.35460786388377,11.0666525568567,0.881365404088925,286.019414113747,3609.91726904151
0.58,4.57847840942853,0.0799434232916938,11.0891081322555,-3.96401332921655,-0.0822971735082699,-4.57843670609995,3.95831197959579,-11.0911445358561,3.14107856120496,329.622476336447,3609.91726904151
0.59,4.58371872399444,0.0689715534044573,10.8291105064141,-3.39583043499167,2.5686591305423,3.79700206570367,3.09119116442498,10.9199741706803,-0.579731190329698,369.801014192309,3609.91726904151
0.6,4.54173525694335,-0.050200285607218,12.9303971008949,2.56390060058712,-3.37843783334237,-3.03579265087032,-11.4052931145213,-6.60969321893047,2.2917730292412,412.861769772982,3609.91726904151
0.61,4.46326227468984,0.0290919213351801,16.8561390713323,-1.3961597136354,3.27553995505967,3.0318961847933,11.3403313973885,12.5489270511657,-0.817488995778145,454.055582142115,3609.91726904151
0.62,4.46986016233941,0.0171466942416527,16.528437764244,-0.787317530167761,-2.06110223918254,-3.96633350080765,-6.86506428029311,-15.0558963946767,2.66618554403011,495.289318396932,3609.91726904151
0.63,4.50068441289378,0.0406884006897483,14.98943779226,-1.97243487487761,-0.721251161719816,4.44270328652877,-4.47967921748401,14.4397444150548,0.169981242978757,537.729240895921,3609.91726904151
0.64,4.57424276481689,-0.0181953692056374,11.313821805132,0.97455020848316,4.12422887672675,-1.97857628493658,9.75611335399843,-5.8112446318382,-2.02208642493719,579.518923326462,3609.91726904151
0.65,4.56427409946782,0.00751885460285351,11.8145542582525,-0.308913665275324,-3.17399838518675,-3.27999829863969,-7.97949208325647,-8.71818938008538,2.37426425794075,620.715084108939,3609.91726904151
0.66,4.51571757803053,-0.0193944350573958,14.2447333174884,1.07164135205973,-3.22883680122937,3.15700717447268,-9.38985938533822,10.7652860248757,0.792351101073449,661.872458723966,3609.91726904151
0.67,4.43649165190115,0.0393024551996408,18.2084759132495,-1.86258806443982,2.10535241052291,3.90531613161837,6.85095019628069,16.9729876801128,-0.485576820935572,703.215968757598,3609.91726904151
0.68,4.41898301367601,0.012833721495471,19.0864583597468,-0.532104213281327,4.39357236119288,0.473389360385909,18.9120682449072,2.6286312621047,-1.46056028737341,744.642312460224,3609.91726904151
0.69,4.46174868439131,0.0473182014317977,16.9508266745499,-2.28565537896623,3.75045819531682,-2.41733399844441,15.5621493450281,-7.09748217504421,-2.13272132260451,786.174741630869,3609.91726904151
0.7,4.48757676116976,0.108054669181382,15.6620443569912,-5.32411916220627,2.5913165329207,-3.66539215161688,13.6186996406694,-9.39025550189998,-2.50213121417483,827.692445096603,3609.91726904151
0.71,4.45996104301704,0.0718787884746792,17.0454475624238,-3.49828573249801,2.35712845906765,-3.78686737197325,12.1792877547722,-12.4278009098953,-2.5687154404063,868.799265500429,3609.91726904151
0.72,4.48154108302573,0.00851075154079872,15.9692344518249,-0.298690249737155,3.23270902525913,-3.10384846114423,11.7466475142254,-10.8222888992662,-2.33396217482858,909.462884038756,3609.91726904151
0.73,4.38490258420327,0.0197400236784944,20.8038953390345,-0.855968597839021,4.26751301318446,-1.00801439661773,20.461085313204,-3.85729585639651,-1.798249570909,950.794956063355,3609.91726904151
0.74,4.42656154762967,0.0677195142298248,18.7236882843096,-3.28037577101766,3.66415015192167,2.48455966556119,13.4521138348719,13.4304877625766,-0.959641596582742,992.265783843701,3609.91726904151
0.75,4.39308405742042,0.061363298390098,20.400392770701,-2.92272012058727,-0.724776518331081,4.33331881915313,-6.52171215365715,19.5495674808164,0.179689940362243,1032.81079093473,3609.91726904151
0.76,4.47016857765944,0.0265250436920139,16.549112534936,-1.21250497346523,-4.46607507144205,-0.19309103262612,-16.4695733465207,-2.02396832688393,1.61993820045485,1074.35470736194,3609.91726904151
0.77,4.42348003408218,0.127024578692488,18.8864439613248,-6.19659784660818,0.836437317149287,-4.34553603943125,10.1494247576261,-17.0904876310226,-2.92272821922738,1114.82877220465,3609.91726904151
0.78,4.31041468241091,-0.00404643643824665,24.5426947172923,0.336674057261992,3.32333124473953,2.74502468945717,19.151244178088,15.3521027822995,-0.881348707347962,1156.10177405593,3609.91726904151
0.79,4.44075924068463,0.149223915327668,18.0285354905614,-7.35210124460076,-4.39643170687794,0.64342727435972,-18.7358636429074,-5.29612105221093,1.45906644868719,1197.09883204851,3609.91726904151
0.8,4.36462557712465,0.120446478852622,21.8383552079067,-5.85180542171691,3.50040332510007,-2.60991194188368,21.2281188164462,-7.7797401238849,-2.18388848349305,1237.45428332822,3609.91726904151
0.81,4.3140042012805,0.060572318083377,24.3726070761742,-2.86438958107782,-2.91307706962653,3.18249638504113,-18.7925499247245,15.7819127702728,0.755267671997604,1278.28313064564,3609.91726904151
0.82,4.44063326275157,0.0767423575918728,18.0443059645377,-3.68256617300821,3.28970896680538,-2.98377748456964,15.9995985812151,-9.1198199872813,-2.29018717851839,1319.25396507685,3609.91726904151
0.83,4.34186988118515,0.127574138639636,22.9857096041219,-6.23938507125679,-4.07459366095835,1.50525603273012,-23.7754252188112,1.41489495622755,1.24629627376022,1360.064937771,3609.91726904151
0.84,4.28337507017094,0.0762347028470933,25.9138058612714,-3.6713529411356,4.02317184313329,1.47214199121538,22.850693228898,12.7612689648343,-1.20221767444897,1400.69612955265,3609.91726904151
0.85,4.34465120848147,0.154981151629827,22.8533399050195,-7.60618137411482,-1.06396576966957,-4.21520938052802,2.63701073006966,-23.9410800575034,2.93000257500283,1441.29106201221,3609.91726904151
0.86,4.32911746319516,0.111270189675568,23.6334074745396,-5.40444236762046,-3.75838894854853,2.15131391867388,-23.3692162516407,6.45179648986292,1.07661287378933,1481.79163860423,3609.91726904151
0.87,4.33291547817048,0.0718451700493108,23.4468993594085,-3.40711510699324,2.06237105463029,3.8112916317768,7.79224808195821,22.3751288879361,-0.47942126466666,1522.21288414674,3609.91726904151
0.88,4.21760924878674,0.127681280949774,29.2157218134591,-6.18146304361358,-4.0375914088089,1.22571852416,-29.8157447090409,1.67040530599251,1.30632556460495,1562.54152029306,3609.91726904151
0.89,4.19439710152669,0.0653708200083163,30.3798560182622,-3.08972131613127,-1.35247175120936,3.97090173028555,-13.1505163155942,27.5598612140009,0.343856324490306,1603.1787741514,3609.91726904151
0.9,4.24145690055535,0.0980288346917582,28.0303530072021,-4.74541049480159,1.43456645795001,3.99269149439628,4.36420694780912,28.0922286084467,-0.321826116291813,1643.82310024927,3609.91726904151
0.91,4.19447461967378,0.0729267248530507,30.3830243802272,-3.43458714331654,2.72963695394901,3.18559535125246,16.7187635699313,25.6009277962197,-0.691083581091375,1683.92925125131,3609.91726904151
0.92,4.21018255780236,0.00795501169841595,29.6012939307425,-0.240893729423487,2.92054112599896,3.03251380600041,20.3197928076777,21.5267427265747,-0.764701633315984,1724.49862000471,3609.91726904151
0.93,4.2902386438615,0.0530580858124023,25.6021602081471,-2.44032170384779,2.26065160003389,3.64669948378213,11.1295149542694,23.1853331704462,-0.542569355669375,1764.63967472473,3609.91726904151
0.94,4.2425045410485,0.17229741514565,27.9925335080403,-8.46243783684464,0.279104001635813,4.23681863387541,-7.75467007700989,28.1968061726492,-0.0251909111373723,1805.12743761989,3609.91726904151
0.95,4.21106341248354,0.16074950968436,29.5683310387843,-7.8092766133411,-2.87147000216086,3.08440520935749,-26.4670813449729,15.3220301109677,0.787815871189619,1845.11583628108,3609.91726904151
0.96,4.24761845692706,0.0374360907038669,27.7443753569071,-1.68469440842326,-4.03764669078584,-1.31949733493506,-25.7574779613032,-10.4470516543046,1.89546735046098,1885.58089196044,3609.91726904151
0.97,4.17759714754825,0.154576438074568,31.2492455383946,-7.56622091382036,0.496599302738288,-4.15085544616178,12.3311467060322,-29.6935324026953,-2.98553637318149,1925.69753653918,3609.91726904151
0.98,4.1982894293488,0.127263124309747,30.218399552939,-6.10667605927162,4.06756738651757,1.0472466717682,27.3212545101903,14.2825843607993,-1.28850261071885,1965.71514921937,3609.91726904151
