t,iq,id,vq,vd,ia,ib,va,vb,theta_e,omega,r
0,0,0,0,0,0,0,0,0,0,0,0
0.01,0.000913253882981913,0.000519070948644017,-0.0447757801384807,-0.0259840010125338,-0.000238256224106066,-0.00102308419799275,0.0121939581811313,0.0503124853242785,-2.85355357699336,-0.00241127938190124,0
0.02,0.00101531890553017,0.000576919966187389,-0.0499093453852572,-0.0288798444945145,-0.000264748621936062,-0.00113737297949951,0.0135132048842378,0.056056948441463,-2.85357158311767,-0.00256272009923719,0
0.03,0.00105537574243238,0.000599832126415905,-0.0518995036803168,-0.0300267990523274,-0.000275360230889904,-0.00118228307982462,0.0140486641908021,0.0582906697340676,-2.8535898602769,-0.00254191246758484,0
0.04,0.00103160051503796,0.000586867155237146,-0.0507804869565781,-0.0293777754589295,-0.000269701871187242,-0.00115579997456343,0.0137451801655677,0.057033162008419,-2.85360678337794,-0.00235547812936942,0
0.05,0.00105472264037396,0.000600275380097951,-0.0519427206003731,-0.0300489785030629,-0.000276010298741607,-0.00118177353797491,0.0140596079996524,0.0583379358166028,-2.85362333925657,-0.00230047939442131,0
0.06,0.00105515056190141,0.000600879716776951,-0.0519990187708399,-0.0300792291860889,-0.000276486946782751,-0.00118235109446119,0.0140735491001566,0.058400284222638,-2.85363917932796,-0.002188272760338,0
0.07,0.00108234633921101,0.000616800110775151,-0.0533556312541978,-0.0308761915533222,-0.000284046521435806,-0.00121294416537445,0.0144533230566532,0.0599271561480385,-2.85365403056648,-0.00215666439118189,0
0.08,0.00105521909501649,0.000601622234857878,-0.0520678754114786,-0.030116412746819,-0.000277214048148009,-0.00118261955990597,0.0140913587942542,0.0584764531579474,-2.85366845126294,-0.00197893578358068,0
0.09,0.00105334504951186,0.000600930767640697,-0.0520069355181633,-0.0300817919028479,-0.000277099154476625,-0.0011806225643349,0.0140762568758434,0.0584080006372578,-2.85368196185844,-0.00187708103565115,0
0.1,0.0010527081153155,0.000600896408496497,-0.0520046039717217,-0.0300800796935488,-0.000277262171551847,-0.00117999854153361,0.0140760248098057,0.0584050987001956,-2.85369476253399,-0.0017837059452975,0
0.11,0.00105215884284566,0.000600892003888727,-0.0520050462950398,-0.0300798604242763,-0.000277428219959009,-0.00117946725842056,0.0140763977200663,0.0584052897477591,-2.85370689749771,-0.0016953365247349,0
0.12,0.00105164088613745,0.000600889105016979,-0.052005598929869,-0.0300797081805457,-0.000277586064658428,-0.00117896660115184,0.014076766745498,0.0584056144756137,-2.85371840170043,-0.00161156758958775,0
0.13,0.0011012674392649,0.000629382326096136,-0.0544459972375286,-0.0315060320679504,-0.000290831146518815,-0.00123463732707294,0.0147522290576235,0.0611503753846785,-2.85372979917556,-0.00166628768986084,0
0.14,0.00114961210021951,0.000657693815788538,-0.0569573682944961,-0.0329232778830979,-0.000304266397475872,-0.00128902718965298,0.01539886273755,0.0639606055005161,-2.85374060272224,-0.00172173874894504,0
0.15,0.00105490639807259,0.000603457368152144,-0.0522373820078171,-0.0302082760399731,-0.000279160021092297,-0.00118281781627406,0.0141361471024354,0.0586639017235994,-2.85375095513044,-0.00138752209729059,0
0.16,0.00104998532081593,0.0006009956302809,-0.0520186045520278,-0.0300850358020361,-0.000278207456656532,-0.00117739778010933,0.0140806243589501,0.0584190090331237,-2.85376019801913,-0.00130784588673118,0
0.17,0.00104937644620334,0.000600881941428412,-0.0520085263928978,-0.0300793527373813,-0.000278281568142807,-0.0011767792495677,0.0140785462198062,0.0584076092217216,-2.85376893317025,-0.00124364883212561,0
0.18,0.00104899342286639,0.00060087484083859,-0.0520084182957279,-0.030079000632547,-0.000278393227448137,-0.00117640766168907,0.0140787228863434,0.0584072890533854,-2.85377721298527,-0.00118333056991508,0
0.19,0.00104863962003233,0.00060087267473395,-0.0520087674880501,-0.0300788900620749,-0.000278500811686295,-0.00117606561119419,0.0140789762064626,0.0584074819862173,-2.85378506237496,-0.00112617340026903,0
0.2,0.00104830456007089,0.000600870827994235,-0.0520091142343602,-0.0300787882335152,-0.000278602897070444,-0.00117574173539254,0.014079214777169,0.0584076807988275,-2.85379250377108,-0.00107198834650886,0
0.21,0.00104798679195124,0.000600869086385181,-0.0520094352764084,-0.0300787143107954,-0.000278699715763533,-0.00117543457644862,0.0140794648143539,0.0584078683304119,-2.85379955838344,-0.00102061974661535,0
0.22,0.00104768584167587,0.000600867435504218,-0.0520097533409815,-0.0300786154030478,-0.000278791412822421,-0.00117514367037991,0.0140796703253839,0.0584080510775929,-2.85380624631535,-0.000971921152490428,0
0.23,0.00104740043701075,0.000600865870251268,-0.0520100486058487,-0.0300785414735128,-0.00027887836748434,-0.00117486779070344,0.0140798859576969,0.0584082239464172,-2.85381258662647,-0.000925753781695896,0
0.24,0.00104712981708937,0.000600864386177205,-0.05201032463494,-0.0300784675356913,-0.000278960813225864,-0.00117460620171106,0.0140800877956529,0.0584083830078713,-2.853818597385,-0.000881986067894732,0
0.25,0.00104687328341588,0.000600862979080405,-0.0520105859274159,-0.0300783906786172,-0.000279038964890981,-0.00117435822781292,0.0140802727710716,0.0584085315088546,-2.85382429572023,-0.000840493283329556,0
0.26,0.00105737668351151,0.000606958300748118,-0.0525336336625075,-0.0303835319233943,-0.000281908974876296,-0.00118615815116073,0.0142247336708888,0.0589965984605786,-2.85382963419793,-0.000831129892201273,0
0.27,0.00102321935387126,0.00058751041727953,-0.0508834334773943,-0.0294099875861188,-0.000272961017712089,-0.00114788441027756,0.0137598654204093,0.0571378795185497,-2.85383497474471,-0.000699086964021427,0
0.28,0.00102011708717826,0.000585726375027778,-0.0506167798393853,-0.0293206912868225,-0.000272136335961449,-0.00114440205898352,0.0137501947018031,0.0568567804620386,-2.85383984488858,-0.000655706786783968,0
0.29,0.00104472777405312,0.000600171783580205,-0.0519508666268879,-0.030043788503377,-0.000279008539777451,-0.0011720991964911,0.0140652085254255,0.0583411662555407,-2.85384428084234,-0.000691549198576107,0
0.3,0.00103835232723272,0.0005967642607634,-0.0516486930259308,-0.0298732349116816,-0.000277554626483275,-0.00116501784008307,0.013987631191376,0.0580029639676232,-2.85384788368483,-0.000648250121811873,0
0.31,0.00104526837206426,0.000600670522626787,-0.0519944686681616,-0.0300687774575811,-0.000279342424694816,-0.00117275694675249,0.0140772476456794,0.0583899584569144,-2.8538520145689,-0.000637677418952163,0
0.32,0.00104542972842728,0.000600846736654237,-0.0520111674061715,-0.0300775973691565,-0.000279470247399062,-0.00117296057003051,0.0140811973254149,0.0584084178893472,-2.85385597380521,-0.000609780495802555,0
0.33,0.00104527698377772,0.000600853844179797,-0.0520121249630453,-0.0300779497864308,-0.000279524813524909,-0.00117281507216822,0.0140814828730686,0.0584093832069983,-2.85385972930964,-0.000582479130199254,0
0.34,0.00104511748646539,0.000600853328721322,-0.0520123165230842,-0.0300779180984261,-0.000279573756403605,-0.00117266099017645,0.0140816060884304,0.0584095077637486,-2.85386328971125,-0.000556555970230752,0
0.35,0.00104496567253693,0.000600852511057685,-0.052012467363917,-0.0300778689348947,-0.000279620011094886,-0.00117251424137201,0.0140817132936655,0.0584095909218875,-2.85386666505702,-0.00053197827453639,0
0.36,0.00104482137157099,0.000600851720926414,-0.0520125900840802,-0.0300778446655543,-0.00027966395356938,-0.00117237475327033,0.0140818421028103,0.0584096566500034,-2.8538698649618,-0.000508677968787353,0
0.37,0.00104468492446358,0.000600850971141603,-0.0520127227588818,-0.0300777954663147,-0.000279705510210776,-0.00117224285388353,0.0140819344677329,0.0584097271912157,-2.85387289854362,-0.000486588746540022,0
0.38,0.00104455540824277,0.000600850260256788,-0.0520128390430041,-0.0300777711552083,-0.000279744951806151,-0.00117211765539081,0.0140820461394793,0.0584097912982413,-2.85387577444811,-0.000465647663146667,0
0.39,0.00104443281455722,0.00060084958628401,-0.0520129574121901,-0.0300777219227212,-0.000279782288540468,-0.00117199914696242,0.0140821245918334,0.0584098524377774,-2.85387850087047,-0.000445795041605647,0
0.4,0.0010443162204317,0.000600848947308973,-0.0520130496337597,-0.0300776946643397,-0.000279817789693524,-0.00117188644087645,0.0140822232577274,0.0584098967354396,-2.85388108558084,-0.000426974306576235,0
0.41,0.00104420591273799,0.000600848341516362,-0.0520131469671314,-0.0300776702961928,-0.000279851380846092,-0.00117177980966497,0.0140823153976928,0.0584099486467057,-2.85388353594452,-0.000409131823343205,0
0.42,0.00104410130939481,0.00060084776718444,-0.0520132364051223,-0.0300776459099703,-0.000279883233784813,-0.00117167869275524,0.0140824023217235,0.0584099947754647,-2.85388585894497,-0.000392216744978709,0
0.43,0.00104400206115618,0.000600847222680695,-0.0520133156956541,-0.0300776215067109,-0.000279913453875765,-0.00117158275296319,0.0140824850564299,0.0584100328692953,-2.85388806120181,-0.000376180867444962,0
0.44,0.00104390805160678,0.000600846706457226,-0.0520133934326733,-0.0300775970864971,-0.000279942080088422,-0.00117149187648303,0.0140825615298581,0.0584100710805721,-2.85389014899097,-0.000360978492218718,0
0.45,0.00104381893150065,0.000600846217046313,-0.0520134659090972,-0.0300775726504381,-0.000279969217146186,-0.00117140572635982,0.0140826331424848,0.0584101057711197,-2.85389212826275,-0.000346566296067886,0
0.46,0.00104373446800715,0.000600845753055958,-0.0520135344203274,-0.03007754819906,-0.000279994936440777,-0.00117132407737529,0.0140826998566159,0.0584101381038414,-2.85389400465671,-0.000332903207584779,0
0.47,0.00104365442829073,0.00060084531316708,-0.0520135996814786,-0.0300775208227101,-0.000280019309087193,-0.0011712467044069,0.0140827589916145,0.0584101678635644,-2.85389578352075,-0.000319950290143508,0
0.48,0.00104357857953053,0.00060084489612834,-0.0520136617038372,-0.0300774963428108,-0.000280042405929308,-0.00117117338244163,0.0140828164225203,0.0584101966415335,-2.85389746992429,-0.000307670630939207,0
0.49,0.0010435065724757,0.000600844500753459,-0.0520137140175953,-0.0300774718501231,-0.000280064330595137,-0.00117110377491235,0.0140828714760936,0.0584102173406928,-2.85389906867302,-0.000296029235800991,0
0.5,0.00104343852354157,0.00060084412591757,-0.0520137730156603,-0.0300774473440878,-0.000280085054345212,-0.00117103799186564,0.0140829197665228,0.0584102456159079,-2.85390058432256,-0.000284992929457403,0
0.51,2.949547752775,-0.0105093451170333,5.01809474719157,0.528514190638032,-0.23333657910332,2.9403225049452,0.147854163439072,5.04368330566572,0.0756284963633107,23.0430367992212,445.502038334
0.52,2.87324779436563,0.0266231478733428,0.963921428121616,-1.32774789293165,-0.92043230320714,2.72195996573102,-1.57101000251099,0.473272182561855,0.335345387686854,47.6200385478864,445.502038334
0.53,2.67258614677649,0.0148790858220564,3.41629066824526,-0.737337194648725,-1.85288765355852,1.9260699474388,-2.91064576632711,1.93464448711234,0.771602089485727,71.2170947082606,445.502038334
0.54,2.47140662422313,-0.0662192007554409,6.09725125481242,3.32501305867829,-2.43834962378426,0.408272944234388,-5.3476811836377,4.43108233537361,1.37810930862648,94.2061689886892,445.502038334
0.55,2.31259423755639,0.0363988203728821,6.58031139337087,-1.81205499351043,-1.95151653616344,-1.24137028753882,-4.49942756092864,-5.13217234289617,2.15307983825363,117.287768177961,445.502038334
0.56,2.233969825013,0.0216488098329901,3.33643441842977,-1.07565090375128,-0.125722390896008,-2.23053440468045,0.919013444239345,-3.3829327194804,3.09497841379383,139.140165938339,445.502038334
0.57,2.09520859404927,-0.00574775375499603,4.14816712100775,0.298493436518673,1.81380306073806,-1.04883294480503,3.43517766477545,-2.34434280916472,-2.09781346288499,157.967291974168,445.502038334
0.58,2.01458422826218,0.0489369752826473,2.54798282223177,-2.43489477983359,1.57801841777482,1.25331652565344,0.395958464013475,3.50202026636414,-0.875294313458953,175.501419756956,445.502038334
0.59,1.92027287162894,-0.0444966201146067,1.45481263708343,2.23781407148074,-0.920423852991192,1.68589672920987,1.32110313427978,2.31926241208946,0.476564505047437,193.525767188791,445.502038334
0.6,1.74383237777719,-0.0235872633300722,4.82092995021273,1.19126045232023,-1.6059911032644,-0.679926685026448,-4.91402276952278,-0.716133556490661,1.95775932393045,210.052184718202,445.502038334
0.61,1.62524697821674,-0.0679827546676633,6.00989077468641,3.41946025085683,0.710291494592903,-1.46339857449836,-0.73996880950261,-6.87487757649647,-2.73152125329568,224.74009700531,445.502038334
0.62,1.52493302537953,0.0738046914899811,6.08020319427514,-3.68724892768721,1.34420042175137,0.723873670292354,3.30454203324764,6.29640194785114,-1.02845169509895,240.015551607779,445.502038334
0.63,1.5427466995374,0.0221158988750529,0.774269590475139,-1.0935604146838,-1.07080186430435,1.11082845629688,-1.32165012656974,-0.220473858396289,0.78138754376201,253.416896666455,445.502038334
0.64,1.38192646242906,0.0536596433375722,4.69625993153374,-2.66892789671863,-0.656988898442648,-1.21694933839003,0.326992424376492,-5.39176310837305,2.68537366808214,266.231472399267,445.502038334
0.65,1.28819327080735,-0.0205818351087637,5.24935249585871,1.0401624138555,1.28826419464207,-0.0155202993854061,5.21814708732847,-1.18683631895099,-1.59881912354763,278.695514176333,445.502038334
0.66,1.23657642807203,-0.0740740911947611,4.19814837141352,3.72594518611452,-0.642117104217942,1.0593837160918,1.33860966471201,5.45116881447195,0.485078669803399,289.920131988821,445.502038334
0.67,1.13296003771234,0.0434947427328816,5.68501202734349,-2.1693763685698,-0.570531629588433,-0.979787680744004,-0.754957199950904,-6.03784690148662,2.65266008928918,301.095942089265,445.502038334
0.68,1.09441546598712,0.00329677215363111,4.42451104576566,-0.147650844690921,1.07666961412952,0.196312564316757,4.32341530344333,0.951934283442027,-1.38743203139114,310.925510068006,445.502038334
0.69,1.02485306064163,0.0306613940628064,4.62863106170312,-1.52687968431516,-0.802706173621522,0.637908077878221,-4.62199724990139,1.54684469085985,0.929206302828418,320.855533363127,445.502038334
0.7,0.998032885297902,0.0247215765794748,3.03818272829663,-1.22054190847943,0.146693687251091,-0.987502789163306,1.72318644736826,-2.78404477486999,-2.96935571470952,329.837544294047,445.502038334
0.71,0.954554830431526,-0.00119374604449551,2.33174176914259,0.0698411001946463,0.47208692253758,0.829644675086133,1.21638304383216,1.99055513561374,-0.518581401264038,338.478066747032,445.502038334
0.72,0.864242288023448,-0.0747377723255269,4.23225872346794,3.74419841421878,-0.758320914580862,-0.421247976291201,-5.39250652756224,1.6887596091829,1.99158990039775,346.542530824307,445.502038334
0.73,0.757203442254482,0.0250043954463077,7.08830614389508,-1.23967675063698,0.744642543950463,-0.139605710816768,7.1943338027134,0.14981178453609,-1.72311508459604,354.002934478102,445.502038334
0.74,0.754759511319238,-0.0343035531687428,4.77028820864073,1.71919530008005,-0.612073456482958,0.442950039570899,-2.66341278735036,4.31480177962936,0.898930444144745,361.401578754119,445.502038334
0.75,0.729429558305839,-0.0136924968386485,3.88553060389024,0.700992332596264,0.316856142641452,-0.657158390245691,0.984519238588203,-3.82354026956381,-2.71108713432095,367.900612554277,445.502038334
0.76,0.7524219447074,0.00778429926732521,0.566205161190805,-0.382475406352785,-1.93174364190602e-06,0.752462210472139,-0.388313833525452,0.562217117950531,0.0103478550241098,374.412687102464,445.502038334
0.77,0.60815906945852,-0.0222744043481207,5.80135036139722,1.11429686908291,-0.196254322167051,-0.576053681426018,-3.11149971834103,-5.02154289346366,2.77662837658649,380.413421476988,445.502038334
0.78,0.624227797389924,0.0773451338620976,3.1275123840176,-3.85907279076716,0.46008938815539,0.428906012633561,-0.950516521994553,4.87547893627265,-0.697183888607693,385.947276759078,445.502038334
0.79,0.551646088858955,0.042096439634755,4.94077401239243,-2.10555825108255,-0.484120140733089,-0.267793216717449,-2.97250623285688,-4.4731230796683,2.15222114510947,391.380396665271,445.502038334
0.8,0.511501630478319,0.00912869846404937,5.29605077308052,-0.453650773642541,0.487358360267509,0.155560534182006,4.87009593473354,2.12981651838019,-1.2439821959673,396.345605355054,445.502038334
0.81,0.53368458235241,0.044040344841357,2.59079950776012,-2.19365188294642,-0.535315713837274,-0.0139954254419747,-2.33808654522959,-2.4612399273498,1.67926936150501,401.050336554324,445.502038334
0.82,0.441306475550947,0.0319268220454686,5.70611247773277,-1.59846750781223,0.43756145212068,-0.0656559437306604,5.8118398046638,1.15643247403143,-1.64751451337455,405.503988881315,445.502038334
0.83,0.412822023698951,0.0117439495682845,5.7594297914932,-0.587047688857107,-0.399187648214668,0.105873344686952,-5.74099235396641,0.746098722577022,1.33998348079392,409.621215360911,445.502038334
0.84,0.472484259442447,-0.0385022329840012,1.42607598320643,1.93875433218532,0.456426957897599,-0.128055571803709,0.663637505423447,-2.31344901215498,-1.92563436744205,413.56056172617,445.502038334
0.85,0.41139390086556,-0.0552499019816612,3.19455365642429,2.76669407905027,-0.394365349567686,0.12951241021123,-1.66996231161983,3.88213795074248,1.1199853681647,417.33742384413,445.502038334
0.86,0.331415122664349,0.0190245916827631,6.01965600170667,-0.957680172102802,0.278038819989805,-0.181362436016939,5.69843420997616,-2.16362132673333,-2.0914397661002,420.792470031318,445.502038334
0.87,0.329588244947322,0.0059265950138645,5.02266586719261,-0.285617315901409,-0.275043695973852,0.181698929663764,-4.3929922811634,2.45160528679541,1.00497255101865,423.986486351374,445.502038334
0.88,0.336410187586089,-0.0791381916377546,3.59429801727696,3.96483179505482,0.323858271188155,-0.120625403089153,0.793540926661664,-5.29236829763308,-2.15838378352675,427.103710484723,445.502038334
0.89,0.25530035742566,0.0104957870839213,6.65774569503513,-0.53147496592564,-0.206628843180311,0.150309531348305,-5.8349965389472,3.24974749321215,0.982980785101911,430.005782516417,445.502038334
0.9,0.31390532922537,-0.045164455803294,2.7902371215153,2.27270287517869,0.288998396983059,-0.130599809821139,1.13178616059215,-3.41608864636437,-2.13813184412901,432.722075903578,445.502038334
0.91,0.258298145356868,0.052029692666299,4.66038392756932,-2.59791358595497,-0.197101157027468,0.17486038634345,-5.33467307636548,0.0979618330632537,1.043893032153,435.295213875333,445.502038334
0.92,0.224814076628852,0.0134429044617051,5.48514000677675,-0.675924983641124,0.194506621574924,-0.11353085437166,5.19909825114183,-1.87430329787552,-2.03940956544329,437.743954396407,445.502038334
0.93,0.290109879936391,-0.0292071149876027,1.44303608579351,1.45596835535585,-0.279152059782682,0.0842076333932496,-0.77485256853146,1.89784100855158,1.17748385651357,439.965566136182,445.502038334
0.94,0.262933857924488,-0.0263194663510552,2.07097156349502,1.3285453321926,0.258855926274205,-0.0531087317188304,1.58185992254067,-1.88458884161914,-1.87292218376235,442.01975886458,445.502038334
0.95,0.239803963093053,-0.0144822670173048,2.5156986838866,0.728937245519454,-0.238033147428427,0.0324945764461015,-2.32558135296142,1.20489034636866,1.37480330639187,444.016647795003,445.502038334
0.96,0.230928477929936,0.0155119160189493,2.28607954886081,-0.781327016503826,0.229086480014441,-0.0329843316168287,2.33876066600221,0.605665053969026,-1.6467243823878,445.904228177645,445.502038334
0.97,0.216836141392458,0.037220351832257,2.37218397143099,-1.86869848529671,-0.218613794789402,0.0247239869815562,-2.26111391501553,-2.00166298027102,1.62817576373474,447.636731598189,445.502038334
0.98,0.15532277161046,0.011700596738532,4.84982970319962,-0.576831810454796,0.154486750729873,0.0198975172752499,4.63351578153635,1.54405783241545,-1.36751511476964,449.26835737679,445.502038334
