t,iq,id,vq,vd,ia,ib,va,vb,theta_e,omega,r
0,0,0,0,0,0,0,0,0,0,0,0
0.01,0.000634235817938668,0.000348513206623584,-0.0306875923642165,-0.0174386364281377,-0.000721583688133651,5.50772999231243e-05,0.0351520063437364,-0.00318917161579706,1.99707568958572,-0.00428674111724216,0
0.02,0.000742876139325405,0.00040559471710424,-0.0361269770428333,-0.0202948208915631,-0.000844102244516261,6.21565260008727e-05,0.0412855014040308,-0.00354197672095721,1.99704350896778,-0.00444603715840893,0
0.03,0.000780375992051385,0.000427569619111455,-0.0380474442118684,-0.0213943915694827,-0.000887330366341028,6.66879983684844e-05,0.0434886416468567,-0.00375047322279074,1.99701266765175,-0.00410119802873397,0
0.04,0.000758941922638582,0.00041861798392714,-0.0371287535798486,-0.0209464788463578,-0.000864111236925103,6.74212772449368e-05,0.0424668629018849,-0.00372355659639335,1.99698649946475,-0.00341092892603689,0
0.05,0.000773524282464403,0.000429159743575126,-0.0379205331522185,-0.0214739509996533,-0.000881745546726575,7.10119137567135e-05,0.0434057860267118,-0.00387751795448063,1.99696349687968,-0.00305376569599232,0
0.06,0.000771886261238584,0.000430449855599294,-0.0379239295854579,-0.0215385049918031,-0.000880785888084612,7.28813956050045e-05,0.0434354854790613,-0.00393576341806149,1.99694348069389,-0.00263597826446108,0
0.07,0.000783581776819824,0.000439268942424886,-0.0385518770542339,-0.0219797940729972,-0.000895079650578941,7.6092206320171e-05,0.0441896180207301,-0.00407875361821377,1.99692674291606,-0.00238419157465345,0
0.08,0.000767427229590664,0.000431685121120454,-0.037839946142186,-0.0216003121312718,-0.000877233861207331,7.5877198586009e-05,0.0433844343843649,-0.00402813373172274,1.99691178689055,-0.00196051993873469,0
0.09,0.000762796721468052,0.000430752914362473,-0.0376692416563183,-0.0215536706603134,-0.000872631147507786,7.69531800084778e-05,0.0432096654328387,-0.0040567596770703,1.99689933098031,-0.00167356669785635,0
0.1,0.000760167455844032,0.000430636943283984,-0.0375865745987331,-0.0215478738333401,-0.00087018822461964,7.79435153087164e-05,0.0431319510365762,-0.00408610530726596,1.99688876505861,-0.00143985229763013,0
0.11,0.000758117885002611,0.000430621338093841,-0.0375252093721833,-0.0215470844097346,-0.000868314752324607,7.8784232420063e-05,0.0430757093700214,-0.00411113697848583,1.99687977406359,-0.00124237606976629,0
0.12,0.000756399629206427,0.000430618247894719,-0.0374742359683878,-0.0215469446682213,-0.000866748237523306,7.94982215762102e-05,0.0430292040351299,-0.00413240681116468,1.99687211915321,-0.00107444717177356,0
0.13,0.000788366508842162,0.000449113108598283,-0.039033572904322,-0.0224723689844234,-0.000903500439233117,8.31341860148821e-05,0.0448315748198705,-0.00433094454125727,1.99686484183856,-0.00116572524731488,0
0.14,0.000808684150784264,0.000461737010308409,-0.0401460191826494,-0.0231040386420543,-0.000927218462221746,8.6238307806655e-05,0.0461056023528257,-0.00444667172954125,1.99685838568408,-0.00118664656127925,0
0.15,0.000760023530149889,0.000434432221416672,-0.0377268918676864,-0.0217377805841092,-0.000871622877757393,8.14903697159631e-05,0.0433380621495566,-0.00420259965261392,1.99685270152588,-0.000708082060183054,0
0.16,0.000752349996802,0.000431082151640752,-0.0373752217730303,-0.0215701509669981,-0.000863250500399543,8.16144148489046e-05,0.042948535988338,-0.00419545847086165,1.99684889372936,-0.00057362526829886,0
0.17,0.00075067598185087,0.000430670720464106,-0.0373077209712573,-0.0215495559669255,-0.000861555845757951,8.19342653176386e-05,0.042878544973496,-0.00420473392698368,1.99684580001593,-0.000498440378549688,0
0.18,0.000749949985533591,0.000430619846529425,-0.0372836186814963,-0.0215470158428696,-0.000860873509749874,8.21902259261528e-05,0.042855536515014,-0.00421249376621395,1.99684318713896,-0.000440078992041179,0
0.19,0.000749432549931896,0.000430613262444752,-0.03726789777066,-0.0215466882490903,-0.000860399425376542,8.23999848449769e-05,0.0428410761908698,-0.00421878768794339,1.99684096537934,-0.000391199298317463,0
0.2,0.000749006500687998,0.000430612162349521,-0.0372551993948889,-0.0215466324924759,-0.000860010850915743,8.25766840178912e-05,0.042829481922704,-0.00422406580814296,1.9968390740164,-0.000349695967777393,0
0.21,0.000748645818687981,0.000430611778334343,-0.0372444805115591,-0.0215466100188004,-0.000859682118970698,8.27267780184508e-05,0.042819705121317,-0.0042285440995253,1.99683746360398,-0.000314373173858922,0
0.22,0.000748338831483106,0.000430611519094311,-0.0372353529870125,-0.0215466096000687,-0.000859402352923577,8.2854588718011e-05,0.0428113875390956,-0.00423237454658254,1.99683609236283,-0.000284298597743581,0
0.23,0.00074807768458827,0.000430611306623495,-0.0372275870109769,-0.0215465912035604,-0.000859164365399602,8.29633220070152e-05,0.0428043032192086,-0.00423561720074528,1.99683492476604,-0.000258690746877142,0
0.24,0.000747855362203005,0.000430611126691297,-0.0372209701282286,-0.021546572696727,-0.000858961759477551,8.30558905879988e-05,0.042798265957551,-0.00423837743583053,1.99683393056964,-0.00023688596848932,0
0.25,0.00074766589626711,0.000430610973580056,-0.0372153215425349,-0.0215465733760611,-0.0008587890961697,8.31347779722449e-05,0.0427931189873387,-0.00424074864849541,1.99683308402121,-0.000218319425158986,0
0.26,0.000754294476531185,0.000434419433983041,-0.0375347887380705,-0.0217371425829967,-0.000866399008846919,8.38639339446752e-05,0.0431627824245746,-0.00428228287878624,1.99683251648017,-0.000256322540688653,0
0.27,0.000737089613267861,0.000424506029425749,-0.0367158391647975,-0.0212410952567059,-0.000846635124459852,8.19477457715007e-05,0.0422120346842863,-0.00416906477430419,1.99683144556544,-0.000106138656065183,0
0.28,0.00073663313656681,0.000424314270231704,-0.0365868641928195,-0.0212315050832472,-0.000846140163065058,8.19622001825071e-05,0.0420906232012535,-0.004213653770052,1.99683094053618,-9.24971408564571e-05,0
0.29,0.000745628609752349,0.000429838176205807,-0.0371271309519094,-0.0215079074296199,-0.000856614358088591,8.32749837683895e-05,0.0426968225752522,-0.00424208400420826,1.99683076790448,-0.000156177221686737,0
0.3,0.000737027626408551,0.000425486208670296,-0.0367115816781047,-0.021290138247417,-0.000846983775384258,8.28656750040353e-05,0.0422284266956253,-0.00421547087695815,1.99683174086856,-0.000111658283301175,0
0.31,0.000745811099937763,0.000429982043903739,-0.037133055351076,-0.0215151007889971,-0.000856840047380728,8.33299950474257e-05,0.0427051930254447,-0.00424615712454026,1.99683144468908,-0.000171251943545723,0
0.32,0.000746985358255804,0.000430533481085667,-0.0371910217994924,-0.0215426965689354,-0.000858137192269277,8.33472436766617e-05,0.0427693803780591,-0.00424734976525771,1.99683099973417,-0.000171006785140072,0
0.33,0.00074707779633665,0.000430601063091416,-0.0371970647596432,-0.0215460822623399,-0.000858249262715288,8.33709323646252e-05,0.0427762806229806,-0.00424795287787232,1.99683059311145,-0.000163458203716821,0
0.34,0.000747025759216441,0.000430609299147195,-0.0371959635516682,-0.0215464971981857,-0.000858205251546226,8.34002377899322e-05,0.0427754478395123,-0.00424880079288456,1.99683024288191,-0.000155974089443063,0
0.35,0.000746962867680433,0.000430610263185736,-0.0371941331620324,-0.0215465305970998,-0.000858148355236159,8.34273627758858e-05,0.0427737935976285,-0.00424960041818458,1.9968299440902,-0.000149449346821305,0
0.36,0.000746906464464597,0.000430610342023642,-0.0371924318729701,-0.0215465366784245,-0.000858097005129732,8.34509622719012e-05,0.0427722458147549,-0.00425031992000525,1.99682968958902,-0.000143871699734382,0
0.37,0.000746858035692686,0.000430610318125029,-0.0371909577012206,-0.0215465383690789,-0.000858052877334688,8.34711402350428e-05,0.0427709031934531,-0.00425093994787419,1.99682947287206,-0.000139119237404125,0
0.38,0.000746816824668844,0.000430610286607831,-0.0371896975265545,-0.0215465385814326,-0.000858015321639907,8.34883008097587e-05,0.0427697549661719,-0.00425146881576133,1.99682928833821,-0.000135072109610337,0
0.39,0.000746781550824534,0.000430610258400529,-0.0371886090286985,-0.0215465373195373,-0.000857983176064433,8.35029872642528e-05,0.0427687625770042,-0.00425192422127415,1.99682913120922,-0.000131625955489457,0
0.4,0.000746751632086887,0.000430610234213637,-0.037187681702757,-0.0215465374956417,-0.000857955910521552,8.35154442907862e-05,0.0427679176463458,-0.00425231333182832,1.99682899741514,-0.000128691580345818,0
0.41,0.000746726137131459,0.000430610213597714,-0.0371868847909089,-0.0215465376575518,-0.000857932676462212,8.35260593367419e-05,0.0427671915509243,-0.00425264768434696,1.99682888349129,-0.000126192987925463,0
0.42,0.000746704483881644,0.000430610196040476,-0.0371862026516559,-0.0215465378071239,-0.00085791294338315,8.35350750201989e-05,0.0427665700356479,-0.00425293387085465,1.99682878648613,-0.000124065461290443,0
0.43,0.000746685973845511,0.000430610181090286,-0.0371856118636631,-0.0215465379466015,-0.000857896074833206,8.3542781746878e-05,0.0427660317630242,-0.00425318168003057,1.99682870388723,-0.000122253893625418,0
0.44,0.000746670257777097,0.000430610168360322,-0.0371851047365828,-0.0215465380771095,-0.000857881752446653,8.35493253310938e-05,0.0427655697215107,-0.00425339438255767,1.99682863355516,-0.000120711361885536,0
0.45,0.000746656870015115,0.000430610157520436,-0.0371846663017303,-0.0215465382001465,-0.000857869551898248,8.35548994759886e-05,0.0427651702733182,-0.00425357824372699,1.99682857366787,-0.000119397911546967,0
0.46,0.000746645461313599,0.000430610148290378,-0.0371842862036281,-0.0215465383168356,-0.000857859154915158,8.35596495870414e-05,0.0427648239824972,-0.00425373761041061,1.99682852267477,-0.000118279521728818,0
0.47,0.000746635682426586,0.000430610140431104,-0.0371839529708676,-0.0215465384282868,-0.000857850243260629,8.35637209103805e-05,0.0427645203978833,-0.00425387728082979,1.99682847925445,-0.000117327223990471,0
0.48,0.000746627416938753,0.00043061013373866,-0.0371836659534405,-0.0215465385348817,-0.000857842710747352,8.35671623348311e-05,0.0427642589229522,-0.00425399757203651,1.99682844228288,-0.000116516351996155,0
0.49,0.000746620315604136,0.000430610128040308,-0.0371834120623925,-0.0215465386377396,-0.000857836239196177,8.35701188551852e-05,0.0427640276351262,-0.00425410393519508,1.99682841080169,-0.000115825902610747,0
0.5,0.000746614378422735,0.000430610123188067,-0.0371831950562985,-0.0215465387368637,-0.000857830828477946,8.35725910358806e-05,0.0427638299535492,-0.00425419485188855,1.99682838399607,-0.000115237991869393,0
0.51,4.71285218244731,-0.012987293527394,4.35814904898755,0.660996974320747,-1.00534205013559,4.60439265545639,-0.271767897107054,4.39960479399619,0.212214607958029,65.5093049765843,2291.30496544479
0.52,4.6638214842351,0.00690829561416795,6.81076183628024,-0.320604795859739,-3.8290926163619,2.6625792564136,-5.78016490790293,3.61648418538049,0.964675772185896,140.120690829401,2291.30496544479
0.53,4.64861100726926,0.0488227882575245,7.57243645234202,-2.4096405085891,-3.55458228371397,-2.99614965411692,-4.16615296490719,-6.76692919117577,2.28165500668601,220.766349956714,2291.30496544479
0.54,4.64672380548769,0.0426940007805698,7.66811694089036,-2.0894143067693,4.01552513175134,-2.33867971694759,7.69631509890722,-1.98302886081739,-2.08899344291952,298.899460527463,2291.30496544479
0.55,4.63349623675218,-0.0116786414357346,8.33093779922367,0.641348522999155,-1.71670513067286,4.30375966580197,-2.47077695603783,7.98192419006842,0.377024315919346,375.996347722919,2291.30496544479
0.56,4.6093739975772,-0.0235968757396248,9.53859886463873,1.26001611280628,1.2854051897768,-4.4265809560179,1.40122830990846,-9.51887956266544,-2.86410098044532,452.188823230353,2291.30496544479
0.57,4.61724777042751,0.0143070136804014,9.14655180957099,-0.630070526785429,-3.10713950292707,3.41538662138101,-6.64074901275513,6.3211432054243,0.741273035828225,530.18141164325,2291.30496544479
0.58,4.59295313273128,0.0275711374598395,10.3630607135301,-1.28464146513809,4.50842919776894,0.8775219745348,9.90709609065637,3.30042089691064,-1.37255675462872,607.327745638138,2291.30496544479
0.59,4.55873452648781,0.0992528009435665,12.0758563966457,-4.85630368956208,0.892131458792846,-4.4716901795316,7.36050367176441,-10.7346624975174,-2.92290304647544,683.788031105682,2291.30496544479
0.6,4.53767930927841,0.0628208044944458,13.1306024732994,-3.01136870351679,-3.20458106512814,-3.21327561288367,-6.981086350452,-11.5215231696104,2.37139260650731,759.936442481882,2291.30496544479
0.61,4.51728412940364,0.0905315399003093,14.1524184631407,-4.41906823392341,-4.24010962810144,-1.56061597042967,-11.5715958349063,-9.2691575801416,1.94350748958827,837.475205596375,2291.30496544479
0.62,4.5664438223007,0.0782456903397319,11.6966373992122,-3.76829862454324,-4.0327826898566,-2.14364067573787,-8.40715943397905,-8.96276024581943,2.07650037627476,913.06514924054,2291.30496544479
0.63,4.46327755805226,0.0424582225186029,16.8572572353103,-1.99528695017787,-1.67560147331711,-4.13702900201218,-4.32294934219623,-16.4152490232642,2.76627413286584,989.746736013021,2291.30496544479
0.64,4.52427960481641,0.083726949721465,13.809514765469,-4.00383370322563,3.40900235046764,-2.97570481049003,13.1464923644173,-5.82263865383298,-2.26992945888786,1064.84544253026,2291.30496544479
0.65,4.51031576325775,0.0981264891646751,14.5101557006449,-4.7175809790051,2.1159495445268,3.98438635390495,2.31163004710134,15.0816628816509,-0.466433437917679,1140.63194544541,2291.30496544479
0.66,4.50856572249328,0.0813733036493576,14.6002298521675,-3.86904031808353,-4.30411712707984,-1.34475360009413,-12.6347756221236,-8.27638989521818,1.89166793389303,1216.27707618273,2291.30496544479
0.67,4.36232808815022,0.133147622352446,17.9897265703896,-6.44818684983896,4.35646915343325,0.262318800674006,17.3321049913676,8.05031131671486,-1.48014264065168,1291.35776109266,2291.30496544479
0.68,4.07711262181192,0.0611864916229128,19.9459781658318,-2.87921388624968,-3.77857332269348,-1.53263653966763,-17.2466842631739,-10.4251522540921,1.97113785847848,1363.45384257695,2291.30496544479
0.69,3.87884025654244,0.132396511964264,18.0082332817753,-6.45809286979407,1.4529361829669,3.5988757995213,0.100563125186246,19.1309517929343,-0.349588918880482,1431.35450483614,2291.30496544479
0.7,3.67119804329699,0.0870373324061312,17.3206060119799,-4.1441406082401,2.9418257690446,-2.19793805984726,16.5183706925928,-6.65738114164956,-2.18875695748995,1494.7196263339,2291.30496544479
0.71,3.44755559546017,0.0459242243062359,17.9168348226514,-2.14109021464322,-1.48535048225008,-3.11150808500417,-5.55825187072645,-17.1669179968619,2.70952982364603,1555.24008258134,2291.30496544479
0.72,3.15899234133364,0.150279538629461,22.4327395206556,-7.34081807716995,-3.1344308609947,-0.420903468718511,-20.744595134759,-11.2595375188603,1.75181781195012,1611.60416515587,2291.30496544479
0.73,3.05127547830722,0.0838301678260061,18.2827813664232,-4.00180937922283,-2.8100174397549,1.19210382510501,-18.4817087321812,2.94974831788833,1.19704190519969,1664.80207774569,2291.30496544479
0.74,2.85465104684926,0.0899378457884102,19.1076339113767,-4.33520312646732,-2.38786285609242,1.5669181203486,-18.5605405598592,6.27710076107967,1.02156949197382,1715.13187614714,2291.30496544479
0.75,2.67698360760241,0.0828400561603221,19.4761197428676,-4.00050301754006,-2.46828926494316,1.03954404180055,-19.6124028209715,3.26755569498288,1.20311833953598,1762.42544068321,2291.30496544479
0.76,2.47514029673343,0.051640166787528,21.5103044901309,-2.45116459505829,-2.45518719332109,-0.31787110767036,-20.904647123073,-5.63002094045925,1.72040981603351,1806.86767690175,2291.30496544479
0.77,2.34353421290963,0.0917239505829661,20.4525891793489,-4.45433224288532,-1.15970502311349,2.03854118171644,-14.5833674359358,15.0158207933405,0.556349269776067,1848.54736166201,2291.30496544479
0.78,2.17166703450335,0.0831979842579336,21.8078387041798,-4.01750913854802,-2.1668293712579,-0.167063129347166,-21.2012385561381,-6.49843768236372,1.68603629385151,1887.72678677386,2291.30496544479
0.79,2.05958080958381,0.0629800714270826,20.5791587708772,-2.99038321364111,-0.159611454730262,-2.05435240017913,2.02085861251121,-20.6968668631181,3.09462367622854,1924.54420337587,2291.30496544479
0.8,1.85853341760792,0.0237813760418402,24.1656674473101,-1.11856225136629,1.85722593199989,0.0736468310176918,24.0738446589492,2.38341520112352,-1.51836780291984,1959.25463881965,2291.30496544479
0.81,1.79612659732607,0.0398357571074018,21.1122848691682,-1.90907753463035,-0.658794241513867,1.67142088909844,-9.93553741903292,18.7258710244713,0.397630104831789,1991.75619868946,2291.30496544479
0.82,1.65083122943825,0.0723284205599829,22.5332398395907,-3.48875087304245,-0.988301014333737,-1.32428707370276,-9.78901930603932,-20.5935276567338,2.54425608310098,2022.13550738008,2291.30496544479
0.83,1.55829198898135,0.0157749824624026,21.6937420608289,-0.739059211707352,1.53191567426476,0.285932054756147,21.1411158531045,4.92116587871199,-1.37614673263023,2050.7060456205,2291.30496544479
0.84,1.44270674298316,0.0402082916969747,22.252461724466,-1.91548788947714,-1.32360755138229,0.575397691074663,-21.3611978335573,6.52229819689222,1.18858509292169,2077.26222169442,2291.30496544479
0.85,1.27543858407234,0.0785053895689122,25.7299082391892,-3.89601586232445,0.860727001717738,-0.944487007028585,21.1795497622868,-15.1206411723642,-2.34108604411765,2102.25434928835,2291.30496544479
0.86,1.29552153037945,0.0813579935041417,20.0554337178578,-3.97931238709373,-0.652635508616792,1.12207934286138,-14.4576962183023,14.4578825816491,0.5895200125001,2125.53304083494,2291.30496544479
0.87,1.12528646929177,-0.0145391795970439,24.1741021724994,0.747579085785698,0.594946036837641,-0.955259252227204,11.8741424940216,-21.0701407296585,-2.59748865541521,2147.49268635125,2291.30496544479
0.88,1.06076656615821,0.0798095258229016,23.2184932091931,-3.89312332380708,-0.581772492905997,0.890581851818854,-17.21116863753,16.0633281187374,0.653752568652776,2167.83098391173,2291.30496544479
0.89,1.02005126615665,0.0551064883724569,21.3391699064517,-2.71754455770187,-0.929650904750062,-0.423427096376602,-17.6560926601951,-12.288515479671,2.05215968366862,2186.83837446952,2291.30496544479
0.9,0.861368378198845,-0.0180370115695119,25.5747912398275,0.902690747334663,0.541993799155154,0.669718999599556,17.1910738405293,18.9565761084525,-0.701314065120507,2204.57031450795,2291.30496544479
0.91,0.862472355683153,0.0701979101606822,22.0074921286676,-3.42496550549361,-0.230051436227124,-0.834183821227918,-0.745768446516557,-22.2599175185212,2.95371365333804,2220.98874370157,2291.30496544479
0.92,0.807230271075129,0.0315037532244336,21.4505611555247,-1.53550085868688,-0.317127390157827,0.742996241860574,-10.5712463005812,18.7278692975571,0.442420343761008,2236.41281786949,2291.30496544479
0.93,0.685942828018009,0.00775125289587508,24.417533703586,-0.396288582974725,0.63155358796405,-0.267801625761561,22.736851641268,-8.91114887372686,-1.96055073719334,2250.62504535492,2291.30496544479
0.94,0.614191987307963,0.0128106256739685,25.0462237331159,-0.632310291388303,-0.558707346839868,-0.255425155359879,-22.281702810986,-11.4559530130319,2.02045282898217,2263.93746242034,2291.30496544479
0.95,0.547365580828072,0.078293117802672,25.5810452919157,-3.85015837153992,0.178944503850622,0.52318042386176,0.985360349745674,25.8503899911419,-0.1874863454233,2276.26682425557,2291.30496544479
0.96,0.565214840200781,0.0521531377314876,22.0559874310277,-2.5634715000972,0.383255474251581,-0.418692019048166,18.0479579209083,-12.9348050845224,-2.30834305845086,2287.71332114449,2291.30496544479
0.97,0.505443894789527,0.061128124584162,22.5680307100342,-3.04865028588354,-0.494141170690385,-0.122615993344748,-20.0085621723032,-10.8750962520679,1.93437823371829,2298.23113127522,2291.30496544479
