t,iq,id,vq,vd,ia,ib,va,vb,theta_e,omega,r
0,0,0,0,0,0,0,0,0,0,0,0
0.01,0.000548923082756805,0.000308072285684123,-0.0263805497380698,-0.0154140802502196,-0.00059539022077712,-0.000204292851056628,0.0290676240842751,0.00941278410133027,2.41275715924242,-0.00221777889753427,0
0.02,0.000651344222013655,0.000363348768544566,-0.0314359936876005,-0.0181797791747786,-0.000704840578378873,-0.00024386755057605,0.0344978273729929,0.0113413392733731,2.41273987694375,-0.00246549409443516,0
0.03,0.000689356254290297,0.000384535481243141,-0.0333256018270145,-0.0192398370120864,-0.000745965710705892,-0.000258098314824209,0.0365472856229485,0.0120442093546643,2.41272213124517,-0.00243365178036373,0
0.04,0.000674540322082021,0.000376975626797271,-0.0326978994977824,-0.0188615760627907,-0.000730462907348229,-0.000252069852029322,0.0358472566100273,0.0118273359922839,2.41270580157034,-0.00219213695413315,0
0.05,0.000689929589385667,0.00038646243487966,-0.0335012378163734,-0.019336249211265,-0.000747793089984259,-0.000257218868776738,0.0367365644582884,0.0121098431282729,2.412690427058,-0.00208978314827798,0
0.06,0.00069093921006309,0.00038780525152974,-0.0336164695115434,-0.0194034363199159,-0.000749470858345321,-0.000257066796004035,0.0368636045496672,0.0121505153408122,2.41267605651467,-0.00193711341327018,0
0.07,0.000702470407150632,0.000395277937526983,-0.034225568212008,-0.0197773270668942,-0.000762728603466275,-0.00026068064422267,0.037548347112685,0.0123553152307432,2.41266299913869,-0.00184362815753638,0
0.08,0.000690465610706053,0.000389050999209476,-0.0337129581016886,-0.0194657653080863,-0.000750091119366377,-0.000255864714646763,0.0369746727351147,0.012180030341788,2.41265061924733,-0.00165723774690649,0
0.09,0.000687557133590692,0.000388166096641601,-0.033627345485889,-0.0194214908445464,-0.000747496667016615,-0.000254276352287186,0.0368847609677043,0.0121452492525866,2.41263937427195,-0.0015220111179176,0
0.1,0.000686135073078617,0.000388038862201985,-0.033608051232776,-0.0194151166479713,-0.000746457161446737,-0.00025329272238359,0.0368672801834339,0.0121347234824454,2.4126290531621,-0.00140321044812379,0
0.11,0.000685020051440611,0.000388019206661245,-0.0335994573129025,-0.0194141320371294,-0.000745702184425802,-0.00025246708252029,0.0368609365127888,0.0121286196195942,2.4126195633216,-0.00129479876768425,0
0.12,0.000684024112752629,0.000388014934389835,-0.0335929564998114,-0.0194139262129042,-0.000745037796185091,-0.000251720595884071,0.0368565585962789,0.0121235863438741,2.41261083522172,-0.00119521567413243,0
0.13,0.000711855330191308,0.000404218835579193,-0.0349549488175992,-0.0202246769836605,-0.000775664391331337,-0.000261678486275354,0.0383686028323365,0.0125990603867434,2.41260243323076,-0.00122204900818393,0
0.14,0.000729229674557672,0.000414764049034334,-0.0359286962247646,-0.0207522940259033,-0.00079510496448064,-0.000267606483637978,0.0394108564570992,0.0129735620808967,2.41259454966295,-0.00120998052473767,0
0.15,0.000688591333224639,0.000391803399613539,-0.0339205866400041,-0.0196034753894,-0.000750911678727695,-0.000252585785212009,0.0372164616627103,0.0122408098854957,2.41258719840179,-0.000956489219979273,0
0.16,0.00068175267280946,0.000388546453392529,-0.0336247044824152,-0.0194405166060876,-0.000743928657394821,-0.000249650167301156,0.036897901028923,0.01212845155414,2.4125809695209,-0.000859304926585039,0
0.17,0.000680167578167657,0.000388083645430129,-0.0335757797705427,-0.0194173531042209,-0.00074252900116124,-0.000248772049626331,0.0368481029366795,0.0121071837659239,2.4125753223532,-0.000790863963551154,0
0.18,0.000679434422299109,0.000388017133123519,-0.0335651642610283,-0.0194140299601127,-0.000741992298449139,-0.000248265702110627,0.036838615757835,0.0121012891961377,2.41257014081308,-0.00073114011546557,0
0.19,0.000678871701694708,0.000388006887597918,-0.0335606936437959,-0.0194135175442568,-0.000741610986602829,-0.000247849302470816,0.0368353131591073,0.0120981207534222,2.41256537685499,-0.000676704151255323,0
0.2,0.00067837132196201,0.000388004685898429,-0.0335573954136604,-0.0194134022414233,-0.000741277103653668,-0.000247474326624909,0.0368330830632243,0.0120955762819999,2.41256099533522,-0.000626711330033826,0
0.21,0.000677913656185172,0.000388003684662894,-0.0335544813326568,-0.0194133612378266,-0.000740972479835596,-0.000247130671266474,0.0368311600098317,0.0120932817871798,2.41255696532287,-0.000580740454634329,0
0.22,0.000677493126904312,0.000388002908717288,-0.0335518188598088,-0.0194133274336961,-0.000740692680111875,-0.000246814804670114,0.0368294060089827,0.0120911820710312,2.41255325858292,-0.000538458925114474,0
0.23,0.000677106416275592,0.000388002215393381,-0.0335493715942083,-0.019413295014595,-0.00074043539488386,-0.000246524327633053,0.0368277927931426,0.0120892528998,2.41254984917833,-0.000499569264908873,0
0.24,0.000676750788539033,0.000388001580423279,-0.033547121388412,-0.0194132639847676,-0.000740198789993098,-0.000246257197847937,0.0368263085680667,0.0120874798548192,2.41254671325733,-0.000463799160235151,0
0.25,0.000676423682553735,0.000388000996647825,-0.0335450489996893,-0.0194132314380113,-0.000739981159803011,-0.000246011493340967,0.0368249386154979,0.0120858497103911,2.41254382888251,-0.000430898341211411,0
0.26,0.000681851150092284,0.000391267328738415,-0.0338149839421685,-0.0195766519216505,-0.000746033418745116,-0.000247881527217622,0.0371266702540403,0.0121782098568852,2.41254126155224,-0.000425985169854971,0
0.27,0.000667410507742084,0.000383034565164632,-0.0331411562904179,-0.0191647292972912,-0.000730274203124517,-0.000242594006946291,0.0363706088567201,0.0119499749244855,2.41253858999296,-0.000335259970871353,0
0.28,0.00066684612299277,0.00038286961951681,-0.0330179320745266,-0.019156482795117,-0.000729775756126364,-0.00024228133041906,0.0362823975876441,0.0118634858641878,2.41253634745295,-0.000308359380707905,0
0.29,0.000674010812684478,0.000387271654794472,-0.0334743441118803,-0.0193767382721914,-0.000737832156248607,-0.000244690865028449,0.0367507344495591,0.0120570816206732,2.41253441138675,-0.000317745828107317,0
0.3,0.000665958718699152,0.000383061101993829,-0.033097283673192,-0.0191660633830581,-0.000729328163932755,-0.000241489652297194,0.036342441582415,0.0119161701891126,2.41253320777931,-0.000270282064109758,0
0.31,0.000673602333625403,0.000387298314167827,-0.0334683752101851,-0.0193780696620076,-0.000737580627317955,-0.000244366336118708,0.0367477858316658,0.0120516372126518,2.41253153067085,-0.000284537914687583,0
0.32,0.000674622359577033,0.000387898882355219,-0.0335245354238754,-0.0194081184970041,-0.000738708444745124,-0.000244725774359695,0.0368076283818544,0.0120734432488722,2.41252988325159,-0.000270889864717297,0
0.33,0.000674634599796954,0.000387983782353419,-0.0335322565817009,-0.019412365724173,-0.000738780291870257,-0.000244677213807416,0.0368159580649757,0.0120763159211749,2.41252835182802,-0.000254213947014385,0
0.34,0.000674503236506544,0.000387995579537227,-0.0335325894667786,-0.0194129540380503,-0.000738701924736583,-0.000244570342005524,0.036816635627356,0.0120761203171161,2.41252694075842,-0.000238240555137876,0
0.35,0.000674360405564255,0.000387997029821424,-0.0335318491482265,-0.0194130244048041,-0.000738608173594331,-0.000244461894050342,0.0368162106035385,0.0120754735160505,2.41252564249371,-0.000223450614424302,0
0.36,0.000674225538431221,0.000387997030706083,-0.0335309997661775,-0.0194130366160082,-0.000738518621074224,-0.000244360428130731,0.0368156682938258,0.0120747879506374,2.41252444830981,-0.000209831966744031,0
0.37,0.000674101159195341,0.000387996842467092,-0.0335302008794527,-0.0194130225325894,-0.000738435890653327,-0.000244266980961331,0.0368151388544237,0.0120741610887373,2.41252334990751,-0.000197303409088992,0
0.38,0.000673986617049719,0.000387996642503228,-0.0335294568614154,-0.0194130055086117,-0.00073835968300953,-0.000244180943281758,0.0368146427091184,0.012073580351282,2.4125223396114,-0.000185779464977935,0
0.39,0.00067388114476843,0.000387996454762279,-0.0335287642419941,-0.0194130059775374,-0.000738289506664253,-0.000244101721689874,0.0368141928709587,0.0120730292776493,2.41252141035564,-0.000175179852535456,0
0.4,0.000673784297753668,0.000387996281528425,-0.0335281329647873,-0.0194129903510228,-0.000738225068764273,-0.000244028978253141,0.0368137709928924,0.0120725374199558,2.41252055563944,-0.000165430473634957,0
0.41,0.000673695065409734,0.000387996122102601,-0.0335275422395235,-0.0194129907621655,-0.000738165697042467,-0.000243961955300189,0.036813387261938,0.0120720676463288,2.41251976948396,-0.000156463134447467,0
0.42,0.000673613119553807,0.000387995975444615,-0.0335270029062259,-0.0194129736315965,-0.000738111173463098,-0.000243900404684286,0.0368130239228045,0.0120716502084084,2.41251904638949,-0.000148215105198322,0
0.43,0.000673537624217813,0.000387995840541072,-0.0335264982546325,-0.0194129739935625,-0.000738060941622436,-0.000243843699868486,0.0368126960329464,0.0120712491184013,2.41251838129769,-0.000140628687011405,0
0.44,0.000673468367633944,0.000387995716451543,-0.0335260408170997,-0.0194129582761409,-0.000738014860897346,-0.000243791680093778,0.0368123869597887,0.0120708959163684,2.41251776955602,-0.000133650809147779,0
0.45,0.000673404513830103,0.000387995602309895,-0.0335256100165134,-0.0194129585961067,-0.000737972374793655,-0.000243743719303674,0.036812106999451,0.0120705537028948,2.41251720688478,-0.000127232657886896,0
0.46,0.000673345724092746,0.00038799549731916,-0.0335252084555883,-0.0194129588970491,-0.000737933258045626,-0.000243699562502879,0.0368118459586722,0.0120702349705444,2.41251668934782,-0.0001213293350706,0
0.47,0.000673291892536631,0.000387995400746136,-0.0335248487747265,-0.0194129416723326,-0.000737897440461592,-0.000243659128529889,0.0368115992457479,0.012069960675666,2.41251621332507,-0.000115899544020756,0
0.48,0.000673242183194353,0.000387995311916187,-0.0335245057458044,-0.0194129419403237,-0.000737864365454109,-0.000243621791911649,0.0368113762107993,0.012069688552148,2.41251577548607,-0.000110905300650081,0
0.49,0.000673196431973006,0.00038799523020834,-0.0335241863124852,-0.019412942193349,-0.000737833923998705,-0.000243587428415922,0.0368111684595279,0.0120694353289949,2.41251537276812,-0.000106311667742604,0
0.5,0.000673154406041946,0.00038799515505232,-0.0335238928558204,-0.0194129424322589,-0.000737805961255808,-0.000243555862695096,0.0368109776128309,0.0120692026776579,2.41251500235403,-0.00010208651055159,0
0.51,4.70629569656392,-0.00454661203019516,4.68597615222082,0.234803405158063,-0.531212910400196,4.67622205407326,-0.291092465675239,4.68281649380831,0.112147762710058,34.7281587232969,3425.96132337403
0.52,4.73137818924423,0.0106240518756783,3.43272704168234,-0.515395448815893,-2.30553248706301,4.13165492160603,-2.12894156697284,2.74168838779547,0.511222674605107,74.2382730569269,3425.96132337403
0.53,4.66519823860778,0.0321690006618378,6.74268408504851,-1.58393981381895,-4.34342280163647,1.70287633618449,-6.86225802983818,0.939185144946774,1.20405007821004,115.216295027165,3425.96132337403
0.54,4.72141623979562,0.0162643479075424,3.93283786234338,-0.784209797224233,-3.79797678210981,-2.80489005149462,-2.68749738276038,-2.97650070975974,2.21035585243882,159.473912687111,3425.96132337403
0.55,4.67947523356457,0.00375958662853693,6.03094584601395,-0.147272777649798,1.77028536047052,-4.33169624264439,2.42232461384652,-5.52506475380542,-2.75282103459847,199.976640682333,3425.96132337403
0.56,4.65102860807494,0.0180948304685798,7.45442274166534,-0.85362720448259,4.23324052334244,1.92667309306811,6.41606828492659,3.88987989259943,-1.13979433322852,241.106377980912,3425.96132337403
0.57,4.69586260692738,0.0288195355796756,5.21390761729432,-1.38419081580969,-3.29777904796429,3.34314366122331,-4.663680136601,2.71125514102324,0.784704340440405,282.707081263041,3425.96132337403
0.58,4.64216507963137,0.0123129599711513,7.90008016523626,-0.557494693268283,-0.635589757872196,-4.59846429748238,-0.508443031951074,-7.90338868039793,3.00689746011339,324.64093250135,3425.96132337403
0.59,4.65462910991626,0.0413213882053958,7.27817160131526,-1.98722608476858,3.20115446049853,3.37933273414048,3.50338330190184,6.68185264804096,-0.749450768180587,364.846201226954,3425.96132337403
0.6,4.64454568700256,0.0281674875213125,7.78374219741819,-1.32286312004292,-4.06780355951257,-2.24177881318033,-6.14864404558827,-4.95285633053193,2.08055055263281,406.092812924599,3425.96132337403
0.61,4.65313671488409,0.0859759488647089,7.35562779519108,-4.20996885262254,4.12616664922946,2.15263139760899,4.44161696076216,7.21811171812334,-1.07146296569194,447.500388223828,3425.96132337403
0.62,4.61064303862749,0.0367682762586128,9.48184369265724,-1.7410488359781,-3.27123555423586,-3.24936902867101,-5.43683860832059,-7.96099219999111,2.36081553563548,488.635069638892,3425.96132337403
0.63,4.57828194693439,0.0837083849642615,11.1014410169371,-4.0799414431653,0.942344150351299,4.48103338323175,-1.92165428211377,11.6702681911011,-0.188994074639861,529.587989636476,3425.96132337403
0.64,4.58885644877434,0.0329471035414031,10.5743256207236,-1.52672643916819,2.94312399031975,-3.52089622066513,8.0042063926521,-7.07671788168597,-2.43816070697568,570.4812327148,3425.96132337403
0.65,4.58588812033789,0.07634260458082,10.7244247142625,-3.70706398333615,-4.36944369719569,-1.39433131735869,-8.97555790782028,-6.94225965171264,1.89633709826813,611.855569439488,3425.96132337403
0.66,4.62746796789046,0.0193700597898951,8.64720724593739,-0.84845711208031,-1.11814732029719,4.49038768517605,-2.94698485384389,8.17369885036429,0.248231681174685,652.898041807236,3425.96132337403
0.67,4.57342413289188,0.053115242770986,11.351215264729,-2.51174242336927,4.10213900821881,2.02274197207209,8.98490645357503,7.37769571126889,-1.10107503686225,693.186274746405,3425.96132337403
0.68,4.59456555207903,0.0406619486651274,10.295991373729,-1.90441618266712,3.82029753888543,-2.55284404553166,9.65492375894325,-4.0517510503114,-2.15103187695301,734.562475301132,3425.96132337403
0.69,4.57661410613152,0.0667059298797776,11.1954858708293,-3.17327619371861,1.02020271300188,-4.46195391974264,5.7369941598324,-10.1240053188256,-2.90223736879923,774.760210527061,3425.96132337403
0.7,4.56457473673961,0.0906329679381823,11.7994584170212,-4.3784765821036,-1.0547797204587,-4.44195864495245,1.78162690220822,-12.4588956852672,2.92830549756844,815.676555563154,3425.96132337403
0.71,4.55263346139935,0.0986877611570125,12.3985604635337,-4.78894237901733,-1.73107293596578,-4.2118401202351,0.00420291402151918,-13.291284851848,2.77331195917971,856.545931021145,3425.96132337403
0.72,4.5477258908638,0.0663383104586643,12.6460698946607,-3.16656892343337,-1.08240138138517,-4.41753537613938,0.256162954284443,-13.0339795560815,2.91588901687043,897.008957109843,3425.96132337403
0.73,4.51647357913588,0.079537902364024,14.2108037741575,-3.80849961263232,0.882690825660181,-4.43009218586253,6.74326597890329,-13.0759312152059,-2.92731064591176,937.431994533825,3425.96132337403
0.74,4.51403897229954,0.106212879004695,14.334694474894,-5.13934596614742,3.61371474443354,-2.70719315250486,14.6552089054462,-4.13777652683681,-2.19022433271021,977.963078047101,3425.96132337403
0.75,4.51846553614528,0.0701314651350322,14.1155777560105,-3.33832295027954,4.1639271450955,1.75589292215426,11.575047228879,8.74140819064993,-1.15621146034066,1018.56709499749,3425.96132337403
0.76,4.51271831787738,0.0711767941713826,14.4052318035647,-3.37920184023732,-0.712302180837742,4.45671609547976,-5.8255598974066,13.6011970161903,0.174257453379608,1058.99458146429,3425.96132337403
0.77,4.51961885729417,0.0954115179415276,14.0625006481355,-4.56435439644127,-4.42217984859489,-0.938287461094018,-12.6502041248277,-7.65242387321267,1.80098060683372,1099.17108448984,3425.96132337403
0.78,4.50275969703656,0.119401853408192,14.9078581099117,-5.74008231061833,2.37398650483691,-3.82796156808116,12.9864059602713,-9.30301233971898,-2.55996294806271,1139.38723506611,3425.96132337403
0.79,4.49288553751575,0.0912761731856031,15.4040184145568,-4.36399947999797,1.59341544309178,4.20183043669378,1.05723811689869,15.9753097729466,-0.342151774088676,1179.93163460043,3425.96132337403
0.8,4.48889039018736,0.16271142911163,15.6062247486741,-7.89269372799186,-3.79690843515238,-2.40002047477698,-8.42505879907788,-15.3253792586706,2.1707156905754,1219.89173825475,3425.96132337403
0.81,4.51786125820786,0.154265672754364,14.1602343049033,-7.49164183540531,4.39927732493488,1.03982078480846,11.6902926295527,10.9532639516804,-1.3045618281192,1260.28104819391,3425.96132337403
0.82,4.49345824358634,0.127130782181264,15.3829411519245,-6.14814458988751,2.69726053912266,3.59612497095468,3.8576398991742,16.1106540770397,-0.615245926444079,1300.5218626156,3425.96132337403
0.83,4.43075608201484,0.135802379836794,18.5206421570217,-6.52600062441638,-1.6891522025403,-4.09839073068126,-0.422496688883324,-19.6322277545421,2.78129646150234,1340.41040550867,3425.96132337403
0.84,4.46454202068625,0.128695982130217,16.8340383450413,-6.16585653600471,-0.710472574799344,4.40952682617395,-9.21213302296097,15.3798322159959,0.188567504025006,1380.43712256068,3425.96132337403
0.85,4.45477364415422,0.15084298015914,17.3251453923674,-7.27238125572093,3.74395980384635,-2.4187862271183,18.5995993100607,-2.66516369111147,-2.11054187696734,1420.51666589998,3425.96132337403
0.86,4.45476663603243,0.166975863297959,17.3282080736727,-8.07076679461922,-3.78006194381274,-2.36304008035632,-9.8075731246109,-16.4077902565529,2.16695599143994,1460.54208375927,3425.96132337403
0.87,4.44645744219045,0.147581882500004,17.7464633009696,-7.0865674265646,-1.81953388410077,4.05981041944846,-14.1583274458335,12.8334781536598,0.454519744057993,1500.48537507272,3425.96132337403
0.88,4.38317162631902,0.185588082750299,20.9135977733511,-9.00088243051817,3.70953813543143,2.34221332589645,12.0723469480165,19.3042196299214,-0.965290113249467,1540.5143422853,3425.96132337403
0.89,4.39555489363547,0.138282893447419,20.297351581532,-6.66595286338839,3.74183433910886,-2.31056286654327,20.91911904218,-4.3368038116033,-2.09253101737449,1580.51445600321,3425.96132337403
0.9,4.42758932439793,0.144035996539862,18.6985899070985,-6.90536874206751,0.798492598546259,-4.35737342488438,10.7148448578058,-16.8081373641139,-2.92783263088042,1620.13550160261,3425.96132337403
0.91,4.33643459338979,0.149455319398584,23.2593265434402,-7.22072562910117,-1.54651921926435,-4.05404491584518,-0.705530667770074,-24.3441446007449,2.81160825273091,1660.01565790448,3425.96132337403
0.92,4.37725418508764,0.150160727006708,21.2214130869267,-7.20746838436178,-2.53212653824023,-3.57368684122462,-5.64766767607232,-21.6887026753148,2.55944451030297,1699.65966211963,3425.96132337403
0.93,4.39651891241675,0.164010690384242,20.261275485797,-7.93504501935198,-2.41329865798339,-3.67862306320912,-3.68225822376268,-21.4458666913705,2.59827527175149,1739.49681831421,3425.96132337403
0.94,4.39709121546486,0.19647184462693,20.2357914947365,-9.48376506296765,-1.12448352202568,-4.25541409871496,4.9767018553647,-21.7867275154123,2.92790249117851,1778.94233303108,3425.96132337403
0.95,4.3441228420581,0.173483682539508,22.8874036513511,-8.34970787236095,-3.86548217897177,1.98986114567074,-24.2735460151142,2.08466575397069,1.13531121095875,1818.58281547696,3425.96132337403
0.96,4.37586931329546,0.153977337372682,21.3033157156065,-7.38548128315414,-3.96211995066257,-1.86374535922344,-15.5695942644295,-16.3084128198814,2.0456506946763,1858.23159073751,3425.96132337403
0.97,4.34086766217171,0.210811620161123,23.0566867197067,-10.2356531245095,0.242087230411505,-4.33923580513375,12.5795828632706,-21.8662637952186,-3.03733386657527,1897.78715521429,3425.96132337403
0.98,4.33924126327709,0.185447566008131,23.1412777418459,-8.95807570478065,4.34239366068201,-0.0838023647254149,22.9251994188626,9.49742530706161,-1.54738125392373,1937.31270718288,3425.96132337403
