t,iq,id,vq,vd,ia,ib,va,vb,theta_e,omega,r
0,0,0,0,0,0,0,0,0,0,0,0
0.01,0.000663297500260789,0.000373065117999733,-0.0318943890235326,-0.0186618576856909,0.000440959557112623,-0.000620238522756694,-0.0208950606696757,0.0304780810267968,-2.01121042631922,-0.00277293806496077,0
0.02,0.000838612072696616,0.000467243143488431,-0.0404454978727044,-0.0233729480146809,0.000559377661528615,-0.000780181386212362,-0.0266209070772255,0.0383856783638591,-2.01123310319187,-0.00332868959305277,0
0.03,0.000908374059320803,0.000504924600888808,-0.0438666047640764,-0.0252578843644064,0.000606396325669958,-0.000844023566284526,-0.028910889083632,0.041549972665302,-2.01125764740271,-0.00340678518725249,0
0.04,0.000898685092652775,0.000499666788712556,-0.0434973221443476,-0.0249948772676779,0.000599854254689505,-0.000835150686181568,-0.0286880230431979,0.0411552944009441,-2.01128108170827,-0.00314852748210732,0
0.05,0.000919340969897861,0.00051223041498323,-0.0445696526408108,-0.0256233408877787,0.000613162478235448,-0.000855335952857587,-0.0293890895821461,0.0421816423140024,-2.0113034062011,-0.00303286949385213,0
0.06,0.000922690843816047,0.000515060774064162,-0.0448127670142664,-0.0257649295872022,0.000614967504280787,-0.000859337513972364,-0.0295477240160889,0.0424140034608554,-2.01132457854149,-0.00285233830326236,0
0.07,0.00093421786553054,0.000522839881843605,-0.0454391333135103,-0.0261540501273065,0.000622059818254706,-0.000871301408718932,-0.0299475197698663,0.0430336523429988,-2.01134413167887,-0.00272240152782998,0
0.08,0.000923322966130014,0.000517447768707108,-0.0449936893713217,-0.0258843178684819,0.000614488456121874,-0.000861789667155535,-0.029658834384108,0.0426002762636072,-2.01136282929294,-0.00250254050815333,0
0.09,0.00091935448763433,0.000516228970437715,-0.0448726805461968,-0.0258233545804475,0.000611403849348901,-0.000859005446347059,-0.0295746446422832,0.0424940407053885,-2.01138010087761,-0.00232603810289396,0
0.1,0.000917153039418435,0.000515951610466808,-0.0448310717716683,-0.0258094972266588,0.000609517146733049,-0.000857825512500164,-0.0295422373819947,0.0424642361729874,-2.01139615487115,-0.00216846700004669,0
0.11,0.000915464480662652,0.000515886751668018,-0.0448095360406932,-0.0258062331900203,0.000608004703222415,-0.000857055795593812,-0.0295235159362039,0.0424525405412279,-2.01141110143237,-0.00202333887609891,0
0.12,0.000913978751043785,0.000515869976623526,-0.0447936210566073,-0.0258054077669815,0.000606656108203935,-0.000856415411187801,-0.0295088821397293,0.0424454170935649,-2.01142502285232,-0.00188854560963939,0
0.13,0.000946095034285673,0.000534799146161897,-0.046376811205134,-0.0267522906391035,0.000627619437143061,-0.000887242798086144,-0.0305364096771668,0.0439775096614615,-2.0114384124484,-0.00190523303549751,0
0.14,0.000964108750932749,0.00054582227495258,-0.0473963227967033,-0.0273037037920928,0.000639199304544396,-0.000904904353249268,-0.0312227730984728,0.0449114917972775,-2.01145118127544,-0.00186612356326028,0
0.15,0.00092277051806828,0.000522615783913695,-0.0453631621716577,-0.0261428376980388,0.000611697883898734,-0.000866290012320088,-0.0298784637716278,0.042994672318389,-2.01146322323815,-0.00157480548204365,0
0.16,0.000911968615619512,0.000517380119898707,-0.0448900602568332,-0.0258809353973709,0.00060415209836553,-0.000856953433029996,-0.0295618215462599,0.0425563042776518,-2.01147378554018,-0.00143033292507769,0
0.17,0.000908610070925631,0.000516197761174106,-0.04476817392132,-0.0258218040705028,0.000601610485375871,-0.000854457262544154,-0.0294763915244186,0.0424511166449621,-2.01148346628107,-0.00132645625130102,0
0.18,0.000907104055207029,0.000515929699445,-0.044731801003672,-0.0258083818931563,0.00060035503606686,-0.000853577795172534,-0.0294488381455371,0.0424237260133179,-2.01149244601679,-0.00123711986594246,0
0.19,0.000906093386529487,0.00051586794570224,-0.0447165707291491,-0.0258052929571304,0.000599460145754658,-0.000853095830588409,-0.0294360262858114,0.0424146814072596,-2.01150080181764,-0.00115569626246046,0
0.2,0.00090524673683228,0.000515852811363632,-0.0447068911803178,-0.0258045502940692,0.000598694212666885,-0.000852725640083862,-0.0294272583892294,0.042410109627086,-2.01150858342936,-0.00108028100267754,0
0.21,0.000904481242626906,0.000515848273776821,-0.044698976217899,-0.0258043126040083,0.000597997620042559,-0.000852399323231708,-0.029419893730204,0.0424067315033496,-2.01151583185764,-0.00101013306640523,0
0.22,0.000903773593704917,0.000515846202718644,-0.0446918600212069,-0.0258042127902386,0.000597352720539634,-0.00085209960732384,-0.0294132137852517,0.0424038041300795,-2.01152258401019,-0.00094481212252115,0
0.23,0.000903115770580693,0.000515844759292802,-0.0446852949987948,-0.0258041419894066,0.000596753015484488,-0.000851821430389949,-0.0294070396059007,0.0424011244491907,-2.01152887395588,-0.000883968463842318,0
0.24,0.000902503349434127,0.000515843523917162,-0.0446791953488584,-0.0258040740173862,0.000596194655048464,-0.000851562546263477,-0.029401303409118,0.0423986331237362,-2.01153473335629,-0.000827290955248829,0
0.25,0.000901932708106323,0.000515842397450965,-0.0446735040629293,-0.0258040332923259,0.000595674379748846,-0.000851321339019992,-0.0293959419609653,0.0423963287990786,-2.0115401916874,-0.000774493299570638,0
0.26,0.00090731682072065,0.000519256956900178,-0.0449496120737525,-0.0259748251225271,0.000599083013427147,-0.000856709486042328,-0.029572589980854,0.0426687366528586,-2.01154515328636,-0.000752248768906634,0
0.27,0.000893781030911009,0.000511580072048027,-0.0443243997841707,-0.0255908134298797,0.000590111651585633,-0.000843994632681919,-0.0291707421485353,0.0420548445572394,-2.01155018016473,-0.000646869893835704,0
0.28,0.000892596148589113,0.000511214575604164,-0.0441778243121348,-0.0255725329735172,0.000589192209131895,-0.000843161175271099,-0.0290457881094346,0.0419759073366771,-2.01155460111768,-0.000600953900309931,0
0.29,0.000898117113176529,0.000514795515311159,-0.0445640658132131,-0.025751659266051,0.00059265443675683,-0.000848757615669791,-0.0293185281195819,0.0423028110846131,-2.01155857147791,-0.000588443126788433,0
0.3,0.000885217989658892,0.0005080232544224,-0.0439610614557407,-0.0254128773042397,0.000583874887475156,-0.00083713119164533,-0.0289175654140695,0.0417392341534768,-2.01156153392338,-0.000504868735378645,0
0.31,0.000895843500009991,0.000514074749058233,-0.0444807226179331,-0.0257156051998241,0.000590900241141886,-0.000847139498044978,-0.0292582638478144,0.0422348319757331,-2.01156492093795,-0.000520002735608889,0
0.32,0.000898151923602872,0.000515439099988716,-0.0446038498323176,-0.0257838473950203,0.000592403123026887,-0.000849360278972774,-0.029340367345291,0.0423491800439751,-2.01156825566174,-0.000499335775706481,0
0.33,0.000898465352982405,0.00051574632888809,-0.0446311810227157,-0.025799224406259,0.000592552843488448,-0.00084977373102791,-0.0293583924013632,0.0423748403543247,-2.01157140557251,-0.000471671433049962,0
0.34,0.000898313347044411,0.000515815163643587,-0.0446355250757484,-0.0258026568324115,0.00059238349596444,-0.000849772879204638,-0.0293607320421085,0.0423798845249779,-2.01157435038834,-0.000443865244276816,0
0.35,0.000898063883642397,0.000515830261305818,-0.0446344392001596,-0.025803419364769,0.000592149101912812,-0.000849681727875528,-0.0293593082581856,0.042380191507681,-2.01157709617935,-0.000417469841052368,0
0.36,0.000897805571631267,0.000515833268076859,-0.0446321930012634,-0.0258035737590982,0.000591912023236098,-0.000849575753924009,-0.0293571024558603,0.042379447922777,-2.01157965464043,-0.000392761993856795,0
0.37,0.000897558609877567,0.000515833575031431,-0.0446297973835297,-0.0258035913462233,0.000591686510980191,-0.000849472076067922,-0.0293548273046163,0.0423785117102283,-2.01158203812784,-0.000369716527192101,0
0.38,0.000897327131310902,0.000515833298417449,-0.044627496487819,-0.0258035797772325,0.000591475389982087,-0.000849374378815617,-0.0293526571778397,0.0423775847434763,-2.0115842585048,-0.000348241511717426,0
0.39,0.000897111077758844,0.000515832913813697,-0.0446253310181717,-0.0258035594207038,0.000591278395174876,-0.000849283074251799,-0.0293506197260119,0.0423767031393221,-2.01158632690893,-0.000328234741311475,0
0.4,0.000896909692537092,0.000515832526872092,-0.0446233060062549,-0.0258035390094444,0.000591094788215922,-0.000849197941407186,-0.0293487153327103,0.0423758772494366,-2.01158825373573,-0.000309596996508682,0
0.41,0.000896722160738395,0.000515832159920129,-0.0446214211395689,-0.0258035185458435,0.000590923814266149,-0.000849118658669298,-0.0293469433029928,0.0423751072285532,-2.01159004867478,-0.000292234879172926,0
0.42,0.00089654743462486,0.000515831816592551,-0.0446196618249539,-0.0258034980335042,0.00059076451645979,-0.000849044787766593,-0.0293452900539444,0.0423743871199122,-2.0115917207531,-0.000276061149403516,0
0.43,0.000896384757491632,0.000515831496405168,-0.0446180254268922,-0.0258034745646665,0.000590616203436497,-0.000848976010488627,-0.0293437540857299,0.0423737134171694,-2.01159327837998,-0.000260994481944287,0
0.44,0.000896233198026639,0.000515831198032508,-0.0446164982131764,-0.0258034539633415,0.000590478026774352,-0.000848911933009177,-0.0293423201614804,0.042373085759546,-2.01159472938962,-0.000246959104391976,0
0.45,0.000896091753411203,0.000515830920041837,-0.0446150606009774,-0.0258034546863967,0.000590349073888992,-0.000848852130562904,-0.0293409623857883,0.0423725126993617,-2.01159608107948,-0.000233884427526213,0
0.46,0.000895960275588957,0.000515830661054402,-0.0446137336750436,-0.0258034340039213,0.000590229205658625,-0.000848796542820981,-0.0293397177707401,0.0423719647875309,-2.01159734024857,-0.000221704693048898,0
0.47,0.000895837457419623,0.000515830419775558,-0.0446124786090054,-0.0258034317348465,0.000590117235039476,-0.0008487446147053,-0.0293385339434885,0.042371461657354,-2.01159851322889,-0.000210358643528101,0
0.48,0.000895723500103023,0.000515830194996079,-0.0446113301845761,-0.0258034109811481,0.000590013339480374,-0.00084869643450513,-0.0293374578537719,0.0423709849517033,-2.01159960592078,-0.000199789214466546,0
0.49,0.000895616980084001,0.000515829985588618,-0.0446102402622093,-0.0258034115504678,0.000589916227299037,-0.000848651397109797,-0.0293364287461133,0.0423705502952118,-2.01160062381937,-0.000189943247335354,0
0.5,0.000895518040343663,0.000515829790502607,-0.0446092374131664,-0.0258033907353145,0.000589826023892632,-0.000848609565636592,-0.0293354904653643,0.0423701314038567,-2.01160157204427,-0.000180771222227078,0
0.51,4.74552384694173,-0.0107554448270548,2.72441871137958,0.542474630239713,-0.430486640232007,4.72597011353942,0.299355066847121,2.76172456688241,0.0885724594625987,27.3212957639504,730.926943723727
0.52,4.72808919812651,-0.0422641816571777,3.59677739806918,2.12391176322583,-1.8883375426991,4.33483506621934,0.547767320888294,4.14098536478906,0.401892026012175,58.1900469255642,730.926943723727
0.53,4.7342731653865,0.00649126731376193,3.28830084165645,-0.309626354172766,-3.8263651931546,2.78788700446504,-2.84232924881648,1.68224711197826,0.94250405833926,89.4340611740256,730.926943723727
0.54,4.74609176438012,0.00181726511926272,2.69811622613788,-0.0696926012429939,-4.69600609050969,-0.687689709291338,-2.65936824569161,-0.460921644342764,1.71658707504141,122.095613722766,730.926943723727
0.55,4.72240251844194,0.0528091708301535,3.88334935042232,-2.62002254331579,-1.89736966555803,-4.32479626189844,0.890603718136444,-4.59910266488474,2.73934185627008,157.087401065016,730.926943723727
0.56,4.71647545590537,-0.00986683058845106,4.18053584967913,0.521718115184371,3.61239152594787,-3.03246855610469,2.85999916897394,-3.09345672923226,-2.27123313576619,189.570028080597,730.926943723727
0.57,4.69494610178477,0.0222165770832989,3.01245115792681,-1.07480804087568,3.28001813127912,3.35924002319595,1.32177218467017,2.91255774113713,-0.768734404412818,220.420609173224,730.926943723727
0.58,4.38754508182429,0.0463687048813659,4.62929197025659,-2.28750409309727,-3.57886783706072,2.53858364185331,-5.10759865002173,0.75858760345466,0.964406617852873,252.794820507292,730.926943723727
0.59,4.11302209286814,-0.021408961468562,5.8132973483761,1.10916421674845,-0.856570843066032,-4.02289640319779,-2.32385792894886,-5.44282607166657,2.92659657937297,281.690656292384,730.926943723727
0.6,3.91582498152644,0.00524033468212881,4.07151822246415,-0.220144031984584,3.64080834039484,1.44160583224593,3.70223470573021,1.70856144588447,-1.19244135923593,309.211842177646,730.926943723727
0.61,3.62656229569655,0.0397577988775525,7.11643719745371,-1.94963494899314,-3.32941742944281,1.43823306444464,-7.31697756872808,0.952152339895426,1.17399314372676,335.430307935975,730.926943723727
0.62,3.46899309105517,0.0483662919148109,4.56594562652722,-2.38496972930939,1.86051608937679,-2.92826437419032,4.49708387318114,-2.51240456768,-2.56163314375579,360.135082632772,730.926943723727
0.63,3.20648329726163,-2.36833881697152e-05,7.80633585190962,0.0441702008506187,-0.524253290831195,3.16333583788244,-1.23268676304446,7.70852215302438,0.164227845727263,382.852766070687,730.926943723727
0.64,3.10084510851779,0.0297460747447756,3.49675654612461,-1.45314204783837,-0.304498271586922,-3.08600162323062,1.13745744256996,-3.61180269677116,3.0528328044699,405.25593552519,730.926943723727
0.65,2.86352571981552,0.0705713882897974,6.82485895991972,-3.48507793334542,0.600479198144948,2.8007471505806,-2.15871542754543,7.3528508571278,-0.186562319344357,425.314676124962,730.926943723727
0.66,2.71092818277477,0.0579818514208859,6.05355048598108,-2.85895337060218,-0.427132638102377,-2.67769513140022,2.00671469553773,-6.38687591803006,3.00479521606425,444.661708036237,730.926943723727
0.67,2.60620297153002,-0.0429383645995332,3.30591073587019,2.18212208440624,-0.172388549421664,2.600849826498,2.01515446737654,3.41025733008634,0.0497108560133226,463.268374452431,730.926943723727
0.68,2.45001899068412,-0.0079232587843926,3.77871957098463,0.425321747042373,0.884199955267853,-2.28491712581593,0.955158258587243,-3.68066473421609,-2.77560107868513,480.496080382024,730.926943723727
0.69,2.27469207784607,-0.0108614714658226,5.67193166495912,0.586717401755769,-1.64801260467425,1.56792744583826,-3.68410846198999,4.35228571692883,0.805520700304658,496.400909420255,730.926943723727
0.7,2.13556948600021,0.0566011325309853,6.00535303631085,-2.79209925567176,2.07686135918828,-0.500507355040447,6.455439648098,1.47898015335402,-1.78078144683937,511.659705925311,730.926943723727
0.71,2.04350351805777,-0.0569450123917664,4.34556923103758,2.88272496263559,-1.81191538762391,-0.946631919408204,-5.16933769325421,0.68703927474646,2.02438163688685,526.202352752722,730.926943723727
0.72,1.8979034740222,-0.00696204461818239,5.73700806697516,0.375137744421629,0.646619661779256,1.78436797768041,2.32659288104602,5.25746663838143,-0.351329381535841,539.868016451335,730.926943723727
0.73,1.82939989576762,0.0195548494051759,3.65418098328077,-0.955644459749587,0.877456051829072,-1.60535268644568,2.62038071165904,-2.72027570624489,-2.63068900379779,552.697463359046,730.926943723727
0.74,1.71626598922424,8.10886898428009e-05,4.15216045874354,0.0156569632302703,-1.7065050285381,0.182782767014298,-4.12689992579214,0.45757908403666,1.46414095723236,564.718282064266,730.926943723727
0.75,1.58833785271466,-0.0106485564646589,5.68796920636377,0.550688315618266,0.937916834266531,1.28189022077573,3.8316221859851,4.23968427331184,-0.63836852026595,575.997668551128,730.926943723727
0.76,1.46534434906797,0.00276585650619376,7.22750935050585,-0.10884338260989,0.676194621708471,-1.3000009787997,3.44374835634921,-6.3552604629338,-2.66006832230745,586.629377395503,730.926943723727
0.77,1.38432556178623,0.0409383770096482,6.91341424562522,-2.0146787237035,-1.38079352504142,-0.106969401842994,-6.65904756788161,-2.74067735788935,1.67767559623869,596.673860597,730.926943723727
0.78,1.33230222270088,-0.0172595735168618,5.41364765204797,0.896564780159296,0.242764013173043,1.3101117278308,1.93459682211301,5.13505057827251,-0.196176025510228,606.136642853106,730.926943723727
0.79,1.2686103361522,0.0108911993005715,4.71966180878973,-0.512775250408615,1.14764520596683,-0.540741421046833,4.50115618468539,-1.50921802528607,-2.00253403256345,615.050080530907,730.926943723727
0.8,1.17489547144069,-0.0207049867510947,5.74550307454164,1.0664189799796,-0.650078883323563,-0.978879722307594,-4.14020821607298,-4.12392179217671,2.5377446244898,623.486633617523,730.926943723727
0.81,1.08081290005807,0.020021348557421,6.9978561400573,-0.972782860411866,-0.80226247532835,0.724522118371842,-5.91794252746139,3.85930735911414,0.85479415076503,631.430378253778,730.926943723727
0.82,0.977452581192353,-0.0107530048288738,8.93316156287503,0.565090869188437,0.674026925298395,0.707966722074728,6.6354694033414,6.0075992706062,-0.771845128702597,638.854109197889,730.926943723727
0.83,0.965774890900556,0.00755409030023763,6.4605106000784,-0.350748947490863,0.684759812161654,-0.681088983777143,4.86142345728246,-4.26940089554438,-2.345685283837,645.894765201754,730.926943723727
0.84,0.947414807274833,0.00306761592552666,4.51221189585441,-0.12668083723697,-0.632707741808187,-0.705184472862995,-2.90789933413374,-3.45256798487121,2.41355178477405,652.464449939791,730.926943723727
0.85,0.817286084761798,0.00668149569539744,8.29410306643084,-0.315073443285896,-0.654324024588928,0.489756324691927,-6.86722579652975,4.66182655304955,0.936436050979892,658.709015774823,730.926943723727
0.86,0.799079368216111,0.0332657188205006,6.63572830077232,-1.65936624116394,0.409841759353876,0.686778113401282,1.70145137191221,6.62506223616075,-0.496427766087723,664.584958924771,730.926943723727
0.87,0.741243197645191,0.0159047321554281,7.10368507275287,-0.794825631608913,0.699381699025432,-0.246088759654933,6.9976748048568,-1.45829925700687,-1.88767914798365,670.119216946296,730.926943723727
0.88,0.746543960943827,-0.00438331417775523,4.54186916475945,0.220624157631946,-0.0687173020691038,-0.743387537870539,-0.664170400171339,-4.49845842575651,3.04354513220116,675.33491774781,730.926943723727
0.89,0.697315319049631,-0.00116039687787323,4.85719348675165,0.059750410670763,-0.688487945709139,-0.110608992922874,-4.80635417215854,-0.703461620198413,1.72842602987695,680.202601736248,730.926943723727
0.9,0.686938312269592,0.0114278846014146,3.33862716854599,-0.567361877889873,-0.287337168193902,0.624061049244838,-1.95790069237242,2.7631423687251,0.448128997564433,684.799741993104,730.926943723727
0.91,0.64563877242925,0.0228089604649155,3.48806692797099,-1.13375112298467,0.478761365751806,0.433770939327319,1.71017909703703,3.24457854873812,-0.799348048240749,689.128689062349,730.926943723727
0.92,0.551376798981399,-0.0069299755347581,6.40682298799334,0.3566323937699,0.500613482851756,-0.231193727862417,5.62870973365866,-3.08094047296962,-2.01600468022629,693.193663942375,730.926943723727
0.93,0.567170233665119,0.0142054158084463,3.92450181650428,-0.695784230437313,-0.0493358629937675,-0.565198938796506,0.451174024671323,-3.96008487314761,3.07956485599407,697.015982499955,730.926943723727
0.94,0.518370337906272,-0.0143303764222209,4.7618259011743,0.734301143556769,-0.482315764903165,-0.190485353335474,-4.72633075714192,-0.935938917140175,1.91929424294162,700.633608308058,730.926943723727
0.95,0.418696430373106,-0.0137407011438156,8.2337069824217,0.703712073037116,-0.305601797153516,0.286536296569294,-5.3205948140217,6.3230065775012,0.784778731857924,704.041156191619,730.926943723727
0.96,0.430754724461146,-0.0514607709084661,6.20921770851509,2.5736906850946,0.0890624858408248,0.42457710395633,4.4250211342956,5.05939287418139,-0.325672515269099,707.239925687582,730.926943723727
0.97,0.428397701208188,0.0179847613742797,4.97802106239798,-0.906437282085962,0.425927892879114,0.0493302352488576,4.77463101672647,1.67487936823726,-1.41353495363611,710.235202020639,730.926943723727
