t,iq,id,vq,vd,ia,ib,va,vb,theta_e,omega,r
0,0,0,0,0,0,0,0,0,0,0,0
0.01,0.000728921626591104,0.000415388332364076,-0.0359539472072468,-0.0207903777116159,0.000207332776306697,-0.000812949767356745,-0.0100097846892546,0.0403079438280832,-2.37391025906767,-0.00180388156889307,0
0.02,0.000819438680187201,0.000466483225675839,-0.0404718589399386,-0.0233477062949334,0.000233417688458553,-0.000913565834047302,-0.0113066610716764,0.0453348229366675,-2.37392396236806,-0.00195993014719183,0
0.03,0.000855214683687042,0.00048685851455744,-0.0422397034571223,-0.024367509988665,0.000243588526454919,-0.000953461062744843,-0.011799907401557,0.0473152224607261,-2.37393810995641,-0.00197410840427631,0
0.04,0.00083558354277214,0.000475952521679625,-0.0412856257649419,-0.0238216622021691,0.000237790566839213,-0.000931765156124182,-0.0115294913730243,0.046249814200237,-2.37395145839325,-0.00185148345835353,0
0.05,0.000855548799814341,0.00048748483847818,-0.0422761735172503,-0.0243988594061698,0.00024334458995997,-0.000954142875646551,-0.0118014210583632,0.0473635476773638,-2.37396462310945,-0.0018307304172172,0
0.06,0.000856555922788719,0.000488251498814446,-0.0423352879128688,-0.024437227435048,0.000243480106802477,-0.000955403062874744,-0.0118142580077773,0.0474328788405619,-2.37397739468547,-0.00176381947194852,0
0.07,0.000877197566630093,0.000500312043181366,-0.0433582301851002,-0.0250408511287818,0.000249123837390717,-0.000978634265237935,-0.0120896725450001,0.0485882719160974,-2.37398952848191,-0.00175039712195299,0
0.08,0.00085734495262702,0.000489102280708779,-0.0423921690691698,-0.0244798045985302,0.000243392815295737,-0.000956567481285022,-0.0118219773807113,0.0475036596735583,-2.3740014542546,-0.00163494727121096,0
0.09,0.000855630777804557,0.000488352336720775,-0.0423165301070002,-0.0244422713549709,0.000242731316793824,-0.000954815972088134,-0.0117959244834759,0.0474233013914765,-2.37401278374471,-0.0015689487953814,0
0.1,0.000855189389264838,0.000488300150579651,-0.0423030565167558,-0.0244396557156368,0.000242451994763728,-0.000954464749900365,-0.0117879352357687,0.047411917753198,-2.37402365529305,-0.0015086836589546,0
0.11,0.000854848933848654,0.000488294590321082,-0.0422942119131944,-0.0244393885454032,0.000242209626022104,-0.000954218425572073,-0.0117814910055902,0.0474054906473562,-2.37403409502657,-0.00145102525394575,0
0.12,0.000854527978347071,0.000488292222140583,-0.0422860104979106,-0.0244392552871732,0.000241978900673117,-0.000953988245006169,-0.0117754167880657,0.0473996143685618,-2.37404412062621,-0.00139566889059942,0
0.13,0.000893888998132477,0.000510917511727343,-0.0442267369664127,-0.0255716677028533,0.000253018686298647,-0.000998025946133491,-0.0123076097597017,0.0495826299605447,-2.37405409332752,-0.00144169127961838,0
0.14,0.000927051981879919,0.000530300026732107,-0.0459279842964897,-0.0265417747390834,0.000262087897885205,-0.00103535183838233,-0.0127902928296508,0.0514806172959361,-2.37406370751719,-0.00147387421002341,0
0.15,0.000858682618354574,0.00049108821796379,-0.0425118571437132,-0.024579202221276,0.000242824016936922,-0.000958926469384246,-0.0118301533244221,0.0476596543416182,-2.37407302155176,-0.00124903393397958,0
0.16,0.000853684213829025,0.000488471099869896,-0.0422727724530032,-0.0244482062823308,0.000241228614853974,-0.000953514293403418,-0.0117580100492182,0.0473967433582653,-2.37408153527144,-0.00118998611646338,0
0.17,0.000853095494537637,0.00048829491435925,-0.0422499912441867,-0.0244393958602062,0.000240938867133629,-0.000952970255828526,-0.0117481464268357,0.0473743272847155,-2.37408968137803,-0.00114417234359348,0
0.18,0.00085282261747358,0.000488281603285499,-0.0422424756996228,-0.0244387303226372,0.000240751525329012,-0.000952766521259694,-0.0117430365673428,0.0473685484809685,-2.37409750229199,-0.00110093201079106,0
0.19,0.000852580882027243,0.00048827921760391,-0.0422362538251564,-0.0244386118682078,0.000240578242366554,-0.000952592706271709,-0.0117384460193137,0.0473640768122805,-2.37410501284449,-0.00105945931372869,0
0.2,0.000852350206068038,0.000488277619878866,-0.0422303487856403,-0.024438528352098,0.000240412357576596,-0.0009524273233078,-0.0117340644906948,0.0473598538543073,-2.3741122254807,-0.00101963527858796,0
0.21,0.000852128785126866,0.000488276131607383,-0.0422246809606653,-0.0244384477646525,0.000240253094784593,-0.000952268605796539,-0.0117298591665459,0.0473558002287853,-2.37411915202652,-0.000981391118713441,0
0.22,0.000851915862252024,0.000488274705289423,-0.0422192214166889,-0.0244383875057467,0.000240099951531148,-0.000952115978994588,-0.0117257968912471,0.0473519073341049,-2.37412580383052,-0.000944663932757254,0
0.23,0.000851711554109274,0.00048827333560137,-0.0422139846489701,-0.0244383272519801,0.00023995300202696,-0.000951969526025268,-0.0117219018328093,0.0473481716251044,-2.37413219179019,-0.000909393533542099,0
0.24,0.000851515628115917,0.000488272020115915,-0.0422089672562561,-0.0244382467013987,0.000239812076338389,-0.000951829080558055,-0.0117181857391176,0.0473445766868991,-2.37413832637131,-0.000875522136431385,0
0.25,0.000851327152452914,0.000488270756681625,-0.0422041305557296,-0.0244381864613543,0.000239676519267922,-0.000951693973105665,-0.011714592047014,0.0473411229974219,-2.37414421762368,-0.000842994249875048,0
0.26,0.000859658373956362,0.000493126160447928,-0.0426175218068243,-0.0246812001889602,0.000241961153060557,-0.000961062292695441,-0.0118264490289577,0.04780742527148,-2.37414981974053,-0.000833743147104058,0
0.27,0.00083453246482514,0.000478773486334653,-0.0413876580567968,-0.0239628421599041,0.000234840530167052,-0.000933015761632685,-0.0114892919032449,0.0464236170000663,-2.37415542489283,-0.000739242449490086,0
0.28,0.000833215398375184,0.000478061399527111,-0.0412651483334452,-0.0239271970061686,0.000234433717547749,-0.000931574706550193,-0.0114296458960909,0.0463107592060766,-2.37416064817837,-0.000707472785833209,0
0.29,0.000849424184608526,0.000487585451675336,-0.0421266452383043,-0.02440389329078,0.000238828234218566,-0.000949853721697895,-0.0116844663056534,0.047261797404815,-2.37416554271745,-0.000722139481571199,0
0.3,0.000842951718810642,0.000484068567026729,-0.0418119421031495,-0.0242278766508199,0.000236861590193378,-0.00094275477454118,-0.0115924522765149,0.0469131491126016,-2.37416978814023,-0.000682556185980542,0
0.31,0.00084983783570904,0.000487984364478135,-0.0421535916959688,-0.0244238520032607,0.00023881992636797,-0.000950430497062964,-0.0116883924451618,0.047295151142538,-2.37417438362216,-0.000675099340458516,0
0.32,0.000850183491434241,0.00048824465798677,-0.0421738996210855,-0.0244368886403762,0.000238868334701155,-0.000950861048648556,-0.0116928983470152,0.0473188700617197,-2.37417884134041,-0.000651730512886064,0
0.33,0.000850080582243906,0.000488261164048342,-0.0421720443531957,-0.0244376984232308,0.000238780934522159,-0.000950799466730343,-0.0116908247603444,0.0473181471063227,-2.37418312533396,-0.000628163293029503,0
0.34,0.000849951303598928,0.000488261443323914,-0.0421687647636097,-0.0244377166443185,0.000238687067350401,-0.000950707599320598,-0.011688340044638,0.0473158474876818,-2.37418723961712,-0.000605452736352447,0
0.35,0.000849825168091841,0.000488260672808236,-0.0421655156190611,-0.0244376824830716,0.00023859629378938,-0.000950617225555822,-0.0116859219060593,0.0473135314869879,-2.37419119072195,-0.000583637570267786,0
0.36,0.000849703747391699,0.000488259863523137,-0.0421623788867553,-0.0244376395854969,0.000238508971139428,-0.000950530180133771,-0.0116835955321193,0.0473112884768825,-2.37419498510705,-0.000562687327172691,0
0.37,0.000849587332553918,0.000488259081668346,-0.0421593737598844,-0.0244375995909296,0.000238425247837556,-0.000950446720053943,-0.0116813655748992,0.0473091404265369,-2.37419862898744,-0.000542568050350714,0
0.38,0.000849475457912919,0.000488258330472333,-0.042156481686082,-0.0244375595900853,0.000238344792516171,-0.00095036651390525,-0.0116792209636625,0.0473070720352664,-2.37420212833339,-0.000523246803822866,0
0.39,0.000849367773981738,0.000488257609010056,-0.0421536897617738,-0.0244375398333609,0.000238267357690511,-0.000950289310943826,-0.0116771378923295,0.0473050881436923,-2.37420548887731,-0.000504691935369608,0
0.4,0.000849264746904041,0.000488256916124659,-0.0421510256365074,-0.0244374998166162,0.000238193262521006,-0.00095021544723665,-0.0116751644466023,0.0473031805975181,-2.37420871612519,-0.000486873046685304,0
0.41,0.000849165677946516,0.000488256250686686,-0.0421484584651467,-0.024437459793956,0.000238122017637555,-0.00095014442041892,-0.0116732643830485,0.0473013413214981,-2.3742118153641,-0.000469760945106561,0
0.42,0.000849070334038476,0.000488255611610829,-0.0421459807076388,-0.0244374400082924,0.000238053457134095,-0.000950076063249769,-0.0116714176559701,0.0472995790030679,-2.37421479167134,-0.000453327595890366,0
0.43,0.000848979064906356,0.000488254997853446,-0.0421436135988684,-0.0244373999707521,0.000237987819876829,-0.000950010627923926,-0.0116696679169384,0.0472978808744072,-2.37421764992332,-0.000437546076290163,0
0.44,0.000848891171578327,0.000488254408412794,-0.0421413259384259,-0.0244373801662666,0.000237924616831763,-0.0009499476118311,-0.0116679641440461,0.0472962526419646,-2.37422039480226,-0.000422390531454136,0
0.45,0.000848807003774917,0.000488253842326461,-0.0421391387091684,-0.0244373372042866,0.000237864087169495,-0.000949887267121171,-0.0116663519205635,0.0472946793376603,-2.37422303080558,-0.000407836132062819,0
0.46,0.000848725978950263,0.00048825329867054,-0.042137026212154,-0.0244373173819732,0.000237805822983946,-0.000949829174937617,-0.0116647798780289,0.0472931746579586,-2.37422556225179,-0.000393859033653489,0
0.47,0.000848648155546761,0.000488252776556803,-0.0421349946604566,-0.0244372975502529,0.000237749861513377,-0.000949773377747933,-0.0116632687940727,0.047291727052768,-2.37422799328778,-0.000380436337554152,0
0.48,0.000848573708425887,0.000488252275132502,-0.0421330559056471,-0.0244372574774856,0.000237696320950733,-0.000949720001795378,-0.011661841268908,0.0472903310539068,-2.37423032789662,-0.000367546053370525,0
0.49,0.000848501996826196,0.000488251793578484,-0.0421311809266184,-0.0244372376292911,0.000237644753379944,-0.000949668586266617,-0.0116604478483772,0.0472889939118731,-2.37423256990321,-0.0003551670629583,0
0.5,0.000848433079194032,0.000488251331108339,-0.0421293755026959,-0.0244372177725896,0.000237595196427368,-0.000949619173581901,-0.0116591069329581,0.0472877057831945,-2.3742347229802,-0.000343279085824648,0
0.51,0.656705500102765,-0.0424975091572695,-0.665742236406926,2.12727935065983,-0.0507609429008359,0.656118494500508,2.13549135234519,-0.63891067070345,0.0125886252069105,3.93365070126886,123.35737894302
0.52,0.600357731571075,0.0091423962746842,1.59714845900903,-0.457482926659259,-0.0252277477426526,0.59989711618797,-0.548129265978083,1.5683520446883,0.0572557638962904,8.24861006257252,123.35737894302
0.53,0.669304364207312,0.0125531734448574,-2.41595479604755,-0.628085282469958,-0.0765762076180545,0.665027817867288,-0.301181997444497,-2.47802705857218,0.13339583006933,12.4981678847335,123.35737894302
0.54,0.626834971676962,0.0243395363930328,-0.851573531644896,-1.21791929563871,-0.125545858380061,0.614615922501768,-0.980249382963145,-1.11696733957964,0.240304986288235,16.6635285262893,123.35737894302
0.55,0.628839717000944,0.0535061550819846,-1.51771114088968,-2.67768138992628,-0.182074948137328,0.604277263820404,-1.92961992345398,-2.39791402768065,0.377541107567256,20.7761585712476,123.35737894302
0.56,0.603432913333813,-0.0348771963016769,-0.825707189869527,1.74638717554957,-0.342586638508993,0.497978006373281,1.92147221034163,0.199010238960393,0.544862753417818,24.8665481161121,123.35737894302
0.57,0.554026801557676,-0.00938626175956744,1.0617357974743,0.470626079271342,-0.381277760347437,0.402070974105929,-0.370487181129863,1.10068663058436,0.741920118119261,28.893068918679,123.35737894302
0.58,0.596539279313585,0.0134312712098606,-1.64755888832432,-0.671185533708147,-0.483840487676251,0.349196067124892,0.976884944622685,-1.48682080834413,0.968154692563651,32.836373996387,123.35737894302
0.59,0.552881114888297,-0.00621826466870007,-0.0655504096800278,0.312490875560224,-0.521957504394559,0.182418632880033,0.168041395048048,0.271494922729543,1.22332988156592,36.7762442303431,123.35737894302
0.6,0.571214609605599,0.0349106971066656,-1.61278871009155,-1.74591090480614,-0.56786497708349,0.0709524827001709,1.49918786658666,-1.84437741571488,1.50753513707129,40.7758818879419,123.35737894302
0.61,0.524094230783662,0.0665812186058085,0.0912569957429702,-3.33109616554767,-0.524259306751928,-0.0652686808181437,0.736432039839005,-3.24995343875831,1.82101961559873,44.7729625247529,123.35737894302
0.62,0.505429531188555,-0.0711366686881581,0.34321340748435,3.56118814740949,-0.379301880140883,-0.34153992497382,-2.27543551632563,2.76084220399695,2.16402989572939,48.7932845510343,123.35737894302
0.63,0.51577481223856,0.0111784127266542,-0.842972762608024,-0.559390069279777,-0.30278978463866,-0.41769242292539,0.939767940312031,0.374641890969924,2.53601253127608,52.6619820412945,123.35737894302
0.64,0.490915451637587,0.0331185176907292,-0.229015808822686,-1.65765496280779,-0.132789432426794,-0.473773979347048,1.66946193182131,-0.11473915901502,2.93568491062333,56.3179060532116,123.35737894302
0.65,0.435630789186267,0.0374096112014055,1.98705903854345,-1.87232920661833,0.0581440513670915,-0.433350819530679,2.25936762045353,-1.53273554022192,-2.92255163229322,59.6166795705221,123.35737894302
0.66,0.396144122102197,-0.0534030355227324,3.42802029979683,2.67352232275052,0.287244390787268,-0.277979692856176,0.0235745434885266,-4.34723924197459,-2.47380402731829,62.7915439038467,123.35737894302
0.67,0.430414607308198,-0.00764361818860179,1.19994475820656,0.383687321549177,0.394161440184373,-0.173066224766893,0.929496276918375,-0.850364659813577,-2.0022843916367,65.848553929285,123.35737894302
0.68,0.449752437059007,0.0455463720095179,-0.274717747296007,-2.27811792164363,0.451712465044684,-0.0175378324487482,-0.415613712422171,2.25666930400534,-1.50867625520409,68.8419759350568,123.35737894302
0.69,0.420345657027921,-0.0288675840478601,0.664176962469517,1.44696416450037,0.33634914777826,0.25375787589715,1.34664246300754,-0.849347047824663,-0.993022856421668,71.8464750225398,123.35737894302
0.7,0.413348490478524,-0.0355997499445431,0.446881945028809,1.78415731340121,0.149667983378336,0.386941612557309,1.79903193085302,-0.382628937127105,-0.454986476819903,74.9411876457821,123.35737894302
0.71,0.367542438927466,-0.000140901952690165,2.15240677412283,0.00679051184064626,-0.0389186730428233,0.365476129391095,-0.220342878593339,2.14110953671084,0.105704437293141,78.0557736921421,123.35737894302
0.72,0.376088924522571,0.0250004334537359,1.14174629074778,-1.25167830807362,-0.219856352606698,0.30615532828925,-1.69204495818771,0.0852469284484489,0.689161130437805,81.0586296179257,123.35737894302
0.73,0.38313554907647,-0.00263646563309879,0.260650028653792,0.132126106267552,-0.369235514225449,0.102298264656989,-0.214550418862988,0.198403284147121,1.29364013214599,83.8180097583561,123.35737894302
0.74,0.372016373272844,0.00178738487964564,0.327637108892914,-0.0885332995819412,-0.350493197599594,-0.124715256340995,-0.278066597492581,-0.194584654116073,1.91745811972263,86.383632427571,123.35737894302
0.75,0.385832111063518,-0.0464722293933635,-0.827278669127002,2.32803678959018,-0.173272793276633,-0.347854315975285,-1.4899872558966,1.9708077702667,2.5595817683196,88.8142280579872,123.35737894302
0.76,0.302986484685667,-0.0202925149414458,2.82053327754847,1.01805396302501,0.0438878462528521,-0.300477042411085,-0.794717764517839,-2.89141237393579,-3.06343277447585,91.3217383967182,123.35737894302
0.77,0.372224673589214,-0.0215961561177057,-1.1705470351245,1.08348672570708,0.271330956005592,-0.255728594218067,-1.59145599367299,0.10673174984286,-2.38455464943607,93.9106994985838,123.35737894302
0.78,0.367458813013971,-0.0262934346908655,-1.47859428623917,1.31578544959209,0.368035642523207,-0.0163428823042141,-1.62073019029306,-1.13611885950811,-1.68660591129092,96.5286883072655,123.35737894302
0.79,0.33943403093375,0.0115970111536319,-0.574369599263654,-0.580453118175474,0.286619200850208,0.182206985946258,-0.801860636854719,0.15442078234767,-0.970379307778916,98.8403843882994,123.35737894302
0.8,0.26962731670957,-0.0477522578959796,2.46883057690355,2.39097267617479,0.0171460468677038,0.27328589631918,2.90552432722425,1.83570235593258,-0.237945266884491,100.96705968666,123.35737894302
0.81,0.290429922234057,-0.0339048576172146,0.994417393057683,1.69907039146232,-0.171303101299995,0.236969041403993,0.997892746983701,1.6970315884735,0.509711084761819,103.019230773224,123.35737894302
0.82,0.32323725603286,-0.0387744624727068,-1.11055273005384,1.94368687190792,-0.320372514404825,0.057855290524121,1.63236349874017,1.53187317694317,1.27274812322544,105.163204213603,123.35737894302
0.83,0.24986676994419,-0.00908744797306782,2.08554676753954,0.454168630310267,-0.21736881541388,-0.123558822099324,-2.0592983010601,-0.56130648633657,2.05132544397864,107.276843304898,123.35737894302
0.84,0.26830590400953,-0.0204245449773713,0.693825876190943,1.02160245734981,-0.0588086564137317,-0.262577154555981,-1.17967331825054,-0.36529000745032,2.84528394787788,109.322284246986,123.35737894302
0.85,0.258488682482963,-0.0398214261398875,0.764844057742759,1.99352920026261,0.161320360784958,-0.205858898636429,-1.36344828526807,-1.64321449554331,-2.62975710059745,111.144132922266,123.35737894302
0.86,0.242054215565141,0.0363496841433055,1.1890041343183,-1.81776758251392,0.226668875938829,-0.0923729586556661,1.58392142495779,1.48633870131413,-1.8087140236679,112.857270053204,123.35737894302
0.87,0.271754248359562,-0.0484601595419766,-0.700316807568207,2.4284895716958,0.19776338783325,0.192583490977342,0.782810603557062,-2.40316724132059,-0.975135914697328,114.593443400942,123.35737894302
0.88,0.191325676608943,0.0240272480393108,2.87600760158943,-1.20338314805543,0.0483524808247507,0.186667781837961,-0.824820799405875,3.00652978935706,-0.128529927693451,116.422691673943,123.35737894302
0.89,0.246348208389802,0.0284762634300312,-0.311938286529573,-1.42617893464209,-0.143356107998968,0.202354549381006,-0.853011768146717,-1.18476274908653,0.731450918590953,118.175879248073,123.35737894302
0.9,0.20604578430288,0.0447427862346852,1.31962232999521,-2.23926760634748,-0.207394800460631,0.0380023537550847,-1.24592565831825,-2.28109442167644,1.6033999735034,119.690393715189,123.35737894302
0.91,0.158810571399338,0.00804239984687039,3.31548895602199,-0.400854372557497,-0.103178777040416,-0.120994288096278,-1.70318468640018,-2.87268396617417,2.48609818076667,121.148620549912,123.35737894302
0.92,0.194459559197322,0.0806153768162345,1.148957659313,-4.03251470523703,-0.0325163748257807,-0.207980875348263,4.18970630624584,-0.166251671422339,-2.90368455310849,122.616443848984,123.35737894302
0.93,0.196073061797938,0.0241517744044269,0.675081315008044,-1.21035222920602,0.168303523331369,-0.103449880637667,1.11701521820336,0.820344014983396,-1.9993673882396,124.113115755899,123.35737894302
0.94,0.134102387573039,-0.0647611931845911,3.40443529410475,3.24054218052315,0.0882917204518013,0.119925120784356,4.52421711734626,-1.2738731375639,-1.08451915593186,125.474030662879,123.35737894302
0.95,0.177083057945554,-0.029820952036963,0.911565632851162,1.49363252552781,-0.00118625731412634,0.179572524026712,1.61993578130935,0.661587551835415,-0.160229684197089,126.721466609776,123.35737894302
0.96,0.207194923676086,0.0115319199560594,-0.941475326849061,-0.574568369600305,-0.13646466688661,0.156333349821907,0.246394269305824,-1.07507881872165,0.773244032444021,127.968962532519,123.35737894302
