t,iq,id,vq,vd,ia,ib,va,vb,theta_e,omega,r
0,0,0,0,0,0,0,0,0,0,0,0
0.01,0.000760074546785487,0.00042111207923884,-0.0365753888915513,-0.021086927039447,-0.00043536740812368,-0.000751999946739155,0.0217727585223346,0.0361713222161325,3.12273788601507,-0.00286149694935906,0
0.02,0.000835645936122799,0.000465867806695267,-0.0406070497410956,-0.0233280432966082,-0.000481556418030733,-0.000826704518027462,0.0240902866252494,0.0401595341486622,3.12271799868837,-0.00270922552907964,0
0.03,0.000860312199110696,0.000481575401407024,-0.041960689879496,-0.0241145897787152,-0.00049774199804704,-0.000851061014592466,0.0249029842566844,0.0414976422278457,3.12270008749487,-0.00238424121742198,0
0.04,0.000839279604000633,0.000472607508707831,-0.0411270440515459,-0.0236655259136882,-0.000488390184830665,-0.00083019463882848,0.0244388305976474,0.0406722808336186,3.12268585578923,-0.00195014142041113,0
0.05,0.000853108379457714,0.000481713652306756,-0.0419132863609715,-0.0241215103946404,-0.000497766741131229,-0.00084384253349975,0.0249101185897783,0.0414494490812451,3.12267329668984,-0.00170726036185817,0
0.06,0.000850587044544768,0.000481905927703407,-0.0419095203242465,-0.0241311349979582,-0.000497920166384007,-0.0008413127548131,0.0249201078458905,0.0414452385087515,3.12266273768145,-0.00144181899116143,0
0.07,0.000872668124858336,0.000495466512576411,-0.0430405992516781,-0.0248101675246248,-0.000511903725566658,-0.000863128783542393,0.025620795344917,0.0425630408034645,3.12265412268682,-0.00132973200273533,0
0.08,0.000846701027221017,0.000482196276185239,-0.0419018364808706,-0.0241456723946672,-0.000498150395271243,-0.000837413913160715,0.0249351647044907,0.0414368791901626,3.12264662862374,-0.00103668498170962,0
0.09,0.000844387489271477,0.000481911465715751,-0.0418588338729995,-0.0241314178605005,-0.000497826858021953,-0.00083510317461885,0.0249203484556334,0.0413940035997397,3.12264057928557,-0.000880850062733917,0
0.1,0.000842960869465198,0.000481904297110007,-0.0418463229847108,-0.0241310542386619,-0.00049779684001757,-0.000833674447905857,0.0249199555432147,0.0413813767501056,3.12263555922796,-0.000753665053691092,0
0.11,0.000841788561795869,0.000481903242956322,-0.0418365201728833,-0.0241310087668929,-0.000497777034974809,-0.000832500295371639,0.024919896757645,0.0413714726577656,3.12263138970003,-0.000648083449051412,0
0.12,0.000840815266122041,0.000481902471556705,-0.0418283942564847,-0.0241309688923129,-0.000497760689640535,-0.000831525465445839,0.0249198460709713,0.0413632626560912,3.12262792650606,-0.000560389189270757,0
0.13,0.000881842625066842,0.000504977562786831,-0.0437948284969508,-0.0252864394987233,-0.000521612760367218,-0.000872106004178963,0.026112553635459,0.0433073385032514,3.12262436851334,-0.000652213158548998,0
0.14,0.00093246098014244,0.000535077440358587,-0.0464897595181391,-0.0267936619151548,-0.000552669926490172,-0.00092214277583368,0.0276707505619989,0.0459731184738828,3.12262153004,-0.00080289704437177,0
0.15,0.000840722801741377,0.000483036568800307,-0.0419204244779007,-0.0241877553656823,-0.00049890020869369,-0.000831407083161815,0.0249787354834857,0.0414539777546561,3.1226190509675,-0.00034604171396312,0
0.16,0.00083799177186939,0.000481924461387068,-0.0418071842929598,-0.024132063295823,-0.000497737639479431,-0.000828696952117877,0.0249209624827298,0.0413417799127407,3.12261766035894,-0.000300699093811999,0
0.17,0.000837611791389256,0.000481900455614395,-0.0418016710739678,-0.0241308737854351,-0.00049770737083537,-0.000828316929207549,0.0249197156139802,0.0413362619009405,3.12261652250805,-0.000271626284079373,0
0.18,0.000837344848348269,0.00048189973798702,-0.0417993705371635,-0.0241308281976763,-0.000497702370315332,-0.000828049577688344,0.024919665428028,0.0413339391029213,3.12261557785442,-0.000247699272759889,0
0.19,0.000837124241313558,0.000481899552553823,-0.0417975079127764,-0.024130828686107,-0.000497698648217012,-0.000827828623393353,0.0249196630010736,0.0413320572523286,3.12261479323977,-0.000227831247825208,0
0.2,0.000836941117322102,0.000481899407288645,-0.0417959626233396,-0.0241308076961025,-0.000497695567260162,-0.000827645210787268,0.0249196396253424,0.0413304963994015,3.12261414154145,-0.000211329075020082,0
0.21,0.00083678890428892,0.000481899286806322,-0.0417946698721316,-0.0241308080615166,-0.000497693006116502,-0.000827492758051823,0.0249196378290904,0.0413291903851163,3.12261360024322,-0.000197622426221905,0
0.22,0.000836662535457166,0.000481899186729198,-0.0417935953742239,-0.024130808378451,-0.000497690879824943,-0.00082736619011593,0.0249196363353808,0.041328104870829,3.12261315064265,-0.000186237727171016,0
0.23,0.000836557758978141,0.000481899103599693,-0.0417927084717539,-0.0241307887101231,-0.00049768911715418,-0.000827261248229971,0.0249196152717427,0.0413272091954676,3.12261277720579,-0.000176781632144556,0
0.24,0.000836470563902155,0.000481899034548158,-0.0417919597296956,-0.0241307889556896,-0.000497687649831543,-0.000827173915799085,0.0249196141255287,0.0413264528541621,3.12261246703058,-0.000168927429517545,0
0.25,0.000836398095363265,0.000481898977191429,-0.0417913319094861,-0.0241307877181083,-0.000497686430187736,-0.000827101333182598,0.0249196116195257,0.0413258187504765,3.12261220940027,-0.000162403753653562,0
0.26,0.000845042868181472,0.000486591647860795,-0.042199387062834,-0.024365772586489,-0.000502542470988447,-0.000835655398884659,0.0251623059362311,0.0417293362298862,3.12261203754228,-0.000195680787917964,0
0.27,0.000813936500066932,0.000469243380725619,-0.0407422176392689,-0.0234970737541065,-0.000484607280292032,-0.000804883693699888,0.0242661239921908,0.0402889066563874,3.12261162240683,-5.10271749360758e-05,0
0.28,0.000808291029491874,0.000465499781815518,-0.0402143862495971,-0.023309617619033,-0.000480757348853492,-0.00079931020683505,0.0240686905828427,0.0397647239221486,3.12261144282764,-2.22612771308898e-05,0
0.29,0.000835499530377787,0.000481548481359451,-0.041756040181614,-0.0241132454127386,-0.00049731947699438,-0.000826209261000585,0.0249014293310486,0.0412908502365151,3.12261156350504,-0.000142944921581112,0
0.3,0.000832312598035299,0.00047989459661579,-0.0415974475092274,-0.0240304190764569,-0.000495604731167603,-0.000823054697546639,0.0248155742896177,0.0411338784087951,3.12261237899031,-0.000148806980938548,0
0.31,0.000836279873976172,0.000481856144860878,-0.0417861518315513,-0.0241286450367018,-0.000497641397186746,-0.000826983924731196,0.024917372777278,0.0413206792063584,3.12261216662534,-0.000160860448155894,0
0.32,0.000836325452168238,0.000481898006937028,-0.0417905095073018,-0.0241307433072024,-0.000497684287100671,-0.000827028597696225,0.0249195618869162,0.0413249911409807,3.12261196066657,-0.000156093258455524,0
0.33,0.000836279817396374,0.000481898864009644,-0.0417902104669127,-0.0241307885824761,-0.000497684419990626,-0.000826982869361205,0.0249196085791444,0.0413246870132521,3.12261178883799,-0.000151753754577903,0
0.34,0.000836239712318034,0.000481898851355627,-0.0417898550269996,-0.0241307887385715,-0.000497683764193236,-0.000826942700707898,0.0249196078876899,0.0413243280773807,3.1226116460981,-0.000148139611197432,0
0.35,0.000836206417536015,0.000481898825365551,-0.0417895571042896,-0.0241307888817829,-0.000497683204315279,-0.0008269093534116,0.0249196072756997,0.0413240272511617,3.12261152753856,-0.000145137464118765,0
0.36,0.000836178710689441,0.000481898803447174,-0.0417893033568854,-0.0241307890143795,-0.000497682737952469,-0.000826881602962727,0.0249196066615096,0.0413237710929912,3.12261142906354,-0.000142643883795002,0
0.37,0.000836155718663396,0.000481898785234619,-0.0417890899680989,-0.0241307891380247,-0.000497682350983911,-0.000826858574717121,0.0249196061149767,0.0413235557020459,3.12261134727045,-0.000140572723698566,0
0.38,0.00083613656834297,0.000481898770106974,-0.0417889063841729,-0.0241307892543787,-0.000497682028555699,-0.000826839394322535,0.0249196055542416,0.0413233704560194,3.12261127933346,-0.000138852424667079,0
0.39,0.000836120735859213,0.000481898757541927,-0.0417887539014913,-0.0241307893644363,-0.000497681762144662,-0.000826823536846157,0.0249196051019089,0.0413232165925538,3.12261122290546,-0.000137423549732221,0
0.4,0.000836107580927856,0.000481898747105115,-0.0417886233392021,-0.0241307894694048,-0.000497681540777056,-0.000826810361156829,0.0249196046655186,0.0413230848838359,3.12261117603649,-0.000136236730729594,0
0.41,0.000836096637887612,0.000481898738436562,-0.0417885103705452,-0.0241307895701697,-0.000497681356593823,-0.000826799400878261,0.0249196042307383,0.0413229709635252,3.12261113710763,-0.000135250962618765,0
0.42,0.000836087557492516,0.000481898731236545,-0.0417884132991618,-0.0241307896673928,-0.000497681203779443,-0.000826790306163442,0.0249196038216373,0.0413228731020261,3.12261110477336,-0.000134432186744624,0
0.43,0.000836079990496603,0.000481898725255963,-0.0417883277451334,-0.0241307897617363,-0.000497681076379817,-0.000826782727278182,0.024919603401902,0.0413227868923638,3.12261107791679,-0.000133752114092599,0
0.44,0.000836073704069228,0.000481898720288598,-0.0417882529444176,-0.0241307898536484,-0.000497680970536927,-0.000826776430975902,0.0249196029958236,0.0413227115475026,3.12261105561002,-0.000133187247899017,0
0.45,0.000836068523587411,0.000481898716162601,-0.0417881891766749,-0.0241307899434625,-0.000497680883402233,-0.000826771242284569,0.0249196026409096,0.0413226473278304,3.12261103708194,-0.000132718071824224,0
0.46,0.00083606438815384,0.000481898712735821,-0.0417881408972463,-0.0241307700973788,-0.000497680814206839,-0.000826767100002119,0.0249195825179555,0.0413225990502953,3.12261102169276,-0.000132328375660707,0
0.47,0.000836060779278866,0.00048189870988946,-0.0417880884022654,-0.0241307701818454,-0.000497680753430348,-0.000826763485470006,0.0249195821342056,0.0413225462446492,3.1226110089109,-0.000132004695257197,0
0.48,0.000836057810688161,0.000481898707525334,-0.04178804255486,-0.0241307702675298,-0.000497680703498867,-0.000826760512175165,0.0249195817883813,0.0413225001393099,3.12261099829407,-0.000131735847337857,0
0.49,0.000836055307758744,0.000481898705561679,-0.0417879989349705,-0.0241307703523201,-0.00049768066131899,-0.000826758005345387,0.0249195814096079,0.0413224563059292,3.12261098947612,-0.00013151254310681,0
0.5,0.000836053270490614,0.000481898703930694,-0.0417879610964757,-0.024130770436216,-0.000497680627075032,-0.000826755964830214,0.0249195810779391,0.0413224182901478,3.12261098215213,-0.00013132706731934,0
0.51,4.58920577072138,0.0440689763929754,10.5411169983564,-2.19393048472933,-0.972633652434513,4.48516838690083,-4.47232379081132,9.79422270805632,0.223151498587669,68.6841339134653,1484.55375443102
0.52,4.55197460381081,0.00853914163013481,12.4045069882535,-0.3962259619217,-3.85547961677932,2.41988070682783,-10.7288419568595,6.23864880396884,1.0121716414591,147.125748321041,1484.55375443102
0.53,4.51809122344191,0.0159057097770194,14.1007767338014,-0.766277144843098,-3.06879284147218,-3.31600841239516,-8.97679747700854,-10.9012014115875,2.39841497670674,232.387267284264,1484.55375443102
0.54,4.4708419340024,0.0328642371675159,16.4655101613277,-1.58659924282286,4.23966664771173,-1.41941339052431,16.1443341731483,-3.60427470315825,-1.88650991126843,311.293269670584,1484.55375443102
0.55,4.47368479583782,0.0351555554500016,16.3259419533393,-1.7072401076418,-2.83130780260456,3.46392662920276,-11.7443887598192,11.4682336088509,0.693100838193264,393.574040745148,1484.55375443102
0.56,4.41744889153678,-0.00939833599136808,19.1403547891312,0.530565486269056,2.92469950647683,-3.31060052481013,12.2434773005942,-14.7218186641078,-2.42013292414542,473.178218238072,1484.55375443102
0.57,4.43025235874727,0.0771690307600943,18.5030702615156,-3.7752902625924,-4.29336838063355,1.09548115897546,-18.8751375469824,0.587884556611083,1.33838723077761,552.608527949346,1484.55375443102
0.58,4.3864732407068,0.0409562766236894,20.6950852702392,-1.97303796357186,2.51699454197295,3.59270975500527,10.089294811197,18.1765113088547,-0.601781045455889,632.644662258136,1484.55375443102
0.59,4.33408155976776,0.0906817625634889,23.3179049019696,-4.44191599639617,3.97606729076744,-1.72724492995922,23.2609516410789,-4.73111355684142,-1.95969068412644,711.820003465537,1484.55375443102
0.6,4.3525895531709,0.0792852543011555,22.3958841602273,-3.81226447505396,1.63212506231485,-4.03577622656235,12.280889613431,-19.1125283007979,-2.73907312854054,789.74880435715,1484.55375443102
0.61,4.25892628860185,0.064748290758477,27.0826187697293,-3.13289267441945,0.785930104602134,-4.18628228187973,8.47117024007359,-25.9137517681176,-2.94081165863847,869.430616200957,1484.55375443102
0.62,4.18901396624977,0.0665506515818002,30.5820036446247,-3.14365547924295,2.21934635421572,-3.55341649102536,19.2498823637341,-23.9704723706983,-2.5674192224005,946.990964933328,1484.55375443102
0.63,3.92727891584839,0.0451043526347947,26.5680733686285,-2.0680543910549,3.91959324316868,-0.24968558949269,26.6397416090716,0.680836608217026,-1.62292790178673,1023.14986001568,1484.55375443102
0.64,3.27160815185798,0.126332189636316,29.1584433127558,-6.15610768799896,0.630471077313448,3.21276920150096,-1.57542903066797,29.7595447152466,-0.155181219232838,1089.16467432877,1484.55375443102
0.65,2.72672067010283,0.0721561541968982,30.7588388252986,-3.45170738587744,-2.69203809706273,-0.439480383313481,-29.5691947534392,-9.14785064327153,1.75907715644674,1145.41665008237,1484.55375443102
0.66,2.27364418920422,0.101154241246838,31.5952190345182,-4.91828576186513,1.7364539784328,-1.4711959965991,27.9997421829888,-15.4422096333622,-2.2292262013666,1193.44369807049,1484.55375443102
0.67,1.92498826652846,0.0147389538245882,30.4219732318812,-0.703069193914085,-0.716836031562684,1.78660100942699,-12.1946660987771,27.8797575375408,0.389221856557832,1234.26133550367,1484.55375443102
0.68,1.65574582525434,0.017787550669496,28.0237142604286,-0.812118931202728,0.215582904218726,-1.64174743679246,4.75084882587658,-27.6300114647503,-3.00028410398992,1268.73824462062,1484.55375443102
0.69,1.35479690015669,0.0382148934306843,29.7262726814142,-1.79631124692181,-0.134559647936247,1.3486395811711,-5.56580782514987,29.2557653271814,0.127644863238115,1298.14733635204,1484.55375443102
0.7,1.15514508449427,-0.0079353377042567,28.2440173890311,0.41058529250808,0.363752076042298,-1.09640665949759,8.31881902224213,-26.9942651063054,-2.82812147857876,1323.3459531212,1484.55375443102
0.71,0.94511874356656,0.0201537336023756,29.0439665706234,-0.914157524773572,-0.570491160933473,0.7537874022002,-18.7342394739879,22.212968047221,0.669180679579333,1344.60251686599,1484.55375443102
0.72,0.77036781959236,0.0311331779014855,29.4945673759235,-1.57089854220414,0.697079107106874,-0.329418534185336,27.7672523371453,-10.068610855927,-1.97186855790909,1362.890964934,1484.55375443102
0.73,0.574598369164398,0.0509553845601455,32.2900487902266,-2.47091689579343,-0.571683665383203,-0.0770553294463432,-30.9494953446439,-9.53317465973421,1.79322415199843,1378.27707915488,1484.55375443102
0.74,0.531856685647811,0.00289059114785098,28.4166190058072,-0.151048206027995,0.311292127355343,0.431250624384526,16.3833874603219,23.2187783185661,-0.619796165622451,1391.56573023681,1484.55375443102
0.75,0.343976443502353,0.0321511613464876,32.7568131198451,-1.55808303344319,0.036208273499374,-0.343573066160096,7.97749675692704,-31.8087405283639,-2.9433945316817,1402.78415833342,1484.55375443102
0.76,0.37802302759141,-0.00156581826783919,26.6954926760907,0.108191078339509,0.339521261210819,-0.166220258578907,23.8795420497537,-11.9343414574366,-2.03020925841901,1412.42560242276,1484.55375443102
0.77,0.232401793144205,-0.00996845224944311,30.2828431659707,0.444384142215298,-0.199147220716599,-0.120209600189609,-26.7857566368842,-14.1340478586371,2.07100774219606,1420.6387578886,1484.55375443102
0.78,0.161554066974891,0.0194168665028881,30.7176636365466,-0.911644065067765,0.0283677072275814,0.160224855898106,0.797374895794005,30.7208422323501,-0.0556191380233288,1427.56474721627,1484.55375443102
0.79,0.135007867822788,0.0274013510254763,29.3866209597172,-1.38044791728584,0.0994236697889778,-0.0953566583819351,25.5692008261104,-14.5497455990291,-2.13507634965202,1433.53348649782,1484.55375443102
0.8,0.0685854975081987,0.0131950248319135,30.4293459118965,-0.728832199738848,-0.0656479156285491,-0.0238417768295242,-25.750300169496,-16.229551139267,2.10922677193267,1438.64365877647,1484.55375443102
0.81,0.0580354784698034,0.00799915672551486,29.0240011555157,-0.347963714285379,0.00187208573018888,0.0585542360940452,-3.38820799162248,28.827656311732,0.10500823085811,1443.03845523328,1484.55375443102
0.82,-0.00153347476114137,0.0363263787805154,30.3685357509834,-1.8371036018703,-0.0121563525453269,-0.0342663163024896,29.5642798517387,-7.1816620743975,-1.86951749759566,1446.7367144893,1484.55375443102
0.83,-0.0488674329833355,-0.0156631255565219,31.3203462892909,0.709374897479796,0.042825349553261,0.0282727597560119,-20.1765630351022,-23.9660928921846,2.46447701254321,1449.95135334175,1484.55375443102
0.84,-0.09297876007848,0.0370366443970544,32.3469585478834,-1.80743386151809,0.0793844263539757,-0.0609497801995677,-18.0989291157149,26.8704542076716,0.536943002717127,1452.69079982928,1484.55375443102
0.85,-0.0613783280993973,-0.0413938975277233,29.778638177341,2.06411552026797,-0.0683399562590332,0.0284676007300642,29.6003831813696,3.85294434090301,-1.37215410338933,1454.98954950772,1484.55375443102
0.86,-0.131743867368358,-0.0249936388368328,32.3899637239421,1.17601732880457,0.0410175629830615,0.127666315441498,-5.15336226201128,-31.9989941121969,3.01820821148524,1457.05825354267,1484.55375443102
0.87,-0.117491125080197,0.0540705315035173,30.9857169161375,-2.66007697234539,0.129335916021885,-8.7615427551764e-05,-29.2529225380595,10.5573285109494,1.13880726571503,1458.75158729177,1484.55375443102
0.88,-0.0922348228493414,0.0592993068812531,29.0886348606498,-2.95847100596856,-0.0171859433175436,-0.1082973392791,17.1643997043025,23.6703318848788,-0.728759461448376,1460.29964370182,1484.55375443102
0.89,-0.109114450512706,-0.0294292536536319,29.4097000403159,1.4134828497896,-0.032541546463193,0.108227039297411,14.3093245177696,-25.7326955850561,-2.5860719977594,1461.54775072248,1484.55375443102
0.9,-0.227402104063835,0.0195389373593019,34.8478711681741,-1.01280773029858,0.213306087998754,0.0812034471463975,-33.2315846328955,-10.5385808930289,1.84883404139081,1462.70349034692,1484.55375443102
0.91,-0.14513812054877,0.0633926227219202,30.3848417029776,-3.14352284123494,0.0645464748001022,-0.144628666739595,-3.38540434898802,30.358843498431,0.00796396295388077,1463.64579825325,1484.55375443102
0.92,-0.105183717457348,0.0278586550449961,28.0746850729295,-1.42972917419349,0.108783534510043,0.00242109449743204,-27.6273559081589,5.19242457620973,1.33413651970434,1464.47078327353,1484.55375443102
0.93,-0.209393934251456,-0.065666615576439,32.9706494604905,3.20317786560163,-0.157124729684897,-0.153198379312625,18.4577074908051,27.5070374353383,-0.494160310539066,1465.19974486384,1484.55375443102
0.94,-0.201334225546303,0.00504207967497926,32.3288850021698,-0.210144978979997,-0.151194540349425,0.13304549564831,23.8706289938087,-21.8035326916454,-2.3174680289173,1465.94527064029,1484.55375443102
0.95,-0.171553321427872,0.0331516340563601,30.6625667762541,-1.66594237512551,0.125780993876029,0.12127948925148,-24.8024759001659,-18.1054012528629,2.14708529565638,1466.49042811191,1484.55375443102
0.96,-0.107627042785171,-0.0416727955016076,27.2732094378485,2.01947415272444,-0.00426783714013489,-0.115334243786246,-6.99153308901436,26.439075134344,0.332433032861523,1466.96359941669,1484.55375443102
0.97,-0.248901584854884,0.0672999240820288,34.1610140517718,-3.36178949093717,-0.24164886948867,-0.0899283192301932,33.7064534082276,6.49241929219817,-1.47860452268436,1467.50924688769,1484.55375443102
