t,iq,id,vq,vd,ia,ib,va,vb,theta_e,omega,r
0,0,0,0,0,0,0,0,0,0,0,0
0.01,0.001426298574998,0.000774207684927929,-0.0700774676324464,-0.0387607116951602,0.00161143299963579,0.000192376849250611,-0.0795908120064685,-0.00886266805442291,-0.954670689536177,-0.00364760850444681,0
0.02,0.00156289708210339,0.000857242256201754,-0.077181296333082,-0.04291783184872,0.00177090307333286,0.000203504004691333,-0.0877909554970706,-0.00957292678136599,-0.954695304825789,-0.00322294027102143,0
0.03,0.001606283606682,0.00088908231184521,-0.0795044269105701,-0.0445119120583513,0.00182471564219146,0.000202551740237342,-0.0906082993056283,-0.00961250801873614,-0.954715922429134,-0.00264723969888052,0
0.04,0.00155573338186474,0.000870804525157274,-0.0772021722495289,-0.0435968582954267,0.00177290025969873,0.000188232690154674,-0.0882006946633668,-0.00902767490425851,-0.954730861223395,-0.00197616139499578,0
0.05,0.00158100170351852,0.000889524494101188,-0.0785575325579004,-0.0445340672299179,0.00180434243435404,0.000187532908375463,-0.0898485398284123,-0.00904483036472442,-0.954743098076569,-0.00163298074404047,0
0.06,0.00157336870733991,0.000890147410793814,-0.0782851827111614,-0.0445652573703925,0.00179847431702884,0.000182596914451015,-0.0896443638465253,-0.00886115269934109,-0.954752608858351,-0.00128177942520724,0
0.07,0.00161110152451744,0.000914569310884741,-0.0801921401123047,-0.0457879229058248,0.00184338326989812,0.00018445396979821,-0.0919072989175046,-0.00896446459693621,-0.954759621789579,-0.00115712180928131,0
0.08,0.00156290740757344,0.000890980726525837,-0.0779095674121072,-0.0446069506094089,0.0017904198626363,0.000175849183011581,-0.089361998770398,-0.00860894376629948,-0.95476542855739,-0.000807854194344438,0
0.09,0.00155696755526162,0.000890188465535102,-0.0776640798105964,-0.0445673111938327,0.00178511483756289,0.000173056317486253,-0.0891387689124712,-0.00849908210594928,-0.954769598423907,-0.000645843448363003,0
0.1,0.00155380609855287,0.000890160476200917,-0.0775431516241446,-0.0445659101594349,0.00178251888645903,0.000171246853130769,-0.0890392867770359,-0.00843007250150676,-0.95477275635294,-0.000527290035469648,0
0.11,0.00155146374099505,0.000890158440203747,-0.0774541657861269,-0.0445657912354772,0.00178060632652032,0.000169890842143265,-0.0889666094851336,-0.00837854061210617,-0.954775155544907,-0.000437403826028909,0
0.12,0.00154968627123427,0.000890157536806515,-0.0773866595093718,-0.0445657520083469,0.0017791553702882,0.000168861327603693,-0.0889115044909296,-0.00833940592898152,-0.954776978634783,-0.000369109473549715,0
0.13,0.00162704276920853,0.000932736934578593,-0.0811702230130434,-0.0466975091181828,0.00186689495911754,0.000178800373552076,-0.0932313211398278,-0.00878539813282569,-0.954779209750861,-0.000531873881196245,0
0.14,0.0017053598111916,0.00098010130498106,-0.085216533028962,-0.0490688088429631,0.0019581831572521,0.00018538979558551,-0.0979039891509133,-0.00918773155252536,-0.95478082174388,-0.000718936179012793,0
0.15,0.00155162703241896,0.000893168774362664,-0.0775350681921292,-0.0447165231854029,0.00178248012923431,0.00016751565931161,-0.0891197909100016,-0.00830163318307932,-0.954782193628643,-0.000195512534454637,0
0.16,0.00154474269325978,0.000890255929331778,-0.0772021773496037,-0.044570697889679,0.00177517824089411,0.000165915102223875,-0.0887638349593756,-0.00822829880336321,-0.954782366838176,-0.000168223183037088,0
0.17,0.00154435614977486,0.000890158288537527,-0.0771843305801479,-0.0445657727829971,0.00177480634868035,0.000165771290286966,-0.088746423747613,-0.00822199871444811,-0.954782460151936,-0.000163810967878306,0
0.18,0.00154427559023757,0.000890154985191658,-0.0771811077321509,-0.0445656100577121,0.00177473869979075,0.000165727317392789,-0.0887436998460912,-0.00822026326858227,-0.954782529371517,-0.000161177557540168,0
0.19,0.00154422378541459,0.000890154850386477,-0.0771791094151064,-0.0445656044244727,0.00177469634812488,0.000165697402088712,-0.0887420660203797,-0.00821910860508099,-0.954782581896054,-0.000159208167999699,0
0.2,0.00154418478628181,0.000890154827540133,-0.0771776025849614,-0.0445656045852332,0.00177466451090693,0.000165674816748537,-0.0887408365843566,-0.00821823430659635,-0.954782621805209,-0.000157713054951362,0
0.21,0.00154415521679009,0.000890154812845922,-0.0771764547572912,-0.044565604726508,0.00177464037317151,0.000165657690079601,-0.088739900071835,-0.00821756830116438,-0.954782652131424,-0.000156577002236598,0
0.22,0.001544132748633,0.000890154801769493,-0.0771755765493583,-0.0445656048531215,0.00177462203234465,0.000165644676434635,-0.0887391835514138,-0.00821705873649005,-0.954782675175781,-0.000155713735310128,0
0.23,0.00154411575199603,0.000890154793355239,-0.0771749069867554,-0.0445656049684417,0.00177460815792903,0.000165634831805687,-0.0887386372728356,-0.00821667022446811,-0.954782692686764,-0.000155057751673325,0
0.24,0.00154410271347999,0.000890154786961887,-0.0771743859872088,-0.0445656050755926,0.00177459751455591,0.000165627279937311,-0.0887382122103893,-0.00821636792994922,-0.954782705992747,-0.00015455927942503,0
0.25,0.00154409281817765,0.000890154782103501,-0.0771739846579953,-0.0445656051762447,0.00177458943699433,0.000165621548590969,-0.0887378847914475,-0.00821613506809669,-0.954782716103994,-0.000154180497742478,0
0.26,0.00156114524038326,0.000899135854204853,-0.0780023612934317,-0.0450152413705949,0.0017936965528101,0.000168144052303821,-0.0896737891438187,-0.00832777662968444,-0.954782662508333,-0.000208844701061593,0
0.27,0.00150627872232685,0.000868738852853662,-0.0753387056390293,-0.0434934218170149,0.0017313522376244,0.000161252017243494,-0.0866204613473349,-0.00803081469665122,-0.954783005394711,-2.70910669832306e-05,0
0.28,0.00150106605613316,0.000864625470965553,-0.0748775353778811,-0.0432874857236263,0.00172472106746849,0.000161597491774867,-0.086125072639814,-0.00793243892669517,-0.954783014125392,-1.06440286436654e-05,0
0.29,0.00154221896177124,0.000889299399089189,-0.0770826914320163,-0.0445227797824173,0.00177256578745678,0.000165237030973345,-0.088638628339317,-0.00819834154457479,-0.95478270647899,-0.000148707578729577,0
0.3,0.00153403087809812,0.000885155620920199,-0.076672573549627,-0.0443153323540382,0.00176348836148273,0.00016389022887304,-0.0881840252331789,-0.00813080008645495,-0.95478154052928,-0.000163501985722766,0
0.31,0.00154452451996603,0.000889987715837946,-0.0771850151496666,-0.0445572543568852,0.00177484510070484,0.000166009022714877,-0.0887420549470759,-0.0082294084385562,-0.954781766552409,-0.000188220944859371,0
0.32,0.00154476958084004,0.00089014951334631,-0.0771993202739626,-0.0445653617861509,0.00177513863950715,0.000166018145177291,-0.088758416896178,-0.00823103589936481,-0.954781999417125,-0.000180960092293829,0
0.33,0.00154461521434447,0.00089015485204713,-0.077193655807629,-0.0445656328311469,0.00177501576189398,0.000165924278016797,-0.0887539517120675,-0.00822752587837183,-0.954782179060481,-0.000174294990571997,0
0.34,0.00154448285013079,0.000890154968183573,-0.0771886142992626,-0.0445656419122376,0.00177490781758492,0.000165847462464656,-0.088749843264545,-0.00822459342513747,-0.954782315687315,-0.000169179703848449,0
0.35,0.00154438211025214,0.000890154924393675,-0.0771847703278681,-0.0445656053769995,0.00177482558681836,0.000165789107796758,-0.0887466856054102,-0.00822239303601267,-0.954782419513037,-0.000165290444551218,0
0.36,0.00154430515972448,0.000890154886692891,-0.0771818233544016,-0.04456560561613,0.00177476277201122,0.000165744537581011,-0.0887442811076437,-0.00822068311820871,-0.954782498408958,-0.000162334955780762,0
0.37,0.00154424671923297,0.000890154857895375,-0.0771795795813297,-0.0445656058170365,0.00177471506687389,0.000165710688572959,-0.0887424503756324,-0.00821938121264013,-0.954782558360693,-0.000160089119290234,0
0.38,0.00154420224858007,0.000890154836007385,-0.0771778653930831,-0.0445656059890899,0.0017746787653565,0.000165684931058317,-0.0887410517493512,-0.00821838659510742,-0.954782603917003,-0.00015838254119866,0
0.39,0.00154416848813677,0.000890154819374711,-0.0771765583424679,-0.0445656061390212,0.0017746512066075,0.000165665376881153,-0.0887399853212282,-0.00821762820495742,-0.95478263853454,-0.000157085737763887,0
0.4,0.00154414287676599,0.000890154806735563,-0.0771755612200085,-0.0445656062721222,0.00177463029996437,0.000165650542618959,-0.0887391717747268,-0.00821704963844209,-0.954782664839763,-0.000156100316031482,0
0.41,0.00154412343540726,0.000890154797130971,-0.0771747984772082,-0.0445656063924883,0.00177461442991858,0.000165639282037622,-0.0887385494668504,-0.00821660706418584,-0.954782684828628,-0.000155351508646115,0
0.42,0.00154410853424608,0.00089015478983308,-0.0771742064276297,-0.0445656065034838,0.00177460226606583,0.000165630651355306,-0.0887380664318999,-0.00821626354771297,-0.954782700017578,-0.000154782500999307,0
0.43,0.0015440973583752,0.000890154784286843,-0.077173757835907,-0.0445656066067867,0.00177459314315888,0.000165624178136822,-0.088737700451141,-0.00821600324912646,-0.954782711559424,-0.000154350120512348,0
0.44,0.00154408874364139,0.000890154780073131,-0.07717340478426,-0.0445656067047899,0.00177458611093263,0.000165619188538333,-0.0887374124232297,-0.00821579840252259,-0.954782720329948,-0.000154021560979006,0
0.45,0.00154408222438337,0.000890154776870945,-0.077173131776811,-0.0445656067984673,0.00177458078924457,0.000165615412588816,-0.0887371897066434,-0.00821563999477945,-0.954782726994257,-0.000153771893456235,0
0.46,0.00154407721852454,0.00089015477443747,-0.077172915663484,-0.0445656068890127,0.0017745767029542,0.000165612513272754,-0.0887370134114108,-0.00821551460423058,-0.954782732058309,-0.000153582174801519,0
0.47,0.00154407360964956,0.000890154772588599,-0.0771727551310056,-0.0445656069766617,0.00177457375700196,0.000165610422795295,-0.088736882468948,-0.00821542143779209,-0.954782735906374,-0.000153438010405107,0
0.48,0.00154407069926652,0.000890154771183575,-0.0771726186905501,-0.0445656070628674,0.001774571381254,0.000165608737174524,-0.0887367711816838,-0.00821534227457595,-0.954782738830274,-0.000153328462014579,0
0.49,0.00154406848737541,0.000890154770116188,-0.0771725089230675,-0.0445656071476314,0.00177456957568577,0.000165607456102748,-0.0887366816579861,-0.00821527858609733,-0.954782741052239,-0.000153245217814903,0
0.5,0.0015440668575609,0.000890154769304982,-0.0771724219961373,-0.0445656072311939,0.00177456824526118,0.000165606512085255,-0.0887366107713971,-0.0082152281429378,-0.954782742740214,-0.000153181961780687,0
0.51,4.6957720450238,0.0433833946267582,5.21255930185546,-2.16217205720725,-0.629991435665987,4.6535221079032,-2.88684058120668,4.84890853069286,0.143799961379761,43.9599697653845,2277.01910388039
0.52,4.68830929910554,0.0662916431250122,5.58716592565891,-3.29376520683307,-2.77402731924653,3.78013374076918,-5.99654194869011,2.47119343156054,0.647219471819103,93.4983837914736,2277.01910388039
0.53,4.41939218301621,0.0700445716169853,19.0349516396178,-3.46604696668486,-4.4103815894258,0.290633351444256,-19.1842784940744,-2.51123956635923,1.52084195391002,145.676792385626,2277.01910388039
0.54,4.54367662214485,0.0578716828022356,12.8229268712705,-2.86881940600659,-1.62406265529152,-4.24390938522295,-1.737904945913,-13.0244871196221,2.78884125375146,198.988357178953,2277.01910388039
0.55,4.45769415889131,-0.0299785526268128,17.1243995782567,1.5701239974192,4.28442780230681,-1.23110289360869,15.9824846227917,-6.34590699311738,-1.85732670466681,247.877479216173,2277.01910388039
0.56,4.36766960351086,-0.00631875596147813,21.6283974707855,0.362620997824013,-0.674969400649371,4.31520497778456,-2.95313512209619,21.4289072071579,0.153712591619917,299.98396905032,2277.01910388039
0.57,4.29144861071641,0.006286572822225,25.4423520994381,-0.27846956363369,-2.46198992060003,-3.51499307684688,-14.3373156439235,-21.0198050841619,2.53204624636172,350.285865073834,2277.01910388039
0.58,4.44918743686949,-0.00974184776917819,17.5584911292916,0.601034481911648,3.74273170212949,2.4056855899868,15.1150884787779,8.95521934206949,-1.00171577027168,399.570016613322,2277.01910388039
0.59,4.33563976930336,0.0939656501739741,23.2392384446083,-4.58252948738828,-3.75949463844456,-2.16166644422402,-17.5208479927577,-15.9399393224323,2.11429146921059,449.417490343264,2277.01910388039
0.6,4.18317646043686,0.123542269095003,30.8658916071495,-6.05219841581511,2.7520664428942,3.15283337417343,14.9271796706709,27.68594729187,-0.688107312101555,499.235756847154,2277.01910388039
0.61,4.21530929349413,0.046600346762915,29.2628710585349,-2.1855140124194,0.0171684193082951,-4.21553190920373,2.62791265378225,-29.22646350777,-3.12646544421575,549.103879506376,2277.01910388039
0.62,4.13367037446842,0.00512224556129892,33.3486657918347,-0.19940059816802,-3.64668806487046,1.94651564588852,-29.5329952023749,15.4911415031475,1.08173334856374,599.072560406233,2277.01910388039
0.63,4.08903595717729,0.107651246746447,35.5842993394743,-5.27286233849034,2.50135876169019,3.2365117326113,16.7561903408542,31.8319889730919,-0.631648718428453,647.944646611228,2277.01910388039
0.64,4.10262967284428,0.125253082817911,34.9087454465322,-6.08869078220589,3.7039250988534,-1.76867109133993,34.4006658532193,-8.50216754405937,-1.98577229238827,696.820693170239,2277.01910388039
0.65,4.03905165240293,0.104300303142339,38.0919540848644,-5.09228757526427,0.54485456289168,-4.00349226417518,11.1357560013546,-36.7821056633644,-2.98051162624457,745.780640035212,2277.01910388039
0.66,4.01892470561247,0.0403818742016481,39.1025886926991,-1.95221608637301,-1.88048163939017,-3.55206634074629,-16.212850756475,-35.6365972066156,2.66474630664606,794.728566172494,2277.01910388039
0.67,3.95348092439414,0.168864734398835,42.3790550775547,-8.2372504550372,-2.84060037967159,-2.75490765745089,-23.153246695103,-36.4384929957473,2.38356810948392,842.87553559379,2277.01910388039
0.68,3.95861578117893,0.171516387457355,42.1266117667135,-8.36717337767052,-2.6330408693707,-2.96093778293109,-20.1176261051846,-37.9465693991881,2.45804382546919,891.220578714071,2277.01910388039
0.69,3.91736467706471,0.1467570105701,44.1933526886,-7.12445755482476,-1.1320051686817,-3.75311176643378,-4.27553514092525,-44.5592876577735,2.88609802296185,939.404194929115,2277.01910388039
0.7,3.90709329692699,0.0329211734480868,44.7109653909078,-1.40239865024497,1.93051260363357,-3.39699616157642,23.6312309235256,-37.9816017724394,-2.6163824473868,987.406090694555,2277.01910388039
0.71,3.73536833264105,0.114626605937483,48,-5.49792490589951,3.73123782590977,0.209714390985561,47.3424475058106,9.63949388871023,-1.48397315248795,1035.50065674565,2277.01910388039
0.72,3.81505885755783,0.0349850446343871,48,-1.65768590455694,0.038991784518524,3.81502001052663,-1.60727307067668,48.0017145093219,-0.00105024851908229,1083.39447010364,2277.01910388039
0.73,3.79590668521798,0.0969003881511763,48,-4.62669622315803,-3.69344123602974,-0.881356388813018,-45.2011705348102,-16.8006101146473,1.83056514501282,1130.64419764798,2277.01910388039
0.74,3.60269687543426,0.0259432669594257,48,-1.22018478811121,2.73141126040098,-2.34935956292753,37.4040529660383,-30.1069040691823,-2.27393917837422,1178.04896430139,2277.01910388039
0.75,3.77424843230876,0.162783139525031,48,-7.88895414829801,-0.778832899947246,3.69660234448588,-19.5527340996072,44.5412863171239,0.250755093052498,1224.96776782916,2277.01910388039
0.76,3.72032693170813,0.0482961676431024,48,-2.28321509083876,-0.127247647301188,-3.71846380039636,1.26392114324197,-48.0376474704445,3.12036648439692,1272.21957904986,2277.01910388039
0.77,3.7031594868821,0.108827210080623,48,-5.35697518459972,-0.0791719479686126,3.70391216818025,-7.78508863625198,47.6664407949043,0.0507511774960468,1319.03237492552,2277.01910388039
0.78,3.60092661527876,0.142000051942145,48,-6.8926515570055,1.49123853844023,-3.28070786947652,27.7266173853313,-39.7837068893,-2.67554933132683,1365.73636022883,2277.01910388039
0.79,3.72639767102472,0.179474422796575,48,-8.69578140645313,-3.16156619299593,-1.98059331473219,-34.4385656875122,-34.548542771812,2.17857030590501,1412.36791515684,2277.01910388039
0.8,3.61990229657618,-0.0352119033482454,48,1.86348479875325,-0.529077969998856,3.58120217476713,-4.7070116342863,47.8049852742355,0.136949532821379,1459.11872637043,2277.01910388039
0.81,3.66242569625899,0.0450562401270057,48,-2.13904596738168,3.6626643400605,-0.016792183947436,47.9820638646898,2.50939533262521,-1.56307931150268,1505.71487746321,2277.01910388039
0.82,3.63773671293058,0.00601229489352374,48,-0.0566201270099765,0.783476352753065,-3.55236953947216,10.4706975702004,-46.8440785823799,-2.92286470898146,1551.69953124927,2277.01910388039
0.83,3.27074015081545,0.113459018537991,48,-5.32386182447582,-2.4490668454105,-2.17087209889365,-31.1269955932984,-36.9249732574161,2.3307261958605,1595.40545716244,2277.01910388039
0.84,3.15218451506086,0.210203199282398,48,-10.3883563305315,-3.15828110694084,0.0755847307236424,-47.5133131887953,-12.4259010568064,1.61345500256642,1636.96782974112,2277.01910388039
0.85,2.8580107576048,0.115836486609467,48,-5.45762941488425,-2.61128872705981,1.16739657620927,-46.6015722589244,12.7310322372719,1.19090024885989,1675.90003798628,2277.01910388039
0.86,2.744132812754,0.0823359472042575,48,-3.90566598263956,-2.33439996358823,1.44486017047826,-43.5088974383963,20.6453401634137,1.04655993613675,1712.77728322519,2277.01910388039
0.87,2.48717705530479,-0.286997078123668,48,14.4168910184279,-2.39778257025723,0.720455254028159,-38.3794626396317,32.2314069523864,1.16402827136726,1747.50262026978,2277.01910388039
0.88,2.22409960111034,0.00788309864813019,48,-0.361292245022352,-2.22178193593855,0.101814576759078,-47.9724262348128,1.66638927977908,1.52854711046542,1780.29554212777,2277.01910388039
0.89,2.11572706770242,0.227604436993514,48,-11.0864800918414,-1.91752507226537,-0.922606309311563,-34.931922231379,-34.7371681351213,2.12641120418017,1811.06491725968,2277.01910388039
0.9,1.94905716502227,0.155466380847653,48,-7.49304578085263,-0.534898319402765,-1.88065877181338,-2.07144367013106,-48.5371492384486,2.94408573438895,1840.20253230479,2277.01910388039
0.91,1.86628124348823,0.272929110655914,48,-13.3832373542852,1.88201603964552,0.124545597097661,44.1257121200618,23.15237724249,-1.35950313894143,1867.66986008787,2277.01910388039
0.92,1.72412992225633,0.213573686384746,48,-10.4112561717783,0.450067980492185,1.67799777153347,-3.66990409379046,48.9788327649483,-0.138804002041815,1893.61998451353,2277.01910388039
0.93,1.5031129952614,0.19147025370978,48,-9.31340781620402,-1.37623853811718,0.634016577685835,-48.5813716236867,5.53081334996786,1.26579001566556,1917.89124949866,2277.01910388039
0.94,1.28499907012119,-0.042587060042234,48,2.07568125317189,-0.336231862169545,-1.24096108027503,-16.0648273807146,-45.2794630477506,2.84387091296448,1940.92002632969,2277.01910388039
0.95,1.2626315386064,-0.147946567930519,48,7.34066986195425,1.27119860950882,-0.0134418908205749,46.6807877503858,-13.3712186813929,-1.69801144035792,1962.54494016418,2277.01910388039
0.96,1.29473736572515,-0.154954561403874,48,7.81843626624387,-0.40544160907113,1.23934372308032,-1.73038856642675,48.6017870150728,0.197054450902743,1982.88436509904,2277.01910388039
0.97,1.26225315506165,-0.0763704289160166,48,4.05092372508517,-0.945025138402988,-0.840263623907592,-40.2358047108793,-26.4856565388598,2.23715168013508,2002.11783287306,2277.01910388039
0.98,1.0077587232262,-0.0435061896092718,48,2.07970304922166,0.976052686841767,-0.25454191262302,45.2697951615166,-16.0925700497861,-1.86904591522486,2020.20251850705,2277.01910388039
0.99,1.08297272860927,0.172716985173778,48,-8.64760097941763,-0.30108253789606,1.05451903408758,-28.1205416556664,39.8499201967978,0.436268998666413,2037.15971932489,2277.01910388039
1,0.826093941148514,0.20291355231833,48,-9.94744095116129,-0.422637025443442,-0.738229675670823,-3.66066210456902,-48.8830352416154,2.86250029602333,2053.19767452575,2277.01910388039
