t,iq,id,vq,vd,ia,ib,va,vb,theta_e,omega,r
0,0,0,0,0,0,0,0,0,0,0,0
0.01,0.000574269727524611,0.000328689581209126,-0.028348962278117,-0.0164535889054684,0.000313803920163428,-0.00058253726098567,-0.0153706399095608,0.0289504348652463,-2.1276295646118,-0.000859883318150276,0
0.02,0.000638785124701993,0.000365495921799242,-0.0315764609038497,-0.0182960371789184,0.00034911679116329,-0.000647882065286782,-0.0171366258320724,0.0322203959435054,-2.12763606255277,-0.000934293698591365,0
0.03,0.00066433285950671,0.000380098237184715,-0.0328382284140572,-0.0190270101859294,0.000363083059959598,-0.000673782984128915,-0.0178212278135834,0.0335079125163836,-2.12764281152413,-0.000948211313036102,0
0.04,0.000649734105195828,0.000371854876142839,-0.0321267440926749,-0.0186143530576122,0.000355042276994736,-0.000659071648542268,-0.0174351138182253,0.0327816813463737,-2.12764923553035,-0.000901978412328694,0
0.05,0.000664597899683725,0.000380390927702427,-0.0328631624728689,-0.0190416575712919,0.0003631447033587,-0.000674176201422784,-0.0178342226332036,0.0335337542462791,-2.12765566536908,-0.000900754788496202,0
0.06,0.000665181355798557,0.000380786546769762,-0.0328976725859469,-0.0190614648049511,0.000363426660869987,-0.000674822711881971,-0.0178528386478578,0.0335689209581736,-2.12766197215618,-0.00087816319279357,0
0.07,0.000682566968657644,0.000390838841677123,-0.0337576737059122,-0.0195646654501495,0.000372868456575657,-0.000692547313154045,-0.0183167423074383,0.034450741928934,-2.12766804789418,-0.000882112396815221,0
0.08,0.000665796691933025,0.000381269683339571,-0.0329390964452753,-0.0190856510004558,0.000363685497967374,-0.000675562480449469,-0.0178748139393991,0.0336115631200665,-2.1276740810852,-0.000834015841766479,0
0.09,0.000664878668023784,0.000380822980420137,-0.0328993573933289,-0.0190632879069773,0.000363138356911214,-0.000674700169963652,-0.0178527037092097,0.0335716790314316,-2.12767989323735,-0.000810971037295524,0
0.1,0.000664721368166946,0.000380800789851128,-0.0328968540771448,-0.0190621728898384,0.000363012740175453,-0.000674600244084812,-0.0178509782421485,0.0335695102623406,-2.12768554482267,-0.000789686692854945,0
0.11,0.000664603351724093,0.000380798390147001,-0.0328961381960434,-0.0190620617137091,0.000362910115381984,-0.000674537824895596,-0.0178502447279359,0.0335691356478423,-2.12769104280436,-0.000769034558917799,0
0.12,0.000664490290129722,0.000380796948348972,-0.0328955268836592,-0.0190619798188224,0.000362811291841686,-0.000674478782513385,-0.0178495895217991,0.033568838488545,-2.12769639147797,-0.000748945839524178,0
0.13,0.000695889825408118,0.00039883456466681,-0.0344435862844775,-0.0199649178458821,0.000379928574573317,-0.000706389366640094,-0.0186862901544124,0.0351536789112346,-2.12770176770581,-0.000776918691557016,0
0.14,0.000726475177536093,0.000416582871090025,-0.0360056540953215,-0.0208533527556321,0.000396507386953303,-0.000737624134741516,-0.0195425365542032,0.0367336182945596,-2.12770699908561,-0.000804186389387938,0
0.15,0.000667130449641833,0.000382458105882884,-0.0330398202552919,-0.0191451363852981,0.000364163841999399,-0.000677290141501465,-0.0179275962479947,0.0337159793344721,-2.12771212827142,-0.000694384685059109,0
0.16,0.000664198852798194,0.00038086907112265,-0.0329001713173978,-0.0190655920939658,0.000362511929793654,-0.000674393406072115,-0.0178509338233339,0.0335747261529051,-2.12771691456915,-0.000672082033280401,0
0.17,0.000663965466082459,0.000380793976494541,-0.0328929933205807,-0.0190618304258272,0.000362350371233051,-0.000674207980634976,-0.0178466728628925,0.0335678217418952,-2.12772156116253,-0.000654423597845669,0
0.18,0.000663863573035066,0.000380789357779114,-0.0328921595845008,-0.0190615956911442,0.000362263270044306,-0.000674151838814908,-0.0178459374710254,0.0335672624472888,-2.12772608110939,-0.000637437669132406,0
0.19,0.000663770229463503,0.000380788048821581,-0.0328916315753696,-0.0190615412089313,0.000362181760109817,-0.000674102980479343,-0.0178453704518252,0.0335670155716406,-2.12773047829125,-0.000620922227126997,0
0.2,0.000663679919866918,0.000380786923514261,-0.0328911417254031,-0.0190614767307868,0.000362102809497826,-0.00067405583782636,-0.0178448451195409,0.0335667782460348,-2.12773475606334,-0.000604855714764895,0
0.21,0.0006635919896105,0.000380785835595562,-0.0328906606033195,-0.0190614295407051,0.000362025937592272,-0.000674009941896905,-0.0178443219594381,0.0335665581325511,-2.12773891766929,-0.000589225521468945,0
0.22,0.000663506569455815,0.000380784777479921,-0.0328901977285875,-0.0190613679937986,0.000361951257244697,-0.000673965356565484,-0.0178438256735183,0.0335663334571067,-2.12774296626363,-0.000574019778635074,0
0.23,0.000663423295809163,0.000380783748055555,-0.032889737925533,-0.019061320819497,0.000361878458298847,-0.00067392188985429,-0.0178433280901534,0.0335661206406277,-2.12774690491536,-0.000559226959050145,0
0.24,0.000663342350467599,0.000380782746532278,-0.0328892929922421,-0.0190612736514317,0.000361807693454415,-0.000673879638316621,-0.0178428467180392,0.0335659137778322,-2.12775073660995,-0.000544835849442039,0
0.25,0.000663263617015802,0.000380781772154182,-0.0328888599752746,-0.0190612264893805,0.000361738862304665,-0.000673838540868872,-0.0178423789525642,0.0335657113594479,-2.12775446425198,-0.000530835541085579,0
0.26,0.000669940028419028,0.000384643219380326,-0.033220285954446,-0.0192545220321787,0.000365362609067124,-0.000680646906838644,-0.0180214160848891,0.0339050524240579,-2.12775806715931,-0.000527624455053469,0
0.27,0.000648545281076992,0.000372384443948617,-0.0321721839848839,-0.0186408713591915,0.000353679085374297,-0.000658932667478974,-0.0174559821714971,0.0328301720040502,-2.12776167267067,-0.0004814991335537,0
0.28,0.000646659476640246,0.000371300160377967,-0.0320317604860821,-0.0185865915712251,0.000352649202558438,-0.000657016611479678,-0.017365362357221,0.0327099259594955,-2.12776511073977,-0.000465815127958522,0
0.29,0.00066218677792847,0.000380337074660912,-0.0328487696763871,-0.0190389590355425,0.000361050467415714,-0.000672896856289137,-0.0178196514130275,0.0335258654463622,-2.12776839174429,-0.000477330305371509,0
0.3,0.00065821998693272,0.000378141754832996,-0.0326565752910251,-0.0189290734310124,0.000358841713163754,-0.000668937487990911,-0.0177144936569787,0.0333310432655792,-2.12777136938781,-0.000460180187632353,0
0.31,0.000662615996750419,0.000380653892482321,-0.0328755127644198,-0.0190548195679068,0.000361243211084992,-0.000673394897112013,-0.0178337627269803,0.0335535750000918,-2.12777452062306,-0.000455165401846467,0
0.32,0.000662764098328735,0.000380770016728645,-0.032885625404842,-0.0190606414598421,0.000361305466769166,-0.000673572873084827,-0.0178391659069073,0.0335639176925769,-2.12777760162271,-0.000443919674898083,0
0.33,0.000662711034773709,0.000380774673593685,-0.0328857748717987,-0.0190608664043038,0.000361255942432609,-0.000673549858376011,-0.0178390732434042,0.0335642411327562,-2.12778059968826,-0.00043267508794536,0
0.34,0.000662649814665569,0.000380774164044218,-0.0328854476468856,-0.0190608481733205,0.000361202280473125,-0.000673518116653814,-0.0178387072190493,0.0335641047068958,-2.12778351637405,-0.000421721318063741,0
0.35,0.000662589998691393,0.000380773433790726,-0.0328851158474774,-0.0190608010509587,0.00036114998061494,-0.000673486900947946,-0.0178383552439047,0.0335639399236516,-2.12778635385674,-0.000411064311291484,0
0.36,0.000662531688948611,0.000380772712427712,-0.0328847862613661,-0.0190607697275761,0.000361099006691964,-0.000673456460921367,-0.0178379993829088,0.0335637883451609,-2.1277891142854,-0.000400696670300258,0
0.37,0.000662474892604415,0.000380772010119291,-0.0328844612268251,-0.019060738404793,0.000361049357992103,-0.00067342680976852,-0.0178376499021394,0.0335636378344663,-2.1277917997525,-0.000390610568758255,0
0.38,0.000662419667866464,0.000380771326833538,-0.0328841455657905,-0.0190607070822098,0.00036100108255744,-0.000673397978989577,-0.0178373108265076,0.0335634909767213,-2.1277944122938,-0.00038079836276545,0
0.39,0.000662365956527099,0.000380770662077739,-0.0328838382794813,-0.0190606757598176,0.000360954129892801,-0.000673369938130972,-0.0178369812416734,0.0335633472793786,-2.12779695388956,-0.000371252614558232,0
0.4,0.000662313940374543,0.000380770015351191,-0.0328835502552813,-0.0190606286465839,0.000360908653263214,-0.000673342783584062,-0.0178366786724407,0.033563199128371,-2.12779942646625,-0.000361966088282539,0
0.41,0.000662263081209065,0.000380769386165471,-0.0328832563811248,-0.0190605973256023,0.000360864194805954,-0.000673316231113141,-0.01783636504342,0.0335630600910198,-2.12780183189824,-0.00035293174457607,0
0.42,0.000662213495446884,0.000380768774045419,-0.0328829641846286,-0.0190605817926696,0.000360820852353507,-0.000673290342532047,-0.0178360466852806,0.0335629341757109,-2.1278041720089,-0.000344142735234103,0
0.43,0.000662165430248231,0.000380768178528746,-0.0328826877305566,-0.0190605504701202,0.000360778834745382,-0.00067326524876581,-0.0178357521706385,0.0335628020450746,-2.12780644857221,-0.000335592398020671,0
0.44,0.000662118645617519,0.000380767599165395,-0.0328824166576532,-0.0190605191475501,0.000360737937330154,-0.000673240823197274,-0.0178354642993577,0.0335626716553967,-2.12780866331343,-0.000327274251618028,0
0.45,0.000662073199762409,0.000380767035518061,-0.0328821554467992,-0.0190604878243755,0.000360698208608205,-0.000673217096847428,-0.0178351868188818,0.0335625454050526,-2.12781081791183,-0.000319181990711885,0
0.46,0.000662028976267579,0.000380766487160522,-0.0328818998472525,-0.0190604565010562,0.000360659548879098,-0.000673194008414207,-0.0178349160659219,0.0335624210764796,-2.12781291400036,-0.000311309481214735,0
0.47,0.000661985735136901,0.000380765953678565,-0.0328816393386779,-0.0190604395053008,0.000360621753566804,-0.000673171431256477,-0.0178346354826215,0.0335623052982977,-2.12781495316806,-0.000303650755613571,0
0.48,0.000661943956362903,0.000380765434669087,-0.0328813993771681,-0.0190604081799559,0.000360585229270799,-0.000673149619353555,-0.0178343817748992,0.0335621872304906,-2.12781693696061,-0.000296200008448451,0
0.49,0.000661903225326201,0.000380764929740021,-0.0328811607336145,-0.0190603768546115,0.000360549623235383,-0.000673128353734987,-0.0178341309944819,0.0335620688978087,-2.12781886688157,-0.000288951591909807,0
0.5,0.000661863476656602,0.000380764438509409,-0.032880921505096,-0.0190603613086347,0.000360514879182449,-0.000673107600056198,-0.0178338731350087,0.0335619627144242,-2.12782074439432,-0.000281900011558876,0
0.51,1.67267240139063,-0.00223853803653764,1.78747079398927,0.112772321854667,-0.0407015797466293,1.67217862527679,0.0716390426011279,1.78959137333535,0.0229973449943547,7.06368771936344,212.457501294033
0.52,1.63577049228703,-0.0273975609118296,1.34312941337183,1.37297773636666,-0.195694482470033,1.6242534898567,1.22737097585828,1.47737096669854,0.103157309682201,14.7789952519754,212.457501294033
0.53,1.55442554569412,0.0219532225164011,3.16564502630214,-1.09691079594678,-0.346917098780165,1.51537759243671,-1.81563118081411,2.81567134837708,0.239175086460504,22.2983760157998,212.457501294033
0.54,1.50807717805862,-0.0149337726812577,3.25878651320469,0.750395337608933,-0.642048567764106,1.36465872260423,-0.675931546884016,3.2750418692403,0.429854124487125,29.7019845549864,212.457501294033
0.55,1.48819393569666,0.0318759661851188,2.03360811142106,-1.59217505152728,-0.904433141283648,1.18225968400024,-2.51349233467911,0.594087223438421,0.674450540268594,37.0222720642094,212.457501294033
0.56,1.44357988207839,0.0369931163573047,1.99530540113492,-1.84760681500596,-1.17224626362088,0.843285280332924,-2.68922848353777,-0.40366415494047,0.97280501231634,44.399939831487,212.457501294033
0.57,1.38935493789235,0.0239638190763016,2.32811897896009,-1.19575899948241,-1.34209272949749,0.360095145066623,-2.54856752422936,-0.595635072406555,1.32590800318857,51.9667663440752,212.457501294033
0.58,1.34464386648947,0.042249849987175,2.24052190693284,-2.11180886871153,-1.33364687006084,-0.1767433265745,-1.8677071763895,-2.44772241413887,1.73396538265006,59.2365338849053,212.457501294033
0.59,1.3262357356275,-0.0179782854914022,1.1009472248845,0.904046159762398,-1.06750072962851,-0.787189073505992,-1.42149439996453,0.0934768518484583,2.19263801809202,65.7960111714436,212.457501294033
0.6,1.30593676353231,-0.0333495517367668,0.230537802666733,1.67481283375338,-0.530959109975135,-1.1935935013566,-1.61140850286871,0.511378864879892,2.6975060479869,71.8968102093625,212.457501294033
0.61,1.23651387973933,0.0257140855683228,1.86010260600757,-1.28086845087631,0.103721389435717,-1.23242430289172,1.46834625394126,-1.7159734764451,-3.0368374278703,77.8582473311007,212.457501294033
0.62,1.19544505457085,0.0194238659758777,1.96527739931545,-0.965422799102524,0.753319162351474,-0.928426844022417,2.0026043349064,-0.885399522871533,-2.44369638660608,84.0528668763927,212.457501294033
0.63,1.16748628577986,-0.0350184986816772,1.34450107887669,1.75728825585803,1.14388314841712,-0.236181848373895,0.901207761041157,-2.02078443598429,-1.80439462390167,90.2618271776433,212.457501294033
0.64,1.10240574048185,0.0231078219827425,2.84860102602219,-1.1513298197622,1.00341078198772,0.457164292869557,2.06771012066443,2.27258949575814,-1.12232847566295,95.7419831562644,212.457501294033
0.65,1.07709874276432,0.00492397937514222,2.47045739362226,-0.239072243404889,0.425361657274047,0.98956223036171,0.745153094713141,2.36750124323282,-0.40139854720133,100.965276085019,212.457501294033
0.66,1.04287661259039,0.0037803949294854,2.40008553843297,-0.183806031702345,-0.362610111811437,0.97781379990565,-1.01476535805089,2.18276121396388,0.358741401269194,106.51150753284,212.457501294033
0.67,1.02031007240845,0.0297026964658295,1.78085690313917,-1.48209511843506,-0.923292546355693,0.435253682212452,-2.22495505294387,-0.646244738413409,1.15938055373452,111.791931326428,212.457501294033
0.68,0.976962416961779,0.00276762117512522,2.42597393626675,-0.131184200036441,-0.890971097054598,-0.400791377272636,-2.15544904912609,-1.12098092330166,1.99634720782581,116.524546447256,212.457501294033
0.69,0.950030726075211,-0.028002859610615,2.19496958480735,1.41001732906168,-0.229540478171509,-0.922308901352556,-1.95028218020354,-1.732754963653,2.86820501667713,121.416579820253,212.457501294033
0.7,0.914512349743484,-0.0118038468100627,2.34938721449981,0.595659120794542,0.551872332663994,-0.729320983568186,0.913751335304094,-2.24488052445356,-2.50672809168219,126.250223449934,212.457501294033
0.71,0.8722416642223,-0.0273739739583055,3.06527778045128,1.37812642026657,0.872083885579614,0.0320086202126962,3.07255777154479,-1.36181828526599,-1.56548236994921,130.540252646328,212.457501294033
0.72,0.849450329904271,0.0135462582891739,2.72182406273372,-0.673651172914406,0.485483136547276,0.697176798392151,0.960693809353727,2.63423604407704,-0.592330296054256,135.05100581537,212.457501294033
0.73,0.846274124138855,-0.0167712184489807,1.4429770016677,0.845179005832198,-0.35551115903643,0.768162081045285,0.193905232389086,1.66099697172919,0.41363831889318,139.288466436258,212.457501294033
0.74,0.825062350137918,0.029739295974807,1.21022679067621,-1.47986454565149,-0.815329589071774,0.129807428617292,-1.38113461720627,-1.32178482647564,1.44894217919653,143.211287229051,212.457501294033
0.75,0.783342769209023,-0.000265821967157936,1.86952796674143,0.0170495643614136,-0.459621397248309,-0.634329674479202,-1.11125014698397,-1.50351209403229,2.51422170889748,147.386298309182,212.457501294033
0.76,0.726527715318544,-0.011816584057542,3.47295573070281,0.598789261084323,0.337397993418809,-0.643540788778562,1.0276121069993,-3.37105079228419,-2.67497031854786,151.043603742153,212.457501294033
0.77,0.734426408778961,0.0255625681276057,1.80282540964742,-1.27627880527062,0.734749959587448,-0.0133450997554521,1.78135083348054,1.30608432136351,-1.55416498556218,154.831604180121,212.457501294033
0.78,0.70362027402866,0.023499507919309,2.1074470702857,-1.17068922715454,0.299344047478338,0.637202368275498,-0.243705422746072,2.39842741969726,-0.40579395652466,158.378721870504,212.457501294033
0.79,0.685890701526577,-0.0261679926710634,1.83651926772362,1.31879057862517,-0.495060668442747,0.475442691438278,-0.326046598222126,2.23734334128189,0.767476293745089,161.789405709008,212.457501294033
0.8,0.673245832392054,0.0285831309539075,1.25426095886267,-1.42646769825648,-0.63225563418414,-0.233087449792581,-0.607626435033484,-1.79965851275867,1.96642744127013,165.228224176258,212.457501294033
0.81,0.618380356524538,-0.0196902965560055,2.92740492779092,0.994213897931243,0.048908593010474,-0.616757588233509,-0.854678473980098,-2.97114213598226,-3.09428968114524,168.335965655245,212.457501294033
0.82,0.59619316559734,0.0264416350729207,2.88180596459547,-1.32062161981677,0.566163431610613,-0.188691333868839,3.13328776506693,0.480993619071368,-1.84817775272821,171.577651735658,212.457501294033
0.83,0.586042788151326,-0.0147079776828285,2.36871417755857,0.744525440752131,0.308772312108305,0.498319308703757,1.92059404434171,1.57367198098374,-0.579818399797561,174.490779105151,212.457501294033
0.84,0.580532391775122,-0.00765954445258815,1.56558213147256,0.386188688314723,-0.38440375812134,0.435098008802103,-0.72823832761324,1.43870012565631,0.710423810198039,177.490120984616,212.457501294033
0.85,0.549850569019136,-0.0187376915542857,2.14572985980814,0.946008347977411,-0.486829752491115,-0.256288004840046,-2.34355516950729,-0.082689740541682,2.02130908235,180.168328445063,212.457501294033
0.86,0.57197760027949,0.019612149094074,0.00926434257145206,-0.979121780588058,0.100571549850429,-0.563407822961534,0.959362742195753,0.195929625508382,-2.93067253466479,183.000137114908,212.457501294033
0.87,0.553131657335769,-0.0114371833067451,0.0441488000443973,0.580868506006866,0.553213767249509,0.00632196445834862,0.0387757039726568,-0.581251909758096,-1.58004331654301,185.512005853072,212.457501294033
0.88,0.479921737055765,-0.0201315086037999,2.73768123891659,1.00983797558926,0.080564834953244,0.473539289506419,1.55944147267072,2.46633606715968,-0.210442682591744,188.12422457062,212.457501294033
0.89,0.444269015048341,-0.00800744819697388,3.66611562559278,0.408335581782485,-0.413343947401947,0.163051703777749,-3.22891005370998,1.78361475454084,1.17704451543762,190.458177052512,212.457501294033
0.9,0.48212310846528,-0.0013203468971035,0.868047767628546,0.0687969867613418,-0.254734484530854,-0.409334554396465,-0.518966831550144,-0.699223412095982,2.58218881877431,192.866978066338,212.457501294033
0.91,0.441149699941994,-0.0419592119423235,2.10121532856354,2.1081617784951,0.362300265472684,-0.255170826828136,0.223943451183611,-2.96804670986997,-2.27923549426675,195.057882358684,212.457501294033
0.92,0.44763788664193,-0.0240306768744037,0.935973501379552,1.20646202697229,0.317625509603959,0.3163403019489,1.50194462626391,-0.275244177863511,-0.841057225785886,197.259303288509,212.457501294033
0.93,0.415575159460884,0.0617842717741231,1.74862427637127,-3.0891993332494,-0.188353813787479,0.37555672039162,-3.53294656800038,-0.345149138949892,0.612463311210647,199.362980139759,212.457501294033
0.94,0.421244176351205,-0.0046077648532109,0.676498463062,0.235412161130746,-0.365241689034358,-0.209919975700448,-0.705245294778801,-0.125292179827231,2.0814991494423,201.376501663142,212.457501294033
0.95,0.349310773640013,-0.0081744330373249,3.52380486865318,0.408505038164259,0.150865975961501,-0.31515757207094,1.07423636920812,-3.38084210539623,-2.71852699721564,203.331303249256,212.457501294033
0.96,0.36207722089449,-0.0142222143017952,2.1675337430886,0.717817887015995,0.335315757310484,0.137351840794437,2.28229360228215,0.0678303717354807,-1.22128428707187,205.140350150697,212.457501294033
0.97,0.352843202852914,0.0426879120614193,1.8953259636319,-2.13705165040957,-0.0597328366986817,0.350360631143961,-2.5889010551141,1.20699693113304,0.289263478311202,206.99679382694,212.457501294033
