t,iq,id,vq,vd,ia,ib,va,vb,theta_e,omega,r
0,0,0,0,0,0,0,0,0,0,0,0
0.01,0.000495280560019944,0.000280081863753215,-0.0241433601656515,-0.0140124296753155,-0.000445371557404661,-0.000354108541823111,0.0220435579960539,0.0171269254791582,2.75720008510805,-0.00125694542859232,0
0.02,0.000599505843232912,0.000337067795507414,-0.0292815340764185,-0.0168634265794477,-0.000537287401298501,-0.000429353238306801,0.0266135113816484,0.0208207686171225,2.75719005477404,-0.00145460671575028,0
0.03,0.000639148250147877,0.000359002598228669,-0.0312347497281399,-0.0179608168518541,-0.000572492451629665,-0.000457870881394618,0.0283635199972304,0.0222196144415715,2.75717940716726,-0.00147751802614212,0
0.04,0.000627814376194811,0.000352834273133743,-0.0307166075326375,-0.0176522206038335,-0.000562528474294669,-0.000449671692307185,0.0278833554639681,0.0218547330944693,2.75716928703447,-0.00137025956937776,0
0.05,0.000642691054081261,0.000361680155026966,-0.0314671910074691,-0.0180947766737505,-0.000576312344545375,-0.000460139551724284,0.0285753170204371,0.0223842871218845,2.75715953888201,-0.0013348510165036,0
0.06,0.000644638821169804,0.000363182866049352,-0.0315901305339704,-0.0181699658856488,-0.00057844016206274,-0.000461376183676452,0.0286913345958122,0.0224697869716221,2.75715019879136,-0.00126852637892223,0
0.07,0.000654942581074745,0.000369595083101188,-0.0321160051869421,-0.0184907657747089,-0.000588252770913167,-0.000468517862488085,0.0291861430848005,0.0228367086055847,2.75714147322204,-0.00122890167137464,0
0.08,0.000645502472427952,0.000364525233297258,-0.0316844791830396,-0.0182371152798291,-0.000580016380915081,-0.000461663389810358,0.0287893542814086,0.0225315706263409,2.75713302561985,-0.00113942336602581,0
0.09,0.000643186874025092,0.000363660680308757,-0.031596437917251,-0.0181938625257776,-0.000578350085488137,-0.000459836518707097,0.0287164156976806,0.0224659518414777,2.7571251302742,-0.00107292681723635,0
0.1,0.000642189122581311,0.000363511729813286,-0.0315708415131598,-0.018186419696351,-0.000577841199765382,-0.000458963173606887,0.0287000828017885,0.0224448021241302,2.75711769320048,-0.00101340598832319,0
0.11,0.000641461749170672,0.000363484636057784,-0.0315570553140156,-0.01818505057235,-0.000577546481607537,-0.000458295011844895,0.0286938001905069,0.0224323345873325,2.75711067727113,-0.000957818029183021,0
0.12,0.000640813599591151,0.000363478372863491,-0.0315458961122311,-0.0181847480616016,-0.000577300598568562,-0.000457692708979331,0.0286894826288008,0.0224219136132342,2.75710405673796,-0.000905464166541039,0
0.13,0.000665837599924699,0.000378023536272633,-0.0327779964509602,-0.018912433612622,-0.0006001730220324,-0.000475430170555095,0.0298263328745817,0.0232909223463915,2.75709760611625,-0.000921996888343582,0
0.14,0.000680848027474112,0.000387003058352515,-0.0335841075630695,-0.0193616818456649,-0.000614130217941875,-0.000485972714357766,0.0305452934876069,0.0238694794760282,2.75709141375123,-0.000914142999830539,0
0.15,0.000646453377015593,0.000367475171800548,-0.0318758369582783,-0.0183847056563063,-0.00058312954671701,-0.00046141077392094,0.0289990174088473,0.0226522266715909,2.75708551075538,-0.000778433050955122,0
0.16,0.000639851731066634,0.00036415136981072,-0.0315720996692534,-0.0182184220976323,-0.000577574550604604,-0.00045653487969473,0.0287310609661291,0.0224328891811408,2.75708024091982,-0.000720738209346413,0
0.17,0.000638279443865576,0.000363584625326309,-0.0315109560327499,-0.0181900680588867,-0.000576461652299261,-0.000455287152974282,0.0286819520005783,0.0223867048830628,2.75707532193421,-0.000678968094263435,0
0.18,0.000637634782055162,0.000363487039279098,-0.0314938771559128,-0.0181851809393827,-0.000576131478230885,-0.000454723501484048,0.0286711188902244,0.0223725735151867,2.75707068961546,-0.000641832863842808,0
0.19,0.000637177495675845,0.000363469341434339,-0.031485072445596,-0.0181842873860186,-0.000575945522478788,-0.000454303729123028,0.0286670855269229,0.0223646216608695,2.75706631982232,-0.000607199422383785,0
0.2,0.000636773122121857,0.000363465297169441,-0.0314780769042035,-0.0181840884344554,-0.000575791956664129,-0.000453928027273247,0.0286643691289154,0.022358093394123,2.75706219633503,-0.000574589696192688,0
0.21,0.000636396397359011,0.000363463633812538,-0.0314717098078933,-0.018184004407716,-0.000575650861315487,-0.000453577196894289,0.0286619897672417,0.0223521112451289,2.75705830502834,-0.000543829016466518,0
0.22,0.000636041618097974,0.000363462430188559,-0.0314657348849961,-0.018183955906167,-0.000575518322555833,-0.000453246664095592,0.0286597855114497,0.0223464856003799,2.75705463278531,-0.000514802352236945,0
0.23,0.000635707268540536,0.000363461356377935,-0.0314601170741427,-0.0181838951332878,-0.000575393471960528,-0.000452935140258036,0.028657699186106,0.0223412015320535,2.75705116726579,-0.000487410119478908,0
0.24,0.000635391546620983,0.000363460353368485,-0.0314548039916141,-0.018183849500711,-0.000575275584462923,-0.000452640970205957,0.0286557368166,0.0223361998628487,2.75704789683123,-0.000461559956099747,0
0.25,0.000635093636244301,0.000363459408400018,-0.0314497900923477,-0.0181838038437236,-0.000575164347394082,-0.000452363395777376,0.0286538825164423,0.02233148082447,2.75704481049945,-0.000437164990442674,0
0.26,0.000639746338016818,0.000366290707351849,-0.0316839385958971,-0.0183254523874522,-0.000579535589529557,-0.000455612510546929,0.0288730890404485,0.0224953083867656,2.75704194961776,-0.000427528100268018,0
0.27,0.000627731141601715,0.000359450954395085,-0.0311105985697404,-0.0179832591062855,-0.000568689237739117,-0.000447039064995255,0.0283408664230671,0.0220921307673389,2.75703907036922,-0.000373868918333182,0
0.28,0.000627141066672415,0.000359273365072676,-0.0310320816088893,-0.0179743701535696,-0.000568304413397687,-0.000446557232692932,0.0283032285401276,0.0220226094185863,2.75703647542262,-0.000352463624657096,0
0.29,0.000632771951279666,0.000362744339978563,-0.0313699919785098,-0.0181480282150099,-0.00057363537155363,-0.000450473372148997,0.0285910228092168,0.0222706250371966,2.75703409561814,-0.000349082525107906,0
0.3,0.000624733924172485,0.000358461237780355,-0.0309864092286069,-0.0179337443026417,-0.000566650476271971,-0.00044462812860156,0.0282485304217058,0.0219953920312685,2.75703217835917,-0.000313253532298083,0
0.31,0.000632023382874923,0.000362605149807729,-0.0313460377838222,-0.0181410656621978,-0.000573227338008904,-0.000449829378906017,0.0285756721941773,0.0222509169868549,2.75703005817048,-0.00031622494988881,0
0.32,0.000633173913623811,0.00036330968019708,-0.0314080795998067,-0.0181762999657773,-0.000574312968902846,-0.000450630383317189,0.0286316543892813,0.022295149955236,2.75702799067599,-0.000303437041505735,0
0.33,0.000633227647287707,0.000363429056519242,-0.0314166627879779,-0.0181822730626711,-0.000574444669333099,-0.000450634279972993,0.0286404550326736,0.022300809177706,2.75702602756006,-0.000288560374933941,0
0.34,0.000633092256861302,0.000363448901259831,-0.0314157509412264,-0.0181832786165193,-0.000574413107483452,-0.00045050026800871,0.028641086416412,0.0222995335676501,2.75702417279087,-0.000274015237117661,0
0.35,0.00063293125239147,0.000363451837673579,-0.0314132799272073,-0.0181834223750756,-0.000574356215567802,-0.000450348916064832,0.0286403316880509,0.0222971389611741,2.75702242204272,-0.000260197756041179,0
0.36,0.000632773216259226,0.00036345192198652,-0.0314106509917206,-0.0181834220878293,-0.000574297748613916,-0.000450201442409648,0.0286393819849442,0.0222946548317817,2.75702076977929,-0.000247141686788494,0
0.37,0.00063262309632442,0.000363451544368204,-0.0314081209422718,-0.0181833970441001,-0.000574241780999347,-0.000450061533638931,0.0286384443507974,0.0222922743199083,2.7570192105142,-0.000234817626124683,0
0.38,0.000632481010231623,0.000363451110179055,-0.0314057109874781,-0.0181833826914701,-0.000574188735037306,-0.000449929143699606,0.028637559718362,0.0222900036363996,2.75701773902259,-0.000223186791459808,0
0.39,0.000632346956795866,0.000363450687153088,-0.0314034366019849,-0.0181833683088217,-0.000574138675359259,-0.000449804243218936,0.0286367240663399,0.0222878610058806,2.75701635036532,-0.000212210595717106,0
0.4,0.00063222058557497,0.000363450285648173,-0.031401295250972,-0.0181833373694008,-0.000574091482250684,-0.000449686500764376,0.028635921229124,0.0222858501450487,2.75701503987981,-0.000201852265958982,0
0.41,0.000632101142261623,0.000363449906325807,-0.0313992633412154,-0.0181833229342926,-0.000574046875366245,-0.000449575214328967,0.0286351731005082,0.0222839366541842,2.75701380316533,-0.00019207703481308,0
0.42,0.00063198850924444,0.00036344954825901,-0.0313973483168522,-0.0181833084729884,-0.000574004811637287,-0.000449470272836737,0.0286344672435568,0.022282133516144,2.75701263606935,-0.000182852080448785,0
0.43,0.000631882162651732,0.000363449210309144,-0.0313955365574289,-0.018183292532171,-0.000573965095272011,-0.000449371188841877,0.0286337972891844,0.0222804285380972,2.75701153467288,-0.000174146426581845,0
0.44,0.000631781869658326,0.000363448891356071,-0.0313938283343627,-0.0181832780230105,-0.000573927639583172,-0.000449277744807615,0.0286331661208013,0.0222788207732844,2.75701049527719,-0.000165930840300274,0
0.45,0.000631687222807868,0.0003634485903345,-0.0313922144585136,-0.0181832634917221,-0.000573892292319262,-0.000449189561423008,0.0286325690216424,0.0222773021490393,2.75700951439235,-0.000158177734232811,0
0.46,0.00063159787285161,0.000363448306238041,-0.031390688058944,-0.0181832474844416,-0.000573858923028598,-0.00044910631342527,0.0286320021401422,0.0222758667472508,2.7570085887246,-0.000150861073971796,0
0.47,0.000631513586964463,0.00036344803811595,-0.0313892474596287,-0.0181832329122437,-0.000573827444903078,-0.000449027783558056,0.0286314676156371,0.022274511832977,2.75700771516544,-0.000143956290662916,0
0.48,0.000631434074105353,0.000363447785071261,-0.0313878875723935,-0.0181832183209498,-0.000573797749261359,-0.000448953700683142,0.0286309622569673,0.0222732331511312,2.75700689078153,-0.000137440198506993,0
0.49,0.000631358985025489,0.000363447546256759,-0.0313865998066319,-0.0181832022568452,-0.000573769705552792,-0.000448883739783852,0.0286304815556431,0.0222720232046168,2.75700611280477,-0.000131290916902882,0
0.5,0.000631288203315188,0.000363447320873251,-0.031385386735395,-0.0181831876305025,-0.000573743270554211,-0.000448817791746962,0.0286300292334864,0.0222708832116304,2.75700537862267,-0.000125487796975414,0
0.51,4.70524285732046,0.00726356868669562,4.73859951700968,-0.356882150189648,-0.287230427046034,4.69647333512863,-0.652749919579994,4.70697437790102,0.0626263825442937,19.4350512830836,1273.98122037972
0.52,4.73516351496271,0.0404609269561733,3.24332051058783,-2.01010821940345,-1.2979817892181,4.55397122025407,-2.84397252500571,2.54391101753297,0.286204035803418,41.5965044571927,1273.98122037972
0.53,4.72608248644162,-0.00905311632143535,3.69813880625743,0.475795717627039,-2.95753099301107,3.68631903841004,-1.93703394749049,3.18598676731853,0.674225788958294,64.4660461803153,1273.98122037972
0.54,4.67987090929718,0.000120953741017615,6.00957860061754,0.0213432776897414,-4.4208198177705,1.53542954287176,-5.66997135053785,1.99171167004233,1.2365388100262,89.2523010936344,1273.98122037972
0.55,4.71781779890284,0.0474679888525706,4.11311590902228,-2.33860838819261,-4.35088985711656,-1.82477819058932,-2.85068652245623,-3.77629421855123,1.97797819683041,112.545035704341,1273.98122037972
0.56,4.70394287045631,-0.0203324000316368,4.8077796955797,1.06477871417306,-1.17762473162794,-4.55419498116473,-2.25342744039942,-4.37842027245437,2.88423254657236,135.001379142814,1273.98122037972
0.57,4.68655328704279,0.0604818599166792,5.67824886695926,-2.97629578060755,3.39283409195114,-3.23359190253883,6.18605831604173,-1.68330902668446,-2.31926304358412,159.179474179425,1273.98122037972
0.58,4.68600100174989,0.0706762268234673,5.70688353869881,-3.47283801435138,4.14651600247248,2.18403423935584,3.34403363012312,5.78330032756393,-1.07092417110002,181.794235765927,1273.98122037972
0.59,4.66537581293207,0.0645238088537043,6.73923189908117,-3.16063040555134,-1.5391685759751,4.4046401547154,-5.27991752035428,5.24683734532954,0.350007570218197,205.174704641251,1273.98122037972
0.6,4.70382002765723,0.00900349195994554,4.81815091927418,-0.379382911676661,-4.39079022964652,-1.68729519488957,-4.35742323289571,-2.090782734766,1.93959250284876,228.786304567739,1273.98122037972
0.61,4.66962877924844,0.0136238852463452,6.52882794100665,-0.605826342311541,2.45968651114023,-3.96932750137215,3.96920124615341,-5.21900960986296,-2.58391536005564,251.953776481139,1273.98122037972
0.62,4.68545588609226,0.0601535216156719,5.73869140889418,-2.92284546212801,2.89769254785439,3.68245749531322,1.17059353549479,6.33287576513672,-0.653858716458568,274.909269131237,1273.98122037972
0.63,4.62650182906938,0.0277312465934203,8.68762209950698,-1.29048792863812,-4.58710236241278,0.603141868192706,-8.78067853711337,-0.199552663924522,1.44605376862612,298.008564355229,1273.98122037972
0.64,4.67461582810312,0.0190844943561866,6.2831913593821,-0.85768509708762,2.52280318042485,-3.93546204036011,4.13262571057222,-4.80993992901133,-2.56745682699977,321.245099541535,1273.98122037972
0.65,4.66278618572549,0.0602294524023568,6.87597634575869,-2.91083352851386,0.655839738175981,4.61682540698242,-2.00790311137141,7.19168461721581,-0.128193811832214,344.500482292676,1273.98122037972
0.66,4.6415816765387,0.0756026925417874,7.93758151620229,-3.66981849938476,-2.90961118975946,-3.61720319466932,-1.97708022532607,-8.51844598077651,2.48047248437505,367.507418748191,1273.98122037972
0.67,4.6754013736544,0.0914737459320354,6.24797210788399,-4.44685271550934,4.04382997844588,2.34844300684234,3.03251643634663,7.04382698521313,-1.02509118654209,390.324442960274,1273.98122037972
0.68,4.62956928734355,0.0919386886326083,8.54102333915236,-4.47473246136244,-4.37953098568062,-1.50368642151398,-6.48462284945861,-7.1359636196519,1.92138581860788,413.548240086118,1273.98122037972
0.69,4.62271401111692,0.0727031642582396,8.88529363545713,-3.50154048638597,4.40412458998127,1.40657640197473,7.3029202892534,6.15439550361415,-1.24593247255615,436.565772046101,1273.98122037972
0.7,4.60652572047036,0.0778619671055834,9.69619662443593,-3.74926062710069,-4.14745600059553,-2.00617806348306,-6.96665383901162,-7.71614661064931,2.03823050975893,459.54409960297,1273.98122037972
0.71,4.62344671278049,0.0809613993832086,8.85171870346596,-3.89610909865967,3.34682414673285,3.19085919227984,3.56124624453584,8.99166921654301,-0.791740683253525,482.482789410567,1273.98122037972
0.72,4.62256158998094,0.0693800754317335,8.89749906269851,-3.32260078633292,-1.48392642690226,-4.37845310670048,0.433283284198585,-9.48775163838594,2.82983430965644,505.698611337904,1273.98122037972
0.73,4.61722822701922,0.0830922506678518,9.16575881802162,-3.99764702079696,-1.44691380956754,4.38544652802732,-6.80118808114294,7.33049501043055,0.336683443090884,528.554786598156,1273.98122037972
0.74,4.58138635156672,0.119467563982459,10.9594924816382,-5.79524106692391,4.14009966549223,-1.96543841444011,12.3676741851184,0.857863467926037,-1.98795527944106,551.368824564445,1273.98122037972
0.75,4.5956488179676,0.0855663749775533,10.2480621814479,-4.09275967616922,-3.92013823354798,-2.3999637273278,-6.43748693238495,-8.96282445644633,2.13876522472309,574.292931173639,1273.98122037972
0.76,4.57515599214932,0.0821887067564901,11.2744357886173,-3.91787022789318,-0.603587887467331,4.53591104389414,-5.5613872524266,10.5609460420368,0.15025373446928,597.207337855775,1273.98122037972
0.77,4.59344368749918,0.103145220191337,10.3618177959621,-4.95695007494404,4.56036469103406,-0.559855098614094,10.8037633695633,3.9009382379994,-1.67049941472935,620.100647582503,1273.98122037972
0.78,4.55881170578494,0.123976478401577,12.0952425207861,-5.99405708163436,-0.946986371630103,-4.46109304408073,3.70606898738381,-12.9803183549278,2.95960907624566,643.038600731893,1273.98122037972
0.79,4.58514376130953,0.135404117478777,10.7804452061434,-6.58600083756421,-4.55074587397561,0.576705797959268,-11.3650360596311,-5.51628146837543,1.47426299530004,666.055959805876,1273.98122037972
0.8,4.58359976161408,0.081880884913603,10.8595418132514,-3.88837920901052,-0.633591368705959,4.5403362465223,-5.53358803534323,10.1206988257692,0.156513834459596,688.790307290883,1273.98122037972
0.81,4.55559642221454,0.138041726807469,12.2616062310833,-6.67606904570723,3.89418264114847,2.36809118021495,6.63886607569565,12.2817890593418,-0.99414266191074,711.509571590266,1273.98122037972
0.82,4.55926418100201,0.0905400146088784,12.080181096262,-4.3200016287828,4.15172130976297,-1.88634501946843,12.8037963392699,-0.80993128947488,-1.9774080455445,734.480443129466,1273.98122037972
0.83,4.59092637372249,0.143981216793792,10.4990595147562,-6.95762544562625,-2.96206196657951,3.51048778175815,-12.1931891676333,3.15672939263548,0.732220885113902,757.085377438921,1273.98122037972
0.84,4.57951031610524,0.102204603272874,11.0718770672896,-4.88183170582188,-0.277241538532925,4.57225301635379,-5.78161461843671,10.6297542305088,0.0828755993677534,779.9695522408,1273.98122037972
0.85,4.43996086512682,0.131912987905539,12.7545968175548,-6.38441742881489,1.85037292273569,4.03816462852153,-0.91401927584327,14.2339416412714,-0.399968008737081,802.599677584555,1273.98122037972
0.86,4.26103440910529,0.175794379723109,13.3163637468748,-8.548143452763,2.9422913885025,3.08710856379647,2.35643181568739,15.6474767622806,-0.720151389834197,824.222409092361,1273.98122037972
0.87,4.13493179695901,0.143709810155402,11.5125287452681,-6.94850617818608,3.2879417135254,2.51152399222011,4.49337740867612,12.6739739498751,-0.883743198747942,845.158465897702,1273.98122037972
0.88,3.99553602576488,0.108896179264567,10.679682503659,-5.21568720103229,3.18979590866919,2.4086030333122,5.08914993967817,10.7405569804106,-0.896793852323516,865.341841672682,1273.98122037972
0.89,3.81746792431897,0.143201313098833,12.0528073037202,-6.94068459091941,2.74659696739272,2.65514087535605,3.33787107012419,13.501921463646,-0.764832871308787,884.757920800524,1273.98122037972
0.9,3.6772679820627,0.109613168115644,11.8288476289568,-5.2623162040579,1.83857890292447,3.18652514131756,0.969370762427152,12.9102257294564,-0.493525686586756,903.382922422927,1273.98122037972
0.91,3.50990591049345,0.126116105230683,13.2166452352357,-6.08899801693814,0.434729658740815,3.48516210474154,-4.90140226878464,13.7015277952463,-0.0881802868621888,921.309115894542,1273.98122037972
0.92,3.35793099268804,0.11203775775214,14.0810675371583,-5.38676120060827,-1.34809078525912,3.07748342733417,-10.9361701693109,10.377564321471,0.446224504821261,938.598792379718,1273.98122037972
0.93,3.1979418568771,0.0848295325589554,15.5860749014663,-4.07579853973419,-2.81889502873967,1.51256701884825,-15.7556221957043,3.3612845456531,1.10483360687406,955.290971363524,1273.98122037972
0.94,3.11933703049646,0.127185164790265,13.1986670423947,-6.18712290278355,-3.00771622419657,-0.836709442204344,-10.6614658835183,-9.94074678908585,1.88287419613598,971.252125198202,1273.98122037972
0.95,2.96969104022382,0.0954154330052627,14.6257741159667,-4.57919077648745,-1.15186606828127,-2.73886354898952,-0.958244789717725,-15.2958825695586,2.77560444754338,986.505496117042,1273.98122037972
0.96,2.85292069285476,0.125019278075347,14.6696289897253,-6.10373348943605,1.59608672218368,-2.36797243963656,13.6309858975801,-8.16393291656821,-2.50471552454288,1001.3066031807,1273.98122037972
0.97,2.79447530448691,0.133782000383103,11.9225238452185,-6.5236291107392,-2.43954119107655,-1.36953591703705,-6.64346613754736,-11.856165876604,2.13017999296431,1015.47478375348,1273.98122037972
0.98,2.6409362372261,0.0683100509623932,14.1928013743704,-3.23403594233228,0.456250364567478,-2.60212337851004,5.98172671590872,-13.2707778530428,-2.94215924693484,1029.09113466183,1273.98122037972
