t,iq,id,vq,vd,ia,ib,va,vb,theta_e,omega,r
0,0,0,0,0,0,0,0,0,0,0,0
0.01,0.000989000488911733,0.000561818232655695,-0.0473832158211151,-0.0281373630702254,0.000944418513848594,-0.000633904854305461,-0.0451563963506162,0.0315876591523037,-1.64533086480339,-0.00361752788914951,0
0.02,0.00109514365984832,0.000622959676429979,-0.0528647877230257,-0.0311994806045336,0.00104569549263639,-0.00070280817499774,-0.0503938010636226,0.0350507943612305,-1.64535727921108,-0.00378363560019255,0
0.03,0.00112850834728783,0.000642180728337296,-0.0545405807578691,-0.0321621364857326,0.00107751659426741,-0.000724489590556341,-0.0519922766784697,0.0361369774403172,-1.64538360667078,-0.00366920720509722,0
0.04,0.00110830452840209,0.00063142599559571,-0.053700180368561,-0.0316234935349128,0.00105815347594596,-0.000712284309060716,-0.0511935085758234,0.0355384213867999,-1.64540732746138,-0.00337179748037297,0
0.05,0.00112694601060258,0.000642290028128921,-0.0546733091496466,-0.0321675936916323,0.0010759165399513,-0.000724532532124092,-0.0521225369098738,0.0361547502184929,-1.64543042005877,-0.00323036095495584,0
0.06,0.0011264140387501,0.000642439838684861,-0.054743696366209,-0.0321751079608571,0.00107535916831124,-0.000724665572627607,-0.0521913837759638,0.0361686234695012,-1.64545209952451,-0.0030278701795238,0
0.07,0.00115756834908683,0.000660532987701929,-0.0562883942407304,-0.0330812746212094,0.00110506226014028,-0.000745054167066865,-0.0536634457042786,0.037188555388825,-1.64547214690201,-0.00296295903022853,0
0.08,0.0011254069502519,0.000642690712606268,-0.0548685145917837,-0.0321876640719189,0.00107430779194239,-0.000724882696660296,-0.0523135007682199,0.0361925026668361,-1.64549125357457,-0.00266198313047534,0
0.09,0.0011242511784056,0.000642431407362071,-0.0548919560934757,-0.0321746878010389,0.00107316181501785,-0.000724556791493389,-0.0523372071421376,0.0361822349699873,-1.64550889021039,-0.00249445819870586,0
0.1,0.00112361346521463,0.000642423597524899,-0.0549344478746339,-0.0321742945946574,0.00107251453830883,-0.000724519056329547,-0.0523790141198288,0.0361858767447943,-1.6455253502783,-0.00233981351035462,0
0.11,0.00112302480541489,0.000642419652957968,-0.054974416701042,-0.0321741058006533,0.00107191668444298,-0.000724487643577556,-0.0524183294548622,0.0361894779300968,-1.64554071505526,-0.00219548526913268,0
0.12,0.00112247561039977,0.00064241601783287,-0.0550117359486781,-0.0321739200030059,0.00107135890389574,-0.000724458373513545,-0.0524550392921359,0.0361928317945333,-1.64555505746782,-0.00206076094596494,0
0.13,0.00117578417121047,0.000672917189817548,-0.0575668730511482,-0.0337014942122841,0.00112222965299686,-0.000758871904576512,-0.0548884064879042,0.0379077619788642,-1.64556930022524,-0.00213515715498854,0
0.14,0.00125380047253245,0.000718359933605609,-0.0617103554699598,-0.0359773960042242,0.00119662261475845,-0.000810031441970684,-0.0588497628231644,0.0404876081181744,-1.64558241464113,-0.00231549921445991,0
0.15,0.00112297557792874,0.000643491034231346,-0.055209750801891,-0.0322277590019275,0.00107174833225183,-0.000725610344521036,-0.0526470380224541,0.0362634033338778,-1.64559481919713,-0.00169508097300268,0
0.16,0.00112057178541054,0.000642418712932739,-0.0551445767108618,-0.0321740586186791,0.00106942360356671,-0.000724372890933057,-0.0525856697357687,0.0362055482910973,-1.64560557433005,-0.0015863533900969,0
0.17,0.00112015736663994,0.000642400888526614,-0.0551692211325823,-0.0321731582662978,0.00106900441329467,-0.000724334861769074,-0.0526099494797014,0.0362070198849239,-1.64561560122968,-0.00149204880550362,0
0.18,0.00111979828856742,0.000642398295826749,-0.0551935179738187,-0.032173041173736,0.00106863975440252,-0.000724315437409804,-0.0526338482007097,0.0362092119256663,-1.64562496075201,-0.0014041290404306,0
0.19,0.00111946384814875,0.000642396076006027,-0.0552162293106885,-0.032172909011034,0.00106830008785875,-0.000724297554918507,-0.0526561894972854,0.0362112380504835,-1.64563369749343,-0.00132206108650536,0
0.2,0.0011191515690428,0.00064239400648695,-0.0552374202811662,-0.0321728035247646,0.00106798293079076,-0.000724280852709009,-0.0526770337099189,0.0362131468597437,-1.64564185289682,-0.00124545391490349,0
0.21,0.00111885982143357,0.000642392074477287,-0.0552571841809733,-0.0321727217823541,0.00106768663081426,-0.000724265238534953,-0.0526964726970116,0.0362149443709069,-1.64564946564338,-0.0011739441431926,0
0.22,0.0011185879384371,0.00064239027081721,-0.0552756510578181,-0.0321726162455837,0.0010674104973828,-0.000724250692878218,-0.0527146383945288,0.0362165947444722,-1.64565657184179,-0.00110719259300268,0
0.23,0.00111833379297593,0.000642388586992067,-0.0552928668720264,-0.0321725373504412,0.00106715238554721,-0.000724237084959404,-0.0527315716459356,0.036218153435021,-1.64566320519721,-0.00104488265503478,0
0.24,0.00111809664414466,0.000642387015051461,-0.0553089368589135,-0.0321724555113919,0.00106691153423859,-0.000724224385714073,-0.052747378468783,0.0362196004225162,-1.64566939717218,-0.000986718786956925,0
0.25,0.00111787502096533,0.000642385547570719,-0.0553239202625048,-0.0321724032025647,0.001066686455844,-0.000724212509657865,-0.0527621144515027,0.0362209740295165,-1.64567517713624,-0.000932425111625465,0
0.26,0.00112822588310447,0.000648313419589314,-0.0558313234742355,-0.0324692759128001,0.00107656095372136,-0.000730903855680767,-0.0532456919678771,0.0365552574337565,-1.64568051632857,-0.000923075290125951,0
0.27,0.00108632584172316,0.000624573311822102,-0.053895389499563,-0.031280295816891,0.00103655069972203,-0.000704101060318568,-0.051403949202355,0.0352250468005866,-1.64568582188265,-0.000712048454514736,0
0.28,0.0010741731000356,0.000617391109258623,-0.0529458325364673,-0.0309205993477436,0.00102496606625142,-0.000696034621024541,-0.0504837999192604,0.0347955542090567,-1.6456905970833,-0.000620920883424138,0
0.29,0.00111646908316605,0.000642023554880264,-0.0553437256409766,-0.0321542568322262,0.00106529741254123,-0.000723767145924502,-0.0527825152419325,0.0362053902753667,-1.64569469387592,-0.000746549115527602,0
0.3,0.00111328272217984,0.000640359892062359,-0.0552076719141803,-0.0320709473378332,0.0010622423499035,-0.000721872842637655,-0.0526529706093221,0.0361122885918866,-1.64569763623257,-0.000707029074368763,0
0.31,0.00111680949964001,0.000642350000500398,-0.0553895606235668,-0.0321706126872459,0.00106560750894099,-0.000724125416290308,-0.0528267507948818,0.0362254902961992,-1.6457015135878,-0.000684814887105229,0
0.32,0.00111672618040121,0.000642377521749251,-0.0554016132091225,-0.0321719830036934,0.00106551972600201,-0.000724150506416166,-0.0528385350728871,0.0362279511967546,-1.64570515617886,-0.000650815559073555,0
0.33,0.00111659668418519,0.000642377064324173,-0.0554104419862838,-0.0321719774208109,0.00106538816467621,-0.000724143981864761,-0.0528472163106204,0.0362287860754261,-1.64570855674898,-0.000618875852435076,0
0.34,0.00111647529458856,0.000642376263730549,-0.0554186557070775,-0.0321719248178988,0.00106526487682157,-0.000724137479931365,-0.0528552959288515,0.0362295161317628,-1.64571173105219,-0.000589058300068997,0
0.35,0.00111636163081867,0.000642375511035061,-0.0554263007912692,-0.032171898805291,0.00106514944253772,-0.000724131378275553,-0.0528628141636391,0.0362302190283566,-1.6457146941386,-0.000561224744727246,0
0.36,0.00111625595728893,0.000642374808315921,-0.0554334539500336,-0.0321718461487941,0.00106504211515423,-0.000724125713871381,-0.0528698509869845,0.0362308481554907,-1.64571746006254,-0.000535243218902429,0
0.37,0.00111615684542801,0.000642374152327383,-0.055440103023394,-0.0321718171709418,0.00106494146084197,-0.000724120390649161,-0.0528763900317737,0.0362314534697795,-1.64572004194316,-0.000510990490238838,0
0.38,0.00111606460207623,0.000642373539964336,-0.0554463187858714,-0.0321717910758652,0.00106484777693821,-0.000724115441627666,-0.0528825029874024,0.0362320201716792,-1.64572245202644,-0.000488351525498612,0
0.39,0.00111597841232091,0.000642372968326993,-0.0554521121104689,-0.0321717649565715,0.00106476024274962,-0.000724110815181837,-0.0528882005002935,0.0362325467746009,-1.64572470174383,-0.000467218945679669,0
0.4,0.00111589792691609,0.000642372434708204,-0.0554575138397282,-0.0321717388142124,0.00106467850248063,-0.000724106493911067,-0.0528935129401964,0.0362330361474003,-1.64572680176597,-0.000447492516719554,0
0.41,0.00111582302944645,0.00064237193658044,-0.0554625631661218,-0.0321717126489019,0.00106460243301449,-0.000724102477256346,-0.0528984790290955,0.0362334917462823,-1.64572876205341,-0.000429078674074921,0
0.42,0.00111575290500473,0.000642371471584113,-0.0554672613840209,-0.0321716864641715,0.00106453121517037,-0.000724098711820096,-0.0529030997209062,0.0362339141594185,-1.6457305919042,-0.000411890078943057,0
0.43,0.00111568755359094,0.000642371037516778,-0.0554716477408443,-0.0321716602598662,0.00106446484282503,-0.00072409520469866,-0.0529074138387429,0.0362343067804059,-1.64573229999747,-0.000395845203994621,0
0.44,0.001115626202711,0.000642370632321653,-0.055475720158189,-0.0321716577258966,0.00106440253993695,-0.000724091904678163,-0.0529114172431435,0.0362346935025525,-1.64573389443465,-0.000380867946687573,0
0.45,0.00111556923320006,0.000642370254079027,-0.0554795319769711,-0.0321716314853892,0.00106434468093711,-0.000724088846447035,-0.0529151663984553,0.036235031472861,-1.64573538277881,-0.000366887268296004,0
0.46,0.0011155162218098,0.000642369900996857,-0.0554830939959219,-0.0321716052282763,0.00106429083878538,-0.000724086004080334,-0.0529186700439409,0.0362353454944875,-1.64573677208899,-0.0003538368569822,0
0.47,0.0011154663960523,0.000642369571401574,-0.0554863973042267,-0.0321716055513661,0.00106424023851357,-0.000724083325117444,-0.0529219170638328,0.0362356617690913,-1.64573806895511,-0.000341654813258227,0
0.48,0.00111542013675043,0.000642369263731567,-0.055489488750108,-0.0321715792647929,0.00106419325553708,-0.00072408084308644,-0.0529249579345101,0.0362359310873827,-1.64573927952795,-0.000330283356399045,0
0.49,0.00111537690424666,0.000642368976528615,-0.0554923673188055,-0.0321715529655836,0.00106414934766297,-0.000724078522262445,-0.0529277894447881,0.0362361801981219,-1.64574040954962,-0.000319668550374362,0
0.5,0.00111533639171486,0.000642368708431371,-0.0554950418896348,-0.0321715532451322,0.00106410820514576,-0.000724076344038924,-0.0529304182639094,0.0362364365652075,-1.64574146438026,-0.000309760048034381,0
0.51,4.63351400632407,0.0382189478530031,8.32582950965428,-1.90350139811308,-0.977046197982802,4.52949152353591,-3.67996595175208,7.70717880877263,0.220700678425224,67.8789199269635,4360.09492708405
0.52,4.57986909577054,0.0506888694163973,11.0097899604983,-2.51466189716133,-3.82642568968974,2.51718826017427,-10.6230751734598,3.83265877562106,0.999994455857338,145.097070544515,4360.09492708405
0.53,4.52256956309161,0.0169112232003672,13.8765934505764,-0.814099632133519,-3.18881885372956,-3.207079007535,-9.16787730754131,-10.4485707002197,2.3627887392844,228.390543773394,4360.09492708405
0.54,4.5926019878529,0.0305630282848313,10.3768872357763,-1.48500150496505,4.27112588184679,-1.68831597130006,10.2121730778216,-2.36570057327253,-1.94057751614286,309.576294514829,4360.09492708405
0.55,4.5089015919212,0.0960069512047606,14.5639434556759,-4.75056551282744,-2.51440019647516,3.74395546878897,-12.2617687556966,9.18288346074443,0.6126923397279,389.136793426407,4360.09492708405
0.56,4.53609200807299,0.0448175962144943,13.2065999855204,-2.1689556429282,2.60279645406597,-3.71531828264224,9.44806260863227,-9.4790698226093,-2.5206122983365,468.298483379009,4360.09492708405
0.57,4.5875715555853,0.0260693875219001,10.6348878238012,-1.22306116015603,-4.2863698152955,1.63509210661196,-10.3872744959069,2.58867652923238,1.21205396377652,549.163184291523,4360.09492708405
0.58,4.57451249733962,0.0431123488698968,11.2901809629161,-2.06795641373253,3.16207477951119,3.30595014356247,6.21878634138341,9.64734815090208,-0.753733546133263,629.162499238061,4360.09492708405
0.59,4.4903493902454,0.0745144642479179,15.5007111861126,-3.62794637940519,3.75499675331763,-2.46349130999755,15.0392627754604,-5.22059550030137,-2.13482482045503,708.541453029338,4360.09492708405
0.6,4.46873773785434,0.091481059923368,16.5838202639435,-4.45698271350839,0.835232440045326,-4.39094209995351,7.79226579683143,-15.3025613283145,-2.93315265949518,787.368547761955,4360.09492708405
0.61,4.47689267326057,0.0713587852124022,16.1786767540223,-3.45235992956946,-0.111443519555367,-4.47607422034871,3.30735223568596,-16.2089417231213,3.13263819927792,867.278398577558,4360.09492708405
0.62,4.43501887996689,0.0763051472550914,18.2750542090897,-3.6882674501451,1.47435694800532,-4.18347780333885,9.82694087604342,-15.8433631577299,-2.78555677410273,946.48958025547,4360.09492708405
0.63,4.44968340054328,0.0252977183678695,17.5445066264845,-1.13200436428484,4.28030445659953,-1.21627139177045,17.2066062632547,-3.60885682021924,-1.84196888494011,1025.62524451221,4360.09492708405
0.64,4.36579871554832,0.105836323475672,21.741547585307,-5.12883462725973,1.46545769290276,4.11385871200778,1.92556130415778,22.2551578224437,-0.317971928492766,1103.96612436669,4360.09492708405
0.65,4.3617501843355,0.105910854865038,21.9468975140027,-5.13357984088273,-4.28587206698685,-0.816934761869563,-20.3693042022407,-9.6494247905995,1.78342497177881,1183.0253940419,4360.09492708405
0.66,4.41154567348984,0.0899610225101937,19.4600474186271,-4.32627848369681,4.2514351915009,-1.18115495483266,19.9250420401821,-0.634689491554059,-1.82139765860059,1261.86450519462,4360.09492708405
0.67,4.35792987175208,0.156656848301994,22.1438973734854,-7.65111663894962,-4.29523156218593,0.753047118333815,-22.9841855099682,-4.54081415096831,1.43317064317703,1340.19595492557,4360.09492708405
0.68,4.38358352356877,0.0962686955736127,20.8643328585349,-4.59866169526302,3.78738698180727,2.20924693501832,15.3833991499969,14.8262977715643,-1.02077646255981,1418.36231268945,4360.09492708405
0.69,4.31382803270266,0.0737771213911312,24.3552811263981,-3.51568955645208,0.958260327784095,-4.20669615061121,9.22872065453506,-22.8116309562422,-2.9005195921793,1497.2643285192,4360.09492708405
0.7,4.39227897265722,0.123325486041667,20.4359337913077,-5.95003107091898,-3.90078823412064,-2.02266529650858,-14.9847412247517,-15.1158125846691,2.07722611510752,1575.18006462471,4360.09492708405
0.71,4.33264841313352,0.153897024671002,23.4208168068508,-7.5097039667046,-4.18678140099968,1.12533908946332,-24.5102264784213,-2.04428753948659,1.34372377050181,1653.4762485591,4360.09492708405
0.72,4.28862027748092,0.0590454012179635,25.625558888211,-2.6902502481443,-3.94656353005625,1.67940065114178,-24.7345586672016,7.21860944154574,1.1822397276471,1730.92233045108,4360.09492708405
0.73,4.24910168489948,0.161043296067376,27.604931937966,-7.80403471295339,-4.25154810924012,0.0716850517232683,-27.4347790623915,-8.38260835888687,1.59181941452196,1808.84142739888,4360.09492708405
0.74,4.31314271414684,0.165036533441128,24.4064082984201,-7.99600090148882,-2.46888511268908,-3.54048632680744,-6.4557025634102,-24.8582521682153,2.57090628642119,1886.58141300932,4360.09492708405
0.75,4.2661658536382,0.152255381006059,26.7588625708215,-7.33941476925973,3.45115342700663,-2.51254707718168,26.2864190177592,-8.8841381383975,-2.1644145576705,1964.02502062577,4360.09492708405
0.76,4.21124095871519,0.1946389488433,29.5087601891482,-9.43979504452522,-4.21486592225759,0.0856737425291978,-29.2547848374636,-10.1997167851374,1.59665859848761,2041.42488925271,4360.09492708405
0.77,4.20120084743921,0.175091156144932,30.0143782783424,-8.52686624597591,3.74235588711429,-1.91716402210795,30.8281322937772,-4.81628598502719,-2.00257359371291,2119.41427079543,4360.09492708405
0.78,4.31830148620485,0.118130246917926,24.1630774199975,-5.6012530764754,-4.05905378875881,1.47843323182302,-24.6939216191593,2.33207664932625,1.24884913074965,2196.3797799408,4360.09492708405
0.79,4.22825684288241,0.141169247542605,28.6690522877414,-6.80911660899891,4.01429480499797,1.33548564365178,24.5221809455774,16.3383374229006,-1.21625692802325,2274.00477979183,4360.09492708405
0.8,4.20280750640418,0.180264053337417,29.9453195112039,-8.67573720333113,-0.0682042218583922,-4.20611866795668,9.47063491451163,-29.7034956017871,-3.11494164101373,2350.76704846803,4360.09492708405
0.81,4.29554463369143,0.215244986516947,25.3123780867557,-10.4265827158484,-4.20324059619096,-0.911483732596586,-21.721094334592,-16.6620578694546,1.83440959326937,2427.7915127364,4360.09492708405
0.82,4.19667234321937,0.220234526188343,30.2599462173105,-10.6850024732033,-3.56321724834418,2.22801365435006,-31.6449334381464,5.33214878094822,1.06442491988737,2504.77006062886,4360.09492708405
0.83,4.21598484773258,0.127303461969003,29.2983502572311,-6.00984147829991,-3.10646082896113,2.85317989721471,-26.0962594629681,14.6115284768957,0.858058221037643,2581.5084468099,4360.09492708405
0.84,4.17045945841042,0.23822285169694,31.5786447130454,-11.5387399362034,-3.82538042449496,1.67807831438414,-33.6201209287148,0.201965261064705,1.21446404627481,2658.25034960039,4360.09492708405
0.85,4.13532267654073,0.201113325489342,33.33960848304,-9.77156745079735,-3.60505847715159,-2.03590117272888,-22.9868978758931,-26.0502504842302,2.13347640419073,2735.20899753625,4360.09492708405
0.86,4.16439882832753,0.163169958506998,31.8899371947687,-7.79960809771505,1.74880778096085,-3.7829239196666,21.4508580130577,-24.8528201874128,-2.66940343662,2811.61570363045,4360.09492708405
0.87,4.04145851441342,0.217460447803447,38.041178529327,-10.5831845628946,-3.32323699099763,2.31014542220801,-37.9222056552977,11.001880640587,1.01708896001984,2888.21416648064,4360.09492708405
0.88,4.20513413556195,0.251264238337121,29.8616250900766,-12.1520386133118,1.70730731128615,-3.85115418548315,24.5048813220192,-20.9499280875488,-2.6646239061164,2964.36623843016,4360.09492708405
0.89,4.14898682963466,0.291943022314657,32.6732873379444,-14.2234249990237,-1.72053429511814,3.78669832176824,-28.0749160321663,21.9464943432327,0.496725090728416,3040.81651960221,4360.09492708405
0.9,4.12233929620719,0.191559953143065,34.0100139787047,-9.20978604139175,3.53626822229252,-2.12724788134958,34.3016871559314,-8.05577234140289,-2.06592059822939,3117.11920772144,4360.09492708405
0.91,4.12154286730977,0.232230775043325,34.0541759527649,-11.2312963487185,-3.43931410729625,-2.28301669098196,-20.5398396291491,-29.3929227111467,2.21309776230825,3193.32758424644,4360.09492708405
0.92,4.14665914713412,0.27484060944329,32.8028172550185,-13.319140159314,-2.67996799799378,3.17617552613823,-32.3548968793026,14.3730637784464,0.767050470943189,3269.22357564876,4360.09492708405
0.93,4.06694759469509,0.300614597731095,36.7928559520877,-14.5781401264922,0.793110210460264,4.00017600468141,-9.99417056811452,38.2929885659784,-0.121948081350695,3345.20075977227,4360.09492708405
0.94,4.08476797775135,0.199160630274659,35.9063460433147,-9.59335164961241,1.97032080327817,3.58368948443968,7.12469837481172,36.476523342053,-0.453973109800546,3421.33012615316,4360.09492708405
0.95,4.06272107060685,0.221139159468112,37.0132255984534,-10.5807398217492,-3.97955070549524,0.847219692757125,-38.2047667997045,-4.72511567665318,1.4154122863094,3496.8477915566,4360.09492708405
0.96,4.02043762006646,0.203180342369543,39.1319554078318,-9.75309244882556,-3.38209266883007,-2.18326592237798,-26.067311523224,-30.7721955067732,2.19452162020386,3572.67994801331,4360.09492708405
0.97,4.02127276401591,0.283443365246325,39.0946928562803,-13.8129659812745,1.25310126954516,-3.83154172523054,27.5292991591966,-31.0053338400056,-2.75513916905907,3648.43910549281,4360.09492708405
0.98,3.93623933382424,0.20227403392179,43.3508781328995,-9.75382816133272,3.13233777963278,2.39235342544309,26.7457137728999,35.4838356646012,-0.867204526352114,3724.00950482393,4360.09492708405
