t,iq,id,vq,vd,ia,ib,va,vb,theta_e,omega,r
0,0,0,0,0,0,0,0,0,0,0,0
0.01,0.000428752279060145,0.000239649678143223,-0.0206074300978635,-0.0119887759059542,-0.000423112275751258,0.000249472417597638,0.0203255055820105,-0.0124607682667313,1.54773560878122,-0.00160191080493139,0
0.02,0.000531568266954134,0.000294182994650914,-0.0256474963235709,-0.0147168776912532,-0.0005246395275349,0.000306368769495779,0.0253011288509177,-0.0153046867173475,1.5477227720026,-0.00185641115557036,0
0.03,0.000570871791968557,0.000315491015013321,-0.0275953684676627,-0.0157828355657805,-0.000563436549714642,0.000328585510735314,0.0272236677952931,-0.0164156684644294,1.54770928139626,-0.00185242237388972,0
0.04,0.000561910608905027,0.000311033518833073,-0.0272413203065329,-0.0155598445196923,-0.000554576597187567,0.000323929282544138,0.0268746589357818,-0.0161849003891135,1.54769675124347,-0.00166919658605436,0
0.05,0.000574140892265095,0.000318818546156614,-0.0278907505270908,-0.0159492939526851,-0.000566619917920528,0.000332001352648013,0.0275147264575677,-0.0165895681233358,1.54768504949729,-0.00157941789083786,0
0.06,0.000575308220511269,0.000320355931093076,-0.0280090593083367,-0.016026201263728,-0.000567747778279284,0.000333571478746746,0.0276310450557492,-0.0166694894766037,1.54767417202336,-0.00145568342649037,0
0.07,0.000582658733363235,0.000325575488139778,-0.0284154401916238,-0.0162873178889987,-0.000574972320954653,0.000338965231517812,0.0280311139146205,-0.0169402071417859,1.54766435177594,-0.00136883727067057,0
0.08,0.000574565772238659,0.000321688851539411,-0.0280836787847372,-0.0160928936797886,-0.00056696832945121,0.000334897681736162,0.0277037836856874,-0.0167384172062331,1.5476551158391,-0.00122790842928222,0
0.09,0.000571688939128777,0.000320919257946412,-0.0279949068176462,-0.0160543953008409,-0.000564107289267732,0.000334066429678401,0.0276157870963874,-0.0166981052593209,1.54764677889966,-0.00111818173118582,0
0.1,0.000570039898044396,0.000320765979301975,-0.027960225882259,-0.0160467199587307,-0.000562459704768181,0.000333879288594114,0.0275811664859046,-0.0166898384682922,1.54763919146321,-0.00102214631786087,0
0.11,0.000568746589433132,0.000320734638162557,-0.0279386117027194,-0.0160451530008237,-0.000561165158957066,0.000333821891855188,0.0275594789230762,-0.0166879621339363,1.54763227258149,-0.000935403580337306,0
0.12,0.000567612093746304,0.000320727492754454,-0.0279210514029413,-0.016044802854633,-0.000560029026184146,0.000333792006205749,0.0275418261111528,-0.0166873791996453,1.54762596040047,-0.000856447077788459,0
0.13,0.000588454812650205,0.000333027578508959,-0.0289473998564873,-0.0166601214973474,-0.000580579095111861,0.000346575170630877,0.0285535390341841,-0.0173264830644036,1.54761994908904,-0.000867815304260188,0
0.14,0.000600294631990666,0.00034035830716804,-0.0296198026604124,-0.0170268519050231,-0.000592243852883489,0.000354181649971907,0.0292171626702539,-0.017708862214645,1.54761430975903,-0.000848025453901876,0
0.15,0.000572138046932517,0.000324604337283488,-0.0282337540810295,-0.0162387370561596,-0.000564458244193996,0.000337782194753423,0.0278496667088034,-0.0168889761352105,1.5476090840658,-0.00067519287690748,0
0.16,0.000565463980603603,0.000321489284092361,-0.0279415151242754,-0.0160829051840688,-0.000557856727446495,0.000334515686910163,0.0275610459182746,-0.0167265314542681,1.54760469707926,-0.00059707862790649,0
0.17,0.000563491810930387,0.000320872879013928,-0.0278702942578102,-0.0160520670905656,-0.000555898073444723,0.000333855893182582,0.027490493878819,-0.0166941578462516,1.54760077672507,-0.000543035228423527,0
0.18,0.000562583664037561,0.000320750484104248,-0.0278476137829839,-0.0160459519095742,-0.000554991821844698,0.000333714443470072,0.0274679019423888,-0.0166876160362683,1.54759721748689,-0.000497454493460407,0
0.19,0.000561948261435223,0.00032072579711124,-0.0278360896813049,-0.0160447071928126,-0.000554356080528255,0.000333676821856209,0.0274563556899106,-0.0166861933908802,1.54759397374751,-0.00045667237999882,0
0.2,0.000561410204594382,0.000320720468777858,-0.0278275529236367,-0.0160444432756845,-0.000553817304866322,0.000333660650581392,0.027447777981509,-0.0166858127048775,1.54759101485191,-0.000419635850943872,0
0.21,0.000560928318341448,0.00032071900649144,-0.0278201923744124,-0.0160443698656144,-0.000553334681547967,0.000333649501181151,0.0274403760720732,-0.0166856426054601,1.54758831520452,-0.000385879930300104,0
0.22,0.00056049061174215,0.000320718344123421,-0.0278135694241152,-0.0160443342110193,-0.000552896286357352,0.000333640043520869,0.0274337146323325,-0.0166855208446337,1.54758585196441,-0.000355087714637521,0
0.23,0.000560091460215184,0.000320717872436381,-0.0278075355356496,-0.0160443191190864,-0.000552496503433134,0.000333631550067222,0.0274276452178966,-0.0166854273652996,1.54758360440239,-0.000326993292414502,0
0.24,0.000559727619146037,0.000320717468163714,-0.027802046553871,-0.016044292058373,-0.000552132085581246,0.000333623833219297,0.0274221241251732,-0.0166853291457368,1.54758155362787,-0.000301359066979769,0
0.25,0.000559395464637866,0.000320717104353998,-0.0277970282975438,-0.0160442782784851,-0.000551799404748532,0.000333616791846264,0.0274170763191924,-0.0166852501857029,1.54757968240974,-0.000277969334209453,0
0.26,0.000563109281805384,0.000323025388199207,-0.0279831738208582,-0.0161597561877973,-0.000555458084501938,0.000336011578726182,0.0276004633627574,-0.0168050635017695,1.54757804326454,-0.00027329291562634,0
0.27,0.000553703641877101,0.0003176540626294,-0.0275456174469246,-0.0158910510128554,-0.000546179110735029,0.000330424281083611,0.0271692346921116,-0.0165263192838106,1.54757631603767,-0.000215776056993297,0
0.28,0.000553056862483019,0.000317463954664735,-0.0274489464992785,-0.0158815414497821,-0.000545536449676994,0.000330219983836162,0.027072787094955,-0.016514606312372,1.54757489295403,-0.000196431173408602,0
0.29,0.000557142122082381,0.000320073006543565,-0.0277243917856698,-0.0160120615270864,-0.000549559624147629,0.000332923854992417,0.0273451073604052,-0.0166515199810838,1.54757368174483,-0.000198270514263428,0
0.3,0.000549403212942849,0.00031605679883544,-0.0273601105527937,-0.0158111383504839,-0.00054191583617689,0.000328729397807275,0.0269855786900958,-0.0164422105618401,1.54757300007842,-0.000159670611904579,0
0.31,0.000556125639564352,0.000319794570971542,-0.0276857081365093,-0.0159981224077765,-0.000548549322098192,0.000332622813152295,0.0273067298544579,-0.0166367322587651,1.54757200104465,-0.000174425864269491,0
0.32,0.000557440478155035,0.000320533337491228,-0.0277540704454857,-0.0160350889794823,-0.000549846314192211,0.000333392468268585,0.027374198470301,-0.0166753039846795,1.5475709928962,-0.000167722773994186,0
0.33,0.000557597043838607,0.000320679241115411,-0.0277669350619086,-0.0160423838258059,-0.000549999135501085,0.000333542485941399,0.0273868745120338,-0.0166829213871204,1.54757005210431,-0.000157240242635152,0
0.34,0.000557513961639633,0.00032070795359334,-0.0277679480718077,-0.0160438156899978,-0.000549915121033576,0.000333569735707203,0.0273878395970552,-0.0166844000257487,1.54756918915568,-0.00014673013640391,0
0.35,0.00055738916475931,0.000320713509902035,-0.0277665456984017,-0.0160441013292536,-0.000549789965790412,0.0003335728255433,0.0273864178141932,-0.0166846746084912,1.54756840078238,-0.000136935556973851,0
0.36,0.000557264811669198,0.000320714498922161,-0.0277647675259147,-0.0160441452446272,-0.000549665383250289,0.000333571321608906,0.0273846270957862,-0.0166846969173405,1.54756768122309,-0.000127954225949564,0
0.37,0.000557148920228932,0.000320714594597016,-0.0277630282605583,-0.0160441558623482,-0.000549549301829481,0.000333569086335235,0.0273828770977966,-0.0166846851147646,1.547567024619,-0.000119749661604608,0
0.38,0.00055704278606988,0.000320714522397392,-0.027761421739602,-0.016044144439885,-0.000549442998133016,0.000333566878139428,0.0273812612793856,-0.0166846527851783,1.54756642549404,-0.000112261371893201,0
0.39,0.000556945753899319,0.000320714424979761,-0.0277599453241303,-0.0160441448174685,-0.000549345812054723,0.000333564827214316,0.0273797761324884,-0.0166846338364802,1.54756587882343,-0.000105428270990443,0
0.4,0.000556857220047237,0.000320714329849437,-0.0277585970459053,-0.016044145169026,-0.000549257137916565,0.000333562949587052,0.0273784198874791,-0.0166846165262079,1.54756538001622,-9.9193346144215e-05,0
0.41,0.000556776522634068,0.000320714241808534,-0.027757369767451,-0.0160441322224766,-0.000549176312507739,0.000333561237010103,0.0273771856471887,-0.0166845875351678,1.54756492488214,-9.35043002418275e-05,0
0.42,0.000556702773527832,0.00032071416122654,-0.0277562427802368,-0.016044132530452,-0.000549102446651427,0.000333559671342685,0.0273760520280782,-0.0166845730327782,1.54756450959748,-8.83133552717014e-05,0
0.43,0.000556635485471944,0.000320714087646472,-0.0277552133652022,-0.0160441328184527,-0.000549035052068903,0.000333558242742092,0.0273750165619521,-0.0166845597807343,1.54756413067304,-8.35769034880483e-05,0
0.44,0.000556574287625026,0.000320714020494767,-0.0277542827067844,-0.0160441198183094,-0.000548973756970009,0.000333556943782402,0.0273740806880359,-0.0166845346293291,1.54756378492543,-7.92551524271378e-05,0
0.45,0.000556518233645863,0.000320713959217279,-0.0277534215131212,-0.0160441186177064,-0.000548917614312622,0.000333555753532259,0.0273732144911112,-0.0166845220587116,1.54756346944993,-7.53117930570241e-05,0
0.46,0.00055646712731968,0.00032071390330155,-0.0277526363997709,-0.0160441188568792,-0.000548866427062405,0.000333554668385982,0.0273724247813776,-0.0166845119383032,1.5475631815957,-7.17136952571248e-05,0
0.47,0.000556420444775718,0.000320713852278957,-0.0277519161885634,-0.0160441190822742,-0.000548819670694184,0.000333553677040359,0.0273717003771051,-0.0166845026215714,1.54756291894487,-6.84306295930808e-05,0
0.48,0.000556377953183333,0.000320713805721614,-0.0277512629104565,-0.0160441192946142,-0.000548777111713793,0.000333552774876755,0.0273710432718627,-0.0166844942169342,1.54756267929047,-6.54350133681478e-05,0
0.49,0.000556339223493353,0.000320713763238971,-0.027750667596425,-0.0160441062315342,-0.000548738320525181,0.000333551952648,0.0273704447735576,-0.0166844733124441,1.54756246061898,-6.27016788925274e-05,0
0.5,0.000556303833235587,0.000320713724474283,-0.0277501205251475,-0.0160441064225978,-0.000548702874167635,0.000333551201195485,0.027369894516516,-0.0166844662550123,1.54756226109344,-6.02076620369183e-05,0
0.51,4.70964068634244,0.0223597832750235,4.51863867684076,-1.11227910044753,-0.38127693281905,4.69423510860505,-1.49537637608076,4.40671190151945,0.0857920970272667,26.6508184712992,2374.9228957091
0.52,4.73527045973546,-0.0114571015661492,3.23787709539091,0.587527821627256,-1.82179698518784,4.3708092313415,-0.695616489723328,3.21638845994512,0.392493722111211,57.079842237457,2374.9228957091
0.53,4.70384255179333,-0.0165817261881012,4.81009213916458,0.852500371533866,-3.76584510239801,2.81865577367119,-3.32746072934533,3.57655537708881,0.924744273190711,88.3869822996351,2374.9228957091
0.54,4.70902391845431,0.0183567695173514,4.55186900298343,-0.89221038300868,-4.67474768142204,-0.567430480853122,-4.40556882868333,-1.45138350672854,1.69548565672301,122.351881477336,2374.9228957091
0.55,4.73121607979952,0.0232398711661945,3.44318104966426,-1.1275437236005,-1.98869390349065,-4.29302250676426,-0.406490380962451,-3.60022445961123,2.71269616490041,154.482653414866,2374.9228957091
0.56,4.7013934484778,0.0160444971300162,4.93525373076365,-0.755152689619202,3.41008300100471,-3.23646283920222,4.10923823460824,-2.83569146821183,-2.32666586815213,185.156949253015,2374.9228957091
0.57,4.69943671518554,0.0122801653044451,5.0341641000885,-0.566923788499791,3.52733581042458,3.10527910548958,3.39414014227435,3.7608540869314,-0.846332904964332,218.402508173213,2374.9228957091
0.58,4.6526095584911,0.0488032147447899,7.37664256837277,-2.37829633959312,-3.51318105817285,3.05069112006241,-7.16064216783395,2.96586459648607,0.866230875892002,249.157482398992,2374.9228957091
0.59,4.71108294731491,0.00856908510396613,4.45413273207601,-0.362763451417076,-1.52162897833631,-4.45858959963665,-1.08743169091506,-4.33455742080187,2.81452584321965,281.507506778025,2374.9228957091
0.6,4.66376136361861,0.0513044981190909,6.82147511351098,-2.50097191575487,4.49476271717807,1.24515473920914,5.85930689783939,4.29603374341682,-1.28954966618946,313.712518609699,2374.9228957091
0.61,4.63528260532001,0.0605677797957923,8.24673913655275,-2.95487847693401,-4.15148210937679,2.06269473811713,-8.71279930147411,0.909473216774933,1.12273187329562,345.036863621094,2374.9228957091
0.62,4.63674676771544,0.0308067301450801,8.17485780568614,-1.4464821604265,2.69382808419091,-3.77407735683387,5.96510314218122,-5.77392027021152,-2.51503993711019,376.409525773857,2374.9228957091
0.63,4.62512204110078,0.0336924250263697,8.75752159686818,-1.58346645477442,-1.60888253019926,4.3364024350376,-4.58654496870618,7.62660840629991,0.362559399341829,408.02445115303,2374.9228957091
0.64,4.63453575185821,0.0563003347162108,8.28827374994572,-2.70653477074476,1.44969143670016,-4.4023273505385,5.24809636882925,-6.96263575973718,-2.81132804666043,439.715172234696,2374.9228957091
0.65,4.58884806717285,0.0479328766985598,10.5741868745611,-2.28547156526743,-2.27739020512271,3.98413328063655,-7.31538733315426,7.97006377011579,0.529731749038657,471.498050373915,2374.9228957091
0.66,4.63271521651619,0.05533659801163,8.38236677815986,-2.66628681543577,3.76582125016297,-2.69883358661499,8.39833518935099,-2.61555428792322,-2.18067556551499,503.399628668744,2374.9228957091
0.67,4.61050076210825,0.0378099873607332,9.49469009599048,-1.77598065024278,-4.6060693497612,-0.20560159954498,-9.38771157505623,-2.27466891491745,1.62360447873857,534.803197193296,2374.9228957091
0.68,4.58481213147166,0.0933047187042224,10.7807771015662,-4.53121007278257,2.75761792392117,3.66398027247567,2.63126243954856,11.3944494211682,-0.624833548477047,565.933154933667,2374.9228957091
0.69,4.58311483707879,0.0624756306246733,10.8674008123736,-3.00675845878876,2.13824581533925,-4.05422614656088,7.84041724416372,-8.10363216611516,-2.64262616837507,597.806874213935,2374.9228957091
0.7,4.62737869212547,0.0666440089794769,8.65596327323088,-3.18600829811809,-4.46225573049341,-1.22692655849828,-7.42348860083119,-5.47431877556729,1.85352327927929,628.876955749607,2374.9228957091
0.71,4.56755451494521,0.0509576623355693,11.6490158889835,-2.41841740037818,-1.28469862991362,4.3834575805687,-5.71383989334738,10.4355329321235,0.296251046981572,660.59463706445,2374.9228957091
0.72,4.59224406694369,0.106657827118591,10.4163798851897,-5.16752021292086,3.99414738809735,2.26867099964281,6.27958150578648,9.7862705447844,-1.03101806852578,691.558177077779,2374.9228957091
0.73,4.56897016039753,0.0588232605773418,11.5820510761589,-2.78143248381276,3.84556799992088,-2.4679050347557,11.2991782529012,-3.76946211042461,-2.12847838594682,722.986740832597,2374.9228957091
0.74,4.55149038810465,0.0607671240826764,12.45804342112,-2.88670863311105,0.595949739698003,-4.51271551331703,4.65234641520772,-11.9118262851627,-2.99694206039959,754.430179058023,2374.9228957091
0.75,4.56023188292279,0.0904273453509337,12.0230829505956,-4.37021857124912,-2.24571935431297,-3.96996681503472,-1.86534389817621,-12.6559798569265,2.64661994915026,785.638630330241,2374.9228957091
0.76,4.52279070555924,0.0900291464709559,13.8972965560887,-4.34706189896659,-3.61526251595852,-2.71912080537305,-8.25648552057938,-11.9942588587117,2.23555757901345,816.760456137545,2374.9228957091
0.77,4.52286309758165,0.0602780985921174,13.8958769853997,-2.85279079616246,-4.03551680282668,-2.04316621515219,-10.9903109582054,-8.96921833617512,2.05279471171005,847.885084632651,2374.9228957091
0.78,4.53621016386437,0.0715989999043578,13.2307934953864,-3.41069576670801,-3.9564310871116,-2.22013110434286,-9.71888826311575,-9.60364269741799,2.09793836340652,878.97104653914,2374.9228957091
0.79,4.53533379498069,0.0933802707847482,13.2769027466421,-4.48447272799621,-3.22642343886465,-3.18875591728351,-6.03171151471139,-12.6493121708349,2.37090952828394,909.953055687873,2374.9228957091
0.8,4.53529158697537,0.139885115472723,13.2813497401409,-6.78527294310002,-1.34573278485621,-4.33329446220581,2.99281304629647,-14.6108606831433,2.87131326144728,940.805302350324,2374.9228957091
0.81,4.49124032869852,0.157781011896359,15.4863514287802,-7.66687283673101,1.84122996057188,-4.09951299182421,13.7162021889625,-10.5106525573718,-2.68434288002832,971.807550864981,2374.9228957091
0.82,4.51128452274413,0.135097618973494,14.4866128975814,-6.55985026843129,4.4330770946299,-0.847211239816109,15.3420750186001,4.18501169798308,-1.72969300921415,1002.90438584694,2374.9228957091
0.83,4.47307269484731,0.158524712840117,16.3996812648809,-7.69138030949724,2.46737389696958,3.73437752115701,1.98688524125037,18.0044206708549,-0.548448670209361,1033.60220584338,2374.9228957091
0.84,4.46464696693509,0.138050020968287,16.8235839251566,-6.69855186520097,2.9432195733587,3.35999834682255,5.51608226616084,17.2475044458762,-0.688461832893081,1064.6703470037,2374.9228957091
0.85,4.4633612662425,0.152671003776179,16.8904957358572,-7.38772161599007,-3.52859029399689,2.73750849596833,-18.0176785889848,3.90263182255457,0.945173724892764,1095.36422800551,2374.9228957091
0.86,4.49198641465946,0.174919933981544,15.4618909741247,-8.50097768838174,-1.64879963569611,-4.18210457713788,2.91683207823781,-17.4019764619266,2.80497274151691,1126.13346243701,2374.9228957091
0.87,4.48502319083972,0.100177768608049,15.8127427504706,-4.77988904557537,4.4318185391806,0.69602661117841,14.7157227763719,7.50584277410213,-1.39268430055794,1157.06373298175,2374.9228957091
0.88,4.42964741872365,0.107703690530422,18.5843046647608,-5.16807401432748,-3.45418754806641,2.77524138084275,-17.9042298427571,7.17801662215575,0.918269259146712,1187.85272432496,2374.9228957091
0.89,4.44554759793318,0.119258547434064,17.7920975855726,-5.744047991288,1.25455772637359,-4.26652094308957,10.9404755455173,-15.1610955626134,-2.828786144201,1218.55709001766,2374.9228957091
0.9,4.4119240470152,0.156261973608309,19.4760861816742,-7.59279263302972,0.453316075344502,4.39135470405901,-6.26263087604168,19.9436177118055,-0.0674615543368637,1249.25771698157,2374.9228957091
0.91,4.40394648499298,0.145795198434195,19.8778718379999,-7.06263862905305,-1.11570207538701,-4.26277019806905,2.49381909078265,-20.9473511345705,2.91869672677489,1279.90543735484,2374.9228957091
0.92,4.44102716456315,0.167550402137833,18.0267548172017,-8.13325019337921,0.845749839209639,4.36296947309069,-5.27636139610958,19.0597391998225,-0.15376259652708,1310.511101168,2374.9228957091
0.93,4.43808068817508,0.147625490200732,18.1770805442102,-7.10666503671656,0.471660008694895,-4.41541507859765,9.56798597581752,-17.0107198384241,-3.00192387899073,1340.98199227999,2374.9228957091
0.94,4.37910960517682,0.180502801229047,21.1286963398958,-8.72518233790023,-2.53202741981311,3.57743194774101,-19.8144703382845,11.3990078983382,0.657122751700682,1371.44641243393,2374.9228957091
0.95,4.36943108273041,0.1827004487114,21.6157886737615,-8.89294257634681,4.27302319460391,-0.930902905284446,22.8225053741664,5.04578993826189,-1.74351152251268,1402.09594848056,2374.9228957091
0.96,4.42515899865074,0.145397977205374,18.8325759443736,-6.97055004218668,-3.2132407593012,-3.04602307244717,-8.27559921795885,-18.2966921101861,2.36233091372051,1432.39658235174,2374.9228957091
0.97,4.32768669595666,0.124557039536948,23.7094380363384,-5.9792692363397,-1.60297642943959,4.02179725509872,-14.8967015100662,19.3901365833147,0.408048370215011,1462.93411293128,2374.9228957091
0.98,4.36843824775826,0.160381083747237,21.6751577098473,-7.70389649328353,1.01239988414117,-4.25253116285961,13.2140782911224,-18.8295145407965,-2.87117628806494,1493.15155630828,2374.9228957091
