t,iq,id,vq,vd,ia,ib,va,vb,theta_e,omega,r
0,0,0,0,0,0,0,0,0,0,0,0
0.01,0.000864197896020715,0.000494576154366968,-0.0424184874690204,-0.0247677208308795,0.000235229122970088,-0.000967528209233081,-0.011188965906018,0.04782860144589,-2.3832970753713,-0.00158177778540106,0
0.02,0.000956573394477852,0.000547645527813536,-0.0470766972072118,-0.0274253557905876,0.000260212916755799,-0.00107109174262081,-0.0124622556383918,0.0530382667946756,-2.38330883986289,-0.00170460973261317,0
0.03,0.000987409760346528,0.000565290762264454,-0.0485978127078607,-0.0283090263878327,0.000268594215792434,-0.00110561694450292,-0.0128660673273338,0.0547504583226828,-2.38332095949629,-0.00171036931107213,0
0.04,0.000969627789044462,0.000555311198576387,-0.0477530106547379,-0.0278092499444217,0.00026359918445526,-0.00108584715614405,-0.0126473622754501,0.0537935743052676,-2.38333234516039,-0.00162800086018345,0
0.05,0.000987249168380259,0.00056541870382225,-0.0486301739948398,-0.0283154321419635,0.000268365669821917,-0.00110559445474395,-0.0128824206673514,0.0547786523921859,-2.3833437737299,-0.00161192103148139,0
0.06,0.000987372445423079,0.000565591562804712,-0.0486557599018599,-0.0283240740029939,0.000268312631613309,-0.00110580581189166,-0.0128931305643686,0.0548033148997819,-2.38335490322803,-0.00156427284878633,0
0.07,0.00101508081316971,0.000581551118283971,-0.0500221987155938,-0.0291233102492507,0.000275766523718086,-0.00113690086851891,-0.0132518656304029,0.0563451472757877,-2.38336559518837,-0.00157030087740339,0
0.08,0.000987503558538142,0.000565866697771928,-0.0486994801484497,-0.0283378543378534,0.000268179545312234,-0.00110609589514152,-0.0129120248624007,0.0548448080419231,-2.3833761345983,-0.00147318166730901,0
0.09,0.000986835399153176,0.000565592444221331,-0.0486847935888646,-0.0283241175388842,0.000267908039045253,-0.00110542489595494,-0.0129113449388103,0.0548248295302223,-2.38338625463127,-0.00142839055891087,0
0.1,0.000986653823928063,0.000565585533550483,-0.0486932115932942,-0.028323788002892,0.000267777367937053,-0.00110529093240384,-0.0129168351499241,0.0548308416113758,-2.38339605652997,-0.00138588235412536,0
0.11,0.000986486721603166,0.000565583326882421,-0.0487017938055046,-0.0283236677825825,0.000267653574485784,-0.00110517062737467,-0.0129223029873301,0.0548371129987313,-2.38340555182222,-0.00134471947575663,0
0.12,0.000986324704251052,0.000565581266922619,-0.0487100993989036,-0.0283235740201776,0.000267533501432647,-0.00110505403366573,-0.012927577580873,0.0548431979977286,-2.38341475012565,-0.00130484434708818,0
0.13,0.00103337009972723,0.000592570296535257,-0.0510145337307644,-0.0296751367117263,0.000280274695769184,-0.00115777347277334,-0.0135302168433428,0.0574458842981729,-2.38342402050831,-0.00135329464599941,0
0.14,0.00109857868843517,0.000630327541401112,-0.0543586086583101,-0.0315659744299267,0.000297685277487852,-0.00123108546401121,-0.0144561028777718,0.061174260654015,-2.38343293598158,-0.0014373755931193,0
0.15,0.000987865636132142,0.000566698275919924,-0.0488323704633126,-0.0283795091424459,0.000267752223529053,-0.00110694814592944,-0.0129695586623429,0.0549707876270335,-2.38344164655711,-0.00119202870287623,0
0.16,0.000985745241449065,0.00056559291668304,-0.0487434488560644,-0.0283241534936595,0.000267087972175947,-0.00110465064321732,-0.0129481690377065,0.0548682640156141,-2.38344972250795,-0.00115330469569966,0
0.17,0.000985572280327572,0.000565572026719601,-0.0487487874369369,-0.028323099525875,0.000266975583240301,-0.00110451277725127,-0.0129521760855932,0.0548715170008272,-2.38345753938352,-0.00111935167113348,0
0.18,0.000985438281742599,0.00056556999943581,-0.0487555897335111,-0.0283230148337675,0.000266876559156277,-0.00110441610526039,-0.0129564990879691,0.0548764961611045,-2.38346511165119,-0.00108652430410782,0
0.19,0.000985309326314544,0.00056556835128818,-0.0487622202067957,-0.0283229183000899,0.000266780990260852,-0.00110432329131314,-0.0129607254740493,0.0548813394125538,-2.38347244707617,-0.00105472483126138,0
0.2,0.000985184175303141,0.000565566760078061,-0.0487686309763943,-0.0283228510914647,0.000266688250480532,-0.001104233216503,-0.0129647920307217,0.0548860403824246,-2.38347955306797,-0.00102391998345117,0
0.21,0.000985063136113189,0.000565565218647595,-0.0487748502410871,-0.0283227574959047,0.000266598548322973,-0.00110414610115923,-0.0129687582129521,0.0548905813289155,-2.38348643680287,-0.000994078631385316,0
0.22,0.00098494578492121,0.000565563725351682,-0.0487808691394789,-0.0283226873970246,0.000266511585790629,-0.00110406163836404,-0.0129725813301355,0.0548949901997036,-2.38349310523241,-0.000965170639084515,0
0.23,0.000984832159017525,0.00056556227868778,-0.0487867018212305,-0.0283226173058944,0.000266427382070107,-0.00110397985606301,-0.0129762878028936,0.0548992612018257,-2.3834995650906,-0.000937166813493391,0
0.24,0.00098472190915617,0.000565560877201997,-0.0487923422921062,-0.0283225472228006,0.000266345690793285,-0.00110390050148984,-0.0129798731569069,0.0549033900626221,-2.38350582290101,-0.000910038874644194,0
0.25,0.000984615268167787,0.000565559519485562,-0.0487978134354101,-0.0283224771463142,0.000266266665990144,-0.00110382374452281,-0.0129833527842583,0.0549073934753788,-2.38351188498361,-0.00088375942709109,0
0.26,0.000993935990808663,0.000570927047919829,-0.0492614152580342,-0.0285912708759865,0.000268770754806911,-0.00111428395359162,-0.0131065822025617,0.0554289212099245,-2.38351772827869,-0.000876122047464619,0
0.27,0.000957754938485724,0.000550243664793787,-0.0475118991444589,-0.0275554908602231,0.000258908609381867,-0.0010737918535859,-0.0126555789094669,0.0534464400996673,-2.38352353796421,-0.000783195765016037,0
0.28,0.000948553963981906,0.000544885370352408,-0.0469295000070523,-0.0272871470157011,0.000256467863272059,-0.00106342791223408,-0.0124497366314878,0.0528390993580984,-2.38352907853179,-0.000742084190434793,0
0.29,0.000983581075030145,0.000565195993552649,-0.0487869066172142,-0.0283042659986193,0.000265794889467049,-0.0011028287804635,-0.0129878480990383,0.0548872438072243,-2.38353429609678,-0.000785404691486926,0
0.3,0.00098049930612084,0.000563516052876184,-0.0486452362286872,-0.028220142496672,0.000264890926668061,-0.00109943714150539,-0.0129512805147512,0.0547265911902567,-2.38353896545251,-0.000759530925935452,0
0.31,0.000983985087160094,0.00056551699364794,-0.0488235825839101,-0.0283203550207005,0.000265828868021674,-0.00110334542858725,-0.0130008480593401,0.0549250641744218,-2.38354397899951,-0.00074450791295407,0
0.32,0.000983963664209691,0.000565550626780738,-0.0488310949488092,-0.0283220251108244,0.000265784344330942,-0.00110335428863336,-0.0130045326371204,0.0549317310046558,-2.38354884744455,-0.000723523023223155,0
0.33,0.000983881666008029,0.000565550172359938,-0.0488353924631799,-0.0283220076258058,0.000265723096817191,-0.00110329568384045,-0.0130072407911948,0.0549349011102131,-2.38355356382694,-0.000703079402857075,0
0.34,0.000983801297585113,0.00056554915914565,-0.0488395094860474,-0.0283219610412177,0.000265663538858652,-0.00110323783866472,-0.0130098540644072,0.0549379182466973,-2.38355813269662,-0.000683273146577231,0
0.35,0.000983723257467745,0.000565548167649761,-0.0488434875768535,-0.0283219144569234,0.000265605724001388,-0.00110318166073981,-0.013012379646573,0.054940832657587,-2.38356255866409,-0.000664086341638661,0
0.36,0.000983647778486566,0.000565547206960351,-0.0488473464687267,-0.0283218678720739,0.000265549800737359,-0.0011031273266267,-0.0130148308616532,0.0549436587282063,-2.38356684619859,-0.000645499649404199,0
0.37,0.000983574744226254,0.000565546276284738,-0.0488510879788877,-0.0283218212865721,0.000265495684784951,-0.00110307475243514,-0.0130172087233878,0.054946397832445,-2.38357099963036,-0.000627494300560749,0
0.38,0.000983503921856168,0.000565545374689709,-0.048854707990821,-0.0283217747007746,0.000265443212085326,-0.00110302376959756,-0.0130195101732017,0.0549490470337723,-2.38357502315319,-0.000610052112213714,0
0.39,0.000983435311376306,0.000565544501267248,-0.0488582137346058,-0.0283217281143173,0.000265392378776452,-0.00110297437860669,-0.0130217399606982,0.0549516116334516,-2.38357892083059,-0.000593155470168547,0
0.4,0.000983368912786667,0.000565543655137648,-0.0488616122819649,-0.0283216815270101,0.000265343181117872,-0.001102926579939,-0.0130239027332792,0.0549540968163842,-2.38358269659904,-0.000576787311159791,0
0.41,0.000983304609671931,0.000565542835448949,-0.0488649045889083,-0.028321634938931,0.000265295535455287,-0.00110288028951342,-0.0130259989404017,0.0549565033249191,-2.38358635427083,-0.000560931105613409,0
0.42,0.000983242131922967,0.000565542041375558,-0.0488680838137929,-0.0283216117919344,0.000265249252587987,-0.00110283531161872,-0.0130280066535593,0.0549588423527983,-2.38358989754042,-0.000545570840958975,0
0.43,0.000983181786927837,0.000565541272118007,-0.048871171626629,-0.0283215652005605,0.000265204540441563,-0.00110279186991229,-0.0130299746239326,0.0549610974496389,-2.3835933299854,-0.00053069100545714,0
0.44,0.000983123420992286,0.00056554052690107,-0.0488741665985497,-0.0283215186080972,0.000265161290065741,-0.00110274985319509,-0.0130318846554103,0.0549632837383254,-2.38359665507244,-0.000516276572533989,0
0.45,0.000983066531177654,0.000565539804974197,-0.0488770495889543,-0.0283214954529872,0.000265119152522046,-0.0011027088966259,-0.0130337063849047,0.054965403474247,-2.38359987615937,-0.00050231298560787,0
0.46,0.000983011774115744,0.000565539105609894,-0.0488798592316408,-0.0283214488571113,0.000265078576139018,-0.0011026694774484,-0.0130355002380302,0.0549674525279761,-2.38360299649874,-0.000488786143389866,0
0.47,0.000982958376760097,0.000565538428103731,-0.0488825624727398,-0.028321425695935,0.000265039026487399,-0.00110263103463647,-0.0130372092775946,0.0549694391603542,-2.3836060192423,-0.000475682385642188,0
0.48,0.000982906725629789,0.000565537771772978,-0.0488851841004045,-0.0283213996206096,0.000265000766393394,-0.00110259384924873,-0.0130388695129455,0.054971363297858,-2.38360894744205,-0.000462988479383577,0
0.49,0.000982856974424878,0.000565537135956126,-0.0488877371258617,-0.0283213530190802,0.000264963898717069,-0.00110255803325618,-0.0130405025175698,0.054973222319671,-2.38361178405532,-0.000450691605524767,0
0.5,0.000982808582927147,0.000565536520012692,-0.0488901995926819,-0.0283213298480861,0.000264928049368512,-0.00110252319467716,-0.0130420611184234,0.0549750305353228,-2.38361453194635,-0.000438779345926652,0
0.51,4.64537902814799,0.0596466395678731,7.73253173883841,-2.98228040586574,-0.414098896305513,4.62726983661505,-3.7548148237983,7.38832925297314,0.102092506368959,31.4414434370179,2421.26601539908
0.52,4.60452781434721,0.0455714971806163,9.77675758887092,-2.27153640396478,-2.01363936728975,4.14113627558347,-6.39504324751057,7.7361675556151,0.462486322707719,66.9019785746297,2421.26601539908
0.53,4.60585444918145,-0.0286706856789634,9.71205344176626,1.45323863426613,-4.08583256954069,2.126191296413,-7.90842348484516,5.82174566330385,1.08475210173386,103.060067915889,2421.26601539908
0.54,4.58165394604094,0.0335578092873241,10.9238152912881,-1.65649339994503,-4.219513822874,-1.78560412925485,-9.37193947349741,-5.85153496164402,1.97844670927996,141.308636824859,2421.26601539908
0.55,4.56372111540553,-0.0332346178876732,11.8222743868372,1.68892901142881,0.126734072986539,-4.56208213799014,-1.44634697982849,-11.8543972135766,-3.12110214309295,181.133441833384,2421.26601539908
0.56,4.60614574340168,0.0247921152159676,9.70284027647905,-1.20820690064757,4.58592154752801,-0.431875929350761,9.77165951439599,0.345750893492423,-1.65931134259245,217.263930484579,2421.26601539908
0.57,4.5481600710502,-0.0172640896561203,12.6039808782442,0.907362453227499,-0.31184438895132,4.53748952150488,0.0890076146511868,12.6362857772847,0.0648224737308115,253.772151157433,2421.26601539908
0.58,4.57310708050489,-0.00595780268297341,11.3584901161354,0.339296947112251,-4.01108391209018,-2.19648576488629,-10.1322292296475,-5.1447401270174,2.07049537983574,292.654660627411,2421.26601539908
0.59,4.60253514183847,0.0335306270884215,9.88910860331524,-1.62372592205834,4.28441453458302,-1.68173901978422,9.81367965225746,-2.03043013201528,-1.93755689176739,328.411706223576,2421.26601539908
0.6,4.54211068018294,-0.0258570428122645,12.9123796197747,1.34679586687846,-2.63423283610362,3.7003047689195,-6.32691184454072,11.3363835972335,0.612972763185863,366.791828891576,2421.26601539908
0.61,4.55816280311539,0.0303941739848854,12.1117933556488,-1.46058315875588,1.28022818917115,-4.3747900211517,4.87816386576934,-11.181786921252,-2.85023596037933,403.521579732648,2421.26601539908
0.62,4.5686596633749,0.0132539580901292,11.5890859236586,-0.592966040955414,-1.09912374881381,4.43449588701437,-3.39583498183126,11.0962527930757,0.24586237601052,440.260384640327,2421.26601539908
0.63,4.52109528683588,0.110871599019676,13.9694449948084,-5.4851120715873,1.95252162604042,-4.07924679370631,11.2262743487723,-9.96005081046017,-2.6706541670517,478.092487341151,2421.26601539908
0.64,4.52538248843872,0.0916370134655253,13.7572747914099,-4.52179531836994,-3.67345329428715,2.64447062823461,-13.8925313672552,4.08739706872552,0.96709460859781,515.389799996193,2421.26601539908
0.65,4.46996661288605,0.00262233788232891,16.5302521276395,-0.0604054138724811,4.40978700472016,0.731017763103728,16.2961984826879,2.77250775115181,-1.4059319245036,552.175460319664,2421.26601539908
0.66,4.55082734316647,0.0135436150986966,12.4893966463626,-0.582940719395594,-1.63759005433886,-4.24599949961749,-3.91500803234679,-11.8742393684464,2.77646923865211,588.954124622256,2421.26601539908
0.67,4.51249769599948,0.136998346622883,14.4081649985425,-6.7589188079556,-3.58319328538789,2.74629384497165,-15.6432638184758,2.92685824448776,0.947208362588743,625.882994055233,2421.26601539908
0.68,4.54448277736415,0.0610449556925206,12.8112805976502,-2.95150960769377,2.65759116096721,3.68690377166584,4.93374532144727,12.1859951017196,-0.611130428406998,662.924216702722,2421.26601539908
0.69,4.4793553765664,0.00762021276651736,16.0700222508255,-0.292456906244272,4.2383047721871,-1.44963971912782,15.3082143850165,-4.89793002465424,-1.89865477777659,700.127628900913,2421.26601539908
0.7,4.56331004831404,0.0986792956771929,11.8746802487117,-4.84573681713707,0.928019715480594,-4.4690396740372,7.38724685286554,-10.4841680759577,-2.91522606411755,737.221306018791,2421.26601539908
0.71,4.54043211607919,-0.00561116138080608,13.020963920775,0.38944582277361,-2.24966796717679,-3.94392562345109,-6.80356496710325,-11.1089456391417,2.62197634761578,773.947944618275,2421.26601539908
0.72,4.46446238544658,0.0710049044148198,16.8219264504376,-3.43049537658002,-3.78440235943893,-2.36954950768946,-12.2473744452067,-12.0310983385378,2.14611505338703,810.402343563537,2421.26601539908
0.73,4.44437787815081,0.0271594583471428,17.8287158676713,-1.24364623648172,-4.15526067276655,-1.57703554219099,-16.1812530887894,-7.58793871405235,1.93964125330985,847.458367148013,2421.26601539908
0.74,4.48095835565653,0.0598637938248692,16.0022030287226,-2.87789595231582,-4.09258230381895,-1.8257441073182,-13.3180700977257,-9.32640315217391,2.0037698739623,884.404700954622,2421.26601539908
0.75,4.41854351430236,0.0677820350814176,19.1254889998776,-3.24909180534144,-3.23083676017042,-3.01493200938176,-11.528225599341,-15.6025940655608,2.33697924070362,920.794027305361,2421.26601539908
0.76,4.4536071325031,0.0935373391088792,17.3749486711558,-4.55875850267175,-0.983042761957347,-4.34476612174388,0.988881519780816,-17.9358087007756,2.94007964446271,957.954931611401,2421.26601539908
0.77,4.50787974086454,0.0597485099558228,14.6639337152494,-2.83260994866444,2.75408348036095,-3.56925395926681,11.330680904539,-9.72986646187997,-2.47114851734042,994.3226097603,2421.26601539908
0.78,4.44370065701264,0.0571162272218091,17.8755285694816,-2.71347891805108,4.32862067243688,1.00637014398218,16.709306956721,6.90626892780283,-1.32950973777147,1031.18133105609,2421.26601539908
0.79,4.45905825930214,0.106437117630224,17.1103152574408,-5.19756620318682,-0.253237519083638,4.45313374813607,-6.55947943700948,16.6358291696258,0.0806714117929816,1068.14069719967,2421.26601539908
0.8,4.45695432515667,0.0890605011019696,17.2182603938486,-4.28634003964391,-4.3943723621038,-0.749576662235139,-16.1068643650441,-7.44379756924538,1.75972644768167,1104.43657211982,2421.26601539908
0.81,4.41596173123402,0.0898665962350844,19.270641952573,-4.3254692109817,2.29210245220174,-3.77558741991932,13.9844485798815,-13.9464161373476,-2.57563228788072,1140.95741228928,2421.26601539908
0.82,4.41233627739792,0.129683640380751,19.4547346933508,-6.32378013173756,1.67360088983308,4.08467738419744,0.9243785666498,20.4358122277717,-0.359480443096058,1177.63870888839,2421.26601539908
0.83,4.46047799471245,0.104065104102018,17.0505579425593,-5.04100388529086,-3.84913847139357,-2.25628600032082,-11.8545571886681,-13.2515176559022,2.12431794801157,1214.22971939036,2421.26601539908
0.84,4.39213585381374,0.121223823170099,20.4705856834243,-5.9009635362294,4.35346303313857,0.594064131854512,19.2396905416945,9.14880083607451,-1.40758294312428,1250.74720879178,2421.26601539908
0.85,4.45653335661504,0.102654407483453,17.2536260872911,-4.96086458979212,-4.45704124000686,-0.0775298063738219,-17.0390494492153,-5.65407680399738,1.61121999186007,1287.20805965478,2421.26601539908
0.86,4.37632077472954,0.16058118872179,21.2671988305176,-7.85275440285463,4.33120108506031,0.647044822460578,19.4601444011021,11.6302311970389,-1.3858247582514,1323.59560675377,2421.26601539908
0.87,4.35234716057116,0.156795435686336,22.4688162286876,-7.64863533361368,-3.68799739396994,-2.31650293262384,-14.2853611271492,-18.9546243078589,2.16764562148273,1359.99191891729,2421.26601539908
0.88,4.40691616462493,0.0767694344168739,19.7434094268046,-3.63077455965784,-3.86791252118867,-2.11330460571236,-15.3624033707443,-12.9221245301242,2.08826542756687,1396.49441789258,2421.26601539908
0.89,4.39383137043742,0.143399086935531,20.4006939629759,-7.00977403831998,0.61389082514723,4.35309722666218,-4.78097913842748,21.0349110936373,-0.107475158124578,1433.12085471801,2421.26601539908
0.9,4.34103426647584,0.132259205836344,23.0436105822541,-6.42262308351719,3.81940827945309,-2.06741176234708,23.4738234036022,-4.60843691027659,-2.03647088542187,1469.29060593371,2421.26601539908
0.91,4.34997572798955,0.0958428907588499,22.5996850229647,-4.57214258491236,-2.38391830343163,-3.63983628977608,-8.08379619117597,-21.5940382998066,2.58377347112964,1505.53424217185,2421.26601539908
0.92,4.33994829458771,0.155131128535452,23.1042040170786,-7.5778822825712,-3.96684609558447,1.76729989551342,-24.2615135231995,1.614776986121,1.18740589727125,1542.04665396415,2421.26601539908
0.93,4.36032815174486,0.0930617268047786,22.0884035525632,-4.42186939439179,-0.154229208522453,4.35859328535402,-5.66672113777841,21.8022652948862,0.0567099174556903,1578.06540162328,2421.26601539908
0.94,4.38429582042018,0.154812814963076,20.8931996149573,-7.54623486542768,3.2761398551853,2.91769163858985,9.8879943862471,19.8921848426007,-0.807909397536557,1614.55185066134,2421.26601539908
0.95,4.34633457520725,0.074428630767253,22.7945059539336,-3.52415584923755,4.30032308602398,0.635126142218278,21.9150377083789,7.19307294373966,-1.40704092369112,1650.73502169766,2421.26601539908
0.96,4.323415844329,0.121235685644896,23.9437245415983,-5.82849556303444,4.24079861596179,-0.849852783325069,24.5842162562587,1.6998872073617,-1.74054143664187,1686.77743136236,2421.26601539908
0.97,4.30004403563587,0.0839703480733414,25.1156326548164,-3.98927888892191,4.15895489072,-1.09568423586331,25.3480194879184,-2.0462789998886,-1.80886960435991,1723.12490275092,2421.26601539908
0.98,4.36773836591942,0.165299112133254,21.734254239121,-8.07374931791563,4.35716814646555,-0.345757101188743,22.0495040816764,7.16816609262295,-1.61215660101503,1759.35783029083,2421.26601539908
