t,iq,id,vq,vd,ia,ib,va,vb,theta_e,omega,r
0,0,0,0,0,0,0,0,0,0,0,0
0.01,0.000710055085579195,0.000392906938633608,-0.0349724538830466,-0.0196645191251912,2.37783910848176e-05,0.000811165011018553,-0.00144900674162425,-0.040095713268248,0.476103861882328,-0.00196246425369539,0
0.02,0.000800614124855401,0.000442614244444731,-0.0395356422954463,-0.0221522921414086,2.64657043100914e-05,0.000914434203646567,-0.00156935663799798,-0.0452915905944422,0.476089544783439,-0.00196419098771693,0
0.03,0.000833389375568412,0.00046237909895929,-0.0411986853111473,-0.0231415023611635,2.90243246337885e-05,0.00095262262782503,-0.00168701412791473,-0.0472230323701358,0.476076036569292,-0.00180488793688015,0
0.04,0.000810130436781836,0.000451998694812992,-0.0401088852506379,-0.0226219717887248,3.04682471744673e-05,0.000927192445303073,-0.00172522987313241,-0.0460162999984087,0.476064637437806,-0.00151487368969782,0
0.05,0.000826848835580267,0.00046304845958876,-0.0409714207819338,-0.0231750079789003,3.26372035799805e-05,0.000947115455354016,-0.00182196393323491,-0.0470363557595437,0.476054440721341,-0.00137011079623044,0
0.06,0.000825209619432627,0.00046384304655338,-0.0409296260741459,-0.0232147762991216,3.41031081090316e-05,0.000946022338984321,-0.00187688410759458,-0.0470174162968822,0.476045503891467,-0.00119345218754251,0
0.07,0.000842217917142864,0.000475088141531075,-0.0417949463365877,-0.023777589917016,3.63108530825513e-05,0.000966292545830885,-0.00198093538794256,-0.0480444296097771,0.476037945125313,-0.00110024236701181,0
0.08,0.000821612242131332,0.000464706986626671,-0.0408152807501296,-0.0232580188180226,3.65331072246556e-05,0.000943220330525285,-0.00196839393907514,-0.0469355729415547,0.476031133694701,-0.000906451090105489,0
0.09,0.000817944115100123,0.000463954914993039,-0.0406603357940034,-0.0232203669605123,3.75509749322761e-05,0.000939615167424812,-0.00200620068645361,-0.0467805890030004,0.476025401246127,-0.00078513916979563,0
0.1,0.000815964296567764,0.000463898646564751,-0.0405845895939339,-0.0232175607982301,3.84128345121301e-05,0.000937829484342797,-0.00203864733519291,-0.0467119680485662,0.476020474708902,-0.000684465614780004,0
0.11,0.000814357824363613,0.00046389290288129,-0.0405241792787706,-0.0232172699578926,3.91478612229434e-05,0.000936398812690157,-0.00206626955251916,-0.0466581317741284,0.476016232020986,-0.000598067444348785,0
0.12,0.000812982448146439,0.000463891039860689,-0.0404725515039731,-0.0232171786760559,3.97798779810048e-05,0.000935175341401293,-0.00209001677456814,-0.0466121941212778,0.47601257752165,-0.000523672382239537,0
0.13,0.00085025944846835,0.00048524016168231,-0.0423130303081188,-0.0242856754681245,4.16772906865868e-05,0.000978091073295428,-0.0021965214194975,-0.0487376841925479,0.476009045974119,-0.00056974745278554,0
0.14,0.000879390207557595,0.00050297539899336,-0.0438235345677423,-0.0251733128427155,4.40952931835428e-05,0.00101211016903289,-0.00229347007802501,-0.0504870068085694,0.476005956487683,-0.000599421120198464,0
0.15,0.000815232693880183,0.000466710180515492,-0.0406230130986408,-0.023358282752501,4.12632523598013e-05,0.000938466878356735,-0.0021469252928105,-0.0468105680177587,0.476003211637381,-0.000350657785886533,0
0.16,0.000809231294294929,0.000464090056748921,-0.0403372780970951,-0.0232271327380642,4.16861861307024e-05,0.000931931934384341,-0.00216137523234816,-0.0464964961757231,0.476001318864555,-0.000295964700920536,0
0.17,0.000808189470657881,0.000463900177234148,-0.0402930942589178,-0.0232176441450336,4.19962891566762e-05,0.000930918850715361,-0.00217326164823831,-0.0464528726604905,0.47599972797986,-0.000262225668883416,0
0.18,0.000807638336885009,0.000463885918723101,-0.0402719739697301,-0.0232169220626992,4.22374321492574e-05,0.000930422392315122,-0.00218236120583543,-0.046433766345746,0.475998360930488,-0.000234284009218759,0
0.19,0.000807192338323968,0.000463884420342993,-0.0402551840566512,-0.0232168533600274,4.24415633920863e-05,0.000930025236314964,-0.00219004836378636,-0.0464188088121632,0.475997183655228,-0.000210309440958125,0
0.2,0.000806810542868718,0.000463883908443775,-0.0402408348908668,-0.0232168295830089,4.26169993814653e-05,0.000929685604901414,-0.00219664943510004,-0.0464060416310178,0.475996169593639,-0.000189666027556849,0
0.21,0.000806482007428388,0.000463883523668979,-0.0402284883290175,-0.0232168100197405,4.27680120568173e-05,0.00092939337687654,-0.0022023300645834,-0.0463950566657403,0.47599529610054,-0.000171884804916558,0
0.22,0.000806199048588137,0.000463883196225239,-0.0402178519757881,-0.0232167917809853,4.28980784520355e-05,0.000929141690244111,-0.00220722257957184,-0.0463855926622939,0.475994543688612,-0.000156568420203502,0
0.23,0.00080595526350155,0.000463882914412852,-0.0402086845254557,-0.0232167719738111,4.30101378675211e-05,0.000928924847924003,-0.00221143576559283,-0.0463774337798699,0.47599389557406,-0.000143375153955375,0
0.24,0.000805745355273347,0.000463882671647894,-0.0402007890062957,-0.0232167520679566,4.31066251659292e-05,0.00092873813826426,-0.00221506186119709,-0.0463704055865888,0.475993337299345,-0.000132010701268973,0
0.25,0.000805564445863612,0.000463882462507563,-0.040193980023115,-0.0232167527375127,4.31897824131109e-05,0.000928577222505881,-0.00221820477548813,-0.0463643527437553,0.475992856411123,-0.000122221556836882,0
0.26,0.000813652340243497,0.000468456693099202,-0.0405915284229741,-0.0234456756660047,4.35498235021066e-05,0.000937862045807428,-0.0022395318325299,-0.0468226054841001,0.475992499742013,-0.000140084453306724,0
0.27,0.000790245409082928,0.000455153730693217,-0.0394477449995461,-0.0227798916056397,4.24516888453881e-05,0.000910961348935712,-0.00217188804363062,-0.0455008895455885,0.475991945304775,-5.79122721447703e-05,0
0.28,0.000789376214797836,0.000454582951623252,-0.0393393139179471,-0.0227513313031528,4.23429170796051e-05,0.000909927220039195,-0.00219620165048176,-0.0453914242331195,0.475991641753671,-4.94263149296673e-05,0
0.29,0.000803741140045146,0.000463210223059766,-0.0401103969565047,-0.0231830981226169,4.34289920929618e-05,0.000926648505957862,-0.0022266529439503,-0.0462746366732194,0.475991513422373,-9.08551345074651e-05,0
0.3,0.000796882604014833,0.000459708120001026,-0.039772872562813,-0.0230078331983603,4.34585442627532e-05,0.000918947656347684,-0.00222551307118119,-0.0458943228727839,0.475991906060458,-7.74396813449086e-05,0
0.31,0.000804426454882524,0.000463580474831705,-0.040143193695025,-0.0232016456487025,4.34439014738321e-05,0.000927427304636211,-0.00222810260363869,-0.0463122869186127,0.47599168575625,-9.62597309299889e-05,0
0.32,0.000804972915366286,0.000463860070443582,-0.0401709929803729,-0.023215624075874,4.34422466870297e-05,0.000928041125504687,-0.00222780041440511,-0.0463434006475037,0.475991439012321,-9.31897288167234e-05,0
0.33,0.00080494462778027,0.000463880178546717,-0.0401705219555658,-0.0232166355305533,4.34732831596374e-05,0.000928025186884587,-0.00222892533871884,-0.0463434449666354,0.475991221696856,-8.89296055622861e-05,0
0.34,0.000804878503973813,0.000463881556138924,-0.0401680702460219,-0.0232167085832951,4.35049809276839e-05,0.000927967036547891,-0.00223012238572678,-0.0463412988475256,0.475991034104963,-8.51246227615704e-05,0
0.35,0.000804818084429613,0.000463881591207736,-0.0401657860426553,-0.0232167146835022,4.35328474852447e-05,0.000927913342331168,-0.00223118196389278,-0.0463392709930088,0.475990872483009,-8.18357312287932e-05,0
0.36,0.000804765697534905,0.000463881538236818,-0.0401637986306285,-0.0232167149367617,4.35569342725738e-05,0.000927866748473386,-0.00223209931089881,-0.0463375043087434,0.475990733261956,-7.90017858920956e-05,0
0.37,0.000804720808026388,0.000463881486598879,-0.0401620954872257,-0.0232166959798695,4.3577568880472e-05,0.000927826820031786,-0.00223286843115058,-0.0463359815339645,0.47599061333904,-7.65605943693132e-05,0
0.38,0.000804681925308984,0.000463881441683729,-0.0401606146273204,-0.023216696189427,4.35954416049172e-05,0.000927792234462447,-0.00223355196215008,-0.0463346651528709,0.475990510039642,-7.44577872218972e-05,0
0.39,0.000804648455902096,0.000463881402962108,-0.0401593371813282,-0.0232166949257755,4.36108260609993e-05,0.000927762463915197,-0.00223414031186541,-0.0463335289308621,0.475990421059237,-7.26464646832145e-05,0
0.4,0.000804619584902346,0.00046388136960507,-0.040158231724298,-0.0232166951020068,4.36240967599471e-05,0.000927736783606739,-0.00223465056112935,-0.0463325462666537,0.475990344413092,-7.10862224951526e-05,0
0.41,0.000804594672023531,0.000463881340871513,-0.0401572742836761,-0.0232166952650478,4.36355480222272e-05,0.000927714624012258,-0.00223509248235284,-0.0463316951828855,0.475990278391548,-6.97422566531296e-05,0
0.42,0.000804573251604362,0.000463881316120349,-0.0401564484878916,-0.0232166954164618,4.3645394020694e-05,0.00092769557087632,-0.00223547364698666,-0.046330961125311,0.475990221521592,-6.85845875468546e-05,0
0.43,0.000804554857983554,0.000463881294799719,-0.0401557370070314,-0.0232166955577901,4.36538488172277e-05,0.000927679209993111,-0.00223580205609427,-0.0463303286883111,0.475990172534901,-6.75873912516463e-05,0
0.44,0.000804539025499821,0.000463881276434254,-0.0401551216887648,-0.0232166956905856,4.36611263785266e-05,0.000927665127199375,-0.00223608607945126,-0.0463297817356617,0.475990130338715,-6.67284234815972e-05,0
0.45,0.000804525288491876,0.000463881260614563,-0.0401545836906962,-0.0232166958163993,4.36674405893517e-05,0.000927652908368571,-0.00223633439601387,-0.0463293035181141,0.475990093991566,-6.59885233886205e-05,0
0.46,0.000804513530544397,0.000463881246987764,-0.0401541209814808,-0.0232166959356262,4.36728452319885e-05,0.000927642449829284,-0.00223654797449852,-0.0463288922285056,0.47599006268296,-6.53511861499361e-05,0
0.47,0.000804503402411421,0.000463881235249493,-0.0401537193864854,-0.0232166960494277,4.36775007154231e-05,0.000927633440988089,-0.00223673334340312,-0.0463285352668378,0.475990035714154,-6.48021947923445e-05,0
0.48,0.000804494671262303,0.000463881225138533,-0.0401533700720779,-0.0232166961585839,4.36815140529445e-05,0.000927625674750063,-0.00223689457902774,-0.0463282247804463,0.475990012483726,-6.43293030615416e-05,0
0.49,0.000804487104266401,0.000463881216428888,-0.0401530638454007,-0.0232166962638678,4.36849922118903e-05,0.000927618944040025,-0.00223703591841237,-0.0463279525975544,0.475989992473464,-6.39219622420008e-05,0
0.5,0.000804480585008393,0.000463881208926773,-0.040152796980395,-0.0232166963656613,4.36879887777634e-05,0.000927613145275208,-0.00223715908992488,-0.0463277154054729,0.475989975237111,-6.35710858523113e-05,0
0.51,4.64587886065067,0.00298432243393604,7.70710105556398,-0.136865649854395,-0.49953015608174,4.61894673244736,-0.96966064753853,7.6470842231141,0.10837172593462,33.3885233692741,2322.44183619929
0.52,4.66810082772043,0.0268848723877593,6.59726243070502,-1.31658267550022,-2.18341221398494,4.12608764302806,-4.2793490725337,5.190802735264,0.49247155771971,71.6437154880454,2322.44183619929
0.53,4.63181368734566,-0.0397411122068192,8.41306746879641,2.02447641916091,-4.27643607197397,1.77971118797458,-6.94540981382393,5.16134590240736,1.16785128837135,113.289277923567,2322.44183619929
0.54,4.619309391011,-0.010123459341054,9.03983823400256,0.564022055837426,-3.87812120485199,-2.50964094140751,-7.90547422173643,-4.42043815767921,2.14295838958844,151.999064759023,2322.44183619929
0.55,4.65017102920536,0.0704688411029466,7.49845750398152,-3.46601376489828,1.13292278280687,-4.51060333288401,5.28504976108716,-6.34888694026864,-2.88036138312301,192.396209900211,2322.44183619929
0.56,4.57023057851967,0.00136187318306735,11.4972396172923,0.00534904653643896,4.43882652515439,1.08803882059449,11.1671273810186,2.73529038418932,-1.33011921120364,231.371621877703,2322.44183619929
0.57,4.53518117380464,0.0116014389873302,13.2515999523983,-0.47782680567373,-2.2025552135825,3.96443607638453,-6.88245666374749,11.3342406020986,0.509674084591026,270.489451641258,2322.44183619929
0.58,4.52781740193247,0.0392910950342504,13.6218731646825,-1.87333801898045,-2.22341984133691,-3.94449976860702,-4.94579674464338,-12.829805860134,2.63698779703132,309.928172562684,2322.44183619929
0.59,4.52879428070564,0.0931823539306179,13.5752301262023,-4.5550917761104,4.30203242532005,1.41815993439775,11.2878325174608,8.81025374923405,-1.23179285743897,349.11860923885,2322.44183619929
0.6,4.50356355458321,0.107589350831044,14.8390942802901,-5.23896883519533,-4.4688583750547,0.568300081194693,-15.2976520914884,-3.69152461772456,1.46819159498817,387.558843914851,2322.44183619929
0.61,4.52325922413454,0.0811781636276334,13.8567754891655,-3.9350574244212,4.35118560172562,-1.23840533037606,14.4025129781572,0.250047604756602,-1.83013290213415,426.890176602025,2322.44183619929
0.62,4.47227320504032,0.114392390859014,16.4086071176527,-5.54382065239424,-4.41874654824988,0.699279759422415,-16.9934483558989,-3.34649786236166,1.43941750627037,465.213887638313,2322.44183619929
0.63,4.41390968560617,0.089188864827174,19.3294179134297,-4.27764744898812,4.26572982691451,1.13758622093846,17.3867451669261,9.4670880987885,-1.28997761348605,503.926618890759,2322.44183619929
0.64,4.48850083706081,0.0928924419494406,15.6026236045893,-4.44914820909503,-2.59180445716348,-3.665763007328,-5.05677934108851,-15.4164122229694,2.54685682325452,542.554763841023,2322.44183619929
0.65,4.40157072338569,0.161339716027031,19.9519939142039,-7.85684162434263,-1.49497467579244,4.14305515962231,-14.7427622156007,15.5712229358098,0.382936494192487,581.013523910868,2322.44183619929
0.66,4.38402373925072,0.109659940934546,20.8322729909088,-5.28718599330107,4.38060129205631,0.204992119346587,20.3995099804225,6.76741651253632,-1.49902668775554,619.653651831279,2322.44183619929
0.67,4.37091852160276,0.0745844117836232,21.4905952684473,-3.52824767070348,0.110959419883256,-4.37014640076398,4.43700694118767,-21.3215193178602,-3.09914565796985,658.067910984778,2322.44183619929
0.68,4.34208151999181,0.148616311722737,22.9355899469776,-7.1775282344908,-4.19940240677933,-1.11390222205562,-19.8783726500903,-13.5058690411596,1.86429164455708,696.160341722915,2322.44183619929
0.69,4.33167509982822,0.150236829560327,23.4591493020938,-7.26393270993216,-3.0795239441868,3.05000205780395,-22.1596292191546,10.5852367598435,0.824883879627132,734.332848065168,2322.44183619929
0.7,4.34013985003111,0.121232721870214,23.0392460646727,-5.82472711226219,-0.160934644701799,4.33884907905482,-7.30892794496382,22.6122506057267,0.0650002010231424,772.562517746427,2322.44183619929
0.71,4.31480444466774,0.124154457035471,24.3094298199453,-5.96628793148181,1.85665668005991,3.89689333922744,4.36268872391977,24.6477568340483,-0.415860818789249,810.613884862798,2322.44183619929
0.72,4.26947073099709,0.0934537022580095,26.5796236389298,-4.40396549086754,2.55077243288387,3.42500714056865,11.8169773223018,24.2121942788363,-0.618246994590465,848.487544071082,2322.44183619929
0.73,4.27256418806522,0.197693588583211,26.4285096505137,-9.57402582041072,2.37542530565685,3.55685846124771,5.44727392302893,27.576353993316,-0.542579489811423,886.282378489431,2322.44183619929
0.74,4.22371235950338,0.198697757519722,28.8747947342467,-9.69954609226287,0.990698444012827,4.11068649834739,-4.08722326985536,30.1849229133216,-0.189486855827731,924.304196819166,2322.44183619929
0.75,4.23992746492152,0.176328641007089,28.0678448722052,-8.48939129963552,0.328064924122025,4.23089235303807,-7.47871903671477,28.3538787818948,-0.0358218118987212,961.791654074263,2322.44183619929
0.76,4.22095297961072,0.145394104694486,29.0204267853261,-6.98873458959878,-3.13294680964283,2.83235375433814,-26.6900536029356,13.3666981950948,0.870178026624119,999.609912530465,2322.44183619929
0.77,4.20914204361033,0.167545938932945,29.6149380688675,-8.11185638400898,-3.80920270104998,-1.79858921581739,-22.5031904480786,-20.8914621430658,2.05171691542751,1037.20198658519,2322.44183619929
0.78,4.1937269095118,0.156742248416652,30.38971388606,-7.56508260085504,1.35814529577612,-3.9708128739042,17.9635172668853,-25.6530160456166,-2.77467576591436,1074.70207591262,2322.44183619929
0.79,4.1449959789663,0.18228111610402,32.830383740758,-8.83138222350701,3.67297811836693,1.92962426729472,23.917978143636,24.1610788265684,-1.04312173906785,1112.13463340889,2322.44183619929
0.8,4.13697745294703,0.180169769554051,33.2354747885048,-8.67331214936753,-3.29213285693254,2.51175334066832,-32.2312569233937,11.8730453210578,0.962578214314729,1149.44007237202,2322.44183619929
0.81,4.0778510454883,0.230218799963466,36.1960400451245,-11.110047129979,0.179626983205411,-4.08039262718077,14.6817167537835,-34.9003389000778,-3.0412030263658,1186.66483621944,2322.44183619929
0.82,4.09154344298784,0.184296778773686,35.5157353920971,-8.88716959258912,2.08258560004017,3.52668828605938,8.8166256873848,35.5333133171879,-0.488408021515306,1224.06672457179,2322.44183619929
0.83,4.03175655784251,0.217660265135328,38.5094594728649,-10.5615215739546,-3.0552194078932,-2.63971045805361,-20.4143410872518,-34.3187832654754,2.33729644142174,1261.23291292218,2322.44183619929
0.84,4.05338028317174,0.305875880588147,37.432737970568,-14.864230858744,3.24159304695807,2.4526569862588,18.2316584973321,35.9132546482757,-0.847752129743985,1298.26489509221,2322.44183619929
0.85,4.09946980446841,0.278480655532708,35.1327584506747,-13.4829725238031,-3.77212514463402,-1.62919490745397,-25.0621421537746,-28.0711648332427,2.04632662307092,1335.37186802981,2322.44183619929
0.86,4.0557435730076,0.293136321424134,37.3236544911552,-14.2016439977869,2.51560120220316,3.19479818210862,9.15382367416306,38.8709324426021,-0.59486258763818,1372.40257064704,2322.44183619929
0.87,3.93129034389796,0.231831512813632,42.3893422355241,-11.2683668573322,0.462394396947313,-3.91087982940291,18.5397807644423,-39.7505843478838,-2.96500354343941,1409.40964506934,2322.44183619929
0.88,3.91306781973596,0.196003818630692,38.3654667517625,-9.4306855951299,-3.60227842346066,1.54081388189513,-39.2551293827944,4.45888854030439,1.21666068504207,1445.67411276011,2322.44183619929
0.89,3.76051801138913,0.315019193340309,41.0654814586955,-15.2944952828794,2.44865235980299,2.87138197162727,11.5196247756384,42.2799432168609,-0.622529796019979,1480.93281775323,2322.44183619929
0.9,3.71078992531524,0.232847735087413,38.7401375975563,-11.2537168746116,2.84896810014552,-2.38905016730701,37.8619198013417,-13.9254958090647,-2.20594861853253,1515.41657887858,2322.44183619929
0.91,3.5987680523576,0.251881613919549,39.5788675413981,-12.276803991407,-1.62942355093229,-3.21862621839934,-4.05377278645123,-41.2404364465119,2.7428361433831,1548.98767048668,2322.44183619929
0.92,3.41466982956398,0.263215288609978,44.0535361912338,-12.8703337255283,-3.04929354582233,1.55918607115982,-45.6101236022411,5.10648275695801,1.17505978607212,1581.66124306873,2322.44183619929
0.93,3.34854556873881,0.279834755841952,42.7006663546059,-13.7047103337264,-0.787553466334787,3.26662279030829,-26.4394468932669,36.2232196310162,0.319951651670619,1613.50465336809,2322.44183619929
0.94,3.1845145039937,0.211144578771869,46.3120380024873,-10.279077691658,1.1570948289271,2.97436484247665,4.09310293538922,47.2621498717026,-0.304800704014323,1644.4978887832,2322.44183619929
0.95,3.19654290084166,0.276320875316362,41.1946070438055,-13.4850498069905,2.28337885859391,2.25397886662302,16.4511313829165,40.1024001028939,-0.705648307276515,1674.59013044304,2322.44183619929
0.96,3.0739184659096,0.264965018337058,42.8613122380814,-12.8297977858828,2.55356554219123,1.73161318363427,25.1913143077159,36.9742272596307,-0.888923951509772,1703.82172381447,2322.44183619929
0.97,2.8909805379562,0.177300458384769,47.6450097019969,-8.61330795347232,2.30771328124932,1.75033234984973,30.5119883919813,37.5932784919369,-0.860644015075812,1732.3072626551,2322.44183619929
