t,iq,id,vq,vd,ia,ib,va,vb,theta_e,omega,r
0,0,0,0,0,0,0,0,0,0,0,0
0.01,0.00052644512368581,0.000299034548255125,-0.025944745171973,-0.0149593989673345,0.000206296718287729,0.000569216824528604,-0.0103858495169555,-0.0280899901978206,0.168879309280859,-0.00134875534033204,0
0.02,0.000652112481749943,0.000368384614907585,-0.0321626487866772,-0.0184286874930428,0.000253546059539656,0.000704749820182022,-0.012761074680579,-0.0348024061336004,0.168868316061424,-0.00161636949737795,0
0.03,0.000701294319289939,0.000395580882604715,-0.0345907401654012,-0.0197891978161109,0.00027209872179273,0.000757799605799202,-0.0136945993949797,-0.0374244519372895,0.168856330388474,-0.00167695803046947,0
0.04,0.000691903545256127,0.000390233474713642,-0.0341405805144986,-0.0195216876531285,0.000268414245187075,0.000747640604639511,-0.0135069758347572,-0.0369355808197537,0.168844678663974,-0.00158529225928674,0
0.05,0.000708630224786321,0.000400003513878356,-0.034973412454597,-0.020010450260961,0.000275243251623218,0.000765768084364726,-0.0138492664761494,-0.0378385453795248,0.168833301392414,-0.00156394917244104,0
0.06,0.000711649800936933,0.000401981027205445,-0.0351324459557052,-0.0201093647727442,0.000276693768140698,0.000769073952282108,-0.01392047225787,-0.0380117845215362,0.168822240073078,-0.00150834161363463,0
0.07,0.000722247710217398,0.000408440777994026,-0.0356632754304094,-0.0204325191231742,0.000281289205159504,0.000780603617147252,-0.0141502469832033,-0.0385892156237785,0.168811737456745,-0.00147589179622851,0
0.08,0.000713559298925897,0.000403686824149186,-0.035246295201293,-0.0201946968201202,0.000278070513938633,0.000771237132374458,-0.0139862550518908,-0.0381380620207257,0.168801447310564,-0.00139389801509301,0
0.09,0.000711268208160926,0.00040272195743536,-0.0351431481175202,-0.0201464374446019,0.000277511783513352,0.000768813793419617,-0.0139563822218512,-0.0380281369067276,0.168791669868215,-0.00133168909584489,0
0.1,0.000710349033378278,0.000402524845139557,-0.0351069929405851,-0.0201365814474472,0.00027747906326444,0.000767871974762699,-0.0139530951533288,-0.0379907094085135,0.168782322751536,-0.00127556355326334,0
0.11,0.000709738247198835,0.000402483351075449,-0.0350856036096835,-0.020134505098379,0.00027754762530981,0.000767260414145473,-0.0139549810763065,-0.0379691503641102,0.168773374909918,-0.00122254403939585,0
0.12,0.000709210407916186,0.000402473451315371,-0.0350679223919974,-0.0201340045397731,0.000277633098652857,0.000766736032962298,-0.0139577827781719,-0.0379515166971773,0.168764806723146,-0.00117192399355079,0
0.13,0.000735599239442426,0.000417789646988936,-0.036372618550691,-0.0209002005439855,0.000288305993197476,0.000795320114473306,-0.0144942815869068,-0.0393662490503266,0.168756392615712,-0.0011930385076982,0
0.14,0.00075093416110393,0.000426872971696494,-0.0371677151757559,-0.0213546082979188,0.000294691332188201,0.000811960385124177,-0.0148090219209906,-0.0402262503433675,0.168748204169265,-0.00118635429149364,0
0.15,0.000716774068634376,0.000407410593491191,-0.0354631630227844,-0.0203809941756987,0.000281248666763547,0.000775014609281173,-0.0141358177206768,-0.0383822812315559,0.168740295061772,-0.00105099539445077,0
0.16,0.000709218447264504,0.000403466187348689,-0.0350989014718734,-0.0201836700710666,0.000278634741195642,0.000766901852437976,-0.0140027460662828,-0.0379899529438133,0.168733041889807,-0.000989432615280848,0
0.17,0.000707301834196355,0.00040266583743836,-0.0350113470279485,-0.0201436242891307,0.000278172882107692,0.000764876139618281,-0.0139782329875787,-0.0378968207473669,0.168726163746622,-0.000944867502418598,0
0.18,0.000706590772681096,0.000402502536591483,-0.0349827307209302,-0.0201354616679379,0.000278136328826177,0.000764145924930404,-0.0139752406056945,-0.0378671482328292,0.168719591231168,-0.000905232217760268,0
0.19,0.000706147705676238,0.000402468352787751,-0.0349670099106987,-0.0201337557808902,0.000278181834902581,0.00076370165899894,-0.013976436911939,-0.0378512762689189,0.16871330008583,-0.000867918708793735,0
0.2,0.000705773674307953,0.000402460374884963,-0.0349544225532283,-0.0201333563812255,0.000278241373765745,0.000763329922526062,-0.0139783847211957,-0.0378387163602217,0.168707276002506,-0.000832321377827947,0
0.21,0.000705426127708872,0.000402457750722399,-0.034942889358873,-0.0201332232425898,0.000278301544297112,0.000762985264086213,-0.0139804082091735,-0.037827243901549,0.168701507165751,-0.000798260295710191,0
0.22,0.000705095577802417,0.000402456253708883,-0.034931954746203,-0.0201331424987943,0.000278359781980335,0.000762657617651442,-0.0139823734767314,-0.0378163737185988,0.168695982659061,-0.000765647728720108,0
0.23,0.000704779387793987,0.000402455025738685,-0.0349214990785474,-0.0201330902162174,0.000278415692012245,0.000762344236971026,-0.0139842774259045,-0.0378059837118765,0.168690692113118,-0.000734417540144471,0
0.24,0.000704476835783083,0.000402453891251241,-0.0349114966998368,-0.0201330225951579,0.000278469230520895,0.000762044378229583,-0.0139860815755069,-0.0377960410996062,0.1686856256153,-0.000704510174721059,0
0.25,0.000704187013845222,0.000402452813041619,-0.0349019119419632,-0.0201329732337788,0.000278520520888299,0.000761757137569103,-0.0139878254068852,-0.037786516230305,0.168680773676245,-0.000675869398594907,0
0.26,0.000708864067229153,0.000405307031378303,-0.0351361169010587,-0.0202757587257166,0.000280552554803041,0.000766845694704506,-0.0140894400952703,-0.0380413036131798,0.168676185717868,-0.000661819032277315,0
0.27,0.000697269814150521,0.000398704999186261,-0.034570839463583,-0.0199454880928407,0.000275994095113261,0.000754306389714571,-0.0138589258225803,-0.037428540066675,0.168671596439897,-0.000604932210898067,0
0.28,0.000696550164355006,0.000398457659516094,-0.0345068993235674,-0.0199331125087645,0.00027587428901791,0.000753554254548995,-0.0138576190318001,-0.0373633706988994,0.168667331644441,-0.000578533499054524,0
0.29,0.000701699719135196,0.000401640108112825,-0.0347964304421931,-0.0200923112831385,0.000278150173179886,0.000759163851509866,-0.0139661066062144,-0.0376754616492057,0.168663319546067,-0.000569035299516886,0
0.3,0.000692293844463796,0.000396552860491634,-0.0343376234575405,-0.0198378233024506,0.000274716640747396,0.000749036518163852,-0.0137923769999987,-0.0371803974532414,0.16865983220144,-0.000524240272254023,0
0.31,0.000700467561140706,0.000401252938052651,-0.0347427351415728,-0.0200729555898879,0.000277980748493251,0.000757882199272041,-0.0139563079304793,-0.03761917941929,0.168656173981791,-0.00052473599642057,0
0.32,0.000702027996923936,0.000402204564349041,-0.0348228337345757,-0.0201205513323708,0.00027865966293064,0.000759579233723262,-0.0139899182898924,-0.0377060806961769,0.168652590715422,-0.000508254580706871,0
0.33,0.000702197139263981,0.000402396763675331,-0.0348344410060347,-0.0201301712894239,0.000278823364085064,0.000759777276211382,-0.0139975834996188,-0.0377190897625547,0.168649142287702,-0.000488886135446932,0
0.34,0.000702078957236788,0.000402435125097382,-0.0348317928005064,-0.0201320938703174,0.000278883529632821,0.000759666287922783,-0.0140000479975726,-0.0377167555519605,0.16864583632117,-0.000469579949355956,0
0.35,0.000701906523339153,0.000402442342693574,-0.0348263440744581,-0.0201324569017289,0.000278921992554413,0.000759496628543027,-0.0140014398554694,-0.0377114007226752,0.168642669601613,-0.000450931096662162,0
0.36,0.000701728966689081,0.000402443273825568,-0.0348205140319138,-0.0201325042325585,0.000278955015221275,0.000759320901082582,-0.0140025794076785,-0.0377056188657917,0.168639636827904,-0.000433038112674343,0
0.37,0.000701556241173853,0.000402442953724516,-0.034814797010681,-0.0201324860855881,0.000278985895016113,0.000759149761848449,-0.0140036305659869,-0.0376999392287664,0.168636732454195,-0.000415895706064061,0
0.38,0.000701390267728601,0.000402442401606975,-0.0348092926860189,-0.0201324562881116,0.000279015318509048,0.000758985274108058,-0.0140046298721175,-0.0376944690324542,0.168633951068832,-0.000399477740046031,0
0.39,0.000701231279197426,0.000402441823065168,-0.0348040175423872,-0.0201324235682793,0.00027904345336042,0.000758827700478551,-0.0140055833635868,-0.0376892259202683,0.168631287469803,-0.000383754730013463,0
0.4,0.000701079042754282,0.000402441258885982,-0.0347989650317158,-0.0201323908358822,0.000279070382748378,0.000758676816909327,-0.0140064951994772,-0.0376842038561824,0.16862873666979,-0.000368697498147621,0
0.41,0.000700933017131959,0.000402440716502012,-0.0347941128633036,-0.0201323748030642,0.000279096208565235,0.000758532089742336,-0.0140073857792588,-0.0376793836041194,0.168626293892229,-0.00035427790313511,0
0.42,0.00070079335354019,0.000402440196622557,-0.0347894732552292,-0.0201323405884066,0.000279120909694264,0.000758393666900743,-0.0140082188411053,-0.0376747712911919,0.16862395456277,-0.00034046895330373,0
0.43,0.000700659435110831,0.000402439698628916,-0.0347850199064872,-0.020132324522148,0.000279144592459697,0.00075826093895365,-0.0140090347818361,-0.0376703470257588,0.168621714300312,-0.000327244791134713,0
0.44,0.000700531413052681,0.000402439221665098,-0.0347807645995177,-0.0201322917363124,0.000279167233899662,0.000758134053663867,-0.014009797411234,-0.0376661165131108,0.168619568909614,-0.00031458065225583,0
0.45,0.000700408670491248,0.000402438764857376,-0.0347766805974892,-0.0201322741831222,0.000279188939795315,0.00075801240165001,-0.0140105428690798,-0.037662058702066,0.168617514373209,-0.000302452820629213,0
0.46,0.000700291050206271,0.000402438327358204,-0.0347727639627417,-0.0201322580689749,0.000279209738677112,0.000757895826716133,-0.0140112583652716,-0.0376581673423702,0.168615546843095,-0.000290838584471172,0
0.47,0.000700178686005077,0.000402437908353171,-0.034769025125545,-0.0201322237898932,0.00027922961013913,0.000757784459616995,-0.0140119229641939,-0.0376544493752414,0.168613662635277,-0.000279716193790873,0
0.48,0.000700070844606629,0.00040243750706259,-0.0347654310696701,-0.0201322076471327,0.000279248679198672,0.000757677576363976,-0.0140125781276662,-0.03765087829551,0.168611858220655,-0.000269064819672056,0
0.49,0.000699967601613226,0.000402437122738239,-0.0347619890166112,-0.0201321914892823,0.000279266935040611,0.000757575250426667,-0.0140132048786771,-0.0376474581290736,0.16861013022036,-0.000258864515271374,0
0.5,0.000699868724194224,0.000402436754663856,-0.0347586905605472,-0.0201321753171373,0.000279284418528629,0.00075747725126023,-0.0140138047519818,-0.0376441805443704,0.168608475398207,-0.00024909617846436,0
0.51,4.20522572961975,-0.0637328421320047,4.19538620556293,3.19174188660047,-0.277961260765647,4.19651317759587,2.97378455519164,4.35259544453781,0.0509851619988962,15.7672534645576,772.829902198697
0.52,4.17651447345037,0.0330488362496087,4.19810811572644,-1.64690167015559,-0.926578332202447,4.07256896403373,-2.5666234160801,3.70794297455055,0.231621637699485,33.503167948938,772.829902198697
0.53,4.15497228954921,-0.0571468608184776,3.75635093008952,2.86953072703246,-2.19317487348439,3.52945384796854,0.519386976332446,4.69836312689686,0.542247708376944,51.267499496081,772.829902198697
0.54,4.11070202013003,-0.00797613803661457,4.27082213095471,0.413307291688573,-3.42805753618916,2.26855818652636,-3.32824235018697,2.70805233517327,0.984256625152495,69.4205371469613,772.829902198697
0.55,4.07615493374903,-0.0300350576036319,3.95353886426902,1.52020981998829,-4.07626393758899,0.00366874956325789,-3.94083420449087,1.55284681175872,1.56252795499446,88.5790302920418,772.829902198697
0.56,4.05477887902395,0.00452266501563203,2.79148450431782,-0.207897876068992,-3.07089296117613,-2.64780449302369,-1.97616470747019,-1.98251867927385,2.28346106027768,107.800486488431,772.829902198697
0.57,4.03142554003574,-0.0379344627014899,2.14591149680536,1.92065564685066,0.0250841250597911,-4.03152597597769,-1.92748596991477,-2.13977851696909,3.13840515413973,125.215129904831,772.829902198697
0.58,3.98406947678898,0.0340361543445056,2.79980835213936,-1.67497437808648,3.28195754328858,-2.2589207024009,3.2576257494089,-0.17983451488413,-2.16507337456402,142.183888471138,772.829902198697
0.59,3.92371473024304,-0.0110365774842524,3.62038614292176,0.578231889015775,3.40981462389157,1.94134575000538,3.43590487224104,1.27910345564577,-1.05603845206672,160.679333208539,772.829902198697
0.6,3.88482308563216,0.00210456050435681,3.53951636356276,-0.0742498970887284,-0.717240880855798,3.8180388099998,-0.728338497760998,3.46456522060496,0.186233419969183,177.870316229885,772.829902198697
0.61,3.84269466397006,0.0481489949348999,3.76607028972997,-2.37177621971993,-3.84094396074029,0.125579045504726,-3.8131026428886,-2.29539889744936,1.55064248211997,194.635763223105,772.829902198697
0.62,3.80497155864711,-0.0115976599565653,3.36211201985488,0.614586978570266,-0.360469051660541,-3.7878760711809,-0.940355407706533,-3.2859163250877,3.04366645957791,212.316026057858,772.829902198697
0.63,3.73253416986388,0.0244046890945409,5.08532683495353,-1.17879638944552,3.72588927857896,-0.223955356760151,5.14108399092462,0.905188016009328,-1.62429371117828,228.480861830941,772.829902198697
0.64,3.70027291195823,-0.0152474330800458,4.3904249414034,0.801398522182317,-0.439184678824594,3.6741487347511,0.292992438440986,4.45333876866217,0.11484864262603,245.698742212459,772.829902198697
0.65,3.63756127539383,0.0385266378789642,5.54318353797435,-1.88045171807977,-3.36153425223432,-1.3904761073555,-4.36240448152238,-3.90287196040204,1.9735994986327,261.67069836748,772.829902198697
0.66,3.62847517653318,0.0475081708509193,3.74055683771761,-2.33151091402019,2.6008041728984,-2.53059415696183,4.3187344104871,-0.881045793398872,-2.32942050832414,278.068435717398,772.829902198697
0.67,3.58673107691622,-0.0102947959447901,3.62020518130303,0.557278675623105,0.817591446672184,3.49231871788195,1.3775728421777,3.39392665529649,-0.232839887260723,294.335417059136,772.829902198697
0.68,3.54735853025278,0.00889418799253949,3.50375105941046,-0.390976247002339,-3.25625317694602,-1.40735457378947,-3.05670672952272,-1.75660976933708,1.9812573687759,309.666325064106,772.829902198697
0.69,3.47431084856976,0.0118375317129109,4.85458619109694,-0.541447896769554,3.1934064163591,-1.36862392920886,4.68014046861868,-1.39873446575931,-1.97228656968063,325.48420832359,772.829902198697
0.7,3.44608798839008,0.0499516908845858,3.99456738313599,-2.45170699473094,-1.51661774333938,3.0948163460433,-3.9953188738822,2.45048216937549,0.470150923802642,341.107690020131,772.829902198697
0.71,3.37647333152248,0.00182353933039914,5.30415302503618,-0.0437944622976323,-0.395716364662402,-3.35320504033329,-0.575296336561566,-5.27304384516829,3.02466464578609,356.17313415324,772.829902198697
0.72,3.33807552859264,0.0406833834147811,5.00266391434185,-1.97471441652139,1.89900892339526,2.74557252338019,1.15776410797993,5.25221149012004,-0.592921153455673,370.908967507002,772.829902198697
0.73,3.27579574400599,0.0662410815107995,5.81982882454357,-3.25403626267639,-2.72098280922901,-1.82523373550011,-2.89961526704688,-6.00428104346472,2.18187323957102,385.708323663795,772.829902198697
0.74,3.23210691686308,0.0456382703274096,5.68942272081564,-2.22479947672417,3.04993954992042,1.07073185979679,4.57455531655268,4.04879083969091,-1.21905229070575,400.379236733349,772.829902198697
0.75,3.22424460637553,0.0571781849056397,3.76761034730401,-2.80291044937366,-3.17226442829117,-0.579448896425995,-3.14124144008101,-3.49052960615407,1.76919748888982,414.83201355406,772.829902198697
0.76,3.17703631423572,-0.0215624250304072,3.8158209362548,1.13581419185052,3.13832974069651,0.494884955121331,3.94249464139585,-0.554345829365102,-1.4211805302961,429.041488299448,772.829902198697
0.77,3.08927687283915,0.0681195669491359,5.89492820511241,-3.35212750284875,-3.03912094008698,-0.558583730505095,-5.09441486364856,-4.47592164093848,1.7746121781831,443.003754708868,772.829902198697
0.78,3.03043986916439,0.031900694479201,6.52398239897333,-1.53965256797586,2.84792443364512,1.03629622945201,5.56522408795235,3.73646319707065,-1.21128581222272,456.735449017511,772.829902198697
0.79,2.97593687352507,-0.00538128290170015,6.9351236759917,0.326926846654954,-2.42734601596024,-1.72169118956153,-5.85258076792979,-3.73498593293506,2.1859214618735,470.228942625648,772.829902198697
0.8,2.9428444345238,0.00293066756511196,6.27853062906441,-0.0863531044981147,1.66825304259547,2.42430892018551,3.48286146541309,5.22466072884135,-0.60172289265504,483.492877732826,772.829902198697
0.81,2.87436439661478,0.0140030916586119,7.3967403827451,-0.637383887655087,-0.446450542494698,-2.83951557210184,-0.483124744225635,-7.40841528206211,2.99051332035461,496.516618802757,772.829902198697
0.82,2.86292465170426,0.0466080554455591,5.65899263173916,-2.263877932668,-1.05790528067932,2.66070409652768,-4.26594717624899,4.35327871719151,0.394717166401902,509.357927766601,772.829902198697
0.83,2.80164731933619,0.0685534103706213,6.41118901269698,-3.35911104155982,2.37288835372312,-1.49108287254005,7.22735581334461,-0.390255676921429,-2.10736063128388,522.030141948994,772.829902198697
0.84,2.7470594880943,-0.000858737929533948,6.80174368643666,0.10294932668395,-2.69468735497812,-0.533850753938573,-6.69245749416446,-1.21874050915181,1.76606354655137,534.63372616993,772.829902198697
0.85,2.72151227642232,-0.00200390391007621,5.71153827670222,0.154579794650263,1.42762428676955,2.3170071174198,3.13122612881234,4.77922455314579,-0.552946372877016,546.970063400935,772.829902198697
0.86,2.69013182985279,0.0108439863119098,4.95351926595459,-0.481475157789199,0.933916357114523,-2.52284107544256,2.18923292330446,-4.46950004511369,-2.78301956483249,558.932935440616,772.829902198697
0.87,2.62437672107495,0.0200425989383363,5.95786301590026,-0.933175992460412,-2.5606018002261,0.575389694529845,-6.02034946284952,0.349773489996166,1.35739603426262,570.62396825267,772.829902198697
0.88,2.52997891864397,0.0659055489297238,8.3810333825102,-3.23217659915034,1.67976225907901,1.89302287971815,2.92485137031004,8.49316964321571,-0.699734650861877,582.27912642459,772.829902198697
0.89,2.50921436099481,0.0384798598028413,7.06697850068226,-1.87088994235774,1.10024332601713,-2.255460492358,4.86411719878665,-5.45736000113503,-2.6724077368547,593.765465539987,772.829902198697
0.9,2.51247266071892,-0.0013255977921296,4.62653929460765,0.134024394620876,-2.4841069077557,-0.376475097330384,-4.59468290003316,-0.558316604665288,1.7206776360945,604.801031389392,772.829902198697
0.91,2.43317562788933,0.0360073948122582,6.31832837694088,-1.73557166282378,0.250737858401317,2.420489763457,-1.1708261905232,6.4469099968309,-0.0884241151404963,615.811592508364,772.829902198697
0.92,2.37664689400914,0.0297084334525904,6.81245269877412,-1.43095164044342,2.29737993534136,-0.609408305253889,6.95561661153284,-0.276644037873519,-1.81758764287768,626.637160737611,772.829902198697
0.93,2.31608437735293,0.0456654497190587,7.58988042897096,-2.21524475689141,-0.78752345244055,-2.17856351483551,-0.341281870121974,-7.89918482782479,2.81443497684615,637.080441770293,772.829902198697
0.94,2.28288267024558,0.0964657261363676,6.95341554263556,-4.77689939029795,-2.12778733321482,0.832694413958184,-8.12793438633823,-2.25952165401777,1.24000617328526,647.59039446543,772.829902198697
0.95,2.2348037094378,0.064495610732101,7.10232839212453,-3.16152385171216,0.635139097915476,2.14361974935383,-1.23553049478387,7.67540005804142,-0.259200610070769,657.605093913194,772.829902198697
0.96,2.1576435309536,0.0162403899985137,8.71375242024386,-0.766482847844928,2.14174923683411,-0.261915183702183,8.74434494308716,-0.231103253227172,-1.68495566923424,667.643696609812,772.829902198697
0.97,2.1384152606048,0.0583396926808841,7.42781623484041,-2.85611239650841,0.161907103156523,-2.13307511271335,3.6049216503232,-7.09467208087018,-3.03855980024492,677.275888224977,772.829902198697
