t,iq,id,vq,vd,ia,ib,va,vb,theta_e,omega,r
0,0,0,0,0,0,0,0,0,0,0,0
0.01,0.000862304094916398,0.000488191357748172,-0.0421209603567175,-0.0244269826501911,5.69378116432981e-08,0.000990908245322279,-0.000507787247797296,-0.0486887557334943,0.515098526491661,-0.00189859106239392,0
0.02,0.00101387985459055,0.000571650638881839,-0.049629320928824,-0.0286029091912768,-1.96516175516226e-06,0.00116392995949836,-0.000443940735963221,-0.0572800037245424,0.515083674573369,-0.00213388041908211,0
0.03,0.00107109004587864,0.000603692221427451,-0.0524573709721149,-0.0302061274865797,-2.24404092904681e-06,0.00122950117888216,-0.000446963308707898,-0.0605308692391102,0.51506816885635,-0.00214868132346755,0
0.04,0.00104839901465358,0.000591385806182862,-0.0514037342222632,-0.0295903758800175,-1.75874974513114e-06,0.00120369205882588,-0.000430981983712057,-0.0593106102754263,0.515053553997869,-0.00198758894020039,0
0.05,0.00107361754001726,0.000606279951191212,-0.0526742079546845,-0.0303356127891866,-1.20164720981302e-06,0.00123297548941295,-0.000454582932590139,-0.0607833442754362,0.515039435829282,-0.00193966950608444,0
0.06,0.00107605362268459,0.000608235146327886,-0.0528367902545206,-0.0304334322180779,-6.83306640849668e-07,0.00123605862531401,-0.000460454594483874,-0.0609730119195285,0.515025904379707,-0.00184408415554427,0
0.07,0.00109595039327489,0.000620345565086321,-0.0538440744868091,-0.031039385847568,7.17774713767001e-08,0.00125933946157883,-0.000492444781087908,-0.0621480919198074,0.515013254274112,-0.00179498047104589,0
0.08,0.00107718819632077,0.000610078248089239,-0.0529734600724473,-0.0305256769974583,3.92716839383851e-07,0.00123795384601281,-0.000474939279423141,-0.0611373769545373,0.515000982949978,-0.00166038275619335,0
0.09,0.00107367368628866,0.000608724722618017,-0.0528404300559208,-0.030457934634786,9.59938384352023e-07,0.00123422852465553,-0.000482205490482765,-0.0609882309021708,0.514989508104132,-0.00156657485588425,0
0.1,0.00107232925315634,0.000608543731516446,-0.0528106273536224,-0.0304488736570114,1.47794176862223e-06,0.00123296930863299,-0.000489658442381986,-0.0609578256097904,0.514978679234272,-0.00148255471903106,0
0.11,0.00107133354815929,0.000608517116626984,-0.0527958003551471,-0.0304475554998613,1.95778783884497e-06,0.00123208961512804,-0.000496437436238256,-0.0609442673344227,0.514968446082909,-0.00140378459907424,0
0.12,0.00107043074336357,0.000608510958561731,-0.0527836439982243,-0.0304472530419466,2.40897576932544e-06,0.00123130084051922,-0.000502750657891557,-0.0609335337339596,0.514958773943042,-0.00132942024723429,0
0.13,0.00111502172452903,0.000634310458220085,-0.0549792738227079,-0.0317381473256964,2.91374599802735e-06,0.00128281515179052,-0.000545488184130211,-0.0634801779170544,0.514949308915928,-0.00136054579389808,0
0.14,0.00114395362378526,0.000651511822219748,-0.0565191386773509,-0.0325988226079759,3.64764338575457e-06,0.00131646657479833,-0.000536771599045315,-0.0652442192727169,0.514940240483747,-0.0013588587792111,0
0.15,0.00107837649793112,0.000614158239021556,-0.0532583886330026,-0.0307297997908379,3.44434436688637e-06,0.00124099732084325,-0.000516515334392013,-0.0614858501354438,0.514931583888054,-0.00114432079639736,0
0.16,0.00106865048896562,0.000609243288462258,-0.0528115319180004,-0.0304838740598533,3.96605626463617e-06,0.00123011199591764,-0.000523016676773465,-0.0609758225428636,0.514923857786168,-0.00106434471926927,0
0.17,0.00106672633784933,0.000608594870603274,-0.052741818198659,-0.0304514466433212,4.35819332786889e-06,0.00122811799210702,-0.000529566801858276,-0.0608991752700626,0.514916618456049,-0.0010058328643,0
0.18,0.0010659186408398,0.000608507707564488,-0.0527249729808824,-0.0304470928559454,4.68848038914717e-06,0.00122737206958884,-0.000534489249469396,-0.0608823665806081,0.514909784597423,-0.000952903013355957,0
0.19,0.00106529633882116,0.000608494464931753,-0.0527158968181597,-0.0304464090741014,4.99133448042565e-06,0.00122682390339382,-0.000538756879940792,-0.0608741270481532,0.514903326395746,-0.000903203718999321,0
0.2,0.00106472712405844,0.00060849104153643,-0.0527082361683351,-0.0304462591131778,5.2761509013136e-06,0.00122632677479027,-0.000542770401083099,-0.0608673825152311,0.514897222211641,-0.00085627343730735,0
0.21,0.00106419219303632,0.000608489001342011,-0.0527011437983924,-0.030446150683013,5.54487241070749e-06,0.0012258601644819,-0.000546519785789984,-0.0608611531701077,0.514891452501405,-0.000811920874136718,0
0.22,0.00106368694792465,0.000608487229831913,-0.0526944560758304,-0.0304460480746566,5.79881660446352e-06,0.00122541952235949,-0.000550055664941346,-0.0608552790089519,0.514885998918527,-0.000769999290176361,0
0.23,0.00106320923568696,0.000608485575705229,-0.052688124953164,-0.0304459708148767,6.03893408402073e-06,0.00122500290039106,-0.000553419759278539,-0.0608497278261011,0.514880844139461,-0.000730374725606398,0
0.24,0.00106275783331378,0.000608484014600565,-0.0526821452410854,-0.0304458964409786,6.26582668294105e-06,0.00122460922245025,-0.000556596079758952,-0.060844484040064,0.51487597179254,-0.00069292121957169,0
0.25,0.00106233111098251,0.000608482539093377,-0.0526764882669461,-0.0304458191330131,6.48031011516587e-06,0.00122423706663524,-0.000559594630447004,-0.0608395198260755,0.514871366402802,-0.000657519804349012,0
0.26,0.00107112952460862,0.000613743621455223,-0.053117598680604,-0.0307090543261512,6.73206922546625e-06,0.00123448546796194,-0.00057175274524416,-0.0613530635420801,0.514867085710907,-0.000645622478372627,0
0.27,0.0010474579155106,0.000600254350271354,-0.0519825542063476,-0.0300341293150884,6.65312825560993e-06,0.0012072402849764,-0.00054350260240793,-0.060032819944198,0.514862776355024,-0.000559325430364809,0
0.28,0.00104663919138146,0.00059999384239226,-0.0518540480336836,-0.0300210814572855,6.83423667258327e-06,0.00120639939533032,-0.000595657696562921,-0.0599145459905444,0.514858887305093,-0.000528383047014655,0
0.29,0.00105882237747647,0.000607361461867876,-0.052558601933335,-0.0303897319724846,7.25194076955579e-06,0.00122063105882256,-0.000569802903996282,-0.0607092890025638,0.514855320351308,-0.000529555009388614,0
0.3,0.00104689687739882,0.000600993417215129,-0.051989103410242,-0.0300710984823915,7.58512401238668e-06,0.00120711582929603,-0.000573074948226265,-0.0600567183788978,0.514852439806719,-0.000480775158066842,0
0.31,0.00105837616313459,0.000607491244655554,-0.0525568772307892,-0.0303962242805381,7.59206314711932e-06,0.00122030654984796,-0.000576673186781007,-0.0607109812373402,0.5148492200907,-0.0004829344002866,0
0.32,0.00105972478393871,0.000608344992792396,-0.0526325543613464,-0.0304389411300526,7.67489153710396e-06,0.00122190070954616,-0.000576778898481942,-0.0607978802411824,0.514846093836542,-0.000462646033248624,0
0.33,0.00105967775975315,0.000608456460799978,-0.0526399564344291,-0.030444516086265,7.79868934708381e-06,0.00122191464499332,-0.000578166761790792,-0.0608070661711367,0.514843127332849,-0.000440363302890588,0
0.34,0.00105944958558928,0.000608470346540729,-0.0526380371650317,-0.0304452057327643,7.92655528598701e-06,0.00122172286413327,-0.000579882649341654,-0.0608057336507882,0.514840321759954,-0.000418869414763976,0
0.35,0.00105920808150046,0.000608471440317734,-0.0526349671409058,-0.030445277576737,8.04966244370633e-06,0.00122151318311869,-0.000581618102045909,-0.0608030954231129,0.514837669682023,-0.000398493087685584,0
0.36,0.00105897653012315,0.000608470891714334,-0.0526319044121835,-0.0304452397515939,8.16626094749895e-06,0.00122131135653339,-0.000583245662520711,-0.0608004096210084,0.514835162881129,-0.000379224826348441,0
0.37,0.00105875702837323,0.00060847016497387,-0.0526289761261683,-0.030445215499127,8.27660257341151e-06,0.00122111993049122,-0.000584810474494046,-0.0607978475900751,0.514832793424273,-0.000361011115926038,0
0.38,0.00105854969136234,0.000608469450609318,-0.0526262130350642,-0.0304451659699259,8.38080579568462e-06,0.00122093909901449,-0.000586264041561303,-0.0607954169639609,0.514830553790189,-0.000343795178277341,0
0.39,0.00105835347267602,0.000608468771722947,-0.0526235869962765,-0.0304451416449411,8.47941478600419e-06,0.00122076796272359,-0.000587664592434482,-0.0607931181011634,0.514828436866106,-0.000327522484382121,0
0.4,0.00105816825456982,0.000608468129504286,-0.0526211150714914,-0.0304450891445848,8.57249688584853e-06,0.00122060641973526,-0.000588957676165472,-0.0607909395654035,0.514826435929045,-0.000312141373008215,0
0.41,0.00105799287422533,0.00060846752236073,-0.0526187607937277,-0.0304450647530292,8.66063113015287e-06,0.00122045345718213,-0.000590210624821709,-0.0607888773272054,0.514824544623757,-0.000297602996784923,0
0.42,0.0010578272727676,0.000608466948430336,-0.0526165417549632,-0.0304450403274043,8.7438523158278e-06,0.00122030902290762,-0.000591390647910452,-0.0607869328383216,0.514822756943864,-0.000283861182382779,0
0.43,0.0010576706352894,0.000608466405904953,-0.0526144365614996,-0.0304450158705976,8.82256713138473e-06,0.00122017240674324,-0.000592508628139237,-0.0607850874768687,0.514821067211194,-0.000270872285999623,0
0.44,0.00105752261253965,0.000608465893069354,-0.0526124461008418,-0.0304449884731544,8.89695267397919e-06,0.00122004330386035,-0.000593561923396307,-0.0607833405801917,0.514819470059682,-0.000258595055046022,0
0.45,0.00105738285528256,0.000608465408300484,-0.0526105702138393,-0.0304449639568387,8.96718574657223e-06,0.00121992140948651,-0.000594555988489537,-0.0607816948738275,0.514817960416609,-0.000246990497166084,0
0.46,0.00105725066502113,0.000608464950064283,-0.0526087903223987,-0.0304449394136751,9.03361484974597e-06,0.00121980611489986,-0.000595497732069503,-0.0607801327535533,0.514816533487299,-0.000236021756405653,0
0.47,0.00105712580892472,0.000608464516909726,-0.0526071102662964,-0.0304449148441096,9.09635894459832e-06,0.00121969721672507,-0.000596385540100771,-0.0607786575594008,0.514815184739943,-0.000225653996160048,0
0.48,0.00105700729812239,0.000608464107464851,-0.0526054952410934,-0.0304449125413888,9.15590900595889e-06,0.00121959385357883,-0.000597256214084112,-0.0607772499725699,0.514813909890904,-0.000215854288531162,0
0.49,0.00105689582978768,0.00060846372043411,-0.0526039938793676,-0.0304448879206337,9.21192561939793e-06,0.0012194966316204,-0.000598047249351506,-0.0607759303676055,0.514812704891187,-0.000206591509750505,0
0.5,0.00105679018221881,0.000608463354590364,-0.052602558232455,-0.0304448632789876,9.26501395639035e-06,0.00121940448688276,-0.000598801894716179,-0.0607746679872951,0.514811565913808,-0.000197836241330468,0
0.51,4.72861576754593,0.0315118771160933,3.57002516882766,-1.57272896826379,-0.266951532629305,4.7211796147478,-1.79488174737146,3.4636621698185,0.0631472349096682,19.4533464335346,2798.13470272898
0.52,4.69417209492056,-0.0322862001281967,5.29302432918783,1.62462161345909,-1.356034884158,4.49415881432735,0.0644480273100947,5.53636599115959,0.286167887130116,41.390766744351,2798.13470272898
0.53,4.7193026356755,-0.0166859130256107,4.03743092227085,0.84946322419662,-2.94559069638052,3.68721998749515,-1.84325334646517,3.69118589644525,0.670512777574457,63.5516420697667,2798.13470272898
0.54,4.71325339914303,0.0569428269957173,4.34083145260644,-2.82918649807992,-4.40674759379101,1.67289441827533,-5.04863851871154,-1.16548833037368,1.22006127851977,86.6220266375229,2798.13470272898
0.55,4.70551564347782,0.043545547181318,4.72874229738431,-2.15862074954128,-4.3955845593756,-1.68006251879881,-3.6119709559745,-3.73822325023777,1.94513213667571,111.391965548427,2798.13470272898
0.56,4.64021666696234,0.0211484152424104,7.99471144961371,-1.03285471792005,-1.35723844142291,-4.43733724038936,-1.31446579974534,-7.95326220441739,2.8493189202823,134.851083998952,2798.13470272898
0.57,4.68863479812993,-0.041484103823243,5.57490262824539,2.11020949207578,3.31602957310408,-3.31496079485174,2.40261264221154,-5.45527047050367,-2.36488088022823,156.759388133194,2798.13470272898
0.58,4.63574714952379,0.0543628604131161,8.22044295453591,-2.68292939045828,4.21955146492744,1.92054481586317,6.30146118232448,5.92160277717289,-1.13193844118817,180.188966293137,2798.13470272898
0.59,4.72924953606056,0.0192887423887629,3.54644679975423,-0.925058297935108,-1.27580770400084,4.5539530006714,-1.86037279109707,3.15785225053537,0.277229993653999,203.654491318092,2798.13470272898
0.6,4.61858343723405,0.0050420270654663,9.08093159858673,-0.201113632844498,-4.44037250596826,-1.27060237563559,-8.67226181904337,-2.7010443042441,1.85058832497323,225.913788137528,2798.13470272898
0.61,4.6695454140135,0.0491144279203333,6.53404640079526,-2.41031999600287,2.00428188373387,-4.21780994487669,5.03235301042989,-4.81443953428579,-2.68746764311582,249.742319276368,2798.13470272898
0.62,4.6420526216496,0.00391928557721877,7.90990341229437,-0.134341232316306,3.25430828078326,3.31030897600041,5.44458686056248,5.73943320165997,-0.776023383385301,272.156756745855,2798.13470272898
0.63,4.58877964928272,-0.0327008199113279,10.5748660799788,1.69561746087071,-4.43830438525751,1.16594262170059,-9.76593236484894,4.39653002131132,1.30677475014644,295.393298376763,2798.13470272898
0.64,4.6330109460335,-0.00134775123972874,8.36467066424052,0.123319069693148,1.86459573769885,-4.24123507689151,3.25130156750849,-7.70791547899124,-2.72768244944947,318.722477100998,2798.13470272898
0.65,4.62941327388875,0.0724582220507592,8.54600203705222,-3.54904693827846,1.48071007935442,4.38682289536497,-0.773973248297349,9.22121740326756,-0.309877626727691,340.99496865052,2798.13470272898
0.66,4.63091087065449,0.0844615953369415,8.47265596582027,-4.14971186233256,-3.57983041251382,-2.93892556399,-3.75824463235727,-8.65341579602478,2.27642903744353,363.974635178879,2798.13470272898
0.67,4.63126403730254,-0.0054938616165523,8.4564928238445,0.348690252420838,4.39812249860558,1.45091531558073,8.14276485372005,2.30851387452801,-1.25333039045662,387.183425340942,2798.13470272898
0.68,4.64328910124797,0.0326449523257148,7.8568418474106,-1.56059301735998,-4.62480544710683,-0.415179415544058,-7.66977920263152,-2.31082265956005,1.66735907511702,410.159162372231,2798.13470272898
0.69,4.59950727334979,0.124320739057953,10.0475915193643,-6.14707405199634,4.60059180340238,0.0740125815274027,9.77334599802779,6.57436861938561,-1.52768752910021,432.940042129971,2798.13470272898
0.7,4.60415030475292,0.0417389812815863,9.8171044100798,-2.01099958532984,-4.55407621396893,-0.678477714208228,-9.38207131895967,-3.52085161524304,1.7277562918724,455.678458414914,2798.13470272898
0.71,4.64310476347098,0.108603874968731,7.87098738989184,-5.3522792504156,4.25062825031886,1.87146363144368,4.85688327982504,8.18596484676191,-1.1326693860948,478.494327058068,2798.13470272898
0.72,4.55123152264006,0.0363553876712281,12.4664179896987,-1.73542294917481,-2.90512335743032,-3.50361076105752,-6.53563056216371,-10.7568026597738,2.4572985038853,501.283862746122,2798.13470272898
0.73,4.5924468277406,0.0238913975073873,10.4074529810951,-1.10599026361985,0.340920605888668,4.57983753041307,-0.384766604442864,10.4589792368583,-0.0691001367340247,524.049423450056,2798.13470272898
0.74,4.52333625223107,0.0459455352575531,13.86476961594,-2.20256682416882,2.92352938111938,-3.45190640091669,10.7338547007415,-9.04806611278854,-2.42872542840418,546.727013261995,2798.13470272898
0.75,4.56643793929525,0.0290435424617704,11.7115722474775,-1.3417212076826,-4.55041919782179,-0.383254621483831,-11.5426578160253,-2.39336391908552,1.6611821750929,569.23471633679,2798.13470272898
0.76,4.55916318374912,0.13064225014663,12.0772796122475,-6.41073977733332,1.75429974379591,4.21016255535275,-1.66174213548901,13.5719151338429,-0.366157308792394,591.735253442824,2798.13470272898
0.77,4.51876697599558,0.0313067232920334,14.099122425051,-1.46527169936514,3.56035497788893,-2.78282366054572,12.0627026685408,-7.44469466398149,-2.22729733547968,614.629973335007,2798.13470272898
0.78,4.56215766473039,0.00876192925539687,11.9315114499209,-0.324355714503987,-3.21625104037672,-3.23559709706542,-8.16476959453402,-8.70647515228165,2.36111357525592,637.341935501124,2798.13470272898
0.79,4.54741036876461,0.147768773716049,12.6709987853586,-7.25482103353745,-3.26197682246399,3.17179505676851,-14.2524737864731,3.1707458764639,0.83189789887841,659.642204607508,2798.13470272898
0.8,4.5546012793534,-0.00296163503463109,12.3135584588673,0.260711012464995,2.30683193030388,3.92720358913313,6.46823167797083,10.4811102041748,-0.531752114407285,682.567001744966,2798.13470272898
0.81,4.50617564915672,0.0114853066318874,14.7369010998478,-0.432411984725805,4.44766399483332,-0.723903227223605,14.619862795463,-1.90337752247598,-1.72959305934846,704.893158237588,2798.13470272898
0.82,4.52419144064588,0.051417705024789,13.8383111103804,-2.45461192418562,1.62799108934689,-4.22144489304439,7.40570629367475,-11.9448519613203,-2.76215515694454,727.705355346733,2798.13470272898
0.83,4.55227474093746,0.0585380804738649,12.4364127169803,-2.77212290556354,-2.18574209258297,-3.99364038548212,-3.38134292262279,-12.2847688912021,2.65367874137023,749.91735483344,2798.13470272898
0.84,4.52589850845608,0.128841385002072,13.7574351874402,-6.31356157593377,-4.24969846494453,-1.56218448602663,-10.4262480287413,-10.9736700676161,1.9515225225437,772.705083035119,2798.13470272898
0.85,4.4904084982176,0.011896875893243,15.5341612719728,-0.459202332895866,-4.43366269236629,0.711719851374229,-15.4158505746053,1.9678882762084,1.4142772503841,795.156820339146,2798.13470272898
0.86,4.50330862769857,0.103316205214604,14.8914227150646,-5.00196968312676,-3.83716258356181,2.35937409960303,-15.3823770552616,3.1869495319853,1.04244956323003,817.507251340466,2798.13470272898
0.87,4.52068209720902,0.0480827329958664,14.025043601906,-2.25097712359015,-3.32035262671751,3.06824656888729,-11.9112014552199,7.73899385834214,0.835475333274134,840.142090544702,2798.13470272898
0.88,4.50706516712919,0.080546832517336,14.7083072139793,-3.88745431369854,-3.15496519669538,3.21967681928151,-13.207853174087,7.54978255803769,0.793116434670237,862.688163395121,2798.13470272898
0.89,4.44744619664418,0.125633690898469,17.6916335973111,-6.1487597319685,-3.44923514903059,2.81039826057188,-17.7732140891339,5.90880753831061,0.915343625133487,885.147499579433,2798.13470272898
0.9,4.43490188349262,0.0240538444971734,18.3212945798455,-1.06253710272035,-4.12805625912186,1.62113689279047,-17.472512019722,5.61338969757156,1.20201223176536,907.508859454438,2798.13470272898
0.91,4.46188366322574,0.0225113608997937,16.9746316472317,-0.963486255601071,-4.44864000187317,-0.344259668367013,-16.8380265575197,-2.35526791940812,1.65307299571142,929.889376560109,2798.13470272898
0.92,4.39734021071889,0.0690024657312682,20.2043220960018,-3.28789294978978,-4.33677555447358,-0.730575156436758,-19.271494669093,-6.90176532688434,1.75338037298297,952.274348881572,2798.13470272898
0.93,4.40977130999777,0.117818546703403,19.5853170917364,-5.7460160921338,-2.6184201343309,-3.55018875787715,-6.48628475075823,-19.3527635403062,2.53282246851749,974.687116764906,2798.13470272898
0.94,4.49064241923644,0.122720903397695,15.5443262508004,-5.98562380316843,1.35860652742401,-4.28195259913247,10.7577991463022,-12.7170565946762,-2.80703158827358,997.102827977828,2798.13470272898
0.95,4.43579240729342,0.0763756535860627,18.2894238438379,-3.65957635903555,4.38919324569372,-0.64580970341059,18.6080708893291,1.27875777411529,-1.69966809168312,1019.4516322481,2798.13470272898
0.96,4.49010724672576,0.176068735392265,15.5763148020552,-8.62519592225594,2.02623199423875,4.01079134239181,-1.37150647054613,17.7520296730057,-0.42860250840773,1041.69462133977,2798.13470272898
0.97,4.43712324186064,0.101895823463395,18.228137529068,-4.88952551257129,-3.6935775025463,2.46088005700866,-18.0145564775068,5.6256743982762,1.00603620967656,1063.91683340006,2798.13470272898
