t,iq,id,vq,vd,ia,ib,va,vb,theta_e,omega,r
0,0,0,0,0,0,0,0,0,0,0,0
0.01,0.0014661941242893,0.000829990368429425,-0.0719621522933199,-0.0415791525243148,0.000896617371348314,0.00142642437976309,-0.0448483734844583,-0.0699714276196059,-0.0460587691109106,-0.00242306716092905,0
0.02,0.00163293032502444,0.000926687988039821,-0.0804614528837842,-0.0464233051289799,0.00100091708750012,0.00158851410365536,-0.0500800818407136,-0.0782378045582519,-0.0460762047403809,-0.00249823782469223,0
0.03,0.00167501403736439,0.000951280072621951,-0.0826100432436442,-0.0476552864491096,0.00102744910614151,0.00162940299994335,-0.0514110832033707,-0.0803264968433178,-0.0460931816855388,-0.00235631951159478,0
0.04,0.00164907546808718,0.000938185540813049,-0.0814491807603581,-0.0469992989870035,0.00101319703858941,0.0016040803500546,-0.050703474883227,-0.0791963432651357,-0.0461079716462985,-0.00212071272315883,0
0.05,0.00167110585922458,0.000951349573843112,-0.0826078775897462,-0.047658778001536,0.00102738546844082,0.00162546605735796,-0.0514167943415515,-0.0803226855883242,-0.0461221032679849,-0.00197932738934163,0
0.06,0.00166948443487318,0.000951440682810262,-0.0826128169820555,-0.0476633209999327,0.00102742267603639,0.00162382889984028,-0.0514225967112463,-0.0803267467654812,-0.0461350063649586,-0.00181135374356545,0
0.07,0.00171407933767849,0.000977400875094034,-0.0848483744786622,-0.0489638422801058,0.00105543128274916,0.0016671668344486,-0.0528257941125885,-0.0824993332026192,-0.0461466311358595,-0.00174239899961437,0
0.08,0.00166670694484895,0.000951622764141888,-0.0826231942223725,-0.0476724596133047,0.00102751279276649,0.00162102294429844,-0.0514340043105241,-0.0803355390202558,-0.0461574137894606,-0.00151972119092516,0
0.09,0.00166496423852079,0.000951424371769011,-0.0826014263978101,-0.0476625261392364,0.00102724988316581,0.00161928129992444,-0.0514238548151203,-0.0803137547178543,-0.0461670981358208,-0.00139270953479903,0
0.1,0.00166372061229533,0.000951417850256164,-0.0825981150887295,-0.0476621784948753,0.00102720021344318,0.00161803026024382,-0.0514240614696989,-0.0803100104410962,-0.0461758983558297,-0.00127790084996859,0
0.11,0.00166259294687531,0.000951413222050595,-0.0825952270147482,-0.0476619404613532,0.00102715646912713,0.00161689579565985,-0.0514243326455014,-0.0803067251612478,-0.0461838960170279,-0.00117356743612854,0
0.12,0.0016615679708635,0.00095140902439424,-0.0825925931667992,-0.0476617450069527,0.00102711670000431,0.00161586464101128,-0.0514245994743842,-0.0803037293780516,-0.0461911643175278,-0.0010787489258892,0
0.13,0.00173866914281725,0.000995362935627854,-0.0863744358847955,-0.0498636717175022,0.00107459606615322,0.00169084625451713,-0.0537994096288878,-0.0839794763924533,-0.0461983858556037,-0.00112426774570823,0
0.14,0.00187548196626445,0.00107500577896585,-0.0933843233943947,-0.0538534395494958,0.00116048387269621,0.00182382762667012,-0.0581092310928588,-0.0907972580474588,-0.046204776275076,-0.00128722195538621,0
0.15,0.00166059161065195,0.00095232246315334,-0.0826715529462702,-0.0477075190971994,0.00102801559838986,0.0016148270807307,-0.0514755394806449,-0.0803794866874265,-0.0462106815180213,-0.000827312848793951,0
0.16,0.00165814993389833,0.000951401872770377,-0.0825845077564024,-0.0476613831066233,0.00102699098739057,0.00161242557614811,-0.0514258195777633,-0.080294417251506,-0.0462155115168451,-0.000761153502279848,0
0.17,0.00165751695003988,0.000951392471025575,-0.0825822043011492,-0.0476609202264712,0.00102695942029655,0.00161178919920001,-0.0514256028632182,-0.0802919121345691,-0.0462198966203435,-0.000703921774327229,0
0.18,0.00165695509635055,0.000951390115058446,-0.0825807589670334,-0.0476607977129481,0.00102693752826475,0.00161122396189806,-0.0514257336711069,-0.0802902690653993,-0.0462238817804367,-0.000651933199100535,0
0.19,0.00165644458182194,0.000951388019935901,-0.0825794486095857,-0.0476606809344063,0.00102691767937795,0.00161071037027326,-0.0514258472533665,-0.0802887792538154,-0.046227503506566,-0.000604686006268619,0
0.2,0.00165598017886953,0.000951386115970696,-0.0825782338398713,-0.0476606006462709,0.00102689961692154,0.00161024317146105,-0.0514259751763793,-0.0802874002271477,-0.0462307949429532,-0.000561747603194316,0
0.21,0.00165555850034245,0.000951384385431259,-0.0825771468475776,-0.0476605231706315,0.00102688321604561,0.00160981895177762,-0.0514260877065645,-0.0802861641478868,-0.0462337862109642,-0.00052272504089759,0
0.22,0.00165517523886609,0.000951382812535673,-0.0825761554138668,-0.0476604426951202,0.00102686830672067,0.00160943338103704,-0.0514261797486355,-0.0802850376925299,-0.046236504685152,-0.000487261207621619,0
0.23,0.00165482690198863,0.000951381382938364,-0.0825752513750299,-0.0476603650469122,0.00102685475384539,0.00160908294560974,-0.0514262587451718,-0.0802840111574462,-0.0462389752431717,-0.000455031559029684,0
0.24,0.00165451046290781,0.000951380083596143,-0.0825744346706291,-0.0476602873213699,0.00102684244136944,0.00160876459929266,-0.0514263236083912,-0.0802830834538295,-0.0462412204942034,-0.000425741148153939,0
0.25,0.00165422255669458,0.000951378902650836,-0.0825736745534543,-0.0476602460529995,0.00102683123537739,0.00160847496018422,-0.05142641106321,-0.0802822211218025,-0.046243260985706,-0.000399121926213208,0
0.26,0.00166802028255713,0.000959170397076296,-0.0832539330818052,-0.0480505419245044,0.00103525519416368,0.00162189586490828,-0.0518478840444847,-0.0809436153932966,-0.0462450917053279,-0.000400379627295718,0
0.27,0.00160485450446959,0.000923609400536955,-0.0802057911731107,-0.0462690959466711,0.000996815026419218,0.00156043971635607,-0.04992757500423,-0.0779809940410091,-0.0462469348858974,-0.000263818042499035,0
0.28,0.00157674933821569,0.000906899286546585,-0.0785456538002055,-0.045431992146273,0.000978825919296015,0.00153313554887252,-0.0490147396086804,-0.0763612528863559,-0.0462485361471995,-0.000193062647861381,0
0.29,0.00165268125454083,0.000951042424365144,-0.082540717864535,-0.0476433818521086,0.00102643424197901,0.00160694423330306,-0.0514085595107445,-0.0802497473449533,-0.0462497170893429,-0.000313769656501729,0
0.3,0.00164968833770651,0.000949499874112354,-0.0823988859833371,-0.0475661194211973,0.00102475574999974,0.00160402533500775,-0.0513248613587677,-0.080111614230334,-0.0462502039868622,-0.000302187408705804,0
0.31,0.00165304355098221,0.000951360154325731,-0.082569256444935,-0.0476593070013568,0.00102677111343651,0.00160728970795402,-0.0514259234696076,-0.0802774317539934,-0.0462514162963439,-0.000292679299585301,0
0.32,0.00165291594968489,0.000951373433831617,-0.0825702444099714,-0.0476599666025439,0.0010267802640045,0.00160716048880444,-0.0514267172004023,-0.080278331051834,-0.0462525268882553,-0.000278242949938454,0
0.33,0.00165277414470554,0.000951372953558194,-0.0825698897282585,-0.0476599307089354,0.00102677484984012,0.00160701782127796,-0.0514267459772414,-0.0802779264998142,-0.0462535362704747,-0.000265075473093965,0
0.34,0.00165264445803738,0.000951372423183709,-0.0825695254054144,-0.0476599312674062,0.00102676979775113,0.00160688735594696,-0.0514268033309095,-0.0802775153654696,-0.0462544536006217,-0.000253108434565694,0
0.35,0.00165252710027091,0.000951371940459038,-0.0825692177581293,-0.0476598923827595,0.00102676522867846,0.00160676929003496,-0.0514268171877491,-0.0802771669720813,-0.0462552872730777,-0.000242232747299271,0
0.36,0.00165242045271366,0.000951371501738277,-0.0825689369151696,-0.0476598534634671,0.00102676107645102,0.00160666199891306,-0.0514268261455554,-0.0802768492658701,-0.0462560449173668,-0.000232348886854769,0
0.37,0.00165232312950488,0.000951371103016582,-0.0825686599677889,-0.0476598539071796,0.00102675728417294,0.00160656409126732,-0.0514268690572286,-0.0802765371842901,-0.0462567334665714,-0.000223366401920209,0
0.38,0.00165223510839433,0.000951370740647126,-0.0825684279640751,-0.0476598120150733,0.00102675385733553,0.00160647553856786,-0.0514268667153833,-0.0802762751851939,-0.0462573592224145,-0.000215203090021174,0
0.39,0.0016521547818225,0.000951370411317593,-0.0825681988518744,-0.0476598123972153,0.00102675072752665,0.00160639472924716,-0.0514269021548326,-0.0802760170545208,-0.0462579279109915,-0.000207784245274976,0
0.4,0.0016520816730006,0.000951370112015619,-0.0825679835927796,-0.047659812752237,0.00102674787807682,0.00160632118182069,-0.0514269340441981,-0.080275775430509,-0.0462584447369638,-0.000201041974730059,0
0.41,0.00165201577080511,0.00095136984000351,-0.0825678132994523,-0.0476597736944638,0.00102674531335662,0.00160625488044623,-0.0514269248584005,-0.0802755829705966,-0.0462589144300205,-0.000194914577046861,0
0.42,0.00165195546766858,0.000951369592793905,-0.0825676363570399,-0.0476597740027804,0.00102674296346574,0.0016061942149773,-0.0514269512503461,-0.0802753842512075,-0.0462593412881342,-0.00018934597784644,0
0.43,0.00165190075246747,0.000951369368125731,-0.0825674783350869,-0.0476597742899434,0.00102674083192138,0.00160613917039463,-0.0514269753709998,-0.0802752064349508,-0.0462597292183565,-0.000184285216549656,0
0.44,0.00165185138124727,0.000951369163943537,-0.0825673507853786,-0.0476597351751583,0.00102673891110258,0.00160608949945482,-0.0514269587008668,-0.080275062699828,-0.0462600817701211,-0.000179685980011682,0
0.45,0.00165180597927189,0.000951368978379447,-0.0825672065824148,-0.047659735428164,0.00102673714076371,0.00160604382566525,-0.051426978005235,-0.0802749021622252,-0.0462604021702924,-0.000175506178695035,0
0.46,0.00165176476824808,0.000951368809736887,-0.0825670764113325,-0.0476597356652106,0.00102673553417984,0.00160600236756309,-0.0514269955968698,-0.0802747571448964,-0.0462606933509768,-0.000171707561489516,0
0.47,0.00165172751534521,0.000951368656472084,-0.0825669664643084,-0.047659735887179,0.00102673408332795,0.00160596488990223,-0.0514270119769136,-0.080274633696332,-0.046260957976571,-0.000168255365659584,0
0.48,0.00165169352207133,0.000951368517183152,-0.082566858019432,-0.0476597360967452,0.00102673275840166,0.00160593069251589,-0.0514270264766951,-0.0802745129899755,-0.0462611984690011,-0.000165117998716147,0
0.49,0.00165166301013285,0.000951368390596302,-0.0825667768808738,-0.0476596969157091,0.00102673157192051,0.00160589999467232,-0.0514270011301362,-0.0802744225102505,-0.0462614170291051,-0.000162266749303749,0
0.5,0.00165163507045569,0.000951368275552725,-0.0825666909940735,-0.0476596971029175,0.00102673048390339,0.00160587188626953,-0.0514270132900619,-0.0802743264918271,-0.0462616156572994,-0.000159675524446292,0
0.51,4.55791219820749,-0.000855477833768492,12.105915628568,0.051581044757938,-0.540560212584342,4.5257440266747,-1.38226555060343,12.0268531111759,0.118690312943259,36.3191173090721,3395.17814950524
0.52,4.53140027163141,0.0253694790807737,13.4333550442065,-1.25040038826398,-2.28582607144937,3.91270126680947,-7.91717658371685,10.9241404154709,0.534324326619247,77.2158094105905,3395.17814950524
0.53,4.54516627401037,-0.0114168607492935,12.7469959931836,0.60624845456349,-4.32548676429109,1.39600539220065,-11.9333387470282,4.52204272288252,1.25609847494866,120.363007912071,3395.17814950524
0.54,4.4950098699013,-0.0260204925416438,15.2570155919702,1.33387192536576,-3.31696057809816,-3.03373751664262,-12.2122139378086,-9.24216261618971,2.30583818112951,165.199300591867,3395.17814950524
0.55,4.52587916767979,0.093326001173536,13.7157505145104,-4.61911574965089,2.18691341894877,-3.96354660385806,10.8697145982498,-9.55548779694476,-2.61678412210272,205.953004268302,3395.17814950524
0.56,4.42058708277184,0.0362435324940442,18.9827678851712,-1.77039178756482,3.60584814571571,2.55749152492349,14.3570462291256,12.5441216208435,-0.945682558936558,249.943462885308,3395.17814950524
0.57,4.38519056758202,0.057260234253538,20.755158411139,-2.78849255677303,-3.74266624708441,2.28596246937087,-19.2746151450687,8.1878875432032,1.03554167011602,291.277751190433,3395.17814950524
0.58,4.48486236327372,0.0338415212052893,15.7742594955687,-1.60591950209146,0.801461690037425,-4.41279897859272,4.51372767973947,-15.1997533701666,-2.9543834174443,333.269854268963,3395.17814950524
0.59,4.41467370337854,0.0643060753803861,19.2864793193303,-3.13109225361633,1.586399846232,4.12029303648514,3.72885261921474,19.1798769907366,-0.352961828122823,375.686229328658,3395.17814950524
0.6,4.35530336240813,0.063937907524656,22.2578685243549,-3.10635046602755,-2.45883167430733,-3.59540014908566,-9.70396760644847,-20.2705485164624,2.55644523891032,417.800692941607,3395.17814950524
0.61,4.34253131997234,0.0846699509454444,22.8994514812197,-4.12858941611119,2.19188266139129,3.74971967808609,7.56441641763886,22.004766142091,-0.509483201278093,459.60442225374,3395.17814950524
0.62,4.33083006650204,0.0725964268034897,23.4875578304734,-3.50121916366991,-0.620479345777978,-4.28676622730534,0.498504196881035,-23.741849170559,3.0146090974392,501.375848838779,3395.17814950524
0.63,4.27045380766515,0.125019623866319,26.5096938399429,-6.17715001354661,-2.16905153629824,3.6807093151505,-19.3493857439391,19.1447726836756,0.561783754788092,543.572031538789,3395.17814950524
0.64,4.39575088896454,0.030603258802806,20.2480572116423,-1.40779379208099,4.39487309229717,-0.0930211797613591,20.2660067139682,1.12012324159345,-1.58499710984358,585.110364530999,3395.17814950524
0.65,4.27209543814837,0.00429100453900455,26.4342923267357,-0.0487887312598985,-1.20979366783046,-4.09722065876923,-7.41351965964965,-25.3734884754068,2.85548371958548,626.443653215023,3395.17814950524
0.66,4.30386650203216,0.0906811680946866,24.8492445428442,-4.39300820466056,-4.14389331319219,1.16603522693041,-25.1573543685974,1.97256092658738,1.31756905862658,667.928585766328,3395.17814950524
0.67,4.14474141508342,0.0472370147300949,32.8091421733879,-2.25526956652721,-0.29441637529523,4.13454129637453,-4.95080658826465,32.5117757911942,0.0824853232736757,709.556350753058,3395.17814950524
0.68,4.10063325283085,0.0466117667932525,35.0182537324383,-2.20324830292845,3.11182127503489,2.67094254585641,24.8575073959562,24.7636169331899,-0.850124622249884,750.595720965528,3395.17814950524
0.69,4.15397170762565,0.156549602172278,32.3550873769618,-7.63616372706193,4.15113491786488,0.219243288101624,31.5332326552287,10.5270087844814,-1.48036118771067,791.607551279111,3395.17814950524
0.7,4.13662352679223,0.123374298517787,33.2264677266179,-5.96420298548601,3.99037723386523,-1.0971622265626,33.6949444238615,-2.05440870153645,-1.80930187686505,832.610909267384,3395.17814950524
0.71,4.11672980717213,0.115941876753244,34.2250855762243,-5.62455269899785,3.94042439095599,-1.1974817089224,34.4968177996898,-3.60022741763421,-1.83766802593072,873.795354997766,3395.17814950524
0.72,4.18358053324911,0.0394035435599394,30.8865815504417,-1.8344575481448,4.18373641085554,-0.0157595021376589,30.8757209041896,2.00898307972534,-1.56514481899412,914.950618702585,3395.17814950524
0.73,4.10868529385716,0.113068713847521,34.6353739678497,-5.47612212317134,3.50243411808387,2.15105430579781,26.0106706167541,23.5168462483261,-0.992517706181843,955.728792877129,3395.17814950524
0.74,4.14609848654681,0.135715594439726,32.7688642871018,-6.54074814248565,0.633095600889431,4.0997245447535,-2.55448429183891,33.3174798406583,-0.120492059567385,996.375592533104,3395.17814950524
0.75,4.16580251307095,0.0620374686207612,31.7878812302202,-2.92619616344217,-3.58427860366324,2.12384230034695,-29.0397302063811,13.2561716432055,1.05076829675831,1037.38269690797,3395.17814950524
0.76,3.94573288720529,0.0881594083164804,42.7955545965536,-4.15235939037237,-2.36741553138458,-3.15783530289456,-21.5222125729041,-37.2222507070723,2.52062558602439,1077.98100206329,3395.17814950524
0.77,4.08913540608156,0.0672649162848247,35.6296999323012,-3.11198927756388,3.70004898050709,-1.74217980704663,33.7596062508389,-11.8088517781287,-1.99440760844091,1118.57447013335,3395.17814950524
0.78,3.97377645788912,0.106523449901359,41.4019291618342,-5.12789206121475,-0.177867082748302,3.97122271895285,-8.07493228341971,40.9293352490752,0.0715592685985947,1159.28040893568,3395.17814950524
0.79,3.94890879039442,0.108914599163353,42.6495930048726,-5.268373553308,-2.50980140709985,-3.05067860019453,-22.018867184355,-36.9041058866925,2.48073505065187,1199.90059537585,3395.17814950524
0.8,4.01752943449343,-0.0158735947766939,39.2228387522229,0.991440123091021,3.64814613383949,1.68280257730496,36.0926489760389,15.3861861158961,-1.14255593401714,1240.34322037752,3395.17814950524
0.81,4.09450605611608,0.117466160499156,35.3782645529643,-5.65570644627698,-4.00259257150124,-0.870649670646442,-32.9798965692047,-13.9976798245478,1.81366212187882,1280.6940102801,3395.17814950524
0.82,3.91097478105343,0.121935131768117,44.5590776535206,-5.83136576810869,3.71139239514994,1.23941857482388,39.7856935358751,20.8953300505968,-1.21732351026815,1320.85969200265,3395.17814950524
0.83,3.91395301578426,0.248436518531351,44.4142911145764,-12.1132680986938,-3.01148382748489,-2.51231249455629,-23.9005339131533,-39.3462196139271,2.32946137759221,1360.96778986002,3395.17814950524
0.84,3.9550896274829,0.07249501265444,42.3615027406122,-3.42765773966679,0.516999350450541,3.9218237033192,1.35995487211911,42.4781858695612,-0.112742994314951,1401.27268499475,3395.17814950524
0.85,3.97394347825541,0.209254750782232,41.4228265208325,-10.1394218755143,2.93036060013084,-2.69239690095916,38.3921463689711,-18.5661393436584,-2.26129008725477,1441.08689267047,3395.17814950524
0.86,3.84081350072974,0.149027966169477,48,-7.24458209764794,-3.26289756556611,-2.03163903258212,-35.6678159985455,-32.9285722688285,2.16648474750272,1481.2218763997,3395.17814950524
0.87,3.74854517036046,0.20243317710875,48,-9.89211453814493,-1.96138964102798,3.20086250274753,-35.3930417920648,33.8996537259739,0.603706404148779,1521.04667643974,3395.17814950524
0.88,3.83105667262399,0.114820852499554,48,-5.38639174008781,2.45922327187614,2.93979590381515,25.4483364279047,41.0535673118654,-0.666658933596554,1560.82133428762,3395.17814950524
0.89,3.84236800945228,0.128000253112689,48,-6.06509106250985,3.8222362762907,-0.413141420177897,48.3179657061278,2.48183795159863,-1.6451666971748,1600.59077964507,3395.17814950524
0.9,3.8084163419712,0.203581519469299,48,-9.85483988629085,2.61508738206447,-2.77611211103405,41.5332415607744,-26.0020713528517,-2.33264882474728,1640.26890646239,3395.17814950524
0.91,3.75108061878217,0.163884158034655,48,-7.84287089251768,1.51231894130241,-3.43661974120442,28.2666972305569,-39.5790910900279,-2.68337341227776,1679.88479939195,3395.17814950524
0.92,3.7727942623914,0.188241067198773,48,-9.02709156114565,1.12234010655758,-3.60690503491926,25.0027238477523,-41.9565511243041,-2.79007211102647,1719.43545863724,3395.17814950524
0.93,3.67234127054914,-0.0102170524953913,48,0.718535938027065,1.88002160158336,-3.15463366702381,23.8399960450898,-41.667383916732,-2.60693443923599,1759.09741293812,3395.17814950524
0.94,3.83888251285746,0.0987665396465205,48,-4.62427710889036,3.19275445434222,-2.13379773435873,43.0503810147793,-21.7266802172384,-2.13422388756109,1798.47902619711,3395.17814950524
0.95,3.58150558187122,0.167933853572508,48,-8.00618018055377,3.54461318540221,0.53953811544988,45.4888623347021,17.2876350198058,-1.3728873954565,1837.75421296669,3395.17814950524
0.96,3.76239830562066,0.273503484813222,48,-13.3688220767832,1.45510247676716,3.48039106257447,2.57990332441684,49.7601195995081,-0.323433531869247,1877.07240063693,3395.17814950524
0.97,3.72523012056448,0.116360124284471,48,-5.60018650749151,-3.09999554653878,2.06903521988488,-43.698724589091,20.6345234547703,1.01348982411553,1916.37882100093,3395.17814950524
0.98,3.55754447261667,0.166391813685702,48,-7.90165557619711,-1.86131040740671,-3.03633536974862,-16.2246719540492,-45.8606168823353,2.63839778400665,1955.49593170599,3395.17814950524
0.99,3.69586068837616,0.201310765435283,48,-9.64957474701581,3.61533795854191,-0.793248824575513,48.9271595266307,1.80204146841249,-1.73237030619757,1994.71042256211,3395.17814950524
