t,iq,id,vq,vd,ia,ib,va,vb,theta_e,omega,r
0,0,0,0,0,0,0,0,0,0,0,0
0.01,0.0007679393285938,0.000420473662529744,-0.0362355842949333,-0.0210366907328473,0.000486237558844842,0.000728081004868883,-0.0241351765002378,-0.0342498639630444,-0.0878618864697011,-0.00459394522649093,0
0.02,0.000928668564619201,0.000503002846537425,-0.0442041019038555,-0.0251657107579087,0.000582583291313505,0.00088092784904268,-0.0289489736389559,-0.0418243057124466,-0.0878971704561192,-0.00492759477035339,0
0.03,0.00098472536560144,0.000534688556341396,-0.0471078629933831,-0.0267509800836367,0.000619099767236198,0.000933965404150187,-0.0307845635919637,-0.044576634414128,-0.0879316421829573,-0.0045873502530717,0
0.04,0.000960386687226082,0.000525072142242174,-0.0462445854280483,-0.0262698625443176,0.000607410011379514,0.000910547319822431,-0.0302307853894722,-0.043758050393557,-0.0879611717870156,-0.0038184662061662,0
0.05,0.000977353166988853,0.000538250848717099,-0.047260503620317,-0.0269291957491206,0.000622052113696879,0.000926274450156682,-0.0309779683205511,-0.0447113214395569,-0.0879869503223824,-0.0033993814469074,0
0.06,0.000975155998368344,0.000540379620197721,-0.0473585139565907,-0.027035701789213,0.000624000241551004,0.000923884762090535,-0.0310936768587965,-0.0447988981428405,-0.0880093166224095,-0.00292414631901291,0
0.07,0.00098643810757874,0.000550165688287696,-0.0480472884974252,-0.0275253229238541,0.00063475749227763,0.000934251224591124,-0.0316427900908476,-0.045441381683261,-0.0880279500953621,-0.00261474343524465,0
0.08,0.000968363358892194,0.000542302029173672,-0.0473581585606811,-0.027131890621914,0.000625350434677858,0.000916927434172993,-0.0311910383912272,-0.0447889918959459,-0.0880445083017446,-0.00215439337372668,0
0.09,0.00096161404906547,0.000541027814379968,-0.0471683948955621,-0.0270681322481799,0.000623500199684072,0.000910307737134413,-0.0311114542163831,-0.0446051418221099,-0.0880582579377737,-0.00182662310330297,0
0.1,0.000957531248299277,0.000540819954623925,-0.0470828476781299,-0.027057725286033,0.000622944591923653,0.00090625181389174,-0.0310940803110601,-0.0445204808233891,-0.0880698512253155,-0.00156086705120737,0
0.11,0.000954384990787698,0.000540784870747688,-0.0470247331178338,-0.0270559710746501,0.000622641770651195,0.000903114728321254,-0.0310876575207352,-0.0444624408402111,-0.0880796605789304,-0.00133803902726328,0
0.12,0.000951779574874614,0.000540777959277583,-0.0469782379156018,-0.0270556327514267,0.000622413178571512,0.000900514850254806,-0.0310835994618042,-0.0444158974437429,-0.0880879670681988,-0.00114973860194486,0
0.13,0.000989252159571061,0.00056269633637981,-0.0487831194560709,-0.028152236342664,0.000647550492158659,0.000935908842941633,-0.0323350939132032,-0.0461170560268413,-0.0880957697567042,-0.00123624970927814,0
0.14,0.00101103730476877,0.000576413958531246,-0.0500723968854287,-0.0288385384298885,0.000663138297663081,0.000956397972287829,-0.0331324983352993,-0.0473407201327296,-0.0881027559074197,-0.00123607506906085,0
0.15,0.000957448223833575,0.000546538941243445,-0.047427484380628,-0.0273438733988322,0.000628669464916043,0.000905641551332396,-0.0314111826197408,-0.0448373872293577,-0.088108887806457,-0.000756181008794514,0
0.16,0.000946308589401098,0.000541705123203846,-0.0469481535496659,-0.0271020253851338,0.000622877829779984,0.000894967930178599,-0.031128275741818,-0.0443810697374544,-0.0881129812594101,-0.00059835746325773,0
0.17,0.000943410762842127,0.000540922616529086,-0.0468430100977292,-0.027062881973352,0.000621846258746134,0.000892148179958057,-0.0310801758884516,-0.0442796775334064,-0.0881162383602243,-0.000512143110179567,0
0.18,0.000942204510934225,0.000540795614757082,-0.0468113905881674,-0.0270565080686048,0.000621616019010468,0.000890956094470917,-0.0310711644208541,-0.0442486571456886,-0.0881189569993396,-0.0004481797653856,0
0.19,0.000941420827087696,0.000540774724322665,-0.0467955539479225,-0.0270554635041055,0.000621528284521129,0.000890175863344406,-0.0310688317210242,-0.0442329025749565,-0.0881212520019833,-0.000395732799516508,0
0.2,0.00094080231229762,0.000540771053366652,-0.0467842150505967,-0.0270552965057121,0.000621471921885708,0.000889558864433103,-0.0310677533605234,-0.0442215620262577,-0.0881231943801292,-0.000351640933366826,0
0.21,0.000940287432514598,0.000540770212704027,-0.0467750190385492,-0.0270552464873193,0.000621427232720214,0.000889045034363586,-0.0310669669273024,-0.0442123549981693,-0.0881248392719789,-0.000314358669366332,0
0.22,0.000939852995744211,0.000540769867627017,-0.0467672992260962,-0.0270552195484307,0.000621389891814983,0.000888611448099153,-0.031066322249613,-0.0442046242332203,-0.088126232421787,-0.000282793077530755,0
0.23,0.000939485123327816,0.000540769634670045,-0.0467607565558917,-0.0270552206606879,0.00062135833060058,0.000888244290569164,-0.031065799675135,-0.0441980701979426,-0.0881274123921755,-0.000256059706105676,0
0.24,0.000939173537716172,0.0005407694469211,-0.0467552073138765,-0.0270552187045916,0.00062133160729383,0.000887933309684533,-0.0310653534859098,-0.0441925116157967,-0.0881284118111069,-0.000233417308439983,0
0.25,0.000938909998644227,0.000540769289422315,-0.04675051833083,-0.0270551971394668,0.000621309006586606,0.000887670281281729,-0.0310649567112962,-0.0441878164314778,-0.0881292583056049,-0.00021423956056349,0
0.26,0.000946301859068009,0.000545082469868013,-0.0470975635841006,-0.027270995344583,0.000626256524394119,0.000894653493307203,-0.0313104865804815,-0.0445145045208431,-0.0881297948419856,-0.000251958906973537,0
0.27,0.000928213930145008,0.000534540753841429,-0.0462697787327899,-0.0267435917725514,0.000614164667172545,0.000877562920382033,-0.0307123200526968,-0.0437363181104552,-0.088130900214505,-0.000109845540040557,0
0.28,0.000927477727670003,0.000534291518803887,-0.0460298316520692,-0.0267311051110489,0.00061385203944458,0.000876851205199267,-0.0306787842045821,-0.0434983859712571,-0.0881314000182444,-9.4690929811838e-05,0
0.29,0.000936137940597158,0.000539720935782192,-0.0466425214430755,-0.027002746548967,0.000620022775255985,0.000884999825147417,-0.0310033057789021,-0.0440847837528483,-0.0881315601023729,-0.000148533669328098,0
0.3,0.000923757491987981,0.000533487485021903,-0.0460595702088604,-0.0266908917273831,0.000612722878654071,0.000873216739791896,-0.0306413044092106,-0.043531576736088,-0.0881304813433113,-8.90706755177021e-05,0
0.31,0.00093564215386811,0.000539590989042719,-0.0466117982689714,-0.0269962606175192,0.000619848931243814,0.000884517935367598,-0.0309941028056496,-0.044054777453406,-0.088130696706028,-0.000163048731249058,0
0.32,0.00093778759465213,0.000540578355630917,-0.0467150042507601,-0.0270456393279597,0.000621021687686382,0.000886567873703538,-0.0310523930112217,-0.0441532231788716,-0.088131133557558,-0.000168203809427872,0
0.33,0.000938092611916211,0.000540738029922642,-0.0467328202250346,-0.0270536324822675,0.000621207960225728,0.00088685739309575,-0.0310619417426355,-0.0441702534727629,-0.0881315521332473,-0.000161593923666469,0
0.34,0.000938062228991562,0.000540763807497794,-0.0467346147939105,-0.0270549247170595,0.000621231286152843,0.000886824633208287,-0.0310634029853486,-0.0441719160366719,-0.0881319159321788,-0.000153900315226243,0
0.35,0.000937981495205082,0.000540767931238414,-0.046733596655557,-0.0270551345519995,0.000621228562677059,0.000886743657274881,-0.0310635360801978,-0.0441708737539267,-0.08813222583477,-0.000146984010812546,0
0.36,0.000937902682072179,0.000540768558879833,-0.0467322471566555,-0.0270551697776008,0.000621222483928662,0.000886664931511708,-0.0310634639973452,-0.0441695182279723,-0.0881324886561937,-0.000141049651460128,0
0.37,0.000937833822412751,0.000540768626952791,-0.0467309995218929,-0.0270551729636823,0.000621216688236876,0.000886596194788657,-0.031063367191189,-0.0441682682381286,-0.0881327113272149,-0.00013600875160863,0
0.38,0.000937775149093966,0.000540768609616519,-0.0467299195059599,-0.0270551761214224,0.000621211673832544,0.00088653763354917,-0.0310632836055796,-0.0441671862770768,-0.0881328999392618,-0.000131736390385057,0
0.39,0.000937725439751627,0.000540768582799488,-0.0467289969665158,-0.0270551763434121,0.000621207413380611,0.000886488020258209,-0.031063209681592,-0.0441662623361681,-0.0881330596934401,-0.000128117222254216,0
0.4,0.000937683297405194,0.000540768558121966,-0.0467282063762886,-0.0270551765438293,0.000621203799416588,0.000886445959591662,-0.0310631462703076,-0.0441654705935787,-0.0881331950037747,-0.000125051730159958,0
0.41,0.00093764744148613,0.000540768536902212,-0.0467275213734581,-0.027055176726106,0.000621200723860274,0.00088641017351129,-0.0310630912200864,-0.0441647846733164,-0.0881333096102945,-0.000122455276826606,0
0.42,0.000937617289917826,0.000540768518877519,-0.0467269447079522,-0.0270551768919636,0.000621198138027873,0.000886380080254818,-0.0310630449146547,-0.0441642072160886,-0.0881334066804014,-0.00012025610919164,0
0.43,0.000937591820174877,0.00054076850360261,-0.0467264523975074,-0.0270551517803985,0.000621195953855562,0.000886354659637395,-0.0310629801987258,-0.0441637164728071,-0.0881334888976674,-0.000118393440629604,0
0.44,0.000937570166925053,0.000540768490662778,-0.0467260240301024,-0.0270551519225215,0.000621194096780585,0.000886333048310016,-0.0310629457110339,-0.0441632875923632,-0.088133558534568,-0.000116815783200577,0
0.45,0.000937551773304235,0.000540768479702838,-0.0467256512275092,-0.027055152055268,0.000621192519142217,0.00088631469040504,-0.0310629156341743,-0.0441629143928781,-0.0881336175163899,-0.000115479526793516,0
0.46,0.000937536173651136,0.000540768470419853,-0.0467253271225046,-0.027055152179978,0.000621191181097288,0.000886299121082491,-0.0310628894370423,-0.0441625899830266,-0.0881336674732327,-0.000114347734097347,0
0.47,0.000937523018719791,0.000540768462557155,-0.0467250481891235,-0.0270551522976595,0.000621190052874285,0.000886285991616669,-0.0310628668712856,-0.0441623108075455,-0.0881337097859476,-0.000113389119643731,0
0.48,0.000937511842848914,0.000540768455897419,-0.0467248028729028,-0.0270551524096477,0.000621189094306508,0.00088627483744621,-0.0310628469728753,-0.0441620653203699,-0.0881337456240753,-0.000112577185028642,0
0.49,0.000937502413207862,0.000540768450256741,-0.0467245896002166,-0.0270551525166134,0.000621188285596156,0.00088626542604445,-0.0310628296477603,-0.044161851923126,-0.0881337759790223,-0.000111889486423727,0
0.5,0.000937494380550669,0.000540768445478987,-0.0467243993387661,-0.0270551526195647,0.000621187596590216,0.000886257409014059,-0.0310628141389408,-0.0441616615924497,-0.0881338016888551,-0.000111307014187273,0
0.51,4.72227221032971,0.0534423699147134,3.88704720487718,-2.66698173815335,-0.720579889577552,4.66727710106125,-3.26750742528334,3.39784090126439,0.164496947550491,50.5619447986437,3656.3412136323
0.52,4.7314802209051,-0.0255140407340103,3.42754076817149,1.29256855339503,-3.22204531721383,3.4649646493018,-1.36919083005759,3.39765884891193,0.743694733295127,107.538201237914,3656.3412136323
0.53,4.72989375731359,0.0232463846972788,3.50784216694131,-1.13688012527498,-4.66171187581005,-0.800548397542019,-3.25635238725309,-1.73020872077558,1.74578061074139,166.387893836779,3656.3412136323
0.54,4.68046083154013,0.0423030693106115,5.980682812185,-2.09171230053847,0.214702960958186,-4.67572516127822,2.4168783124641,-5.8568358753622,-3.08666826062029,229.988231711757,3656.3412136323
0.55,4.66561675377189,0.0375748121390749,6.72414222643804,-1.84331893387455,4.32835590213415,1.74204671121205,5.51547033815501,4.26514950761164,-1.18010642468861,289.022375213331,3656.3412136323
0.56,4.6421898727485,0.000961963493093632,7.89677646858198,0.00587177577081908,-4.23203962665612,1.90781769004138,-7.19733470954693,3.2492285470942,1.14748174730438,346.922116597108,3656.3412136323
0.57,4.64580259458812,0.0501881188225841,7.71767545119806,-2.46178358558959,3.22598764892962,-3.34350179962659,7.17145854922164,-3.76736978130623,-2.36327797418869,408.010552375523,3656.3412136323
0.58,4.63663856284274,0.0604569696887434,8.17745269459848,-2.96155571728974,-3.40180035894739,3.1511627259616,-8.05512159377736,3.27971964479727,0.836665740046321,466.482429821765,3656.3412136323
0.59,4.5580198321387,0.102657066431479,12.1100833111298,-5.06152827090417,4.40778781391458,-1.16511366439679,12.9576618807039,2.0909770025083,-1.80669808892569,525.015977290396,3656.3412136323
0.6,4.58443452299083,0.0858797629629637,10.7911563421836,-4.22641225296397,-3.58348399400766,-2.86060442808293,-5.60785309364844,-10.1421693642687,2.2632150513006,584.983603974488,3656.3412136323
0.61,4.55362925082441,0.0202409423309109,12.3333043192359,-0.944040333315221,-2.08757182116221,4.04697330621288,-6.53976784189444,10.4991925478073,0.480680456673121,644.20012420152,3656.3412136323
0.62,4.53440752175786,-0.00714218369572284,13.2964320578633,0.429393150783525,3.46253952159035,2.92775044113857,10.4435771893842,8.24082395374929,-0.870466478767724,702.776304619096,3656.3412136323
0.63,4.49472362213292,-0.00685947932079323,15.2827063697709,0.419935955312504,4.38706823741375,-0.977864904826658,14.8195677918928,-3.75737550062459,-1.79163444192693,761.31841519933,3656.3412136323
0.64,4.55797272353396,0.0111929319566209,12.1223995078463,-0.473731441748472,3.44171267370822,-2.9882862148465,9.48275842068108,-7.56665606736129,-2.28333800626185,819.806262329375,3656.3412136323
0.65,4.56132331733954,0.0707677472292115,11.9571404698284,-3.43861184343173,3.20678226186379,-3.24456869311609,10.9440979852641,-5.91810602422215,-2.34653806210982,877.874353448949,3656.3412136323
0.66,4.52826805663957,0.0598940421638265,13.6122159238617,-2.86834335076586,4.12509554476752,-1.86879256088207,13.6213677515866,-2.82456306563586,-1.98294132154514,935.580933435665,3656.3412136323
0.67,4.44974490560866,0.088068729858497,17.5409052603931,-4.26200078005301,4.16904880556385,1.55788891869599,14.7358923059735,10.4260004771729,-1.19339440278357,993.72775469529,3656.3412136323
0.68,4.48807097269282,0.022331564821048,15.6271061587538,-1.00288963713051,-0.0798681693014221,4.48741582987889,-1.35846080030906,15.6002185489578,0.0227720946775134,1052.30967065783,3656.3412136323
0.69,4.47383987585378,0.0591458313744222,16.3412250808057,-2.79749826698254,-4.4601279012915,-0.354965587443945,-16.0123698601586,-4.29716710831774,1.66343494628926,1109.55031619583,3656.3412136323
0.7,4.44505303233921,0.111835754997224,17.7832497596315,-5.46850754911252,2.37054445759799,-3.76185096341618,14.4079556802342,-11.7711239881559,-2.55414156562807,1168.04105373665,3656.3412136323
0.71,4.43354383950577,0.0954806222206972,18.3614323827165,-4.62580727824213,0.386149000163493,4.41772752393263,-3.41119180436711,18.6253607372938,-0.0656547397362832,1225.53460297333,3656.3412136323
0.72,4.36916141167693,0.0959012004495219,21.5834383547074,-4.62337947492826,-1.36283188048699,-4.15228343770782,-1.85565943605513,-21.9949307122805,2.84640383021831,1282.80637190641,3656.3412136323
0.73,4.47752633449603,0.0302233909138201,16.16809601148,-1.35054252614104,0.491298937128214,4.45059331818135,0.322140595017893,16.2212058487769,-0.103194473540449,1340.68695811119,3656.3412136323
0.74,4.38553689936006,0.114797097787906,20.7704954601473,-5.59667081270996,2.0431023976209,-3.88224739836926,15.0335473583755,-15.3859890702327,-2.63098186726417,1398.40963678133,3656.3412136323
0.75,4.39801956524254,0.0738732313380877,20.1494015040658,-3.54915620192685,-4.39473459537209,0.185313752334346,-20.2328796962959,-3.03734586653233,1.54544942126226,1455.82993771421,3656.3412136323
0.76,4.40940693841281,0.102051070952734,19.5831943168015,-4.95093084080138,0.721797521609134,4.35112540699582,-2.1446720450958,20.0851586416187,-0.141250705776005,1513.01252848678,3656.3412136323
0.77,4.40646588316677,0.0283857919670347,19.7333677432301,-1.24658514011093,4.35307877832815,0.684435886235843,19.2721816700292,4.42072286832016,-1.40840102922345,1570.15298384116,3656.3412136323
0.78,4.38618539717221,0.112164434965188,20.7505829364927,-5.40617982485398,3.32489928427426,-2.86290900104601,19.4872320125428,-8.94769584821965,-2.25610474689094,1627.07238984266,3656.3412136323
0.79,4.32528028255698,0.117731993274397,23.7991241986785,-5.65503980186398,1.79941523844692,-3.9349733346697,15.5594942184652,-18.8753788690543,-2.68548197009199,1684.00951499037,3656.3412136323
0.8,4.3756483601747,0.0875897962527525,21.2840975433653,-4.21999562246205,1.80386618058085,-3.98748509048796,12.9682739071388,-17.3966963288583,-2.69674479812977,1741.44668340961,3656.3412136323
0.81,4.3358570654066,0.128885179240903,23.2770880295687,-6.22565232034882,3.1748420835564,-2.95578172833238,21.6053261229188,-10.6673078643338,-2.29076086724575,1797.95943243722,3656.3412136323
0.82,4.22851900826887,0.102852238510415,28.6474562831482,-4.98253164890072,4.21681175713919,0.330832572626167,27.9863849859825,7.89079391085315,-1.46818241814115,1855.0339689543,3656.3412136323
0.83,4.3195987718328,0.0996958033563164,24.0969884002331,-4.74413368989877,0.706588724456229,4.26258198481831,-1.30582024094128,24.5248137184964,-0.141195888912354,1911.49128630665,3656.3412136323
0.84,4.26580183004229,0.134776873341278,26.7903937611441,-6.55814449894437,-4.25110184970519,0.378633229145161,-27.1217430755785,-5.01452985717432,1.5135478805495,1968.57199829214,3656.3412136323
0.85,4.18401296742834,0.161967258481419,30.8835415313437,-7.88206676209854,1.64244864846674,-3.85156595965566,20.3295235247064,-24.5485353375475,-2.69981416766217,2024.87655885833,3656.3412136323
0.86,4.22766207450975,0.158345289081461,28.7047980528166,-7.64340022026688,1.05886241749628,4.09597488122624,-1.32737472741709,29.6753277069213,-0.21553755791707,2081.17354781885,3656.3412136323
0.87,4.23848943061858,0.197928286733893,28.1672384320418,-9.63225115171454,-2.05631752782033,-3.71153963806582,-3.85226524538303,-29.5183609913629,2.68232186954551,2137.60665973482,3656.3412136323
0.88,4.26535034280927,0.141478751826013,26.8280116983055,-6.80845145922412,1.35429888178048,4.04711061412084,1.14082154655334,27.6549407729604,-0.28976310875826,2194.0205078973,3656.3412136323
0.89,4.18437989432733,0.137737705274733,30.8804372827109,-6.61500148219519,1.07486880159024,-4.0463148462364,15.2397038959162,-27.6606412894872,-2.84904245939843,2250.26510270262,3656.3412136323
0.9,4.19448596973243,0.136663410968382,30.3790851778169,-6.53755965428333,-3.98844418652666,1.30564252731802,-30.9944442993011,2.23000561700803,1.28700482981847,2306.41906337837,3656.3412136323
0.91,4.17228958942765,0.191080705254896,31.4929222798787,-9.24699948550909,1.98137606115027,3.67677319918807,5.32357956862454,32.3878164405693,-0.448507826419905,2362.61174752846,3656.3412136323
0.92,4.1806975850401,0.171553957544172,31.0765755298881,-8.37727035908285,4.06140527157641,-1.00630526080336,32.1251705012729,1.97626556873187,-1.7726658312189,2418.97636265787,3656.3412136323
0.93,4.20016051764171,0.124895509832272,30.1075616585435,-5.97524789877483,1.73567914132211,-3.82679568055467,18.6115837355974,-24.4085601240151,-2.68605554607942,2474.75469407987,3656.3412136323
0.94,4.12182911914596,0.205546534265545,34.0282876321795,-9.95319866631211,-0.402152788690418,-4.10731028773535,8.31679833932777,-34.4647847556368,3.09381879784729,2530.60000026203,3656.3412136323
0.95,4.11748097465008,0.160124546723708,34.2499569798909,-7.75929622960584,-0.738239048852262,-4.05392310654982,2.8598780612521,-35.0012475288799,3.00033104716014,2586.59875602425,3656.3412136323
0.96,4.00461574854645,0.18887314672547,39.8974765165851,-9.12695911815874,0.507124712706693,-3.976863699553,15.894937977703,-37.7155268002579,-2.96762948829677,2642.27277551985,3656.3412136323
0.97,4.18311082406755,0.129139794340507,30.9770861259484,-6.14396097692137,3.41605663644955,-2.41777796943442,29.2179561947728,-11.9849554500923,-2.15585526746147,2697.91275470875,3656.3412136323
