t,iq,id,vq,vd,ia,ib,va,vb,theta_e,omega,r
0,0,0,0,0,0,0,0,0,0,0,0
0.01,0.000628330658391572,0.000346382453450196,-0.029470715878227,-0.017329763463275,0.000577164027791449,0.000426218142922746,-0.0280551332419351,-0.019538507999474,-0.430894623217453,-0.00380256239251863,0
0.02,0.000760246648837484,0.000414849309615934,-0.0359806001087638,-0.0207552013505847,0.0006944869121146,0.000517458061739278,-0.0338872410744323,-0.0240215915304001,-0.430924077597679,-0.0041485944240378,0
0.03,0.000807421274351898,0.000441146911232458,-0.0384051438820259,-0.0220708977838415,0.000738101836596529,0.000549313562893556,-0.0360961670611245,-0.0256738452336084,-0.430953396810244,-0.00393892597863272,0
0.04,0.0007890069506211,0.000433279402060148,-0.0377830439171877,-0.0216772779992132,0.000723275105035023,0.000535850847544895,-0.0354793124990023,-0.0252721422459879,-0.430979118143482,-0.00336114825763663,0
0.05,0.000804148955249083,0.000444151722703528,-0.0386795235290646,-0.0222212390478154,0.000739491479253052,0.000545049215319898,-0.0363486398789866,-0.0258585650066543,-0.431002082377145,-0.00305330413039052,0
0.06,0.000803359682451232,0.000445925458638618,-0.038821061139176,-0.0223099685245289,0.000740784337521327,0.000543575992234107,-0.0364889154774568,-0.0259493454795323,-0.431022462606604,-0.00268639580476288,0
0.07,0.000813427234642645,0.00045396108347092,-0.0394360156488922,-0.0227119968446262,0.000752300819998739,0.000549352352860801,-0.0371115612319887,-0.0263394410315469,-0.43103990225459,-0.00244318123434844,0
0.08,0.000799190554156428,0.000447523742684192,-0.038919277583872,-0.0223899360072971,0.000740512492891992,0.000539095807802113,-0.0366034679693475,-0.0260039522895712,-0.431055690795421,-0.00206920449404384,0
0.09,0.000794132497515942,0.000446470034085242,-0.038804382248811,-0.0223372229053721,0.000737448976057916,0.000534930764359386,-0.0365079195516296,-0.0259210998772787,-0.431069173788089,-0.00179659606301936,0
0.1,0.000791113779970276,0.000446296251088703,-0.0387673889288629,-0.0223285169664273,0.000736035952173341,0.00053225222752279,-0.0364848547143409,-0.0258907027860425,-0.431080840275188,-0.00156965720710096,0
0.11,0.000788750293527181,0.000446266456834393,-0.0387470557207186,-0.0223270386909906,0.000735026660535283,0.000530109973814007,-0.0364752773183077,-0.0258724782014791,-0.431090964126443,-0.00137441382976777,0
0.12,0.000786746298636972,0.000446260372260383,-0.0387316158703533,-0.0223267341964016,0.000734188382941008,0.000528285412086514,-0.0364687762653896,-0.0258582575884441,-0.431099754821976,-0.00120519866401493,0
0.13,0.000817482586706219,0.000464303300791809,-0.04021670996484,-0.0232294320986822,0.00076342881828018,0.000548663625651808,-0.0379096816909226,-0.0268299517352581,-0.431108019503725,-0.00126094387758378,0
0.14,0.000835432283353846,0.000475564326965406,-0.0413025780445112,-0.0237928184873146,0.000781164472220461,0.000560259401074547,-0.0388754867293232,-0.0275807486528457,-0.431115510078404,-0.00124621588734296,0
0.15,0.000791489390796469,0.000451044518180477,-0.0391454056017076,-0.022566075901933,0.000740528714163043,0.00053057877513528,-0.0368597166144415,-0.0261333475168618,-0.431122193301486,-0.000838196304253911,0
0.16,0.000782402220158655,0.000447037311638783,-0.0387703297190457,-0.0223655978779015,0.000733093298797556,0.000523994090963381,-0.0365209688075491,-0.0258761912250922,-0.431127086837861,-0.000691498249683541,0
0.17,0.000779978144551251,0.000446381968256647,-0.0386944595781908,-0.0223328074310779,0.000731487042577238,0.000522062710891992,-0.0364595783995941,-0.0258208178167482,-0.431131165461688,-0.00060314599045885,0
0.18,0.000778901044111827,0.000446274396673271,-0.0386755498849101,-0.022327437449086,0.000730941024706823,0.00052112656048711,-0.0364468880454007,-0.0258057546634282,-0.431134675403098,-0.000533758586985117,0
0.19,0.000778159204920324,0.000446256395611112,-0.0386679722857945,-0.0223265251397193,0.000730616238208666,0.000520457905398573,-0.0364429710128242,-0.0257991408629812,-0.431137717610421,-0.00047487898416815,0
0.2,0.000777551205851104,0.000446253086051409,-0.0386630453435199,-0.0223263643831248,0.000730360518875078,0.00051990499805199,-0.0364408340962366,-0.0257946357247723,-0.431140358524394,-0.000424003769172717,0
0.21,0.00077702999454082,0.000446252225394039,-0.0386590750234543,-0.0223263227142501,0.000730143110307107,0.000519430168123015,-0.0364391961628889,-0.0257909625763059,-0.431142651853317,-0.000379869229723657,0
0.22,0.000776578690652857,0.00044625180686153,-0.038655686155944,-0.022326299779353,0.000729955159744295,0.000519018884691074,-0.0364378104480628,-0.0257878208419289,-0.43114464349034,-0.000341549082342214,0
0.23,0.00077618693320683,0.000446251497047733,-0.0386527484813043,-0.0223262810542671,0.00072979205565769,0.000518661844940699,-0.03643661034961,-0.0257850968022963,-0.431146373151054,-0.00030827107782209,0
0.24,0.000775846651220001,0.000446251236695265,-0.038650191515103,-0.0223262806905468,0.000729650389663095,0.000518351715851155,-0.036435580160464,-0.0257827192514215,-0.431147875300355,-0.000279370598867802,0
0.25,0.000775551343867749,0.000446251011966573,-0.0386479788620992,-0.0223262617032538,0.000729527448323819,0.000518082575270004,-0.0364346718448926,-0.0257806694894146,-0.431149179865426,-0.000254271586781003,0
0.26,0.00078152969771919,0.000449794289322484,-0.0389313656132881,-0.0225035251151364,0.000735245423478976,0.000522032315453161,-0.0367141702871299,-0.0259640053006217,-0.431150161918586,-0.000276214461716629,0
0.27,0.000766605022402294,0.000441154432406565,-0.0382573762500739,-0.0220712776866074,0.000721159689921436,0.000512083191714782,-0.0360398443150343,-0.0255322885383809,-0.43115155446329,-0.000153207327486932,0
0.28,0.000765950616911498,0.000440946628811597,-0.0380462662463127,-0.0220608711061223,0.00072069784894678,0.000511574909012259,-0.0359421850236019,-0.0253448169252693,-0.431152400550596,-0.000133880166265744,0
0.29,0.000773036272899681,0.000445383715954236,-0.0385649044184236,-0.0222828655029366,0.000727690366085731,0.000516157403087322,-0.0363606251321349,-0.0257231974650212,-0.431152919490529,-0.000171336019898241,0
0.3,0.000762876276655496,0.000440217105061937,-0.0380930090669467,-0.0220243724422589,0.000718750248819238,0.000509086822551074,-0.0359285603757614,-0.0254025366956744,-0.431152367660274,-0.000114216422714751,0
0.31,0.000772478170585677,0.000445264525672578,-0.0385383964705842,-0.0222769017347473,0.000727348793443547,0.000515700256476605,-0.0363441265454163,-0.0257016112155306,-0.431152824785378,-0.000169341220444546,0
0.32,0.00077416618477986,0.000446089189681653,-0.0386212586907566,-0.0223181657176695,0.000728803753035177,0.000516888707914266,-0.0364162594759682,-0.0257596232433369,-0.431153430079067,-0.000169716079872063,0
0.33,0.000774381444917576,0.000446223860729648,-0.0386360623288629,-0.0223249077555218,0.000729016352903232,0.000517027575006184,-0.0364285857888074,-0.0257702339143406,-0.431153994926818,-0.000161109238556533,0
0.34,0.000774333405048442,0.000446245796339554,-0.0386381783541363,-0.0223259909791573,0.000729016461669503,0.000516974401241991,-0.0364304670405501,-0.0257716854500215,-0.43115449284378,-0.000151954721701737,0
0.35,0.00077424725793181,0.000446249319960863,-0.0386379822183068,-0.0223261717473533,0.000728983884460168,0.000516894349144798,-0.0364305604763482,-0.0257714159132486,-0.431154926652866,-0.000143688450968121,0
0.36,0.000774164137427885,0.000446249843007425,-0.0386374296391048,-0.0223262011830027,0.000728949816737597,0.000516818342110491,-0.0364303659999395,-0.0257708878677305,-0.431155303661776,-0.000136450074985417,0
0.37,0.000774090388327001,0.000446249882685105,-0.0386368756197286,-0.0223262058543401,0.000728919200730981,0.000516751086987173,-0.0364301471466035,-0.0257703706682998,-0.431155631129702,-0.000130152622988557,0
0.38,0.000774026068861813,0.000446249849399783,-0.0386363794116862,-0.0223262061316087,0.000728892436989036,0.000516692460431914,-0.0364299473518248,-0.0257699093948374,-0.431155915533644,-0.000124681401493817,0
0.39,0.000773970131299781,0.000446249809421738,-0.0386359420225237,-0.02232620638323,0.00072886915078483,0.000516641478771632,-0.0364297711511981,-0.0257695029309012,-0.431156162530536,-0.000119929438520263,0
0.4,0.000773921527903009,0.000446249772891981,-0.0386355582516036,-0.0223262066123756,0.000728848916011365,0.000516597182325776,-0.0364296165009839,-0.0257691463712475,-0.431156377039153,-0.000115802447629763,0
0.41,0.000773879327348926,0.00044624974087032,-0.0386352226924427,-0.0223262068218757,0.000728831346627319,0.000516558721442454,-0.0364294812544426,-0.0257688346473025,-0.431156563332501,-0.000112218283845158,0
0.42,0.000773842869465322,0.000446249713011277,-0.0386349380832479,-0.0223261885643747,0.000728816168341929,0.000516525493802929,-0.0364293498925122,-0.0257685778210079,-0.431156725122002,-0.000109105558097614,0
0.43,0.000773811029874863,0.000446249688808281,-0.0386346792891577,-0.0223261887428602,0.000728802912462435,0.000516496475790257,-0.0364292455196037,-0.0257683375177818,-0.431156865630489,-0.000106402262223385,0
0.44,0.000773783381235982,0.000446249667786953,-0.0386344519054654,-0.0223261889083965,0.000728791401411792,0.000516471277328364,-0.0364291537857309,-0.0257681264290731,-0.431156987657382,-0.000104054542530133,0
0.45,0.000773759399679732,0.000446249649530161,-0.0386342531699079,-0.0223261890625935,0.000728781417132614,0.000516449420892995,-0.0364290736005989,-0.0257679419561857,-0.431157093633288,-0.000102015628610098,0
0.46,0.000773738561337164,0.00044624963367424,-0.0386340772498594,-0.0223261892070733,0.00072877274145063,0.000516430429170311,-0.0364290025825279,-0.0257677787226668,-0.431157185669915,-0.00010024490190969,0
0.47,0.000773720458754655,0.000446249619904011,-0.0386339214301783,-0.0223261893430895,0.000728765204743858,0.000516413930790631,-0.0364289396451924,-0.0257676341945395,-0.431157265600642,-9.8707086599246e-05,0
0.48,0.000773704742686238,0.000446249607944746,-0.0386337836027355,-0.0223261894717262,0.000728758661628337,0.00051639960742403,-0.0364288839495776,-0.0257675063981484,-0.431157335017597,-9.73715468309024e-05,0
0.49,0.00077369106388595,0.000446249597558324,-0.0386336596417123,-0.0223261895940642,0.000728752966645059,0.000516387140877815,-0.0364288338080376,-0.0257673915344209,-0.431157395303822,-9.62116764231059e-05,0
0.5,0.000773679189523146,0.000446249588538021,-0.0386335494558727,-0.0223261897108181,0.000728748022921828,0.000516376318840312,-0.0364287892140414,-0.0257672894764222,-0.431157447660225,-9.52043688188164e-05,0
0.51,2.81642226293545,-0.0237747751594902,1.71541883308884,1.19250867323224,-0.313742478663734,2.79899361560084,1.00947626605595,1.82912448371338,0.103183946489505,31.2006757078456,306.23707599587
0.52,2.53234014346099,0.0176513929946846,0.274884088781762,-0.87756640183739,-1.08448739180716,2.28843729887231,-0.909831583748299,-0.13375552741201,0.449519641314772,62.6879077325703,306.23707599587
0.53,2.20467147667898,-0.0420023918049794,2.57039287838319,2.10951074197434,-1.89475767589454,1.12793345133387,-1.0698390909379,3.14839632817238,1.014796792272,91.0659208256209,306.23707599587
0.54,1.95554786686201,0.0650990122662658,2.03702727249206,-3.24750864260991,-1.92659654282775,-0.341512960443334,-1.31991899839987,-3.59911188077914,1.77951334553347,117.307441419002,306.23707599587
0.55,1.71000903599572,-0.0240868121764926,2.02363744662207,1.20995500958351,-0.659925837913052,-1.57772271523313,-1.91665586635309,-1.37314599754055,2.73134496621916,141.967666554935,306.23707599587
0.56,1.49739941492057,-0.0165709472129064,2.39364804182477,0.834454559067499,0.986058949437173,-1.12701701510264,0.922068544925623,-2.36128248156353,-2.43386936306659,162.303667617526,306.23707599587
0.57,1.3595776845734,0.0169071808196588,0.876939476046845,-0.837277980879651,1.26399012862607,0.501065153337456,0.492934965658084,1.1077329919917,-1.18094896478941,179.146907552206,306.23707599587
0.58,1.15213693117911,0.0487608007813947,3.58589017482445,-2.42867533509834,-0.169240464452044,1.14068172119646,-3.06094112599072,3.06393727945534,0.189590118279378,194.648654806674,306.23707599587
0.59,1.01435861031207,-0.018882527637328,3.13299293515159,0.94712858820378,-1.00731094092047,-0.120849528199833,-3.21239165094647,0.627086258207018,1.67158497233156,209.318872275898,306.23707599587
0.6,0.940512768148901,-0.0249549191190298,0.886561976804125,1.25503938739766,0.127333132410391,-0.932187367662694,-1.15091426935,-1.01809250426516,-3.03236384314445,221.153697747998,306.23707599587
0.61,0.801239772304175,-0.0291210752904882,2.66614310017485,1.46761004042197,0.779818182936057,0.186324478559387,2.90293296268266,-0.913880996370869,-1.37258928787589,231.642558110993,306.23707599587
0.62,0.705211261810123,-0.0111611984734951,2.46994359731677,0.55884815097337,-0.260722013840368,0.655340772143938,-0.354143630898919,2.50749175840444,0.362819134059021,241.608452896113,306.23707599587
0.63,0.587889904806257,0.00509661134169316,4.30912378987056,-0.248936286142516,-0.49024836904453,-0.324495072796887,-3.4333475591803,-2.61584434721516,2.16416032112331,249.617790559867,306.23707599587
0.64,0.602807509653574,-0.0163734994458697,-0.08054903188319,0.827205770755506,0.474843269773525,-0.371710713229569,-0.589447000738852,-0.585926417759518,-2.26212095310291,256.970856720445,306.23707599587
0.65,0.471003859288478,-0.0248687277466521,3.22368465936092,1.24529737633354,0.139691695043092,0.450498967169033,2.28410435134212,2.59341004291302,-0.353431060993996,263.484437275747,306.23707599587
0.66,0.44327216095996,-0.00764475290281158,1.90566609090139,0.391226167446405,-0.442895589490496,-0.0198027204930073,-1.91568181834363,0.338798369201833,1.59823403221031,268.96352055822,306.23707599587
0.67,0.395781644693418,0.0325719423988704,1.60964341652431,-1.63203979274845,0.142105655609656,-0.370823440941389,2.16827162738663,-0.743709596108982,-2.69352530798782,274.266152615041,306.23707599587
0.68,0.304053680109858,-0.00883050165491545,4.05688740019177,0.447005183274858,0.181160071541402,0.244351481736738,2.86093203213284,2.91087906296803,-0.667003172711669,278.522721647284,306.23707599587
0.69,0.319285481632558,0.00334856202955028,1.34319827979044,-0.170607822987984,-0.313427893388391,0.0609703804737669,-1.35192002038312,0.0748392048595694,1.38915546002669,282.479286322812,306.23707599587
0.7,0.292139197817543,-0.00194317948589737,0.963561711911791,0.0994498876590027,0.0968287128696576,-0.275632522050641,0.219263120320931,-0.943538625009543,-2.8104148341848,285.871785799689,306.23707599587
0.71,0.215646904462201,0.0469556936933133,3.30628399548821,-2.34174624007676,0.175350373203156,0.134017428686958,0.354317685373235,4.03605603151974,-0.703819279498412,288.856705298605,306.23707599587
0.72,0.177802002398442,0.0641874541773342,3.80823476377576,-3.21311582195084,-0.166524946536891,0.0894596194467017,-4.23655654434782,-2.62266161520023,1.42426738675979,291.589805939669,306.23707599587
0.73,0.141938570203069,0.0183176617256074,4.44585228844959,-0.909297497251335,0.0423557667895151,-0.136704365190207,2.67546620664282,-3.66528376614039,-2.71279365642805,293.919752067563,306.23707599587
0.74,0.167803184939114,-0.0156915125750355,2.09774386882825,0.78174066442233,0.0743978440273901,0.151225306237677,1.76352499557619,1.37899506728486,-0.550440761678046,296.012570065608,306.23707599587
0.75,0.136939815954926,0.00411995292661285,2.7242760154276,-0.199877570413165,-0.136957602737033,-0.00347883003487823,-2.7090036342006,-0.35061397758261,1.62626844000329,297.812148960337,306.23707599587
0.76,0.0862255497300854,-0.00462973086275972,4.44091454152538,0.226351121724889,0.05742404665292,-0.0644884384996278,2.59433947647885,-3.61142070053063,-2.46771793196293,299.461995716787,306.23707599587
0.77,0.118111853560181,0.00967836598490888,2.11612632482977,-0.479612806420691,0.0405280891513988,0.111362267888615,0.0962848596256543,2.16765963484288,-0.267270763034937,300.888073110437,306.23707599587
0.78,0.144736740424852,0.0279906462139182,0.136821524045312,-1.40563504505021,-0.145003743592424,-0.0265728178495685,0.383832408952511,-1.35911835067926,1.94307320064912,302.187953319714,306.23707599587
0.79,0.0898121782303798,-0.029850817525341,2.33475572759561,1.49639630829727,0.0921643100195528,-0.0215183322782338,1.20766072433824,-2.49636571718109,-2.12104812683247,303.25422776917,306.23707599587
0.8,0.0445328214638338,0.0246778892006123,4.11583082793444,-1.24056235708319,0.0198516498763005,0.0468837114584177,-1.66704017067739,3.96232702276518,0.105489953619225,304.220265463812,306.23707599587
0.81,0.0711096336161802,-0.0327927945960316,2.34933194277456,1.64170446715176,-0.0283827634072229,-0.0729819574402777,-2.83045697015885,-0.450630086530109,2.33859646711676,305.041480727831,306.23707599587
0.82,0.106026269784009,0.0169558316129431,0.2051704552204,-0.844741582707161,0.102787902693816,-0.0310437943847822,0.316778213394379,0.809527529345736,-1.70552517135535,305.837025139698,306.23707599587
0.83,0.0511336627240203,0.0187679909544812,2.62127088595606,-0.939994853688825,-0.0101215922633991,0.0535204850323206,-2.15160119048105,1.76784153691524,0.538680800775161,306.467108955576,306.23707599587
0.84,0.0206572197825741,-0.0364412444942537,3.82831726409951,1.82979600910115,0.0270148301322779,-0.0320138092447574,-3.04398207092308,-2.95606827753076,2.78740688973842,307.079841897773,306.23707599587
0.85,0.0121324177081265,-0.0127601241229886,3.97325245486086,0.635676231090636,0.00737284761429509,0.0159892915770187,3.96612692659987,0.678716835602982,-1.24266527372462,307.609721218968,306.23707599587
0.86,0.0191861053046293,0.0727594546007249,3.38825766306182,-3.63416360483596,0.0221751010549478,0.0719048660645309,-4.79723036169829,-1.2938376848784,1.01383219561727,308.042871866605,306.23707599587
0.87,-0.012486787934198,-0.0479742761045178,4.79316808656754,2.39621547583514,0.0459222636822729,0.0186707455384605,-1.74689585825888,-5.06603037625312,-3.01006405926371,308.397518247771,306.23707599587
0.88,0.0314526007706466,-0.0302951066133821,2.39568090402069,1.52220119731873,-0.000810159564453145,0.0436623776429318,2.74540393716478,0.720514191954679,-0.748101852036884,308.77781455829,306.23707599587
0.89,0.0149976283751189,0.0331249763175356,3.09662284574436,-1.66237506825302,-0.0131679678954655,0.0338939158909008,-3.18271058990201,-1.49094507519918,1.51620855138491,309.011071882093,306.23707599587
0.9,0.0374160425985357,-0.000852351256747808,1.82441382492407,0.0485194153320728,0.0230490727683593,-0.0294860473939657,1.05166228908836,-1.49159189054771,-2.50089029820913,309.291717357924,306.23707599587
0.91,0.0458433927729395,0.0111736138887549,1.30850940208319,-0.564506375259874,0.0214597837321157,0.0420231363708112,-0.247021335851164,1.40351158266808,-0.233070861724137,309.464106150354,306.23707599587
0.92,-0.000805808504349082,-0.0252091915793568,3.51288555144978,1.26604153536509,0.012035114165797,-0.0221654843043554,-3.70740443304442,-0.44539694284626,2.03626947187871,309.686905949438,306.23707599587
0.93,0.0374201603591649,-0.000888622757495875,1.51586968146046,0.0383630421157955,0.0347367228294135,-0.0139433905052989,1.37783440316174,-0.633170570727474,-1.97625345564018,309.830263753191,306.23707599587
0.94,-0.0228744258676874,0.0245595199790362,4.42979474738325,-1.22539562658605,0.0301588129278448,-0.0147260104291782,-2.46293511342933,3.88054462319882,0.295658556501164,310.039304599941,306.23707599587
0.95,0.00627934865265048,-0.0146958534030123,2.87101279235022,0.728600030523069,0.00894945876297727,-0.0132402988861332,-2.16796401059536,-2.01829247312676,2.56898794142224,310.207098411773,306.23707599587
0.96,-0.0310599296757117,-0.0134913123523215,4.66818940320299,0.677350251196107,-0.032555413169491,0.00932093417055329,4.71666591809097,-0.0621150874681938,-1.43987132877365,310.30802376588,306.23707599587
