t,iq,id,vq,vd,ia,ib,va,vb,theta_e,omega,r
0,0,0,0,0,0,0,0,0,0,0,0
0.01,0.00110377109924544,0.00062393131344375,-0.0539828927319824,-0.0312578498616244,-0.000636943928276087,0.00109631352981588,0.0307759509070842,-0.054259070499312,1.04081502680443,-0.00304235973064477,0
0.02,0.00123049093204265,0.000697587537256045,-0.060464904590896,-0.0349478915419902,-0.000709018742559903,0.00122393983866566,0.0345020355238083,-0.0607204195895478,1.04079324222968,-0.00311585492585637,0
0.03,0.00126111324486937,0.000715613156864402,-0.0620353397691483,-0.0358509294495573,-0.000726300857239396,0.00125498839494065,0.0353991877513224,-0.0622942214753297,1.04077221727714,-0.00291090680368382,0
0.04,0.00124188263128136,0.000706111655873294,-0.0611929001207082,-0.0353749316189787,-0.000714489917218518,0.00123708136297962,0.0349118655610459,-0.0614582659638055,1.04075411956327,-0.00259730563935929,0
0.05,0.0012576760973283,0.000715661893223301,-0.0620318450673513,-0.0358533814440405,-0.00072326647637603,0.00125331828174391,0.0353927365383964,-0.0622958181883455,1.04073695956331,-0.00240234916275776,0
0.06,0.0012562442628293,0.000715722194267699,-0.0620341248172551,-0.0358564102868979,-0.000721981207732561,0.00125265759205776,0.0353922059080429,-0.0623001329169355,1.04072145053812,-0.00217888812272441,0
0.07,0.00128943645131983,0.000735081464669063,-0.0636950702381545,-0.036826263163837,-0.000740812610556023,0.00128615232291259,0.0363339780211065,-0.0639771652421187,1.04070761984853,-0.00208333297506254,0
0.08,0.00125383008173869,0.000715845995657163,-0.0620395988273728,-0.0358626061569284,-0.000719802521122202,0.00125156290051973,0.0353921426455084,-0.0623091853741349,1.04069491410925,-0.0017966452717657,0
0.09,0.00125243759817796,0.000715714422177041,-0.0620243896570354,-0.0358560038466049,-0.000718653553999168,0.00125075342924429,0.0353816558298312,-0.0622961985591005,1.04068362475729,-0.00163292841106152,0
0.1,0.00125141276493782,0.000715711120723402,-0.062021664128028,-0.0358558395271376,-0.000717758352348232,0.00125023968270521,0.0353787548676033,-0.062295037951861,1.04067346987782,-0.00148634956103854,0
0.11,0.0012504927055102,0.000715708920903196,-0.0620192985650493,-0.0358557217937637,-0.000716954270900545,0.00124977911625699,0.0353762044444324,-0.0622940634327079,1.04066433453307,-0.00135449210988226,0
0.12,0.00124966485429944,0.000715706946464869,-0.062017157648333,-0.0358556338675151,-0.00071623078116178,0.00124936469831899,0.0353738899135822,-0.0622931957375864,1.04065611635621,-0.00123587288163785,0
0.13,0.00130739719325305,0.000748573573737773,-0.0648333538439008,-0.0375022032062093,-0.000749408719182625,0.00130691866152318,0.036970396687674,-0.0651380747698632,1.04064793844065,-0.00129404239983673,0
0.14,0.00141292477780187,0.000810021110045646,-0.0702576497011868,-0.0405806102731722,-0.000809369027249122,0.00141329841299559,0.0400929761539702,-0.0705370578830372,1.04064080923226,-0.00151085677635661,0
0.15,0.00124869216334503,0.00071633366216752,-0.0620705269918205,-0.0358870257393687,-0.000715047417625994,0.00124942915961651,0.035402698519151,-0.0623480382612198,1.04063427715859,-0.000924342713114467,0
0.16,0.00124695008540996,0.000715704679157821,-0.0620105440786281,-0.0358555185010252,-0.000713856046501485,0.00124800931412613,0.0353665578620112,-0.0622907085278202,1.04062907164541,-0.000845542964520595,0
0.17,0.00124646985746127,0.000715699347855987,-0.0620088722464747,-0.0358552505649688,-0.000713438602051723,0.00124776521156165,0.0353649596391154,-0.0622897973995746,1.04062439374719,-0.000777995994712659,0
0.18,0.00124604563273636,0.000715698307226074,-0.0620077377738656,-0.0358552188939534,-0.00071306789110715,0.0012475527918688,0.0353637347958562,-0.0622893452129185,1.04062018553701,-0.000717255461775192,0
0.19,0.0012456644743919,0.000715697396101152,-0.0620067362418924,-0.0358551603653381,-0.000712734797528233,0.00124736195786965,0.0353626645453658,-0.0622889221326525,1.04061639982161,-0.000662613323662908,0
0.2,0.00124532139114531,0.000715696576509628,-0.0620058209268018,-0.035855128570439,-0.000712434981072685,0.00124719018381947,0.0353616788345715,-0.0622885522677317,1.04061299418372,-0.000613457131762725,0
0.21,0.00124501310879054,0.000715695839115242,-0.0620050107202612,-0.0358550699442959,-0.000712165573782586,0.00124703583376985,0.0353608186710559,-0.0622882003114776,1.04060993046388,-0.000569236108345978,0
0.22,0.0012447354509564,0.000715695175681793,-0.0620042608950665,-0.0358550409551937,-0.000711922933696662,0.00124689681362916,0.0353600147735356,-0.062287893576982,1.04060717433501,-0.000529454773857497,0
0.23,0.00124448561638388,0.000715694578797078,-0.0620035790160453,-0.0358550119172419,-0.000711704609128793,0.0012467717228309,0.035359286756061,-0.0622876113724646,1.04060469491504,-0.000493667393752865,0
0.24,0.00124426104393327,0.000715694041790972,-0.0620029699413678,-0.035854979923797,-0.000711508359091656,0.00124665928057658,0.0353586385488362,-0.0622873546304448,1.04060246442327,-0.000461472984211728,0
0.25,0.00124405859768882,0.000715693558661327,-0.0620023963507598,-0.0358549804608552,-0.000711331449917623,0.00124655791391771,0.0353580184529393,-0.0622871359765933,1.0406004578682,-0.00043251081926524,0
0.26,0.00125425229397228,0.000721417684844203,-0.0625011609319868,-0.0361417402381026,-0.00071722869413943,0.001256652415445,0.0356431798826918,-0.0627868157588412,1.04059867890644,-0.000438047361006162,0
0.27,0.00120668782963663,0.000694695431361752,-0.0602201106131149,-0.0348029954785539,-0.000689705839985927,0.00120954665674266,0.0343521999813096,-0.0604783975728536,1.04059686155449,-0.000269234864091094,0
0.28,0.00118420145093863,0.000681285770007711,-0.0588622787547096,-0.0341311869851693,-0.000677086197802222,0.0011866076257828,0.0335204352796683,-0.0592122132999206,1.04059530917926,-0.000179632157796912,0
0.29,0.00124299324844549,0.000715461529667841,-0.0619793856862327,-0.0358433434327947,-0.000710521986114472,0.00124582339172279,0.0353436661951861,-0.0622656789762009,1.04059426432094,-0.000341784999727527,0
0.3,0.00124092496393521,0.000714391796133354,-0.061880798239261,-0.0357897528564113,-0.000709278385803943,0.00124385472460878,0.0352857028127486,-0.0621695968883627,1.04059406045734,-0.000332680496376921,0
0.31,0.00124327998243413,0.000715683028472288,-0.0619993977018649,-0.0358544275925071,-0.000710655648910217,0.00124616044738897,0.0353552408263953,-0.0622854095233221,1.04059290785177,-0.000323479572554852,0
0.32,0.00124319278776335,0.000715691429919595,-0.0619999639774387,-0.0358548585971049,-0.000710574872298464,0.00124612434422299,0.0353554461771767,-0.062286104741225,1.04059186083289,-0.000308422482419998,0
0.33,0.0012430979092789,0.000715691261012286,-0.0619996778656557,-0.035854861810696,-0.000710491931923873,0.00124607688679873,0.0353551390504442,-0.062285996127805,1.04059091885689,-0.000294826614089783,0
0.34,0.00124301280238489,0.00071569105728285,-0.0619994283749779,-0.035854832455994,-0.000710417557067106,0.00124603427359691,0.0353548858777355,-0.0622858745932311,1.04059007145296,-0.000282595363858893,0
0.35,0.00124293585185725,0.000715690873655291,-0.0619991798715213,-0.0358548327189871,-0.000710350314639964,0.00124599574194958,0.0353546238780288,-0.0622857761008958,1.0405893091265,-0.000271592100195387,0
0.36,0.00124286670115617,0.000715690708456333,-0.0619989553804996,-0.0358548329634575,-0.000710289887239333,0.00124596111620672,0.0353543873705322,-0.062285687029726,1.04058862333603,-0.000261693538852044,0
0.37,0.00124280487732622,0.000715690559839713,-0.0619987679792731,-0.0358548035604412,-0.000710235858189828,0.00124593016108082,0.0353542021422252,-0.0622855887039068,1.04058800639773,-0.000252788770278819,0
0.38,0.00124274888155649,0.000715690426141012,-0.0619985758138673,-0.0358548037749693,-0.000710186926680505,0.00124590212209945,0.0353540016839015,-0.0622855113298759,1.04058745139852,-0.000244778019970934,0
0.39,0.00124269859013752,0.000715690305862636,-0.0619984024085188,-0.0358548039758167,-0.000710142978987012,0.00124587693984237,0.0353538208875091,-0.0622854414611215,1.04058695212007,-0.000237571530552152,0
0.4,0.00124265318816206,0.000715690197658365,-0.0619982337713264,-0.0358548041649228,-0.000710103305791395,0.0012458542050247,0.0353536473328092,-0.0622853722212234,1.0405865029687,-0.000231088556080176,0
0.41,0.00124261244279947,0.0007156901003162,-0.0619980823309388,-0.035854804342837,-0.000710067700565681,0.00124583380244078,0.0353534914281995,-0.0622853100739911,1.04058609891085,-0.000225256457319008,0
0.42,0.00124257577197313,0.000715690012745467,-0.0619979406663126,-0.0358548045109541,-0.000710035656058267,0.00124581544000873,0.0353533464888568,-0.0622852514277753,1.04058573541961,-0.000220009887850033,0
0.43,0.00124254316838866,0.000715689933965881,-0.0619978278440959,-0.0358547750454201,-0.00071000716139396,0.00124579911609324,0.035353243691151,-0.0622851805123653,1.04058540842244,-0.000215290061877449,0
0.44,0.00124251348248163,0.000715689863094547,-0.0619977038842005,-0.035854775197489,-0.000709981220721343,0.00124578425118796,0.0353531183517583,-0.0622851283548654,1.04058511425533,-0.000211044095565332,0
0.45,0.00124248682337296,0.000715689799338254,-0.0619975900470383,-0.0358547753422303,-0.00070995792447079,0.00124577090213786,0.0353530035884916,-0.0622850802661001,1.04058484962183,-0.000207224414496499,0
0.46,0.00124246272540137,0.0007156897419821,-0.0619974772279269,-0.0358547754807611,-0.000709936867582339,0.00124575883494262,0.0353528913615216,-0.0622850317474716,1.0405846115574,-0.000203788220613778,0
0.47,0.00124244118856686,0.00071568969038415,-0.0619973781496069,-0.0358547756130856,-0.000709918047054785,0.0012457480509459,0.0353527924805582,-0.0622849893274187,1.04058439739382,-0.000200697012686324,0
0.48,0.00124242174720814,0.000715689643966165,-0.0619972810471324,-0.0358547757403192,-0.000709901058465037,0.00124573831586187,0.0353526966460179,-0.0622849471419888,1.04058420473249,-0.000197916154918559,0
0.49,0.00124240428490988,0.000715689602208339,-0.0619971904004935,-0.0358547758627617,-0.000709885798952799,0.00124572957190423,0.0353526075881126,-0.0622849075334053,1.04058403141368,-0.000195414488869636,0
0.5,0.00124238856884145,0.000715689564642323,-0.0619971038580269,-0.035854775980981,-0.000709872065472488,0.00124572170230258,0.0353525231568495,-0.0622848693815257,1.04058387549595,-0.00019316398433442,0
0.51,4.53319333022806,0.0502036917517049,13.342102749081,-2.50693830080858,-0.860093266233194,4.45113488374257,-5.13217433408751,12.5681037557632,0.201951886125493,61.96956697067,3779.96708817923
0.52,4.50427871031037,0.0211139002854646,14.78986353817,-1.03799944211881,-3.54926680382713,2.77338739670304,-12.3317700110998,8.23073233150417,0.912189374046194,131.97646657221,3779.96708817923
0.53,4.51032090920093,-0.016591805204788,14.4899234100113,0.864881384447309,-3.77785340436136,-2.46395893779307,-12.6355498180332,-7.14484296770457,2.14504592738054,205.350596231398,3779.96708817923
0.54,4.48669258209279,0.038263584195986,15.6737628536165,-1.89074619480222,3.17875484683072,-3.1666057619843,12.5210793523652,-9.61583771786642,-2.34575182025838,282.679463264802,3779.96708817923
0.55,4.49301698581952,0.046038475706804,15.3600564993493,-2.25464184935587,0.119556014058332,4.49166200148794,-2.00298808287755,15.3948947470231,-0.0163647243837884,352.42857298376,3779.96708817923
0.56,4.45390105200378,0.0627732045421623,17.3185879696552,-3.10698719557335,-1.39300096009073,-4.23092464851776,-2.21911103309322,-17.4545812014768,2.83762124586373,427.410707142577,3779.96708817923
0.57,4.39114572133633,0.104720530380191,20.4591892992473,-5.16836045125578,0.348705637226547,4.3785307483287,-4.02283757616705,20.7149017466248,-0.0556285482289048,497.343054130962,3779.96708817923
0.58,4.4036386739603,0.0606407025091006,19.8375407483769,-2.96533871923132,2.86729941103892,-3.34279896988369,15.3454845004434,-12.9165538016121,-2.41884442382006,570.428555512907,3779.96708817923
0.59,4.38952525680246,0.0521179046370657,20.546321978222,-2.54558428705122,-3.96378499151338,-1.88654626159651,-17.3249010634541,-11.3348643281151,2.02688863975964,643.148220186947,3779.96708817923
0.6,4.33743311599385,0.0141607246095867,23.1541578338087,-0.644182434663324,-2.83758214360875,3.28049602043873,-15.6904672341069,17.0393437073577,0.716394715319501,715.012119334655,3779.96708817923
0.61,4.38304992931894,0.0955711693713944,20.8767247962323,-4.71426594940208,0.396406280014655,4.3661335976448,-3.26916146015323,21.1512298698388,-0.0687416457057042,786.367368104062,3779.96708817923
0.62,4.23869050573679,0.0756581728426304,28.0982546649959,-3.70185099591963,1.4481476678935,3.98435561848032,5.62422382551103,27.7773958890229,-0.330766322141395,857.244966951222,3779.96708817923
0.63,4.20875288330413,0.0881865807475024,29.598742753335,-4.29572326749375,0.389037503697957,4.19166166650664,-2.16734553590892,29.8302099271353,-0.0715970368601039,927.703124995114,3779.96708817923
0.64,4.2434627046275,0.119169713289353,27.867001242026,-5.81813441735948,-2.66632696473622,3.30331313430177,-22.5277713175518,17.4045961109596,0.707171857432867,998.608120296393,3779.96708817923
0.65,4.23093894174158,0.102379623093189,28.4970780790711,-5.03078057344031,-3.87894504794367,-1.69266394508874,-23.7122373575594,-16.5868023356385,2.0064529269515,1070.07034762244,3779.96708817923
0.66,4.21594781518315,0.108833316916982,29.2506005683321,-5.2808224667164,2.56894586392847,-3.34463418319904,22.5139612397812,-19.4063460967467,-2.46081160466569,1139.71647439653,3779.96708817923
0.67,4.2074741307816,0.0868211976924311,29.6782993746338,-4.22589772805338,0.620035134561099,4.16244314237143,-0.425648253355254,29.9746307557369,-0.127240050165216,1210.88600648094,3779.96708817923
0.68,4.1913170026757,0.0376387650977457,30.4903202033062,-1.78649145296618,-1.74374381175993,-3.81154987013228,-10.8039417371092,-28.5679194333926,2.72150792547467,1281.22556424883,3779.96708817923
0.69,4.07051027648937,0.0830983362190789,36.5349069682692,-3.96408406629451,0.88297252577717,3.97445829808423,3.30740271332257,36.6001977720974,-0.198199411459168,1350.67715777461,3779.96708817923
0.7,4.1910926389116,0.112058412881352,30.5101196630135,-5.40693117879231,2.0473824728096,-3.65869370211125,20.2515535006998,-23.4515860323325,-2.60468266793915,1420.57525873824,3779.96708817923
0.71,4.10543026966702,0.155771405313621,34.7976084155569,-7.59405918988711,-4.04520064911717,-0.71775632229444,-32.398038928219,-14.7956196229679,1.78432731226722,1490.49265779384,3779.96708817923
0.72,4.01578483972143,0.177995102678675,39.2843020251539,-8.69431978637809,-1.40699154852666,3.76544617779734,-23.3679410893691,32.7534259489765,0.401889049223077,1560.26411783211,3779.96708817923
0.73,3.99355128597079,0.0765900812199491,40.4004616904438,-3.61060614190276,1.87622646385934,3.52620081256501,15.0704143233415,37.6578862077492,-0.469806174859401,1630.06104397008,3779.96708817923
0.74,3.9986418636974,0.144381286863454,40.1503837997574,-7.10717848385149,3.05207309728418,2.58743744251797,24.8805706322628,32.3035990298624,-0.83150995561319,1700.01260147156,3779.96708817923
0.75,4.02210432703697,0.0987661735693576,38.981735617488,-4.7393647050909,2.61829481840911,3.05476843942435,20.9612534881304,33.2063720054741,-0.684060616031365,1768.96642688845,3779.96708817923
0.76,3.9458868213024,0.150642523815239,42.7970283245288,-7.37057526691576,0.264328644768287,3.93990435722294,-6.13379518436275,42.9917151299187,-0.0288311580344418,1838.34428111407,3779.96708817923
0.77,3.93874477226752,0.0804738062323613,43.1585068017227,-3.81689028404874,-3.53483060958241,1.73929841491145,-40.7205358879027,14.8007877424426,1.13396082463351,1907.35576331816,3779.96708817923
0.78,3.86247378561798,0.151405520144408,46.9763272470855,-7.45171837717658,-1.42759616757374,-3.59215764665821,-8.5988247186555,-46.7799491433654,2.80249122800191,1976.60563958838,3779.96708817923
0.79,3.80157402553588,0.14045203948109,48,-6.75479834232242,3.70734254501967,0.852820673360215,44.5927962219277,19.0028899316676,-1.30776518859234,2044.8840244287,3779.96708817923
0.8,3.83825918472107,0.110153702574913,48,-5.2423663293213,-1.1322555654071,3.66910952983026,-20.4265850274845,43.7519945699136,0.328011031834313,2113.53327420684,3779.96708817923
0.81,3.8831905797523,0.0691157072570261,45.9527895986208,-3.19696288675364,1.3242916313281,-3.65105433195139,19.4206615859364,-41.7698138271997,-2.77583896934691,2182.07892485738,3779.96708817923
0.82,3.86186660714889,0.0807749148799179,47.0228665182997,-3.77374651114731,-2.98575795591894,2.45067086875254,-39.2958574329834,26.1003204373982,0.904421346682939,2250.3388749897,3779.96708817923
0.83,3.89190362325754,0.208241543145335,45.5247606585914,-10.1255482026127,3.70156050822503,1.22013448314748,38.7340077837047,25.9751265721145,-1.19892975271469,2318.32471351789,3779.96708817923
0.84,3.78001222707493,0.119605602962065,48,-5.66742509384564,1.13971066920266,-3.60608617861547,21.2526918084031,-43.4101692935122,-2.80384406173858,2386.31681601789,3779.96708817923
0.85,3.71949186921585,0.0664416611398303,48,-3.17344320293218,-2.63741441799676,-2.6235623581765,-31.1424736963003,-36.6635660272904,2.37142271574681,2454.26925743199,3779.96708817923
0.86,3.77130826451447,0.171114149210108,48,-8.29772174292328,-3.73676192835346,-0.537267502146905,-45.6010127167013,-17.1289178097808,1.75893810788572,2521.608749422,3779.96708817923
0.87,3.68530122422091,0.112398161019994,48,-5.44475149174329,-3.68415281469701,-0.145246334910515,-47.502559611959,-8.78362960962752,1.64069013443664,2589.01014119892,3779.96708817923
0.88,3.68231539708397,0.187045878521684,48,-9.08305871367869,-3.40442892763529,-1.41573179697061,-39.4198479879887,-28.8544197689019,2.01564349789702,2656.12186196461,3779.96708817923
0.89,3.7219952077595,0.061392588084427,48,-2.89981097824447,-1.0131680439198,-3.5819698339372,-9.49785505526166,-47.1402126963677,2.88243411213662,2723.3387758567,3779.96708817923
0.9,3.63137906928513,0.248762626886031,48,-12.1111820080418,3.11978454459076,-1.87503098233336,48.2498060824065,-11.0741565205702,-2.04356355870734,2789.88977789667,3779.96708817923
0.91,3.64510677481958,0.211490181407944,48,-10.2279030994036,0.919532710679706,3.53355219158535,-0.653415176838211,49.0732416946086,-0.19662721154254,2856.66258284738,3779.96708817923
0.92,3.69971785403147,0.14173017014426,48,-6.74083796038645,-3.23082453911035,1.80825120988505,-45.8171863193469,15.818480779975,1.09883579391997,2923.33226878698,3779.96708817923
0.93,3.64756220706168,0.232587095596809,48,-11.2876806837274,2.40400344581425,-2.75310265771839,41.8208763776826,-26.1232852876583,-2.36010535961623,2989.81376801268,3779.96708817923
0.94,3.53897670667469,0.265796892384261,48,-12.9306198046628,-2.72696268213588,2.27127247344423,-46.5877369949001,17.3431165084813,0.951281869851632,3056.23958970132,3779.96708817923
0.95,3.60540026266666,0.239340756524386,48,-11.6770229124712,3.61172819892001,-0.107770445375754,47.5424961721124,13.4187898792349,-1.53433979446333,3122.58665663708,3779.96708817923
0.96,3.52372974901509,0.184268764305669,48,-9.0373139105613,-1.52613607708487,-3.18143599586927,-10.1308338484019,-47.7811599718351,2.74656229703381,3187.50214797515,3779.96708817923
0.97,3.06614804916422,0.328700900010861,48,-16.1588655121296,-2.73425146544052,1.42589518015801,-50.5856857114438,2.48944486625508,1.19689724157877,3245.90769769761,3779.96708817923
0.98,2.58834266517534,-0.0457469463497556,48,2.38554005210877,-0.18733166162227,2.58195998884978,-0.244950470962213,48.0586183801302,0.0547547597916686,3298.72273918314,3779.96708817923
0.99,2.36429272288457,0.0640634569360744,48,-2.98739162887132,1.60825368210537,1.73421575935465,29.4289156995531,38.0376580442704,-0.720641036883771,3346.06004038817,3779.96708817923
1,2.10123944148376,0.151528863820047,48,-7.5473921745637,1.99144140547838,0.687262188370545,41.1612011044982,25.8208956520048,-1.16649692406341,3388.7819600748,3779.96708817923
