t,iq,id,vq,vd,ia,ib,va,vb,theta_e,omega,r
0,0,0,0,0,0,0,0,0,0,0,0
0.01,0.000371668822695215,0.000210004459117228,-0.0180555261480362,-0.0105036351664498,0.000351005070679299,-0.000242971247208774,-0.0170242204802053,0.0121038957874586,-1.66196870517479,-0.0021276815006433,0
0.02,0.000494031372468306,0.000276377213990295,-0.0240327863000087,-0.0138233478407574,0.000466810642034349,-0.000320217404085778,-0.0226741199300615,0.0159544366326626,-1.66198677241807,-0.00272151220896593,0
0.03,0.000547750190507336,0.000305231835761821,-0.0266573011946055,-0.0152665420639508,0.000517671376659508,-0.00035385461781755,-0.0251559449659509,0.0176311498899064,-1.6620072978257,-0.00289202075217381,0
0.04,0.000549394040602189,0.000305724769088776,-0.0267657588736205,-0.0152912056700725,0.000519256284851163,-0.000354505792514245,-0.0252613460304131,0.0176661035788027,-1.6620276365092,-0.00275607950871342,0
0.05,0.000563443802349038,0.000313884340379036,-0.0274727346707599,-0.0156993074572289,0.000532497047943744,-0.000363921957941429,-0.0259278431652826,0.0181374296338563,-1.66204740443646,-0.00269754933673983,0
0.06,0.00056708733888494,0.00031628941936914,-0.0276759997249544,-0.0158196022067607,0.000535899265871169,-0.000366659274486836,-0.0261189519162174,0.0182762448428047,-1.66206649082288,-0.0025823951375552,0
0.07,0.000573314855219707,0.000320390084031139,-0.0280024963136175,-0.0160247093282574,0.000541720437962584,-0.000371320207172596,-0.0264250626157397,0.0185107313362692,-1.66208446733421,-0.00249046227296492,0
0.08,0.00056881120757477,0.000318205498493524,-0.0278097532218984,-0.0159154356182043,0.000537428276399732,-0.000368743510939777,-0.0262427637170573,0.0183847985485508,-1.66210186826186,-0.00233922401714628,0
0.09,0.000566786797469572,0.000317559950661341,-0.0277353305316478,-0.015883147377033,0.000535465131313709,-0.000367924841777556,-0.0261712944602403,0.018346287814588,-1.66211825170325,-0.00220992667104943,0
0.1,0.000565567841839412,0.000317368383432056,-0.0276985294179341,-0.0158735734960395,0.00053426303401714,-0.000367631180679722,-0.0261352359758743,0.0183338023316412,-1.66213373199927,-0.00209185849964331,0
0.11,0.000564631371981002,0.000317310772613665,-0.0276741806027503,-0.0158706936666262,0.000533330340814832,-0.000367496204345248,-0.0261109829153973,0.0183290960138617,-1.66214837611097,-0.00198144779554057,0
0.12,0.000563812599301715,0.00031729272879036,-0.0276543950507617,-0.0158697896915579,0.000532511536522323,-0.0003674109230075,-0.0260911083503927,0.0183267524544295,-1.66216223456483,-0.0018773595511057,0
0.13,0.000581343547648054,0.000327671421583471,-0.0285204674140722,-0.0163888883016204,0.00054901733340968,-0.000379353197601236,-0.0269059524696979,0.0189230664264146,-1.66217565386383,-0.00188487174420278,0
0.14,0.000591087634045711,0.000333606080606325,-0.029050705434294,-0.0166857249218876,0.000558174203694663,-0.000386159509100966,-0.0274066412060763,0.0192674056427018,-1.66218863108537,-0.00184952647607737,0
0.15,0.000570564411646854,0.000322095809897912,-0.0280359443464534,-0.0161100137312874,0.000538782489172285,-0.000372830910672693,-0.0264484264678558,0.0186018132232888,-1.66220104835057,-0.00163929537128377,0
0.16,0.000563752054354987,0.000318700187253564,-0.0277228922132003,-0.0159401880548341,0.000532304359965549,-0.000368833643403896,-0.0261519751511792,0.0184044164150973,-1.66221231113618,-0.00151837158082945,0
0.17,0.00056123330085115,0.000317697903505101,-0.0276161901883645,-0.0158900496052814,0.000529883758048812,-0.0003676111788723,-0.0260501029748896,0.0183450203591022,-1.66222281889768,-0.00142823140244495,0
0.18,0.000560073113644869,0.000317401541789969,-0.0275742508423893,-0.0158752301337487,0.000528751839148983,-0.000367215364541131,-0.026009510391766,0.0183266912043366,-1.66223271720796,-0.00135048608647339,0
0.19,0.000559356188527661,0.000317313421285315,-0.0275529483201173,-0.0158708212636635,0.000528042521507171,-0.000367067089851886,-0.0259885280544899,0.0183205987422682,-1.66224207142496,-0.00127925747918389,0
0.2,0.000558796427383935,0.00031728675626964,-0.0275385172691549,-0.015869484928409,0.000527484286524093,-0.000366994087733478,-0.0259741172276347,0.0183181800275474,-1.66225092085024,-0.00121257252402168,0
0.21,0.000558303512895649,0.000317278252462174,-0.0275266372282878,-0.0158690667878612,0.000526991135508247,-0.000366945016443611,-0.0259621716222262,0.0183168960927727,-1.66225929565417,-0.00114968220251862,0
0.22,0.000557848585057616,0.000317275138964131,-0.0275159519047009,-0.0158689030121803,0.000526535485289313,-0.00036690453852009,-0.0259514007383132,0.0183159627579681,-1.66226722220602,-0.00109022597318805,0
0.23,0.000557421445623646,0.000317273647398415,-0.0275060029591122,-0.015868829635666,0.000526107515335909,-0.000366867983996594,-0.0259413626769377,0.0183151755453248,-1.66227472478244,-0.00103397110837834,0
0.24,0.000557018404190417,0.000317272664642638,-0.0274966450197339,-0.015868780976328,0.000525703643878611,-0.000366833920390453,-0.0259319182533117,0.0183144563861308,-1.66228182614998,-0.00098073113348839,0
0.25,0.000556637190638023,0.00031727186079124,-0.0274877988197051,-0.0158687395767792,0.00052532163245575,-0.000366801824048563,-0.0259229897311419,0.0183137812345603,-1.66228854779051,-0.000930340076349445,0
0.26,0.000559169640364037,0.000318954632531199,-0.0276190559541473,-0.0159529128865616,0.000527687436037119,-0.000368712237614281,-0.0260458921633841,0.0184097578142112,-1.66229480844627,-0.000900472229421662,0
0.27,0.000552917479481436,0.000315454486033193,-0.027325889825564,-0.0157778447568992,0.000521778964232885,-0.000364658723135245,-0.0257698348683114,0.0182087959731453,-1.66230104865957,-0.000818828203574663,0
0.28,0.000552036437557411,0.000315157737567245,-0.0272514740850999,-0.0157630072204565,0.000520926641977463,-0.000364285686814162,-0.0256969823059265,0.0181873675063748,-1.66230676479726,-0.000772684456567873,0
0.29,0.000554192541022047,0.00031664629596142,-0.0274031617754425,-0.0158374493616476,0.000522935755803678,-0.000365967819039593,-0.0258411357246518,0.0182754967657229,-1.66231206464916,-0.000747472113930944,0
0.3,0.000545737532834393,0.000312166993295876,-0.0270010161136048,-0.0156134241810217,0.000514923880511806,-0.000360736862167177,-0.0254610660653311,0.0180157708866566,-1.66231650842239,-0.000665674562087917,0
0.31,0.000551887615586502,0.000315763526839694,-0.0273047242345739,-0.0157933084588808,0.000520717836943965,-0.000364882829697966,-0.0257469785916023,0.018222778355867,-1.66232114505431,-0.000668819053322196,0
0.32,0.000553627472875087,0.000316823920356507,-0.0273952420379944,-0.0158463437708487,0.000522351830414845,-0.000366100178222277,-0.0258321871171177,0.0182839822240788,-1.6623256924824,-0.000646535521092761,0
0.33,0.000554002946927805,0.000317136333266123,-0.0274195681372399,-0.0158619684374028,0.000522695582323942,-0.000366447878014335,-0.0258549035892544,0.0183018774974663,-1.66233004619857,-0.000617575001245103,0
0.34,0.000553962336517712,0.000317228157490401,-0.0274234820760665,-0.0158665573669868,0.000522645232525841,-0.000366537767635107,-0.0258583059646502,0.0183069119322391,-1.66233418252103,-0.000587711961875009,0
0.35,0.000553800591154398,0.000317254939042162,-0.0274212347185321,-0.0158678920341998,0.00052248027937265,-0.000366551700004631,-0.0258558742472593,0.0183081369343734,-1.66233810246983,-0.000558682204784383,0
0.36,0.000553608832468757,0.000317262553174967,-0.0274172395581643,-0.0158682812177276,0.00052228726699818,-0.000366543691483144,-0.0258517922807307,0.0183082552327797,-1.662341814312,-0.000530966846695143,0
0.37,0.00055341559489349,0.000317264529312932,-0.0274128903907581,-0.0158683735063145,0.000522093370003029,-0.000366529828568361,-0.025847388556803,0.0183080403676983,-1.66234532814595,-0.000504659354067566,0
0.38,0.000553228783297074,0.000317264856967831,-0.0274085830279185,-0.0158683945900387,0.000521906091700541,-0.00036651481222598,-0.025843036411195,0.0183077535354046,-1.66234865423869,-0.00047973545552282,0
0.39,0.000553050819228838,0.000317264712028969,-0.0274044490315631,-0.0158683923685734,0.000521727732348611,-0.000366500040173107,-0.0258388622940046,0.0183074547230904,-1.66235180252919,-0.000456137058741353,0
0.4,0.00055288220331459,0.000317264440585161,-0.0274005264772543,-0.0158683682073191,0.000521558755349123,-0.000366485907942562,-0.0258349038229034,0.0183071490203992,-1.66235478249358,-0.000433798238076113,0
0.41,0.000552722341814857,0.000317264144025739,-0.0273967988383653,-0.0158683572044729,0.000521398556870839,-0.000366472467067706,-0.0258311411666227,0.0183068701035598,-1.66235760312243,-0.000412653185266395,0
0.42,0.000552570978628795,0.000317263851605772,-0.0273932661970769,-0.0158683432645613,0.000521246876076837,-0.00036645972785376,-0.0258275757224029,0.0183066021754287,-1.66236027293224,-0.000392638549343902,0
0.43,0.0005524277063098,0.00031726357133905,-0.0273899204292956,-0.0158683307541535,0.000521103303527558,-0.000366447665363256,-0.0258241988530467,0.0183063490528467,-1.66236279998712,-0.000373694036082411,0
0.44,0.000552292117401905,0.000317263305007453,-0.0273867528178241,-0.0158683182191309,0.00052096743050356,-0.000366436248211132,-0.0258210018708791,0.0183061086906053,-1.66236519191927,-0.000355762472209159,0
0.45,0.000552163804449089,0.000317263052585603,-0.0273837539384838,-0.0158683042053709,0.000520838848601003,-0.000366425442986166,-0.0258179753916981,0.0183058789680061,-1.66236745595386,-0.000338789709446375,0
0.46,0.000552042301794843,0.000317262813544334,-0.0273809109778459,-0.0158682916248183,0.000520717091648334,-0.000366415210238762,-0.025815106264112,0.0183056617919049,-1.66236959892941,-0.000322724484849877,0
0.47,0.000551927318398481,0.000317262587232941,-0.0273782192602771,-0.0158682790228471,0.00052060186750409,-0.00036640552616402,-0.0258123898464184,0.018305455455335,-1.66237162731952,-0.000307518273409921,0
0.48,0.000551818563219261,0.000317262372991888,-0.0273756735627878,-0.0158682649450422,0.000520492884155698,-0.0003663963667575,-0.0258098209582204,0.0183052581923058,-1.66237354725047,-0.000293125143799492,0
0.49,0.000551715419244484,0.000317262170183875,-0.0273732518619925,-0.0158682654572751,0.000520389525102836,-0.000366387678047644,-0.025807376092873,0.0183050841386658,-1.66237536452249,-0.000279501620354347,0
0.5,0.000551617956353752,0.000317261978201165,-0.0273709660455831,-0.0158682527947899,0.000520291857971585,-0.000366379468737649,-0.025805069526762,0.0183049068762122,-1.66237708462366,-0.000266606551976297,0
0.51,4.72677766999909,-0.0288899607314796,3.66162739906511,1.44944603775448,-0.485673102522927,4.70184893514443,1.08870343245261,3.78459163743096,0.096817128998711,30.1565224815949,3174.63885917651
0.52,4.72692909588047,-0.0151096717685261,3.65456147490743,0.765011138307699,-2.04331000378891,4.26250761970914,-0.878308758956234,3.6289992201092,0.443809744149775,64.5265037673775,3174.63885917651
0.53,4.76255794085852,0.0153223412432505,1.8736649357888,-0.751959411898472,-4.10890420618877,2.40813187731485,-1.99766694967029,0.292215685653819,1.04389490387273,99.3329675873714,3174.63885917651
0.54,4.72718868992223,-0.000492307932973057,3.64269481523793,0.0446715275522821,-4.46738190273985,-1.54557823728476,-3.45721710818275,-1.1484210592042,1.90377192452829,135.660632433659,3174.63885917651
0.55,4.76029158886881,0.0113325691677195,1.98810863564225,-0.544191350022058,-0.49201573356447,-4.73480991763176,0.340630368178687,-2.0329021434463,3.04043035236137,174.675139980433,3174.63885917651
0.56,4.76082991304549,0.0221058129016845,1.96187173505531,-1.07752716228182,4.60032946847441,-1.22595224596992,2.17066809866708,0.546081949612942,-1.82659265824159,211.06048515274,3174.63885917651
0.57,4.72587625105088,0.0369144132633656,3.71022639356112,-1.81124979112126,0.758597900777753,4.66473988975686,-1.22305533039011,3.94341747170125,-0.153401586694109,245.471954690398,3174.63885917651
0.58,4.73819633899647,0.0284333112197615,3.09489946323151,-1.38588115389483,-4.64060398487946,-0.957135129220172,-2.73920483034462,-1.99895626706746,1.78019719796661,282.968493512411,3174.63885917651
0.59,4.69861753586428,0.00945868040618825,5.07454079421273,-0.42993080724585,3.5176032921419,-3.11505430034194,4.09017725239677,-3.03418107816989,-2.29356381084364,318.984253979728,3174.63885917651
0.6,4.72326261828229,0.0707240401679918,3.84302089709258,-3.48621008560598,-0.74186810918819,4.66517345440554,-4.09466502611136,3.18687757851028,0.172674571994876,354.718591624328,3174.63885917651
0.61,4.71011465888006,0.0471211388420014,4.50120964551763,-2.304314697817,-1.12252536248052,-4.57464067573734,1.21440702631647,-4.9087646178962,2.91097083409296,391.316292829345,3174.63885917651
0.62,4.7107006295769,0.00485549503344407,4.47274258164165,-0.188748641072549,1.7283073929252,4.38220008133909,1.46105512277221,4.23159192023028,-0.374632369044572,427.624249756006,3174.63885917651
0.63,4.70144572871991,0.00754309768611372,4.93632373835928,-0.311888915717817,-1.16695430259266,-4.5543239338108,-0.915326119075842,-4.86073501040476,2.89236355463057,462.992467797952,3174.63885917651
0.64,4.70791437282314,0.0390902449075288,4.61380482046844,-1.89045846160426,-0.61390490920643,4.66788030604191,-2.511779084844,4.30720256609428,0.139069254928679,499.934013620939,3174.63885917651
0.65,4.6660689185617,0.0171408515907328,6.70696555250124,-0.790992692820978,3.30448248956338,-3.29437223727523,5.32356144127577,-4.15556854635997,-2.35098887548223,535.992001653152,3174.63885917651
0.66,4.68725295021269,0.0672473751538252,5.64869597126181,-3.28212051631553,-4.65244425153736,-0.574129702314392,-5.14700437817508,-4.02348445882611,1.70792533454038,571.296008680198,3174.63885917651
0.67,4.69579601938644,0.0416886219332691,5.22254766129509,-1.99997171723572,1.21022379793329,4.53735567878474,-0.635836615747193,5.5561319946809,-0.251778731396279,607.29958117545,3174.63885917651
0.68,4.7120138991147,0.0228402051644094,4.41267214253527,-1.05430015408659,4.37216516870892,-1.75720471145243,4.49071193612631,-0.645546713372839,-1.94809857982802,643.505257713874,3174.63885917651
0.69,4.70903563450115,0.0790840554612665,4.56257535339889,-3.86482059830894,-1.19212243462957,-4.5563269193159,2.67426045758962,-5.34810836815492,2.90248054429937,679.664867832106,3174.63885917651
0.7,4.71917961920452,0.0373384280757154,4.05641207862436,-1.7721444936332,-4.66278297802805,-0.728357972660692,-3.71538334013218,-2.4064292413849,1.73366270084425,715.677876061952,3174.63885917651
0.71,4.69334886306675,0.05995571465558,5.34898557706193,-2.89853358980751,-3.41856075381239,3.21629610121075,-5.9013398622727,1.47896298290733,0.828647799884567,751.586067173028,3174.63885917651
0.72,4.67629265042934,0.0333321922771543,6.20292480625594,-1.56018963453962,-0.836198931584135,4.60104285291052,-2.68564695173608,5.80497788957209,0.186906744709873,787.351381228459,3174.63885917651
0.73,4.68251769750759,0.0533573222406931,5.89276786952182,-2.55412556630384,0.943870174056219,4.58671212153494,-1.38550427192869,6.27125573429939,-0.191555972926525,823.170725380927,3174.63885917651
0.74,4.68817994700215,0.0668577899156717,5.61083898311497,-3.22392173259957,1.48049298526379,4.4487797990157,-1.37759995028007,6.32276868225928,-0.30699818704399,859.234896469884,3174.63885917651
0.75,4.67916239889256,0.0635665569729209,6.06286407262972,-3.07086403463026,0.802904252257114,4.61020023687505,-2.07319566527625,6.47227830179216,-0.158844586832026,895.559118734965,3174.63885917651
0.76,4.67406063699741,0.0436903754614681,6.31914745613603,-2.06501910324667,-1.12508038389049,4.53684315543544,-3.57783533733994,5.60312616028283,0.252430789554999,931.154036605273,3174.63885917651
0.77,4.69513560808103,0.0719117340207618,5.26661714420831,-3.46220068836818,-3.70838692879173,2.88050968790715,-6.28998585540297,0.400209556403315,0.92570549756224,966.673631760524,3174.63885917651
0.78,4.67228286931844,0.0369007744553169,6.41051426933393,-1.72462897468651,-4.4861729791223,-1.30607843542222,-5.6454842357205,-3.49249853856712,1.86199729545348,1003.02898786125,3174.63885917651
0.79,4.65405223032844,0.0349442128422411,7.32331446890542,-1.60881425106589,-0.41005314307369,-4.63608452042148,1.01315099376866,-7.42918186402364,3.06088226335017,1038.37334664093,3174.63885917651
0.8,4.62923067635193,0.104116361915413,8.56574016042486,-5.0810948690035,4.52541506161913,-0.980426127643966,9.37411420229675,3.36383895066742,-1.76166070350808,1074.51204223142,3174.63885917651
0.81,4.67303826309474,0.119851167212328,6.37669836953705,-5.84562531697864,0.300177495093503,4.66492705002651,-5.59507682319268,6.59763084638192,-0.0386173885173653,1109.84042023584,3174.63885917651
0.82,4.63107499239193,0.0668363503871405,8.47624229082012,-3.2061847058573,-4.33332290367862,-1.63512546776853,-6.7113508991657,-6.08966935465534,1.94604592749965,1145.97762460593,3174.63885917651
0.83,4.62480769231413,0.0926354457293483,8.79100601992226,-4.47299363324847,3.96745177996061,-2.37839313200758,9.85154198753508,-0.486394236421539,-2.09080319058892,1181.28755027106,3174.63885917651
0.84,4.61755173133424,0.0942867946462949,9.15520476161228,-4.55825431121008,-1.78644515482551,4.25902426618973,-7.87944237800945,6.51995739283182,0.417576238461459,1217.02931005807,3174.63885917651
0.85,4.6201263642107,0.0673462673497691,9.02793907750907,-3.21778447793526,0.143213732360758,-4.61839722932794,3.62575049718427,-8.87196450995068,-3.09601750292098,1252.95317315957,3174.63885917651
0.86,4.63443235095855,0.106401960528621,8.31406261881165,-5.17208795894689,0.407971664776616,4.6176664792463,-4.61969567825541,8.63322320601714,-0.0651663974288183,1288.64889215945,3174.63885917651
0.87,4.60552526880301,0.135944133233469,9.76090050008787,-6.62819793054944,0.258343831601383,-4.60028284713203,7.43851893026472,-9.15841812232052,-3.05598427986328,1324.05910937801,3174.63885917651
0.88,4.65336271321606,0.106956395706874,7.37053915246399,-5.16575149567063,-2.12714614731166,4.14010549132619,-8.05739337380598,4.01101582305223,0.497599614853721,1359.54118731041,3174.63885917651
0.89,4.58856405292957,0.0925962443170794,10.6120556986256,-4.44620768301934,4.18958092088455,-1.87374113464461,11.5057704785611,-0.0416486007589523,-1.97117421781193,1395.07738944265,3174.63885917651
0.9,4.60992143036045,0.1295686037683,9.54581381592902,-6.29056072431929,-4.03649098079052,-2.23044932226128,-5.02620483141997,-10.2679589319076,2.10371063806287,1430.60421225897,3174.63885917651
0.91,4.59926094774816,0.0828473970300039,10.0804720593384,-3.94893465807827,-4.48005556378752,-1.04363168888857,-8.80978727221791,-6.29266637373547,1.81767651978665,1466.13867672298,3174.63885917651
0.92,4.59071773961742,0.122496033777364,10.5092749557513,-5.92884589168316,-0.473711352697482,4.56785422243911,-7.24130527623691,9.65192061712348,0.13001313389049,1501.73364486734,3174.63885917651
0.93,4.57984500938212,0.108524236090596,11.0546149480827,-5.25457815931128,4.43908718780116,1.1319287781839,9.22555989709739,8.04388885227494,-1.29743386331302,1537.39381348706,3174.63885917651
0.94,4.60512973582256,0.129549295948991,9.79207222324719,-6.29826876045343,2.78333950524105,-3.67110665908831,11.0429344105931,-3.68869453974317,-2.46475624915377,1572.9115209777,3174.63885917651
0.95,4.60146915986851,0.113233426731316,9.97686283472566,-5.46545607222381,-1.16271026241358,-4.45358788886314,3.0385963014678,-10.9624784887837,2.9108232082441,1608.15025632581,3174.63885917651
0.96,4.56694019141638,0.119223524280246,11.7050962053805,-5.74947498584982,-3.59307800139703,-2.82151509593566,-5.34646355612194,-11.8945814232021,2.26258699289632,1643.40871088372,3174.63885917651
0.97,4.57038145831852,0.112940741488008,11.5347943174246,-5.4617220711793,-4.39557788412981,-1.25699536601312,-9.37755453231903,-8.65698324599747,1.87403711305301,1679.14071880543,3174.63885917651
