t,iq,id,vq,vd,ia,ib,va,vb,theta_e,omega,r
0,0,0,0,0,0,0,0,0,0,0,0
0.01,0.00104149179585505,0.000591874148713555,-0.0511923720205536,-0.0296561911307457,-0.00116235344477668,0.000289749267754995,0.0572848186568949,-0.0147850660100232,1.84327758840605,-0.00217470616138764,0
0.02,0.00116772409321315,0.000664861094770986,-0.0575925958609021,-0.0333132548457121,-0.00130356579305915,0.000326092097997815,0.0644328481377774,-0.0165857808759997,1.84326182919653,-0.00228826141445636,0
0.03,0.00119481244870243,0.00068056342908763,-0.0589614521622837,-0.0341000382041333,-0.00133387527420258,0.000333946285286712,0.0659626722522807,-0.0169761985128242,1.84324625994547,-0.00218237871105156,0
0.04,0.00117937017441407,0.000672561279966483,-0.0582605470343207,-0.0336990862602213,-0.00131684472972953,0.000330412834785787,0.0651794962404805,-0.0167795418694707,1.84323247999764,-0.00200061345481441,0
0.05,0.00119295449405532,0.000680589399282781,-0.0589664771602031,-0.0341013350038233,-0.00133208375946382,0.000334507418565892,0.0659674000046039,-0.0169778860392078,1.84321911412375,-0.00188811335289654,0
0.06,0.00119214847604145,0.000680622324192056,-0.0589707703654127,-0.0341029886558967,-0.00133131217838028,0.000334772491123313,0.0659717695212354,-0.0169791407023869,1.84320672780197,-0.00175393667196109,0
0.07,0.00122291320345154,0.000698403430320578,-0.0605031526332398,-0.0349939076636661,-0.0013657226308497,0.000343636072385664,0.0676871525762751,-0.0174256830067105,1.84319536736594,-0.0017012463978072,0
0.08,0.00119074496491321,0.000680697388344351,-0.0589797445961433,-0.0341067381768485,-0.00132997323478295,0.000335251697573582,0.0659810476737189,-0.0169817905289407,1.84318470458805,-0.00151543232991121,0
0.09,0.00118989335641853,0.000680611131793042,-0.0589726061399304,-0.034102428158718,-0.00132912654571255,0.000335410700264295,0.0659728471920792,-0.0169802036096877,1.84317494730828,-0.00140925149255081,0
0.1,0.00118925292808162,0.000680607410786792,-0.0589730977582644,-0.0341022389172322,-0.00132850570254676,0.000335591377823293,0.0659731167652486,-0.0169804835812373,1.843165936177,-0.00131151595060165,0
0.11,0.00118866209267706,0.0006806043279999,-0.0589735804342359,-0.0341020701267477,-0.00132793302400991,0.000335758403623056,0.0659733949215586,-0.0169807402278869,1.84315761371478,-0.00122125141759451,0
0.12,0.00118811633400505,0.000680601481854091,-0.0589740196213925,-0.0341019297300876,-0.00132740403532602,0.000335912677986103,0.065973649630754,-0.0169809939643923,1.84314992728864,-0.00113788526830038,0
0.13,0.00124166975067542,0.000711169492748084,-0.0615991711419812,-0.0356335579748884,-0.00138720357135098,0.000350958785028975,0.0689139096522036,-0.0177505322674205,1.84314225983567,-0.00117556915129565,0
0.14,0.0013505071639724,0.000774266969167275,-0.0671492375486729,-0.0387951108825777,-0.0015089995639191,0.00038246471154372,0.0751097125752766,-0.0193031554057606,1.84313535511339,-0.00134489909392367,0
0.15,0.00118744896050277,0.000681031016774402,-0.0590152785027601,-0.0341234465755483,-0.00132686972874174,0.000336533805964141,0.0660188184299489,-0.0169920074171969,1.8431288983781,-0.000911651665067141,0
0.16,0.00118623721539697,0.000680593698062314,-0.0589757170217905,-0.0341015524148443,-0.00132558316321032,0.000336445820970055,0.065974732576995,-0.0169819238230148,1.84312340411514,-0.000850226671431969,0
0.17,0.00118587320492358,0.000680589786113938,-0.0589758066297374,-0.0341013385059062,-0.00132522980824474,0.000336546683920594,0.0659746752148443,-0.0169820283187373,1.8431183321153,-0.000795207027008536,0
0.18,0.00118554065070607,0.000680588040332063,-0.0589760628169571,-0.0341012517913728,-0.00132490746250652,0.000336640655468313,0.0659748190877718,-0.0169821849437596,1.84311364774983,-0.000744400846823669,0
0.19,0.00118523359144482,0.000680586436494032,-0.0589763006191307,-0.0341011679612541,-0.00132460983014665,0.000336727429396085,0.0659749521085368,-0.0169823256745364,1.84310932138279,-0.000697477521660342,0
0.2,0.0011849496064353,0.000680584955103016,-0.0589764979057962,-0.034101112357753,-0.00132433456537923,0.000336807674861416,0.0659750593134804,-0.0169824826763115,1.84310532565417,-0.000654140264817376,0
0.21,0.0011846878327302,0.00068058358678479,-0.0589767027496833,-0.034101028471253,-0.00132408082617249,0.000336881648924665,0.0659751713761878,-0.0169825902589786,1.8431016352955,-0.00061411501442938,0
0.22,0.00118444575723029,0.000680582322918602,-0.0589768738493916,-0.0341009698896048,-0.00132384618197436,0.000336950050544626,0.0659752625335259,-0.0169827126835238,1.84309822696864,-0.000577148653744126,0
0.23,0.00118422219176896,0.000680581155539074,-0.0589770296471429,-0.0341009141842005,-0.00132362947910098,0.000337013220523857,0.0659753441498508,-0.0169828248094047,1.84309507912018,-0.000543007410197855,0
0.24,0.00118401585577418,0.000680580077287931,-0.0589771779625807,-0.0341008584461959,-0.00132342947556818,0.000337071522860133,0.0659754226363271,-0.0169829230450893,1.84309217184308,-0.000511475377054523,0
0.25,0.00118382523584675,0.000680579081366479,-0.0589773095400502,-0.0341008026777502,-0.00132324470579048,0.000337125382637844,0.0659754887667026,-0.0169830110947513,1.84308948675187,-0.000482353148029921,0
0.26,0.0011926340992867,0.00068558498952231,-0.0594133066066011,-0.0343516439326997,-0.00133307447827084,0.000339581077244624,0.066462841578609,-0.017107516830496,1.8430870236434,-0.000475706731273154,0
0.27,0.00114799586622053,0.000660390506864644,-0.0572559552070561,-0.0330892467542303,-0.00128330427902806,0.000327322864836299,0.0640454257336313,-0.0164719792384724,1.84308460618769,-0.000350156806976436,0
0.28,0.00112168728169174,0.000644936148914455,-0.0557668842419173,-0.0323149108559109,-0.00125380801970235,0.000319515952364975,0.0624029328648043,-0.0161267731287945,1.84308241460885,-0.000267966493292686,0
0.29,0.00118288644796135,0.000680409408670016,-0.0589625951977981,-0.0340923241369901,-0.00132229189510914,0.000337226120438481,0.0659588863344714,-0.016979384883949,1.84308065299553,-0.00038584744854626,0
0.3,0.0011813562089877,0.000679631557080855,-0.0588922390032283,-0.0340533412657418,-0.00132060846969585,0.000336889916236019,0.0658806196232914,-0.0169608320617128,1.84307954750282,-0.00037061411900135,0
0.31,0.00118298862329138,0.000680570351266924,-0.0589774205882899,-0.0341003843080789,-0.00132243263729342,0.000337357385692943,0.0659752852797996,-0.0169833471805699,1.84307783230248,-0.000355930077943634,0
0.32,0.001182884757092,0.000680574147576435,-0.0589779183677685,-0.0341005748060614,-0.0013223330823087,0.00033739107626308,0.0659757889618241,-0.0169835016402333,1.84307624312457,-0.000338713797298837,0
0.33,0.00118278065777292,0.000680573623428722,-0.0589779789651906,-0.0341005499495666,-0.0013222321817745,0.000337420507362102,0.0659758157146613,-0.016983558239262,1.84307477537242,-0.000322794793246735,0
0.34,0.00118268435827221,0.000680573120503088,-0.0589780244622948,-0.0341005192506511,-0.00132213883719723,0.000337447712731645,0.0659758282573395,-0.0169836058714607,1.84307341979179,-0.000308092289944659,0
0.35,0.00118259550935577,0.000680572655908643,-0.0589780683080268,-0.0341004914409925,-0.00132205271393387,0.000337472814162949,0.0659758417459571,-0.0169836498955881,1.84307216781047,-0.000294513410320068,0
0.36,0.00118251341252771,0.000680572226806191,-0.058978104146438,-0.0341004636120841,-0.00132197313579934,0.000337496007284114,0.065975849142069,-0.0169836897419291,1.84307101151049,-0.000281972283022779,0
0.37,0.00118243750973806,0.000680571830485885,-0.058978130517879,-0.0341004639558626,-0.00132189956211739,0.000337517449267883,0.0659758564970515,-0.0169837534387875,1.84306994358011,-0.000270389598870686,0
0.38,0.00118236752010319,0.000680571464443797,-0.0589781577065531,-0.0341004360903601,-0.00132183171940933,0.000337537222204465,0.0659758584391749,-0.0169837843611411,1.84306895726525,-0.000259692109802614,0
0.39,0.00118230300198816,0.000680571126367666,-0.0589781862423818,-0.0341004082088332,-0.00132176917959115,0.000337555450909172,0.0659758629547294,-0.0169838099326651,1.84306804632854,-0.000249812165668437,0
0.4,0.00118224304809757,0.000680570814121362,-0.0589781915420312,-0.0341004085000614,-0.00132171106627893,0.000337572384955673,0.0659758538486508,-0.0169838642947079,1.84306720500984,-0.000240687286412835,0
0.41,0.00118218807603865,0.000680570525731877,-0.0589782136870826,-0.0341003805892861,-0.00132165777937609,0.000337587917197262,0.0659758544753629,-0.0169838827215414,1.84306642798802,-0.000232259766953513,0
0.42,0.0011821369697125,0.000680570259377209,-0.0589782146073425,-0.0341003808505502,-0.00132160824175465,0.000337602352533255,0.0659758432436774,-0.0169839300725135,1.84306571034955,-0.000224476312265103,0
0.43,0.00118209014672582,0.000680570013373786,-0.0589782316216078,-0.0341003529145267,-0.00132156285365786,0.000337615583055008,0.0659758408618615,-0.0169839423184847,1.8430650475561,-0.000217287700340294,0
0.44,0.00118204649098024,0.000680569786167223,-0.0589782240451203,-0.0341003531504033,-0.00132152053827177,0.000337627912957885,0.0659758232313329,-0.0169839849695689,1.84306443541603,-0.000210648470914218,0
0.45,0.00118200621127484,0.00068056957632152,-0.0589782162783334,-0.0341003504638507,-0.00132148149501433,0.000337639289836734,0.0659758054261534,-0.0169840217705249,1.84306387005842,-0.000204516637976727,0
0.46,0.00118196940000552,0.000680569382509915,-0.0589782258666834,-0.034100322496045,-0.00132144581131707,0.000337649692302396,0.0659757982721021,-0.0169840267037792,1.84306334790807,-0.000198853424255938,0
0.47,0.00118193505748567,0.000680569203508263,-0.0589782147850827,-0.0341003226995257,-0.00132141252287649,0.000337659392380407,0.0659757794629459,-0.0169840616963038,1.84306286566258,-0.000193623015999111,0
0.48,0.0011819032761029,0.000680569038184411,-0.0589781986356096,-0.0341003228938102,-0.00132138171734487,0.000337668368173193,0.0659757563960577,-0.0169840956112356,1.84306242027225,-0.000188792336476994,0
0.49,0.00118187438107518,0.000680568885493698,-0.0589782038417019,-0.0341002949007342,-0.00132135370673046,0.000337676534946758,0.0659757468962016,-0.0169840943885366,1.84306200892083,-0.000184330836820336,0
0.5,0.00118184725630526,0.000680568744470851,-0.0589781840122998,-0.0341002950789268,-0.00132132741491207,0.000337684195349281,0.0659757213926497,-0.0169841249576786,1.84306162900682,-0.000180210302828278,0
0.51,4.60716278938185,0.0086124698058293,9.64367278733404,-0.420718034065904,-0.727530822977101,4.54936501548504,-1.95597154464415,9.45259772813261,0.160445843038515,49.2610882004317,4306.1661743873
0.52,4.52958920030927,0.0404365474452578,13.5245221684034,-2.00140014145102,-2.97465433140816,3.41617403633983,-10.4696995385491,8.79225192896226,0.725348267968684,105.11013115149,4306.1661743873
0.53,4.52073383715526,0.0272075756002019,13.9695311533316,-1.33110141493516,-4.47935251171207,-0.610881129508266,-13.6419958016327,-3.28870524203378,1.71235558924771,165.401739714906,4306.1661743873
0.54,4.50137859690272,-0.0614734322604593,14.939655380547,3.12434224126888,0.0803705400124688,-4.50108085150954,-3.06159517354714,-14.9526403127808,-3.1373944497311,224.137565266864,4306.1661743873
0.55,4.46288806582865,0.0640634431742194,16.8667116003429,-3.1524018942312,4.30504331435147,1.17816640353766,15.3272296333877,7.71360030577794,-1.28931218310294,281.598888684539,4306.1661743873
0.56,4.41768000562666,0.0595498324831762,19.1298279027992,-2.90780812217449,-3.66001154511826,2.47462286101607,-17.5865311380698,8.06967076130122,0.989753729567896,338.77536694303,4306.1661743873
0.57,4.46236146024895,0.127905620409426,16.8985525283323,-6.32938768890987,2.21522180026658,-3.87579953367962,14.2052191985844,-11.1280714227354,-2.59369796973183,397.174345954207,4306.1661743873
0.58,4.4196049105817,0.0138211257916443,19.0392892612143,-0.606542637639306,-2.21498743040667,3.82451686782743,-10.1173281078683,16.1400774936554,0.528078362261653,454.881445378267,4306.1661743873
0.59,4.42271861510741,0.123284065992927,18.8865937127959,-6.07613966513916,3.47041320478517,-2.74442545852463,18.7695295659619,-6.4286588939671,-2.21203834636654,512.096714397318,4306.1661743873
0.6,4.39316694708563,0.150033901784612,20.3672459611873,-7.39156579585135,-4.34874677735246,-0.640958238200431,-18.7097002341095,-10.9273542135167,1.75127031846002,568.974643354629,4306.1661743873
0.61,4.30891770849826,0.0941316929246077,24.5829391025755,-4.59088231362093,0.735131651327403,4.24678867492125,-0.876647834715613,24.9925705743195,-0.149562085570168,626.445677166897,4306.1661743873
0.62,4.32732282342979,0.103980501972169,23.6659971080143,-5.08440619454472,4.31339296418918,-0.362182135741205,23.9273636339237,3.66222268542669,-1.63054249344799,683.643111649751,4306.1661743873
0.63,4.34017289158945,0.112958106031824,23.0269724962203,-5.5133944406415,1.76857790012127,-3.96509677987926,14.8991429788477,-18.4025682744457,-2.69601935666225,740.263694388312,4306.1661743873
0.64,4.3506120013372,0.133431544673785,22.5084688690703,-6.51092197352217,-1.00508199385246,-4.23502525953823,1.85438807528796,-23.3577507616087,2.93923747440779,796.820488969971,4306.1661743873
0.65,4.27934834008583,0.132577120742154,26.075338434712,-6.4802797298845,-1.92411216509184,-3.8246818540743,-5.11523371912353,-26.3771052972282,2.70645668760638,853.635204293763,4306.1661743873
0.66,4.289758243635,0.00802834483969672,25.558504991096,-0.236791899884849,-1.08410451608369,-4.15051896048702,-6.18360623707375,-24.8003278544569,2.88797490896408,910.294088931027,4306.1661743873
0.67,4.21174517655456,0.137754902666992,29.4628886131216,-6.7216518154238,1.28332420506208,-4.01383268586786,16.2172107112785,-25.4998918684569,-2.79944316876026,966.660481650337,4306.1661743873
0.68,4.25235925689316,0.136808188745296,27.4359946314958,-6.6363366467416,4.12053386340299,-1.05946987250319,28.2227178575072,0.502953520613334,-1.79030324101447,1022.79888606773,4306.1661743873
0.69,4.15170039236888,0.117583630198111,32.4728970829497,-5.69108477796518,1.605777586532,3.83039428788708,6.39310597822838,32.3420111752651,-0.368650467417982,1079.19366271618,4306.1661743873
0.7,4.14581880952923,0.106228845946414,32.7710220680399,-5.12656522498169,-4.11141394852177,0.543482762429607,-33.1291740406779,-1.63688294401996,1.46498705394678,1135.35889884582,4306.1661743873
0.71,4.16602221249238,0.104292696351482,31.7649529229761,-4.99486483631778,2.15009575687574,-3.5698328080958,21.2775811293687,-24.1086177582852,-2.57445779086095,1191.2395546717,4306.1661743873
0.72,4.12471945939815,0.107840341888009,33.8342308319937,-5.14868750056046,-0.221633852738341,4.120172155796,-7.83205883607767,33.3155071004372,0.0798795182926927,1247.04391931634,4306.1661743873
0.73,4.20003568151644,0.0962424958665058,30.0726684637826,-4.58775160211474,-0.0869921213461863,-4.20023745934031,4.65397239541879,-30.0624914842062,-3.13939025597103,1303.05862255746,4306.1661743873
0.74,4.06137699080482,0.153118139712155,37.0099310612044,-7.45122727831618,-1.18357213943689,3.88810817968026,-19.1455309826823,32.5377385277369,0.333179315510445,1358.83091538161,4306.1661743873
0.75,4.09001856248975,0.124713275157325,35.5822645353239,-6.0080174147133,3.53191717931616,-2.06624448721892,34.1203061961688,-11.7472774631808,-2.06964612196322,1414.36508166256,4306.1661743873
0.76,4.0784746697653,0.118194395543223,36.1638863818196,-5.63715833415535,-1.38197604341975,3.83901911462666,-18.4758150038928,31.5950706956548,0.374511185568152,1469.73033788115,4306.1661743873
0.77,3.99432931231199,0.215083623769472,40.3756340137676,-10.4557074206473,3.81843876706984,1.19182758927068,34.1918458138001,23.883704057897,-1.21445846475578,1525.16086785758,4306.1661743873
0.78,4.10927119773677,0.112499285716983,34.6330499782995,-5.39380918349811,2.70207917530963,-3.09798870175374,27.4367495222399,-21.8120632669458,-2.39697812791282,1580.83208455035,4306.1661743873
0.79,4.01748635020379,0.121176334668458,39.2268290557071,-5.72626643230479,-0.250433175324516,-4.0115038954056,4.46061915694141,-39.3908253500245,3.10939790134136,1635.82067133228,4306.1661743873
0.8,4.09265962267295,0.186631591271801,35.4726506455425,-9.04933990192971,-1.77933379207052,-3.69034759803383,-5.61270892696823,-36.1759173343606,2.73788952862145,1691.22788516477,4306.1661743873
0.81,3.95915599454424,0.113962255973972,42.1522707183907,-5.46081766809848,-1.54032906893015,-3.64901218747362,-10.1786361070735,-41.2677819045378,2.77093858429626,1746.49278254397,4306.1661743873
0.82,3.91138589632201,0.111644356450102,44.5451720546804,-5.35506473389412,0.14527715314637,-3.91028114603638,8.26675456062273,-44.0977305620108,-3.07592144412704,1801.4916558805,4306.1661743873
0.83,3.92610072371314,0.13322625945644,43.8137789263427,-6.42652098450151,3.00624426004934,-2.52873715080671,38.4341070079916,-21.9946996858088,-2.23621633273254,1856.47348341663,4306.1661743873
0.84,3.92705351786796,0.188887890760722,43.7704450136641,-9.18338926560731,3.39475480224229,1.98319635944807,31.6814768372195,31.566921302379,-0.994017652947107,1911.26574542035,4306.1661743873
0.85,3.91932938891155,0.220010752400653,44.1608909750076,-10.6636358925106,-2.19493761801043,3.25450402411802,-35.1984802797998,28.7221936513751,0.649434444271293,1965.7661147072,4306.1661743873
0.86,3.85587977597601,0.203569418521768,47.3374817982697,-9.84531877175218,-1.85425092930799,-3.38688689597078,-11.6386739699521,-46.928762533654,2.6934322517705,2020.45026237856,4306.1661743873
0.87,3.85141908596735,0.134021184199689,47.5645938068991,-6.37786503947018,0.454196816227624,-3.82689115414804,13.5485540923638,-46.0380758555708,-2.98867584861742,2075.06567187663,4306.1661743873
0.88,3.75626658902849,0.200333516501598,48,-9.77768182743659,0.740829426672091,3.68793220738429,-2.74147773606987,48.9089701562118,-0.144958280744948,2129.50719224964,4306.1661743873
0.89,3.75180929624382,0.221075934238428,48,-10.6490556067091,-0.387032160489729,-3.73833568193489,8.51261422225399,-48.4245576584636,3.0972866814334,2183.68502929854,4306.1661743873
0.9,3.80236766336218,0.22663566789568,48,-10.9331229570054,-1.46528259496061,3.51600774888941,-30.8916982400992,38.3306164499822,0.454392214358004,2237.94647281908,4306.1661743873
0.91,3.74558449456658,0.259062781515899,48,-12.5595589406223,3.59811941055968,-1.07240544480995,49.5850202396597,1.7516531093531,-1.79140471302776,2292.03226018657,4306.1661743873
0.92,3.72470658169935,0.255821216924634,48,-12.369701386464,-2.00834356322116,-3.1472908583179,-12.1282771966115,-48.0615688948295,2.64219014949167,2346.02261938308,4306.1661743873
0.93,3.66228013292305,0.20338981446589,48,-9.82083476400779,-3.32057453325162,1.55802694384666,-48.1903564900937,8.83958917708439,1.1875669927116,2399.8823671592,4306.1661743873
0.94,3.78303558102052,0.186898363648513,48,-9.02999985284726,-0.294103242785823,3.77621404162749,-15.041101896874,46.4683349289629,0.127090393669501,2453.78255736089,4306.1661743873
0.95,3.70003714657557,0.304753780131855,48,-14.7951375211306,2.16244601389893,3.01777682897798,11.9681395459808,48.7817561192409,-0.53958035102508,2507.22225790945,4306.1661743873
0.96,3.74225366289202,0.131540589418322,48,-6.24064613151136,1.62788689652423,-3.3722024933592,27.8941071027483,-39.558367674604,-2.656714945243,2560.97181833037,4306.1661743873
0.97,3.6396520108048,0.214712368292409,48,-10.4531992325008,1.88951208588965,-3.1181584690535,35.8554808433103,-33.5805578823426,-2.53787036888821,2614.41741057605,4306.1661743873
0.98,3.67901471963947,0.313261026950621,48,-15.1883643369312,3.16397059785449,-1.90330550207851,49.7791096752569,-7.53170971095576,-2.02741597348798,2667.71689145687,4306.1661743873
0.99,3.67245832680959,0.238384804378159,48,-11.4381117629964,3.41783283202594,1.36462310160609,38.4111762121408,30.974375582127,-1.12610263855228,2720.96588710105,4306.1661743873
1,3.61644838412217,0.344233730516566,48,-16.733311584135,-0.255057726833325,3.6238296500012,-24.3976169034418,44.5955155369308,0.165167258574238,2774.06715723821,4306.1661743873
