t,iq,id,vq,vd,ia,ib,va,vb,theta_e,omega,r
0,0,0,0,0,0,0,0,0,0,0,0
0.01,0.000853043353264057,0.000482072491636115,-0.0420469021129837,-0.0241209294884235,0.000926524169922451,0.00031879431031584,-0.0459377737355936,-0.0154752111747058,-0.72503107477636,-0.00159100322122565,0
0.02,0.00100230760475174,0.000563956077201169,-0.0494694355910682,-0.0282180428331983,0.00108680285533177,0.000376200139816565,-0.0539269212290532,-0.0183131145846508,-0.725043485743898,-0.00177884414691238,0
0.03,0.00105847044474889,0.000595403060384715,-0.0522597934926344,-0.0297915282271538,0.00114759051695595,0.000397366948946644,-0.0569553543178727,-0.0193573961195114,-0.725056375279656,-0.00178188479398307,0
0.04,0.00103572706650607,0.000583212659032595,-0.0511735896938121,-0.0291815573206083,0.00112338825469563,0.00038841523034125,-0.0557786969869831,-0.0189482593459373,-0.725068450376346,-0.00163834051428775,0
0.05,0.00106042654414852,0.000597901051603343,-0.0524157509268469,-0.029916505720141,0.00115076681382508,0.000397147155651432,-0.0571527818356685,-0.0193898888128054,-0.725080053081995,-0.00159084821445485,0
0.06,0.00106259803652899,0.000599809037039314,-0.0525503498056804,-0.0300119629977561,0.00115363935825306,0.000397494275730809,-0.0573137066848252,-0.019426688182083,-0.725091112315355,-0.00150406369459342,0
0.07,0.00108211518132333,0.000611802993228372,-0.0535346566767414,-0.03061211696327,0.0011755640968482,0.000404135153599765,-0.0584158843041716,-0.0197647573076711,-0.725101387463229,-0.00145742844474394,0
0.08,0.00106332334689802,0.000601611266325061,-0.0526370100455532,-0.0301021545053786,0.00115547725890146,0.000396818547939998,-0.0574390753006866,-0.0194305728429044,-0.725111306066775,-0.0013393055265438,0
0.09,0.0010596847009753,0.000600281136472642,-0.0524816484976282,-0.0300356001683479,0.00115207217764685,0.000394966841365246,-0.0572864040500418,-0.0193579083972628,-0.72512052239045,-0.00125639899504813,0
0.1,0.00105820722994159,0.000600104783038142,-0.0524309631485506,-0.0300267642301384,0.00115096370094412,0.00039396808403083,-0.0572463423290673,-0.0193253397579507,-0.72512916849015,-0.00118238253383857,0
0.11,0.00105708745552785,0.000600078815893871,-0.0523965161860385,-0.0300254670714116,0.0011502047897919,0.000393137908956509,-0.057222681955029,-0.0192999546933099,-0.725137291176397,-0.00111336847115677,0
0.12,0.00105607228578165,0.000600072605697443,-0.052365964429155,-0.0300251729913881,0.00114952983752205,0.000392373492416518,-0.0572023459042057,-0.0192768479480933,-0.725144923734769,-0.0010485910117078,0
0.13,0.0011000911298498,0.000625564236005433,-0.0545462153700722,-0.0313006537088822,0.00119780612839784,0.000408401256261361,-0.0596031073957824,-0.0200621564785168,-0.725152367499688,-0.00107285160339561,0
0.14,0.00112866267243327,0.000642618190829756,-0.0560315010144476,-0.0321539675723298,0.00122952231072613,0.000418464400823048,-0.0612269872689539,-0.0206073473921763,-0.725159463531679,-0.00106996495076787,0
0.15,0.00106357811335062,0.000605602329763122,-0.0527883094877313,-0.0303018447847777,0.00115865488628534,0.000394298667890322,-0.0576899387785105,-0.0194082039268184,-0.725166202716743,-0.000888073960965137,0
0.16,0.00105390223667292,0.0006007815301403,-0.0523282339384631,-0.030060634771311,0.00114863175370532,0.00039024795425695,-0.0572043845658533,-0.0192235328806814,-0.725172153130189,-0.000820313360121119,0
0.17,0.0010519394706021,0.000600151918144365,-0.0522458509716102,-0.0300291272114457,0.00114686088432455,0.00038919029621678,-0.0571262693379858,-0.019182460122539,-0.725177691746609,-0.000770924806881259,0
0.18,0.00105108216424922,0.000600068025945821,-0.0522168846321489,-0.0300249440328609,0.0011462314963721,0.000388598389716067,-0.0571040258629642,-0.0191632600333424,-0.725182889015477,-0.000726492966531008,0
0.19,0.00105041350876717,0.0006000552898699,-0.0521963856578407,-0.030024288562513,0.00114578035933774,0.000388100835424616,-0.0570900324183278,-0.0191480750442797,-0.725187771839596,-0.00068501460565612,0
0.2,0.0010498039393341,0.000600051925670644,-0.0521780418445273,-0.0300241178654173,0.00114537530748948,0.000387641625133101,-0.0570778254546434,-0.0191341983290385,-0.725192360056507,-0.000646075599133486,0
0.21,0.00104923366483425,0.0006000498839373,-0.0521609268203436,-0.0300240361798033,0.00114499719765004,0.00038721126534262,-0.0570664947217888,-0.0191211980652738,-0.725196671554241,-0.000609490124701767,0
0.22,0.00104869836846497,0.000600048110693355,-0.0521448711282319,-0.0300239352658176,0.00114464238497342,0.000386807204806367,-0.0570558471594014,-0.0191090182570677,-0.725200723037446,-0.00057511172305845,0
0.23,0.00104819514919338,0.000600046462969893,-0.0521297716196752,-0.0300238593222254,0.00114430884493659,0.000386427348818765,-0.0570458477458076,-0.0190975514839577,-0.725204530189029,-0.000542806666454637,0
0.24,0.00104772243073827,0.000600044916733649,-0.0521155886187825,-0.0300237862445804,0.00114399552026107,0.000386070516347228,-0.0570364539198617,-0.0190867818604897,-0.725208107744239,-0.000512449831744733,0
0.25,0.00104727823403034,0.0006000434637569,-0.0521022598208847,-0.0300237102125843,0.00114370109791636,0.000385735215524834,-0.0570276202784937,-0.0190766658183276,-0.725211469549256,-0.000483923716298109,0
0.26,0.00105597608101759,0.000605249527964475,-0.0525371646449825,-0.030284194244329,0.001153367535799,0.000388787605444702,-0.0575110851149932,-0.0192291751996349,-0.725214568298982,-0.000475321920498009,0
0.27,0.00103248872408686,0.000591870745042233,-0.0513917714110365,-0.0296147662347486,0.00112777754820689,0.000380081236005967,-0.0562504380470234,-0.0188158647800471,-0.725217700428226,-0.000403920773283144,0
0.28,0.0010316669101359,0.000591612828391481,-0.0512966262739412,-0.0296018723675061,0.00112704048597185,0.000379634159641951,-0.0561777315463331,-0.0187530582321564,-0.725220489546626,-0.000379373654346318,0
0.29,0.0010437553686532,0.000598941498944003,-0.051958401492439,-0.0299685735416173,0.00114054417084116,0.000383816600878476,-0.0568911574159481,-0.0190049228791548,-0.725223018761105,-0.000382045425321313,0
0.3,0.00103199164838929,0.000592693536611925,-0.0513857307600132,-0.0296559442509427,0.00112806634050761,0.000379155274393707,-0.0562773838798772,-0.0187836210245129,-0.725224983871738,-0.000343022292044033,0
0.31,0.00104332392458558,0.000599080606278283,-0.0519478788605891,-0.0299755271611149,0.00114036371546099,0.000383396636515541,-0.0568894617950488,-0.018992195327841,-0.725227247520377,-0.000346410056397038,0
0.32,0.00104464436817501,0.000599911236172474,-0.0520182479578763,-0.0300170862339029,0.00114186201684551,0.000383831319372514,-0.0569672804538192,-0.0190171644646771,-0.725229443934977,-0.000330901706832485,0
0.33,0.00104459349457104,0.00060001859191455,-0.0520209705775564,-0.0300224524162314,0.00114190940705822,0.000383719670612804,-0.056973141584506,-0.019015524365836,-0.725231517484857,-0.000313740196392574,0
0.34,0.00104436653943479,0.00060003184015901,-0.0520147336305671,-0.030023132825009,0.00114176952784489,0.000383538815741595,-0.0569695508112543,-0.0190102945703347,-0.725233467314456,-0.000297255197812894,0
0.35,0.0010441288101323,0.000600032881485391,-0.0520076706534475,-0.0300231743683719,0.00114161332132797,0.000383358129662675,-0.0569649317805433,-0.0190048770895573,-0.725235299740419,-0.000281714717066137,0
0.36,0.00104390173738153,0.000600032374881942,-0.0520008509533718,-0.0300231622017836,0.00114146298206482,0.000383186571777164,-0.0569604318064343,-0.0189996835998377,-0.72523702168451,-0.000267104556269781,0
0.37,0.0010436882223076,0.00060003170543797,-0.0519944343786407,-0.0300231134629977,0.00114132147357876,0.000383025386707481,-0.056956169872424,-0.0189948219741694,-0.725238639787593,-0.000253374532725359,0
0.38,0.00104348711015234,0.000600031051136267,-0.0519883793563048,-0.0300230895660089,0.00114118816558928,0.000382873585013066,-0.0569521644830604,-0.0189902200060476,-0.725240160308786,-0.000240472388383704,0
0.39,0.00104329833802091,0.000600030432960813,-0.0519826982897708,-0.0300230656226554,0.00114106303441922,0.000382731098917148,-0.0569484053551646,-0.0189859031486909,-0.725241589132493,-0.00022834831022462,0
0.4,0.00104312114452011,0.000600029851589757,-0.0519773677546052,-0.0300230138566995,0.00114094557772532,0.000382597351811013,-0.0569448562722424,-0.0189818719801472,-0.725242931788832,-0.000216955391450612,0
0.41,0.00104295437488372,0.000600029305179761,-0.0519723438012686,-0.0300229898346193,0.00114083503020747,0.000382471474773115,-0.0569415297650292,-0.0189780564554226,-0.725244193474022,-0.000206249540504745,0
0.42,0.00104279773338007,0.000600028791675678,-0.0519676245865878,-0.0300229657736913,0.00114073119609038,0.000382353242236287,-0.0569384039144634,-0.0189744733443166,-0.725245379071248,-0.000196189322966037,0
0.43,0.00104265052151722,0.00060002830910452,-0.0519631873297824,-0.0300229416763596,0.00114063361238179,0.000382242127521064,-0.0569354637001081,-0.0189711053348461,-0.725246493169083,-0.000186735802921254,0
0.44,0.00104251215721313,0.0006000278556053,-0.0519590143620096,-0.030022914634454,0.00114054189327711,0.000382137691309466,-0.0569326953087846,-0.0189679408870949,-0.725247540079501,-0.000177852392514982,0
0.45,0.0010423820048839,0.000600027429428325,-0.0519550846653953,-0.0300229153219476,0.00114045561746031,0.000382039454474739,-0.0569301078313901,-0.0189649436941827,-0.725248523854352,-0.000169504710374704,0
0.46,0.00104225982231466,0.000600027028929407,-0.0519513962165312,-0.0300228911242859,0.00114037462452542,0.000381947232475554,-0.0569276606257411,-0.018962146924549,-0.725249448301033,-0.000161660448551798,0
0.47,0.00104214520674108,0.000600026652561874,-0.0519479383250905,-0.0300228668966657,0.00114029864755142,0.000381860720826869,-0.0569253652695535,-0.0189595258867469,-0.725250316997424,-0.000154289247479514,0
0.48,0.0010420373432559,0.000600026298873816,-0.0519446791791424,-0.030022842642589,0.00114022714621752,0.000381779306810466,-0.0569232007284741,-0.0189570565803751,-0.725251133305649,-0.000147362578473177,0
0.49,0.00104193582909021,0.000600025966499545,-0.0519416070253479,-0.0300228402933026,0.00114015985356653,0.000381702686302797,-0.0569211756787303,-0.0189547154820098,-0.725251900385077,-0.000140853633316985,0
0.5,0.00104184065487481,0.000600025654154991,-0.0519387292437084,-0.0300228159862913,0.00114009676357794,0.000381630849739899,-0.0569192622488413,-0.0189525370398157,-0.725252621204562,-0.000134737220505901,0
0.51,4.69665685415826,-0.0595034639627884,5.16802962367468,2.98240426874628,-0.312419732386326,4.68663207204822,2.69967901358384,5.32118395068523,0.0538947586750715,16.597300960043,2366.89118343489
0.52,4.72374310538401,0.090974696897852,3.81466015942672,-4.5418793278482,-1.0534296177186,4.60568250769111,-5.32920834941093,2.60381226842894,0.244112701474478,35.3070619198195,2366.89118343489
0.53,4.6865962539848,0.0244500503769725,5.67292390244513,-1.20667563941912,-2.51796580722279,3.95280032970105,-4.08710047379801,4.11506274785463,0.572404755670472,54.3476212209116,2366.89118343489
0.54,4.64675507861193,-0.000883860878053477,7.66595832891242,0.0675833884466927,-4.01595626698225,2.33761177347776,-6.59055789288237,3.91612452248158,1.04346657308791,74.4212289896174,2366.89118343489
0.55,4.69601908691811,0.0303307554396461,5.20378714817267,-1.49389242535827,-4.67718071213518,-0.421302510620788,-5.03605202750075,-1.98728338148726,1.66708878846436,95.57333166395,2366.89118343489
0.56,4.76385659831826,0.0184798476579568,1.81300569942042,-0.892508905187422,-3.09171078654178,-3.62436140671582,-0.489999040872624,-1.96047513422478,2.43921782719952,114.805365498469,2366.89118343489
0.57,4.61775543032336,0.0225692454690418,9.11917336699858,-1.08826305447481,0.93223709483287,-4.52273242455703,2.94936542259141,-8.69740668113969,-2.93342957353096,133.830976567716,2366.89118343489
0.58,4.65493372092192,-2.88126859420146e-05,7.26152088809091,0.0398592893324294,4.43970273063223,-1.39908813540209,6.91377480434944,-2.22058378042117,-1.87608254721027,154.489755861998,2366.89118343489
0.59,4.66218916697769,0.0868672427285215,6.89992771208313,-4.29456702776477,2.97863481747069,3.58765778338664,0.953159040877361,8.07117068526808,-0.674282732673181,173.331601856149,2366.89118343489
0.6,4.59965571958378,0.00546008809980236,10.0279306424988,-0.225831211083752,-2.85496992669404,3.60638451484786,-6.41047921300397,7.71467102126267,0.670811609245086,193.718270331293,2366.89118343489
0.61,4.69518636919763,-0.00925240566629748,5.25263602135027,0.529002624616209,-3.89838169813593,-2.61676914995356,-4.66094277155578,-2.4790404252289,2.15999122609231,212.695728998469,2366.89118343489
0.62,4.61223552858166,0.0310788182870896,9.40156125607883,-1.4921420487569,2.77601378451699,-3.6833992360629,6.8944895922505,-6.56367695791166,-2.48901794070708,232.651307638492,2366.89118343489
0.63,4.6038993093628,0.1013254151831,9.81980945175466,-5.00984677412696,3.08648464439981,3.41756758973359,2.62873213657937,10.7059324546307,-0.712532904596731,252.497145740339,2366.89118343489
0.64,4.63368793762691,0.0604794251560481,8.3318322079927,-2.9440416971257,-4.31036667432873,1.70160535877523,-8.83427890104543,0.205732241281754,1.20785767601328,271.685933256373,2366.89118343489
0.65,4.61055224517593,0.0214945676528648,9.49013222357215,-0.988355035595155,0.579647245859301,-4.57402045167084,2.21690625931691,-9.28034384786848,-3.01087658673657,291.096078988993,2366.89118343489
0.66,4.65072819731731,0.0429942910809087,7.48289789812447,-2.06128446060438,3.37680489280706,3.19817291438443,3.95395796116108,6.67898727522786,-0.803315562192563,310.718146727395,2366.89118343489
0.67,4.63539126170086,0.0448345039336964,8.25136414564299,-2.15089961979545,-4.63303535248591,0.154420544006996,-8.29991301732297,-1.95520416921393,1.54715025644093,330.306101184533,2366.89118343489
0.68,4.64493709222817,0.0801869015341043,7.7757517516742,-3.91496864353741,3.58527037558873,-2.95426926055507,8.52250540285416,-1.77656872703174,-2.24274056109175,349.807618640722,2366.89118343489
0.69,4.56126515953161,0.000482477712140827,11.961106032225,0.0788052240712648,-1.74763647812169,4.21318250597812,-4.51124602844351,11.0780380504999,0.393307006810571,369.221022558613,2366.89118343489
0.7,4.62877285533598,0.0852080323715176,8.58754318305457,-4.14983504418379,0.0543430686306821,-4.62923809994341,4.40678042055129,-8.45856460280399,-3.1114478343859,388.581538567066,2366.89118343489
0.71,4.54567482437592,0.069981011072445,12.7442859441923,-3.38091855043072,0.93091960113921,4.44988153180403,-0.902248155004882,13.1542153980682,-0.190832944675433,408.005973634742,2366.89118343489
0.72,4.57739301207063,0.108117239424818,11.1602660212894,-5.31085878993493,-1.32207055301639,-4.38364523852704,2.15016670144114,-12.1710123616973,2.87229175976723,427.654387055755,2366.89118343489
0.73,4.61140200769028,0.0487073150570904,9.46173276580278,-2.32677708969435,0.988056226780126,4.50456943245312,-0.348416251857609,9.73739619570006,-0.205363790533504,447.065299301954,2366.89118343489
0.74,4.52050499369797,0.0840458681235063,14.0085843027077,-4.07463938851909,-0.0825166777280105,-4.52053316588803,4.07937794568308,-14.0072051419551,-3.14125437598186,466.169280547695,2366.89118343489
0.75,4.60831247038493,0.0931142463473054,9.62016008620525,-4.54590185339782,-1.48283096994661,4.36422116787695,-7.55207205425949,7.49525926384239,0.347735196944245,485.719737979323,2366.89118343489
0.76,4.52305097402123,0.0965310017363847,13.8852592854146,-4.70020716285771,3.29596741896575,-3.0990171217673,13.4624584600074,-5.80125719215643,-2.30406783163006,505.010856689334,2366.89118343489
0.77,4.57250961118693,0.0335535952512807,11.4144082662003,-1.53432923419359,-4.54516264418333,0.500466308627757,-11.5114318143398,-0.360305218125746,1.46846643532484,524.292310837988,2366.89118343489
0.78,4.58723070878728,0.0535861202392154,10.680495873691,-2.5366728465271,3.62732460401328,2.8085713921927,6.79169009931937,8.62442153614059,-0.900254067098525,543.582988815651,2366.89118343489
0.79,4.55274725352442,0.126339618740166,12.4067863230882,-6.1945418682211,-0.0638013431079747,-4.55405299072762,6.36434953083876,-12.3205418254728,-3.12785845696489,563.012079911582,2366.89118343489
0.8,4.54378849293691,0.114581748144432,12.85692720752,-5.56519078074954,-3.92890036992457,2.28536315030244,-13.9490071098769,1.30273799906663,1.06916815256761,582.041043833728,2366.89118343489
0.81,4.56390885839327,0.0993582697694262,11.8531971962247,-4.81476559365476,3.5691778347604,2.84606846673568,6.02147124991002,11.2881413652088,-0.875874730109965,601.382786536327,2366.89118343489
0.82,4.45721011924822,0.103511226437636,17.1903429531704,-5.0385699410588,1.89234483991073,-4.03688835961444,12.1670546963935,-13.1475418962453,-2.68002609585687,620.756724161138,2366.89118343489
0.83,4.51494530764545,-0.00196389191633894,14.3058864017499,0.240393612791875,-4.20985767877099,-1.63151258419728,-13.4282139768135,-4.93955911208211,1.94008544381758,639.963186620119,2366.89118343489
0.84,4.51977086973547,0.0486969357582347,14.0669330899664,-2.2700680084114,-1.79015024429389,4.15042915965519,-7.78465371113251,11.9344451868596,0.417982717544024,659.087901781167,2366.89118343489
0.85,4.47988988887629,0.143793839979929,16.063325776572,-7.00304427753983,3.76039642106409,2.43916150373865,9.19165637834955,14.9193336707714,-0.963287788214037,678.240455911335,2366.89118343489
0.86,4.46973784381931,0.150312915277201,16.5733482963547,-7.32449053099675,3.51465754988254,-2.76556190891169,17.6950396805475,-3.8999494861851,-2.20386045250686,697.411106661648,2366.89118343489
0.87,4.46057567552974,0.181484255542322,17.0339227853217,-8.89812871802781,-0.900337862505355,-4.37253514856961,6.02678199720971,-18.2485374454229,2.9791871515754,716.604309194386,2366.89118343489
0.88,4.45038531958221,0.0282076599589128,17.5459067484979,-1.25286770677504,-4.0222705866357,-1.90474788166794,-15.2664285633456,-8.7386886909838,2.01939942912578,735.83328640759,2366.89118343489
0.89,4.44836584825899,0.111758014879754,17.6493879032708,-5.4254909943349,-4.21089266395789,-1.43834333400354,-14.6712335004191,-11.2112333606036,1.92506568602946,754.98795250724,2366.89118343489
0.9,4.53909070102531,0.104537062938194,13.1156393689549,-5.03714626386787,-4.26825928336842,1.54797773872931,-14.0373872644391,-0.587024129181492,1.24590373228263,774.048472667981,2366.89118343489
0.91,4.48032804315142,0.157698030254525,16.0563120878956,-7.67143069138309,-2.78993658038965,3.50919676285028,-16.2613703903713,7.22660637808312,0.70688992079715,793.071777165335,2366.89118343489
0.92,4.41048418317586,0.12598071662772,19.5510601332562,-6.13248460201936,-1.2173371087997,4.24102961962607,-11.7722002781142,16.7710053467338,0.308079294946093,812.329392068616,2366.89118343489
0.93,4.50410003194796,0.0857504666538362,14.8729443746809,-4.08696216542961,-0.13622255113381,4.50285616657778,-4.81463185815649,14.6535679677145,0.0492792659997788,831.353646519694,2366.89118343489
0.94,4.4432161443278,0.101854292847922,17.9198177141055,-4.86045176185342,0.412003577389249,4.42524542307036,-3.59671862477683,18.215583256384,-0.0699158319560008,850.344435093483,2366.89118343489
0.95,4.39309102833168,0.0820021594637861,20.4288158169368,-3.90385470936898,0.298604729171758,4.38369802256968,-2.89138964951871,20.5965158016798,-0.0493480270028474,869.476247318865,2366.89118343489
0.96,4.42789238401816,0.095544775757487,18.6915045302463,-4.53733438181347,-0.393891724043647,4.41137269773826,-6.57319466777094,18.0763065020538,0.110628479366829,888.438051356159,2366.89118343489
0.97,4.40578333898467,0.0978088626650961,19.7997362527064,-4.66793046181226,-1.66710363354646,4.07936991197255,-12.1758919899247,16.2962199519624,0.410151940845608,907.464209718514,2366.89118343489
0.98,4.40274235153568,0.0754834768070027,19.9546395005795,-3.5817338127035,-3.25483491280157,2.96578617902316,-17.3446526819961,10.4966412744304,0.848973952957644,926.552692442389,2366.89118343489
