t,iq,id,vq,vd,ia,ib,va,vb,theta_e,omega,r
0,0,0,0,0,0,0,0,0,0,0,0
0.01,0.000480361211676237,0.000271739531892544,-0.0235265457506741,-0.0135958992343052,-0.000441525153320156,0.000331126570757852,0.0215876605386797,-0.0165021133014737,1.44213601316345,-0.00243428405871316,0
0.02,0.000572250723424055,0.000322134864157014,-0.028071451379017,-0.016117318030578,-0.000526181617037499,0.000392905417443708,0.0257711126249788,-0.0195863237258545,1.44211680838213,-0.00276870997532843,0
0.03,0.000606920229828064,0.000341448451319201,-0.0297813415013093,-0.0170836348325164,-0.000558077671834828,0.000416519534334524,0.0273424446020484,-0.0207646238562679,1.44209663795662,-0.00279447167220892,0
0.04,0.000594877511493586,0.000334928542441987,-0.0292138952398304,-0.0167574202503136,-0.000546963564714007,0.000408518348545646,0.0268211712180867,-0.0203687894343156,1.44207758751896,-0.00258307706608251,0
0.05,0.000609064458056494,0.000343349861716951,-0.029923844696998,-0.0171787674795146,-0.000559944472382863,0.000418701360705429,0.0274707786867077,-0.0208782866133983,1.44205924005199,-0.00251519742646863,0
0.06,0.000610633257096551,0.000344602390851497,-0.0300181247428686,-0.0172414326808427,-0.000561332111376642,0.00042015478480002,0.0275558656370705,-0.0209530208551934,1.44204168434504,-0.00238705618704209,0
0.07,0.000621171991598755,0.00035109359521547,-0.0305482610174582,-0.0175662077050307,-0.00057094313783466,0.000427954774605449,0.0280395633305013,-0.021343635879621,1.44202530636813,-0.00231527705187371,0
0.08,0.000611315543259336,0.000345751989849674,-0.0300840708749088,-0.0172989505671114,-0.000561847560949795,0.000421400581596933,0.0276132032136748,-0.0210194200540881,1.44200945439783,-0.00214023912264654,0
0.09,0.000609198362869303,0.000344954047968902,-0.0299959251312988,-0.0172590314283379,-0.000559844176501539,0.000420345617997957,0.0275306041199886,-0.0209689181198102,1.44199466108944,-0.00201416042103004,0
0.1,0.000608334534003083,0.000344833280988148,-0.029967969304288,-0.0172529865078405,-0.00055899716487498,0.000420122680415535,0.0275033644415666,-0.0209597154574399,1.44198073579372,-0.00190142222903322,0
0.11,0.000607698602186136,0.000344813527037827,-0.0299503057087965,-0.0172520033820655,-0.000558363525692839,0.00042002872842594,0.0274856983804594,-0.0209568322339895,1.44196760845285,-0.00179608363678974,0
0.12,0.000607127281518974,0.000344808924789134,-0.0299350276153445,-0.0172517711027484,-0.000557792332544048,0.000419957669692944,0.0274703173558831,-0.0209549790951967,1.44195523031874,-0.00169690523388159,0
0.13,0.000631693311296527,0.000359054370626734,-0.0311443267504175,-0.0179645076141655,-0.000580319140452689,0.000437248414322091,0.0285777537961184,-0.0218175298905404,1.44194315413264,-0.00173237716248598,0
0.14,0.000646996205006652,0.000368184559405063,-0.0319513334056692,-0.0184213098589549,-0.000594316786020296,0.000448276161458331,0.0293191138337443,-0.0223745821709324,1.44193158807328,-0.0017230579781387,0
0.15,0.00061200433735662,0.000348286846852407,-0.030207840204046,-0.0174257733621874,-0.000562167406873178,0.000424052877932922,0.027717778549959,-0.0211635521432233,1.44192057048356,-0.00145328614561634,0
0.16,0.000606113783350648,0.000345320527544176,-0.0299307431534037,-0.0172773677452709,-0.000556702810841351,0.000420359566933314,0.0274618467299476,-0.0209810341999916,1.44191076538875,-0.00134610300764483,0
0.17,0.000604836570863057,0.000344877280393994,-0.0298777838564791,-0.0172551919087751,-0.000555489319634403,0.000419760922141935,0.0274119851366205,-0.020952486412186,1.44190161162813,-0.00126826137704382,0
0.18,0.000604307233883617,0.00034481007368076,-0.0298607209940284,-0.0172518274829444,-0.000554969396327631,0.000419631015268825,0.0273953157694974,-0.020947192739697,1.44189299441706,-0.00119852437898691,0
0.19,0.000603914688535564,0.000344798967586365,-0.0298498209938297,-0.0172512651061384,-0.000554578127001863,0.000419574046061879,0.0273844083434732,-0.0209454563283749,1.44188487090634,-0.00113334264509395,0
0.2,0.000603561094756409,0.000344796283162865,-0.0298403465921323,-0.0172511346668663,-0.000554224598749297,0.000419530173083727,0.0273748688944478,-0.0209443186817985,1.44187721100895,-0.00107196924027702,0
0.21,0.000603230493088365,0.000344794912120044,-0.0298315478455874,-0.0172510667765514,-0.000553893886889912,0.000419490311308243,0.0273660006195739,-0.0209433178336692,1.44186998798161,-0.00101411011505628,0
0.22,0.000602919216376207,0.000344793791925534,-0.0298232712759573,-0.0172510090610456,-0.000553582480709162,0.000419452950255422,0.0273576575213293,-0.0209423828197575,1.44186317686333,-0.000959552733306965,0
0.23,0.000602625470255461,0.000344792761129785,-0.0298154529805327,-0.0172509657035892,-0.000553288611540472,0.000419417712868368,0.027349775194785,-0.0209415102353075,1.44185675415703,-0.000908106895852029,0
0.24,0.0006023487688899,0.00034479179273147,-0.0298080926114777,-0.0172509079603333,-0.000553011791677118,0.000419384522823891,0.0273423565248408,-0.0209406721539404,1.44185069771171,-0.000859594862020222,0
0.25,0.000602087735473919,0.000344790879929261,-0.0298011437662061,-0.0172508660154684,-0.000552750647783305,0.000419353208483782,0.0273353511735823,-0.0209398931294947,1.44184498664131,-0.000813849281357503,0
0.26,0.000606813354146888,0.000347637734718452,-0.0300367571896098,-0.0173933013344942,-0.000557068705666978,0.000422787060513553,0.0275505803413012,-0.0211115901020648,1.44183969751897,-0.000797627750499776,0
0.27,0.000594358214695713,0.000340542050744809,-0.029435220149388,-0.0170382836578673,-0.000545627280100951,0.000414151478219496,0.0269995829577913,-0.0206823068189752,1.44183436746835,-0.000690661539088139,0
0.28,0.000593862061749324,0.00034039229813804,-0.0293681568581616,-0.0170307862688082,-0.000545152523745748,0.00041394177231888,0.0269339417922613,-0.0206663760178337,1.44182957836699,-0.000650841290685066,0
0.29,0.000599996457797153,0.000344132634749162,-0.0297192094986612,-0.0172179325173887,-0.00055075310007318,0.000418442400371081,0.0272579187408013,-0.0208972361645873,1.44182519905746,-0.000649103953568513,0
0.3,0.00059281438381276,0.000340302703122036,-0.0293727735217191,-0.017026309586793,-0.000544121810732197,0.000413722465540586,0.0269389331193987,-0.0206627424339579,1.44182170229197,-0.000584134964581525,0
0.31,0.000599549030941759,0.000344118285208157,-0.0297048877651881,-0.0172172168432978,-0.000550308132408309,0.000418374705405434,0.0272436530577559,-0.0208948864806725,1.44181778377036,-0.000589136586332341,0
0.32,0.0006004657732242,0.000344686342385015,-0.0297533960886864,-0.0172456404475612,-0.000551142598301928,0.000419058057764668,0.0272880227954206,-0.0209294172201097,1.44181397159246,-0.000564343360206213,0
0.33,0.00060047280370223,0.000344770503333112,-0.0297573729726386,-0.0172498518479877,-0.000551137230699846,0.000419144415316594,0.0272913493124776,-0.02093420377551,1.44181035832662,-0.000536307300487973,0
0.34,0.000600344145723433,0.000344782584851307,-0.0297545311236711,-0.0172504553687265,-0.000551006658149648,0.000419141726383695,0.0272883820518327,-0.0209345297967534,1.44180694819461,-0.00050913518659164,0
0.35,0.000600201458732852,0.000344783951702938,-0.0297508080337788,-0.0172505206018619,-0.00055086363276418,0.000419126499418479,0.0272846141739287,-0.0209342033303842,1.44180373206874,-0.000483396629253103,0
0.36,0.00060006360283258,0.000344783746594028,-0.0297471337372936,-0.0172505057991876,-0.000550725677483698,0.000419110233136764,0.0272809088198811,-0.0209337987444603,1.4418006992726,-0.000459107539016612,0
0.37,0.000599932858337312,0.000344783330510896,-0.0297436295305925,-0.0172504936386139,-0.000550594874241583,0.000419094576402342,0.0272773754253556,-0.020933413919693,1.44179783941322,-0.000436200669708998,0
0.38,0.000599809728950376,0.000344782904937494,-0.0297403306188327,-0.0172504656938385,-0.000550471692493208,0.000419079799375159,0.027274051066769,-0.0209330353837912,1.44179514263851,-0.000414599630779998,0
0.39,0.000599693419951869,0.000344782498649752,-0.0297372071724073,-0.0172504520253454,-0.000550355336508513,0.000419065833593407,0.0272709021002916,-0.0209326893668665,1.44179259964957,-0.000394230339778973,0
0.4,0.000599583911153961,0.000344782114759158,-0.0297342676087245,-0.0172504225804811,-0.000550245782178968,0.00041905268447623,0.0272679405556102,-0.020932347390776,1.44179020167689,-0.00037502261567379,0
0.41,0.00059948058246338,0.000344781752619018,-0.0297314898024904,-0.0172504088632613,-0.000550142411170122,0.000419040276252295,0.0272651402649738,-0.0209320380793791,1.44178794045108,-0.000356910228567641,0
0.42,0.000599383074538737,0.000344781411086271,-0.0297288641863126,-0.0172503951228925,-0.000550044863995617,0.000419028565931002,0.0272624936032818,-0.0209317447967233,1.44178580817401,-0.000339830717336214,0
0.43,0.000599291154546562,0.000344781089002468,-0.0297263870844717,-0.017250379904774,-0.000549952906815264,0.000419017526527138,0.0272599969583432,-0.0209314658298457,1.44178379749206,-0.000323725181491106,0
0.44,0.000599204473246528,0.00034478078526351,-0.0297240484988602,-0.017250366120718,-0.000549866190519358,0.000419007115893395,0.0272576398951721,-0.0209312029708408,1.44178190147118,-0.000308538079197951,0
0.45,0.00059912273959752,0.000344780498825697,-0.0297218408622339,-0.0172503523165149,-0.000549784423872661,0.000418997299204112,0.0272554149594492,-0.0209309539838031,1.44178011357255,-0.000294217035916549,0
0.46,0.000599045720768895,0.00034478022870501,-0.029719759198015,-0.0172503384930057,-0.000549707373516441,0.000418988048969251,0.0272533170866382,-0.0209307183987179,1.44177842763102,-0.000280712663807663,0
0.47,0.000598973067511806,0.00034477997397273,-0.0297177922979524,-0.017250323196326,-0.000549634690781823,0.000418979322576078,0.0272513352268398,-0.0209304934914669,1.44177683783172,-0.000267978391421344,0
0.48,0.000598904605209021,0.000344779733753026,-0.0297159373430247,-0.017250309337408,-0.000549566200313471,0.00041897109974364,0.0272494660950611,-0.0209302819365854,1.44177533869245,-0.000255970303085379,0
0.49,0.000598840042819368,0.000344779507219694,-0.0297141853505589,-0.0172502954622472,-0.000549501611424751,0.00041896334508422,0.0272477008620288,-0.0209300812782844,1.441773925043,-0.000244646987463701,0
0.5,0.000598779147509281,0.000344779293593791,-0.0297125299286913,-0.0172502801165502,-0.000549440691270975,0.000418956030579161,0.0272460332739822,-0.020929889385658,1.44177259200817,-0.000233969394740369,0
0.51,4.68589526307977,-0.00583794992511888,5.706019106045,0.299815054169415,-0.632478922409909,4.64301829750002,-0.466003533337757,5.69485590793779,0.134142315706284,41.6801970246272,4064.8801330585
0.52,4.73107858055897,0.00282156726000549,3.44768056466153,-0.124151838677502,-2.72298758906201,3.86890825511279,-2.0874887754203,2.74668992925778,0.613876774864735,89.3243327436519,4064.8801330585
0.53,4.72220092052264,-0.007707381996094,3.8923919728464,0.412704816452613,-4.68802439572487,0.567158004977924,-3.8132114689522,0.883435809130298,1.44876909629878,139.095837292287,4064.8801330585
0.54,4.68680968929966,0.0301504663689585,5.66286293418592,-1.47582899838793,-2.177498714304,-4.15037268971593,-1.28733998384593,-5.70866390759266,2.66485195131762,192.433315514573,4064.8801330585
0.55,4.71019037748147,0.0439580608111341,4.49481128807631,-2.15486552643442,4.20548519412912,-2.12172570922587,4.98435892169121,-0.0542226169684672,-2.02871625317079,240.654685274106,4064.8801330585
0.56,4.70869741968219,-0.0143560910594875,4.57043587318293,0.768120395368189,0.374457221940808,4.69380648050264,1.14284692117521,4.49141335521663,-0.0826571137017401,291.688840214469,4064.8801330585
0.57,4.65978871331972,-0.000286269093068281,7.01688419756362,0.0778885107967005,-3.66113131667915,-2.88266342412067,-5.56151522393298,-4.27928485568487,2.23772676974489,340.473014740098,4064.8801330585
0.58,4.6755739613569,0.0355580598064242,6.22871453992618,-1.71127656710145,4.58151628522105,0.933790539676943,5.73909693962241,2.96447611334871,-1.3621284378717,391.571459260503,4064.8801330585
0.59,4.67328720820262,0.06746771899209,6.3441821969259,-3.30181119365977,-4.65002536352721,-0.47056279284475,-5.92224984205389,-4.00968349307787,1.68608463111685,441.460620443929,4064.8801330585
0.6,4.65350545526996,0.0313054929755482,7.33442081267772,-1.47937467089743,4.31872582595946,1.73340713518449,6.22781561441113,4.14687722837679,-1.18238225227146,490.761016083316,4064.8801330585
0.61,4.66020269862751,0.00956592565391778,7.00078421928602,-0.377761410840615,-2.41863568347091,-3.98343848074373,-3.29779074964493,-6.18694266500675,2.59796836844092,540.374577075903,4064.8801330585
0.62,4.66883156306344,0.0418576360047238,6.57058530120825,-1.99271368841269,-2.03392904600476,4.2027220776263,-4.70104706959194,5.00436364525224,0.459694639878993,590.364620269002,4064.8801330585
0.63,4.63377853594064,0.0282544551541242,8.32456299717888,-1.30800720195928,4.48900969321831,1.14956244222414,7.71938597940181,3.37939521740088,-1.31400260465083,640.375876612767,4064.8801330585
0.64,4.61624106617618,0.0831315692898613,9.20279481757723,-4.04149836743252,1.79816437187643,-4.25243428292293,7.42965923468268,-6.76943905836225,-2.72353343652464,689.765742097747,4064.8801330585
0.65,4.63901184987206,0.0829764131700477,8.06563665754226,-4.0150393969031,-2.79497945013145,-3.70343163859398,-1.4952835945122,-8.88477141079928,2.51297514441473,738.801734042276,4064.8801330585
0.66,4.62355920646773,0.0374614051708582,8.83971637589053,-1.74534136492182,-4.47889600119655,-1.14812617035561,-8.09771660560113,-3.95142858491282,1.82983645069949,789.061728644839,4064.8801330585
0.67,4.63954596351986,0.0664360519928737,8.04185686107611,-3.17105550594596,-4.62697465358117,0.347715475259922,-8.21938475212287,-2.67745571249968,1.5101062159204,837.91960856945,4064.8801330585
0.68,4.66532679914663,0.0456137008563005,6.7543641522985,-2.13353228576601,-4.66373087719249,0.130265335615078,-6.79196802429897,-2.01061320824302,1.55264887514667,887.919623565964,4064.8801330585
0.69,4.61337761666287,0.0782655859233755,9.35338872611399,-3.75666718552398,-4.30269104218407,-1.66620176790654,-7.24786618031071,-7.00477443155004,1.95722342913201,937.069244877116,4064.8801330585
0.7,4.60225402310732,0.125534704784695,9.91119440052354,-6.10093911590963,-1.98025480772176,-4.15633154979337,1.55981875390822,-11.5334382556097,2.7242376948372,986.102976194588,4064.8801330585
0.71,4.61587555754013,0.124666936862135,9.23178294540204,-6.05121040890203,2.91808712935979,-3.57863333038015,10.6098728060201,-3.04525250248586,-2.4305183532336,1035.45000222558,4064.8801330585
0.72,4.61877841124235,0.11322586501051,9.08833727640011,-5.47083289924343,3.79918975198029,2.62908564659156,4.12193897366191,9.77432893647718,-0.940942109681118,1084.74253567403,4064.8801330585
0.73,4.58864185469386,0.0920934109661082,10.5968932862311,-4.40377486997986,-3.56499229712944,2.8904922052134,-11.0677896088431,3.03173442102366,0.909572393354629,1133.94501294629,4064.8801330585
0.74,4.5626952669733,0.141221919473589,11.8960372382289,-6.85293020765955,-0.237198998122963,-4.558713455032,6.60109620583423,-12.0376028878553,3.12054907584061,1183.17568137819,4064.8801330585
0.75,4.60019465707368,0.111936312910951,10.0228935641765,-5.40472615890398,2.65715481327226,3.75684028399151,1.09973571291138,11.3340214228357,-0.591270011610603,1232.67986685474,4064.8801330585
0.76,4.56190689693764,0.155080009371535,11.9391430582133,-7.54284383430963,-3.38441688215541,-3.0628037340671,-3.32675439514806,-13.7248072943713,2.34033327885464,1281.52790795772,4064.8801330585
0.77,4.55991771098741,0.107094569169133,12.0405438948511,-5.12171689492368,2.85254819604794,3.55911331190028,3.23684022418544,12.6779157040374,-0.652159271150381,1330.48218273461,4064.8801330585
0.78,4.54320377156313,0.10611518832885,12.8782007891553,-5.07984081093697,-0.754678450030875,-4.48134147105512,3.18612404081432,-13.4722474675462,2.99810616782658,1379.55072480685,4064.8801330585
0.79,4.55243769343892,0.110943294786473,12.4185350846481,-5.32895215226039,-2.93095901914572,3.4851795642965,-12.21579974243,5.77857952636844,0.723598162514812,1428.60238977406,4064.8801330585
0.8,4.55321997276748,0.142644564103615,12.38144597461,-6.87509339245787,4.28360278994757,1.55013119768309,8.96419193000103,10.9640492802298,-1.1922633162344,1477.18053565099,4064.8801330585
0.81,4.58102503036289,0.151947926077797,10.9932690806639,-7.33876346172683,-4.04942126835569,-2.14733925881294,-5.8849709638256,-11.8353931486025,2.09153264262702,1526.10925059555,4064.8801330585
0.82,4.53860473262573,0.131962314519039,13.1163723973846,-6.34031518405509,-3.45058032865171,2.95124420659961,-14.1906744276364,3.29599465849953,0.892306928624054,1575.04633473043,4064.8801330585
0.83,4.55376421504953,0.147396413838216,12.360528974143,-7.10499925810118,-0.0848936369417817,4.55535808685605,-7.7257620858631,11.9823324595375,0.0509905807890954,1623.86304186277,4064.8801330585
0.84,4.51474124046336,0.14388228112133,14.3138248578139,-6.91846532938447,2.02361549163343,4.03838716831144,-0.279278698749951,15.8956833128523,-0.432664541835588,1672.58022437305,4064.8801330585
0.85,4.53569125650084,0.159345005837833,13.2685503439049,-7.6733992670774,2.54098383168727,3.76049028349862,0.533221813019829,15.3183275535824,-0.559117236677826,1721.20140711123,4064.8801330585
0.86,4.51100879954988,0.184348326757221,14.504901497331,-8.94967431256033,1.63025412363953,4.21016106432414,-3.78988752955224,16.6170271186371,-0.328596310239657,1770.09898242731,4064.8801330585
0.87,4.54774654849986,0.131589624766098,12.6703031982082,-6.29546247618629,-1.03714061987065,4.42985934690401,-9.32956828330815,10.6361922966203,0.258909605199279,1818.78938673567,4064.8801330585
0.88,4.49454630739515,0.148498353473963,15.3326116155581,-7.10840768292177,-4.14017302584116,1.75555278656071,-16.863346030057,-1.11624343703814,1.20277620534374,1867.17656220916,4064.8801330585
0.89,4.51684488124147,0.164421131190444,14.2200368930853,-7.92828354904302,-2.82446868980108,-3.52863976766014,-2.11069064919317,-16.1434851955252,2.50296843841252,1915.99052299466,4064.8801330585
0.9,4.46012939758908,0.201627004009763,17.0582278940794,-9.76756664210471,3.68782583158107,-2.51661445754166,19.645660434859,-0.660698927290435,-2.12444430315617,1964.36436806681,4064.8801330585
0.91,4.51660812970413,0.178749220591648,14.2367033460133,-8.60320759547977,0.687044348449695,4.46762468706078,-6.94252599983697,15.1162242585539,-0.113032207913763,2012.76848420666,4064.8801330585
0.92,4.52542455712589,0.178739938688657,13.798373828163,-8.61078400930974,-3.62377826088991,-2.71655047879148,-5.27253395687405,-15.3863935745297,2.25354708053753,2061.30433757579,4064.8801330585
0.93,4.48530044178184,0.193030547568433,15.8071068952222,-9.33168122043742,1.53170509875362,-4.22007823811302,14.653692622225,-11.0550529320395,-2.75041246950645,2109.75025882188,4064.8801330585
0.94,4.45825867770924,0.166828705541987,17.1617248008482,-8.01734722706996,-1.26809399966961,4.27736365795153,-13.0859510446058,13.6952743659131,0.325614382898351,2158.13193846264,4064.8801330585
0.95,4.49820484945554,0.199756726730006,15.166979525674,-9.64760951738101,2.43033448961179,-3.79041209977789,16.6274106654968,-6.82955722525249,-2.52706421532785,2206.42454664832,4064.8801330585
0.96,4.47840353517574,0.239943397427419,16.1596522051641,-11.6370499319258,-4.18654102705217,1.60827400857334,-18.9592253471581,-6.09122850873918,1.25755170585471,2254.61165310399,4064.8801330585
0.97,4.41360646882233,0.227450845667296,19.4021403608291,-10.9975284888954,3.5653831773094,2.61145529308549,8.09538321455594,20.7810840442664,-0.887135447643598,2302.85587037059,4064.8801330585
0.98,4.41636045608621,0.18447823189296,19.267137001052,-8.88973020080856,1.80896384650752,-4.03310323425437,16.564157395346,-13.2619214687269,-2.67821538516375,2351.2692543109,4064.8801330585
