t,iq,id,vq,vd,ia,ib,va,vb,theta_e,omega,r
0,0,0,0,0,0,0,0,0,0,0,0
0.01,0.000503841255106794,0.000285683909788653,-0.0247324255506475,-0.014294299125512,0.000132736493376964,0.000563783939098754,-0.00677556823490739,-0.027750883521107,0.284582620320329,-0.0015857717197482,0
0.02,0.000592996406522678,0.000334928766161443,-0.0291547519127486,-0.0167582780846157,0.000154977994182741,0.000663177078818569,-0.00789925127352063,-0.0326870199432896,0.284570182816511,-0.00179084128372794,0
0.03,0.000626724728824706,0.000353827648840574,-0.0308236847113457,-0.0177038897743178,0.000163656895824267,0.000700852560281843,-0.00833873904516332,-0.0345541992160477,0.284557138004317,-0.00181129253394094,0
0.04,0.000613624319524543,0.000346656242517165,-0.0302037747005906,-0.0173450738621562,0.000160460071243151,0.000686263740499759,-0.00816879983255401,-0.0338583860032246,0.284544778862652,-0.0016839761460753,0
0.05,0.000628481958146737,0.000355386644804148,-0.0309491000858593,-0.0177818934610328,0.000164677005039938,0.000702972775455908,-0.00837924261207668,-0.0346962652807477,0.284532787410302,-0.0016502035534084,0
0.06,0.000630026603343884,0.000356548237420619,-0.0310433174832864,-0.0178400151570473,0.000165366434848837,0.000704779475264545,-0.00840898155976178,-0.0348029126697663,0.284521241479051,-0.00157613922425901,0
0.07,0.000641711637317978,0.000363608468580451,-0.0316317772578208,-0.0181932857502255,0.000168870641642791,0.000717974686380998,-0.00858325463576238,-0.0354667833153137,0.28451039227463,-0.00153986275934923,0
0.08,0.000630883449296525,0.00035764053805624,-0.0311199499940351,-0.017894669820679,0.000166189423925361,0.000705904920249742,-0.0084406755636374,-0.0348916249500045,0.284499824973602,-0.00143221834272398,0
0.09,0.000628903061176171,0.000356843747998073,-0.0310393352088921,-0.0178548030323355,0.000165987504093414,0.000703778849729736,-0.00842538378811376,-0.0348029773087944,0.284489891801814,-0.0013577247524684,0
0.1,0.00062818672830297,0.000356736118280479,-0.0310196388752271,-0.0178494135679083,0.000166091874924278,0.000703059537155959,-0.00842606672850076,-0.0347824806498125,0.284480471934328,-0.00129086306574794,0
0.11,0.000627669589048983,0.00035672039557577,-0.0310089010422862,-0.0178486339621066,0.000166228208110819,0.000702557283404648,-0.00842864315316758,-0.034771880201682,0.284471527116438,-0.0012279045422003,0
0.12,0.000627201344612916,0.000356716988853292,-0.0309998209103181,-0.0178484669640381,0.000166362315879347,0.000702105488282259,-0.00843132653344953,-0.034763046505226,0.284463031743588,-0.00116818398661649,0
0.13,0.000653294025520073,0.000371802904005063,-0.032288062991106,-0.0186032978664961,0.000173525358587971,0.000731381865466827,-0.00879458959980914,-0.036211281349852,0.284454694369223,-0.00119602273985927,0
0.14,0.000670194063301279,0.000381818106008815,-0.0331752157941012,-0.0191044106465655,0.000178401390868888,0.000750411948396668,-0.00902689819238318,-0.0372033406855102,0.284446672371964,-0.00119609222067508,0
0.15,0.000632041742879403,0.000360057681759446,-0.0312753386910726,-0.0180156150112424,0.000168227354778603,0.000707684856444035,-0.00851527895449321,-0.0350741959109795,0.284438982009121,-0.00101919372282478,0
0.16,0.00062637153152099,0.00035715691490985,-0.0310095687183315,-0.0178704778617568,0.00016703916825838,0.000701427311726184,-0.00845079441435622,-0.0347783180282018,0.284432058776074,-0.000953306235626606,0
0.17,0.000625273001267099,0.000356769363111893,-0.0309664881059401,-0.017851086178701,0.000166980016247464,0.000700263078237621,-0.00844449734351244,-0.0347314717222025,0.284425536618686,-0.000905050489915885,0
0.18,0.000624830835843109,0.00035671676268552,-0.030954928181076,-0.0178484508449992,0.000167057933386857,0.000699822884088359,-0.00844542649087464,-0.0347195844970696,0.284419349461569,-0.000861226681715143,0
0.19,0.000624495250761449,0.000356708844372121,-0.0309480681375219,-0.0178480488168553,0.000167148608272573,0.000699497577286327,-0.00844716949643654,-0.0347128376182648,0.284413474040168,-0.000819885192908036,0
0.2,0.000624188250326495,0.000356706925660456,-0.0309421243937756,-0.0178479584868979,0.000167236811003658,0.00069920143857483,-0.00844894425133676,-0.0347070601634267,0.284407893797316,-0.000780659157545302,0
0.21,0.000623898304776812,0.000356705849609429,-0.0309365580478542,-0.0178479088956365,0.000167320838061702,0.000698921952008444,-0.00845064242805716,-0.0347016587261807,0.284402593784358,-0.00074340837880323,0
0.22,0.000623623202183972,0.000356704926876047,-0.0309312840799792,-0.0178478636692173,0.000167400658758119,0.000698656798869935,-0.00845225346798207,-0.0346965413795716,0.284397559911661,-0.000708028905931608,0
0.23,0.000623361953014765,0.000356704063556451,-0.0309262757839029,-0.0178478198975633,0.000167476470361473,0.000698405000912314,-0.00845378254306247,-0.0346916815630561,0.284392778812986,-0.000674426104106887,0
0.24,0.000623113858773954,0.00035670324519548,-0.0309215197285207,-0.0178477746693174,0.000167548464218378,0.000698165881626435,-0.00845523107490128,-0.0346870654630519,0.284388237794755,-0.000642510665008063,0
0.25,0.000622878220972996,0.000356702468019561,-0.0309170013660163,-0.0178477308942212,0.000167616841437509,0.000697938767600886,-0.00845660636272973,-0.0346826798325134,0.28438392480145,-0.000612197845449659,0
0.26,0.000628019359539515,0.000359772936561248,-0.0311747048744625,-0.0180013704902348,0.000169124394070763,0.000703734197810881,-0.00853191322681803,-0.0349731042406387,0.284379889178017,-0.000601291185070146,0
0.27,0.000614252752553063,0.000351923608431026,-0.0305087319278316,-0.0176086328286761,0.000165455508604689,0.000688317619171914,-0.00834193516975323,-0.0342236583603076,0.284375835988582,-0.000528704047796702,0
0.28,0.000613782521380007,0.000351771564260347,-0.0304451647524277,-0.0176010140438575,0.0001654440402175,0.000687823005234835,-0.00835258292754397,-0.0341604758546048,0.284372140394011,-0.000501856718273599,0
0.29,0.000620862116544799,0.000356042936355456,-0.0308431500670746,-0.0178147360265826,0.000167560029806055,0.000695816050907492,-0.00844618300793887,-0.0346024091408865,0.284368721056534,-0.00050148279271484,0
0.3,0.000613861283201466,0.000352285903653785,-0.0305057391706995,-0.0176267475780009,0.000165919930738516,0.000688041866103103,-0.00836050265262731,-0.034225784840157,0.284365883449511,-0.000459250663150259,0
0.31,0.000620596039734374,0.000356110553101494,-0.0308397896143145,-0.0178181280270972,0.000167703715872828,0.000695578632684103,-0.00845058732940587,-0.034600085023498,0.284362774054691,-0.000459877828729683,0
0.32,0.000621399213892064,0.000356619741370744,-0.0308839225126818,-0.0178436027987032,0.000167969233737545,0.0006964918947688,-0.00846276249216916,-0.0346495668314679,0.284359751082264,-0.000441784480021462,0
0.33,0.000621377672808747,0.000356687146892467,-0.0308875345156205,-0.0178469723128087,0.000168041982106211,0.000696489644771061,-0.00846508320592724,-0.0346539546878064,0.284356870129721,-0.000421978589966098,0
0.34,0.000621247221256671,0.000356695704445408,-0.0308855929013871,-0.0178473957343383,0.000168088699326491,0.000696366372427381,-0.00846612919055083,-0.0346521866539067,0.284354132471306,-0.000402799641161566,0
0.35,0.000621107634968851,0.000356696441410237,-0.0308829814392024,-0.0178474411450942,0.000168130376365149,0.000696232161045897,-0.00846699549337462,-0.0346496707822296,0.284351532091053,-0.000384532198279592,0
0.36,0.000620973166485192,0.000356696156447275,-0.0308804080188559,-0.0178474208135398,0.00016816954522842,0.000696102597018982,-0.00846778348562633,-0.0346471740831362,0.284349062260397,-0.000367174815220877,0
0.37,0.00062084493060861,0.00035669575451003,-0.0308779371173983,-0.0178474065436295,0.000168206766426562,0.00069597900318631,-0.00846854422761952,-0.0346447785333439,0.284346716447224,-0.000350688010228479,0
0.38,0.000620723326005037,0.000356695355228926,-0.0308755988672384,-0.0178473774576132,0.000168242047368274,0.000695861794745175,-0.00846924944415779,-0.0346425071462469,0.284344488427338,-0.000335028939510329,0
0.39,0.000620607662980673,0.000356694973632339,-0.0308733687440381,-0.0178473617022025,0.000168275600154454,0.000695750312941048,-0.00846993323797403,-0.0346403442286426,0.284342372286621,-0.000320156161087251,0
0.4,0.000620497762516682,0.000356694610855676,-0.0308712472786206,-0.0178473473865015,0.000168307480076185,0.000695644385337865,-0.00847058424274315,-0.0346382869071031,0.284340362406584,-0.000306030208843356,0
0.41,0.00062039344998799,0.000356694266226259,-0.0308692347541973,-0.0178473330556585,0.00016833773925231,0.000695543843255126,-0.00847120116867241,-0.0346363350005341,0.284338453451703,-0.000292613583689179,0
0.42,0.000620294376148632,0.000356693938871067,-0.0308673222443231,-0.0178473187104375,0.000168366478401284,0.00069544835038968,-0.00847178669726335,-0.0346344798985475,0.284336640354054,-0.000279870667465441,0
0.43,0.000620200249958145,0.000356693627930284,-0.0308655033568052,-0.0178473028963565,0.000168393781742089,0.000695357626351226,-0.00847234139332198,-0.0346327150171373,0.28433491830026,-0.000267767630270359,0
0.44,0.00062011089679785,0.000356693332582581,-0.0308637770760578,-0.0178472885240978,0.000168419700697967,0.000695271502546386,-0.00847286849482384,-0.0346310401595506,0.284333282718512,-0.000256272340910978,0
0.45,0.000620026025627299,0.000356693052046997,-0.0308621361665679,-0.0178472741392564,0.000168444319224253,0.00069518969868293,-0.00847336878667365,-0.0346294479362662,0.284331729266725,-0.000245354281642665,0
0.46,0.000619945403615847,0.000356692785581417,-0.0308605759612999,-0.017847259742445,0.000168467704827981,0.000695111990387332,-0.00847384372221493,-0.0346279338330911,0.284330253820791,-0.000234984467151647,0
0.47,0.000619868797932852,0.000356692532481014,-0.0308590914287005,-0.0178472453341917,0.000168489924903629,0.000695038153330022,-0.00847429484971095,-0.0346264929876516,0.284328852463435,-0.000225135367606063,0
0.48,0.000619796150368422,0.00035669229207637,-0.0308576859490073,-0.017847229459187,0.000168510997754944,0.000694968130833237,-0.00847471995350587,-0.0346251282049047,0.284327521474946,-0.000215780835570505,0
0.49,0.000619727111681038,0.000356692063731097,-0.0308563480432376,-0.0178472150288866,0.000168531023223077,0.000694901586911883,-0.00847512517110252,-0.0346238292536639,0.284326257321019,-0.000206896036590451,0
0.5,0.000619661395232062,0.000356691846841144,-0.0308550690206917,-0.0178472153622344,0.000168550083491144,0.000694838245708323,-0.00847552584121362,-0.0346225914999519,0.284325056646181,-0.000198457383260944,0
0.51,1.6287613451033,0.028428529596091,-0.18181783663994,-1.42188379359314,-0.0219238570428856,1.62886188643791,-1.41558524853797,-0.225675989695264,0.0309111113846758,9.49256969018547,289.646332316905
0.52,1.5612241339221,-0.00065312021748859,0.906042410444512,0.0341695139879574,-0.216415499042192,1.54615185369392,-0.0913777847031697,0.902070122370216,0.138648575425557,19.8529458329171,289.646332316905
0.53,1.49826765268926,-0.0383967152067524,1.81047327287212,1.92360296977678,-0.509690703688157,1.40943096794683,1.25324177003184,2.32539177838183,0.321374879798251,29.9562872240802,289.646332316905
0.54,1.46198105031517,0.00397947472575677,1.42504147973047,-0.196156463891384,-0.794470495124853,1.2272819806694,-0.942022361709126,1.08711289538794,0.577225988151749,39.8168545101071,289.646332316905
0.55,1.42575595038436,-0.0203431031703932,1.04523417360394,1.02178658658563,-1.13376060490364,0.864743177291118,-0.190762792150379,1.44919697188713,0.904935954271421,49.5972086424834,289.646332316905
0.56,1.36111438951739,-0.017089338138294,2.05151280154361,0.859651522105586,-1.31759803427128,0.341847695492839,-1.75282614876954,1.3694181269961,1.30439098393797,59.4178649096719,289.646332316905
0.57,1.33243654413481,-0.0233556985941871,1.1717500208074,1.17287227676248,-1.29953866701941,-0.295181106651766,-1.38672444272151,0.908637886519625,1.77662279674655,69.4646462058838,289.646332316905
0.58,1.28550605668177,0.0381710270388207,1.25310651080008,-1.90704025104747,-0.965662807793213,-0.84939872304804,0.385536548119287,-2.24909760050315,2.32191137062065,79.1580676334073,289.646332316905
0.59,1.25868303189807,0.0229924394086776,0.57623467508968,-1.1468142455427,-0.280945335730794,-1.22714357162852,1.00406226058846,-0.799429979058433,2.93479388116118,87.8989477164371,289.646332316905
0.6,1.19135517239429,0.0434033857080857,2.10188639446885,-2.16704624933004,0.498173529677246,-1.08306700393395,2.88176838926252,-0.899681506220938,-2.67406649290131,95.9998272769403,289.646332316905
0.61,1.19012780028324,0.0390934849393345,0.382762037856128,-1.94982847049784,1.09509948790183,-0.467642591269085,1.06321397729182,1.67866431441162,-1.94155055479706,103.857887103353,289.646332316905
0.62,1.09424203862349,-0.035242271722526,3.31894492605565,1.77038733206265,0.984748562395134,0.4784118786859,3.75239758061249,-0.263019247835583,-1.15075172633088,111.961424949953,289.646332316905
0.63,1.1093751906427,-0.0384034638218183,0.614172389606375,1.9252563884715,0.290433195195667,1.07137141028472,2.02075559359102,0.0191498427077281,-0.299326633133612,120.218620807222,289.646332316905
0.64,1.05996557870791,-0.0262509230748759,1.38235879492911,1.31845548143813,-0.628022335187912,0.854285716556821,0.290339624357126,1.88810582250579,0.609163991296567,127.520572142595,289.646332316905
0.65,0.992419650479815,-0.017251562525511,3.18684270104829,0.870150894115035,-0.992446567082911,-0.0156265976269351,-3.18541368460089,0.875367715712271,1.56915897257811,134.374254490561,289.646332316905
0.66,1.00009488320563,-0.00027550947970989,1.14625755972989,0.0213957789146113,-0.53229390924845,-0.846671746012916,-0.628465660646614,-0.958850919580985,2.58006889889853,141.54411310508,289.646332316905
0.67,0.989103633484177,-0.00022475775224684,0.00376582796835629,0.0152159946773911,0.476619362725128,-0.866694889429458,-0.0115206808753689,-0.0106292928493648,-2.63903233242413,148.612910916398,289.646332316905
0.68,0.938026094348402,-0.00896194551306678,1.09449116070417,0.45502895481055,0.936707314638603,0.0505240224886504,1.1135815267729,-0.406076881643948,-1.52646440241925,154.872312411111,289.646332316905
0.69,0.893810966556662,-0.0367629560845484,1.85683347223549,1.84805503371777,0.287804208618043,0.847005487809123,2.39302320157762,1.06610407933508,-0.368657883035338,161.107744886042,289.646332316905
0.7,0.881420383935556,0.011723198505834,0.913279448877208,-0.583166383110314,-0.646436553386478,0.599298847859832,-1.06869233168108,0.17905050219835,0.836518943751452,167.607191269917,289.646332316905
0.71,0.84103926029129,-0.0161297474610261,1.5861056241035,0.813780400387397,-0.723818116954735,-0.428596009865443,-1.78115923045627,-0.0737657551161167,2.08623458853273,173.289568285655,289.646332316905
0.72,0.788375545139051,0.0356834781838011,2.87780392719126,-1.77719907051356,0.149285452547696,-0.774934296857623,2.39972151809777,-2.38359573232757,-2.90605014405234,179.001681845367,289.646332316905
0.73,0.822491339141728,-0.0350933295669361,-0.231177157944186,1.75993330008329,0.822539003383373,0.0339578070012527,-0.233606610788599,-1.75961247168036,-1.57217687565892,184.768328049683,289.646332316905
0.74,0.774091666307324,0.0322666315959856,0.972891340625029,-1.60677599342945,0.184627064658841,0.752443944992888,-1.38279039617168,1.27127391776113,-0.198957056632631,189.874767065327,289.646332316905
0.75,0.753516423398475,0.0182575071477663,0.714678507543241,-0.91109177372739,-0.699208096062791,0.281475354691538,-0.988910350658695,-0.602420042543451,1.21230736523203,195.241655270534,289.646332316905
0.76,0.729025672749346,-0.0195553595832217,0.729029541897349,0.983899885296744,-0.318916456004848,-0.655860608441591,-1.20925119219538,-0.193014536810193,2.66218267069187,200.195679202606,289.646332316905
0.77,0.678571816902769,-0.00327398595711836,2.11675259113683,0.172475035644241,0.574674815085509,-0.360859095195353,1.69475766912876,-1.27991625231271,-2.13632903181104,204.946851730918,289.646332316905
0.78,0.649940697791235,0.00236295117217783,2.33643654848412,-0.115338093498608,0.377239667775744,0.529262437019713,1.25501860434882,1.97412434351097,-0.615606085263063,209.83897344861,289.646332316905
0.79,0.664290949042778,0.000972298802865784,0.573079985842378,-0.0402825624840297,-0.53527031305382,0.393407044050284,-0.486079006273889,0.306219781649011,0.938448379933419,214.151449119781,289.646332316905
0.8,0.61063472413007,-0.0352229462241155,2.13418371334032,1.76413806707024,-0.324392562748137,-0.51854111455873,-2.67342249601527,-0.720926764500311,2.52495269488329,218.70086117385,289.646332316905
0.81,0.617097973812111,-0.0139414335291742,0.809423222500635,0.704738079013122,0.52731068464974,-0.320854662902198,0.301963558151384,-1.02987364403745,-2.1400112613247,222.759642931503,289.646332316905
0.82,0.565302066877279,-0.00233396370525138,2.36461073084046,0.117838429173118,0.264951828557364,0.499372008372927,1.22074157910389,2.02856101728363,-0.491932187070974,226.965731187012,289.646332316905
0.83,0.571198731770854,-0.0222372167292266,1.09929233464579,1.11860385601324,-0.537833412835479,0.193643241612599,-0.599438084524779,1.44927299240686,1.18629140041094,230.819569430285,289.646332316905
0.84,0.545478396199658,-0.0057444059578983,1.433365498472,0.28894750639548,-0.129159752469243,-0.529997582317546,-0.634018499610552,-1.31759168782049,2.89202274631287,234.665006895527,289.646332316905
0.85,0.516301372469168,0.0230151128083514,1.97189560645059,-1.14683258184427,0.512380999322498,-0.0675463852800849,2.06362497634334,0.972136415597455,-1.65732155139754,238.27694601838,289.646332316905
0.86,0.504459650138759,-0.0433614189375624,1.68470500215428,2.17352170041836,-0.0945245981444936,0.497418185851724,1.99059561955379,1.89735516071358,0.102045920644436,241.823092365971,289.646332316905
0.87,0.510722614549442,0.0236156130841415,0.491040715498651,-1.17700317667079,-0.492661795028998,-0.136673486501088,-0.0999110281379352,-1.27140679903286,1.88761628086553,245.234365565925,289.646332316905
0.88,0.438563013692129,-0.0269726511334138,3.26801963477841,1.35289461112486,0.25423596371851,-0.358370081954407,0.574319586570575,-3.49004773242277,-2.58599548168748,248.531169220915,289.646332316905
0.89,0.475172016139004,0.00207454352050954,0.618284568829227,-0.0991066436645669,0.326179440269788,0.345542647726315,0.350081843687425,0.519173032419069,-0.752214074393491,251.687623552162,289.646332316905
0.9,0.412047863734232,0.018949328324142,2.98899272679946,-0.947702214851247,-0.359394603579722,0.202430328680401,-3.09560173903291,0.499466597672441,1.10379032512581,254.784281145264,289.646332316905
0.91,0.451688234654911,0.0256574117343666,0.236749407228479,-1.27874925343186,-0.0969103019649308,-0.441915102113113,1.22507494201971,-0.436395831110908,2.98245614657463,257.712207551369,289.646332316905
0.92,0.376837037310177,0.0404664767527184,3.23927248077059,-2.02581601644352,0.37826142590864,0.0237061616263044,2.85095416214459,2.54339873053895,-1.40123219666982,260.583374293421,289.646332316905
0.93,0.393911989196982,0.00306245914354356,1.67835491559799,-0.147661034858967,-0.19270573625201,0.343570273895603,-0.960619364850122,1.38415658066655,0.518941251444231,263.249859987023,289.646332316905
0.94,0.392801547625703,0.00282051596352872,1.0198264541052,-0.141830859670469,-0.250120534517732,-0.302887321193892,-0.533697557199367,-0.88052762971248,2.45850465959033,265.968242224813,289.646332316905
0.95,0.336978742733319,0.032186719317663,3.15109689581398,-1.60444351467671,0.313063470335766,-0.128770809952758,3.48145457458735,0.618970664637214,-1.86580060323448,268.437953596775,289.646332316905
0.96,0.366843738866118,-0.00168905372060552,0.984090001772921,0.0841515371752459,-0.0424145037375095,0.364387419541955,-0.0256464594689617,0.987348404523495,0.111273759354196,270.976531221434,289.646332316905
