t,iq,id,vq,vd,ia,ib,va,vb,theta_e,omega,r
0,0,0,0,0,0,0,0,0,0,0,0
0.01,0.000494836595922029,0.000278310741635154,-0.0239837540868037,-0.0139284215133093,-0.000342983548660734,-0.000452418402500717,0.0170589089841037,0.0218681277255452,3.00525639735623,-0.00186495008759731,0
0.02,0.00056165233644596,0.000315181620832248,-0.0273321187496252,-0.0157736617614391,-0.000388600706902551,-0.000513597402388765,0.0193424668948171,0.024934355719184,3.00524236919512,-0.00197470791123801,0
0.03,0.000587103741071539,0.000329755627332507,-0.0286050528968466,-0.01650303893044,-0.000406506533125682,-0.000536825870337664,0.0202384677916937,0.0260960488698114,3.00522835675437,-0.00191939622803692,0
0.04,0.000572701595571755,0.00032236349868624,-0.0279614996997242,-0.0161330891360222,-0.000397231803603175,-0.000523557291097962,0.0197847895794933,0.0255085109683746,3.0052156860309,-0.00171990607409592,0
0.05,0.000585916473912607,0.000330332022760938,-0.0286399544668043,-0.0165318855946615,-0.000406929380538462,-0.000535561237318478,0.0202724353057468,0.0261262052343985,3.00520370557597,-0.00163847622435345,0
0.06,0.000586103448123563,0.000330975622911171,-0.0286904657523318,-0.0165640998399584,-0.000407598400656172,-0.000535654420915481,0.020311510146522,0.0261716408381586,3.00519255183926,-0.00151426319583906,0
0.07,0.000598752761336152,0.000338761388986349,-0.0293347732341549,-0.0169537523271617,-0.000417037405281631,-0.000547123341186969,0.0207854253411303,0.0267567698360308,3.00518244289798,-0.00145154146617543,0
0.08,0.000585509078767325,0.000331654454703485,-0.0287352254876182,-0.0165980728982884,-0.000408200637548649,-0.000534965230784678,0.0203517699536561,0.0262109646429623,3.00517286654344,-0.00129134614037127,0
0.09,0.000583581764147934,0.000331075749794443,-0.0286750648972519,-0.0165691081442964,-0.000407369821654347,-0.000533130993240192,0.0203151193700205,0.0261551260088881,3.0051641979734,-0.00118652892162156,0
0.1,0.000582714800406878,0.000331026797175766,-0.0286630882362216,-0.0165666594651097,-0.000407207644194247,-0.000532275505327312,0.0203112724229231,0.0261434321700908,3.00515624676693,-0.00109398472576609,0
0.11,0.000581998089346621,0.000331020980906639,-0.0286559001122957,-0.0165663737103104,-0.000407108281369626,-0.000531563272850731,0.0203102025032416,0.0261362013963937,3.00514894421336,-0.00100930823264757,0
0.12,0.00058134686208233,0.000331018813210856,-0.0286496354540422,-0.0165662626077118,-0.000407021114605369,-0.000530915662810864,0.0203094155800747,0.0261298738464808,3.00514223657051,-0.000931558067523536,0
0.13,0.000607463497732995,0.00034607930967059,-0.0299264912886437,-0.0173199781279051,-0.000425497814738405,-0.000554738135801856,0.021229990445778,0.0272921972159178,3.00513572527992,-0.000962942316789016,0
0.14,0.000627458040663363,0.00035804386424055,-0.0310040562496645,-0.0179187619949457,-0.000440074544175033,-0.000572916570787186,0.0219699642423244,0.028278157764516,3.00512968492467,-0.000975145911591052,0
0.15,0.000583760045440148,0.000333206328613119,-0.0288330530500875,-0.0166757315379743,-0.000409526247082815,-0.000533001408094184,0.020443294931663,0.0262963241319541,3.00512405507378,-0.000737502725115911,0
0.16,0.00057949403354394,0.000331190292153381,-0.0286460154949725,-0.016574847051043,-0.000406951082242153,-0.000529047409209805,0.0203180262120161,0.0261246544350638,3.00511933144067,-0.000667540005966887,0
0.17,0.000578741197385064,0.000331025660133873,-0.0286259006118892,-0.0165666003760266,-0.000406687829014983,-0.000528322222652847,0.0203072318220173,0.0261057612336352,3.00511503206779,-0.000616364354762157,0
0.18,0.000578328903254878,0.000331011304784634,-0.0286208006637291,-0.0165658818458926,-0.000406619595731059,-0.000527914111009288,0.0203059290885634,0.0261007263465066,3.00511108638201,-0.000570512104638023,0
0.19,0.000577974717884075,0.000331009221260901,-0.0286172884230223,-0.0165657866264337,-0.00040657125362074,-0.000527562029340801,0.0203054514612094,0.0260971861355864,3.00510746239615,-0.000528496620862054,0
0.2,0.000577651773472767,0.000331008207857502,-0.0286141745883873,-0.016565727036673,-0.000406528064296792,-0.000527240872850704,0.0203050556127242,0.026094041775709,3.00510413362596,-0.000489912462801986,0
0.21,0.000577355213764128,0.000331007349837553,-0.0286113153625321,-0.0165656855321885,-0.000406488474024302,-0.00052694594503848,0.0203047052303514,0.0260911527042054,3.0051010760002,-0.000454471935583174,0
0.22,0.000577082868441152,0.000331006567442404,-0.0286086892274516,-0.0165656439716863,-0.000406452120582042,-0.000526675097581642,0.0203043799944347,0.0260884996224615,3.00509826743096,-0.000421918254153467,0
0.23,0.000576832600451233,0.000331005849095856,-0.0286062690249506,-0.016565617565994,-0.000406418712789419,-0.000526426206579415,0.020304091811953,0.0260860531426738,3.00509568763102,-0.000392016209322621,0
0.24,0.000576602863133931,0.00033100518916458,-0.0286040505645178,-0.0165655758969288,-0.000406388044747484,-0.000526197732905077,0.0203038104667159,0.026083812873621,3.00509331796658,-0.00036454980885004,0
0.25,0.00057639176889595,0.000331004582875542,-0.0286020066481823,-0.0165655479229255,-0.000406359864159357,-0.000525987800177915,0.0203035613960224,0.026081747581927,3.00509114132111,-0.000339320659072013,0
0.26,0.000581883612910586,0.000334216959434895,-0.0288726115695407,-0.0167263163223565,-0.000410290708752938,-0.000530990630104519,0.02049970879497,0.0263279185634287,3.005089201631,-0.000339528810294853,0
0.27,0.000565831330504488,0.000325090733205504,-0.0281101952644028,-0.0162695822879853,-0.000399066026544074,-0.000516328757532345,0.019943525642279,0.0256347063682059,3.00508717951245,-0.000252746697102836,0
0.28,0.000565198663088725,0.000324774805250088,-0.027994751120531,-0.0162537676778681,-0.000398667812912311,-0.000515744295005024,0.0199121913390183,0.0255224546253864,3.00508549255994,-0.000231319388925297,0
0.29,0.000574765984403853,0.000330497369059801,-0.0285502798422947,-0.0165401670849047,-0.000405639846656704,-0.000524443288247172,0.0202715620230755,0.0260338122336032,3.0050840637576,-0.000253533020621998,0
0.3,0.000569656844207599,0.000327823421584684,-0.0283083380565679,-0.0164063440391063,-0.00040229593177907,-0.000519745225246043,0.0201060808494752,0.0258123156870672,3.00508322729349,-0.000223750928667461,0
0.31,0.000574972260647042,0.000330744135186231,-0.0285680694323997,-0.0165525187051288,-0.00040591350531316,-0.000524613200060807,0.0202862751020542,0.0260497122644728,3.00508193447932,-0.000230501953724748,0
0.32,0.000575331913615908,0.000330980750549213,-0.0285899241986406,-0.0165643515290279,-0.000406197516549532,-0.000524936801537152,0.0203010044255791,0.0260697281645559,3.0050806905286,-0.000218001520785569,0
0.33,0.000575262922634405,0.000330999653321701,-0.028590860164712,-0.0165652985547133,-0.000406207456933331,-0.000524865413785972,0.0203020999335815,0.0260705032450809,3.00507954292227,-0.000204869043460687,0
0.34,0.00057516441878392,0.000331000918636744,-0.028590033939847,-0.016565363942124,-0.000406195858540035,-0.000524767225804296,0.0203020797643817,0.0260696543985015,3.00507848835381,-0.000192660638940391,0
0.35,0.000575070804245336,0.000331000774989523,-0.0285891221271645,-0.0165653565580423,-0.00040618348443211,-0.000524674108293551,0.0203019736129228,0.0260687324071806,3.00507751964544,-0.00018143380909579,0
0.36,0.000574984523861291,0.000331000537089053,-0.0285882679474535,-0.0165653433244105,-0.00040617197349995,-0.000524588301600782,0.0203018674511772,0.026067869910789,3.00507662983903,-0.000171120316612788,0
0.37,0.000574905344811724,0.000331000309956785,-0.0285874844089072,-0.0165653300620846,-0.000406161401511681,-0.000524509558165189,0.0203017689839754,0.0260670788738709,3.0050758125109,-0.000161646800261297,0
0.38,0.000574832410610223,0.00033100010061451,-0.0285867518014381,-0.0165653290236885,-0.000406151661991657,-0.000524437026111039,0.0203016878217507,0.0260663379823146,3.00507506175735,-0.000152944931774522,0
0.39,0.000574765571584582,0.000330999908255882,-0.0285860839358271,-0.0165653157095878,-0.000406142736643256,-0.000524370555062239,0.0203016017139886,0.0260656641425275,3.00507437215588,-0.000144951865325018,0
0.4,0.000574704204078919,0.00033099973155148,-0.0285854691603662,-0.0165653023731691,-0.000406134541909169,-0.000524309525320077,0.0203015213444185,0.0260650440424506,3.00507373872535,-0.000137609866796004,0
0.41,0.000574647626232757,0.00033099956923163,-0.0285848913548361,-0.0165653027171197,-0.000406126986152382,-0.000524253259680138,0.0203014582137967,0.026064459754061,3.00507315689045,-0.000130865904102993,0
0.42,0.000574595862988251,0.000330999420126702,-0.0285843682603644,-0.0165652878847015,-0.000406120073828798,-0.000524201781302503,0.0203013862580756,0.0260639326953472,3.00507262244834,-0.000124671264784724,0
0.43,0.000574548249121833,0.000330999283160993,-0.0285838817788259,-0.0165652881879639,-0.00040611371537626,-0.000524154429729774,0.0203013331449476,0.0260634407328358,3.00507213153874,-0.000118981204203521,0
0.44,0.000574504576744748,0.000330999157346854,-0.0285834354276187,-0.0165652747762449,-0.00040610788339379,-0.000524110997700301,0.0203012708634271,0.0260629912056753,3.00507168061592,-0.000113754622355496,0
0.45,0.000574464355251236,0.000330999041776563,-0.0285830174393965,-0.0165652750457946,-0.000406102511929318,-0.000524070997972526,0.0203012250383472,0.0260625686613207,3.00507126642265,-0.000108953767000453,0
0.46,0.000574427551377983,0.000330998935616455,-0.0285826379015352,-0.016565261604574,-0.00040609759720631,-0.000524034396489957,0.0203011699834655,0.0260621867605289,3.00507088596715,-0.00010454396097192,0
0.47,0.000574393616311823,0.000330998838100593,-0.0285822801571165,-0.0165652618452926,-0.000406093065220856,-0.00052400064853323,0.0203011306413324,0.0260618252174816,3.00507053650146,-0.000100493351702047,0
0.48,0.000574362417005713,0.000330998748525375,-0.0285819475069821,-0.0165652620730542,-0.000406088898497206,-0.000523969621363047,0.0203010939595637,0.0260614891148954,3.00507021550113,-9.67726811437899e-05,0
0.49,0.000574333936825039,0.000330998666244364,-0.0285816481626504,-0.0165652471402221,-0.000406085095350968,-0.000523941297645348,0.0203010461095217,0.0260611886023881,3.00506992064774,-9.3355074437993e-05,0
0.5,0.000574307626962426,0.000330998590663581,-0.0285813630786436,-0.0165652473454452,-0.000406081581621874,-0.000523915132894601,0.0203010145714176,0.0260609006448381,3.00506964981139,-9.02158457936547e-05,0
0.51,4.66249713664846,-0.00670592374921536,6.87612761510281,0.349575501581195,-0.62811431353325,4.61999966751114,-0.570068698066521,6.86136689661542,0.133688727900024,41.5218065673824,2378.32805407905
0.52,4.67311141518754,0.0378654116876083,6.34651480848445,-1.86379745360554,-2.65813826660644,3.84365776881356,-5.17634586476009,4.11794058368501,0.613144916784896,89.702027453487,2378.32805407905
0.53,4.64461627831311,0.00824038022076268,7.77249289265889,-0.368952984276687,-4.61622120476592,0.512864568192001,-7.7665633241536,0.477772124502712,1.4619237463591,142.185071229832,2378.32805407905
0.54,4.64318538973076,0.0471063572146655,7.84537072182305,-2.29231222845833,-2.10464678858981,-4.13906408111518,-1.43105101063198,-8.04715043481524,2.68132602792759,190.140863256579,2378.32805407905
0.55,4.63467616620295,0.0471877998415626,8.27223729052113,-2.28426768386697,4.15469876481921,-2.05448972439223,8.44374236819985,-1.53329822986727,-2.01985144360566,240.732059868328,2378.32805407905
0.56,4.61976424147365,0.0222400585837506,9.01930848958302,-1.02250309753721,0.367117656909125,4.60520801842761,-0.346212479121593,9.07047821969922,-0.0747356306282137,290.556408763621,2378.32805407905
0.57,4.62079835888473,0.0688444617807007,8.96911412467166,-3.33804625868268,-3.68314391085089,-2.79123054679324,-5.01125040034349,-8.15321595639091,2.23419334649296,339.913574402054,2378.32805407905
0.58,4.59886262170028,0.102824650339298,10.0674923145307,-5.01670586836457,4.53277863549997,0.783599491796919,8.91466442932195,6.85933651203965,-1.37725925737354,388.900032680525,2378.32805407905
0.59,4.59485557796326,0.0769154693270302,10.2695355736457,-3.7189834957419,-4.58464215087583,-0.315705749353042,-9.91447757930758,-4.58228474337665,1.65628729193145,438.757870750447,2378.32805407905
0.6,4.59315240272161,0.0755486686092834,10.3565148380499,-3.62066688622659,4.35568035099529,1.45972780884297,8.55747664974557,6.86558239924516,-1.23098123358064,487.593825031036,2378.32805407905
0.61,4.57388847727442,0.0697547434247148,11.3216308528139,-3.3273228344495,-2.70245092697217,-3.69081027879804,-3.83419049114942,-11.160169608461,2.52482368082446,537.114887924057,2378.32805407905
0.62,4.57853085295081,0.102887228896865,11.0915180337515,-4.97466832247301,-1.50452364885519,4.32549871613991,-8.53888524683514,8.65196717244306,0.357205210658463,586.205142517902,2378.32805407905
0.63,4.59343994871922,0.124962190325981,10.3481100028536,-6.06204226216794,4.57548198148097,0.424583029151737,9.54996573471671,7.25464619986431,-1.45106827195126,635.127553979086,2378.32805407905
0.64,4.56150952539582,0.118398582217009,11.9467320170305,-5.70769933094819,0.974321123732212,-4.45781176390356,8.3954615409442,-10.2380888379509,-2.90046143807474,683.784269557609,2378.32805407905
0.65,4.50696872017585,0.153476057572315,14.6759866572186,-7.44206922065742,-3.48855674168137,-2.85767279529357,-6.1209163459471,-15.274271234132,2.29114911042794,732.595390522987,2378.32805407905
0.66,4.53158238857752,0.159483698834279,13.4475683746969,-7.73840982111621,-4.52906309591949,0.21968492856801,-13.5492084923488,-7.55903637923239,1.55750801439446,781.384739572804,2378.32805407905
0.67,4.51833668055488,0.15618882749862,14.11217802553,-7.57666480955876,-4.11974194676009,1.86211911562834,-15.9329774530648,-1.64306047995413,1.18083531199441,830.276605709597,2378.32805407905
0.68,4.5120090443842,0.155914979471025,14.4310160136113,-7.55285790025141,-4.0754144563253,1.94255813467783,-16.2459230330764,-1.17041464868326,1.160542044784,878.7936433785,2378.32805407905
0.69,4.45560225010491,0.15132715897166,17.2538616449282,-7.31257867887774,-4.43181847915499,0.484020958226703,-17.7522883402404,-6.00215022155102,1.49596279832669,927.293658221643,2378.32805407905
0.7,4.47253995251535,0.134203248562182,16.4095502266628,-6.42794390507497,-3.72862694483346,-2.47365422907742,-9.6831841552175,-14.7250720237391,2.18654650678869,975.617135830355,2378.32805407905
0.71,4.47606819860239,0.194817030318763,16.2357717286036,-9.41979677461815,0.208572783435397,-4.47544831138199,10.8419430548005,-15.3226996868989,-3.05152588464701,1023.75492375065,2378.32805407905
0.72,4.45538353507486,0.165361862990701,17.2727142547273,-7.96740001758554,4.4272182951312,-0.526806565642006,17.8629451224767,6.5376840178359,-1.65213407359858,1072.28491479697,2378.32805407905
0.73,4.4214832182816,0.135004092081786,18.9705168428796,-6.44739200756205,0.906941595603516,-4.32957236878988,10.7214523555629,-16.926305928127,-2.90457817657618,1120.43596783869,2378.32805407905
0.74,4.3940941913957,0.211809292867956,20.3428176268901,-10.2317885897577,3.29586310039382,2.91379706960953,7.43613861292055,21.5226292370574,-0.798682492715416,1168.42665986107,2378.32805407905
0.75,4.37877196595813,0.169554968414943,21.1118406798606,-8.11116319819906,-4.37651908482697,-0.220167021418517,-20.3076725309516,-9.95485920017303,1.65976307772078,1216.51836931609,2378.32805407905
0.76,4.39297706615098,0.13762652307265,20.4045744383038,-6.54400707469885,4.23194497855114,-1.18652023248544,21.3782871744673,1.46271121141381,-1.81283173273899,1264.64152333821,2378.32805407905
0.77,4.39811004676612,0.207333388288693,20.1510101392418,-9.98891232067195,-4.24476925903833,1.16974059298954,-21.854746759754,-5.31146147956677,1.3490047812932,1312.38001636347,2378.32805407905
0.78,4.33298771269193,0.229592509887792,23.4103062512886,-11.1278413638627,4.3191371212606,0.415391100872991,21.5016459032876,14.4758597550561,-1.42197905126849,1360.2059691112,2378.32805407905
0.79,4.3937615819819,0.226832985823718,20.374866835878,-10.9175195194334,-3.0084590887868,-3.21025979538322,-4.80684652335683,-22.6102113554443,2.44021398964452,1407.74813335521,2378.32805407905
0.8,4.41866517453778,0.245263530852579,19.133011593057,-11.8393747703142,-1.3625904294271,4.2104754417848,-17.9356830562376,13.5850727225951,0.368431799935254,1455.42375871735,2378.32805407905
0.81,4.36612749198438,0.224609939563445,21.7633169031204,-10.7971662221675,4.31278863438801,0.716500590583233,18.9430608256047,15.2112197936984,-1.35476758427789,1502.93336541802,2378.32805407905
0.82,4.38482890354874,0.31710815709461,20.8317320282205,-15.3942380934339,-2.01387076997318,3.90789030277719,-23.9932987251992,9.7603914909328,0.548033538037862,1550.32073925651,2378.32805407905
0.83,4.23145957711341,0.219481239130721,28.503766515839,-10.5760296545656,2.14725527896021,3.65276839315781,3.76980453338445,30.1679578795746,-0.479610283600065,1597.82275659775,2378.32805407905
0.84,4.30965473430941,0.252624225039416,24.5976902477912,-12.1695520492579,4.05288299203255,1.48697087426941,17.7040740086993,20.9692662270375,-1.16060159979991,1644.96510549083,2378.32805407905
0.85,4.31555838827712,0.335961810610942,24.306257579587,-16.3711345724043,4.32860102654461,-0.0113001688004202,23.0097612336739,18.148253157875,-1.49571462248964,1692.2346717021,2378.32805407905
0.86,4.22631296232956,0.334174619463957,28.772307739311,-16.2651872735415,4.23941058138717,0.0281399053168749,27.2774149054246,18.663993296353,-1.4852528870299,1739.28373483818,2378.32805407905
0.87,4.22735450410998,0.362135642516984,25.6447504302447,-17.6231797873547,3.97771511962753,1.47629629617047,15.6731470432526,26.8808882332326,-1.12995627558065,1786.14819736627,2378.32805407905
0.88,3.93945892418147,0.353489107412205,25.2306043459631,-17.267746768318,1.99055428293985,3.41789186649343,-4.94024539901879,30.1720474862871,-0.437881420883318,1830.79787000172,2378.32805407905
0.89,3.63230545734256,0.318777560845249,26.7600048414667,-15.5408117467798,-1.69150594453725,3.2301810643266,-27.5234027994547,14.1448572705114,0.569930853490839,1872.33464068742,2378.32805407905
0.9,3.37306268977441,0.286193775686397,26.8035158091231,-13.8801945440571,3.17733786428724,1.16789677735509,18.4129781146816,23.917577161139,-1.13391060855816,1910.85730489823,2378.32805407905
0.91,3.13310215209954,0.196411834173195,26.8076076575169,-9.48020841619518,-1.15949839993263,2.9172710132327,-20.0142850798498,20.1977863310898,0.440922089977863,1946.95113630631,2378.32805407905
0.92,2.94329077934294,0.332693662863804,25.0454499125009,-16.2518801006604,-2.46612962513211,-1.64068594103828,-8.69737247783151,-28.5614054294898,2.2704005578921,1980.41965094127,2378.32805407905
0.93,2.7412119058801,0.222391163688455,24.6890010950019,-10.763139840766,2.46896409609412,-1.21157617788715,26.9157850943484,0.965643337751393,-1.94604292846453,2011.62293574167,2378.32805407905
0.94,2.51474046166111,0.162573050925995,26.2735525923889,-7.81875758975337,-0.689049798378784,2.42395543724654,-16.1667067109141,22.137527644153,0.341519014327359,2040.69828899471,2378.32805407905
0.95,2.34986941495273,0.206337925611982,25.4140118805217,-10.0382755566792,-0.906999984211524,-2.17757035145054,1.88657696492166,-27.2594901524322,2.83451075878532,2067.73960593804,2378.32805407905
0.96,2.17451083169299,0.127828658620708,25.6812129265472,-6.12473554804436,-1.38111283846393,-1.68444793643051,-10.1335370689384,-24.3792639221241,2.51354018359515,2092.914759255,2378.32805407905
0.97,1.99821982262412,0.177731578790818,26.5813482897685,-8.62655347537952,1.68386791378863,1.09044019668232,15.6316702161383,23.1654136164122,-0.907412282755975,2116.28086120596,2378.32805407905
0.98,1.88965756112208,0.229808414270224,24.6049423277168,-11.2322771181572,-1.73145899748147,-0.790991368862956,-15.1156008259015,-22.4295752942706,2.1203393252286,2138.10601334273,2378.32805407905
