t,iq,id,vq,vd,ia,ib,va,vb,theta_e,omega,r
0,0,0,0,0,0,0,0,0,0,0,0
0.01,0.000579761620610309,0.000307471397729154,-0.0269880081817632,-0.015381104152847,0.0005328105330401,0.000383112428714778,-0.0257597432121335,-0.0173599130246838,-0.459780566757899,-0.00432037430552377,0
0.02,0.000734096118789,0.000381504350690839,-0.0346487837401373,-0.0190845707429262,0.000667657553326981,0.000488544852293566,-0.0324788352935597,-0.0225806180846844,-0.45981380058038,-0.00458021879022401,0
0.03,0.000785601860117783,0.000410772173238932,-0.0374384165823028,-0.0205486847509648,0.000716759054287395,0.000521690060308796,-0.0350296290925072,-0.0244296657125297,-0.45984503309899,-0.00401798174151884,0
0.04,0.000763861310380449,0.000405750512504946,-0.0368123320627068,-0.0202974808491048,0.00070262285727734,0.000504419171251044,-0.0345272509678814,-0.0239792506412461,-0.459869768012632,-0.00303358602813198,0
0.05,0.000769685078019403,0.000415920600612089,-0.0373596595738846,-0.0208062269326554,0.00071433098827937,0.000505110190476369,-0.035226536960443,-0.0242432327964784,-0.459889247138619,-0.00245618236356372,0
0.06,0.00076297484749108,0.00041808050119013,-0.0372771648333347,-0.0209142835530507,0.0007132957476649,0.000498127593837762,-0.0352871193540443,-0.0241208101489657,-0.459904498259667,-0.00190694107799505,0
0.07,0.000765079093435411,0.000424617896169102,-0.0375353671161978,-0.0212413049101132,0.000720093436353602,0.000497103429760332,-0.0356950389036385,-0.0242066316636552,-0.45991569607299,-0.00156429098596329,0
0.08,0.000750635259512711,0.000419926709546429,-0.0370132096595482,-0.0210066390213355,0.000709482929796747,0.000486236266172352,-0.0352532035165675,-0.0238425714656335,-0.459924827579862,-0.00114554458919495,0
0.09,0.000743058780228646,0.00041892872869609,-0.0367660597035553,-0.0209567023735127,0.000705228781446554,0.000479885399258213,-0.0350989076300928,-0.0236430371076052,-0.459931457197726,-0.000866615538111539,0
0.1,0.000738308669404227,0.000418715987189992,-0.0366219318801693,-0.0209460669479709,0.000702931968103077,0.000475719893913072,-0.0350255162557594,-0.0235184358800107,-0.459936358486266,-0.000667743523875892,0
0.11,0.000735016725346132,0.000418670310034452,-0.0365257163824418,-0.0209437791594805,0.00070143149843179,0.000472787762162505,-0.0349808425261333,-0.0234331068980093,-0.459940007791417,-0.000521780663693663,0
0.12,0.000732628722575633,0.000418660258581047,-0.0364570399024207,-0.0209432823027896,0.000700363752902168,0.000470650476339656,-0.034949975878853,-0.0233716926671696,-0.459942732324936,-0.000413408130741991,0
0.13,0.000759953531685315,0.000434345537338589,-0.0377356634162055,-0.0217279191738712,0.000726549711197957,0.000488171008239014,-0.0362207144384223,-0.0241690424025797,-0.459945459322654,-0.000561131887583172,0
0.14,0.000774755190534872,0.000443566660970143,-0.038628408519549,-0.0221892049611273,0.000741384241466678,0.000497339315246448,-0.0370304130539443,-0.0247641529355307,-0.459947974919978,-0.000607696561756606,0
0.15,0.000739522709249695,0.000423951315753992,-0.0368767437555071,-0.0212079584592847,0.000708168667226197,0.000474474124041155,-0.035373625654763,-0.0236300304709234,-0.459950100976505,-0.000235428879938219,0
0.16,0.000729535892792554,0.000419781786644276,-0.0364323063395237,-0.0209993842513763,0.000699999546700253,0.000467375653934102,-0.034989453817946,-0.0233243479153368,-0.4599506798056,-0.000130675628973918,0
0.17,0.000726715109947571,0.000418895490587163,-0.036306502680873,-0.0209550493955147,0.000697953270717852,0.000465241351294812,-0.0348938851361437,-0.0232312938122333,-0.459950825451698,-0.000101663211758484,0
0.18,0.000725925922064028,0.000418707096039499,-0.0362710982973767,-0.0209456257243337,0.000697434144205209,0.000464617790334257,-0.0348697253114714,-0.0232037511058959,-0.459950852780583,-9.39784934445303e-05,0
0.19,0.000725710784758901,0.000418667051409531,-0.0362612861375177,-0.0209436212895566,0.000697302759643455,0.000464442789205467,-0.0348635734677231,-0.0231958485537385,-0.459950850040818,-9.22118709281282e-05,0
0.2,0.000725656418424231,0.000418658540702436,-0.0362586781168332,-0.0209431966300253,0.0006972709959714,0.000464397856886127,-0.034862035030014,-0.0231937003824336,-0.459950841408077,-9.20213945432183e-05,0
0.21,0.000725645999171074,0.000418656732755082,-0.0362580671734834,-0.020943105067962,0.000697264746900855,0.000464389328821661,-0.0348616815902574,-0.0231931938668231,-0.459950833081889,-9.22001357119831e-05,0
0.22,0.000725646872269094,0.000418656349326629,-0.0362579914305581,-0.0209430862311468,0.000697264787753967,0.000464390286099779,-0.0348616309317457,-0.023193134592858,-0.459950826324116,-9.24250442842237e-05,0
0.23,0.000725649957271221,0.000418656268489648,-0.0362580384646221,-0.0209430819393722,0.000697266082345817,0.000464393090004058,-0.0348616478438893,-0.0231931788254633,-0.4599508211192,-9.2619158046032e-05,0
0.24,0.000725652925861925,0.00041865625180759,-0.0362580985103629,-0.0209430820130193,0.000697267383339437,0.000464395760230999,-0.0348616744731629,-0.0231932327354005,-0.459950817184148,-9.27716867555344e-05,0
0.25,0.00072565531237602,0.000418656248637353,-0.0362581463002238,-0.0209430820878782,0.000697268438509621,0.000464397902192716,-0.0348616956858185,-0.0231932756284536,-0.459950814229167,-9.28878454671913e-05,0
0.26,0.000730709961634999,0.000421539555162056,-0.0364846615111819,-0.0210873155690502,0.000702095789032238,0.000467647460831388,-0.0350914863491182,-0.0233322306971253,-0.459950631099762,-0.000142368273084581,0
0.27,0.000719992938660297,0.000414956476984339,-0.0360057638152476,-0.0207580053439991,0.000691439757161818,0.00046096612861245,-0.0345838265432165,-0.0230492680016004,-0.45995111706502,-3.4310797049599e-05,0
0.28,0.000719201302245088,0.000414682820097893,-0.0357902113717836,-0.02074431560785,0.000690843121349439,0.000460378253308664,-0.0344758744628459,-0.0228621945599526,-0.459951099416856,-2.80538946571691e-05,0
0.29,0.000723871791910855,0.000417811647725171,-0.0361775427429523,-0.0209008316314739,0.000695719912092825,0.000463174640947242,-0.034788056427179,-0.0231398031933025,-0.459950837351845,-7.67651702620272e-05,0
0.3,0.000712582350121385,0.000412427121104494,-0.0356457046095851,-0.0206314615536404,0.000685882922632006,0.000455449615620472,-0.0343105644775115,-0.0227828582093569,-0.459949466309021,-2.36043229050539e-05,0
0.31,0.000722852413427873,0.000417332363308588,-0.0361100122377637,-0.0208768597468518,0.000694837254227661,0.000462474975756091,-0.0347365649630674,-0.0230899829204735,-0.459949373130029,-0.000115154364110013,0
0.32,0.000725541794862832,0.000418374995567804,-0.0362354146250323,-0.0209290028314956,0.000696965465587852,0.000464421869410828,-0.0348389610744595,-0.0231791980840807,-0.459949611908991,-0.000130645982292624,0
0.33,0.000726134940829854,0.000418596583910278,-0.0362661637652547,-0.020940090169424,0.000697427448321192,0.000464854823233578,-0.0348625519697019,-0.0232018206335561,-0.459949878101539,-0.000127183327113794,0
0.34,0.000726175630088559,0.000418643656166538,-0.0362712478806021,-0.0209424458092153,0.000697487794786102,0.000464870232115826,-0.0348669248511668,-0.0232053228960747,-0.45995010206255,-0.000120319199451065,0
0.35,0.000726091753297567,0.000418653639609608,-0.0362699659483589,-0.0209429480528913,0.00069745958863688,0.000464790518818512,-0.0348668098953481,-0.0232039451551427,-0.459950276620393,-0.000113971646697121,0
0.36,0.000725996525659266,0.000418655744833525,-0.0362675584012589,-0.0209430545606592,0.000697419264784359,0.000464704160793815,-0.0348658396909413,-0.0232017359127514,-0.459950409170771,-0.000108879748866691,0
0.37,0.000725916024483794,0.000418656179652743,-0.0362653405653692,-0.0209430766454919,0.000697383965969912,0.000464631763197333,-0.0348648772880495,-0.0231997352870762,-0.459950508867781,-0.000104973831830251,0
0.38,0.000725853218421629,0.000418656262588157,-0.0362635619933251,-0.0209430812308413,0.000697356195152075,0.000464575395366933,-0.0348640936154071,-0.0231981369135859,-0.459950583587592,-0.000102024990672433,0
0.39,0.000725805488141027,0.000418656273115374,-0.0362621936128096,-0.0209430828726337,0.000697335042909946,0.000464532581811301,-0.0348634889545115,-0.0231969080642561,-0.459950639512429,-9.98118179392218e-05,0
0.4,0.00072576963222194,0.000418656270040469,-0.0362611590562173,-0.0209430830328206,0.000697319143005936,0.000464500424431706,-0.0348630308247949,-0.023195979494932,-0.459950681348394,-9.81544693117465e-05,0
0.41,0.000725742740282625,0.000418656265413841,-0.0362603774858963,-0.0209430831730141,0.000697307215956605,0.000464476307488388,-0.0348626847340808,-0.0231952779966865,-0.459950712638682,-9.69143970687582e-05,0
0.42,0.000725722600431969,0.00041865626145884,-0.0362597872772194,-0.0209430832981372,0.000697298283122419,0.000464458246122253,-0.0348624233930276,-0.0231947482544476,-0.459950736039911,-9.59868382384546e-05,0
0.43,0.000725707524647807,0.000418656258395707,-0.0362593408493645,-0.0209430834119615,0.000697291596305509,0.000464444726254972,-0.0348622257298516,-0.0231943475612409,-0.459950753540862,-9.5293119692135e-05,0
0.44,0.000725696290569262,0.000418656256082585,-0.0362590046555841,-0.02094308351721,0.000697286613459091,0.000464434651586017,-0.0348620768899669,-0.0231940458036225,-0.459950766628772,-9.4774313492488e-05,0
0.45,0.000725687850458438,0.000418656254348007,-0.036258746948175,-0.0209430836162168,0.00069728286985164,0.000464427082564263,-0.0348619628083542,-0.0231938144934498,-0.459950776416608,-9.43863244894407e-05,0
0.46,0.000725681564031066,0.000418656253049776,-0.0362585511373196,-0.0209430837104186,0.000697280081517399,0.00046442144493051,-0.0348618761413096,-0.0231936387353777,-0.459950783736088,-9.40961689989968e-05,0
0.47,0.000725676849210536,0.000418656252078777,-0.0362583996663371,-0.0209430838011091,0.000697277990261916,0.000464417216714759,-0.0348618091109656,-0.0231935027750168,-0.459950789210316,-9.3879178320904e-05,0
0.48,0.000725673356750885,0.000418656251352402,-0.03625828371212,-0.0209430838890722,0.000697276441195381,0.00046441408467923,-0.0348617578121932,-0.023193398689655,-0.459950793304074,-9.37169035745037e-05,0
0.49,0.000725670679198486,0.000418656250809259,-0.036258189350962,-0.0209430839752174,0.000697275253554218,0.000464411683499627,-0.0348617160730949,-0.0231933139900734,-0.459950796365566,-9.35955477423781e-05,0
0.5,0.000725668700138017,0.000418656250402966,-0.0362581155959781,-0.0209430840598036,0.000697274375740461,0.000464409908698362,-0.0348616834618546,-0.0231932477827656,-0.459950798654931,-9.35047927975653e-05,0
0.51,4.70973013887311,-0.0150958553657782,4.51412788814991,0.764593708581735,-0.863921989428344,4.62984067350499,-0.0617441690396994,4.57800631141604,0.181271826162951,55.9366174638926,4779.66863705519
0.52,4.70708219986368,0.00112864460659245,4.64732784841091,-0.0347797496532877,-3.45386393614837,3.19803815184964,-3.43439910983795,3.13109701477706,0.824078036861417,119.602082735133,4779.66863705519
0.53,4.6627953794,0.00508652807309806,6.86271682375543,-0.219368769952376,-4.3449360161255,-1.69210449993413,-6.31233535151806,-2.70174522674911,1.94325963601231,186.801322069318,4779.66863705519
0.54,4.66394650340684,-0.00721550296465345,6.80635297628106,0.39633887100089,1.95267887839507,-4.23550401345503,2.47989594971591,-6.35087721633626,-2.71115423484156,256.150751919655,4779.66863705519
0.55,4.63355418190499,0.064955115478047,8.3272544894596,-3.19113533638155,2.67730475205497,3.78233826994623,2.08510491272702,8.67057377399268,-0.601953390794028,319.480661961128,4779.66863705519
0.56,4.65771155153634,0.0495668278108976,7.12092267325141,-2.42513820934889,-4.2711588022979,-1.85847686380205,-5.50775999734069,-5.12380862879984,1.99185088394279,387.520675436059,4779.66863705519
0.57,4.61162266458823,0.0556484445547891,9.42695671156241,-2.72400932655628,4.34684797044897,1.54112720815931,7.90524341438505,5.81333520555619,-1.21801716313806,452.696411357363,4779.66863705519
0.58,4.58690357589022,0.0770799528931594,10.6645928280281,-3.76164538144902,-3.34706856093928,-3.13731697187651,-5.03897752701331,-10.1238442128304,2.3406613575045,517.298030286339,4779.66863705519
0.59,4.56567631841446,0.0701990882500023,11.7278145801241,-3.40897052761539,-0.366077205572611,4.55151794856198,-4.51322971104495,11.348721181669,0.0956311207502637,582.800447949174,4779.66863705519
0.6,4.58889949140427,0.0888270089643433,10.5686887352577,-4.32868527742592,4.5566657148811,-0.550169376246091,10.9506455643979,3.24315579901736,-1.671599642326,648.013058369301,4779.66863705519
0.61,4.5242727219159,0.0397721191621456,13.8021443819738,-1.86103408540898,0.768390035726908,-4.45872204075681,4.2946523761847,-13.2483432313492,-2.96214419013429,713.131894361561,4779.66863705519
0.62,4.52389030781205,0.07853980984808,13.8234827327673,-3.83424422449213,-2.74386003869961,-3.59763590526809,-5.10235164580709,-13.4073155895838,2.50738233969842,778.88165183082,4779.66863705519
0.63,4.48334505955534,0.0866285045577831,15.8530917931612,-4.21724088683509,-3.75240990292706,-2.45505750263739,-10.7192255777035,-12.4178840030939,2.16948141858346,843.517375052065,4779.66863705519
0.64,4.45782637081822,0.0956775554318144,17.1315042312344,-4.62630798720214,-3.37704853762723,-2.91151392259861,-9.63669579363248,-14.9005119710109,2.30376003040158,907.340778434495,4779.66863705519
0.65,4.49349062834807,0.084234946573958,15.3508909600523,-4.08273671319593,-1.10781293781599,-4.35560604831105,0.470530251540728,-15.8775688825172,2.91127552667927,972.393947970279,4779.66863705519
0.66,4.43354595367744,0.0513459902774046,18.3508210550133,-2.43185282655048,3.2893717320576,-2.97304553319109,15.3652970134387,-10.323477575504,-2.29414481800048,1036.39892269601,4779.66863705519
0.67,4.47163110932147,0.0652649213667424,16.4493342274481,-3.07400666654754,3.08154313992141,3.2409622281995,8.9009481388241,14.1705058393213,-0.745594669733773,1100.04656865294,4779.66863705519
0.68,4.46129995585478,0.0567573221934383,16.9687871399028,-2.6520004796062,-4.2471942633421,1.36666000862188,-16.9980907664608,2.45718412788335,1.27220148229987,1164.1332259205,4779.66863705519
0.69,4.36603690115527,0.1257534019226,21.7349250658031,-6.10348939546875,2.4219500184267,-3.63486591892845,17.5473667445542,-14.2038540808045,-2.52504185384759,1228.00651868668,4779.66863705519
0.7,4.37070778166893,0.0811243599881292,21.504456126524,-3.85257597027344,-1.73971674873819,4.0103682260716,-12.4280793501492,17.9673820733773,0.427863432092334,1291.59203457864,4779.66863705519
0.71,4.41128740362406,0.132886345700195,19.4786190582184,-6.41451622195515,2.75868459426526,-3.44481852172352,17.5119814698795,-10.6720721406629,-2.43623596559623,1355.08668642077,4779.66863705519
0.72,4.28806636751252,0.08994494907299,25.64301536972,-4.34266998728906,-4.2448500434917,0.613882215351022,-25.9816766732107,-1.17281589302692,1.44814651321797,1418.85972475177,4779.66863705519
0.73,4.33929631032533,0.104122657204588,23.0849426124811,-5.00651395032428,2.12259954548777,3.78614647973919,6.37810904489233,22.7442186581074,-0.486971530869347,1481.90463473904,4779.66863705519
0.74,4.23789249936996,0.115482314029002,28.1586104522977,-5.52107623790437,3.87720745470216,-1.71473944209365,28.1479145432104,-5.57535041922271,-1.95995308090906,1544.79784933565,4779.66863705519
0.75,4.30895440307285,0.150148999788334,24.6091093039029,-7.2835512572209,0.586258524203546,-4.27152592321491,11.3702369320058,-23.0081744551378,-2.9703650775644,1607.84049985952,4779.66863705519
0.76,4.22588660818351,0.10645501573361,28.7661801216965,-5.14328731877532,-1.66092205268487,-3.88725973283297,-5.85374819249772,-28.6300568517806,2.76298397029913,1670.91582510921,4779.66863705519
0.77,4.22670876065209,0.159671806196998,28.728799554167,-7.7399149280457,-2.05077148525787,-3.69931052337062,-6.06449326473738,-29.1285449063088,2.67316262003923,1733.38466612296,4779.66863705519
0.78,4.25075808035595,0.176430714850982,27.5301811090099,-8.52801590587206,-0.595301838763059,-4.21256308862188,5.76792158092383,-28.2377231345235,3.04268830914257,1795.79068564329,4779.66863705519
0.79,4.23529934681005,0.175742986719731,28.3070480671204,-8.48474793301643,3.86396706625637,-1.74310202379462,29.4287857851532,-2.68821222611908,-1.95310790347847,1858.2422841752,4779.66863705519
0.8,4.15136243748327,0.133653771052185,32.5079003844998,-6.38600905758848,2.67670873274231,3.17598863000556,15.1258521397132,29.47462122131,-0.668112505475487,1920.70856737047,4779.66863705519
0.81,4.18568239453964,0.132537124925837,30.7960598665453,-6.42221653905266,-3.61510701914167,2.11388373322549,-30.1280886067804,9.05209619261264,1.07332968637278,1983.09302815693,4779.66863705519
0.82,4.15894281339134,0.174373817888612,32.1372298657114,-8.46198393460294,0.360423022914872,-4.14696356361826,12.5134987789608,-30.7866702301499,-3.01299509807474,2045.02890456677,4779.66863705519
0.83,4.13627968754339,0.217121490941335,33.2746255361445,-10.5233420957383,1.66673287848471,3.79182711989757,1.93205319046673,34.8454961781833,-0.361693753782777,2106.82053664786,4779.66863705519
0.84,4.12288138111644,0.115803583804265,33.9488661465434,-5.54320903561424,-1.70334208135809,-3.75635289964258,-8.03589535898722,-33.4466300967354,2.74394878251611,2169.01661219538,4779.66863705519
0.85,4.1151549750665,0.239247711749224,34.3395754539823,-11.6183364253225,0.15783810467348,4.11908085246028,-12.2950106874956,34.1031508199182,0.0197728013658288,2230.623371066,4779.66863705519
0.86,4.07722718277588,0.178498409722022,36.2404749899832,-8.59387006156779,3.05466609813912,-2.7064105769671,33.562881535929,-16.1480529210151,-2.25206680613563,2292.17403211632,4779.66863705519
0.87,4.07045689566138,0.19516140429626,36.5836015301778,-9.47046584017065,-3.38208271372278,-2.27337278744638,-23.6960801322539,-29.4371433823744,2.21051618295563,2353.81585861174,4779.66863705519
0.88,4.04627946633712,0.140315137257351,37.7971422423892,-6.74694979107523,-2.91898302008377,2.80563789286993,-32.6458678090433,20.2087260402323,0.83985884241698,2415.22956786143,4779.66863705519
0.89,4.03526503061793,0.103479561984286,38.3526031584773,-4.89750758457741,0.432392895437084,4.01336620196213,-1.75178758929094,38.6243315775774,-0.0816860435235928,2476.40678060897,4779.66863705519
0.9,4.03614196427634,0.171531215698607,38.3135133148668,-8.26642319580008,2.27285167872236,3.33976199156174,13.166167672358,36.9176256523072,-0.555074631038527,2537.39068009522,4779.66863705519
0.91,4.01700692703372,0.177772441158925,39.2750715607052,-8.51619785064339,0.66373019303247,3.96577986322105,-3.68917144371557,40.0180819878801,-0.12160134052758,2598.16736341083,4779.66863705519
0.92,3.91157651092293,0.27490241022602,44.5513809418386,-13.4069160756323,-0.885339738115904,3.81997063916268,-25.8931786338222,38.6537739777223,0.29790893713732,2659.0166862581,4779.66863705519
0.93,4.00449508655821,0.239432890973811,39.9102693414527,-11.6729624710252,-3.57977125558416,1.81067577584788,-41.262924951006,5.14379978662762,1.16223331266968,2719.70820824952,4779.66863705519
0.94,3.88681238410136,0.179282238317087,45.7992305297425,-8.5530906292608,-2.55981782629819,-2.93032171038363,-21.8157433625036,-41.1679270545679,2.46967075719946,2779.84620293254,4779.66863705519
0.95,3.94661338571006,0.121946273867668,42.8139885989198,-5.75562950802926,3.41708029021583,-1.97843129782021,40.4253454913031,-15.2301126946229,-2.06472962453138,2840.02640972681,4779.66863705519
0.96,3.93701547910289,0.323209361888254,43.29865430619,-15.8984206786656,-0.164176979065962,3.94684698130707,-21.1104909248603,41.0107353959199,0.123484361790212,2899.99679386854,4779.66863705519
0.97,3.79114934473389,0.257765704609338,48,-12.531513807868,-1.68642964152085,-3.40517423588703,-6.75474950736679,-49.1468432089948,2.7496351859231,2959.4742101678,4779.66863705519
