t,iq,id,vq,vd,ia,ib,va,vb,theta_e,omega,r
0,0,0,0,0,0,0,0,0,0,0,0
0.01,0.000954176347577857,0.000541949983695577,-0.0469549483492487,-0.0271346642303482,0.000444392400251737,0.00100333328545561,-0.0223315567684716,-0.04942022611918,0.0995928001801058,-0.00248268471189727,0
0.02,0.00105496178643898,0.000599542194679008,-0.0520365100091819,-0.030018240950106,0.000491698619074641,0.00110933659546917,-0.0246965965452176,-0.0547628640846793,0.099574490570072,-0.00260761744036855,0
0.03,0.00109234639989944,0.000621004711638657,-0.0538977931432876,-0.0310928318047672,0.000509359551905873,0.00114866024399425,-0.0255818779063715,-0.0567212818802578,0.0995560913111928,-0.00255894490408099,0
0.04,0.00106947123313053,0.000608672991199292,-0.052811657695522,-0.030475393078904,0.000499381402900858,0.00112466428019476,-0.0250763837337176,-0.0555787346986421,0.0995392797641308,-0.00235896360187879,0
0.05,0.00109112922520116,0.000621251913796257,-0.0539007347161937,-0.0311052138115986,0.000509764617122288,0.00114745673627103,-0.0255957902058797,-0.0567245894912193,0.0995228789513203,-0.00228376954975688,0
0.06,0.00109100496062946,0.000621602036817578,-0.0539238665988899,-0.0311227441138903,0.000510143194300384,0.00114735994247788,-0.0256118177800348,-0.0567489504762499,0.0995073303416265,-0.00215615883756444,0
0.07,0.00112061066870522,0.000638877743043502,-0.0553976099353595,-0.0319877195511017,0.000524409373037558,0.00117852783201869,-0.0263269518132993,-0.0583009519377719,0.0994928571345371,-0.00211841336600229,0
0.08,0.00109047562729799,0.000622090533823339,-0.0539512959150035,-0.0311472060497575,0.00051071444112842,0.00114686724847579,-0.0256350467619577,-0.0567779460101065,0.09947892214193,-0.00192218220773497,0
0.09,0.00108892821031086,0.000621612588372058,-0.0539000100992922,-0.031123254288414,0.000510407376939912,0.00114527340264181,-0.025617041711266,-0.0567242031250183,0.0994659674407592,-0.0018119228650247,0
0.1,0.00108827556773289,0.000621595231484302,-0.0538909937514742,-0.0311224077187279,0.000510468859574176,0.00114461604327976,-0.0256177856312776,-0.0567148351763634,0.0994537843536657,-0.001710420383001,0
0.11,0.0010876862032088,0.000621591103174749,-0.0538837131614879,-0.0311221813462553,0.000510536382070574,0.00114402332964807,-0.0256189332283844,-0.0567072744545026,0.0994423226825903,-0.00161499398954312,0
0.12,0.00108713186813814,0.000621587562836981,-0.0538768672907719,-0.0311220273126695,0.000510600222919795,0.00114346587590072,-0.0256200710087302,-0.0567001708518204,0.0994315395823832,-0.00152521913438269,0
0.13,0.00113909551694459,0.00065137368214833,-0.0564359845137522,-0.032613372884541,0.00053509370802136,0.00119812394774276,-0.0268506472445574,-0.059394403620972,0.0994208539299178,-0.00157943803000694,0
0.14,0.00119940224763631,0.000686626098577032,-0.0595330219938973,-0.0343783939353676,0.00056419877787798,0.00126162628774259,-0.028300175410662,-0.0626510554502232,0.0994108586213826,-0.00166205560035097,0
0.15,0.00108897832971226,0.000623413651259848,-0.0540237692549847,-0.0312134372355826,0.000512268590579003,0.00114546901933935,-0.025698163799856,-0.0568546452446171,0.0994013400395304,-0.0012830564510165,0
0.16,0.00108525208314737,0.000621626751697375,-0.0538574054280863,-0.031123978806271,0.00051086985628437,0.00114157956023289,-0.0256261312087317,-0.0566800103691886,0.0993929653069114,-0.00120434586245391,0
0.17,0.00108474948558775,0.000621573815805525,-0.0538475931818845,-0.0311213309667061,0.00051087602467215,0.00114107017417559,-0.0256249156122809,-0.0566697823578358,0.0993851037826855,-0.00113862524375457,0
0.18,0.00108436656615509,0.000621569970598059,-0.0538427522729963,-0.0311211303235944,0.000510918628344367,0.00114068498427698,-0.0256256153510708,-0.0566647559143103,0.0993777082067888,-0.00107704522639998,0
0.19,0.00108400884495614,0.00062156764987855,-0.0538383189146029,-0.0311210253699801,0.000510959744177801,0.00114032524270422,-0.0256263449935212,-0.0566601557172451,0.0993707504877655,-0.00101911842330064,0
0.2,0.00108367254417657,0.000621565502854281,-0.0538341576664644,-0.0311209233159171,0.000510998433372987,0.00113998704309785,-0.0256270271274093,-0.0566558371247303,0.0993642046875193,-0.000964621290249821,0
0.21,0.00108335615040872,0.000621563483696783,-0.053830240248937,-0.0311208183404622,0.000511034829079125,0.001139668862592,-0.0256276601579032,-0.0566517707955307,0.0993580464192885,-0.000913350562549202,0
0.22,0.0010830586159234,0.000621561583863286,-0.0538265587988274,-0.031120716262581,0.00051106905359581,0.00113936964612773,-0.0256282519641158,-0.056647948895644,0.0993522527396727,-0.000865115220584855,0
0.23,0.00108277866014776,0.000621559796289364,-0.053823091124358,-0.0311206141718182,0.000511101252145735,0.00113908810778171,-0.0256288030819223,-0.05664434850186,0.0993468020639,-0.000819735560009978,0
0.24,0.00108251517136947,0.000621558114353135,-0.0538198209960067,-0.0311205378753882,0.000511131552099314,0.00113882313034634,-0.025629341958299,-0.0566409555046545,0.0993416740851246,-0.000777042515707547,0
0.25,0.0010822672822373,0.000621556531822758,-0.0538167421258273,-0.0311204586421466,0.000511160055534441,0.00113857384041566,-0.0256298417157265,-0.0566377603084917,0.0993368496988044,-0.000736877031727547,0
0.26,0.00109303070779392,0.000627763387315958,-0.0543510690741285,-0.0314312233862128,0.000516274022447419,0.00114989744428834,-0.025886339884525,-0.0572001566469669,0.0993323645360111,-0.000729512093386981,0
0.27,0.0010547727682785,0.000606032304167006,-0.0524900639352375,-0.0303431770453886,0.000498449036671041,0.00110967080895082,-0.0249884586118772,-0.0552403126469757,0.0993278849538947,-0.000588528710654369,0
0.28,0.00104872654451557,0.000602470412481725,-0.0520797505291024,-0.03016485243512,0.000495508736854514,0.00110329916830763,-0.0248519233105766,-0.0548142376155258,0.0993238390346041,-0.000538925735444014,0
0.29,0.00108042851289981,0.000621012474253264,-0.0537579664904625,-0.0310932341238292,0.000510819912774122,0.00113668169747669,-0.025609519885398,-0.0565761492212783,0.0993202440644782,-0.000595939376312744,0
0.3,0.00107554723478526,0.000618431243440354,-0.0535246514313616,-0.0309639904160421,0.000508738548685323,0.00113156711961728,-0.0255042039032725,-0.0563310979530295,0.0993174754824255,-0.000559967638797274,0
0.31,0.00108092741473734,0.000621461035880806,-0.0537938243806337,-0.0311156919666681,0.000511223765469893,0.00113721948482585,-0.0256286585396786,-0.056613900144007,0.0993141139484993,-0.00054712225992479,0
0.32,0.00108092987860681,0.000621545539119988,-0.0537999079269869,-0.0311199243397556,0.000511311237864063,0.00113722868311471,-0.0256324475907417,-0.0566202915426286,0.099310922114626,-0.000521002540380722,0
0.33,0.00108078064590339,0.000621546967954633,-0.0537982255921093,-0.0311199928772989,0.000511330871244575,0.0011370787914851,-0.025632852658165,-0.0566185472981021,0.0993079183685873,-0.000496008420626094,0
0.34,0.00108063560394127,0.000621546108472995,-0.0537964134835388,-0.0311199450010886,0.000511347609056999,0.00113693293389502,-0.0256331446743974,-0.0566166669335459,0.0993050924274152,-0.000472481415461546,0
0.35,0.00108049917670668,0.000621545237621984,-0.0537947078166736,-0.0311198941885372,0.00051136329048886,0.00113679573293305,-0.0256334137339069,-0.0566148964825812,0.0993024337900056,-0.000450346903743007,0
0.36,0.00108037036890885,0.000621544416526864,-0.0537930779469366,-0.0311198661995921,0.000511378086429372,0.00113666619922112,-0.0256336890701934,-0.0566132077517107,0.099299932552073,-0.000429522812403754,0
0.37,0.00108024965774115,0.000621543643952851,-0.0537915657162521,-0.0311198153355306,0.000511391959052192,0.00113654480272659,-0.0256339215905668,-0.0566116376075809,0.0992975793953879,-0.00040993157149881,0
0.38,0.00108013586752446,0.000621542917080697,-0.0537901293669471,-0.0311197902009236,0.00051140503217339,0.00113643036881004,-0.0256341642975149,-0.0566101490921055,0.0992953655531725,-0.000391500192795125,0
0.39,0.00108002900977855,0.000621542233209925,-0.0537887854993827,-0.0311197392903714,0.00051141731142996,0.00113632290445831,-0.0256343647617883,-0.0566087534066851,0.0992932827773054,-0.000374160008867818,0
0.4,0.00107992837449246,0.000621541589798298,-0.053787513613585,-0.0311197141059974,0.000511428873576377,0.00113622169894582,-0.0256345767043322,-0.0566074350590124,0.0992913233081618,-0.000357846417604594,0
0.41,0.00107983355997219,0.00062154098445377,-0.0537863078055207,-0.0311196888982481,0.000511439764418073,0.00113612634859419,-0.0256347755017897,-0.0566061854345159,0.0992894798460726,-0.000342498641539498,0
0.42,0.00107974433338145,0.000621540414925626,-0.0537851697495583,-0.0311196607574737,0.000511450012663325,0.00113603661798463,-0.0256349584824582,-0.0566050057349321,0.0992877455225612,-0.000328059501419801,0
0.43,0.00107966057831621,0.000621539879095803,-0.0537841061672976,-0.0311196355046346,0.00051145963514065,0.0011359523877779,-0.025635131138824,-0.0566039030602285,0.0992861138765331,-0.000314475203182189,0
0.44,0.00107958171269421,0.000621539374971586,-0.0537830996999796,-0.0311196102318579,0.000511468694521429,0.0011358730754571,-0.0256352926427442,-0.0566028596931424,0.0992845788291637,-0.000301695137536568,0
0.45,0.00107950750368483,0.000621538900678059,-0.0537821498367747,-0.0311195849398823,0.000511477218559176,0.00113579844623195,-0.0256354433698559,-0.0566018749788975,0.0992831346614845,-0.000289671691420475,0
0.46,0.00107943783487274,0.000621538454450463,-0.053781261204859,-0.0311195596289386,0.00051148522318789,0.00113572838133766,-0.0256355831667978,-0.0566009533840423,0.099281775993081,-0.000278360070611421,0
0.47,0.00107937212418134,0.000621538034629046,-0.0537804144882546,-0.0311195343015944,0.00051149277023489,0.00113566229881409,-0.0256357142376607,-0.0566000755582674,0.0992804977621232,-0.000267718132844466,0
0.48,0.00107931048802593,0.000621537639651881,-0.0537796247377675,-0.0311195089570302,0.00051149985204612,0.00113560031191595,-0.0256358353597489,-0.0565992563561539,0.0992792952065717,-0.000257706230806109,0
0.49,0.00107925204752885,0.000621537268049398,-0.0537788567045554,-0.0311195064188971,0.00051150655938575,0.00113554154365874,-0.0256359729919985,-0.0565984628497842,0.0992781638460174,-0.000248287064428377,0
0.5,0.00107919739629246,0.000621536918438381,-0.053778148229243,-0.0311194810436733,0.000511512836851898,0.00113548658243153,-0.0256360782038765,-0.0565977280614576,0.0992770994659356,-0.000239425541920918,0
0.51,4.61512438765298,0.0433139425942993,9.24511641807828,-2.16031344147018,-0.561252997542783,4.58107457741976,-3.35205532069566,8.88272800868141,0.131292991808021,40.3604482850572,3465.15547814456
0.52,4.68746554936057,0.0143191750461851,5.62949824023528,-0.697789663843309,-2.61317258606448,3.89151221900398,-3.73069321627997,4.27318253504122,0.594399986985927,86.1278473698895,3465.15547814456
0.53,4.56251144373072,0.0153561733367857,11.8787035767827,-0.73869235713983,-4.49334352727614,0.791587286481369,-11.8311375237264,1.29361893857465,1.39978245679565,134.29416790042,3465.15547814456
0.54,4.56775907589434,0.06452648734196,11.6179731076942,-3.19730471887492,-2.51613838895981,-3.81282496983359,-3.56827057742441,-11.5094527099568,2.57240479211005,184.884690178245,3465.15547814456
0.55,4.61407026949723,0.0472038515036921,9.30412613514413,-2.31293978031275,3.73800068147392,-2.70540635778722,8.92943144078173,-3.49023032340331,-2.18705961799008,230.623816570306,3465.15547814456
0.56,4.61366003162574,-0.00251534200328263,9.32645471247808,0.177069321901144,1.43421322848954,4.385076695976,3.07234201340406,8.80765721411406,-0.316645352756899,280.087334501277,3465.15547814456
0.57,4.59009143261851,0.067227477736949,10.5066804212859,-3.29278379106371,-4.3582970137399,-1.44177183825549,-8.84579981417398,-6.55626297651978,1.90492008026901,326.384146727002,3465.15547814456
0.58,4.63803338649894,0.0267354971401896,8.11143154949176,-1.25841580741052,4.5054482288614,-1.10136494321177,8.18216695727917,-0.656563789467455,-1.80478203945205,374.343087854844,3465.15547814456
0.59,4.57555456301637,-0.0250063295619887,11.2374044169512,1.33557548236458,-4.12182317903433,1.98668028540915,-9.50963101334847,6.13432456666329,1.11619456223659,422.347623289212,3465.15547814456
0.6,4.5280431652863,0.00570875877899568,13.6150752266084,-0.196280360820447,4.28616274634486,-1.46014259867598,12.9563551539052,-4.18827655869607,-1.8978694148051,469.927248209415,3465.15547814456
0.61,4.49381350829438,0.0499792612176241,15.3287358677292,-2.4025874013922,-4.4519139054811,-0.614264073558663,-14.8057941540954,-4.64015398348919,1.71902945980534,517.162462175295,3465.15547814456
0.62,4.46915702289674,0.0627627542692117,16.5638138469713,-3.02684838296169,2.57707080959523,3.65185017504318,6.86202287184761,15.3764229389282,-0.60049133637111,564.132057525382,3465.15547814456
0.63,4.51644258451948,0.151698371205176,14.2017982702118,-7.46181388859283,2.30127464568024,-3.88913885329858,13.9290363985178,-7.95937721336002,-2.57370949102062,611.351988813374,3465.15547814456
0.64,4.52496382692787,0.0442157530359415,13.7781794611253,-2.09858856794839,-3.96579340942843,-2.17938874493659,-10.9809243292523,-8.58263386820932,2.08306266471535,659.145043247904,3465.15547814456
0.65,4.47033197131666,0.099984156424767,16.5122537194543,-4.85924281039435,-3.14284906977121,3.18062328639374,-15.2449375002995,7.99116037869113,0.80178701427676,705.565765572734,3465.15547814456
0.66,4.50101730801533,-0.00582892254184353,14.9804932793927,0.422444190975213,0.599985423239849,4.46085286411593,2.43472365362377,14.7873513084292,-0.134992824465273,753.198214912641,3465.15547814456
0.67,4.50001842762144,0.0882504111495024,15.0330135986159,-4.24545907690897,3.05729222627597,3.30316790780504,6.82145648606628,14.0528698862042,-0.727151891647348,799.616697214361,3465.15547814456
0.68,4.39262698944487,0.080347756858081,20.4052151526723,-3.85313189932792,3.68067379939105,2.39880553878548,14.7259571101821,14.6412300729667,-0.974916433008467,846.57334910356,3465.15547814456
0.69,4.45055964524978,0.0755909470138023,17.5112760164455,-3.61526956636449,3.47650426014208,2.77976856526047,11.1837214724279,13.9513202166955,-0.879324136593012,893.620965633191,3465.15547814456
0.7,4.4070477697249,0.0816689455614321,19.6896267142806,-3.91699252662017,1.95396136693078,3.95104730898636,4.857155432349,19.4790213231392,-0.440742877500774,940.462425591537,3465.15547814456
0.71,4.48246682646799,0.0847025171737112,15.9214113490591,-4.05266676745057,-1.41932625096324,4.25266932174701,-9.14417183869308,13.6491599982709,0.34101921401848,987.19323809745,3465.15547814456
0.72,4.38924964368815,0.173029365135614,20.5851270737731,-8.45728925705911,-4.34662581396191,0.634267789829915,-21.3612544388362,-6.24259617629185,1.46529790203393,1033.70035587211,3465.15547814456
0.73,4.33467929433119,0.1227512539498,23.3165418169767,-5.92239792239767,-1.02399769589444,-4.21377991521302,0.929805407884388,-24.0389554963919,2.93151282979883,1080.3332218774,3465.15547814456
0.74,4.3475707598954,0.0916968127402044,22.6749521464808,-4.40598221033768,4.3484604050726,0.0259214829834772,22.5474928204166,5.01763904603211,-1.54374694715631,1127.24085534354,3465.15547814456
0.75,4.37973316195243,0.144318733229222,21.0698537287591,-6.98938414083087,-2.372890048916,3.6840579911861,-17.7345696964634,13.3519760522809,0.605153731302986,1173.36371036918,3465.15547814456
0.76,4.42509909705609,0.156677117619352,18.8045868000504,-7.64132472545519,-0.363821322021798,-4.41289970241727,6.7519376371433,-19.1419347617896,3.09472541790878,1220.22590176505,3465.15547814456
0.77,4.35269055430185,0.107081903316344,22.4281652529219,-5.10000305090148,1.62727248852602,4.03848558789216,3.0923053858423,22.7918905563419,-0.358443023464573,1266.26122006164,3465.15547814456
0.78,4.32708022143721,0.154053724195555,23.7118561970089,-7.45892738595874,-1.54799825670007,-4.04364404837335,-0.627794987574951,-24.8494184139229,2.81156873186802,1312.63252595773,3465.15547814456
0.79,4.32324245593255,0.183682846363909,23.9069170838102,-8.95297340598469,0.0198674794215606,4.32709717987561,-9.85170159516594,23.5508045072828,0.0378703716110492,1359.1133680448,3465.15547814456
0.8,4.35897890442178,0.0638721518459889,22.123398034397,-2.95109326680006,2.57104424082513,-3.52058351025728,15.66542302643,-15.8980569083367,-2.49617427787209,1405.37545750931,3465.15547814456
0.81,4.34840092644572,0.118871295456324,22.6556169549489,-5.69252443950734,-4.33111034377342,-0.405221164373709,-21.8060463469374,-8.37724040594355,1.69141530491074,1451.52863149685,3465.15547814456
0.82,4.38318750144734,0.0871733416092442,20.9196137576013,-4.07643623037583,0.375121665595345,4.36797614466156,-2.69242964750102,21.1423365478085,-0.0657842739719834,1497.6009114955,3465.15547814456
0.83,4.32449709942839,0.111175110493864,23.8576172883974,-5.25301010654669,4.31814589456165,0.259328173244368,23.3205299467563,7.27550004202885,-1.485110369982,1543.56523266923,3465.15547814456
0.84,4.28368591584585,0.2189326653,25.9016657993356,-10.7150990987406,2.14478650432416,-3.71453730475552,23.0735244843135,-15.9160958701589,-2.56688997633344,1589.86873487177,3465.15547814456
0.85,4.25890672364287,0.150488431223359,27.1440898596086,-7.22993124627133,-0.866654224080107,-4.17251047985582,2.54813834281437,-27.9746405002494,2.97211915808302,1635.6964200137,3465.15547814456
0.86,4.28510213554272,0.137872871839109,25.8378633444404,-6.64416499037547,-2.45193781128612,-3.5169745819962,-8.51782568699885,-25.2821430300362,2.56493072740412,1681.85837530201,3465.15547814456
0.87,4.27231663828112,0.141873089897642,26.4807506514505,-6.76283275250397,-2.68879328302231,-3.32313227430762,-10.5684147802412,-25.2046557392759,2.49451430238328,1727.49244344029,3465.15547814456
0.88,4.30665629976581,0.146388655275837,24.7673497697995,-7.01461690545253,-1.73780290810374,-3.94319149614778,-2.70124450409808,-25.5994090376893,2.7604694848572,1773.55033014292,3465.15547814456
0.89,4.26232437011636,0.166159584471964,26.9875911496725,-8.02784671100706,0.773450279975884,-4.19485312114798,13.7557117810507,-24.5673928668463,-2.92029608726092,1819.5122611296,3465.15547814456
0.9,4.24817950170434,0.130657789303394,27.6985687080105,-6.25370681188974,3.84187430784082,-1.81771899350785,27.8894520771032,-5.33835369757537,-1.9819740796171,1865.29713774081,3465.15547814456
0.91,4.26644813700597,0.167448827716753,26.7889739903125,-8.08588068943778,2.90357832556542,3.13047148573057,11.2937448307793,25.6023811719673,-0.708586039323053,1910.95287447504,3465.15547814456
0.92,4.24626030300965,0.188831469018923,27.8021636167202,-9.13530281769696,-2.9143363543478,3.09403094657022,-26.3079151363761,12.8182549716854,0.799940468816539,1956.60837700529,3465.15547814456
0.93,4.21221239262546,0.19427268980212,29.5083843114185,-9.36543984986955,-1.81376034397636,-3.80667158200037,-2.82049365440431,-30.8301966227489,2.74303520232138,2002.15005211303,3465.15547814456
0.94,4.13198161586378,0.236528294524386,33.5238528068784,-11.4513540533065,4.00920622169288,1.02736711057243,28.4740239734692,21.0763416045036,-1.26276123450064,2047.68958826998,3465.15547814456
0.95,4.21144418057913,0.150903679668557,29.5546259432748,-7.22972052492577,-4.07498882926724,1.07401119548102,-30.4211110309593,-0.548431543102037,1.34891143821279,2093.45477657032,3465.15547814456
0.96,4.16785982795706,0.27265989632736,31.7377463476841,-13.2422425764204,3.69898878490385,-1.93981466478606,34.3809401296247,-0.769732087063625,-1.98846007087246,2138.84839169083,3465.15547814456
0.97,4.22876814526755,0.228037367609794,28.6963640666659,-11.0583431221741,-4.00128430371749,1.38715716062744,-30.6343982357863,-2.70220428273346,1.29095711841838,2184.44929049171,3465.15547814456
0.98,4.14928335502173,0.109414274168565,32.6746103018575,-5.15628261340591,4.09433237792194,0.681884317719874,31.0971259219245,11.2776845213695,-1.37940419017384,2229.97560307532,3465.15547814456
