t,iq,id,vq,vd,ia,ib,va,vb,theta_e,omega,r
0,0,0,0,0,0,0,0,0,0,0,0
0.01,0.00136034578233489,0.000770106902327064,-0.0675085491226131,-0.0385888819955624,-2.95580869795355e-05,-0.00156292405702332,0.00179357874180854,0.07773859462072,-2.6453740342811,-0.00128144186673871,0
0.02,0.00152666886997812,0.000866697825725443,-0.075887755499886,-0.0434289137786173,-3.53281664613671e-05,-0.00175517374647981,0.00206128118221634,0.0874115158699865,-2.64538320457049,-0.00132256876044106,0
0.03,0.00156014190477809,0.000886440541359806,-0.0775803422921819,-0.0444181873428485,-3.67692981013145e-05,-0.00179400881132953,0.00212619990514514,0.089370935717155,-2.64539205569643,-0.00123127987204693,0
0.04,0.00153991750180659,0.00087652051701775,-0.0766184542087871,-0.0439210989406235,-3.7687700613153e-05,-0.00177150042798352,0.00214767539071321,0.0882883794613548,-2.64539965274421,-0.0011024594321064,0
0.05,0.00155624613466524,0.000886469480408076,-0.0774577209931048,-0.0444196356981803,-3.86760004008079e-05,-0.00179059608464569,0.00218717438645455,0.0892637599768683,-2.64540686905935,-0.00101673152572926,0
0.06,0.00155458098588706,0.000886505007348852,-0.0774061431409398,-0.0444214006288889,-3.95116300813528e-05,-0.0017891484010066,0.00221386242770621,0.0892192279889212,-2.64541338154042,-0.000922457103364181,0
0.07,0.0015938171653949,0.000909301012717385,-0.0793686801744574,-0.0455637051538162,-4.0890152710295e-05,-0.00183450524225133,0.00228464284199956,0.0914889011140898,-2.6454191954828,-0.00088027542854651,0
0.08,0.00155177631411686,0.000886589323604387,-0.0773199906419794,-0.0444256331511107,-4.09408937378311e-05,-0.00178672163500735,0.00225959184947953,0.0891454546145041,-2.64542451806307,-0.000761289948857343,0
0.09,0.00155032312178962,0.00088649384716719,-0.077270520509602,-0.0444208406091748,-4.15571891012218e-05,-0.00178539802930742,0.00227934978060539,0.0890996576021939,-2.64542925255579,-0.000692503535331479,0
0.1,0.00154917963883543,0.000886490334099981,-0.0772340858782263,-0.0444206743412092,-4.21060570546855e-05,-0.00178439058106522,0.00229692763260603,0.0890675274936021,-2.64543350976417,-0.000630820091123393,0
0.11,0.00154815233837941,0.000886487507664321,-0.0772013683106403,-0.0444205284623425,-4.25994468234445e-05,-0.00178348564648131,0.00231271544825079,0.0890386767936515,-2.64543733801166,-0.000575352692528706,0
0.12,0.00154722845674145,0.000886484966638255,-0.0771719409183363,-0.0444204165679666,-4.30431610459366e-05,-0.00178267180931133,0.00232693232399168,0.0890127364995282,-2.64544078052204,-0.000525474235368511,0
0.13,0.00161654137668325,0.000925920026754102,-0.0806068861958937,-0.0463964282193753,-4.47335185143769e-05,-0.00186239975053548,0.00242980976052887,0.0929741613473391,-2.64544421953564,-0.000548050654117765,0
0.14,0.00176212666099736,0.001010425381392,-0.0879494916682498,-0.0506308605393658,-4.97507921827141e-05,-0.00203065868117615,0.00265857964033183,0.10144717382932,-2.64544720127294,-0.000655753465904915,0
0.15,0.00154574904219161,0.000886980294051264,-0.077141851383996,-0.0444452442396455,-4.41993240596025e-05,-0.00178160617511958,0.00236390421167053,0.0889980726046936,-2.64544992613752,-0.000393968617160535,0
0.16,0.00154419486776907,0.000886478639221875,-0.0770753864371309,-0.0444200795223268,-4.45018726378275e-05,-0.00178000049179002,0.00237360693997356,0.0889276371512108,-2.64545210150007,-0.000361449158092069,0
0.17,0.00154366602524153,0.000886475169004216,-0.0770584609060629,-0.0444199023313792,-4.47540472556575e-05,-0.00177953367430916,0.0023816820769901,0.0889126633884321,-2.64545405643361,-0.000333119657594424,0
0.18,0.0015431940355024,0.000886473861564177,-0.0770434146260582,-0.0444198666284204,-4.49807078728971e-05,-0.00177911789220556,0.00238896948922112,0.0888994100841448,-2.64545581438077,-0.000307648770610918,0
0.19,0.00154276996684994,0.000886472693053371,-0.0770299007492936,-0.0444197940617926,-4.51843622503527e-05,-0.0017787443266393,0.00239547922085652,0.0888874872703719,-2.64545739519573,-0.000284744368556832,0
0.2,0.00154238819898154,0.000886471642187032,-0.0770177252698841,-0.0444197553021115,-4.53676992368577e-05,-0.00177840802422426,0.00240136737308406,0.0888767579380925,-2.64545881672647,-0.000264147831996311,0
0.21,0.00154204550463684,0.000886470697105617,-0.077006805091363,-0.0444196826186342,-4.55322735264221e-05,-0.00177810614060723,0.00240661537418461,0.0888671167348199,-2.64546009502255,-0.000245626618525353,0
0.22,0.00154173696200735,0.000886469847169278,-0.0769969644962516,-0.044419646645389,-4.56804445956883e-05,-0.00177783434181633,0.00241137027890261,0.0888584427227727,-2.64546124451639,-0.000228971616975377,0
0.23,0.00154145950226842,0.000886469082806881,-0.0769881133100702,-0.0444196106143171,-4.58136881468709e-05,-0.00177758992399385,0.0024156438374804,0.0888506390692954,-2.64546227818628,-0.000213994786379286,0
0.24,0.00154121009861894,0.000886468395408596,-0.0769801571002701,-0.0444195716201109,-4.59334583543786e-05,-0.00177737022073256,0.00241947948942571,0.0888436213191283,-2.64546320770265,-0.000200527032924318,0
0.25,0.00154098595709664,0.000886467777229923,-0.0769730073558693,-0.0444195354882066,-4.60410971903179e-05,-0.0017771727708373,0.00242292542791058,0.0888373143828962,-2.64546404356015,-0.000188416300822202,0
0.26,0.00155221486394266,0.000892763669358938,-0.0775303480479709,-0.0447350411571581,-4.6234004282244e-05,-0.0017900447955344,0.00243515000934909,0.0894776442481814,-2.64546478800456,-0.000189411944415274,0
0.27,0.00149406298687584,0.000860120784978759,-0.0746655097902089,-0.0430993467415555,-4.52097638314319e-05,-0.00172336532713152,0.00236046315485046,0.0861795814301462,-2.64546553621719,-0.000118830499520468,0
0.28,0.00145765229515236,0.000838570372983391,-0.0727403662811914,-0.0420194770187278,-4.35910599203518e-05,-0.00168108604880996,0.00232725828185322,0.0839725026692597,-2.64546619095919,-7.19900390787366e-05,0
0.29,0.00153992159474404,0.000886271852444527,-0.0769325338440721,-0.0444097416733073,-4.63800345888208e-05,-0.00177614335198092,0.00243380765934435,0.0887970523127683,-2.64546662070733,-0.000150691920470007,0
0.3,0.00153815832406707,0.000885361576693172,-0.0768459419845278,-0.0443641303397214,-4.64190030533873e-05,-0.00177415935798816,0.00243492214477492,0.0886991883527583,-2.64546669916659,-0.000147759087066047,0
0.31,0.00154013460195607,0.000886460983755372,-0.076945663424547,-0.0444192008332872,-4.64459612553505e-05,-0.00177642068231204,0.00243592610610716,0.0888131003091163,-2.64546718052388,-0.000142954919762883,0
0.32,0.00154002703441818,0.000886465116515683,-0.0769423841219244,-0.0444194252678444,-4.65015738899419e-05,-0.00177632803084447,0.00243772318109514,0.0888103221544868,-2.64546761606339,-0.000136654154776286,0
0.33,0.00153992221859922,0.000886464844799589,-0.0769390348574866,-0.0444193888903864,-4.65519251924059e-05,-0.00177623570470306,0.00243932029373632,0.0888073584265487,-2.64546800772948,-0.000130979344074537,0
0.34,0.00153982745652737,0.000886464584299013,-0.0769359959013344,-0.044419389204393,-4.65974303995182e-05,-0.00177615222730827,0.00244079845399123,0.0888046851552804,-2.64546835993104,-0.000125876291598771,0
0.35,0.0015397422405119,0.000886464349975242,-0.0769332612035148,-0.0444193894948094,-4.66383514212211e-05,-0.00177607715912636,0.0024421286070067,0.088802279533617,-2.6454686766443,-0.000121287426496435,0
0.36,0.00153966629569238,0.000886464139256745,-0.0769308344674413,-0.0444193530547137,-4.66748232020494e-05,-0.00177601025705325,0.0024432770266106,0.0888001273367747,-2.64546896144521,-0.000117160939025639,0
0.37,0.00153959737782195,0.000886463949766585,-0.0769286191587544,-0.0444193533064948,-4.67079176818766e-05,-0.00177594954614646,0.00244435452121834,0.0887981786120328,-2.64546921754929,-0.000113450239656572,0
0.38,0.00153953544487081,0.000886463779366546,-0.076926627274735,-0.044419353540836,-4.6737658132198e-05,-0.00177589498829596,0.00244532335351918,0.0887964264289308,-2.64546944784799,-0.00011011343325434,0
0.39,0.00153947979834705,0.000886463626133186,-0.0769248365806236,-0.0444193537594795,-4.67643799835421e-05,-0.00177584596819111,0.002446194340393,0.0887948512280665,-2.64546965494165,-0.000107112846071839,0
0.4,0.00153942973975872,0.00088646348833792,-0.0769232235356706,-0.0444193539641552,-4.67884183697871e-05,-0.00177580187062529,0.00244697889701633,0.088793432302109,-2.64546984116808,-0.000104414600398276,0
0.41,0.00153938522707572,0.000886463364425021,-0.0769217962927143,-0.0444193174540347,-4.68097956697788e-05,-0.00177576265779975,0.0024476410533958,0.0887921593455969,-2.64547000863022,-0.000101988232066649,0
0.42,0.00153934471454377,0.00088646325299674,-0.0769204867807294,-0.0444193176358654,-4.68292498246978e-05,-0.00177572696957282,0.00244827793711073,0.0887910074329767,-2.64547015921869,-9.98063465041486e-05,0
0.43,0.00153930839296341,0.000886463152794686,-0.0769193128353402,-0.0444193178071414,-4.68466919255339e-05,-0.00177569497306433,0.00244884893166608,0.0887899747743102,-2.64547029463361,-9.78443094354184e-05,0
0.44,0.0015392755638427,0.000886463062688285,-0.0769182469856488,-0.0444193179696288,-4.68624561912154e-05,-0.00177566605338777,0.00244936725112963,0.0887890372078747,-2.64547041640394,-9.60799687547738e-05,0
0.45,0.00153924611076338,0.000886462981660484,-0.0769172901067444,-0.0444193152132232,-4.68765995879957e-05,-0.00177564010761349,0.00244983004183102,0.088788194114662,-2.64547052590444,-9.44934044198619e-05,0
0.46,0.00153921956807004,0.000886462908796492,-0.0769164249612855,-0.0444193153598652,-4.68893451692255e-05,-0.00177561672573539,0.00245025073891837,0.0887874331039064,-2.64547062437143,-9.30667035465364e-05,0
0.47,0.00153919581934442,0.00088646284327415,-0.0769156511324643,-0.0444193154994655,-4.69007496049791e-05,-0.00177559580492845,0.00245062708033806,0.0887867524210967,-2.64547071291683,-9.17837581668733e-05,0
0.48,0.00153917439892523,0.000886462784353399,-0.0769149502188064,-0.0444193156332113,-4.69110356839472e-05,-0.00177557693527526,0.002450967915368,0.0887861358814661,-2.64547079254023,-9.06300833664293e-05,0
0.49,0.00153915519039715,0.000886462731369253,-0.0769143207830996,-0.0444193157613794,-4.69202598341713e-05,-0.00177556001403789,0.00245127400823053,0.088785582219025,-2.6454708641405,-8.95926537408369e-05,0
0.5,0.00153913784451422,0.000886462683723532,-0.0769137492952107,-0.04441931588486,-4.69285892135897e-05,-0.00177554473375486,0.00245155187211738,0.088785079533353,-2.64547092852621,-8.86597563340822e-05,0
0.51,4.57159514398859,0.0123666691341149,11.4219671174028,-0.61173471764771,-0.337152158602686,4.55916258944503,-1.48311447282067,11.341777799636,0.0765211980968802,23.4354713938219,1898.91827774791
0.52,4.59714601886357,0.000814952132010771,10.1464548970221,-0.0215848372465578,-1.55336407520625,4.32675539322005,-3.4504683678555,9.54176508435055,0.344859359483233,49.8106341439269,1898.91827774791
0.53,4.51478033260887,0.103452593384808,14.267005525076,-5.15135760914727,-3.19627371336661,3.19026303618236,-13.8806756742631,6.11643480270902,0.809249505149533,77.2360726696001,1898.91827774791
0.54,4.50746907741865,0.0326909390212635,14.6350698793052,-1.61586089097854,-4.48731042456989,0.427072985478871,-14.7203327978419,-0.328753877422404,1.48316113530325,106.505739132136,1898.91827774791
0.55,4.36261725546404,-0.00233789347480351,21.8803048349174,0.162047160302457,-3.06547121311347,-3.10408134960911,-15.4981653133819,-15.4460632806602,2.36191669063098,132.922851544931,1898.91827774791
0.56,4.45035100413901,-0.0203612665442671,17.4964044248975,1.05280066237805,1.30943762794056,-4.25340002113013,4.06379159511955,-17.0504590819635,-2.84751874130922,160.771402960048,1898.91827774791
0.57,4.38077962662082,0.117590888052267,20.9779339894761,-5.82372828907365,4.38089820040801,-0.113087185971021,20.9719358473794,5.84529147820501,-1.56976828130555,187.355538589255,1898.91827774791
0.58,4.28692805154277,0.0249254059424042,25.6735996142297,-1.19937083544725,0.42954665092246,4.26542648156629,1.22985307871625,25.6721574659682,-0.094551682805908,215.156523971306,1898.91827774791
0.59,4.38984703698118,-0.0185900368218404,20.530849781263,0.978679760482412,-4.38955272016251,-0.0541249893799149,-20.5380994533285,0.812451635208393,1.57889135823025,242.173695907789,1898.91827774791
0.6,4.28741211042214,0.124303027339276,25.6559266388408,-6.12578337804101,1.18801950790746,-4.12140309797907,13.6520572905143,-22.5692960773875,-2.83196017863628,268.802374604309,1898.91827774791
0.61,4.31834902810166,0.0134868058029118,24.112551566479,-0.556740654480872,2.99107004330638,3.11477450523669,16.2441154458259,17.8284552495482,-0.762017797126799,295.619317963256,1898.91827774791
0.62,4.22133479654299,0.0529409734100683,28.9667734932684,-2.52683319897481,-4.20871035595914,0.330495613908134,-29.0702494265889,-0.615995861725458,1.50497119559073,322.592626320116,1898.91827774791
0.63,4.15258765911703,0.0742067313500832,32.4078028913803,-3.65659374038591,3.00637063729055,-2.86552377356496,26.3296224527415,-19.2454500473457,-2.31434437931659,349.632937454496,1898.91827774791
0.64,4.27002671491701,0.155220462412131,26.5395245384042,-7.69745737516895,-1.3021760209596,4.06958955528616,-16.2422219895354,22.3559262301913,0.346017465707987,376.470343694935,1898.91827774791
0.65,4.18848107446978,0.116087941776528,30.6206455075423,-5.68385625756047,0.137569434447337,-4.18783055675887,7.52629395688797,-30.2206064222691,-3.08104574658646,402.837166863261,1898.91827774791
0.66,4.05674721751667,0.0537447408854703,37.2113105535985,-2.58503898470161,0.175360625907728,4.05331162568132,-1.46810939294101,37.2720902885676,-0.0299891215733902,429.5726628694,1898.91827774791
0.67,4.07141479962519,0.0453999902300708,36.4820208722652,-2.14945652185777,0.259081715367629,-4.06341682509709,4.87062054328315,-36.2192637388876,-3.06676882187605,456.096137779993,1898.91827774791
0.68,4.14018794472824,-0.0272066432267266,33.0475568046024,1.44746158892145,-1.53545556361431,3.84503220159137,-10.7062735214213,31.29875178165,0.373361626650682,482.65364076198,1898.91827774791
0.69,4.11244594130585,0.0644219606609298,34.4389071594514,-3.04151068332113,3.09077909873651,-2.71356709369639,28.2033165683653,-19.9965509055597,-2.27563405587694,508.814214349955,1898.91827774791
0.7,4.1209857529238,0.0754827386746593,34.0162195337574,-3.63432520228478,-4.11883712507445,0.152976981102478,-34.0785569950523,-2.99390450410666,1.55198719488028,535.325932443713,1898.91827774791
0.71,4.0373087660882,0.102928179527999,38.2044108378485,-5.04110051958499,2.71169303835818,2.99285434804191,21.1012992230051,32.2447650482505,-0.710662056646436,561.756525632497,1898.91827774791
0.72,4.01691383436537,-0.0643864922811381,39.2284748563894,3.3348722252424,1.47894976678925,-3.7352978409249,10.7349478261617,-37.8781666331233,-2.78061958194051,588.018506759212,1898.91827774791
0.73,3.94211998534338,0.0400939729237083,42.9724962352452,-1.89585911057124,-3.93854346803274,-0.172606071518824,-42.8076693301964,-4.21107598742451,1.62476346293158,614.17037023452,1898.91827774791
0.74,3.92429154970233,0.0290611594492078,43.868188961831,-1.31482638318288,0.269647636558273,3.91512437479988,1.37768568205434,43.866259851625,-0.0613594153251297,640.232403127541,1898.91827774791
0.75,3.899522402296,0.0848457844241783,45.1108921305565,-4.05158349453017,3.90034514366475,-0.0279559194754129,45.04699387187,4.70916773279078,-1.55620919288868,666.203638875521,1898.91827774791
0.76,3.89604817687948,0.0951327290576167,45.288714077792,-4.51275843906793,0.990037945143069,-3.76935889772794,16.9062913678386,-42.2564778907935,-2.8603271706091,692.151466977915,1898.91827774791
0.77,3.92706229288253,0.103093492136603,43.7419833194836,-5.04384150002552,-2.97387534995979,-2.56680967802489,-28.9572609739169,-33.1704458620597,2.30910381114201,718.264816514317,1898.91827774791
0.78,3.89814101818091,0.258161218787828,45.1920631084125,-12.6848515796243,-3.78366899321554,0.972625088248187,-46.7562443576824,-4.13299421201222,1.38531546340002,743.96275404304,1898.91827774791
0.79,3.84359722625966,0.0530583465285557,47.9230433089773,-2.53254057798991,-2.28652772441232,3.08995886563901,-31.0501537312969,36.5912529853257,0.650865049968826,769.933669983488,1898.91827774791
0.8,3.76044994488905,0.0726873101184405,48,-3.35869937276287,-0.322718564958752,3.74728167621534,-8.38211625225108,47.3816524470216,0.105235753046457,795.506159641006,1898.91827774791
0.81,3.84438403875087,0.0564935374641877,47.8910864972665,-2.58862890945799,-2.65697632023365,-2.77902086910036,-30.6861406032242,-36.8594348898446,2.39333592269761,821.184313143117,1898.91827774791
0.82,3.82013467901276,0.108228670074388,48,-5.24472107177352,-3.09993421356413,-2.23507276892645,-34.9378532713514,-33.329469061331,2.22380548054965,846.859519125413,1898.91827774791
0.83,3.68711405189634,0.0764381173191053,48,-3.68887570166332,-2.93547144477752,-2.23241130044768,-35.3028536882295,-32.7309689042317,2.24170863865276,872.435660624872,1898.91827774791
0.84,3.79117332174452,-0.0350594903965895,48,1.90230724669985,-2.4008788234488,-2.93428103604432,-32.1995047666557,-35.6484314611872,2.44659462993694,897.941562000522,1898.91827774791
0.85,3.74964876834303,0.169210510715085,48,-8.31588340217616,-1.28095461617107,-3.52812320564105,-6.39381846837673,-48.2936124363464,2.83841866337949,923.385059013786,1898.91827774791
0.86,3.75541624683442,0.0999933874662398,48,-4.7888328900902,0.923208372958434,-3.64154310212365,17.6391116810575,-44.8976019354307,-2.86668252041003,948.70806810305,1898.91827774791
0.87,3.68986172048041,0.167649185339283,48,-8.09015385740127,3.09488125537084,-2.01615866954112,45.4701004507658,-17.3758612573218,-2.10278595285388,973.975883259785,1898.91827774791
0.88,3.64806348643295,0.118267013530227,48,-5.73291521931299,3.3825757096686,1.37132631269682,41.5508143041922,24.7061965419684,-1.15322804409274,999.353694779994,1898.91827774791
0.89,3.70310246752468,0.0842807167543607,48,-4.01048497149592,0.150912426957594,3.70098589075854,-3.14597131842043,48.0644031916581,-0.0179981405636465,1024.7035596793,1898.91827774791
0.9,3.51977584757882,0.178483726629528,48,-8.59203484203986,-3.34656539596134,1.10506945864271,-48.5605131095583,4.43842643999495,1.30252481083298,1049.86688080432,1898.91827774791
0.91,3.80538543038783,0.198677417004019,48,-9.6995981131723,-1.43355264181196,-3.53063136180901,-6.54938955914747,-48.5302761166634,2.80805848491826,1075.16434960512,1898.91827774791
0.92,3.67045100356771,0.0646460828300284,48,-3.09608417031645,3.57308638154509,-0.842284628634241,47.5633662704099,-7.16323434047214,-1.78468947772474,1100.42047174892,1898.91827774791
0.93,3.63901800523452,0.223976789103457,48,-10.8372709023022,-0.105888929161076,3.64436622462113,-15.131859462083,46.823853641383,0.0905184856074487,1125.51148563318,1898.91827774791
0.94,3.65964690661994,0.120036683690492,48,-5.6541058482695,3.65696122620925,0.184550471596392,47.3639764766367,9.62406594241935,-1.48758525942262,1150.67624448096,1898.91827774791
0.95,3.69362818247633,0.0892053296135309,48,-4.13617594185139,-2.47032222425379,2.74742695072547,-35.9538212780785,32.0691547585205,0.756486358113064,1175.83352774041,1898.91827774791
0.96,3.74583581601992,-0.0300878854987092,48,1.85008076085061,0.191622472735141,-3.74105226766137,0.22194096838089,-48.0351281983115,-3.0984480180229,1200.92900126302,1898.91827774791
0.97,3.64279372539431,0.135702638031748,48,-6.42487704507423,1.82304321970052,3.15671898509273,16.761560915567,45.4348888049487,-0.486484959707852,1225.95721095185,1898.91827774791
0.98,3.53917377161954,0.27478156279995,48,-13.3524135328344,-2.8026977560252,-2.17856401818854,-26.5175649678604,-42.1794463610788,2.30903234045924,1250.99207975393,1898.91827774791
0.99,3.64750739103356,0.13331499791306,48,-6.51820714884837,3.1327234277286,1.87299946120477,36.7239543635529,31.5885770546724,-0.995402159454773,1275.95116961564,1898.91827774791
