t,iq,id,vq,vd,ia,ib,va,vb,theta_e,omega,r
0,0,0,0,0,0,0,0,0,0,0,0
0.01,0.00048930419019116,0.000268095587368882,-0.0236695869405476,-0.0134161850912506,-0.00023163978030987,-0.000507579399388202,0.0116514780281125,0.0245863057025501,-3.06848568483878,-0.00312824216625462,0
0.02,0.00056126937144531,0.000306551246741766,-0.0273185135869502,-0.0153405932225796,-0.000264749597470744,-0.000582155155298502,0.0133048718389493,0.0283657429017851,-3.06850861445008,-0.00312431043049491,0
0.03,0.000585798759165141,0.00032158085291578,-0.0286006460886256,-0.0160927185160488,-0.000277960943456276,-0.000607710576766898,0.0139620032838082,0.0296990742318094,-3.0685299598026,-0.002816230543395,0
0.04,0.000568354639510182,0.000314473957719272,-0.0278587793642765,-0.0157370762190983,-0.00027215677057416,-0.000589789418832701,0.0136619736343779,0.0289329851900337,-3.06854756116618,-0.00229212629560634,0
0.05,0.000579183175456254,0.000322340403738979,-0.0284550342454012,-0.016130735515735,-0.000279221146234676,-0.000601158912526123,0.0140115194945826,0.0295561655773966,-3.06856282258953,-0.00202375710960708,0
0.06,0.000577478963048111,0.000323097000744755,-0.0284411761878276,-0.0161685966616851,-0.00028010788664325,-0.000599510797645572,0.0140506758808792,0.0295449238998138,-3.06857585378033,-0.00171610323594508,0
0.07,0.000587398456795354,0.000330317738995046,-0.028970127945691,-0.0165299365252134,-0.000286592241464566,-0.000609927571825277,0.0143727857844276,0.0300986734510384,-3.06858651536179,-0.00154550194714856,0
0.08,0.000573885255164096,0.000323863395019459,-0.0283734848647658,-0.0162069449696404,-0.000281146365861077,-0.000595976933858517,0.0140944517759679,0.0294799277094596,-3.06859592004084,-0.00123540785966505,0
0.09,0.000570608702677598,0.000323240302651949,-0.0282566109658417,-0.0161757647572634,-0.000280768428903284,-0.000592661517361399,0.0140721028966405,0.0293609834444218,-3.06860356484743,-0.00103859934154521,0
0.1,0.000568795508699857,0.000323179437119767,-0.0282029731921016,-0.0161727118876823,-0.000280843709982181,-0.000590846925910276,0.0140731560891952,0.0293071763287685,-3.06860992630902,-0.000881376107342116,0
0.11,0.000567387191586277,0.000323172895888477,-0.0281632258540957,-0.0161723949844635,-0.000280943008285441,-0.000589440388766017,0.0140758937635533,0.0292674369359441,-3.0686152373031,-0.000750872805203413,0
0.12,0.000566223268250752,0.0003231717012414,-0.0281306151540253,-0.0161723276193457,-0.000281029291171784,-0.000588278229662894,0.0140783339967136,0.0292348456717033,-3.06861967331181,-0.000641957301229287,0
0.13,0.000591394359884405,0.000337577597578127,-0.0293549593007114,-0.0168932382960346,-0.000293564304572092,-0.00061443138133628,0.0147081921955503,0.0305084286388497,-3.06862396340232,-0.000725145988480354,0
0.14,0.000608759682891917,0.000348299929508732,-0.0303010865928904,-0.0174298111460003,-0.000302994455746583,-0.000632531068167633,0.0151744779046885,0.0314911001016986,-3.06862768250975,-0.000765319866148951,0
0.15,0.000568422564391575,0.000325592235843204,-0.0282939030500585,-0.0162934566823066,-0.000283289680694332,-0.000590644963207995,0.0141875664252857,0.0294063707279973,-3.06863092132205,-0.00040271485105393,0
0.16,0.000563358678156869,0.000323403216051385,-0.0280621531888444,-0.0161839134318002,-0.000281476769374871,-0.000585434427335222,0.0140952654035231,0.0291672245639934,-3.06863287258136,-0.000322173943340241,0
0.17,0.000562429596487469,0.000323192021631426,-0.0280257609254019,-0.0161733426223023,-0.000281334764133871,-0.00058449198826075,0.0140874204796539,0.0291301368217795,-3.06863441554131,-0.000280532162872493,0
0.18,0.000562034016363231,0.000323171501394435,-0.0280134787778248,-0.0161723249914078,-0.000281343880675556,-0.000584095604904999,0.0140873380816665,0.0291177951541009,-3.06863569436836,-0.000248703835722744,0
0.19,0.000561747556000995,0.000323169387050728,-0.0280053105612234,-0.0161722133394607,-0.00028136327565948,-0.000583809452227353,0.0140878531882591,0.0291096254952492,-3.0686367614309,-0.000222458030337003,0
0.2,0.000561513211949664,0.000323169069282441,-0.0279987194085557,-0.016172203734867,-0.000281380560433481,-0.000583575457627416,0.0140883499826896,0.0291030386201567,-3.06863765262663,-0.000200573904685039,0
0.21,0.000561318254112474,0.000323168943433553,-0.0279932488954524,-0.0161721893939501,-0.000281395079729659,-0.000583380799738707,0.0140887560878044,0.0290975711256952,-3.06863839703684,-0.000182298382005108,0
0.22,0.000561155272662069,0.000323168851749862,-0.02798866949889,-0.0161721898262545,-0.000281407230588319,-0.000583218070150761,0.0140891083995486,0.0290929951809757,-3.06863901884938,-0.000167033158136772,0
0.23,0.00056101918315098,0.000323168776450267,-0.0279848437031358,-0.0161721902004415,-0.000281417377765855,-0.00058308219097066,0.0140894027400423,0.0290891722707451,-3.0686395382559,-0.000154282008140417,0
0.24,0.00056090565783119,0.000323168713668358,-0.0279816524615217,-0.0161721756979535,-0.000281425842762456,-0.00058296884093967,0.0140896335001027,0.0290859823474409,-3.06863997212156,-0.000143630838568958,0
0.25,0.000560810721136331,0.000323168661231804,-0.0279789782952376,-0.0161721759854362,-0.000281432921451271,-0.000582874050946867,0.0140898392415938,0.0290833102086977,-3.06864033453459,-0.000134733799713267,0
0.26,0.000566213281748196,0.000326209081967758,-0.0282380248910297,-0.0163243279007704,-0.000284071593911916,-0.00058848379342056,0.0142227110801392,0.0293527549080009,-3.06864053603867,-0.000168896770913481,0
0.27,0.000551667695931836,0.00031787575869132,-0.027546339778395,-0.0159073113462577,-0.000276820959788749,-0.000573369340756862,0.0138572355263101,0.0286325062301912,-3.06864111795656,-5.14270525880295e-05,0
0.28,0.000551327404707795,0.000317664503281247,-0.027438037981995,-0.0158967411074144,-0.000276635181647707,-0.000573014502522837,0.0138545927844496,0.02852371933873,-3.06864131449862,-4.45313775267801e-05,0
0.29,0.000559499279331808,0.000322637994132873,-0.0279211689762576,-0.0161456271064944,-0.000280999803321025,-0.000581527152731875,0.0140676019926415,0.0290237062733092,-3.06864127962815,-0.000103906210025101,0
0.3,0.000553789040219745,0.000319762193988136,-0.0276440954722267,-0.0160017087924183,-0.000278547368148916,-0.000575622728415865,0.0139442372549389,0.0287368917270625,-3.06864043811259,-8.20475463352196e-05,0
0.31,0.000559937242615281,0.000322840277234052,-0.0279384971050521,-0.0161557448459082,-0.00028116922547127,-0.00058197888872368,0.0140764098091433,0.0290417354663964,-3.06864059020023,-0.000122676070418547,0
0.32,0.00056058650384186,0.00032313693945492,-0.0279707577240629,-0.0161705924669449,-0.000281417918556031,-0.00058264797695137,0.0140888736761911,0.02907498902711,-3.06864083542057,-0.000121770664313099,0
0.33,0.000560611476179689,0.000323165506466657,-0.0279730639565126,-0.0161720242784655,-0.000281444716714637,-0.000582674903550546,0.0140901399369784,0.0290773904079233,-3.06864105388113,-0.000116997252779844,0
0.34,0.000560572768206027,0.000323168236447123,-0.0279721506775968,-0.016172162674499,-0.000281450367974762,-0.000582636445709829,0.0140903498826135,0.029076487052018,-3.06864123793457,-0.000112546826599072,0
0.35,0.000560533536254054,0.000323168479880005,-0.027971056117111,-0.0161721759358683,-0.000281453559923765,-0.000582597292526894,0.0140904473630096,0.0290753942005522,-3.06864139185746,-0.00010877593960242,0
0.36,0.000560499892227349,0.000323168486879399,-0.0279700969512433,-0.0161721775445107,-0.000281456094016733,-0.000582563702301846,0.014090522616494,0.029074435891126,-3.0686415204518,-0.00010561991977305,0
0.37,0.000560471932170162,0.000323168473800112,-0.0279693000282434,-0.0161721643231511,-0.000281458181456584,-0.000582535785424381,0.0140905706382344,0.0290736386104977,-3.06864162787044,-0.000102982951762686,0
0.38,0.000560448474482837,0.000323168461050211,-0.0279686261629223,-0.0161721644550241,-0.000281459930753242,-0.00058251236394439,0.0140906224939942,0.0290729652827741,-3.06864171759855,-0.000100780181409075,0
0.39,0.000560428800293467,0.00032316845022401,-0.0279680562044708,-0.0161721645785276,-0.000281461397592122,-0.000582492720198332,0.014090666338309,0.0290723957931552,-3.06864179254961,-9.89401735547876e-05,0
0.4,0.000560412385733106,0.000323168441163779,-0.0279675779913398,-0.0161721646948316,-0.000281462621417674,-0.000582476331014394,0.0140907031295394,0.0290719179782418,-3.06864185515679,-9.74031935721071e-05,0
0.41,0.000560398706932804,0.000323168433593806,-0.0279671770620939,-0.0161721648050951,-0.00028146364132318,-0.000582462673324677,0.0140907339820233,0.0290715173864991,-3.06864190745335,-9.61193370818229e-05,0
0.42,0.000560387240023616,0.000323168427270374,-0.0279668370258607,-0.0161721649104727,-0.000281464496238054,-0.000582451224157998,0.0140907601409605,0.0290711776468119,-3.06864195113714,-9.50469175513913e-05,0
0.43,0.000560377693967235,0.000323168421987989,-0.0279665515107462,-0.0161721650116066,-0.000281465207996892,-0.000582441692835866,0.0140907821126746,0.0290708923842902,-3.06864198762691,-9.41511136651576e-05,0
0.44,0.000560369719517698,0.000323168417575726,-0.0279663098794818,-0.016172165109267,-0.000281465802574445,-0.00058243373069549,0.014090800707677,0.0290706509733291,-3.06864201810682,-9.34028387792929e-05,0
0.45,0.000560363025635414,0.000323168413890212,-0.0279661033183151,-0.0161721637489049,-0.000281466301617511,-0.000582427047182178,0.0140908151464845,0.0290704445036479,-3.06864204356721,-9.2777796497801e-05,0
0.46,0.000560357437699971,0.000323168410811546,-0.0279659278607636,-0.0161721638412878,-0.000281466718215377,-0.000582421467898637,0.0140908286452524,0.0290702692198236,-3.06864206483448,-9.22556917718611e-05,0
0.47,0.000560352781087103,0.000323168408239921,-0.0279657787488423,-0.0161721639316134,-0.000281467065398538,-0.000582416818483387,0.0140908401199195,0.0290701202607599,-3.06864208259928,-9.18195719240114e-05,0
0.48,0.000560348881173825,0.000323168406091644,-0.0279656505870265,-0.0161721640202681,-0.000281467356147044,-0.000582412924609477,0.0140908499808961,0.0290699922371849,-3.06864209743831,-9.14552761948398e-05,0
0.49,0.000560345621544817,0.000323168404297325,-0.0279655403383881,-0.016172164107509,-0.00028146759915739,-0.000582409670030556,0.0140908584637956,0.0290698821134777,-3.06864210983337,-9.11509759471113e-05,0
0.5,0.000560342943992418,0.000323168402798369,-0.0279654474092959,-0.0161721641934648,-0.000281467798848207,-0.000582406996576178,0.0140908656237201,0.029069789291922,-3.0686421201871,-9.08967905874501e-05,0
0.51,0.109476115943633,0.0183895282538858,-1.62101112501081,-0.920389569743718,0.0180104136617061,0.109539124112065,-0.914772142114645,-1.62418778332828,0.00346198934312309,1.10036820317739,16.3682073282328
0.52,0.0656910196668175,0.0462882386357433,0.309686703995557,-2.31664746204956,0.0452305921817283,0.0664236752352345,-2.32130862773839,0.272557467040664,0.0160106922460348,2.30765471523615,16.3682073282328
0.53,0.0598861764510914,0.0476409076455141,0.3585639948421,-2.3843422226407,0.0453880057401094,0.0616111933511716,-2.39599613594177,0.269923117973266,0.0370813582722152,3.44249358229089,16.3682073282328
0.54,0.0947125739213816,0.0187387842542177,-1.60469712267859,-0.937878444803754,0.0124289993651867,0.0957451495842974,-0.829612609126952,-1.6632533636034,0.0662349398773435,4.49924169075868,16.3682073282328
0.55,0.0576070656580718,0.0205705934383218,0.0300195275680192,-1.02956965294359,0.0145411548953465,0.0594161437864127,-1.02720302911321,-0.0759524803969061,0.102955843951074,5.50533156708373,16.3682073282328
0.56,0.0696693938282628,-0.00738334966198699,-0.762612137286246,0.369421070749792,-0.0174866926406651,0.0678421245917288,0.476914699169293,-0.700429560460209,0.14668184409554,6.40053848056115,16.3682073282328
0.57,0.0676978439680214,0.0272409856165592,-0.841149262475919,-1.36345062204696,0.0134855417274258,0.0717161734868643,-1.17277453565359,-1.09138882578416,0.196695663858065,7.23528359112694,16.3682073282328
0.58,0.00771437769543078,-0.0256660204237226,1.99085137057647,1.28435299610329,-0.026779454049601,0.00105691457744456,0.746192946873932,2.24861021174442,0.252530678292226,7.99765266163137,16.3682073282328
0.59,0.0415573260546962,-0.00383150569852885,0.140530808411411,0.191612011896166,-0.0164738601984457,0.0383445395707949,0.138867991345181,0.192820518087199,0.313845294521041,8.7195092100769,16.3682073282328
0.6,0.0574777378067503,0.0305533143795445,-0.805127427984526,-1.52920806836519,0.007025594539006,0.0647134946076188,-1.12090362153297,-1.31540205370086,0.380440699736438,9.44342649545388,16.3682073282328
0.61,0.0264736863335937,-0.0289306172325013,0.604259925373463,1.44778521354491,-0.0375877272896731,0.0111803147871682,1.03850752813521,1.17588868349777,0.451969784477914,10.0672324612489,16.3682073282328
0.62,0.0320231657710979,-0.0378376677913809,0.187205545983723,1.89360950364116,-0.0488196650089851,0.00859142353190656,1.54123632390055,1.11597198110737,0.528160621888667,10.6956715710755,16.3682073282328
0.63,0.0411872970452732,-0.0470814356210456,-0.378603636177218,2.35625174108261,-0.0621743826674984,0.00688484988577831,2.14980886723292,1.03613938012613,0.608437015855217,11.2015745096187,16.3682073282328
0.64,0.0386971325772812,-0.0453655873588168,-0.364244248175734,2.27040814636664,-0.0596223599732576,0.000823879441064049,1.98007561075024,1.16907125494094,0.692419381852596,11.7027743225191,16.3682073282328
0.65,0.0294400744464517,-0.0344317285139344,-0.0023098297979844,1.72323300163687,-0.0451827819310769,-0.00328300606740954,1.22676838765535,1.21019694111893,0.779938638438615,12.1623283373456,16.3682073282328
0.66,0.056812190911311,0.0277376521174379,-1.46770148807366,-1.38810007839861,-0.0255787056648103,0.0578163661746763,0.228162783805037,-2.00721479414392,0.870717306270292,12.603628012796,16.3682073282328
0.67,0.0469471884070675,-0.000478901948693475,-1.05875085060859,0.0240924874685846,-0.0388532782655388,0.0263569841678779,0.883791326555208,-0.583478108177696,0.964533096046806,12.9921191604098,16.3682073282328
0.68,0.0162918832485792,0.0341782775343406,0.39746509085369,-1.7103884377541,0.00245934148441144,0.0377826912019618,-1.18161535069537,-1.29891965473285,1.06098330035089,13.3402477500416,16.3682073282328
0.69,0.0510739235665493,0.00691280890671806,-1.42324492112396,-0.345788987034032,-0.0440682288426469,0.0267268367401499,1.16688244962486,-0.885201376985285,1.16015169353473,13.7008292972261,16.3682073282328
0.7,0.0194098488953027,0.0025706450850509,0.0842289921349726,-0.128474013314504,-0.0177092467278956,0.00835063055237731,-0.119304469783965,-0.0967808798408839,1.26184819079097,14.0214248562366,16.3682073282328
0.71,-0.0250148667317047,0.00886795874563159,2.2345216808878,-0.44363494565096,0.0262957455707122,0.00359416399174256,-2.27804567361953,0.0201746440788947,1.36595212781294,14.3567547794486,16.3682073282328
0.72,-0.0103765261899275,0.00709726188593815,1.43422658427267,-0.355024151767919,0.0110246523470076,0.00604156127796953,-1.46220456272022,-0.212145846372616,1.47221805880746,14.6305001860253,16.3682073282328
0.73,0.0166814658050873,-0.0316998148861261,0.0156993578596411,1.58668002536371,-0.0163688435120854,-0.0318623685136215,-0.0313059775114155,1.58644883576416,1.58063298612604,14.9130793305554,16.3682073282328
0.74,0.0402212712485884,-0.0470862752801958,-1.21337174336758,2.35679341892182,-0.0342951092444586,-0.0515627138785921,0.922503496681128,2.48510231292138,1.6907985425324,15.1607914664541,16.3682073282328
0.75,0.0238726804971738,-0.00533454327331131,-0.458474860785534,0.267241329924811,-0.022005652438467,-0.0106823914369566,0.384715483777465,0.365528552830237,1.80288070792794,15.4170077508381,16.3682073282328
0.76,0.0323365009548945,-0.00362754804624778,-0.926824066334999,0.181768986938131,-0.0291930738619579,-0.0143726419743901,0.810359989837094,0.485138641443332,1.91657541633518,15.6048911557794,16.3682073282328
0.77,0.034258512762815,-0.00657109755500986,-1.06309872068334,0.328828521237383,-0.0277628045573418,-0.0211199361482997,0.805977445459097,0.767272730982241,2.03162040475735,15.7923232454757,16.3682073282328
0.78,-0.0361311516827578,-0.00530415786258023,2.40297282156054,0.265135518977998,0.0331701130599733,0.0152753989192495,-2.15821708968076,-1.0893457754048,2.14812338445954,16.0115748684639,16.3682073282328
0.79,0.0176642436861287,-0.00175255381122409,-0.338137908772034,0.0872366654912704,-0.0124391620122797,-0.0126634986593923,0.203717194666067,0.283631425889566,2.26623988678692,16.2029342909108,16.3682073282328
0.8,0.00879758714804815,0.00598510435739424,0.0629515803400772,-0.30004511477206,-0.0103896888545876,-0.00229638396207166,0.175153390242143,-0.251617293230365,2.38571436968129,16.3842556415541,16.3682073282328
0.81,0.00885657827441935,0.0293650987258327,0.0262503735622948,-1.47014877551027,-0.0288911739801308,0.0102979642628353,1.16771250330298,-0.893573731639635,2.50626632763172,16.4991923127647,16.3682073282328
0.82,0.0449747225593398,0.0126429205066713,-1.8144131000665,-0.633254140128825,-0.0331181671507003,-0.0329508135378457,1.44337310220553,1.26877097677745,2.62770076223968,16.6439291436845,16.3682073282328
0.83,-0.0386241144273888,-0.00887899937583271,2.33800312492274,0.443790875458995,0.0229419972199201,0.0323159961749169,-1.30213934353288,-1.99189409440184,2.7501918949039,16.7642255696178,16.3682073282328
0.84,-0.0516973412996948,-0.0154665573257955,2.96300883843498,0.773440304005906,0.0286099671740982,0.045752587590936,-1.53078699984832,-2.65222971131837,2.873463736666,16.8452639337168,16.3682073282328
0.85,0.0359633081813075,-0.0280549544239105,-1.44945624878886,1.4035302772708,0.0225961812646796,-0.0396213653894605,-1.1806901453805,1.63609028998106,2.99740172617613,16.9683013552491,16.3682073282328
0.86,0.0244304179599419,0.00361482640657858,-0.894160985429515,-0.181430299731616,-0.00409030839624914,-0.0243553211613135,0.198823757919509,0.890454903300414,3.12210060761107,17.0541395119348,16.3682073282328
0.87,0.0209510282080497,0.0493211632027534,-0.729771072438294,-2.46886508905665,-0.0468388342805387,-0.0260316408604483,2.37821937980832,0.985866739288109,-3.03602083336923,17.0797988894624,16.3682073282328
0.88,0.043851871873151,0.00576428106937119,-1.89565010063581,-0.288941943689825,0.00443153184222001,-0.0440065350664802,-0.152864330234283,1.91144166727783,-2.91052974408725,17.1650775910585,16.3682073282328
0.89,0.026619319950431,0.019563633631807,-1.0486569431053,-0.979533039105684,-0.00902755538706751,-0.0317777783873639,0.551301548008313,1.32485205294259,-2.78459075202147,17.2096783541879,16.3682073282328
0.9,0.00149773714034009,-0.00894547917667594,0.194673988474194,0.447304416919209,0.00861693752413971,0.00283075995926359,-0.305609076766974,-0.380239786689297,-2.65829752899206,17.2512668787282,16.3682073282328
0.91,-0.0103368774223921,0.0356896880980511,0.776246609936747,-1.7864996698975,-0.0351772893784097,-0.0119650818371358,1.90907290270014,0.386756411916097,-2.53181377176304,17.2604436325584,16.3682073282328
0.92,0.0183786867440124,-0.00378731250065386,-0.672077733273049,0.189266417867031,0.0151508939302548,-0.0110711460800729,-0.591654304542911,0.37074983534656,-2.40507336219465,17.3108633566356,16.3682073282328
0.93,0.0508129553502067,-0.0252682729298021,-2.30340605932927,1.26439409245779,0.0550444012008368,-0.0138042002563852,-2.57250735270611,0.5353296325349,-2.27798114329947,17.3479428872464,16.3682073282328
0.94,0.0302290611219632,0.00614353151539257,-1.28840717670018,-0.307609706846779,0.0219219928971211,-0.0217017359493332,-0.909274120572595,0.963243146031065,-2.15064360178607,17.3742318729239,16.3682073282328
0.95,0.00430736779010382,0.0481035215139224,-0.0047908818015616,-2.40753538748193,-0.0171455245598471,-0.0451501183485415,1.04771640250641,2.16761157370162,-2.02302588786073,17.4154134851158,16.3682073282328
