t,iq,id,vq,vd,ia,ib,va,vb,theta_e,omega,r
0,0,0,0,0,0,0,0,0,0,0,0
0.01,0.0012701517316547,0.000718005667499972,-0.0617576120811055,-0.035986855033797,-0.000934325068404577,0.00112064902022814,0.0450486655523427,-0.0554948116235833,1.20948296905,-0.00349390885342544,0
0.02,0.00143562343015277,0.000814307854277483,-0.0702931538525448,-0.0408135592673347,-0.00105503829854199,0.00126925415238684,0.051325282139881,-0.0630284817512479,1.20945823407131,-0.00357634748265294,0
0.03,0.0014619019201148,0.000830171984666935,-0.0717151694952925,-0.0416086702290833,-0.00107398117591303,0.00129340913169254,0.0523728730855833,-0.0642761941836363,1.20943482084488,-0.0032534898971889,0
0.04,0.00144565852219635,0.000822673243664168,-0.0710967579125886,-0.0412328569834382,-0.00106141298618181,0.00128067259727242,0.0519260244466123,-0.0637070283867308,1.20941528726656,-0.00286674920838461,0
0.05,0.00145742816881845,0.000830177719824141,-0.0717932242923915,-0.041608957032553,-0.00106974549932208,0.00129187324472569,0.0524433548442261,-0.0643060408695564,1.20939702327525,-0.00258804948168393,0
0.06,0.00145554157401556,0.000830188973380516,-0.0718273275134811,-0.0416095230717842,-0.00106795600579442,0.00129123389627825,0.0524740194520805,-0.0643194734939031,1.20938092377969,-0.00230467012138324,0
0.07,0.00148948357723831,0.000849927994533486,-0.0735399651291972,-0.042598857631028,-0.00109270698338992,0.00132171493568214,0.0537252625202609,-0.0658512362055655,1.20936685826523,-0.00216654944836873,0
0.08,0.00145245264800537,0.000830223992182842,-0.0718850939565753,-0.0416112924790043,-0.00106501988902363,0.0012902027778136,0.0525257147583117,-0.0643429536472128,1.20935429108712,-0.00183598613400458,0
0.09,0.00145105827632379,0.000830176155099922,-0.0719028310959866,-0.0416088786284443,-0.00106371843671416,0.00128967657076441,0.0525424564321744,-0.0643475420852082,1.20934336559876,-0.00164332662821887,0
0.1,0.00144991142647231,0.000830172741494634,-0.0719221327110394,-0.0416087368775523,-0.00106263451900393,0.0012892780167043,0.0525599430360225,-0.0643547398899243,1.20933376338038,-0.00147424495354354,0
0.11,0.00144890420616595,0.000830169826654194,-0.0719391299329828,-0.0416085634099063,-0.00106168253762869,0.00128892805424769,0.0525753600810376,-0.0643610322858484,1.20932532389379,-0.00132563796883775,0
0.12,0.00144801831188264,0.000830167264188267,-0.0719540326126071,-0.0416084618585206,-0.00106084523978776,0.00128862022927507,0.0525888581866098,-0.0643665977202208,1.20931790634311,-0.00119502576938526,0
0.13,0.0015103156354637,0.000865473089672547,-0.0749573352759288,-0.043378001792798,-0.00110662034542949,0.00134368463515625,0.0547717579252504,-0.067084332634243,1.20931040231314,-0.00125723946338006,0
0.14,0.00166191018911735,0.000953266838621321,-0.0827624186260372,-0.0477782800169469,-0.00121735891866845,0.00147942570122515,0.0605157325270713,-0.0739609903592507,1.2093041531937,-0.00161572274468402,0
0.15,0.00144625813607228,0.000830435957760249,-0.0720188357740445,-0.0416219189390189,-0.00105907888179354,0.0012882695363298,0.0526434690427463,-0.0644031211166079,1.20929857167631,-0.000856254560550641,0
0.16,0.00144521257505342,0.000830159752021935,-0.0720013823139778,-0.0416080783256416,-0.00105819320222295,0.00128764581610736,0.0526317695951383,-0.0643842221849469,1.20929439170284,-0.000780970990646242,0
0.17,0.00144477296949484,0.000830157867471253,-0.0720086920075236,-0.0416079786207613,-0.00105777794872492,0.00128749245803564,0.0526384056755874,-0.0643869075004571,1.20929071972611,-0.000716308554185325,0
0.18,0.00144438784633809,0.000830156749797413,-0.0720151712468713,-0.0416079108272262,-0.00105741395843152,0.00128735861375049,0.0526442823037191,-0.0643893055860128,1.20928749239342,-0.000659479902503835,0
0.19,0.00144404900890448,0.000830155768554215,-0.0720208439792113,-0.041607874463384,-0.00105709371776714,0.00128724085238121,0.052649418587723,-0.064391427280449,1.20928465585847,-0.000609532629194022,0
0.2,0.00144375126608216,0.000830154906044546,-0.0720258285029002,-0.0416078409158038,-0.00105681231623159,0.00128713737207996,0.0526539322571624,-0.0643932901400618,1.20928216279891,-0.00056563346003641,0
0.21,0.00144348972842457,0.000830154147908657,-0.0720302125259671,-0.0416078072842607,-0.00105656513175816,0.00128704647457271,0.0526579037020474,-0.0643949246544017,1.20927997162418,-0.000527050031456519,0
0.22,0.00144325985573415,0.000830153481522838,-0.0720340609435157,-0.0416077735785881,-0.00105634787487555,0.00128696658126937,0.0526613912680734,-0.0643963557035029,1.20927804577869,-0.000493138661633908,0
0.23,0.00144305768988677,0.000830152895789487,-0.0720374324226728,-0.0416077368970902,-0.00105615680576195,0.00128689631609222,0.0526644487897002,-0.0643976030099387,1.209276353134,-0.000463333612025591,0
0.24,0.00144288020409043,0.000830152380951204,-0.0720404011383949,-0.041607703066982,-0.00105598906029136,0.00128683462942989,0.052667141769342,-0.0643986997426115,1.20927486545152,-0.000437137649239482,0
0.25,0.00144272425512828,0.00083015192843079,-0.0720430081128699,-0.0416076691850202,-0.00105584166944727,0.00128678042791753,0.052669508007356,-0.0643996589992849,1.2092735579128,-0.000414113749764529,0
0.26,0.00145182286108986,0.000835182455691509,-0.0724819918886547,-0.041859823074769,-0.00106257136169397,0.00129470516164332,0.0529908548725097,-0.0647908422223279,1.2092724138982,-0.00042237240416976,0
0.27,0.00139880511233123,0.000805573579654401,-0.0699838757133278,-0.0403757937023378,-0.00102345192811183,0.00124825906179982,0.0511790472450783,-0.0625192186454557,1.20927123527701,-0.000238995314889189,0
0.28,0.00135501902693791,0.000779687975215049,-0.0674001984454029,-0.0390784095734565,-0.000991650752512306,0.00120856058478691,0.0492212062279415,-0.0603919009697241,1.20927019503587,-8.6396709989499e-05,0
0.29,0.00144204762154197,0.000830037727392445,-0.0720400564325439,-0.0416019421333842,-0.0010552442651614,0.00128643830498537,0.0526685274276927,-0.0643934588189821,1.20926974773235,-0.00034633907426689,0
0.3,0.00144104020146908,0.000829495138304985,-0.0719890550949207,-0.0415747740743624,-0.00105449445316664,0.00128557399435523,0.0526304609262886,-0.0643499842694636,1.20927019208511,-0.000350902854661402,0
0.31,0.00144223121487622,0.000830149041652339,-0.0720509886343032,-0.041607526611095,-0.00105537624159194,0.00128660767027206,0.0526767588385504,-0.0644025644841777,1.20926945477659,-0.000341852684213208,0
0.32,0.00144215647632274,0.000830150279155733,-0.0720524151266428,-0.0416075996617814,-0.00105530505729581,0.00128658308096595,0.0526780252681168,-0.0644031717312803,1.20926880243253,-0.000330375795099309,0
0.33,0.00144208779128297,0.000830150083953343,-0.0720535223522903,-0.0416075999380667,-0.00105524014359952,0.00128655920928312,0.0526790238957594,-0.0644035938233901,1.2092682290702,-0.000320279687650161,0
0.34,0.00144202788496019,0.000830149909514943,-0.072054514084427,-0.0416075658096838,-0.00105518352314587,0.0012865383887595,0.0526799311358265,-0.0644039392279279,1.20926772513677,-0.000311406092863491,0
0.35,0.00144197503240417,0.000830149756190273,-0.0720553711872639,-0.0416075660420846,-0.00105513357154153,0.001286520018494,0.0526807042255651,-0.0644042659392943,1.20926728222492,-0.000303606999643925,0
0.36,0.00144192846627552,0.000830149621429736,-0.0720561143093662,-0.0416075662564173,-0.00105508956243932,0.0012865038325039,0.0526813741629258,-0.0644045494934358,1.20926689294563,-0.000296752296892739,0
0.37,0.0014418874880823,0.000830149502985703,-0.0720567604100517,-0.0416075664546908,-0.00105505083493497,0.00128648958849216,0.0526819563920402,-0.0644047962327363,1.20926655080458,-0.000290727628578243,0
0.38,0.00144185163216324,0.000830149398882959,-0.0720573317715436,-0.0416075666382264,-0.00105501694682047,0.00128647712593701,0.0526824713867157,-0.0644050143403186,1.2092662500938,-0.000285432486013896,0
0.39,0.00144182036400926,0.00083014930738504,-0.0720578417166438,-0.0416075324336673,-0.00105498739229638,0.00128646625945624,0.0526829434435363,-0.0644051766413595,1.20926598579657,-0.000280778531088924,0
0.4,0.00144179265716271,0.00083014922696617,-0.072058274151844,-0.041607532594169,-0.00105496120612344,0.00128645662921663,0.0526833329069792,-0.0644053419844157,1.20926575350343,-0.000276688122532776,0
0.41,0.00144176820994517,0.000830149156284829,-0.0720586449611496,-0.0416075327454469,-0.00105493810161197,0.00128644813135091,0.0526836665430741,-0.0644054840396268,1.20926554933899,-0.00027309302064299,0
0.42,0.00144174678952599,0.000830149094161833,-0.072058969652137,-0.0416075328879337,-0.00105491785701648,0.00128644068599915,0.0526839586374439,-0.0644056084719039,1.20926536989733,-0.000269933248845588,0
0.43,0.00144172793024388,0.000830149039561179,-0.0720592488644057,-0.0416075330229802,-0.00105490003329161,0.00128643413064603,0.0526842095950599,-0.0644057156664262,1.20926521218457,-0.000267156093113931,0
0.44,0.00144171128285289,0.000830148991571962,-0.0720594861823795,-0.041607533151608,-0.00105488430070483,0.00128642834368641,0.0526844225988435,-0.0644058070305557,1.20926507356981,-0.000264715222554418,0
0.45,0.00144169673093769,0.000830148949393697,-0.0720596942174621,-0.0416075332741658,-0.00105487054767381,0.00128642328563589,0.0526846092958926,-0.0644058871471709,1.20926495174045,-0.000262569916468815,0
0.46,0.00144168392525231,0.00083014891232265,-0.0720598717591596,-0.0416075333916672,-0.00105485844516235,0.00128641883445131,0.05268476842268,-0.0644059556961451,1.20926484466354,-0.000260684385022603,0
0.47,0.00144167263296611,0.000830148879740644,-0.0720600214283306,-0.0416075335047731,-0.00105484777331192,0.00128641490908531,0.0526849023154035,-0.0644060136991778,1.20926475055337,-0.000259027172161683,0
0.48,0.00144166273766377,0.000830148851104292,-0.0720601499389265,-0.0416075336138189,-0.00105483842140383,0.00128641146951053,0.0526850171527102,-0.064406063614106,1.20926466783904,-0.00025757063083932,0
0.49,0.00144165412292997,0.000830148825935383,-0.0720602624708122,-0.0416075337191492,-0.00105483027894319,0.00128640847555802,0.0526851176906817,-0.0644061073460546,1.2092645951415,-0.000256290461782648,0
0.5,0.00144164643951874,0.000830148803814259,-0.0720603512548333,-0.041607533821777,-0.00105482301784758,0.0012864058045851,0.0526851965838662,-0.0644061422119012,1.20926453124706,-0.000255165308112474,0
0.51,4.51287159057247,-0.00554411518480658,14.3584165469429,0.290874576649063,-1.1281848609341,4.36958117555543,-3.29068644972975,13.9792745321218,0.25144398867939,76.9514695050296,5363.21633207605
0.52,4.43214337313924,0.00995290568735108,18.3971874511396,-0.467184615694121,-4.01327953071326,1.88084591308052,-16.8732975888989,7.34619602610561,1.13478278216532,164.542565398373,5363.21633207605
0.53,4.45154595538887,0.0342833451861702,17.4297234676082,-1.68936404649568,-1.99293427593014,-3.98065945698938,-6.16631012127554,-16.3898087397974,2.68512303593245,259.709228673171,5363.21633207605
0.54,4.3909421253943,-0.0130359492919623,20.462649669224,0.713854528950457,4.29678602374073,0.904528910937874,20.181179703276,3.45682015123376,-1.36628176005298,347.672629348073,5363.21633207605
0.55,4.38028679626875,0.108376544543728,20.9984951111465,-5.37970961298401,-4.36771277166559,0.348916948861543,-21.2623908188493,-4.21767816688157,1.51581694353793,439.576996348988,5363.21633207605
0.56,4.31719160235101,0.0469720776288416,24.1565407405677,-2.29829415059741,4.08120126537217,1.408597152848,21.9741994102096,10.2934531054318,-1.22757537795491,528.425139890534,5363.21633207605
0.57,4.30559547264609,-0.0389132554346112,24.7396604579392,2.01643588435227,-0.70374184280924,-4.2478717064194,-6.25016125742696,-24.0219128610938,2.96837697657742,617.380832467828,5363.21633207605
0.58,4.26074267779922,-0.0140249779152535,26.9858174828983,0.776756559124589,-4.25846366343203,0.14004318496178,-26.9400854952712,1.75199585613766,1.53463066452851,706.62012682923,5363.21633207605
0.59,4.18121294840562,0.0981445935051386,30.9660431614752,-4.81471728607015,-2.78153711670752,3.12333561269479,-24.6508028058807,19.3498127290346,0.751046986376233,794.57056571205,5363.21633207605
0.6,4.14686648402445,0.14103892960353,32.68719883811,-6.90588670220219,-2.27034075134679,3.47303131122699,-24.4536304529721,22.7632202619767,0.61297381040571,881.909706114006,5363.21633207605
0.61,4.16581335954907,0.0960612255710148,31.7438820848313,-4.69407965745738,-3.71080156894766,1.89556862749712,-30.6329667675369,9.55666158578443,1.12158193682089,970.69596396919,5363.21633207605
0.62,4.07087894888876,0.0306237917537178,36.4947700579733,-1.43351084212199,-3.128926722868,-2.60438299718945,-26.9477676226004,-24.6524038397304,2.2724804355113,1058.2667127612,5363.21633207605
0.63,4.10502053763386,0.160825136783388,34.7918862233148,-7.85226853632071,3.17798414544864,-2.60335842908622,32.49106916226,-14.7127119470141,-2.21796909496003,1145.17662933332,5363.21633207605
0.64,4.01132142817247,0.142746478520686,39.4811876054467,-6.93427914609486,-0.716094659555094,3.94946636848605,-15.1954840703605,37.0937415998961,0.214936570468062,1232.355792134,5363.21633207605
0.65,4.04626199636199,0.129556445652319,37.7384757373852,-6.36868601677712,0.454443300439309,-4.02274810328701,11.7365390756231,-36.4280985379127,-2.99709333509816,1319.871352462,5363.21633207605
0.66,3.97433438578979,0.0417633361845855,41.3392881667026,-1.93455095496168,-2.56134738552792,3.03917382802789,-28.4373138856797,30.0665663569079,0.710793942906179,1406.45778348859,5363.21633207605
0.67,3.98441365234477,0.150296537522103,40.8396956074626,-7.27069375222439,3.80653172187132,1.18678450131853,36.0786007455333,20.4714018375206,-1.23086811460717,1492.28046724381,5363.21633207605
0.68,3.95410135622814,0.0844598977025485,42.3595804599095,-4.05442867416456,2.17000798724572,-3.30652632606107,27.3339526516724,-32.6133022101345,-2.53945831650657,1579.02115845693,5363.21633207605
0.69,3.95097132912683,0.00959775105526806,42.5202509981328,-0.331461189349544,-0.310001686902295,-3.9388025483039,-2.90273688554183,-42.4223494167588,3.06547921862357,1664.93156144165,5363.21633207605
0.7,3.8051228476717,0.0738978690810645,48,-3.42005684056277,-0.548954678878641,-3.76604162768618,-2.60671720062818,-48.0510334355946,3.01626587022823,1750.26321045807,5363.21633207605
0.71,3.80815979315259,0.224517699684225,48,-10.972967152885,1.45903104598407,-3.5247294384832,30.8110108066486,-38.4068694534048,-2.69023715642697,1835.45193598102,5363.21633207605
0.72,3.76519944667829,0.163182025654474,48,-8.02053989621661,3.76614073890952,0.139782622271956,47.2006561954036,11.8501947220336,-1.49038530375791,1920.5178257056,5363.21633207605
0.73,3.86098245989697,0.137240123572203,47.0348689418437,-6.64609057753824,-1.12333104830554,3.69650480360339,-21.5521853309624,42.331462575738,0.330552250427528,2005.09487902516,5363.21633207605
0.74,3.75217305340555,0.186740156950431,48,-9.00743026917046,-3.75025973262811,0.221870337694567,-48.0822479931966,-8.55752464061389,1.56143138478307,2089.22992594053,5363.21633207605
0.75,3.74228539584798,0.107015233276025,48,-5.11653545857902,3.71640647941311,-0.452189256734899,48.2673947944629,0.661464174655595,-1.66328651945989,2173.64237055463,5363.21633207605
0.76,3.65983910126378,0.0374483380655706,48,-1.69988328570375,-3.3270632397631,-1.52527860529813,-42.7021152609583,-21.9867904757573,2.01088353181857,2257.67763104357,5363.21633207605
0.77,3.62450694687549,-0.0208829486216056,48,1.29652591482258,-0.0811499811129709,3.62365856366976,0.498181222883108,48.0149226274184,0.0166292128925921,2341.3216492648,5363.21633207605
0.78,3.61780790954237,0.0761679737096044,48,-3.56034719130783,3.55614660082531,0.669445280814608,46.2419075005177,13.3552260496112,-1.36367324563895,2424.92840524508,5363.21633207605
0.79,3.55635719474015,-0.0294764569068054,48,1.66369985047971,3.02722545649231,-1.86666852806189,39.7617956044951,-26.9400725221526,-2.13164003205062,2508.57517522911,5363.21633207605
0.8,3.76113839355335,0.0564323823023882,48,-2.53486127982764,2.79685710098274,-2.51534033202583,37.8338399554384,-29.6483739172023,-2.28824666283998,2591.77269080489,5363.21633207605
0.81,3.68163840466519,0.0982577665503757,48,-4.48426318422756,3.52808149997827,-1.05676717440702,47.5043118436852,-8.21273234455704,-1.83513984896655,2674.70279177616,5363.21633207605
0.82,3.74756654382582,0.192549463329787,48,-9.35038417076164,2.75481802945655,2.54800076939006,26.8263796531559,40.887345705555,-0.773045063892032,2757.97288423251,5363.21633207605
0.83,3.59809411025003,-0.0251991120431678,48,1.47435323706351,-2.82807485461625,2.22461431222381,-36.5983271356336,31.0923811944468,0.897265284497622,2840.84774208643,5363.21633207605
0.84,3.56734050072336,0.238578561236442,48,-11.4955749694401,-3.38565439970597,-1.14899184667885,-39.9106582272471,-29.0394146591471,1.9647497262177,2923.31106459991,5363.21633207605
0.85,3.53992891327625,0.209934387633726,48,-10.0463522085479,3.53607890582622,0.267048927972329,46.217464519948,16.39741339497,-1.43618290222547,3005.83316935895,5363.21633207605
0.86,3.67706074202544,0.246540954518629,48,-12.1090295955212,-3.37579772712018,-1.47835985077039,-36.9933145608884,-32.8956421968682,2.05051499752832,3088.33863993607,5363.21633207605
0.87,3.64530502912582,-0.179580456774685,48,9.27708769347925,0.338172436038192,3.63402494478634,15.9774647387285,46.2037333620909,-0.142013739239333,3170.72906696106,5363.21633207605
0.88,3.54371127045008,0.321469829521129,48,-15.6422023729877,3.4462434738105,-0.885798136612284,49.8876881414214,7.73931954255546,-1.73191524717649,3252.69376311784,5363.21633207605
0.89,3.79607929921654,0.319947974915987,48,-15.7564632383731,1.25836071727352,-3.59570758791869,33.9866983747806,-37.3787435230759,-2.72086669678572,3334.81579051889,5363.21633207605
0.9,3.53944165729855,0.195788572188329,48,-9.27210492798371,-0.0806648702692258,-3.54393476084483,10.8270510272927,-47.6733352708612,-3.10909019709751,3416.41860374716,5363.21633207605
0.91,3.66002336786258,0.142317046503659,48,-6.61565667455936,0.744963872244764,-3.58623117270426,18.0014625770799,-44.985711712961,-2.89791200954743,3498.14746788974,5363.21633207605
0.92,3.62506843531405,0.0981102806119178,48,-4.42370520805938,-0.663413936540174,-3.56519687207821,-3.13186664517383,-48.1015652456826,2.98467404812689,3579.61928499341,5363.21633207605
0.93,3.58432988324366,0.191829497340687,48,-9.07649651208536,3.33827575584322,-1.3191414806278,48.3997475080335,-6.6217241027166,-1.89365242299252,3660.74862249469,5363.21633207605
0.94,3.52807320322745,0.292870466106579,48,-14.0923724939565,-0.0802317112345435,3.53929887262456,-19.0680059252508,46.2493904018531,0.105486491367477,3741.75573245302,5363.21633207605
0.95,3.79294057292767,0.474897917619013,48,-23.4703853650126,-2.05814153848197,-3.22117674608129,0.575860810910925,-53.4277771716984,2.69758873914442,3822.69252283648,5363.21633207605
0.96,3.55713498044099,0.331987925883916,48,-16.0518067382908,1.69481587493349,3.14499990494166,3.96867491790846,50.4570125845695,-0.401214591224829,3903.23858995426,5363.21633207605
0.97,3.51586222845034,-0.243068705430204,48,12.5430307866399,1.04248535044093,-3.36654034568418,-1.20676595521609,-49.5970900078213,-2.91032158152953,3983.72703614061,5363.21633207605
0.98,3.89453621960741,0.498674079981034,45.4395476513437,-24.6609789940815,-3.80796898612975,0.956796950534888,-48.042380962523,-19.1009425724772,1.45198204638248,4063.8219417912,5363.21633207605
0.99,3.39389487625019,0.167215630831356,48,-7.95444546587321,3.08797821567908,1.41805290371095,38.9106739018245,29.2101465106805,-1.09107408564359,4143.68579835357,5363.21633207605
1,3.77209942493634,0.432361285456378,48,-21.2719942807833,3.52048212656072,-1.42192684387525,51.9329255371039,7.7116136987855,-1.84053842859403,4223.41167195582,5363.21633207605
1.01,3.41171942250745,-0.171944331383798,48,8.90485689790899,3.16838041266518,-1.27701207184944,39.8199267800449,-28.2430506072574,-2.00428379414008,4303.41905956887,5363.21633207605
