t,iq,id,vq,vd,ia,ib,va,vb,theta_e,omega,r
0,0,0,0,0,0,0,0,0,0,0,0
0.01,0.00147700895455489,0.00083961647572842,-0.0725327145103053,-0.0420750028484122,0.00168985755815588,-0.000175763225088171,-0.0833239014095583,0.00940361594375048,-1.15753100541882,-0.00264019279479069,0
0.02,0.00166306908697685,0.000947182678529455,-0.0819770920470862,-0.0474653599433174,0.00190344907414897,-0.000199588167699618,-0.0941377739159811,0.0105491012502842,-1.15755011380466,-0.00278645170134544,0
0.03,0.0016985098912768,0.000967772790564055,-0.0837810873842937,-0.0484971937746498,0.00194417136278331,-0.000204249203314403,-0.0962040780008455,0.0107714336704922,-1.15756895545073,-0.00264677448837617,0
0.04,0.00167874413239003,0.000957614513723436,-0.0829038357164583,-0.0479881158327445,0.00192198669570807,-0.000202915155789062,-0.0951960589642562,0.0106590616543984,-1.1575855652172,-0.00242581223322636,0
0.05,0.00169586919606278,0.00096779642156768,-0.083808733785035,-0.0484983613638977,0.00194175570891511,-0.000205394767823799,-0.0962295142500974,0.010764548333505,-1.15760166090993,-0.00228126943390341,0
0.06,0.00169470467557264,0.000967825547665777,-0.0838230346660821,-0.0484998488257617,0.00194069782425198,-0.000205917903704258,-0.0962430488399846,0.0107615996365443,-1.15761653321752,-0.00211513174702033,0
0.07,0.00173686751987234,0.000992172945181332,-0.0859272979791549,-0.0497199131577348,0.00198908578663037,-0.00021131414567496,-0.0986599699631124,0.0110354261036416,-1.15763015013561,-0.00204592670454154,0
0.08,0.00169268122573554,0.000967898568530792,-0.0838501911585487,-0.048503499514746,0.0019388685204366,-0.000206848329414367,-0.0962691025267204,0.0107565757191555,-1.15764288198035,-0.0018208660817852,0
0.09,0.00169155966266638,0.0009678123704972,-0.0838511610767135,-0.0484991872641378,0.00193780430804183,-0.000207242226831135,-0.0962681344192192,0.0107533564359225,-1.15765451150182,-0.00169054859702617,0
0.1,0.00169067163097413,0.000967808262224943,-0.0838590788330421,-0.0484989725796839,0.0019369871180996,-0.000207615752118618,-0.0962751846311126,0.0107510124293709,-1.15766522563252,-0.00157076703462537,0
0.11,0.00168985437979673,0.000967804730967394,-0.0838664154838945,-0.0484987725362341,0.00193623515327043,-0.000207959739951988,-0.0962817176249413,0.0107488341149011,-1.15767509676363,-0.00146041103472117,0
0.12,0.00168910092733258,0.000967801477734832,-0.0838731469683955,-0.0484986128401682,0.00193554188693924,-0.000208276851630645,-0.0962877209584096,0.0107468610504674,-1.15768419122438,-0.0013587379537805,0
0.13,0.00176359182776642,0.00101030051167207,-0.087519831036223,-0.0506283343012783,0.00202082606004083,-0.000217313814354254,-0.100482530173635,0.0112343308049738,-1.1576932763478,-0.00140148043076542,0
0.14,0.00192837552793253,0.00110571900421712,-0.0959251848574574,-0.0554099887837929,0.00221005219872008,-0.000238570685434074,-0.110100332716075,0.012240289325298,-1.15770141450206,-0.00162783526903862,0
0.15,0.00168792849374262,0.000968258833335229,-0.0839342139079407,-0.0485215362907286,0.00193464650437675,-0.000209214414949751,-0.0963525870257199,0.0107457303989772,-1.15770899949826,-0.00108308163343124,0
0.16,0.00168651681269732,0.000967791874762515,-0.0838964370935889,-0.0484981306291023,0.00193316476442908,-0.000209365866217295,-0.0963085227886401,0.0107400777364963,-1.15771542851303,-0.00100952110460892,0
0.17,0.00168602285615549,0.000967788184166938,-0.0839006425377044,-0.0484979728058002,0.00193270963296772,-0.000209572220309975,-0.0963122475664691,0.0107388152608632,-1.15772134963647,-0.000943318696897055,0
0.18,0.00168557127172128,0.000967786225529176,-0.0839046848357124,-0.0484978504151934,0.00193229410042561,-0.00020976224597505,-0.0963158421642158,0.0107376059004119,-1.15772680487259,-0.000882330915156118,0
0.19,0.00168515484784783,0.00096778442566576,-0.0839083877518858,-0.0484977710928788,0.00193191092310003,-0.000209937469245133,-0.0963191478365939,0.0107365309169427,-1.15773183088534,-0.000826141731842692,0
0.2,0.0016847712530936,0.000967782767258051,-0.083911799864719,-0.0484976917327444,0.00193155795202011,-0.000210098876341878,-0.09632219140652,0.0107355345738665,-1.15773646144597,-0.000774373567623588,0
0.21,0.00168441792632152,0.000967781239186207,-0.083914945039874,-0.0484976123355968,0.00193123283081139,-0.00021024754607438,-0.0963249943960292,0.0107346102818803,-1.15774072766977,-0.000726678572413964,0
0.22,0.00168409253922226,0.000967779831218196,-0.0839178470102463,-0.0484975299926348,0.00193093341715351,-0.000210384459731902,-0.0963275770643977,0.0107337486054095,-1.1577446582227,-0.000682736265374109,0
0.23,0.00168379218455559,0.000967778533922739,-0.0839204894248531,-0.0484974906716674,0.00193065703922384,-0.000210510827245466,-0.0963299426018912,0.0107330007487042,-1.15774827951576,-0.000642251381399868,0
0.24,0.00168351615755331,0.000967777338608968,-0.083922955964697,-0.0484974111668849,0.00193040304313484,-0.000210626971026704,-0.0963321339899849,0.0107322592532025,-1.15775161588159,-0.00060495188712648,0
0.25,0.0016832613212763,0.00096777623726607,-0.0839251993832429,-0.0484973717643365,0.00193016854800711,-0.000210734186609137,-0.0963341399404027,0.0107316187738961,-1.15775468973896,-0.000570587153034211,0
0.26,0.00169482344653481,0.000974337334341733,-0.0844978816376868,-0.0488261347143198,0.00194339135410719,-0.000212107993243302,-0.0969905960443089,0.0108031343306992,-1.157757506087,-0.000561723151332915,0
0.27,0.0016321440338421,0.000938988516125348,-0.0814787231081652,-0.047054736968331,0.00187179356528192,-0.000204896143425963,-0.093514274958174,0.0103928326043912,-1.1577602581991,-0.000411178245508649,0
0.28,0.00158859028592024,0.000913457616189796,-0.0790310287825999,-0.0457753324552736,0.0018216540131663,-0.000198998918113681,-0.0907588478567522,0.0102037300798224,-1.15776276486726,-0.000300019545319674,0
0.29,0.00168208422037579,0.000967589027204831,-0.0839158853113412,-0.048487969373609,0.00192901316928959,-0.000211054596518919,-0.0963217272151372,0.0107277140088146,-1.15776474232395,-0.000457541351238317,0
0.3,0.0016803633224262,0.000966721821692152,-0.0838383094153608,-0.0484445323156923,0.001927088647797,-0.000210953358406436,-0.0962332269446261,0.0107191822792606,-1.15776593326155,-0.000441115918028273,0
0.31,0.00168216175952937,0.000967767961157618,-0.0839345078988903,-0.0484969510909894,0.00192915534813742,-0.000211193405718336,-0.0963423553273261,0.0107287674657403,-1.15776787602546,-0.000423154677498257,0
0.32,0.00168202054479604,0.000967770856691522,-0.0839361691554574,-0.0484970889797546,0.00192902679136175,-0.000211256200822643,-0.0963439129827119,0.0107283998426341,-1.15776967049938,-0.000403106801297607,0
0.33,0.00168188375365215,0.000967770276061525,-0.0839373733774676,-0.0484970493360255,0.00192890092054427,-0.000211313763751265,-0.0963449822930338,0.0107280394650794,-1.15777132379917,-0.000384623480566422,0
0.34,0.00168175721019752,0.000967769730116694,-0.0839384543826434,-0.0484970497651711,0.00192878447693542,-0.000211366993909735,-0.0963459562290595,0.0107277527181018,-1.15777284701563,-0.00036759439831957,0
0.35,0.00168164114098052,0.00096776922707415,-0.083939473468052,-0.0484970100732561,0.00192867766920738,-0.00021141582772053,-0.0963468586350381,0.0107274425330224,-1.15777425038361,-0.000351905180535943,0
0.36,0.00168153426857355,0.000967768763597781,-0.0839404128576017,-0.0484969703610227,0.00192857932405019,-0.000211460793124584,-0.0963476892239597,0.0107271536814672,-1.15777554333306,-0.00033745040555862,0
0.37,0.00168143531555016,0.000967768336576587,-0.0839412511036904,-0.0484969707187906,0.00192848826839529,-0.000211502416821261,-0.0963484443496012,0.0107269323277365,-1.15777673455163,-0.000324132946235095,0
0.38,0.00168134462487252,0.000967767943144274,-0.0839420445059435,-0.0484969309682837,0.00192840481354648,-0.000211540574018769,-0.0963491433097149,0.0107266832089094,-1.15777783204411,-0.000311863317473857,0
0.39,0.00168126068942562,0.000967767580658952,-0.0839427537112615,-0.0484969312859311,0.00192832757651726,-0.000211575881483353,-0.096349782161954,0.0107264962651292,-1.15777884318445,-0.000300559074955034,0
0.4,0.00168118338965205,0.000967767246687258,-0.0839434059608146,-0.0484969315848108,0.00192825644540618,-0.000211608398113439,-0.0963503696939034,0.0107263245005958,-1.15777977476693,-0.000290144261155621,0
0.41,0.00168111260599405,0.000967766938987015,-0.0839440258245591,-0.0484968917856994,0.00192819130849882,-0.000211638181947403,-0.0963509122555631,0.0107261219473243,-1.1577806330517,-0.000280548894966245,0
0.42,0.00168104694774932,0.000967766655491952,-0.0839445719859732,-0.048496889142806,0.00192813088999357,-0.000211665800430717,-0.0963514029503996,0.0107259765022852,-1.15778142380524,-0.000271708501456713,0
0.43,0.0016809868743005,0.000967766394298067,-0.0839450933712297,-0.0484968493176166,0.00192807560876721,-0.000211691077705699,-0.0963518566960693,0.01072580095192,-1.15778215234171,-0.000263563678646356,0
0.44,0.00168093111136144,0.000967766153651447,-0.0839455501768402,-0.0484968495581883,0.00192802429595072,-0.000211714533086032,-0.0963522679886154,0.0107256824963254,-1.15778282355564,-0.000256059698363277,0
0.45,0.0016808797722046,0.000967765931936413,-0.0839459701192452,-0.0484968497860433,0.00192797705369598,-0.000211736128341686,-0.0963526460791039,0.0107255737369241,-1.1577834419581,-0.000249146138497713,0
0.46,0.00168083250758402,0.000967765727663321,-0.0839463560451469,-0.0484968500021752,0.00192793356065213,-0.000211756010309232,-0.096352993530673,0.0107254739321922,-1.15778401170329,-0.0002427765441994,0
0.47,0.00168078931435646,0.000967765539460556,-0.0839467264866275,-0.0484968101345086,0.00192789381258446,-0.000211774186389154,-0.096353311192331,0.0107253393101122,-1.15778453662049,-0.000236908115734892,0
0.48,0.00168074926748582,0.000967765366063732,-0.0839470524085805,-0.0484968103308082,0.00192785696098786,-0.000211791033514786,-0.0963536046014024,0.0107252552728572,-1.15778502023648,-0.000231501420890143,0
0.49,0.00168071224741354,0.000967765206308543,-0.0839473437782087,-0.0484968105183191,0.00192782289520495,-0.000211806604880202,-0.0963538667681154,0.0107251814296437,-1.15778546580084,-0.000226520130018158,0
0.5,0.0016806781377243,0.000967765059121674,-0.0839476093325087,-0.0484968106973938,0.00192779150754738,-0.000211820952007607,-0.096354105662832,0.0107251145624728,-1.15778587630782,-0.00022193077192367,0
0.51,4.63625632378505,0.0379931360034066,8.18888297760317,-1.89722550271999,-0.642615813583207,4.59166212763451,-3.07810928750135,7.8219250982893,0.147244219009921,45.0986176842903,4382.61049434034
0.52,4.5319222268712,0.040760474978595,13.4075493471603,-2.02684928116119,-2.75870849116142,3.59576249876484,-9.85349967009483,9.31552691781433,0.663419290847971,95.7694986202936,4382.61049434034
0.53,4.53512722103906,0.0590340827729265,13.2493482662331,-2.93113651306315,-4.53365383425671,0.12979539694363,-13.2934740424778,-2.72402984934377,1.55519116933328,148.024758873404,4382.61049434034
0.54,4.4376901173319,-0.0217612940038183,18.1235509816305,1.10967824937022,-1.27847415668636,-4.24959656462434,-6.36732505845258,-17.0044599326438,2.84445618280527,204.395421275507,4382.61049434034
0.55,4.46078093804418,0.0641698621710685,16.9714204982505,-3.18370860661569,4.38360805457807,-0.828652383251042,17.2660010141055,0.224328333441683,-1.74324172786991,257.115626442184,4382.61049434034
0.56,4.37395246809047,0.0112775793778694,21.3154137129929,-0.50995197959661,-1.3894241280021,4.14741943495433,-7.30621380073951,20.0306303614096,0.325836519342616,308.041594883509,4382.61049434034
0.57,4.43068090141179,0.00264934426234142,18.4816978979431,-0.0924644139340835,-1.53924692256795,-4.15471529476152,-6.32357061437727,-17.3664665819983,2.78738686067896,362.603092660049,4382.61049434034
0.58,4.36586153910101,0.0508533424216924,21.7255434454905,-2.47468719978303,2.69539106109292,3.43485080735936,11.2475121003774,18.7514475785346,-0.653705839912834,413.67369897151,4382.61049434034
0.59,4.37385464331991,0.0880635607677032,21.3288931681099,-4.34367558826558,-2.41535633860757,-3.64752154060459,-7.7464557118211,-20.3416229759952,2.57682628067389,466.145919679798,4382.61049434034
0.6,4.36065040407016,0.00892464318160391,21.9922273174577,-0.393224157565132,0.429500841104961,4.33945625894112,1.72992657348862,21.9276091188977,-0.0966077906592833,519.205980255161,4382.61049434034
0.61,4.30080491949408,0.0872252841408061,24.9876089419283,-4.32166922516899,2.87908784250803,-3.19615149842125,20.2487213316164,-15.2658674814454,-2.38805830271321,571.300453915276,4382.61049434034
0.62,4.29800631673541,0.033158532115406,25.1308545971451,-1.5951626857283,-3.9463534583305,-1.70301267431351,-22.3531981352023,-11.5947802870592,1.98590876219014,622.74446902773,4382.61049434034
0.63,4.23489474861759,0.00726065156965006,28.2898028665151,-0.271784934087336,-1.86255034996504,3.80332649699906,-12.7295520286333,25.2654965996515,0.457101202622779,674.422389241117,4382.61049434034
0.64,4.16079501317056,0.0560372559594972,31.9982814608974,-2.74443991222075,2.69908119543569,3.16706741578481,18.3127745365594,26.3830296906125,-0.692322236778181,726.302820457278,4382.61049434034
0.65,4.2305865177771,-0.0442426976948331,28.512295099717,2.28272194652132,4.20144668394626,0.497659986992781,28.5926713816604,0.787994034784868,-1.46335343419195,778.168339129156,4382.61049434034
0.66,4.3115987815345,0.0856033993242118,24.4653747258838,-4.20097289785336,4.11278620612072,-1.29699715406348,24.6578060815191,-2.86274920532874,-1.85643056090153,829.487702651798,4382.61049434034
0.67,4.18200453640508,0.00947685507218932,30.9487832700919,-0.343018859613821,3.98999275268525,-1.25268095970759,29.6506685425993,-8.87596207822486,-1.87274073290117,880.348201861757,4382.61049434034
0.68,4.22015426265724,0.1080568605695,29.0452107955695,-5.28750505886365,4.21941168284098,0.133952739595796,28.694487285134,6.94322542842006,-1.51346084285703,931.79706312336,4382.61049434034
0.69,4.19877613805949,-0.0268207511081127,30.1179959022972,1.45474745915686,2.92652373556934,3.01096317403203,22.1658630086456,20.4422230792708,-0.777565379177323,983.228576485814,4382.61049434034
0.7,4.24803759493156,0.129837757647341,27.6588876934351,-6.32920427805745,-1.26395078252271,4.05772222689319,-15.0111263816217,24.0777694146783,0.332521568512531,1034.00171556232,4382.61049434034
0.71,4.09910740985744,0.0998447471699917,35.1093831073677,-4.86847448026816,-3.99874357850046,-0.907028293101688,-32.8480840625013,-13.3181905440561,1.81820317352624,1085.30869564729,4382.61049434034
0.72,4.13578552434046,0.0628412490939678,33.27958847204,-3.05824284459508,2.0569171739831,-3.58855997097793,19.6161887797197,-27.0571431589377,-2.6059283523216,1136.58867161938,4382.61049434034
0.73,4.09318393631598,0.138358712019207,35.4138456974907,-6.73557267296073,1.62197087567504,3.76065264923108,6.64713632256907,35.4305515766774,-0.37340563396512,1186.92612277254,4382.61049434034
0.74,4.13651800085758,0.0739264508808268,33.2513627211726,-3.51014210306684,-3.30995369431686,-2.48202595333667,-24.0863892222119,-23.1909481184971,2.23208224492635,1237.70100231027,4382.61049434034
0.75,4.10935306688743,0.00861509337769201,34.6139014636772,-0.251834319345821,3.61659190746841,1.95118421042326,30.3086473737301,16.7203914259337,-1.07394676328141,1288.46504580715,4382.61049434034
0.76,4.0523464734028,0.0734942247659813,37.4685263626798,-3.50745251298091,-3.1384178358108,-2.56461436271396,-26.3104766364249,-26.9063470223252,2.27405242484009,1339.07306102461,4382.61049434034
0.77,4.04404357684708,0.0268271800774482,37.8879429046747,-1.15401444639254,1.18416298272724,3.86688067819109,9.74775959401309,36.6307132033721,-0.290530809182826,1389.64366914516,4382.61049434034
0.78,3.92416124928194,0.111287871495771,43.8863249028468,-5.36164000747789,2.30959980485345,-3.17445668455705,31.059341264524,-31.4654416346229,-2.48425806945909,1440.04938064884,4382.61049434034
0.79,3.9770265699498,0.192523672698186,41.2473330030568,-9.40633986402822,-3.7324623780722,-1.38655338841008,-34.2277223437862,-24.8653319434779,1.9748528908573,1490.49310243489,4382.61049434034
0.8,3.99782189352528,0.107603364745758,40.2117741824231,-5.27827195080754,-1.89390226047642,3.52239870034852,-24.5687515695802,32.2679931820546,0.520239659493789,1541.24203353178,4382.61049434034
0.81,4.00434889147965,0.0676934996646936,39.8896638749813,-3.20421866378256,2.2039429539906,3.34395393361606,18.6807101976792,35.390441757834,-0.565830545741262,1591.20342329845,4382.61049434034
0.82,3.86225243187573,0.192266500131826,46.998624151343,-9.37647263178791,3.75921940789213,0.906768822760294,42.4346936899295,22.2729809988634,-1.28436580798916,1641.23613546597,4382.61049434034
0.83,3.93996339092677,0.0710777008431607,43.1170936279665,-3.39497830021545,3.92708151538643,-0.326181441701593,43.2464592430636,0.594477518334232,-1.63562737483719,1691.45855780679,4382.61049434034
0.84,3.89437549787968,0.0851734409508074,45.4004766467441,-4.00925463548723,1.81742843585342,3.44534017392773,16.7131620712218,42.4022123958739,-0.463540018801093,1741.17205120231,4382.61049434034
0.85,3.82891471639388,0.132500642925337,48,-6.40829720216699,0.450925251105048,3.80457760384896,-2.38843232404073,48.3669480540666,-0.083379950807051,1790.94003678851,4382.61049434034
0.86,3.91903886083079,0.10018068883893,44.1749912351087,-4.86575638500572,-2.32636318071745,3.15546131564314,-30.9553908562295,31.8883868008123,0.660847908219324,1840.73195646819,4382.61049434034
0.87,3.71302808421309,0.0534540981240632,48,-2.55968041187377,-3.65147501474434,-0.675399964065131,-46.5670815254304,-11.9188456662063,1.76809091340642,1890.20289433191,4382.61049434034
0.88,3.74603062849413,0.171971620510997,48,-8.32637274924852,0.189531951911106,-3.7451832194276,12.9095925735545,-46.9752158349938,-3.04515345017557,1939.50432937238,4382.61049434034
0.89,3.68886543852697,0.20009306576147,48,-9.72649048210877,3.5252648197665,1.10465986124292,41.5524059575739,25.9230047686515,-1.21294324911817,1988.79644942934,4382.61049434034
0.9,3.72848810417727,0.171927378235216,48,-8.30554872756823,-3.00194766718553,2.21799295983048,-44.5011135408977,19.814969928974,0.980547827003075,2038.03338976409,4382.61049434034
0.91,3.67970435319165,0.155030912845029,48,-7.50154814273088,1.26659654164985,-3.45832212373512,25.3192895714578,-41.4633187303474,-2.74841230083396,2087.27636336845,4382.61049434034
0.92,3.77666317218496,0.0278469076723153,48,-1.25873383294808,-0.595526784404322,3.72951846965022,-9.15949164855284,47.1347867673367,0.165715803811619,2136.4898966053,4382.61049434034
0.93,3.81945715029006,0.176903406555253,48,-8.67713379990779,0.951649109270989,-3.70322990252785,22.3800689085991,-43.340802560957,-2.84377389760954,2185.52352793718,4382.61049434034
0.94,3.70932575878005,0.0995486314718901,48,-4.69203187180111,-2.56171885746331,2.68451187557328,-37.3636896571487,30.4954071671503,0.788827437637914,2234.20754829675,4382.61049434034
0.95,3.587195044596,0.12115980759723,48,-5.90734222799505,3.58721707640516,0.120505741350125,47.4936791653165,9.12398660348828,-1.50345305011222,2283.20125345204,4382.61049434034
0.96,3.74124060525718,0.141542598335294,48,-6.85299278104642,-1.22598294514124,-3.53749648647054,-7.43684085725378,-47.9130139745034,2.84579362525864,2332.05875004083,4382.61049434034
0.97,3.6755534614541,0.171189688002324,48,-8.31561865244834,-2.53827346327088,-2.66386316895977,-25.178864469631,-41.7034087047198,2.42687332807576,2380.77205448036,4382.61049434034
0.98,3.68011654901338,0.159085855080098,48,-7.68079154719564,-3.38402728619851,1.45496578993208,-47.6008448648075,9.85667930633851,1.20794124022905,2429.46799031096,4382.61049434034
0.99,3.7492030840156,0.00807534518274222,48,-0.233079233422631,-1.26371837340976,3.52981654609677,-16.4955648246835,45.0771634760187,0.345948856341243,2478.33816238676,4382.61049434034
