t,iq,id,vq,vd,ia,ib,va,vb,theta_e,omega,r
0,0,0,0,0,0,0,0,0,0,0,0
0.01,0.000409836635760274,0.000228385252965622,-0.0189478306102021,-0.0114237215114644,-0.000213528083477313,-0.000417769852131501,0.0107362780398458,0.0193456463281931,-3.10569256341173,-0.00314872910769656,0
0.02,0.000533599696965832,0.000293205893412798,-0.0248365023517147,-0.0146660180111759,-0.000273878956732252,-0.000543772608351394,0.0137657865278606,0.0253465393030338,-3.10571858515637,-0.00383386850961074,0
0.03,0.00058480259782838,0.000320145866370126,-0.0273213715043639,-0.0160135437111968,-0.000298981966173858,-0.000595900359190624,0.0150241094292309,0.0278777161713146,-3.10574683164644,-0.00390241073715278,0
0.04,0.000581641810236813,0.000318566585117301,-0.0273308922389948,-0.0159345509441519,-0.000297532800086545,-0.000592677059992637,0.0149455706761271,0.0278840008165293,-3.10577353045916,-0.00354850638292367,0
0.05,0.000594376300956348,0.000326735132776716,-0.0280513192353243,-0.0163431286046718,-0.000305255154610613,-0.000605688306567677,0.0153287995723598,0.0286182156519469,-3.10579843952717,-0.0033456858461936,0
0.06,0.000596160102164323,0.000328856843453483,-0.0282645822298549,-0.0164492602459886,-0.000307325708118526,-0.000607539792958627,0.0154278975463326,0.0288347836573877,-3.10582154571408,-0.00307610230116629,0
0.07,0.000601805368261033,0.000333424595397426,-0.028639866785198,-0.0166777386620812,-0.000311701408032304,-0.000613338319620105,0.0156434163786867,0.0292176737670473,-3.1058423569599,-0.00286609093668133,0
0.08,0.00059505916231636,0.000330592182132898,-0.0284451536395589,-0.0165360680516,-0.000309123725968671,-0.000606489175160847,0.0155093601446622,0.0290177197603192,-3.10586180299886,-0.00257223585073802,0
0.09,0.000591735530926744,0.000329853858568376,-0.0283945980284657,-0.0164991282798188,-0.0003085151617565,-0.000603135889779378,0.0154747569704911,0.0289656059473352,-3.10587930674866,-0.00233005174912301,0
0.1,0.000589520464441857,0.000329660234611325,-0.0283848270018662,-0.0164894493235162,-0.000308410272477422,-0.00060091043601367,0.0154658918236615,0.0289552505258974,-3.10589515029388,-0.0021172825727149,0
0.11,0.000587739983236422,0.000329608400152836,-0.0283863115285438,-0.01648685275173,-0.000308430623480364,-0.000599124808237462,0.0154636599199474,0.0289564192836921,-3.105909516534,-0.0019262028363481,0
0.12,0.000586189790836211,0.00032959357115755,-0.0283906120983952,-0.0164861106557272,-0.000308478896673267,-0.000597571052960425,0.0154631423429906,0.0289604890973001,-3.1059225505194,-0.00175337313524595,0
0.13,0.000605163393726212,0.000341026697797712,-0.0293218190756931,-0.0170579973916945,-0.000319235687369549,-0.0006169363967434,0.0160018237729623,0.0299113019586542,-3.1059348429146,-0.00175633120963752,0
0.14,0.000615487179569952,0.000347585422425634,-0.0299841018660522,-0.0173860497461955,-0.000325429434163261,-0.000627483687021392,0.0163064097858315,0.0305846708399407,-3.10594637618646,-0.00169837608523207,0
0.15,0.000591345553224741,0.000334264620341944,-0.0288219348348365,-0.016719758925745,-0.00031298389271211,-0.000602879326759339,0.0156822735367408,0.0293993292929861,-3.10595702765427,-0.00137137714758451,0
0.16,0.000583746388095743,0.000330799832496284,-0.0285282956120089,-0.0165464491475201,-0.000309797364447742,-0.000595158775265583,0.015519795519659,0.029099563174481,-3.10596595996611,-0.00119985090345207,0
0.17,0.000580947745232087,0.000329898047673376,-0.0284465204034404,-0.0165013449443562,-0.000309000514139067,-0.000592327347680945,0.0154778618111176,0.0290161110728493,-3.10597385587688,-0.00108005053335764,0
0.18,0.000579581408029988,0.000329662811827785,-0.0284252007479844,-0.0164895765174397,-0.000308818283423692,-0.000590951305827704,0.01546706608362,0.0289942759532402,-3.10598096123069,-0.000981600552568276,0
0.19,0.000578677485284065,0.000329600970971637,-0.0284209972550788,-0.0164864752685101,-0.000308792459693864,-0.000590043768610726,0.0154643028932536,0.0289898652597438,-3.10598739210234,-0.000895197826667672,0
0.2,0.000577953386796857,0.000329584280818128,-0.028421516452742,-0.0164856424556845,-0.000308804992750341,-0.000589317734269742,0.0154636211707529,0.0289902643129999,-3.10599322318018,-0.000817629464529717,0
0.21,0.000577323661223687,0.000329579387509675,-0.0284232187625561,-0.0164854094791266,-0.000308825630004276,-0.000588686599756133,0.0154634811288912,0.0289918754463216,-3.1059985134667,-0.000747477350734893,0
0.22,0.000576760217033495,0.000329577612695991,-0.0284251234185858,-0.0164853138567171,-0.00030884673069125,-0.000588121966673784,0.0154634569720256,0.0289937012606293,-3.10600331399479,-0.000683883395095371,0
0.23,0.000576251098038982,0.000329576695030014,-0.0284269481245201,-0.0164852725634773,-0.000308866488842206,-0.000587611791890128,0.0154634770933708,0.0289954559776026,-3.10600767035536,-0.00062619168670912,0
0.24,0.00057578970934245,0.000329576042245427,-0.0284286298238682,-0.0164852413014904,-0.000308884572731534,-0.00058714945093671,0.0154635006566021,0.0289970743674971,-3.10601162371695,-0.00057384215344332,0
0.25,0.000575371277903829,0.000329575496482431,-0.0284301660561144,-0.0164852128094582,-0.00030890101738711,-0.000586730156695166,0.015463521570586,0.0289985531361029,-3.10601521138131,-0.000526336600470051,0
0.26,0.000578364218031992,0.00033153440796206,-0.0285837475772159,-0.0165831927339626,-0.000310754065510491,-0.000589789914402758,0.015556067315892,0.029155474211084,-3.10601832258167,-0.000512392167075104,0
0.27,0.000570941057095993,0.000327303020279802,-0.0282657486397664,-0.016371536641549,-0.000306791286465545,-0.000582219944961512,0.0153559500862797,0.0288300980768315,-3.10602160853721,-0.000411712170400064,0
0.28,0.000570065862217128,0.000327027602580444,-0.0281170032133605,-0.0163577672603073,-0.000306548735049401,-0.000581334682566319,0.0153475566412063,0.0286809156860005,-3.10602430410289,-0.000371465680787823,0
0.29,0.000572829419216219,0.000328911619907821,-0.0283798555097643,-0.0164520079216579,-0.000308334617440524,-0.000584162786317122,0.0154324564060057,0.0289469178443254,-3.10602658277653,-0.000365894202897386,0
0.3,0.000564062052465317,0.000324394822422965,-0.0279890641490904,-0.0162260756726897,-0.000304133134605823,-0.000575239981469516,0.0152205979173632,0.0285483211890946,-3.10602780513329,-0.000279667393437141,0
0.31,0.000570877561452009,0.000328226690842312,-0.0283084251083816,-0.0164177422885811,-0.000307721272117631,-0.000582186885318618,0.0154008389667647,0.0288742680096119,-3.10602958063001,-0.000313186758884694,0
0.32,0.000572674387187934,0.000329222917814363,-0.0284004354003002,-0.0164675725010119,-0.000308654054446715,-0.000584017429559155,0.0154474193871957,0.0289679634989897,-3.1060314169559,-0.000305202529308348,0
0.33,0.000573048377303411,0.000329481789658055,-0.0284272873528015,-0.0164805210687439,-0.000308900477420924,-0.000584399852408838,0.0154594552692794,0.0289952320858656,-3.10603314786965,-0.000286959724677082,0
0.34,0.000573027993320088,0.000329548938321588,-0.0284354352766498,-0.016483877302856,-0.000308969237060526,-0.000584381377550286,0.0154625658006409,0.0290034696057041,-3.10603473712905,-0.000267255245887357,0
0.35,0.000572906439928381,0.000329566247175322,-0.0284381812182401,-0.0164847401723561,-0.000308991701985896,-0.000584260069055294,0.0154633724929082,0.0290062221031476,-3.10603618466579,-0.0002484716508474,0
0.36,0.000572766450919343,0.00032957060984891,-0.0284393315504559,-0.0164849678682907,-0.000309001806575146,-0.000584119917232942,0.0154635973009059,0.0290073594656727,-3.10603749981832,-0.000231167310677322,0
0.37,0.000572631159038744,0.000329571618793317,-0.0284400015470257,-0.0164850145688951,-0.000309008321430589,-0.000583984377789982,0.0154636547888212,0.0290080122363404,-3.10603869375148,-0.000215389681907521,0
0.38,0.000572505779764398,0.000329571767234387,-0.0284404885067127,-0.016485029774521,-0.000309013559248591,-0.000583858748176437,0.0154636841092691,0.0290084826720744,-3.1060397773697,-0.000201050315884459,0
0.39,0.000572391500745662,0.000329571702436566,-0.0284409060290018,-0.0164850196431828,-0.000309018130648503,-0.000583744235177798,0.0154636876712143,0.0290088843631355,-3.1060407607879,-0.000188031284652569,0
0.4,0.000572287425448393,0.000329571591742663,-0.0284412646181708,-0.0164850202036082,-0.000309022240195395,-0.000583639945921081,0.0154637013750796,0.0290092289448814,-3.10604165324961,-0.000176214784068777,0
0.41,0.000572193053444142,0.00032957147778578,-0.0284415912450363,-0.0164850070778954,-0.000309025953243276,-0.000583545379213749,0.0154637001433648,0.0290095423746064,-3.10604246316122,-0.000165490818653161,0
0.42,0.000572107313559985,0.000329571370852007,-0.0284418799448636,-0.0164850075558221,-0.000309029322644043,-0.000583459462568102,0.0154637116818882,0.0290098195432681,-3.10604319815603,-0.000155758683203317,0
0.43,0.000572029647154226,0.000329571272888986,-0.0284421461740215,-0.0164849943587835,-0.000309032374280021,-0.000583381635624492,0.0154637083808295,0.0290100748207617,-3.10604386516384,-0.000146926734551459,0
0.44,0.000571958983051469,0.000329571183743354,-0.0284423757496082,-0.0164849933132344,-0.000309035149768561,-0.000583310825936558,0.0154637167367366,0.0290102948538145,-3.10604447047337,-0.000138911734053346,0
0.45,0.000571894838209422,0.000329571102776386,-0.0284425803373406,-0.0164849936924598,-0.000309037668992825,-0.000583246548981908,0.0154637257805105,0.0290104908312784,-3.10604501979108,-0.000131638121913434,0
0.46,0.000571836845992833,0.000329571029278125,-0.0284427740361888,-0.0164849804100427,-0.000309039947315694,-0.000583188436731719,0.015463720084386,0.0290106762269504,-3.1060455182967,-0.000125037321710967,0
0.47,0.000571784051644617,0.000329570962570535,-0.0284429385833003,-0.0164849807375685,-0.000309042020749735,-0.000583135533556071,0.0154637276880773,0.0290108336860627,-3.10604597069037,-0.000119047098677593,0
0.48,0.000571736146737167,0.000329570902029023,-0.0284430852701793,-0.0164849795869678,-0.000309043902133149,-0.000583087529882439,0.0154637332354319,0.0290109738908027,-3.10604638123712,-0.00011361097430382,0
0.49,0.000571692665614655,0.00032957084708486,-0.0284432150942076,-0.0164849798708125,-0.0003090456097155,-0.000583043959132926,0.0154637397140113,0.0290110978815653,-3.10604675380839,-0.000108677694231951,0
0.5,0.00057165320082073,0.000329570797220616,-0.0284433297350346,-0.0164849801358206,-0.000309047159517401,-0.00058300441300512,0.0154637457136187,0.0290112072309796,-3.10604709191631,-0.000104200745118451,0
0.51,4.76154412307196,-0.00648336481124107,1.92339302099331,0.332535096091781,-0.703434353989197,4.70930192062563,0.0473961301998646,1.95135181609586,0.146913375849158,45.6591360802341,4685.87346133508
0.52,4.72385500024059,-0.00782633184852588,3.80840987448468,0.409452299073497,-2.95061481145043,3.68900251412459,-2.05369882680997,3.23325812239733,0.672987109790945,97.9784419488085,4685.87346133508
0.53,4.74307385673289,0.0184955002895981,2.84812734392403,-0.896608571859502,-4.74260552262665,-0.069170446761551,-2.83106948539337,-0.949095288795702,1.58927965260219,152.733058889972,4685.87346133508
0.54,4.75768852483872,0.032280238803073,2.11814339460962,-1.58002252548841,-1.05652280284557,-4.6390086958602,1.08658399729401,-2.4088042340555,2.92444936356815,210.950862227112,4685.87346133508
0.55,4.74733462717335,-4.59332519686662e-05,2.63659697436477,0.0500883930074636,4.74209831122544,-0.22291180126202,2.63133521452934,-0.173860406997515,-1.61777842212427,263.541018156141,4685.87346133508
0.56,4.68041783564158,0.0159861112830655,5.98327663947747,-0.748278897910576,-2.2987252349663,4.07706131497613,-3.60692905585052,4.83214066844461,0.516806495352636,319.979495634065,4685.87346133508
0.57,4.70145778150332,0.0253941354199352,4.93217503008205,-1.20204143164986,-0.419649648051704,-4.68276032979074,0.784108648664732,-5.01561838239881,3.05761681419242,372.872792548029,4685.87346133508
0.58,4.70917664166571,0.0339990222900098,4.54714716023693,-1.62716069892662,1.35346972596018,4.51061196256516,-0.286456473755905,4.82101046728022,-0.284295379316352,428.513875491003,4685.87346133508
0.59,4.68377944331858,0.0648177735362805,5.81802164802604,-3.16390798174936,-0.467553748815787,-4.66083519440328,2.65161351577694,-6.06866009732181,3.05544958318985,483.602355975251,4685.87346133508
0.6,4.66251243636448,0.0628693014563294,6.88237701432845,-3.05943386987446,-2.23093909940121,4.09461664909939,-6.04056440499926,4.49875878888251,0.512361452037314,538.169093843223,4685.87346133508
0.61,4.6893228205825,0.0604529915477989,5.54294972090021,-2.92947308787357,4.6773836896969,-0.339830691933952,5.70769368251834,2.59390381617041,-1.63043199417384,592.581637457191,4685.87346133508
0.62,4.66659834480874,0.0534835874465664,6.68034747191978,-2.57104021914401,-1.12687437569983,-4.52881383447023,0.963272207970466,-7.09291172984641,2.90918221959333,646.83017183162,4685.87346133508
0.63,4.65757577971326,0.048992063387395,7.13269771014028,-2.33210951307806,-4.65711670647358,0.0817089244283573,-7.14890408981357,-2.28194691434232,1.56377156960643,700.68495164873,4685.87346133508
0.64,4.6197728689376,0.0521474885510382,9.02409982673446,-2.47420865977516,-2.62563536085259,3.80145494159468,-7.23179036716842,5.93778529927661,0.61573919066227,754.562457364204,4685.87346133508
0.65,4.64666584581802,0.078420975505795,7.68076438994155,-3.79625810315562,-0.227321146067924,4.64176458134634,-4.29314023873103,7.41449014364153,0.0658091316090705,809.608332826602,4685.87346133508
0.66,4.67629286621549,0.085660885418557,6.20075658613546,-4.13279479093607,0.490375202019808,4.65129927215532,-3.58018584843563,6.5354146245783,-0.0867234813393754,863.05501134182,4685.87346133508
0.67,4.62882673415581,0.109334569409684,8.57546074947534,-5.32537156046036,-0.617718959969332,4.58872686803191,-6.60396636933032,7.63450964473202,0.157428175540104,917.826516681558,4685.87346133508
0.68,4.58175149454891,0.0942376201177006,10.9306410355104,-4.54544163367799,-3.21435268938956,3.26638397544757,-10.9989849853654,4.37747442985844,0.797934863410007,971.475594622424,4685.87346133508
0.69,4.62066763716154,0.0604804240632424,8.98630096080178,-2.8461404679654,-4.4758793488521,-1.14923076417496,-7.93013787046177,-5.09578589394858,1.83521635031412,1025.30209093712,4685.87346133508
0.7,4.62031844434579,0.105009660952269,9.00527410655297,-5.06949485956253,0.479738989650797,-4.59654436048039,6.16691715206792,-8.29239848926804,-3.01487578624524,1079.41295095612,4685.87346133508
0.71,4.59462620502327,0.0918437988808846,10.2914804901064,-4.40459060990366,4.29412976690403,1.63691013567274,7.89046223882626,7.94075530266164,-1.18661688378162,1133.34161715123,4685.87346133508
0.72,4.60439107414805,0.118101014425404,9.80487366604446,-5.7057994947581,-3.90229580213065,2.44672280530019,-11.3439290839234,0.0834770650524064,1.03640719292367,1187.10391046181,4685.87346133508
0.73,4.56094263744333,0.103279993243385,11.9789725543817,-4.95215102133967,2.14528275316857,-4.02624221924245,10.1874981691915,-8.01464061886157,-2.62939055414547,1240.83699539694,4685.87346133508
0.74,4.57691798019928,0.118511591888971,11.1819493757677,-5.73433560554357,-1.59686122870509,4.29095064189068,-9.49065241067252,8.23687522662765,0.382153949304157,1294.9492913054,4685.87346133508
0.75,4.59785112984801,0.122228557109491,10.1370593684582,-5.90013492409389,2.66996704909817,-3.74519035419399,10.8133315719432,-4.54350361256323,-2.49568006192981,1348.57209463075,4685.87346133508
0.76,4.54425276863509,0.117793832181306,12.8188064718611,-5.65218582587129,-4.35062868063963,1.31762615917549,-13.8582564939468,-2.05371149901611,1.30263454581096,1401.90310090797,4685.87346133508
0.77,4.61234278677953,0.0977043782638682,9.416214677201,-4.65677998284326,3.34293929463015,3.17930951634262,3.40423803989235,9.93790028242863,-0.78930076520378,1455.69099868965,4685.87346133508
0.78,4.53738434389775,0.111209026682967,13.1660611927049,-5.34106528489211,2.66541469924081,-3.67366147228282,12.2355679733543,-7.22239725277949,-2.48942130382205,1509.21664522238,4685.87346133508
0.79,4.59495390097631,0.144092642413942,10.2895378374233,-6.93992356437008,-2.91571727985128,-3.55428709949996,-0.77258937909805,-12.3870994844786,2.48592146124483,1562.35948722824,4685.87346133508
0.8,4.53896868422454,0.140442496010521,13.0908571009288,-6.76031843439344,4.53064261272559,-0.308607075116115,13.3324665155572,6.27038926884789,-1.60787516215896,1615.77289465597,4685.87346133508
0.81,4.57951434938497,0.167020903411972,11.0656346561732,-8.08449164168404,3.78478685242394,-2.58364783593243,13.6721956225082,0.937199182793071,-2.13332103493408,1669.18542665148,4685.87346133508
0.82,4.5160672708917,0.16071098056172,14.2401170047241,-7.76326365449786,3.35905104734334,-3.02282445336046,15.9017022046464,-3.19140437303443,-2.26798706982939,1722.42836008609,4685.87346133508
0.83,4.54217294926795,0.191696468944456,12.9369993337933,-9.29561328572414,4.02429525288674,-2.11497762514419,15.6690507739728,2.87319090263125,-2.01249753214382,1775.56257495482,4685.87346133508
0.84,4.54766812634527,0.18198550332484,12.6644231052903,-8.79530296924624,4.49047390372123,0.741652365192548,10.6235727728421,11.1751809135588,-1.36711673568746,1828.79721319665,4685.87346133508
0.85,4.50232174047943,0.128906949932429,14.934019534627,-6.1771101738052,1.58913181936775,4.21451991538865,-0.973037695985899,16.1317955355918,-0.331953102418478,1882.1701356918,4685.87346133508
0.86,4.4938512202925,0.160846697961812,15.3598216415402,-7.73755033243919,-3.91513513315175,2.21185156362953,-17.1974545981015,0.203374907978471,1.09232581213116,1934.99321458885,4685.87346133508
0.87,4.49258383266804,0.197194843431969,15.4254919680066,-9.58232272409448,-1.2423904481671,-4.32188168210671,5.7090899505613,-17.238706540229,2.90554026118033,1988.26918242489,4685.87346133508
0.88,4.50749934497592,0.198950633772859,14.6820923254818,-9.62061244354864,4.23673005149612,1.55153155636185,9.84723664012094,14.5310684189565,-1.175645353962,2040.98051859411,4685.87346133508
0.89,4.52781289564624,0.179578638353978,13.6688430889627,-8.67082968225777,-4.44450196417735,0.883029102440662,-14.8531471499337,-6.43463895737921,1.41431175955427,2094.1180711671,4685.87346133508
0.9,4.4703867553502,0.177692674649603,16.5425996875017,-8.58759346769238,4.18711414144063,-1.57607347404317,18.4050122049378,2.94276939690761,-1.89107505009532,2147.05210978351,4685.87346133508
0.91,4.47259705569629,0.180896045733522,16.4345552491405,-8.73423879395498,-4.43433666402185,0.611151496845715,-17.1998979400291,-7.10950380824588,1.47426001604613,2199.8099120991,4685.87346133508
0.92,4.47589680990774,0.207001398391968,16.2721117958612,-10.0125815793235,-4.06854060120048,-1.87709328704296,-9.83455384724774,-16.3803224267778,2.04927842943007,2252.54136154933,4685.87346133508
0.93,4.46235111257548,0.202581888480089,16.9519821659865,-9.81286766836285,0.623340267236018,4.42324132109994,-8.16710096969395,17.8033854360217,-0.0946350659615559,2305.33713550933,4685.87346133508
0.94,4.48283179349734,0.231749590633598,15.930559958283,-11.2624219329894,4.24216016869738,-1.46750327586238,18.4315309460793,6.39558874262955,-1.85219225614401,2358.10354760969,4685.87346133508
0.95,4.48639645942266,0.210428436561851,15.7549333591383,-10.1670935196686,-0.576037677982159,-4.45423550248289,8.84676493293902,-16.5324670273343,3.05985220121945,2410.7038609042,4685.87346133508
0.96,4.453698428042,0.223240917017861,17.3925359756648,-10.7720790104709,-4.00827466916286,-1.95422628462574,-10.0327319514105,-17.8292535868378,2.07451572508153,2463.13644554764,4685.87346133508
0.97,4.4317367614696,0.201957498482116,18.4933725262864,-9.75569354480454,-4.39180227954911,0.627016978638871,-19.3454899123666,-7.93286858498662,1.47452404254278,2515.9228629348,4685.87346133508
0.98,4.45054924920161,0.251897646243541,17.5555246324462,-12.1926330374018,-4.15949568587971,1.60294625078326,-20.4462517895036,-6.22956926804636,1.25950390005543,2568.17915814293,4685.87346133508
