t,iq,id,vq,vd,ia,ib,va,vb,theta_e,omega,r
0,0,0,0,0,0,0,0,0,0,0,0
0.01,0.000572799234859484,0.000323820813383324,-0.0280970840743069,-0.0162048876680228,0.000656037171632318,-5.07357080616453e-05,-0.0323159437846914,0.00277926161355408,-1.13344238518727,-0.00234835294388875,0
0.02,0.000656303460806423,0.000370011085204282,-0.0322552929867202,-0.0185163764163072,0.000751244192080006,-5.72241182247242e-05,-0.0370617248153506,0.00311266364401419,-1.13346033115476,-0.00255087336235478,0
0.03,0.000688184101867818,0.000388077372239137,-0.033834545259716,-0.0194204695551698,0.000787774799623325,-6.01021629068362e-05,-0.0388751915417616,0.00326352160501428,-1.1334786535882,-0.00252888877261202,0
0.04,0.000672080890269723,0.000379487919880862,-0.0330715155553114,-0.0189906360685625,0.000769548314621376,-5.91540012564394e-05,-0.038001876361178,0.0031979356534386,-1.13349561991873,-0.00231299724998828,0
0.05,0.000688110376685983,0.000388974155593819,-0.0338749227238785,-0.0194653527242336,0.000788085782244518,-6.09719939553924e-05,-0.0389306682568545,0.00328837578483766,-1.13351192368176,-0.00224055379683156,0
0.06,0.00068895872836509,0.000389875282867138,-0.0339367403702189,-0.0195104381713862,0.00078923496784992,-6.14412817583473e-05,-0.0390057108834589,0.00330364390804245,-1.13352739799447,-0.00211022817517839,0
0.07,0.000703404130818182,0.000398618672572928,-0.0346602117373158,-0.0199479927207689,0.000806022855425562,-6.32564139633986e-05,-0.0398463532307717,0.00339423415102475,-1.13354172110431,-0.00204814273874272,0
0.08,0.000689095538390062,0.000390789041605983,-0.0339804922828777,-0.0195561643096477,0.000789744102798491,-6.22333364316819e-05,-0.0390646162096615,0.00332763860485182,-1.13355551414978,-0.00186741253728082,0
0.09,0.000686999542695688,0.000390040323301342,-0.033895103270599,-0.019518706372638,0.000787527455767057,-6.24526370793517e-05,-0.0389713565562707,0.00333035919231682,-1.13356827641002,-0.00174794678881384,0
0.1,0.000686185189987502,0.000389966642917306,-0.0338711406890721,-0.0195150197359312,0.000786757762595556,-6.27401031399578e-05,-0.038948047280856,0.00333763087846816,-1.13358021649242,-0.00164109141011417,0
0.11,0.000685539176616656,0.000389957446012143,-0.0338543891115087,-0.0195145515837158,0.000786167918295873,-6.30140985723844e-05,-0.0389326358274197,0.00334473513995608,-1.13359140090191,-0.00154149883181073,0
0.12,0.000684945771754603,0.000389954531475246,-0.0338392684181313,-0.0195144068811506,0.000785628432943339,-6.32709428851881e-05,-0.0389188410245839,0.00335141407477498,-1.13360187884181,-0.00144824789560767,0
0.13,0.000715111303513013,0.000407361599559874,-0.0353241406954289,-0.0203855033385436,0.000820326152726989,-6.62770877467899e-05,-0.0406328366159687,0.00351229992686003,-1.13361212072452,-0.0014888660999698,0
0.14,0.000737003540463486,0.000420371703577339,-0.0364690977915296,-0.0210365742558755,0.000845667051990406,-6.88027979233659e-05,-0.041945729524537,0.00361777898792844,-1.13362181497278,-0.00149876851620993,0
0.15,0.000688705181901579,0.000392847644853269,-0.0340610497288089,-0.0196591793586786,0.000790257314422299,-6.43232201223085e-05,-0.0391809601621039,0.00338980861712184,-1.13363100019227,-0.00121225502783158,0
0.16,0.000683395309170712,0.000390222761276213,-0.0338126476594587,-0.0195278302108975,0.000784334985157632,-6.41995566366509e-05,-0.0389002821185446,0.00337629169148282,-1.13363904120737,-0.00111988715670641,0
0.17,0.00068247945236913,0.00038997112689478,-0.0337778248075035,-0.0195152384261247,0.000783398242045507,-6.43651852919089e-05,-0.0388633778505258,0.0033799173957589,-1.13364651709679,-0.0010512433439645,0
0.18,0.000682033986738778,0.000389945779614015,-0.0337653138057956,-0.019513964141593,0.000782983484511213,-6.45362927991149e-05,-0.0388514801961487,0.00338433146891634,-1.13365351505303,-0.000988752563754858,0
0.19,0.00068165841850535,0.000389942085662031,-0.0337556261764412,-0.0195137870706794,0.000782641244907045,-6.46970745862621e-05,-0.0388426063675347,0.00338852696318136,-1.13366007049223,-0.000930392876491947,0
0.2,0.000681310964715132,0.000389940535910619,-0.0337467620631365,-0.0195137118199138,0.000782325408662114,-6.48475685664559e-05,-0.0388345230760755,0.00339244988030118,-1.13366621189133,-0.000875737413111141,0
0.21,0.000680985862676913,0.000389939265892799,-0.0337384747559584,-0.019513645279091,0.000782029964306898,-6.49885465061782e-05,-0.0388269673130163,0.00339612134803759,-1.13367196545121,-0.000824535381665747,0
0.22,0.000680681366152615,0.000389938093178672,-0.0337307116596808,-0.0195135816288497,0.000781753251292721,-6.51206022121155e-05,-0.0388198888899472,0.00339955932827467,-1.13367735566989,-0.000776566981876673,0
0.23,0.000680396008455625,0.000389936995947759,-0.0337234313517599,-0.0195135327246692,0.000781493930384332,-6.52443553386736e-05,-0.0388132552269433,0.00340279300307161,-1.13368240549286,-0.000731627833949829,0
0.24,0.000680128695132047,0.000389935967964051,-0.0337166091498259,-0.0195134837870975,0.000781251006232544,-6.53602808647594e-05,-0.038807037638805,0.00340582027884853,-1.13368713641633,-0.000689526621264118,0
0.25,0.000679878262031101,0.000389935004736714,-0.0337102148345184,-0.0195134362722375,0.000781023421137714,-6.54688837219065e-05,-0.0388012093007612,0.0034086560604709,-1.13369156857936,-0.000650084124838111,0
0.26,0.000686108575978578,0.000393611318894351,-0.0340194557272147,-0.0196974054265913,0.000788223948926955,-6.61653589962277e-05,-0.0391592391618815,0.00344458078407225,-1.13369564050547,-0.000641534842268771,0
0.27,0.00066836499708424,0.000383508236057922,-0.0331593912318645,-0.0191918147171195,0.000767871523929636,-6.45264224147996e-05,-0.0381659978177016,0.00335075955318937,-1.13369976623137,-0.000529773180828825,0
0.28,0.000667750783813653,0.000383246523092063,-0.0330728522010272,-0.0191787249306724,0.000767204035026137,-6.45521137184262e-05,-0.0380820414436359,0.00337567210531259,-1.13370341076872,-0.00049559007211377,0
0.29,0.000677860027996484,0.000389294480083821,-0.0336315911418267,-0.0194813854452507,0.000778922800012821,-6.57547062902253e-05,-0.0387163584472063,0.00341348651452781,-1.13370667990124,-0.000510615545134779,0
0.3,0.00067135841142597,0.000385845287248255,-0.0333177000250827,-0.019308771976121,0.000771572197037844,-6.53838438934677e-05,-0.0383589006236832,0.00339006683261982,-1.13370914163318,-0.000461439557141886,0
0.31,0.000677953693070655,0.000389541111261521,-0.033643262689561,-0.0194937220819187,0.000779111702394363,-6.59427213811968e-05,-0.0387321363575219,0.00341993248299176,-1.13371209527857,-0.000464135596634382,0
0.32,0.00067848000335653,0.000389892805268778,-0.0336726573495813,-0.0195113199420773,0.000779737218046213,-6.60407854934122e-05,-0.0387662070392182,0.00342354358185882,-1.13371494224246,-0.000441745160357202,0
0.33,0.000678398771500219,0.000389925802514419,-0.0336721907457482,-0.0195129686500809,0.000779677413501743,-6.6107151767053e-05,-0.0387664730299321,0.00342533852000554,-1.13371761753271,-0.000418236631428406,0
0.34,0.00067826427685807,0.000389928457467819,-0.0336689035871001,-0.0195130956132181,0.000779556520353745,-6.61684424706702e-05,-0.0387635400411967,0.00342694217088233,-1.1337201247014,-0.000395955364163121,0
0.35,0.000678132156979806,0.000389928251372263,-0.0336655225553267,-0.0195130946935487,0.000779436577852036,-6.62260119184451e-05,-0.0387604684071728,0.0034284635478842,-1.13372247362463,-0.000375055022870425,0
0.36,0.000678008023010499,0.000389927801543697,-0.0336623350260896,-0.019513064482788,0.000779323776940771,-6.62798640469193e-05,-0.0387575601887487,0.00342987071675689,-1.13372467422031,-0.000355471893116547,0
0.37,0.00067789144455006,0.000389927355617105,-0.033659331773759,-0.0195130489540704,0.000779217831926647,-6.63304127851644e-05,-0.0387548256099971,0.00343120778715704,-1.13372673584784,-0.000337125179535806,0
0.38,0.000677782316667256,0.000389926935485621,-0.033656519755004,-0.0195130319400151,0.000779118656467684,-6.63777293075814e-05,-0.038752264101071,0.00343245750911285,-1.13372866728251,-0.000319937044327513,0
0.39,0.000677679999083374,0.000389926541633977,-0.0336538783611483,-0.0195130163535635,0.000779025670168655,-6.64220915550933e-05,-0.0387498581962945,0.00343363156562702,-1.13373047674585,-0.000303834347241632,0
0.4,0.000677584386863552,0.000389926172607354,-0.0336514130888044,-0.0195129845857795,0.000778938776862784,-6.64635486938918e-05,-0.0387476053964123,0.00343471197659257,-1.13373217194026,-0.000288748544727415,0
0.41,0.000677494700338749,0.00038992582686038,-0.0336490950137807,-0.0195129674945053,0.00077885726906525,-6.65024350235652e-05,-0.0387454925336749,0.00343573922337015,-1.13373376008227,-0.00027461541955001,0
0.42,0.000677410601752047,0.000389925502927236,-0.0336469166459947,-0.0195129518353685,0.000778780839722503,-6.65388974979386e-05,-0.0387435071933415,0.00343670474021611,-1.13373524793215,-0.000261374809599222,0
0.43,0.000677331858269977,0.000389925199433344,-0.0336448751713396,-0.0195129361537907,0.000778709276905363,-6.65730384023389e-05,-0.0387416461889174,0.00343760864696346,-1.13373664182335,-0.000248970352015381,0
0.44,0.000677257934538108,0.000389924915090028,-0.0336429520565696,-0.0195129351430904,0.000778642094660714,-6.66050878324326e-05,-0.0387398989286967,0.00343847233134977,-1.13373794768919,-0.000237349243282446,0
0.45,0.000677188853527545,0.000389924648689582,-0.0336411562736243,-0.0195129194191977,0.000778579312935158,-6.66350393341352e-05,-0.0387382610849754,0.0034392655900349,-1.13373917108891,-0.000226462014457096,0
0.46,0.000677124138091382,0.000389924399100658,-0.0336394711507526,-0.0195129036768513,0.000778520498621633,-6.66630979322919e-05,-0.0387367237555486,0.0034400089957308,-1.13374031723019,-0.00021626232059071,0
0.47,0.000677063497191314,0.000389924165263212,-0.0336378889333928,-0.0195128879172365,0.000778465387277553,-6.6689389680478e-05,-0.0387352798988152,0.00344070602149451,-1.13374139099192,-0.000206706743443502,0
0.48,0.000677006511888655,0.000389923946183568,-0.0336363950158303,-0.01951288682712,0.000778413598629078,-6.67140945853149e-05,-0.0387339224830215,0.00344137633342372,-1.13374239694484,-0.000197754606663147,0
0.49,0.000676953379776648,0.000389923740931072,-0.0336350052993932,-0.0195128710340678,0.000778365311026235,-6.67371315216753e-05,-0.0387326534677797,0.00344198675582372,-1.13374333937106,-0.00018936780263237,0
0.5,0.000676903565501148,0.000389923548633329,-0.0336336985821566,-0.0195128552267418,0.000778320038808245,-6.67587294404789e-05,-0.0387314598478193,0.00344255972670188,-1.13374422228257,-0.000181510630256474,0
0.51,4.70732257886456,0.011959738489678,4.63478662985768,-0.589165181343925,-0.622635149119694,4.66597839342549,-1.2084976626663,4.51308055706362,0.135198468075505,41.8796330638847,4606.25983042499
0.52,4.68603367741975,-0.0125009903999256,5.7002283588417,0.646338800571714,-2.72174696845713,3.81459845073731,-2.77126986745278,5.02298920064695,0.617066696833041,89.7733390612605,4606.25983042499
0.53,4.66542701741817,0.0143248147374633,6.73163029914688,-0.68407122533863,-4.63441307531139,0.537242871107179,-6.76588452514264,0.0748766863847969,1.45845719054891,140.67704262301,4606.25983042499
0.54,4.65256883708494,0.0595152261556522,7.37565250026452,-2.93860809005652,-2.10313306937572,-4.15051444262715,-0.611302054332406,-7.91593185354528,2.68537770928482,192.842607807624,4606.25983042499
0.55,4.66002976545344,-0.0173427690012994,7.00383637652288,0.923806064958624,4.22637360842033,-1.96314653263499,5.94871260636175,-3.81050652297988,-2.00936361610166,240.846948582119,4606.25983042499
0.56,4.66131235513836,0.028728630057101,6.94098358745128,-1.37604298621459,0.270317933578333,4.65355631975551,-1.01439399548093,7.00298167091066,-0.0518601311217459,292.252370135081,4606.25983042499
0.57,4.63090116665096,0.00099106770664692,8.46287446576781,0.0185705197461572,-3.54870541923413,-2.97522040276057,-6.49595465872844,-5.42431213697117,2.26872898433773,342.329773569692,4606.25983042499
0.58,4.68318808514133,0.0572890065103406,5.84987466425456,-2.77640889107092,4.55742667424601,1.07953452003518,5.00248984747469,4.11151738945826,-1.32597717102572,391.407459524449,4606.25983042499
0.59,4.63061184800193,0.0246592760734072,8.48016036818291,-1.1329672226115,-4.57717424075204,-0.701890402091619,-8.19752659216684,-2.44893698741507,1.72828204768198,441.039257263983,4606.25983042499
0.6,4.64944698264821,0.0694965923336515,7.53991472935313,-3.36542386508742,4.24683176758911,1.89383393110338,5.42311641858728,6.22625089665244,-1.13637730816021,490.953154822025,4606.25983042499
0.61,4.61635591415667,0.0304523278590918,9.19601140894316,-1.41756324289145,-2.21808798065096,-4.04867323706582,-3.11746788084237,-8.76684124373916,2.646993887835,541.225439816175,4606.25983042499
0.62,4.64189785892256,0.0895393859774436,7.92052139805301,-4.3603158216339,-2.19559863286719,4.09079205993935,-7.6810172320447,4.76958987360956,0.511875154594379,590.872652311313,4606.25983042499
0.63,4.64291886038628,0.0643908685638752,7.87110459300606,-3.07841250316888,4.44065257966196,1.35699904009789,6.55446879956416,5.33571455470094,-1.26035540121561,639.84574338223,4606.25983042499
0.64,4.61008136991452,0.0652654167982203,9.51469580172733,-3.13062119651272,2.03986435042655,-4.13473859436382,7.11765231116759,-7.04764150995161,-2.66912475926642,690.071715577799,4606.25983042499
0.65,4.5836895730404,0.0443714478386221,10.8360309977191,-2.05507894662974,-2.52393847541622,-3.82647533635018,-4.1521989084502,-10.2177375913201,2.56817916336083,738.916027835545,4606.25983042499
0.66,4.61288832456632,0.0672903464238992,9.37796325778736,-3.19980725912659,-4.4078095542129,-1.36179353039717,-7.92973401355136,-5.94174047180585,1.88503036026544,788.507570470836,4606.25983042499
0.67,4.59032805956933,0.0617914140820774,10.5078326806901,-2.92407613334058,-4.58974301112999,0.0958590898516866,-10.5292457290583,-2.84600654532937,1.56337426674402,838.137641138811,4606.25983042499
0.68,4.59177848404467,0.122529335976586,10.4372677258535,-5.95711418652717,-4.59333691969853,-0.0264391158099012,-10.2385987075286,-6.29244495555267,1.60323040863687,887.458341365163,4606.25983042499
0.69,4.57063558629708,0.0971145934169266,11.496404821737,-4.67446303726225,-4.18847731559344,-1.83215683928503,-8.46863920291241,-9.07193907402843,2.00439055709957,936.63374017533,4606.25983042499
0.7,4.53450574955881,0.100667617289098,13.3049354761323,-4.83532870277656,-1.75653488706841,-4.18168166560585,-0.38068298590929,-14.1512116849469,2.76611490022936,985.618677300806,4606.25983042499
0.71,4.50044335992485,0.10764943416008,15.010145511115,-5.16327874722779,2.97661148654877,-3.37718268601398,13.9820933674323,-7.51431838231687,-2.39524039313931,1034.53858230484,4606.25983042499
0.72,4.56522456045339,0.131770839035503,11.7732178775867,-6.38910390338972,3.69405466492541,2.68562822705038,5.41434082238595,12.2521108932495,-0.9133134694928,1084.05196833645,4606.25983042499
0.73,4.57444077415604,0.112614791601689,11.3145698397562,-5.39350326048711,-3.59500013226953,2.83092997732739,-12.2903850916047,2.46085399397572,0.928360009617052,1132.74226171082,4606.25983042499
0.74,4.53812100251482,0.123573515242555,13.1327751979553,-5.96006227125516,-0.17954833720528,-4.53625121016708,5.79759712951077,-13.2053017459336,3.12925590770289,1182.07939536213,4606.25983042499
0.75,4.50711085334308,0.143371456075607,14.6855509730892,-6.91315953063218,2.64230368484677,3.65415309692758,2.49438534466316,16.0385542936856,-0.594259750152658,1230.76232417123,4606.25983042499
0.76,4.55041168902784,0.150417223722414,12.5228268320531,-7.25044420078612,-3.42226379590755,-3.00282906474112,-4.17557293291428,-13.8547725948936,2.32404996760191,1279.51615688974,4606.25983042499
0.77,4.49096455679565,0.177160276917149,15.4975487212513,-8.5857425506977,2.97077896973306,3.3726281631843,3.11591527384858,17.4407586853501,-0.682705878660798,1328.36829179749,4606.25983042499
0.78,4.44588786956448,0.167150960074143,17.7538265247036,-8.07604304325175,3.50038311975765,-2.74612024629476,19.1127256083919,-3.88902909786527,-2.1984476003781,1377.10879032783,4606.25983042499
0.79,4.49582466073181,0.166922495278117,15.2594078894388,-8.04828668075466,-4.42216381704969,-0.827508111531646,-13.1117345156211,-11.2119073142687,1.79289561834972,1425.92747470093,4606.25983042499
0.8,4.4791989430762,0.119263094809757,16.0932089487811,-5.70002532655336,0.75046908740816,4.41749284167879,-3.3707911350123,16.7367688075267,-0.14165941675495,1474.86196915965,4606.25983042499
0.81,4.51072819735425,0.151719783844338,14.5193099321509,-7.28826070144845,4.43839999848466,-0.818714368182144,15.4393044754015,5.05539140660549,-1.71958481676959,1523.31819514986,4606.25983042499
0.82,4.46336200698393,0.18208209375773,16.8902452516964,-8.80324242273969,0.708524220675626,-4.41052692123864,11.9841552313686,-14.8039685627347,-2.94153741051098,1571.87792319672,4606.25983042499
0.83,4.45472354232695,0.148380900943536,17.3247904686604,-7.10136279869542,-2.86841060693879,-3.41156845458622,-5.11711949448938,-18.0109079854625,2.47576653464344,1620.38091657588,4606.25983042499
0.84,4.41020833979387,0.156636554326248,19.5532530657315,-7.53773325026272,-4.13145943179766,-1.55097246073189,-15.1523901019912,-14.4759180089462,1.96542432056957,1669.04075301363,4606.25983042499
0.85,4.40954107070677,0.189178521467712,19.5893001457883,-9.1637497024913,-4.32848407582242,-0.862592935622726,-16.8552526067532,-13.5504777913633,1.81037808526722,1717.47812618348,4606.25983042499
0.86,4.3678775566153,0.185759456892455,21.6752605244914,-8.95422898309747,-4.03164168862012,-1.69077680963186,-15.8036831918233,-17.3273983349723,2.01039733862333,1765.76404883923,4606.25983042499
0.87,4.39903691492616,0.198431084711411,20.1200638585012,-9.58963113051026,-2.56428762333052,-3.57985050792582,-2.92786257399094,-22.0953754355349,2.56508042991999,1814.17906843238,4606.25983042499
0.88,4.38939250450481,0.18169313076956,20.6051582661442,-8.76766736648713,1.2613281633921,-4.20818609576689,15.014472017023,-16.6135537520498,-2.80901165330588,1862.56419668418,4606.25983042499
0.89,4.41198433363495,0.16733291614186,19.4784476414817,-8.02372721234252,4.41478162418932,-0.0575263051579359,19.2728172452065,8.50580015829796,-1.54591723800014,1910.8122064024,4606.25983042499
0.9,4.39721686310377,0.237150843363356,20.2197369287792,-11.4729636236254,-4.01992788955212,1.79775872309751,-22.9887563460174,-3.46175352119598,1.20414341764893,1958.86332414883,4606.25983042499
0.91,4.3718293747412,0.175177115778106,21.4920853885176,-8.41944266087179,-0.0321162481236606,-4.37521972595078,9.11777177610255,-21.2052584729814,-3.10888491136796,2007.26040786454,4606.25983042499
0.92,4.43755923463719,0.220805307014139,18.2085717909645,-10.6319070144482,3.29453113248836,2.9810655077647,5.36140970455674,20.3922735223532,-0.785589341901729,2055.21380864438,4606.25983042499
0.93,4.37576694230614,0.191795900478736,21.3012686784665,-9.21590260582882,-4.2143470732531,-1.19306359720793,-17.3258406197278,-15.4431912172365,1.89047671404108,2103.43738263328,4606.25983042499
0.94,4.35391448470763,0.244150729336376,22.3970243490212,-11.8503052707423,4.31173247886848,0.652030635363909,19.4978860821963,16.1829809684782,-1.36469359437234,2151.49104627019,4606.25983042499
0.95,4.30472785366053,0.23099966245272,24.8594620844038,-11.190134040943,-3.98561873154353,-1.64282867789169,-17.6302628287849,-20.7938882263069,2.01537663412436,2199.47302419413,4606.25983042499
0.96,4.30467872449206,0.260317119486259,24.8650939013535,-12.6498157189877,2.42243241249843,3.5678908518436,1.82455069795857,27.8381347650674,-0.536061277461398,2247.42598049647,4606.25983042499
0.97,4.31192344742892,0.239248390459084,24.5060716449518,-11.5881115342836,1.48190074034502,-4.05633995180254,20.3189722042327,-17.9435571992324,-2.73589857437699,2295.39046543892,4606.25983042499
