t,iq,id,vq,vd,ia,ib,va,vb,theta_e,omega,r
0,0,0,0,0,0,0,0,0,0,0,0
0.01,0.000582000052872467,0.000326706746206194,-0.0287348256417976,-0.0163526537580795,4.02789135306878e-05,0.000666212405081878,-0.0021887408054589,-0.0329895271757972,0.451130707657754,-0.00149354740022105,0
0.02,0.000651421366314895,0.000365436383979609,-0.0322212698404453,-0.0182911970320551,4.48755215776964e-05,0.000745573426827155,-0.00241371819794847,-0.0369723150946373,0.451119671402113,-0.00154330936964672,0
0.03,0.000678067143859427,0.000380907801529228,-0.0335567544902447,-0.0190655771936583,4.71907256623671e-05,0.000776298164534072,-0.00252881017049554,-0.0385117790392433,0.451108842353389,-0.00147817000092622,0
0.04,0.000661204951369858,0.000372433144117896,-0.0327512933273053,-0.0186414010700666,4.69224222885547e-05,0.000757427700074491,-0.00249858013646568,-0.0376019433775428,0.451099229456243,-0.00130900916411177,0
0.05,0.00067586112372774,0.000381318005915601,-0.0334932454664261,-0.0190861142093882,4.85360741998034e-05,0.000774490755079262,-0.00257569724177785,-0.0384635285849697,0.451090204937844,-0.0012339789087765,0
0.06,0.000675550699482368,0.000381842375033847,-0.0334979620892199,-0.019112366673729,4.91497439760405e-05,0.000774439571309276,-0.00259758670107963,-0.0384791965525822,0.451081910479807,-0.00112714801208834,0
0.07,0.000691336892276083,0.000391513713255146,-0.0342915507685822,-0.0195964423191517,5.09777765007215e-05,0.000792862505477354,-0.00268757900181887,-0.0394044150418589,0.451074487842624,-0.00107569008573329,0
0.08,0.000674365051226632,0.000382443005014306,-0.0334742854194789,-0.0191424323158509,5.02182929627713e-05,0.000773633632575637,-0.0026355198987935,-0.0384709570218202,0.451067529592341,-0.000940146067233693,0
0.09,0.000672311218349383,0.000381904342713329,-0.0333883128244824,-0.0191154663469298,5.06336205297454e-05,0.000771550087663647,-0.00264896721623428,-0.0383818115728455,0.451061316364995,-0.000855115886624564,0
0.1,0.000671317992612656,0.000381871160014126,-0.033353059654311,-0.0191138104969238,5.10410650380093e-05,0.000770641446936126,-0.00266306056900698,-0.0383493474315032,0.451055684001559,-0.000780422256570921,0
0.11,0.000670473488292348,0.000381868034064696,-0.0333238593257268,-0.0191136533377016,5.14103197301063e-05,0.000769879778256705,-0.00267584389872519,-0.0383229853182697,0.451050572601776,-0.000712793317140388,0
0.12,0.000669710823994325,0.000381866794995872,-0.0332975421923179,-0.0191135849603254,5.17452268261871e-05,0.000769192608126394,-0.00268743196489371,-0.0382992578977561,0.451045933614051,-0.000651425033975494,0
0.13,0.000700769752137647,0.000399717368182317,-0.0348346390020244,-0.0200070677267484,5.42754143070917e-05,0.000804926331622622,-0.0028217081942849,-0.0400720949825482,0.451041426595808,-0.000679190121271311,0
0.14,0.000727571436959016,0.000415728388186329,-0.0362128013928564,-0.0208084542185179,5.70057300831359e-05,0.000836026695363431,-0.00294237696497604,-0.0416617470766481,0.451037316839525,-0.00070033146523679,0
0.15,0.000671537826302902,0.000383869509396134,-0.0334171796888899,-0.0192138201737343,5.27608286777227e-05,0.000771709237573903,-0.0027259692562121,-0.038450590055841,0.451033521082353,-0.000497851053027297,0
0.16,0.000667415268841697,0.00038198181585218,-0.0332220152806895,-0.0191193408388845,5.28612851039096e-05,0.000767175946743592,-0.002726127570024,-0.0382337510832479,0.451030433048613,-0.000447066721365238,0
0.17,0.000666722550352357,0.000381869375468995,-0.0331946532206375,-0.0191137156942369,5.30641705715772e-05,0.000766503341721993,-0.00273309807341741,-0.0382066657142387,0.451027653689492,-0.000409651502823245,0
0.18,0.000666292876467302,0.000381862141398878,-0.0331795948606777,-0.0191133531211227,5.32468820962365e-05,0.00076611334788779,-0.00273943183968627,-0.0381929482476432,0.45102513271134,-0.000376260111055872,0
0.19,0.000665915822560633,0.000381861191605461,-0.0331665604633759,-0.0191133018652984,5.34121327093836e-05,0.000765773462892507,-0.00274515460636778,-0.0381811886581852,0.451022844815358,-0.000345991599132473,0
0.2,0.000665574325880343,0.000381860662082668,-0.0331547636542359,-0.0191132838969172,5.35620993201959e-05,0.000765465773260764,-0.00275035976173009,-0.0381705579664937,0.451020768367881,-0.000318522841353404,0
0.21,0.000665264676461062,0.000381860201086996,-0.0331440695537813,-0.0191132529248326,5.36980978215927e-05,0.000765186785831659,-0.00275506519495118,-0.0381609145556823,0.451018883821255,-0.000293592839156199,0
0.22,0.000664983482918187,0.000381859783770522,-0.0331343538896845,-0.0191132363168198,5.38215979805452e-05,0.000764933436715962,-0.00275935039289679,-0.0381521584657889,0.451017173439995,-0.000270966819777148,0
0.23,0.000664728308200861,0.000381859405014865,-0.0331255358801045,-0.0191132211187645,5.39336700241866e-05,0.000764703529584902,-0.00276323953106252,-0.0381442113062107,0.451015621128335,-0.000250431844924786,0
0.24,0.000664496765793701,0.000381859061204851,-0.033117533478634,-0.0191132058789096,5.40353623161564e-05,0.000764494914302182,-0.0027667676297942,-0.0381369985651827,0.451014212277603,-0.000231794664524005,0
0.25,0.000664286585596591,0.000381858749117586,-0.0331102669987603,-0.0191131891457186,5.412767175418e-05,0.000764305545728733,-0.00276996862799507,-0.0381304478579669,0.451012933629708,-0.000214879888806903,0
0.26,0.000670930710873749,0.000385694100668987,-0.0334394428448432,-0.0193051583051746,5.46843506343564e-05,0.000771956980589017,-0.00279930478972764,-0.038510379998847,0.451011815225122,-0.000218848386966454,0
0.27,0.000650467387084699,0.000374087487612905,-0.032436716321287,-0.0187242115049941,5.31586987049941e-05,0.000748480743106543,-0.00271355840566485,-0.0373546953269659,0.451010618348886,-0.000147321868572584,0
0.28,0.000649265718524154,0.000373381577234016,-0.0323315706488232,-0.0186888737480256,5.30478682529183e-05,0.000747091493153461,-0.00272762028339164,-0.0372446580086207,0.45100965969397,-0.000131770824876936,0
0.29,0.000662678081643959,0.000381355707672093,-0.0330408780289066,-0.0190879976870261,5.4379121892105e-05,0.000762638398435093,-0.00277769494201943,-0.0380570057601761,0.451008895078374,-0.000158858830736975,0
0.3,0.000657758480042782,0.000378796818043372,-0.0327998822714593,-0.0189599210398031,5.4220665596204e-05,0.000757095348585817,-0.00276748061924353,-0.0377842815715645,0.451008579317984,-0.000141305206046126,0
0.31,0.000663073210655515,0.000381676214776309,-0.0330627712841891,-0.0191040523454652,5.44961453145249e-05,0.000763133661792508,-0.00278264103352068,-0.0380837047815393,0.451007858697443,-0.000146703324275535,0
0.32,0.000663314497265063,0.000381846603553333,-0.0330762693810525,-0.0191125730366574,5.45448523591192e-05,0.000763425051991577,-0.00278445252365195,-0.0380995651995274,0.4510071696756,-0.000138562584196899,0
0.33,0.000663234404014576,0.000381856552334771,-0.0330738264245607,-0.0191130796817079,5.45891958740103e-05,0.00076335726951631,-0.00278599723647805,-0.03809758560171,0.451006542048377,-0.000130323473394716,0
0.34,0.000663142385397625,0.000381857011489795,-0.0330706581461943,-0.0191130932763978,5.46301523170575e-05,0.000763274620954074,-0.00278741213987947,-0.0380947384605431,0.451005972275834,-0.000122790301668913,0
0.35,0.000663057344006556,0.000381856920590658,-0.0330677056184251,-0.0191130950196049,5.46675322637388e-05,0.00076319801503948,-0.00278872032878938,-0.0380920804764332,0.45100545515085,-0.000115949707280001,0
0.36,0.000662980342937763,0.000381856808019461,-0.0330650332635654,-0.0191130794818304,5.47013516186504e-05,0.000763128638621155,-0.00278988902254163,-0.0380896672503365,0.451004985816697,-0.000109741068429291,0
0.37,0.000662910260914109,0.000381856704065133,-0.0330625962051013,-0.0191130797350152,5.47321297630032e-05,0.00076306549550894,-0.00279096771541579,-0.0380874727960537,0.451004559857192,-0.000104106202071224,0
0.38,0.000662846698148469,0.000381856609608106,-0.0330603846700571,-0.019113079972102,5.47600448188433e-05,0.000763008226062579,-0.0027919465938736,-0.038085481417058,0.45100417326393,-9.89920958967226e-05,0
0.39,0.000662788956148913,0.000381856523870316,-0.0330583730192803,-0.0191130801948154,5.47854033262676e-05,0.000762956201100473,-0.0027928369738048,-0.038083670028676,0.451003822398871,-9.43506234053654e-05,0
0.4,0.000662736809749704,0.00038185644605276,-0.0330565584177849,-0.0191130631480771,5.48083052392254e-05,0.000762909217447308,-0.0027936246872809,-0.0380820285494014,0.451003503959892,-9.01381049571236e-05,0
0.41,0.000662689195883136,0.000381856375424132,-0.0330548953585597,-0.019113063346867,5.48292155528451e-05,0.000762866317852711,-0.00279436074765405,-0.0380805310582541,0.451003214950362,-8.63148976257244e-05,0
0.42,0.000662646064006453,0.00038185631132079,-0.0330533882587283,-0.019113063534474,5.48481577819925e-05,0.000762827456392785,-0.00279502780224949,-0.0380791740015422,0.451002952650357,-8.28450221875182e-05,0
0.43,0.000662606890250707,0.000381856253139768,-0.0330520172065889,-0.0191130637121995,5.4865361610909e-05,0.000762792161184788,-0.00279563462532363,-0.0380779394522989,0.451002714591567,-7.96958245332028e-05,0
0.44,0.000662571383577594,0.000381856200334466,-0.0330507733836397,-0.0191130638807755,5.48809551159091e-05,0.000762760169932443,-0.00279618514672128,-0.0380768194679199,0.451002498533631,-7.68376683718508e-05,0
0.45,0.000662539318822669,0.000381856152408164,-0.0330496507056171,-0.0191130482450468,5.48950375468411e-05,0.000762731279659294,-0.0027966678801289,-0.0380758016822895,0.451002302443447,-7.42436563276996e-05,0
0.46,0.000662509982161606,0.000381856108910006,-0.0330486182037982,-0.0191130483989213,5.49079210421558e-05,0.000762704847619635,-0.00279712482906458,-0.0380748719888926,0.45100212447532,-7.18893768183175e-05,0
0.47,0.000662483439468263,0.000381856069430966,-0.0330476834265452,-0.0191130485457577,5.49195778013186e-05,0.000762680932831739,-0.0027975385501471,-0.0380740302914478,0.451001962954735,-6.97526743233343e-05,0
0.48,0.000662459341496676,0.000381856033599943,-0.0330468328060858,-0.0191130486864273,5.49301608771119e-05,0.000762659220726338,-0.00279791501587607,-0.0380732643749793,0.451001816361422,-6.78134408832397e-05,0
0.49,0.0006624374554162,0.000381856001079643,-0.0330460582187209,-0.0191130488215316,5.49397725031578e-05,0.000762639501531443,-0.00279825782023262,-0.0380725669245042,0.451001683315976,-6.60534268690588e-05,0
0.5,0.000662417548396193,0.000381855971564495,-0.0330453512036529,-0.0191130489516488,5.49485148441472e-05,0.000762621565495698,-0.00279857069924658,-0.0380719303219866,0.451001562566295,-6.44560692390323e-05,0
0.51,4.70793415080622,-0.0204195072081739,4.60435388772461,1.03048128790964,-0.508461440683418,4.68044099289162,0.547514901006784,4.68638387686201,0.103873785541363,32.1610655619827,1271.19505027004
0.52,4.66406445580537,-0.0206631431469259,6.79910904404777,1.05309887304272,-2.14551869880477,4.14133719062706,-2.16365462667576,6.53111779756885,0.473571700401957,68.7971011390823,1271.19505027004
0.53,4.66434081625515,0.0130734888610604,6.78662360385436,-0.623711397937755,-4.18605543948023,2.05747078324158,-6.37261242993269,2.41600634646889,1.11676994161266,107.216443807646,1271.19505027004
0.54,4.622617836215,0.0289062235120183,8.87428150047727,-1.41524929405381,-4.10779132962892,-2.12025508410573,-7.2032112540579,-5.37303920918566,2.05353701018368,147.879718098712,1271.19505027004
0.55,4.62976735295017,0.0182638579419272,8.51834714351594,-0.864946950095078,0.59019225156577,-4.59203140419813,1.97666079840999,-8.33085730113979,-3.00982325015022,184.597825631785,1271.19505027004
0.56,4.61019474865682,0.0111028744087148,9.49872374268981,-0.508829621213532,4.6035948744725,0.246846361313277,9.45537758869981,1.03946860389182,-1.51481895234221,224.008557822187,1271.19505027004
0.57,4.54115273419244,0.00492902242063531,11.9589164033965,-0.175086116878412,-1.17541484376425,4.38639856779843,-3.27700527024415,11.5025029080866,0.262902430610034,260.827888796338,1271.19505027004
0.58,4.44036815642726,0.071578924681224,12.3207771942681,-3.51214916544889,-3.30531350338524,-2.96595609397896,-6.64883444567791,-10.9512438994448,2.31825283106737,298.914652346484,1271.19505027004
0.59,4.35528668914787,0.0650799631182464,12.0507239494207,-3.18822294730964,4.34069461837147,-0.362115694646165,12.2401878395116,2.35849844612348,-1.63908540862508,335.962641518589,1271.19505027004
0.6,4.24971901062067,0.028768924775099,12.918769340668,-1.36878800784048,-3.44687518401703,2.48595872573762,-11.3220194094514,6.37024790567819,0.952739114193904,371.862930897028,1271.19505027004
0.61,4.18559486100104,0.0361788555150491,11.7317907988859,-1.73459238594235,2.54871102770518,-3.32032910225458,8.5904545329717,-8.17605143153705,-2.478273921661,406.892215092878,1271.19505027004
0.62,4.0569512981916,0.0510836604498359,13.7794919885182,-2.47367143477938,-2.34352196900667,3.31200364689512,-10.1013074272007,9.69314387028585,0.628388992682089,441.139942224099,1271.19505027004
0.63,3.95959261111151,0.0296503549164406,14.3435475477257,-1.38596656278478,2.93444101454013,-2.65862910570471,11.6243238946568,-8.51665154618509,-2.29943316068772,474.408180053046,1271.19505027004
0.64,3.89121838105468,0.0862305831087639,13.5260996472879,-4.19755723058071,-3.72496157130418,1.128573211993,-14.1565400776949,-0.408939361007255,1.29876835934152,506.97340872003,1271.19505027004
0.65,3.74582414473789,0.0339626784102662,16.4980463858989,-1.61490344971653,3.43056367450438,1.50452147276041,14.3862140632195,8.23591480227928,-1.14842667192215,539.424489709203,1271.19505027004
0.66,3.71603833176411,0.0356595576302925,13.714975557454,-1.67245198573333,-0.851784122422082,-3.61727470562857,-1.38380291465599,-13.7470993187484,2.91992476129355,570.469035346091,1271.19505027004
0.67,3.58368583111148,0.0549200163629787,16.2135829773936,-2.65758053319542,-2.84182545808471,2.18399826238212,-14.5925088824747,7.54994647465424,0.930871524078662,601.086130237743,1271.19505027004
0.68,3.51543022609971,0.0504827552027783,15.4240063588268,-2.40229865518913,2.64352486504617,2.31788146181615,9.8405521546776,12.1175304528985,-0.836580108409453,630.716405122004,1271.19505027004
0.69,3.44138595702105,0.0698325476596023,14.9865376650957,-3.39773626050782,2.303018531065,-2.55814767663353,12.7295546283037,-8.60809861980755,-2.38834029772873,660.099843135225,1271.19505027004
0.7,3.28799344410338,0.0439750880311309,18.657393338928,-2.09303313233583,-1.86043136215491,-2.71138891410741,-8.60769718228971,-16.6849232277087,2.55359327032019,688.300707716703,1271.19505027004
0.71,3.24361529262909,0.0945199345716627,16.8391386260321,-4.58822435280042,-3.19133429709174,0.587673028830405,-17.3416412437562,-1.96872327949142,1.41782200536464,715.800601502707,1271.19505027004
0.72,3.1879336180498,0.0652185500006548,15.6200795230585,-3.12586678949845,-1.42074579460941,2.85458501352753,-10.0137577366306,12.3888088000595,0.482266289667887,742.787854050289,1271.19505027004
0.73,3.06749624945292,0.0615234181561314,17.7008263649295,-2.94640978346072,0.842980182553719,2.95003436983555,1.67245254602545,17.8662667363596,-0.258281271380828,769.081041312719,1271.19505027004
0.74,3.00956205761426,0.0508165914241518,16.7212781500381,-2.40787683954664,2.21268319981576,2.04060754723892,10.4368337550587,13.2842581657627,-0.808949734408407,794.640686316291,1271.19505027004
0.75,2.90725900987497,0.0688791066749823,18.0049330317283,-3.30581343125125,2.70864140808324,1.05837658905154,15.3345349963142,9.99790239830725,-1.17460977268798,819.541834237466,1271.19505027004
0.76,2.83181672410093,0.0669578287945491,18.0085148523502,-3.20203412162033,2.7831539916938,0.526994467004591,16.9400371877062,6.89889627277212,-1.36001990398869,843.81034738707,1271.19505027004
0.77,2.68830964077811,0.0849565086182433,21.4533109737139,-4.16745463958862,2.65126429347872,0.452795736709086,20.1915077570376,8.36153361563489,-1.37005178813877,867.528762015555,1271.19505027004
0.78,2.66241997200992,0.042870907979676,19.0217382425443,-2.05113579972116,2.50571909822038,0.900938301395788,17.0689426560486,8.64204145102849,-1.20953585875261,890.52500553498,1271.19505027004
0.79,2.57014558382542,0.038288740264515,19.9971064137127,-1.78523117267433,2.01036984578529,1.60172639138074,14.3195498668714,14.0720221315709,-0.883154727138698,912.708232590069,1271.19505027004
0.8,2.45704797802285,0.123614384034633,22.1079228141977,-6.0766018429952,1.06107022006868,2.21957096537368,2.91381399801737,22.7419222824671,-0.395667764006623,934.418987010419,1271.19505027004
0.81,2.43340649383848,0.0604036241291811,19.712299114856,-2.92024408608748,-0.540248359891002,2.37344632795821,-7.68110731863636,18.387581468901,0.248626162195871,955.530915338122,1271.19505027004
0.82,2.33281165088686,0.109136216128428,21.2943376335926,-5.3178002131458,-1.21492907411719,1.99445938967156,-16.3230336047951,14.6726408085628,0.593870841766859,975.907852157639,1271.19505027004
0.83,2.32202995779344,0.0820452790579164,18.3648487400788,-4.00352605885307,-2.31814942608532,0.157282519836751,-18.4849895038045,-3.40603188389757,1.53837057674526,995.895846280073,1271.19505027004
0.84,2.12716740878373,0.0545787594704917,24.7605823853497,-2.65216082684931,-1.09546462962626,-1.82421963349122,-9.8905638850044,-22.8538211936168,2.62644955530967,1015.1759048028,1271.19505027004
0.85,2.12774416641498,0.0975950340911006,21.3877355247199,-4.75858101176018,1.31664189796418,-1.67429810395804,17.5790418600071,-13.0788612426681,-2.42937350968913,1033.80045403537,1271.19505027004
0.86,2.0800297750273,0.0172865295381981,20.5108805288359,-0.784971905499055,1.8301769968329,0.988572126537709,17.5860763287856,10.5850045025371,-1.0672355592219,1051.99353000353,1271.19505027004
0.87,1.96080902314588,0.0808022569724467,23.282167416417,-3.98471396226522,-0.735796878426057,1.81931415200361,-13.2399347235703,19.5612216766423,0.425510334725995,1069.54142926368,1271.19505027004
0.88,1.91981226130461,0.060921328547924,22.1550120856527,-2.91386228304322,-1.73565066909732,-0.822743752203311,-18.3776088266044,-12.7121456779047,2.04517208103983,1086.49653373512,1271.19505027004
0.89,1.87760483381449,0.0505522697482262,21.1367276681853,-2.41252917810725,1.09032726753345,-1.52942534751235,14.654485978969,-15.4216599056797,-2.49534405988184,1103.03128225668,1271.19505027004
0.9,1.81353744701655,0.0799937861733332,21.2778233060904,-3.91090898629189,1.13818470935771,1.41416146353305,9.44590470824913,19.4631923894036,-0.633609239306573,1119.04443480565,1271.19505027004
0.91,1.72621004376573,0.0694163223216912,22.643386923776,-3.40244516822552,-1.66605971468803,0.457017251420537,-22.8272781582178,1.79303552389866,1.34326296962877,1134.49974506604,1271.19505027004
0.92,1.69182704458225,0.0661460628073898,21.4261082735213,-3.24966778056834,0.420033905410677,-1.64019071107914,9.23647008270672,-19.6042361963935,-2.85181442855518,1149.43575616288,1271.19505027004
0.93,1.58641273787739,0.0347172252984722,23.7997980576863,-1.68610672726068,0.995219594414408,1.23589992294105,13.1817687987143,19.8875416987521,-0.656058847993298,1163.88468449861,1271.19505027004
0.94,1.55364834435459,0.0418756170203156,22.5962283588987,-2.04505934811056,-1.55257489651962,-0.071329768776419,-22.3874171775616,-3.68447498330662,1.64365348901975,1177.83026920271,1271.19505027004
0.95,1.5025360161524,0.0730904588899797,22.356964397395,-3.6044915618351,1.13386578698314,-0.988587412485607,19.7793279168122,-11.0274386711031,-2.23924634438319,1191.29224756674,1271.19505027004
0.96,1.44789182622832,0.0587589845200425,22.3540225452032,-2.877884182538,-0.312546687044846,1.41497629914352,-8.48524462921573,20.8802577786272,0.257954237817647,1204.2582558582,1271.19505027004
0.97,1.36953545574112,0.0284824533257408,23.5839971869025,-1.3478133384466,-0.94844459461511,-0.988378199691226,-14.9800621727035,-18.2652473678584,2.3976038350627,1216.77267983785,1271.19505027004
