t,iq,id,vq,vd,ia,ib,va,vb,theta_e,omega,r
0,0,0,0,0,0,0,0,0,0,0,0
0.01,0.00104568895943271,0.000579523775057969,-0.049763396684622,-0.0289979126679038,-0.00116355890514187,0.000274670493504424,0.0557569907259584,-0.0144371941135322,1.8450436652964,-0.00631072189628228,0
0.02,0.00122297266307816,0.000673752858492899,-0.0586170689733769,-0.0337128925071653,-0.00135972156725023,0.000317430793273781,0.0655559246903803,-0.0165813339095048,1.84499583618999,-0.00667719372866738,0
0.03,0.0012862536548554,0.00071004761809465,-0.0618580042567145,-0.0355290023063025,-0.00143045056426121,0.00033530175632638,0.069166727040389,-0.0174552733013631,1.84494893152686,-0.00631202922285896,0
0.04,0.00125342844780405,0.000695119006760807,-0.0605643980428032,-0.0347819993974232,-0.00139479604807469,0.000329874660439107,0.0677184928429749,-0.0170891638018192,1.84490792546638,-0.00541519455366098,0
0.05,0.00127958442862747,0.000712619062831465,-0.0620088161042688,-0.0356576546910284,-0.00142470005435196,0.000339693970841708,0.0693453675523647,-0.0175437057586216,1.84487085806584,-0.00497031772214448,0
0.06,0.00127856576722267,0.00071473226398031,-0.0621578517996349,-0.0357633954400157,-0.00142428001739094,0.00034205125690309,0.0695168759428397,-0.0176074686679303,1.84483768292075,-0.00441208845827991,0
0.07,0.00129956306677385,0.0007294435465787,-0.0633108844172119,-0.0364995126695637,-0.00144846497888475,0.000350572755804499,0.070825577951474,-0.0180061105918211,1.84480900167781,-0.00407283395160702,0
0.08,0.00127367764710334,0.000716758565804172,-0.0622544546878855,-0.0358647851512481,-0.00142010370060352,0.000345402764778357,0.0696363418118548,-0.0176827554836258,1.84478277616106,-0.00346720459034824,0
0.09,0.00126697741894595,0.000715216027989764,-0.0620748671098921,-0.035787610761131,-0.00141322820430934,0.000345762619953349,0.0694421722746652,-0.0176586217037657,1.84476015668481,-0.00304724072829603,0
0.1,0.00126330338297754,0.000715024495350557,-0.0620202933198412,-0.0357780254673894,-0.00140963250296726,0.000346600162971809,0.0693866905322474,-0.0176655333009347,1.84474034741958,-0.00269382668760902,0
0.11,0.00126038129259806,0.000714997247149779,-0.0619865755155542,-0.0357766608538125,-0.00140680596076566,0.000347388910181555,0.069353553492523,-0.0176745473479232,1.84472295711466,-0.00238555627523043,0
0.12,0.00125785688638242,0.000714990395894986,-0.0619589144726163,-0.0357763151804719,-0.00140436850485836,0.000348086649275193,0.0693265601986337,-0.0176827560505331,1.84470768456129,-0.00211510042695871,0
0.13,0.00131085921017744,0.000745762729117399,-0.0645264743860392,-0.0373161046835817,-0.00146371352321229,0.000363395981008493,0.0722146453854891,-0.0184716690446817,1.84469315903866,-0.00222090726622763,0
0.14,0.00134507179649076,0.00076685387850409,-0.0664873985304203,-0.0383714528444481,-0.00150235073068279,0.000374466675030698,0.0743876814265363,-0.0189582543690286,1.844680027664,-0.00222677034155492,0
0.15,0.00126400437706631,0.000721265800156821,-0.0624806414448971,-0.0360903193742529,-0.00141197039793004,0.000352520942765,0.0699130708671248,-0.0178466868025905,1.8446682185681,-0.00149923781285524,0
0.16,0.00125163775577799,0.000715738837650341,-0.0619540934169987,-0.0358137655466096,-0.00139856673785549,0.000350557035550942,0.0693311928643414,-0.0177234643836135,1.84465936582211,-0.0012710232270817,0
0.17,0.00124888712640144,0.000715067249567459,-0.0618701233660256,-0.03578017303704,-0.00139573432960271,0.000350664949864791,0.0692411328983473,-0.0177143575339655,1.84465180000338,-0.00112721473476495,0
0.18,0.00124758964609656,0.000714984313603536,-0.0618485551758627,-0.0357760244278623,-0.00139446044794937,0.000350945227708394,0.0692191292542778,-0.0177166544946926,1.844645183931,-0.00100871688950422,0
0.19,0.00124660428179241,0.000714972905730593,-0.0618367994494706,-0.0357754423171677,-0.00139350667661498,0.000351208817573659,0.0692075512607033,-0.0177196751561694,1.8446393771163,-0.000905718329960871,0
0.2,0.00124575990527915,0.000714970331239008,-0.061827448114792,-0.0357753229753899,-0.00139269127426877,0.000351441788535133,0.0691984257202735,-0.0177224420500265,1.84463427762909,-0.000815404655126314,0
0.21,0.00124502146680607,0.000714968972002648,-0.0618193750795797,-0.0357752555841011,-0.00139197840745043,0.000351646408948268,0.0691905558769027,-0.0177248702331701,1.84462979890339,-0.000736103998055594,0
0.22,0.00124437313380726,0.00071496788722421,-0.0618122863000786,-0.0357751965542183,-0.00139135255321225,0.000351826162433825,0.0691836455227952,-0.0177270025190968,1.84462586531786,-0.000666458269843997,0
0.23,0.0012438040796411,0.000714966947470877,-0.0618060701883292,-0.0357751371955467,-0.00139080323049735,0.000351983946431942,0.0691775837074499,-0.0177288653298406,1.84462241051186,-0.000605289886058258,0
0.24,0.00124330395137975,0.000714966123503631,-0.0618005854526319,-0.0357751071890577,-0.00139032044410572,0.000352122614973801,0.0691722414011202,-0.0177305294963737,1.84461937620893,-0.000551566688443461,0
0.25,0.00124286470833112,0.000714965399864597,-0.0617957605543558,-0.035775076903537,-0.00138989643103777,0.000352244399823507,0.0691675408138291,-0.0177319893895904,1.84461671122751,-0.000504382437223912,0
0.26,0.00125373503391667,0.000721311658216089,-0.0623171664738452,-0.036092625400503,-0.00140207713093564,0.000355417729518053,0.0697553526108975,-0.0178968608353346,1.84461459812657,-0.000540479282296327,0
0.27,0.00122483547195765,0.000704746972633717,-0.0609801815391659,-0.035263776322291,-0.00136977401827363,0.00034728859420463,0.0682440003920728,-0.0174606091401466,1.84461187795599,-0.000305889301756307,0
0.28,0.00122398373204223,0.000704424628443262,-0.0606812007782413,-0.0352476440564956,-0.00136886622432492,0.000347211021374463,0.0679517642157349,-0.0175260457431737,1.84461009068732,-0.00027059331183067,0
0.29,0.00123912470433499,0.000713686021319949,-0.0616667353876202,-0.035711045517801,-0.00138594705215539,0.000352034854158743,0.0690258693317944,-0.0177057727403033,1.84460889743686,-0.000349966306609282,0
0.3,0.00122510489317437,0.000706504353177133,-0.0610068101283379,-0.0353516864238126,-0.00137050777741111,0.000348910923293716,0.0682933665943998,-0.0175382066998189,1.84460949120892,-0.000267971459646344,0
0.31,0.00123920214610774,0.00071393794022357,-0.0616735466517495,-0.0357236605996783,-0.00138608953513325,0.000352257210008246,0.0690358282808185,-0.0177161140442218,1.8446083475082,-0.000341331411803129,0
0.32,0.00124096103212625,0.000714838534113102,-0.0617634137697121,-0.035768711378894,-0.00138802597026491,0.000352650420358441,0.0691345067939357,-0.0177352745835678,1.84460706874802,-0.000331595735484428,0
0.33,0.00124104113699695,0.000714947407077514,-0.0617739820855735,-0.0357741733221673,-0.00138813212101304,0.000352735188515961,0.069146137742303,-0.0177377556335543,1.84460590782188,-0.000312820328368169,0
0.34,0.00124090981382224,0.000714960361512719,-0.0617738450366701,-0.0357748050816122,-0.00138800883126667,0.000352784592776491,0.0691461584482062,-0.0177384717802136,1.8446048829857,-0.000294920583585316,0
0.35,0.00124076650672863,0.000714961720422897,-0.0617724107121575,-0.0357748873785716,-0.00138787091226067,0.000352825901529863,0.0691447838286278,-0.0177390011396719,1.84460398216913,-0.000279005184397143,0
0.36,0.00124063658724802,0.000714961699703575,-0.061770952646752,-0.0357748968541398,-0.00138774554769068,0.000352862109790968,0.0691433686041152,-0.0177394592332202,1.84460319089681,-0.000265000143571016,0
0.37,0.00124052237578014,0.000714961534339128,-0.061769660207778,-0.0357748679443547,-0.0013876353008041,0.000352893797562505,0.0691421041645276,-0.0177398289259505,1.8446024959209,-0.000252696038160624,0
0.38,0.00124042179294261,0.000714961371259493,-0.0617685033987444,-0.0357748685419122,-0.0013875382052933,0.000352921684870241,0.0691409797813296,-0.0177401845026925,1.84460188553243,-0.000241889022372403,0
0.39,0.00124033331729849,0.000714961225861139,-0.0617674722741977,-0.0357748690772261,-0.00138745279694017,0.000352946212259643,0.0691399777015135,-0.0177405008968369,1.84460134943743,-0.000232397316357686,0
0.4,0.00124025566827326,0.000714961097893667,-0.0617665612430172,-0.0357748666464978,-0.00138737783962388,0.000352967738335753,0.069139091596755,-0.0177407774502026,1.84460087859309,-0.000224060887218578,0
0.41,0.00124018779010293,0.000714960985465958,-0.0617657687441631,-0.0357748375090328,-0.00138731231360219,0.000352986557798691,0.0691383134039953,-0.0177409922779438,1.84460046505799,-0.000216739128337047,0
0.42,0.00124012795262783,0.000714960886715742,-0.0617650532865468,-0.0357748378984328,-0.00138725455020568,0.000353003146382408,0.0691376182593852,-0.0177412112204506,1.8446001018568,-0.000210308539894806,0
0.43,0.00124007533290265,0.000714960799982036,-0.0617644133486376,-0.0357748382505564,-0.00138720375453693,0.000353017733525117,0.0691369965953899,-0.0177414066500908,1.84459978286228,-0.000204660652905401,0
0.44,0.00124002911602013,0.000714960723803906,-0.0617638428976186,-0.035774838569624,-0.00138715913975388,0.000353030545643202,0.0691364425096572,-0.0177415805742679,1.84459950269454,-0.000199700200591009,0
0.45,0.00123998848707303,0.000714960656896244,-0.0617633316242611,-0.0357748388598413,-0.00138711991929192,0.000353041808411904,0.0691359459943073,-0.017741736111449,1.84459925662759,-0.000195343511586156,0
0.46,0.00123995286398474,0.000714960598131169,-0.0617628773117455,-0.0357748391242049,-0.00138708553098898,0.000353051683900623,0.0691355048422996,-0.0177418741509695,1.844599040511,-0.000191517098614372,0
0.47,0.00123992154826333,0.000714960546517808,-0.0617624685335516,-0.035774839366311,-0.00138705530081881,0.000353060365086799,0.0691351079890659,-0.0177419980380875,1.84459885069894,-0.000188156418928483,0
0.48,0.00123989407424753,0.000714960501186153,-0.0617621026840414,-0.0357748395885743,-0.00138702877910184,0.000353067981490477,0.069134752869894,-0.0177421087010812,1.84459868398971,-0.000185204785627997,0
0.49,0.00123987020106835,0.000714960461371344,-0.0617617858270626,-0.0357748102326789,-0.00138700573274311,0.000353074601407906,0.069134437280495,-0.01774217623747,1.84459853757193,-0.000182612411479164,0
0.5,0.00123984912989522,0.000714960426402345,-0.0617614940342193,-0.0357748104223822,-0.00138698539161584,0.00035308044362101,0.0691341541267052,-0.0177422642095439,1.84459840897537,-0.000180335569121833,0
0.51,4.74499153717352,0.0372866908009438,2.75123856199057,-1.85701781723024,-0.8567541965499,4.66715194008652,-2.34180243554628,2.35240093337934,0.189407749306536,58.1391494622757,3196.99733113485
0.52,4.6862579443382,-0.00072441126788314,5.68888987039622,0.0561782478580279,-3.53842640598612,3.07254822827319,-4.25806150554297,3.77300094991272,0.855597696614736,123.825516310323,3196.99733113485
0.53,4.68774256469895,0.0200295616494837,5.61568979155533,-0.969955140238392,-4.24426899510874,-1.99035480088068,-4.65857433227398,-3.28244878097612,2.01357050907945,193.13599931582,3196.99733113485
0.54,4.65635702082051,-0.0676247068063045,7.18612320081249,3.41881978227571,2.52261873871537,-3.91441291963395,0.904249671535207,-7.90639158481692,-2.5836554391663,265.515982054029,3196.99733113485
0.55,4.6443219431567,0.0612044014598172,7.78911207192054,-3.00931612184925,1.84918008768978,4.26075172871367,0.230528027566687,8.34704182442297,-0.396294131561443,331.119870640297,3196.99733113485
0.56,4.68984849554173,-0.00496898792381373,5.51410654988566,0.301679240862799,-3.52288238641199,-3.09580414326943,-4.34479417141282,-3.40868669958339,2.29069816937013,402.145889875108,3196.99733113485
0.57,4.62375812013141,0.0616725016073931,8.82011637238682,-3.0092074942725,3.37245397641135,3.16377888417047,4.26360978802269,8.2868217153206,-0.803975833790104,468.730934011916,3196.99733113485
0.58,4.57118402660117,0.0389182889252775,11.4504367612251,-1.86324604221102,-1.18377265385471,-4.41541847872343,-1.0671468038308,-11.5518563675153,2.88816641096657,536.640795417777,3196.99733113485
0.59,4.58569773017037,0.00930654998253821,10.7262456899479,-0.375968006481212,-3.26781761539678,3.21715376021488,-7.92209901895932,7.24113566209245,0.795239977241304,605.463242386742,3196.99733113485
0.6,4.61711589018796,0.117129525340098,9.1570661770527,-5.76256375405713,3.38968911535644,3.13711430623218,2.5405361171098,10.5168758777574,-0.798713842928246,673.553176138193,3196.99733113485
0.61,4.56754969203961,0.0702768852519834,11.6371813613945,-3.40534507255156,4.30718543861158,-1.52171042819067,12.1157160972521,-0.47936265178287,-1.89501931837026,741.166526857639,3196.99733113485
0.62,4.49674832660914,0.0865529861134828,15.1791524600889,-4.20391886257005,2.63984206078787,-3.64135563030618,12.4996946749362,-9.5831746432519,-2.49506427269636,808.625599245071,3196.99733113485
0.63,4.54523672075665,0.0788644205865132,12.7568104410803,-3.84020644993378,2.27855926264001,-3.93364514555984,9.87374537084539,-8.94385546391922,-2.59922188116227,876.940383802084,3196.99733113485
0.64,4.51260235385975,0.0938729375071001,14.3906144494069,-4.56999841460573,3.57111757334411,-2.76034624817424,14.2853929667354,-4.8889894177554,-2.20803390422124,944.233793741462,3196.99733113485
0.65,4.54713891105682,0.104858905491381,12.6660128409954,-5.08637931554394,4.43568623886417,1.00605927104663,11.0452791416079,8.0187869727169,-1.32470316868192,1011.04392110915,3196.99733113485
0.66,4.51680634280601,0.108709806844764,14.1849234551474,-5.28907979242218,-0.12785342637892,4.51630500098034,-6.02428315943368,13.8886439544674,0.0523649416763977,1078.40771562955,3196.99733113485
0.67,4.51368053621682,0.0648223002827251,14.3435353013539,-3.10649957409458,-4.2631439826231,-1.48429016605951,-12.4133970625864,-7.82910709542331,1.92019842093792,1145.92922831322,3196.99733113485
0.68,4.48874642558291,0.102705329363751,15.5926694844091,-4.96922224382363,4.03142523083457,-1.97661414192388,16.2387394677447,-2.03171155857434,-2.00377850273603,1212.40752799972,3196.99733113485
0.69,4.52653166553027,0.0620862670620024,13.7059431063468,-2.90476332617961,-3.3455651560121,3.04967824704241,-12.1820347085397,6.92015583462307,0.845347127756126,1278.90182700353,3196.99733113485
0.7,4.45629725502909,0.154635988530123,17.2202282728966,-7.52900082657046,3.77024813806766,-2.38069874018655,18.6671170735358,-2.18193844552802,-2.0993291317959,1345.63046735654,3196.99733113485
0.71,4.41710256202645,0.111921456529349,19.1825936125275,-5.39051675776264,-4.3801084761692,-0.581352898748235,-18.1014327620064,-8.32872742870489,1.72808356337045,1412.45541599788,3196.99733113485
0.72,4.44887820870482,0.0863861153370262,17.5965242675307,-4.15202397298562,1.1398141089038,4.30125605770634,0.142970594157666,18.0791738964824,-0.239626592844939,1479.34362865941,3196.99733113485
0.73,4.46092621418632,0.183430091328634,16.9969298359543,-8.97574424723899,4.38385220186044,-0.845783163146952,18.144181008156,6.34415511975153,-1.72028996915469,1545.48897660676,3196.99733113485
0.74,4.36815455816766,0.167307670236485,21.6382718411762,-8.12829294962989,1.65652511204642,-4.04532948642264,16.3588783689944,-16.3300659232009,-2.71464847276714,1611.5709424341,3196.99733113485
0.75,4.42241718363046,0.0666000497623411,18.9280433835465,-3.12803657402307,-0.423385038564311,-4.40260768429555,1.58984985029266,-19.1187817758185,3.06077910397828,1678.27774579583,3196.99733113485
0.76,4.35105537156735,0.122254565668115,22.4990907855085,-5.85663567763187,-0.571537358637603,-4.31508679784698,3.49862969998578,-22.9841001098029,3.03799847916248,1744.08007525957,3196.99733113485
0.77,4.43912513956036,0.0739346762906545,18.0985870866095,-3.43942367489029,1.4874527420045,-4.18315463273093,9.56774083997381,-15.7431516846558,-2.78330036158755,1810.13311768055,3196.99733113485
0.78,4.35082386983153,0.150037910482904,22.5168026260512,-7.27293283832827,4.15739048151952,-1.29162072801918,23.6375782978401,1.08020589928827,-1.83755155866722,1876.24430308342,3196.99733113485
0.79,4.34251827218672,0.120317396551235,22.9352253982799,-5.7925856467501,3.29029421712336,-2.83653048369888,21.4385862364273,-9.99828148874143,-2.25456790962597,1942.22110631558,3196.99733113485
0.8,4.33716286107352,0.131793925281303,23.2062070582653,-6.36038421530077,1.58571686138158,4.03904114335898,1.8322102866005,23.9921974579863,-0.343730759785074,2007.98638205526,3196.99733113485
0.81,4.40635155479354,0.157893819499535,19.7500595631376,-7.64083241737417,-3.98551353017271,-1.88588079779127,-14.0250290669706,-15.8664971700911,2.04857974563335,2073.54529804081,3196.99733113485
0.82,4.3094236133573,0.157244497009326,24.599862343046,-7.57525986364898,4.24809682125599,0.741303654675965,22.4898685992316,12.519728419096,-1.36156104523751,2138.80709913403,3196.99733113485
0.83,4.25205559791645,0.275734929741987,27.4716553582943,-13.4778156969701,-3.99376255339139,-1.48521622209734,-19.5697015091097,-23.5238208403895,1.99158910138479,2204.3100010128,3196.99733113485
0.84,4.22921592077326,0.131602713189967,28.6170808480785,-6.33258676089704,1.98809209662941,3.73511397335619,6.97388045025879,28.4675949601516,-0.458022245566748,2270.05439196296,3196.99733113485
0.85,4.3328629001295,0.109945503446814,23.4383168515462,-5.15908810807716,2.74903875850325,-3.35090656827279,19.2251354430985,-14.3654117286939,-2.42917454856509,2334.90944074319,3196.99733113485
0.86,4.37926525660671,0.164894384998719,21.1217383890577,-7.95980885445153,-3.19761641356752,-2.99673215646817,-9.19948704718486,-20.6120311382425,2.36141126129059,2400.48730830504,3196.99733113485
0.87,4.1422925855216,0.132754664256989,32.9739370201057,-6.39225944391768,-4.00974058834197,1.04794660128853,-33.570501801035,1.07838408322751,1.34720158711188,2465.75445862524,3196.99733113485
0.88,4.17473849631405,0.197609987438382,31.3552521164293,-9.52909008523156,-2.89030461497708,3.01887900591993,-29.2943592601768,14.6899934878473,0.810942587914405,2530.66044110068,3196.99733113485
0.89,4.29712510354936,0.253933987247715,24.1769458727235,-12.3345848000812,-2.74845853673423,3.31296578571019,-25.5194728153798,9.24246726518871,0.751560184650097,2595.57633722413,3196.99733113485
0.9,3.80517318211462,0.115174263617285,27.0113743250257,-5.42541940303791,-3.43921805030765,1.63229508953562,-26.9185651762277,5.86859160946648,1.15792296305413,2656.68806402803,3196.99733113485
0.91,3.3644964892119,0.145650401203873,29.4484575681457,-6.97571822123382,-0.338769983287875,3.35056496187034,-11.1302800395538,28.1423020395639,0.144029263073127,2711.70499208887,3196.99733113485
0.92,2.94918469622897,0.141196711097925,32.5879147520362,-6.81702638141884,-2.85296602786373,0.760402345835064,-33.2926170427344,0.213745214605193,1.35816109760935,2761.32669454452,3196.99733113485
0.93,2.71000268411146,0.139788354699898,28.656417375086,-6.83648890754989,-0.740025237227119,-2.61075046304084,0.280427339807487,-29.4592803351554,2.91692148908315,2806.10097212706,3196.99733113485
0.94,2.44369701145831,0.19822148314805,27.5922314614045,-9.7311578996627,2.45166326392686,-0.0171487755599729,26.79793250405,11.7429759684788,-1.49685276131319,2846.15485792781,3196.99733113485
0.95,2.07909800889712,0.119974021545647,32.9146222455103,-5.78978841543269,-1.16625647245011,1.72536608779529,-24.5749172876246,22.6487846863034,0.652041056262018,2882.18937105243,3196.99733113485
0.96,1.97715581192823,0.124024435934686,26.4086210577196,-6.10662079363242,-0.299386345627297,-1.95828878907132,3.73356636152072,-26.8470960424321,3.05253233045241,2914.9642737405,3196.99733113485
0.97,1.7257838773995,0.0943217719679257,28.4080730117842,-4.55285419748174,1.05620621174375,1.36808443687995,12.3569628599807,25.9817736589219,-0.602853568046145,2944.27705426478,3196.99733113485
0.98,1.46866804265042,0.110583026477418,31.8663311571122,-5.48692603482553,-1.22934506456125,-0.811125845653075,-21.8484598656697,-23.8372443924336,2.2291852226274,2970.79764424728,3196.99733113485
