t,iq,id,vq,vd,ia,ib,va,vb,theta_e,omega,r
0,0,0,0,0,0,0,0,0,0,0,0
0.01,0.00111244591638207,0.00062798830534831,-0.0547470710656528,-0.0314358342177458,-0.000589435001013388,0.00113334531723995,0.0287184863722934,-0.0562201209863304,0.993501602992793,-0.00257072076252378,0
0.02,0.00123724254127446,0.000698387633349303,-0.0610325521380506,-0.0349598823279528,-0.000655562332183094,0.00126045722695266,0.0320608851724061,-0.0626040368892451,0.993482603220201,-0.00267636828800574,0
0.03,0.00128568479694056,0.000726325769144768,-0.0634589529438473,-0.0363584037137684,-0.00068088098392502,0.00131031889467302,0.0333295374547838,-0.0651008000134634,0.993463739297586,-0.00259652509890467,0
0.04,0.00125545877401019,0.000710559004667141,-0.0620325085420679,-0.0355691486632847,-0.000664137531183269,0.00128062179117276,0.0325639747864824,-0.0636614797091452,0.993446736619547,-0.0023436764420052,0
0.05,0.00128305005528743,0.000726885667905018,-0.0634312714225965,-0.0363864403944313,-0.00067832414338022,0.00130937258833622,0.0332888749517792,-0.0651102913778568,0.993430481607857,-0.0022402328687446,0
0.06,0.00128282351255405,0.000727645435022306,-0.0634663471362489,-0.0364244708971419,-0.000677699747289411,0.00130989583402429,0.0332965182989351,-0.0651618075879136,0.993415304687551,-0.00208002981791419,0
0.07,0.00131498214891841,0.000746835992540768,-0.0650811001662642,-0.0373851190018282,-0.000694151897770599,0.00134353831153038,0.0341242343726257,-0.0668485852514044,0.993401458402575,-0.00201310518535356,0
0.08,0.00128155167892716,0.000728571316167034,-0.0634862245444627,-0.0364708204278582,-0.000676093333289835,0.00130999567678043,0.0332861134168695,-0.0652123922517056,0.993388299888311,-0.00179284875141872,0
0.09,0.00127857792783767,0.000727712764554861,-0.0633772375234621,-0.0364278508591049,-0.000674054657373284,0.00130766115799282,0.0332174700205348,-0.0651172960107635,0.993376314868738,-0.00165949673801682,0
0.1,0.00127724426148373,0.000727669285841046,-0.0633456561643174,-0.0364256683299455,-0.000672946486770772,0.00130690417360739,0.0331914799198508,-0.0650985954449192,0.993365250500942,-0.00153984386303143,0
0.11,0.00127608347502771,0.000727664210650187,-0.0633199659669478,-0.0364254253438012,-0.000671963318925765,0.00130627314782102,0.0331694222749752,-0.065084707324199,0.993355028450422,-0.0014294751573277,0
0.12,0.00127501477314906,0.000727661163312649,-0.063296412441939,-0.0364252697458586,-0.000671057226310176,0.0013056935472609,0.0331491580515121,-0.0650720325835491,0.993345584206143,-0.00132751339194393,0
0.13,0.00133503864745214,0.000762119807857023,-0.0662599307655459,-0.0381501956216402,-0.000702525375436755,0.00136733788384083,0.0346899127477177,-0.0681353491557802,0.99333633217279,-0.00137713191081252,0
0.14,0.00139225111016444,0.000795948379131527,-0.0692162988062479,-0.0398435673080307,-0.000731981815024949,0.00142691961878341,0.0362418955538525,-0.071168327807593,0.993327783176055,-0.0014272627676477,0
0.15,0.00127813355400146,0.00073084994812805,-0.0635274041809657,-0.0365848770201717,-0.000671895773396178,0.00131008514923097,0.0332538815322234,-0.065332715170837,0.993319768820098,-0.00106359177314896,0
0.16,0.00127163125437971,0.000727800581612359,-0.0632300605022718,-0.0364322497525523,-0.000668103692717496,0.00130398511858374,0.0330876333181231,-0.0650427389841382,0.993312974871547,-0.000976207245278253,0
0.17,0.00127063437539453,0.000727655975307209,-0.0632002878185122,-0.0364249866470672,-0.000667339270847434,0.00130332391672959,0.033066247527409,-0.0650206067876786,0.99330672879077,-0.000908062899838049,0
0.18,0.00126996684403674,0.000727647486307021,-0.0631851703495389,-0.0364245629685776,-0.000666777106452942,0.00130295623088107,0.0330534377951847,-0.0650121895452843,0.993300959533791,-0.000845741264778421,0
0.19,0.0012693628776252,0.000727645499644151,-0.0631718253692814,-0.0364244866840964,-0.000666265225000434,0.00130262839605178,0.0330419520917551,-0.0650050163653011,0.993295629332052,-0.000788193907648489,0
0.2,0.00126880582475295,0.000727643937974171,-0.0631595408670665,-0.0364243975379156,-0.000665792948652176,0.001302326253641,0.0330313883459427,-0.0649983978454722,0.993290704703556,-0.00073502689899972,0
0.21,0.00126829079965984,0.000727642507676749,-0.0631481710472579,-0.036424335677551,-0.000665356303359947,0.00130204691200398,0.0330216004661108,-0.0649922890720215,0.99328615478451,-0.000685905390337295,0
0.22,0.00126781523936292,0.000727641186564809,-0.0631376780957034,-0.0364242766621314,-0.000664953116168599,0.00130178897323797,0.0330125682472232,-0.0649866498859465,0.993281951064011,-0.000640521485552227,0
0.23,0.00126737576781118,0.000727639965793275,-0.0631279766192325,-0.0364242146754896,-0.000664580528556877,0.00130155060513131,0.0330042215967885,-0.0649814296822915,0.993278067199693,-0.000598590790650622,0
0.24,0.00126696982387433,0.00072763883773221,-0.0631190156362636,-0.0364241555407912,-0.000664236366798447,0.0013013304199191,0.0329965130309756,-0.064976606325256,0.993274478854066,-0.000559850554632411,0
0.25,0.00126659496282725,0.000727637795351229,-0.0631107441085766,-0.0364240963502144,-0.000663918556851425,0.00130112709254372,0.0329893999070825,-0.0649721502694695,0.993271163541747,-0.000524058019110699,0
0.26,0.00127935907535375,0.000735016844409061,-0.0637440510910161,-0.0367934630282258,-0.000670579993734441,0.00131427998434815,0.0333181416994197,-0.0656274668473565,0.993268167483108,-0.000523789306399393,0
0.27,0.00123811516187219,0.000711622112140486,-0.0617363586322973,-0.0356223859686045,-0.000648793796921899,0.00127216421645193,0.0322752274554058,-0.0635503111870719,0.993265100187787,-0.000390556584141189,0
0.28,0.00123462802492528,0.000709571462064192,-0.0614492112036076,-0.0355197159104324,-0.000646988462609552,0.00126854402720479,0.0320905387322214,-0.0633076069661395,0.993262472982544,-0.00035438327587583,0
0.29,0.00126378975413734,0.000726788773278157,-0.0630066915587475,-0.0363815869425571,-0.000662017641885285,0.00129889149102546,0.0329247222525172,-0.0648800871934724,0.993260238295619,-0.000402266136112008,0
0.3,0.00125575891954487,0.000722578659896705,-0.0626182653987551,-0.0361708294158788,-0.000657586051691107,0.00129098062277322,0.0327142686895231,-0.0644914931311969,0.993258818820715,-0.000367674193378024,0
0.31,0.00126448583625559,0.000727396616058047,-0.0630513274815699,-0.0364120088621602,-0.000662264428825312,0.0012997830947725,0.0329452827452164,-0.064930059536427,0.99325674597542,-0.000367233731463716,0
0.32,0.00126471739907302,0.000727621565065863,-0.063068598608819,-0.0364232695898758,-0.000662333067316639,0.00130009928444171,0.032953477163039,-0.0649489879902848,0.993254782516809,-0.000347147046856951,0
0.33,0.00126453497509149,0.00072763155261667,-0.0630651772056515,-0.0364237668615833,-0.000662172416813272,0.00130000925766113,0.0329502212148827,-0.0649475964933075,0.993252966007874,-0.000327592049673828,0
0.34,0.00126434591664364,0.000727631518726954,-0.0630610106440802,-0.0364237937538162,-0.000662011859148978,0.00129990712065303,0.0329466067551421,-0.0649453995152494,0.99325128759085,-0.000309474492597724,0
0.35,0.00126417070972561,0.00072763105383817,-0.0630571334432242,-0.0364237642696543,-0.000661863308006845,0.00129981210001755,0.0329432738038737,-0.0649433090682246,0.993249736876542,-0.000292732923412114,0
0.36,0.00126400854132332,0.000727630603998978,-0.0630535345693129,-0.0364237347506163,-0.000661725826019388,0.00129972413211157,0.0329401817241358,-0.06494136665368,0.99324830415407,-0.000277265071732359,0
0.37,0.00126385894577159,0.000727630187413061,-0.0630502191040083,-0.0364237022867123,-0.000661599001382947,0.00129964298398088,0.0329373357778066,-0.0649395729058525,0.993246980446043,-0.000262974144755183,0
0.38,0.00126372041153892,0.000727629802459634,-0.0630471377171226,-0.0364237028311331,-0.000661481557783652,0.00129956783458181,0.0329346744665886,-0.0649379312885185,0.993245757457387,-0.000249770597844447,0
0.39,0.00126359270207124,0.000727629446777086,-0.063044302867564,-0.0364236732139743,-0.000661373288321737,0.00129949855792121,0.0329322422190197,-0.0649363959338932,0.993244627524574,-0.00023757169380094,0
0.4,0.00126347430768921,0.000727629118142583,-0.0630416614901674,-0.0364236736936681,-0.000661272920159208,0.00129943433263239,0.0329299612168418,-0.064934988588903,0.993243583566962,-0.000226300990506794,0
0.41,0.00126336534108803,0.000727628814500615,-0.0630392399524378,-0.036423644021681,-0.000661180540302133,0.00129937522289746,0.0329278860194972,-0.0649336733897457,0.993242619043135,-0.000215887862221848,0
0.42,0.00126326440900424,0.000727628533951727,-0.0630369877173332,-0.0364236444448052,-0.000661094974628704,0.0012993204704761,0.0329259410006366,-0.064932473419233,0.993241727908937,-0.000206267057038629,0
0.43,0.00126317150771316,0.000727628274739852,-0.0630349223012361,-0.0364236118150238,-0.000661016213697814,0.00129927007559161,0.0329241749497041,-0.0649313455201392,0.99324090458007,-0.000197378287992884,0
0.44,0.00126308524395989,0.00072762803524334,-0.0630329903655221,-0.0364236121902694,-0.000660943084402663,0.00129922327964118,0.0329225067780446,-0.0649303160846823,0.993240143897369,-0.000189165855287948,0
0.45,0.00126300596326512,0.000727627813963023,-0.0630312242688593,-0.036423582430333,-0.000660875870828959,0.00129918027319226,0.0329209977590184,-0.0649293500386475,0.993239441094285,-0.000181578297258942,0
0.46,0.0012629323887819,0.000727627609513653,-0.0630295741574982,-0.0364235827638648,-0.00066081349825505,0.0012991403608867,0.0329195729553587,-0.0649284707679804,0.993238791766571,-0.000174568067899949,0
0.47,0.00126286440223411,0.000727627420615554,-0.0630280469445885,-0.0364235830781129,-0.000660755862990064,0.00129910347978366,0.0329182543353674,-0.0649276569530235,0.993238191845645,-0.000168091238930171,0
0.48,0.00126280188534536,0.000727627246086452,-0.0630266486662971,-0.0364235532671394,-0.000660702861693116,0.00129906956681683,0.0329170631490555,-0.0649268867908364,0.993237637572145,-0.000162107224519871,0
0.49,0.00126274391051523,0.000727627084833339,-0.0630253439236826,-0.0364235535482461,-0.000660653713297755,0.00129903811692815,0.032915936636094,-0.0649261915189014,0.993237125472719,-0.000156578526968102,0
0.5,0.001262690243052,0.000727626935846768,-0.0630241311437042,-0.0364235538144125,-0.000660608217554541,0.00129900900326668,0.0329148897078995,-0.0649255451606456,0.993236652338281,-0.000151470501732881,0
0.51,4.69659167971226,-0.0482014122371815,5.17159899943543,2.41847363369668,-0.525021227877257,4.66740286373079,1.88064503480033,5.39051251560818,0.101753228823704,31.2475374822796,5129.67539777043
0.52,4.68677077881177,-0.0692406713731945,5.66384025734628,3.47855695720693,-2.14260013125087,4.1689182387353,0.602718807144662,6.61937874764567,0.459969737646044,66.5090718935429,5129.67539777043
0.53,4.62151817061727,0.101388172969863,8.92779107602112,-5.05551494689854,-4.02480887638696,2.2736805561733,-10.2571054682991,-0.235525556118735,1.07850791985345,102.445594244861,5129.67539777043
0.54,4.60420752648372,-0.00256395954106869,9.79477916369099,0.155246046773971,-4.24503001988466,-1.78282182258799,-9.09282470941964,-3.64449434137052,1.96784926558596,140.773871889439,5129.67539777043
0.55,4.59114961398207,0.0214655212659327,10.4492661343781,-1.05007296034341,-0.00648807314204059,-4.59119520947191,1.08415516373643,-10.4457849657194,-3.13833042915165,179.61716388612,5129.67539777043
0.56,4.62892303247913,0.0547700640036894,8.56222509867846,-2.70357359571183,4.58881957704886,-0.610461374551979,8.82500477531759,1.65538501367244,-1.69122051727297,214.897873851069,5129.67539777043
0.57,4.63630259669344,0.0239743546300398,8.19491746328689,-1.15746371907268,-0.0557484170099816,4.63602940583719,-1.29820068054668,8.17380385647234,0.0171954169078056,252.134043612669,5129.67539777043
0.58,4.601143932678,0.0318000726075485,9.95467870016176,-1.54550690234453,-4.18759394384681,-1.90672328755248,-8.38086007806052,-5.58975884637434,2.00498232171323,289.155331204888,5129.67539777043
0.59,4.51539616999837,0.033556212184308,14.24390443171,-1.62778385738421,4.03662632730314,-2.02375306920959,13.4990540735395,-4.82846071390315,-2.02809009056332,325.738815455365,5129.67539777043
0.6,4.53540132428214,0.0375971597445392,13.2455477980011,-1.81888600992149,-2.12868047367842,4.00499664914982,-7.91227987312107,10.7772310913158,0.496823243356039,362.16230546775,5129.67539777043
0.61,4.51708124105223,-0.0096719617199863,14.1636538751013,0.537494409612942,0.664724459154031,-4.46791426490167,1.52247703400746,-14.0918435633865,-2.99603985633233,399.570324144489,5129.67539777043
0.62,4.54390673624983,0.0648737476583041,12.8244541251043,-3.17392277117752,-0.217243552479854,4.53917418367898,-3.96368318330001,12.6027625934447,0.0620993329054764,435.544385748746,5129.67539777043
0.63,4.57327525475272,0.0921296074791198,11.3582149259044,-4.5212576018319,1.03315022267246,-4.45599989202195,7.17071416027,-9.90109463831467,-2.89361976088702,471.604938603327,5129.67539777043
0.64,4.51106227882825,0.140031247199968,14.4711327433012,-6.92034894364526,-2.80202193578221,3.53807358672128,-14.6211648960741,6.5974578026591,0.700852615060189,508.218390784944,5129.67539777043
0.65,4.53820814540597,0.0561473129402157,13.1161593248196,-2.71981639401915,4.47842702747101,-0.736326728699043,13.3757489569079,0.721371258786693,-1.72138323216412,544.782549093068,5129.67539777043
0.66,4.53322475169826,0.0579219813571614,13.3677045789285,-2.80440502288539,-3.08491335179433,-3.32216664501575,-6.89099668647195,-11.7929800266482,2.40598396008773,581.164569320091,5129.67539777043
0.67,4.52936354520226,0.0846068514552903,13.5633429428235,-4.13124924689349,-2.16137771867555,3.98129863249835,-10.2859681055877,9.75860401161098,0.516039833586237,617.261144929111,5129.67539777043
0.68,4.48620455819007,0.057083509660883,15.723889107133,-2.74049620632174,4.04164325726577,1.94792444565972,12.8554255161367,9.45986484625135,-1.10895822307118,653.273965836967,5129.67539777043
0.69,4.4656881934826,-0.00910061931164785,16.7523683868244,0.586381425569554,2.78778164325123,-3.48865695823382,9.97240329931285,-13.4735615996655,-2.46943935136946,689.360501598902,5129.67539777043
0.7,4.41485091973663,0.0320299384740359,19.2969548444495,-1.51549242785979,-1.84297347407327,-4.01190520006646,-6.5461579781794,-18.2158447317807,2.71822386806779,725.903275776698,5129.67539777043
0.71,4.49349154173028,0.0157558333118395,15.3676289338993,-0.681577217134584,-4.27478435614855,-1.38489464953568,-14.3905359403442,-5.43516714578277,1.88760116507104,761.97846894627,5129.67539777043
0.72,4.38635530277413,0.0896516249616082,20.7272286846238,-4.34484976540932,-4.22765950300732,1.1726232910295,-21.1576812056293,0.92100729075763,1.32066456613712,797.535293958562,5129.67539777043
0.73,4.37028744140431,0.0910590404846302,21.5335506587008,-4.45974330377348,-3.66930501619032,2.37569037702954,-20.6608555127804,7.530747890243,1.01704896014027,833.932608630765,5129.67539777043
0.74,4.44573862300409,0.0473166194448995,17.763994258745,-2.22004040068239,-3.65787706074079,2.52720521031678,-15.9641282340641,8.10152338339796,0.976850709126244,869.364512700886,5129.67539777043
0.75,4.42711892905379,0.0955363660803954,18.6980559541388,-4.67343310578899,-4.08939421108342,1.69863598089397,-19.1175680056596,2.4447631802219,1.198681954966,905.536683305491,5129.67539777043
0.76,4.37520565266049,0.125333341221908,21.2967325983274,-6.10344464298179,-4.36165027974832,-0.366250988620545,-20.4776547671859,-8.45390508052652,1.68320897536307,940.890945131219,5129.67539777043
0.77,4.40118272296795,0.0721638740068309,20.0010794338633,-3.47072649380917,-2.92992697781702,-3.28498780672369,-10.4390163640822,-17.4102285529215,2.42965790184195,976.865144965635,5129.67539777043
0.78,4.37785192573557,0.0581893247169356,21.170809547733,-2.79334026734257,1.22138139742107,-4.20442635364343,8.84747812173165,-19.4352272340979,-2.84558408919005,1012.70404241691,5129.67539777043
0.79,4.27309747515898,0.0478490111669887,26.4117378797483,-2.2215056100164,4.2727889987131,-0.0701835632893293,26.4229887486212,2.08342280733013,-1.57602328630114,1048.12222936848,5129.67539777043
0.8,4.28206154449339,0.0964849480912204,25.966839346372,-4.63588298533972,0.289426968085284,4.27335845046753,-3.46055572293435,26.1494304102885,-0.0450963997997152,1083.56644714828,5129.67539777043
0.81,4.32448445942205,0.131139665876416,23.849100359088,-6.36809746801114,-4.28091426655342,-0.626208027869658,-22.3702167179676,-10.4357873345093,1.74636085625579,1119.08479737387,5129.67539777043
0.82,4.23868225658398,0.132344300033199,28.1426304937006,-6.42804769345691,2.48182454902358,-3.43867549994108,22.2664664735815,-18.3720417764383,-2.48521273727431,1154.59539692103,5129.67539777043
0.83,4.21959626558347,0.121980775177478,29.1003740122797,-5.90064677649725,0.848090038733516,4.13528901532164,-0.791966297865384,29.6820179472117,-0.173381049222985,1190.0726697952,5129.67539777043
0.84,4.27072403962849,0.0966154512898945,26.5474450430134,-4.61765833457395,-2.96076568240702,-3.079331898638,-14.5621601270712,-22.6722980582078,2.39844069577565,1225.57189756038,5129.67539777043
0.85,4.21248300394688,0.0477205323852741,29.4630785609136,-2.2386207570114,3.6842796863121,2.04288362389551,24.495874445565,16.5238178496195,-1.05318717829823,1261.13903831997,5129.67539777043
0.86,4.32237208459263,0.0584982534230125,23.9721998438314,-2.77475331806986,-3.88572066891267,-1.89406899729235,-20.1549786615451,-13.2718671060779,2.03788131650955,1296.63965677067,5129.67539777043
0.87,4.24111011659649,0.0939024985302097,28.038934555519,-4.50238439171553,3.99926168926691,-1.41482813128991,28.0413611648497,-4.48724639861714,-1.88869043504853,1331.77218943022,5129.67539777043
0.88,4.18575731679316,0.155233095452,30.8102070353124,-7.53241060295683,-4.16221051177489,-0.469750236489263,-29.3451854828137,-12.0360357273318,1.72025056034097,1367.02217026918,5129.67539777043
0.89,4.19274408083692,0.0880281431022353,30.4646403277246,-4.24260629396114,2.75283033860723,3.16366512264093,16.2526075088329,26.1141105080569,-0.695078304099337,1402.49987203031,5129.67539777043
0.9,4.27614363164011,0.168817201396304,26.298451880221,-8.20132033642955,1.05787929506196,-4.14666070507134,15.3617332951477,-22.8667307835156,-2.85234645116855,1437.41929445911,5129.67539777043
0.91,4.22999351096937,0.136093932947439,28.6097661949729,-6.63890730657493,-4.22142299458025,0.301586740851057,-28.8477363171815,-5.51379373305484,1.53163800099618,1472.89138045879,5129.67539777043
0.92,4.13964223472168,0.194215528681911,33.1311216083078,-9.46340279965063,0.646242422779831,4.09349828802607,-5.77943682906395,33.9680043792946,-0.109696541549569,1507.85639732049,5129.67539777043
0.93,4.25588459667277,0.0398203001623785,27.3229731562545,-1.76279120497777,4.24622205346671,0.289374548214802,27.1048684142234,3.87019420409173,-1.49339657104057,1542.98721479677,5129.67539777043
0.94,4.14751669805351,0.0929535976313325,32.7453919806269,-4.47775986781236,1.98464702706923,-3.64303600172858,20.1887140465733,-26.167285960611,-2.62035913173671,1578.1775345509,5129.67539777043
0.95,4.1142373742651,0.0902767202884691,34.4133890421662,-4.34997176994523,-1.49168010875626,-3.83536041476766,-7.67975191701621,-33.8263951709296,2.79260614912262,1613.11021829167,5129.67539777043
0.96,4.07361935035292,0.192360711369522,36.448381380169,-9.35175841170719,-3.45325841591516,-2.16942009941816,-24.5717049422264,-28.4986176306388,2.17889675466826,1647.9236356024,5129.67539777043
0.97,4.14540846635543,0.104637984807935,32.8630193674251,-4.95568076748736,-4.04164819137614,-0.927599244254696,-30.6044636853644,-12.9577627831434,1.82163595792624,1682.866654016,5129.67539777043
0.98,4.17975467974916,0.168205671662515,31.1499257791559,-8.1352552193029,-4.15826748756317,-0.455471000986327,-29.5930546537981,-12.6787763521341,1.72011649204439,1717.73952195812,5129.67539777043
