t,iq,id,vq,vd,ia,ib,va,vb,theta_e,omega,r
0,0,0,0,0,0,0,0,0,0,0,0
0.01,0.000580463165111876,0.000323325355020623,-0.0281693179592798,-0.0161847447824953,-0.000266324604397201,-0.00060872652015793,0.0134162881944703,0.0295881673823917,-3.04580111083722,-0.00253735475211585,0
0.02,0.00064534176453957,0.000359856537475087,-0.031489976319747,-0.0180133931047957,-0.000296495407308399,-0.000676796272202818,0.0149195551083628,0.0330682296945974,-3.04581945999973,-0.002530112733018,0
0.03,0.000669583657384547,0.000374384750510849,-0.0327371437112066,-0.0187406448365624,-0.000308651083453044,-0.000702310988334085,0.0155248094303095,0.0343789563455748,-3.04583685683022,-0.00234418644886953,0
0.04,0.000652131276518631,0.000366217168619116,-0.0319743762857806,-0.0183317887316124,-0.000302199665417309,-0.000684153183597714,0.0151912515505258,0.0335803676765727,-3.04585166857903,-0.00200287449786319,0
0.05,0.000665566460753171,0.00037469038673134,-0.0326846588977855,-0.0187559452475539,-0.000309359176859749,-0.000698332656605032,0.0155460298736156,0.0343277346261369,-3.0458651741721,-0.00183266666422613,0
0.06,0.000664452400472793,0.00037510125777206,-0.0326905028655781,-0.0187765122011427,-0.000309883006658156,-0.000697259254697089,0.0155663555912625,0.0343353310985987,-3.04587715892623,-0.00161899141162573,0
0.07,0.000680164367842383,0.000384935449617234,-0.0334940240554612,-0.0192687704574801,-0.000318177967117257,-0.000713835869717669,0.0159799316338554,0.0351820543366669,-3.04588747707853,-0.00151512585704513,0
0.08,0.000662203779683409,0.000375597284276756,-0.0326800974125989,-0.0188013394044315,-0.000310605363220003,-0.000695062208814461,0.0155927402548668,0.034327038637812,-3.04589687091271,-0.00126554855214646,0
0.09,0.000659958134166041,0.0003751413809424,-0.0326122897191294,-0.0187785174186421,-0.000310371693812137,-0.000692780777899819,0.0155767774774547,0.0342572351567452,-3.04590492113642,-0.0011148282699157,0
0.1,0.000658741844119668,0.000375118154266488,-0.0325887781688635,-0.0187773475954354,-0.000310469646029081,-0.00069156564818465,0.0155781002221327,0.0342336097823234,-3.04591195751811,-0.000986675809587882,0
0.11,0.00065771885783516,0.000375116124478994,-0.0325701843796041,-0.0187772468670461,-0.000310569608695744,-0.000690545234543473,0.0155799870053264,0.0342149954748099,-3.04591811555262,-0.000874720175576805,0
0.12,0.00065682567020109,0.000375115238420794,-0.0325540104328196,-0.0187772126606178,-0.000310657768772914,-0.000689654372734368,0.0155816823543258,0.0341988082478189,-3.04592350531846,-0.000776743083114603,0
0.13,0.000687851896183496,0.000392847675864507,-0.0340660508482285,-0.0196648423393543,-0.000325349180013238,-0.000722230876230094,0.0163210057045464,0.0357886381051014,-3.04592874957944,-0.00083465063086575,0
0.14,0.00071640698327292,0.000409995992074993,-0.035586344694512,-0.0205232430402658,-0.000339695017783652,-0.000752291814452828,0.0170304377280882,0.0373838952544562,-3.04593334263168,-0.00089200598696807,0
0.15,0.000657914594463897,0.000376811708334053,-0.0326751232438966,-0.0188621327429517,-0.000312252113976821,-0.000690896008429075,0.0156551245089134,0.034327260409578,-3.04593747341105,-0.000539177187824356,0
0.16,0.000654202177688532,0.000375195323221036,-0.0325121454897115,-0.0187812136739682,-0.000310999757010811,-0.000687045246689453,0.0155902440896768,0.0341572522407133,-3.04594048382082,-0.00046901280488452,0
0.17,0.000653592512231404,0.000375116230622355,-0.0324957694835072,-0.0187772588878723,-0.000310981038449617,-0.000686430005350931,0.0155879602015003,0.0341405328374333,-3.04594308503359,-0.000420868993684392,0
0.18,0.000653205726643545,0.000375112045842636,-0.032488456561758,-0.0187770520381528,-0.000311015372922053,-0.000686043880566197,0.0155885303563176,0.0341331981264413,-3.04594535986498,-0.000379468889138966,0
0.19,0.000652875344413414,0.000375111550291295,-0.0324824421476604,-0.0187770269868313,-0.000311047796854093,-0.0006857143418196,0.0155891477501665,0.0341271777732026,-3.04594735079804,-0.000343274615221881,0
0.2,0.000652586638874849,0.000375111270728511,-0.0324771964064269,-0.0187770106016831,-0.000311076284206422,-0.000685426387053968,0.015589691865003,0.0341219272772159,-3.04594909334872,-0.000311597999108984,0
0.21,0.000652334022086991,0.000375111033501581,-0.0324726049525307,-0.018776995615107,-0.000311101217414029,-0.000685174427682706,0.0155901674551081,0.0341173315992701,-3.04595061850872,-0.000283873292343103,0
0.22,0.000652112895642376,0.000375110826196287,-0.0324685813597667,-0.0187769791234415,-0.000311123042149594,-0.000684953876721877,0.0155905808145224,0.0341133040086092,-3.04595195339899,-0.000259607358986217,0
0.23,0.000651919296962328,0.000375110644740915,-0.0324650531175759,-0.0187769795851512,-0.000311142149267404,-0.000684760781951669,0.0155909580558926,0.0341097737190912,-3.04595312175655,-0.000238368696781266,0
0.24,0.000651749975336883,0.000375110485900767,-0.032461967606719,-0.0187769644604334,-0.000311158860382011,-0.00068459190076286,0.0155912725249488,0.0341066849210068,-3.0459541443566,-0.000219779641361136,0
0.25,0.000651601604009332,0.000375110346858801,-0.0324592546831437,-0.0187769648365414,-0.000311173502961695,-0.000684443915688212,0.0155915624879255,0.0341039704762219,-3.04595503938344,-0.000203509643822806,0
0.26,0.000658333937446091,0.000378911763038566,-0.0327852671959704,-0.0189672575693913,-0.000314315161906447,-0.000691508261959315,0.0157498788633797,0.0344466532569373,-3.04595575908447,-0.000223345396145151,0
0.27,0.000637185802453794,0.000366954386647737,-0.0317768004654678,-0.0183686977611049,-0.000304432507459677,-0.000669314662270681,0.0152503848959504,0.0333856236393203,-3.04595668517723,-0.000105641272211005,0
0.28,0.000635669336505058,0.000365965188046554,-0.0315849489867275,-0.0183191854674937,-0.000303593041410692,-0.000667710483249841,0.0152194389107702,0.0331899116890652,-3.04595729107314,-8.7823851782215e-05,0
0.29,0.000650307284926143,0.000374664625588904,-0.0324099456863829,-0.0187546572648344,-0.000310855185670321,-0.000683112143090397,0.0155741537073542,0.0340527162619284,-3.04595763068643,-0.00015224844158713,0
0.3,0.000645985276192382,0.000372439531404592,-0.0322012194013248,-0.0186432727099779,-0.000309052730767278,-0.000678597517837715,0.0154831975902077,0.0338343130660791,-3.04595728583857,-0.000137477456649111,0
0.31,0.000650863530073433,0.000374979886203494,-0.0324370779234359,-0.0187704397197836,-0.000311115960902373,-0.000683695918306252,0.0155872767283798,0.0340812299613437,-3.04595773406511,-0.000153124303459955,0
0.32,0.000651065461904446,0.000375103526545616,-0.0324489167911227,-0.0187766167551732,-0.000311220057709574,-0.000683908595494352,0.0155923101959943,0.0340935976458887,-3.04595817820939,-0.000146373385725287,0
0.33,0.000651015869223388,0.000375109489872884,-0.0324484473464446,-0.0187769181410821,-0.000311230997142473,-0.000683859676974071,0.0155926683828789,0.0340931530189488,-3.04595856982653,-0.000139328018163297,0
0.34,0.00065095987346552,0.000375109729927481,-0.0324474304826748,-0.0187769328864811,-0.000311236817535062,-0.000683803853278965,0.0155927918504937,0.0340921368626052,-3.04595891274799,-0.00013309839729949,0
0.35,0.000650910164123141,0.000375109697557283,-0.0324465033282816,-0.0187769330681366,-0.000311241737188513,-0.000683754274569605,0.0155928907959236,0.034091209281923,-3.04595921289735,-0.000127642433180169,0
0.36,0.000650866624792815,0.000375109657416044,-0.0324456866875357,-0.018776933237232,-0.000311246034317114,-0.000683710848588673,0.0155929778991455,0.0340903922925208,-3.04595947560258,-0.000122866926774859,0
0.37,0.000650828498774948,0.000375109621706716,-0.0324449673030092,-0.0187769333952845,-0.000311249796526124,-0.000683672821806641,0.015593054586984,0.0340896726248819,-3.04595970553431,-0.000118687172748257,0
0.38,0.000650795324867821,0.000375109590423307,-0.0324443437792058,-0.018776918027323,-0.000311253070650924,-0.000683639733856748,0.0155931056881252,0.0340890473446686,-3.04595990678111,-0.000115028858895898,0
0.39,0.000650766104622068,0.000375109563040436,-0.032443785104636,-0.0187769181678856,-0.00031125595395933,-0.000683610589688482,0.0155931651785805,0.0340884884897054,-3.04596008292127,-0.000111826934073104,0
0.4,0.000650740609666609,0.000375109539073253,-0.0324432964392436,-0.0187769183007496,-0.000311258469920793,-0.000683585160953327,0.0155932172271806,0.0340879996659179,-3.04596023708741,-0.00010902446198278,0
0.41,0.000650718199717177,0.000375109518095501,-0.0324428602763583,-0.0187769184272322,-0.000311260681126598,-0.000683562809399114,0.0155932636003873,0.0340875634040199,-3.04596037202052,-0.000106571609323862,0
0.42,0.000650698641943126,0.00037510949973467,-0.0324424776729325,-0.0187769185478226,-0.000311262611081044,-0.000683543302476758,0.0155933042796134,0.034087180718764,-3.04596049012045,-0.000104424759696176,0
0.43,0.000650681528890832,0.000375109483664146,-0.0324421393616239,-0.0187769186633675,-0.000311264299802319,-0.00068352623390991,0.0155933402222093,0.0340868423524998,-3.0459605934867,-0.000102545738015365,0
0.44,0.00065066651131433,0.000375109469598349,-0.0324418375859605,-0.0187769187745838,-0.000311265781612262,-0.000683511255449114,0.0155933722322109,0.0340865405556045,-3.04596068395742,-0.000100901131689703,0
0.45,0.000650653356382974,0.00037510945728705,-0.0324415692384271,-0.018776918881954,-0.000311267079594719,-0.000683498134803007,0.015593400661686,0.0340862722097221,-3.04596076314151,-9.9461696482359e-05,0
0.46,0.000650641889473784,0.000375109446511691,-0.0324413330348409,-0.018776918985832,-0.000311268211169586,-0.000683486697687387,0.0155934256816261,0.034086036014614,-3.04596083244719,-9.82018364867944e-05,0
0.47,0.000650631819548455,0.000375109437080413,-0.0324411209377431,-0.0187769190868148,-0.000311269204778792,-0.000683476653991997,0.0155934481021019,0.034085823950392,-3.04596089310657,-9.70991489877512e-05,0
0.48,0.000650623088399325,0.0003751094288257,-0.032440935725681,-0.0187769191850291,-0.000311270066551534,-0.000683467945423355,0.0155934676947132,0.0340856387660964,-3.04596094619859,-9.61340260976077e-05,0
0.49,0.00065061534678043,0.000375109421600974,-0.0324407649658575,-0.0187769192811977,-0.000311270830335333,-0.000683460224023599,0.0155934856795097,0.0340854680710937,-3.04596099266688,-9.52893060899175e-05,0
0.5,0.00065060859469177,0.000375109415277313,-0.032440612987914,-0.0187769193753248,-0.000311271496567049,-0.000683453489523169,0.0155935016712539,0.0340853161623545,-3.04596103333797,-9.45499682311863e-05,0
0.51,4.6552815552937,-0.00551484535715144,7.2370917749504,0.286088075237244,-0.901818854414248,4.56709968430732,-1.11281877588987,7.15674354143521,0.193767284485488,59.9560139099828,1854.84724167801
0.52,4.62370997771406,0.0393145402103279,8.81704623646521,-1.94485552765882,-3.54960570853177,2.96319741243192,-8.04998341238491,4.08907500784201,0.883697938989334,128.536582196853,1854.84724167801
0.53,4.64087379612935,0.0130929576217371,7.96037380612804,-0.619628545623852,-4.03743087561484,-2.28845645398188,-6.60711134348854,-4.48303138095044,2.08927509007345,201.805541411604,1854.84724167801
0.54,4.61074645068299,0.0109875717702326,9.4684659841537,-0.510132147410713,2.97253329040666,-3.52464883309577,6.51068375888775,-6.89369856409844,-2.43858548605977,275.168053873604,1854.84724167801
0.55,4.5295290977375,0.00636066373450572,13.5311379225361,-0.255154438913389,0.782184011775993,4.46148657702966,2.0665280205841,13.3748367917718,-0.172151046119402,344.169043078595,1854.84724167801
0.56,4.5396761142439,0.00891284254790792,13.0257697623291,-0.380537215126799,-2.25947466942635,-3.93745004783801,-6.13051659187154,-11.4992283562894,2.6225923080001,416.228880939238,1854.84724167801
0.57,4.5119860256073,0.0596694547386203,14.4123819379369,-2.92288333733498,1.60694735127704,4.21655055102249,2.20921026791047,14.5388923278494,-0.350888106279221,487.991851603631,1854.84724167801
0.58,4.53336346645324,0.0574775958117448,13.3457143183447,-2.80667190403476,1.44335809570187,-4.29783729340294,7.05789097616256,-11.6692618795009,-2.80491544737032,558.435802004893,1854.84724167801
0.59,4.49760501231263,0.00216400648187542,15.1360468797647,-0.0298409710718947,-4.49563231490343,0.13321268295391,-15.1304897434033,0.411200382730157,1.54165456232644,628.651626232283,1854.84724167801
0.6,4.48565444623372,0.0471026333380296,15.7360791190799,-2.26922059120069,-0.492411715685388,4.45879413870381,-4.1442350426125,15.3492300798787,0.120490707279993,698.920222473551,1854.84724167801
0.61,4.4577208173266,0.0510979582459656,17.135469032382,-2.44705004025199,3.193287952107,3.11075520436632,10.4088233842553,13.8299945269186,-0.787027152438587,768.348048512422,1854.84724167801
0.62,4.41432982793734,0.0946436145606326,19.3077435869769,-4.59166270212278,4.12334422354457,1.57901794092279,16.1451050971394,11.5415731247018,-1.18364081097847,837.456526503045,1854.84724167801
0.63,4.4393791650253,0.0837580748781619,18.0581858361557,-4.08001922150224,3.93209330928489,2.06246090703437,13.8677727030721,12.2649709660027,-1.06886098921479,908.056742632241,1854.84724167801
0.64,4.38841196580626,0.0941012628067224,20.6095184920618,-4.54111461728907,1.97182421621489,3.9215971095514,4.76145568348212,20.5597304023236,-0.444454458635407,976.565944597695,1854.84724167801
0.65,4.38403308477973,0.109168524657066,20.8315649491049,-5.31503981388216,-2.70192597865449,3.45416558101824,-17.3428025170395,12.7055478947937,0.688702849479879,1046.38566647943,1854.84724167801
0.66,4.3427625722213,0.0668471888258986,22.8983358885682,-3.20999979127712,-3.20122707058305,-2.93533653060536,-14.4315287736684,-18.06568189636,2.32828424100715,1115.73431309073,1854.84724167801
0.67,4.01017936484786,0.0530904451598087,22.3763968933279,-2.53234141955669,3.87705775603304,-1.02605082232942,22.3209921273209,-2.98147638679452,-1.81627383180292,1181.83403621471,1854.84724167801
0.68,3.6910216164283,0.101678638361021,21.6493362080311,-4.97190973946516,-2.54375279816295,2.67643434820997,-18.849128209456,11.7526171744529,0.787527218951602,1242.58434711854,1854.84724167801
0.69,3.37015424204091,0.0553062735746535,22.2977428372427,-2.65208895348586,2.06771116585,-2.66187320014727,16.033184273181,-15.7213203489793,-2.46475735368069,1298.27782175075,1854.84724167801
0.7,3.09626805086559,0.0812865561049443,21.8562824073974,-3.9347280793133,-2.48597525552801,1.84754171154993,-20.1416928689541,9.35368238196956,0.957917582406822,1349.31520761393,1854.84724167801
0.71,2.83099215268171,0.0918822655462892,22.2337346530568,-4.4367444354971,2.83245326569228,-0.0129389696832986,22.101432012126,5.0547364740236,-1.54291994491871,1396.10054914297,1854.84724167801
0.72,2.55725036458494,0.0600824035417942,24.0347542593748,-2.93024611452437,-1.4350342441465,-2.11750231180796,-10.5490111221384,-21.7939009574978,2.56948009025173,1439.54489817452,1854.84724167801
0.73,2.36987191567838,0.0767674532444337,22.3499652234538,-3.7243745803696,-1.47110239848653,1.85958163890858,-17.2712899860744,14.6660987901153,0.701668082472906,1478.92283676819,1854.84724167801
0.74,2.08444685414995,0.0888541611208209,26.6197743358681,-4.37566491572268,1.67390116925688,1.24533875924769,17.9023704744327,20.1807819606523,-0.888561676482936,1515.2885173591,1854.84724167801
0.75,1.96493341340569,0.0336584067798148,23.2327920742531,-1.57804590155179,1.54073422954538,-1.21993206424468,19.4171041192356,-12.8541403468161,-2.22338086851965,1548.54255657732,1854.84724167801
0.76,1.73411819678395,0.066539246050702,26.3117833290978,-3.29108369816492,-0.381063862498349,-1.69303978818575,-1.55303969724792,-26.4712908934281,2.95855701552126,1579.17705908655,1854.84724167801
0.77,1.59337140496253,0.077813931682925,25.4944552253054,-3.77489423408192,-1.43519091014725,-0.696501610584584,-20.5541066482972,-15.5481758931403,2.07141414231,1606.94680749609,1854.84724167801
0.78,1.4626974676241,0.0492040634494902,24.7933769705377,-2.39202639706474,1.38938555573378,-0.45990509800636,24.4609395090687,-4.70061381322957,-1.85683081812618,1632.65425008111,1854.84724167801
0.79,1.33484443684822,0.0348075255930709,24.6207458675934,-1.71966198958134,0.90756410687361,-0.979463437978804,18.4296043140021,-16.4160911688606,-2.36820778247542,1656.12767060565,1854.84724167801
0.8,1.1356257035466,0.041687241595324,28.5040345991067,-2.03386662343775,0.431803501373879,-1.05115617339613,13.6425305041255,-25.1097185032611,-2.71512793057905,1677.56199564102,1854.84724167801
0.81,1.09272635653631,0.0713091152806419,25.0314971500215,-3.4735093168237,0.180302881475893,-1.08010497227016,9.10212867519662,-23.5752490999726,-2.9110213270612,1697.19988639465,1854.84724167801
0.82,1.03750153722639,-0.0096278532578867,22.6451780999657,0.554932531910055,0.187722067243196,-1.02042273630855,3.34364128879034,-22.4038412828255,-2.96894140149884,1715.2045747697,1854.84724167801
0.83,0.917353854705891,0.0333510029483215,23.8907654294115,-1.62896279429779,0.186888936503765,-0.898734059415747,7.29230351931496,-22.8088689322938,-2.9002280253165,1731.8048192176,1854.84724167801
0.84,0.789638313043525,0.031461518886329,25.9321829002812,-1.56313855002582,0.297541397709835,-0.732111746419723,12.1359044574221,-22.970444817211,-2.71574624321554,1746.91356552622,1854.84724167801
0.85,0.707839656223483,0.040156001881882,26.032140302628,-2.01765114820345,0.434398748261474,-0.560309923987235,18.6118293129543,-18.3123743549823,-2.42543619238633,1760.71929376857,1854.84724167801
0.86,0.643319574600086,0.00298905268852953,25.585301934295,-0.169193002982902,0.572925756977488,-0.292617645557105,22.9155224671312,-11.3804714928557,-2.03835484991034,1773.30308164826,1854.84724167801
0.87,0.595996290102628,0.044749193030481,24.5897830707922,-2.26664385870584,0.596317234913654,-0.0402470301750174,24.5719644730592,2.45227808079401,-1.56324438451836,1784.78618126024,1854.84724167801
0.88,0.5015405988395,-0.00740115770797511,26.205571960189,0.336544137059507,0.420109526801094,0.274054255414258,22.3369668979204,13.7078507986497,-1.0075336379217,1795.29305257267,1854.84724167801
0.89,0.420339189135233,-0.0357621590898139,27.4230990111369,1.75058945256063,0.122060668705328,0.403813272566465,11.7580995930737,24.8362238829777,-0.378413023494105,1804.81502061272,1854.84724167801
0.9,0.38967914509529,0.00503368226228956,26.3371921055013,-0.293759663984984,-0.116923149438075,0.371758189156332,-8.50472632058649,24.9279684883102,0.317635405990253,1813.55376084443,1854.84724167801
0.91,0.365544231346821,0.0412594313410781,25.1292256781317,-2.10836226643263,-0.301880383763783,0.210221691659445,-23.105460766621,10.1025173789076,1.07490352444245,1821.54211350197,1854.84724167801
0.92,0.307005263762623,-0.0407477790868908,25.8203267518392,1.99485911399165,-0.278931335241489,-0.134573116553314,-25.1521969350069,-6.16731106715453,1.88835805940318,1828.85061331528,1854.84724167801
0.93,0.274869757211959,0.00483721551983624,25.3899942411347,-0.28564613179196,0.132391467098554,0.240934185044877,11.5810902492826,22.5967198928391,-0.484856906056508,1835.43814792421,1854.84724167801
0.94,0.219858666481375,-0.00299490294165377,26.2624782086979,0.109221670138197,-0.0934953124236369,0.199011128395889,-10.7428535494657,23.9649908961028,0.425575481035231,1841.4221424533,1854.84724167801
0.95,0.228335942106128,0.0367020511684614,24.1248942382998,-1.86780381565776,-0.217057847456223,0.0798137449010906,-24.0352592854619,2.79383682121098,1.37780843112553,1846.86654873384,1854.84724167801
0.96,0.207418759462024,-0.0220395733125487,23.6065598498949,1.0845071089416,-0.129178047027233,-0.163772148837323,-17.2719420410249,-16.1284172114777,2.36787959751944,1851.79112619021,1854.84724167801
0.97,0.151522939988342,-0.00670921560557013,24.9343292043513,0.329354492043808,0.0441311879430754,-0.145109107803355,5.87364646434111,-24.2348823901485,-2.89060616222602,1856.29686758036,1854.84724167801
