t,iq,id,vq,vd,ia,ib,va,vb,theta_e,omega,r
0,0,0,0,0,0,0,0,0,0,0,0
0.01,0.00123172871326716,0.000698408286060688,-0.0600002258996404,-0.0349918198965401,-0.00141043214002081,-0.000124943729419728,0.0692567591274001,0.00528733229985209,2.17496352238858,-0.00366829633505519,0
0.02,0.00137745021126702,0.000782838422584597,-0.0674721861033613,-0.0392219372874211,-0.00157832382367987,-0.000138199088270743,0.0778091910497713,0.00604864036996795,2.1749370859268,-0.00381244291437732,0
0.03,0.00141048345887066,0.000802102736493518,-0.0691721105374574,-0.040187155568209,-0.00161645671066258,-0.000141067679473512,0.0797566706002383,0.00621786487749186,2.17491124693399,-0.00360147263833719,0
0.04,0.00139083415129556,0.000792125422600972,-0.0683406713537703,-0.0396872394971102,-0.00159462089455861,-0.000138081585223756,0.0787885615782785,0.00615523390382865,2.17488866917919,-0.00326108895814156,0
0.05,0.00140761482381209,0.000802136988416068,-0.0692446888035024,-0.0401888588457929,-0.00161412143281596,-0.000139338582326958,0.0798176472367434,0.00625415800981537,2.17486699630455,-0.0030489901074909,0
0.06,0.00140639275712323,0.000802184508750919,-0.0692803347105559,-0.0401912233495632,-0.00161314537785336,-0.000138573313733108,0.0798484524476457,0.00627087343654723,2.17484714243572,-0.00280131683199414,0
0.07,0.0014431333097462,0.000823495187997434,-0.071119993772737,-0.0412589500973294,-0.00165549099469193,-0.000141871917051569,0.0819691326966167,0.00643550793119848,2.17482916502333,-0.00269878554051932,0
0.08,0.00140429505784124,0.000802288801648417,-0.0693442902693832,-0.0401964512911267,-0.00161148288131348,-0.000137240132473683,0.0799042784569684,0.00630012489048063,2.17481245986127,-0.00236877813605548,0
0.09,0.00140305561785648,0.000802166372332763,-0.0693565080373029,-0.0401903429478093,-0.00161039527290498,-0.000136612666709367,0.0799109603752396,0.00631088625296573,2.17479737692643,-0.00217962244006554,0
0.1,0.0014021309705067,0.000802160448664751,-0.0693775042922388,-0.0401900430962573,-0.00160963273202236,-0.000136070246043458,0.0799281584728735,0.00632195768997611,2.17478361483497,-0.00200769364111678,0
0.11,0.00140128874522113,0.000802155624051502,-0.0693967332090488,-0.0401897782743863,-0.00160893847781974,-0.000135575688351421,0.0799439144883097,0.00633209239651924,2.17477105704242,-0.00185081403605191,0
0.12,0.0014005196770605,0.000802151223674332,-0.0694142496549944,-0.0401895803206761,-0.0016083045189284,-0.000135124112838374,0.0799582922564684,0.00634128701031136,2.17475959815759,-0.00170766266721166,0
0.13,0.00146437589869571,0.000838557936107486,-0.0725178017587741,-0.0420136223765821,-0.00168154133520842,-0.00014140340475112,0.0835487643518081,0.00660151591779848,2.17474818819838,-0.00177297394676493,0
0.14,0.001588169313438,0.000910450708649325,-0.0789076659589081,-0.0456156077502144,-0.00182426484661199,-0.000152512394387869,0.0908538872787402,0.00726461174778201,2.17473806495125,-0.00204686650550603,0
0.15,0.00139958458609425,0.000802735260856929,-0.0695159076848285,-0.0402188364450884,-0.00160787067821675,-0.000134062652466962,0.0800587779207972,0.00637246452095569,2.17472868903229,-0.00132518856712848,0
0.16,0.00139793254767997,0.000802139646273363,-0.0694737194154418,-0.0401889793741391,-0.0016061736672868,-0.000133602284789753,0.0800071464693381,0.0063724615639796,2.17472093285312,-0.00122465318614199,0
0.17,0.00139745118981976,0.000802133666748365,-0.0694842013492745,-0.0401886820790209,-0.00160577500259257,-0.000133322497383812,0.080015650572935,0.00637809280154311,2.17471386021499,-0.00113627552634041,0
0.18,0.00139701826096846,0.000802131167534531,-0.0694940648314503,-0.0401885476630028,-0.00160541809095738,-0.000133068345734109,0.0800237342420247,0.00638328818251723,2.17470740651893,-0.00105565185130829,0
0.19,0.00139662301664523,0.000802128902987584,-0.0695030525291841,-0.0401884493869464,-0.00160509225341017,-0.000132836311579165,0.0800311140166299,0.00638800158569589,2.17470151757338,-0.000982083514064759,0
0.2,0.00139626246408034,0.000802126836441836,-0.0695112564082772,-0.0401883481176391,-0.00160479501302173,-0.000132624645222846,0.0800378436728619,0.00639231351549037,2.17469614395806,-0.000914952995271619,0
0.21,0.00139593346006939,0.000802124950523725,-0.0695187397354925,-0.0401882496814165,-0.00160452377927453,-0.00013243150281018,0.0800439788706373,0.0063962515135029,2.17469124057765,-0.000853696933770794,0
0.22,0.00139563355988601,0.000802123229462056,-0.0695255813202295,-0.0401881511709721,-0.00160427653685492,-0.000132255442305834,0.0800495830813761,0.00639985944803596,2.17468676628264,-0.000797801267690298,0
0.23,0.00139535935344892,0.000802121658860297,-0.0695317941618641,-0.0401880829504157,-0.00160405047603735,-0.000132094478289346,0.0800546844783419,0.00640311671535528,2.17468268352471,-0.000746796919644797,0
0.24,0.00139510936140229,0.000802120225576089,-0.0695374717543654,-0.0401880175625573,-0.00160384437653356,-0.000131947726059301,0.0800593446395089,0.00640609627541704,2.17467895804096,-0.000700255860236558,0
0.25,0.00139488125542985,0.000802118917614533,-0.0695426504428568,-0.0401879491940264,-0.00160365631943513,-0.000131813822797271,0.0800635903746502,0.00640882105845041,2.17467555856754,-0.000657787516047268,0
0.26,0.00140573362966434,0.000808253919875561,-0.0700754508811125,-0.0404953202001399,-0.00161607343963089,-0.000132921308611794,0.0806767165706842,0.00645810945064853,2.1746724861175,-0.000654973240425198,0
0.27,0.00135275744311744,0.000778416849547562,-0.0675599011045815,-0.0390004103559656,-0.00155552436617918,-0.000127394810695105,0.0777572184359286,0.00625997015183213,2.17466943284222,-0.000447092728623908,0
0.28,0.00132441257455241,0.000761667703068409,-0.065831531317452,-0.0381612571240899,-0.00152268208913488,-0.000125082424656231,0.0758580394855929,0.00596907918307313,2.17466672937136,-0.00032273368068999,0
0.29,0.00139373172204046,0.000801892192044137,-0.0695390806779536,-0.0401766000316209,-0.00160258277633973,-0.000131330292249922,0.0800542771383323,0.00641526643989741,2.17466469715427,-0.000520746170085756,0
0.3,0.00139171139158849,0.000800855962114025,-0.0694472099258647,-0.0401246683273043,-0.00160033147486708,-0.000131034499581266,0.07994917196232,0.00640576907191331,2.17466372597308,-0.000502324251815138,0
0.31,0.00139393518689147,0.00080210664894608,-0.0695631227725713,-0.040187338658724,-0.00160287243014602,-0.000131264443835572,0.0800801844350333,0.00641983638372889,2.17466166953698,-0.00048423057275345,0
0.32,0.00139382276433705,0.000802112808533494,-0.0695666600421397,-0.0401876494267604,-0.00160278363495657,-0.000131192513174597,0.0800832847048532,0.00642143805920836,2.1746597830124,-0.000460708648584636,0
0.33,0.00139370743078149,0.000802112183799325,-0.0695692769845293,-0.0401876168011894,-0.00160268856936487,-0.000131124778901781,0.0800854313670259,0.00642281301820134,2.17465806151361,-0.000439202859230319,0
0.34,0.00139360199252794,0.00080211157935082,-0.0695716527106132,-0.0401875841359578,-0.00160260164063673,-0.000131062888473374,0.0800873784867078,0.0064240630988245,2.17465649066002,-0.000419578744431947,0
0.35,0.00139350586749979,0.000802111027589382,-0.0695738223174181,-0.0401875514329699,-0.00160252238981502,-0.000131006463498487,0.0800891550386116,0.00642520717444154,2.17465505726901,-0.000401671895316191,0
0.36,0.00139341824078979,0.000802110524095137,-0.0695758038645736,-0.0401875186953419,-0.00160245014521909,-0.000130955025551564,0.0800907759666426,0.00642625453519605,2.17465374931164,-0.00038533203891172,0
0.37,0.00139333791421807,0.000802110064648835,-0.069577591044239,-0.0401875191460382,-0.00160238391964393,-0.000130907880110653,0.0800922550129192,0.00642717337389201,2.17465255581136,-0.000370422050813141,0
0.38,0.00139326495583825,0.000802109645397138,-0.0695792362596177,-0.0401874863464695,-0.00160232376826167,-0.000130865052897235,0.0800935976516886,0.00642804733405015,2.17465146675253,-0.000356816806096847,0
0.39,0.00139319851671611,0.000802109262824803,-0.0695807416902679,-0.0401874535199247,-0.00160226899149603,-0.000130826050080333,0.0800948246001955,0.00642884957420916,2.17465047299523,-0.000344402129266299,0
0.4,0.00139313739866698,0.00080210891372352,-0.069582088201671,-0.0401874509743977,-0.00160221860234781,-0.000130790180556307,0.0800959373703802,0.00642954361404281,2.17464956620013,-0.000333073836094399,0
0.41,0.00139308201900004,0.000802108595165608,-0.0695833338440824,-0.0401874181005032,-0.00160217294367699,-0.000130757671473488,0.0800969493799064,0.00643021169747832,2.1746487387575,-0.000322736859312463,0
0.42,0.00139303126191994,0.00080210830447913,-0.0695844567515716,-0.0401874184182462,-0.00160213109641785,-0.000130727880314701,0.080097878741902,0.0064307885661162,2.17464798372275,-0.000313304450795043,0
0.43,0.00139298492862206,0.000802108039226398,-0.0695854779771383,-0.0401874187152449,-0.00160209289637961,-0.000130700686034217,0.0800987239681084,0.00643131300606527,2.1746472947604,-0.000304697453578506,0
0.44,0.00139294293671675,0.000802107797181489,-0.0695864216050532,-0.0401873857831326,-0.00160205827524504,-0.000130676034403073,0.0800994860643474,0.0064318255655731,2.17464666608793,-0.000296843637560225,0
0.45,0.00139290428683008,0.000802107576314962,-0.0695872635129097,-0.0401873860450264,-0.00160202640991972,-0.000130653351167121,0.0801001829240146,0.00643225744871224,2.17464609242981,-0.000289677093352106,0
0.46,0.00139286912940304,0.000802107374773639,-0.0695880347065418,-0.0401873862904593,-0.00160199742382369,-0.000130632715551994,0.0801008212430931,0.00643265321306136,2.17464556897175,-0.000283137679166343,0
0.47,0.0013928373820457,0.000802107190866853,-0.069588752521418,-0.0401873533135935,-0.00160197124875714,-0.000130614075120987,0.080101396464754,0.00643304968386339,2.17464509132087,-0.000277170516104295,0
0.48,0.00139280804538473,0.000802107023052368,-0.0695893866264455,-0.040187353532304,-0.00160194706173243,-0.000130596857256223,0.0801019213605162,0.00643337464546936,2.17464465546885,-0.000271725527606541,0
0.49,0.00139278126986083,0.000802106869921365,-0.0695899623804425,-0.0401873537388912,-0.00160192498626749,-0.000130581142674214,0.0801023979722588,0.00643366953923286,2.17464425775764,-0.000266757019216095,0
0.5,0.00139275682264336,0.000802106730189533,-0.0695904844795031,-0.0401873539344401,-0.00160190483041618,-0.000130566794876328,0.0801028301876201,0.0064339367635388,2.1746438948498,-0.000262223295109179,0
0.51,4.50575060396674,0.00551845478221746,14.7142103912617,-0.263431970971756,-0.999794438136587,4.39343032720003,-3.53934031617028,14.2846229900539,0.224980008608589,68.996291564934,4471.30591337403
0.52,4.60245209859021,-0.0397498447732993,9.88124736375265,2.02281748525842,-3.93426405831939,2.38866315946665,-7.33706793649099,6.92085790474358,1.01650429317146,147.573722764489,4471.30591337403
0.53,4.56573186408614,0.0422289672755705,11.7194379163515,-2.0798877276474,-3.0838261856455,-3.36715113963359,-6.28829149901287,-10.1058670117055,2.40933482663873,233.384611072944,4471.30591337403
0.54,4.51433366831307,0.0436007285708107,14.2916699964116,-2.12231851137448,4.30036709411652,-1.37402778292024,14.2814100976881,-2.19029513347098,-1.87040042795162,312.146746946154,4471.30591337403
0.55,4.47336329359367,-0.00680346733287429,16.3426548355038,0.405051248937427,-2.96163658735508,3.35257127710638,-10.4971977513402,12.5321695231089,0.722042712564938,395.12958102602,4471.30591337403
0.56,4.45871086292797,0.119085097229864,17.0779170988025,-5.8953017886632,3.00426585666689,-3.29676667085187,16.08572042297,-8.22553548937895,-2.37588021489903,475.946924198748,4471.30591337403
0.57,4.36332343729617,-0.0273176201384446,21.8500374339991,1.44966732891953,-4.30596725580937,0.705679575108699,-21.2964471138007,5.09774573324193,1.40209557045435,556.37873650311,4471.30591337403
0.58,4.39769555712056,-0.0253238075589051,20.134291101637,1.36874743186292,2.13537610259013,3.84454632028724,11.0702969543597,16.8734013476828,-0.512760867243691,636.518133052611,4471.30591337403
0.59,4.35770827210715,0.084296099262106,22.1366347094455,-4.08836855669887,4.17823129374165,-1.24060891224425,22.4265319113672,-1.94833778982505,-1.84008518451108,715.697092281208,4471.30591337403
0.6,4.29502900854494,0.0918057373138345,25.2737497344474,-4.48785369317621,2.20352487890029,-3.68784226692435,17.226637747645,-19.0301394719599,-2.58163397092903,796.384141462923,4471.30591337403
0.61,4.29205901656059,-0.00968553028571495,25.4255446595997,0.653928716428962,1.69490894274378,-3.94324081016404,9.38627171594796,-23.6386092500778,-2.73789773984713,875.097463995162,4471.30591337403
0.62,4.33909061929891,0.101307789443665,23.0773054333045,-4.91335206310386,3.13613320708689,-3.00043983077426,20.3555219114722,-11.9312942411797,-2.31074239321191,955.111313301565,4471.30591337403
0.63,4.32163258434583,0.062574067207005,23.9535967203036,-2.96922079331911,4.18268659763394,1.08883264735214,22.3016956248372,9.23176257361164,-1.30165126874437,1034.7077099135,4471.30591337403
0.64,4.27908438623121,0.0228402792600945,26.0844841183016,-0.958125831733553,-1.19897929681943,4.1077406817669,-8.36049382535028,24.726917717816,0.289330990962653,1113.79400873404,4471.30591337403
0.65,4.20885659873767,0.0217690765004575,29.5995192200984,-0.866363598197001,-2.66725939684871,-3.25586779082806,-17.9660193328925,-23.5394195611402,2.46041605694963,1192.39396900252,4471.30591337403
0.66,4.22592912366048,0.0446814529818934,28.749547779955,-2.06571811329457,3.73482116936782,1.97777254083588,24.277422309143,15.5373889344071,-1.07321677566718,1271.92653731461,4471.30591337403
0.67,4.2925173087003,0.136835413262691,25.4238740755357,-6.60849543537979,-3.41344159512442,-2.60630874082272,-15.5293517934134,-21.186902034147,2.25477550367241,1350.27184815436,4471.30591337403
0.68,4.15920904555277,0.135862631599666,32.0931657154907,-6.60264383599754,0.649113501269128,4.11049026294228,-2.58359652549019,32.663300816979,-0.123969050124776,1429.28463906328,4471.30591337403
0.69,4.17877946415666,0.0744428558203769,31.1185948504736,-3.52832827463698,3.88950599593836,-1.52953674568466,30.390645876054,-7.56470020012742,-1.92765505772595,1507.72126227621,4471.30591337403
0.7,4.17120038901202,0.112242258008938,31.5015653319887,-5.41298672088666,-0.174772484046131,-4.16904852317616,4.94004476271342,-31.5791862046576,3.12659812402493,1586.0056895211,4471.30591337403
0.71,4.12448036186603,0.122380356154911,33.8417032339398,-5.90162149137084,-2.65912865271251,-3.15520997959161,-16.4081487225492,-30.1805014786065,2.47097169427962,1664.08424993552,4471.30591337403
0.72,4.13618328981265,0.114570899584814,33.2607618601289,-5.4441098833282,-2.91521092090485,-2.9364406999962,-18.8026403318432,-27.9710087141901,2.38751505787894,1741.71079650157,4471.30591337403
0.73,4.08538246651104,0.170112806589074,35.8050781704081,-8.26934926087959,-1.24159944415691,-3.89585922293282,-1.4669595828652,-36.7183031956773,2.87468727955443,1819.69691304572,4471.30591337403
0.74,4.10944074256153,0.0898428896820103,34.6065094836813,-4.17453997475961,-4.05482208875187,-0.673789870821005,-33.2321019026907,-10.5197284078141,1.75732081884598,1897.215187476,4471.30591337403
0.75,4.11835081613208,0.131963080868175,34.1653763777413,-6.32847874024258,0.859884131725987,-4.02974279321321,14.3399553308936,-31.6494591945329,-2.89932951073458,1975.08976667307,4471.30591337403
0.76,4.04844094946,0.0432425829085172,37.665255395145,-1.89756629185633,2.65406151809888,3.05740110230696,22.9396603365399,29.9339974854289,-0.704215005619621,2052.58027529006,4471.30591337403
0.77,4.04190791565539,0.0447211272897485,37.9963268631725,-1.95549329390499,-3.59219689248589,-1.85341335472648,-32.6560841851818,-19.5224223600933,2.05819053115796,2129.87517291112,4471.30591337403
0.78,4.03275631312699,0.174169853961556,38.45829916189,-8.38761447655413,3.258581745917,2.38224759927911,24.8004878176727,30.566790067624,-0.896359689147242,2206.87019766524,4471.30591337403
0.79,3.97878571160891,0.274106236597195,41.1612483105128,-13.3204026024944,-0.845692413391655,-3.89752155988604,7.23796264107825,-42.6531755532761,2.99670599401696,2283.62775051468,4471.30591337403
0.8,4.01928670001901,0.2522877762813,39.1405224624061,-12.3237643384525,-3.60372589876701,1.79763020267422,-40.8498287020991,3.89193539373263,1.17077584568223,2360.80625132806,4471.30591337403
0.81,3.91733529068247,0.287918522745029,44.2423721825144,-13.9972126419743,0.646866371234345,3.87427112540309,-9.87019657666276,45.3419086234667,-0.0920719603641935,2437.47187343322,4471.30591337403
0.82,3.9718627659919,0.255336922579751,41.5202316716334,-12.3510767469272,3.00741312897596,2.60698236426109,20.8919813109297,37.9473826736227,-0.792401647036875,2513.9710798,4471.30591337403
0.83,3.91934500801091,0.221910707301816,44.1502503462909,-10.6823317009928,3.27778829255142,2.16023460833495,29.0587247927932,34.9134262086507,-0.931524653207715,2590.48356138865,4471.30591337403
0.84,3.87307181361848,0.279730289655828,46.4679391473592,-13.5554996785234,1.45320917547679,-3.60098839219275,32.6212317563713,-35.7613783128425,-2.68592323546407,2666.68516734943,4471.30591337403
0.85,3.76515412561216,0.25226800703419,48,-12.2356870701624,3.69593805763972,-0.761621041645804,49.2175263505284,5.59885149061673,-1.70712059317397,2742.90873283898,4471.30591337403
0.86,3.89376454642785,0.223919057741888,45.4410836102956,-10.846041940207,0.88246622287244,3.79905191500824,-2.96482124495055,46.62336903777,-0.170794540243218,2818.98305211399,4471.30591337403
0.87,3.8493845916488,0.31640051419756,47.6638457254947,-15.347522813776,-3.72420752334684,-1.02379165011953,-39.5026935270365,-30.7721603072024,1.92108204695874,2894.50815007418,4471.30591337403
0.88,3.8301467212463,0.24255628011074,48,-11.7039270864475,3.7557903465642,-0.789237814571836,49.1821857383172,4.7004803208338,-1.71467785181204,2970.32231819848,4471.30591337403
0.89,3.83228435502969,0.169819539437404,48,-8.11244768904429,-3.80457005953929,0.490396488402257,-48.5110184157423,-4.06114513099289,1.48689035399001,3046.0108225915,4471.30591337403
0.9,3.74807045878507,0.243566766184358,48,-11.8209865420133,3.35655928402123,1.68548708285105,35.4299683038261,34.4739476825086,-1.0405390475665,3121.56131355667,4471.30591337403
0.91,3.83435076558973,0.199652435182612,48,-9.56421309341566,-3.31465070328781,1.93783322389892,-47.0329225109531,13.5417270750426,1.09377988318345,3196.94264759457,4471.30591337403
0.92,3.70612725817119,0.343396595191153,48,-16.683995219638,1.51706021024707,3.39879813961252,-0.360631794546974,50.8156043081027,-0.327423425932242,3272.19756391521,4471.30591337403
0.93,3.81129971298329,0.292526663050203,48,-14.2796427807074,3.65456165358607,1.12060540375282,39.4608950647671,30.8341686872217,-1.1966640406855,3347.55020969405,4471.30591337403
0.94,3.70546984139624,0.321097531201571,48,-15.5622031830496,3.71761147527214,-0.113909125910544,47.0572211881025,18.2153809173599,-1.51498806643243,3422.52325084131,4471.30591337403
0.95,3.75323806022311,0.126819689160266,48,-5.93033983579336,3.63496945364367,0.943332518968525,44.3446050992568,19.3060852882962,-1.28310517345132,3497.74395467294,4471.30591337403
0.96,3.71620586838994,0.301243544665857,48,-14.7048952350224,2.05122623550855,3.11342330244702,10.1899913327103,49.1568715492786,-0.501674452888303,3572.62540649104,4471.30591337403
0.97,3.64401861739675,0.0494413930424416,48,-2.09338992452653,-2.65223618358663,2.49939179836894,-36.7910497430496,30.8998534006322,0.828625593834104,3647.52921488452,4471.30591337403
0.98,3.77838133808579,0.247106834251968,48,-11.9482657933559,-1.70700493949879,3.37984636633912,-34.6802569942978,35.270962990513,0.532989812435388,3722.37126454744,4471.30591337403
0.99,3.68910273917068,0.201156002212194,48,-9.54481617865425,-0.862007829331787,-3.59261537873919,0.747569977743037,-48.9340847979471,2.96057867556153,3796.99283154252,4471.30591337403
