t,iq,id,vq,vd,ia,ib,va,vb,theta_e,omega,r
0,0,0,0,0,0,0,0,0,0,0,0
0.01,0.000781099448007462,0.000447428961974283,-0.038502711594309,-0.0224022615315642,0.000312613920065927,0.000844145461796698,-0.0157520829071893,-0.0416676373931637,0.165522253972872,-0.00142479371934207,0
0.02,0.000864016419278951,0.000494961415950347,-0.0426619885260723,-0.0247821587333478,0.00034584466828268,0.000933757271181133,-0.0174146318956179,-0.0461620109226591,0.165511580482659,-0.00154131723594351,0
0.03,0.000894900035409789,0.000512634620704073,-0.0441829818251662,-0.0256670195386233,0.000358198762600333,0.000967126658815918,-0.018037335007475,-0.0478078060654027,0.165500518636555,-0.00155959894680862,0
0.04,0.000876939327817435,0.000502484988221289,-0.0433100548070445,-0.0251588376163162,0.000351156713486807,0.000947735569995021,-0.0176803998230365,-0.0468629002483941,0.165490026589329,-0.00148897296030093,0
0.05,0.000894993871829999,0.000512840205801618,-0.0442020253238816,-0.0256773121798369,0.000358406435639762,0.000967245539763249,-0.0180453562348456,-0.0478279052632602,0.165479473152181,-0.00148517495696342,0
0.06,0.000895374369291409,0.000513126789063882,-0.0442277607782985,-0.0256916817121944,0.000358636439268062,0.000967664336052602,-0.0180557853709095,-0.0478554693562058,0.165469125794092,-0.00144920579725891,0
0.07,0.000920134103043713,0.000527400991881011,-0.0454478809112099,-0.0264063693454741,0.00036864730672835,0.000994433374873886,-0.0185602303290569,-0.0491764585087363,0.1654591357513,-0.0014598868715709,0
0.08,0.000895832593041613,0.00051352872032101,-0.0442638097732779,-0.0257117929575565,0.00035897667586578,0.000968175359908808,-0.0180706374410644,-0.0478939789035196,0.165449220797509,-0.00137950228109534,0
0.09,0.000895012488786971,0.00051314024214994,-0.0442301746895068,-0.0256923525636906,0.000358737827602561,0.000967299040754896,-0.0180574600838421,-0.0478574285627813,0.165439650241111,-0.0013440515542256,0
0.1,0.000894867146824995,0.000513127601431353,-0.0442294329863846,-0.0256917077260209,0.000358758309937518,0.000967150257647785,-0.0180573922619046,-0.047856422483049,0.165430329397114,-0.0013107416313468,0
0.11,0.000894744028198806,0.000513125481938822,-0.0442296137650651,-0.0256916080669664,0.000358785274798565,0.00096702521311499,-0.0180576987320179,-0.047856420419596,0.165421249363815,-0.00127832706048542,0
0.12,0.000894624634866282,0.000513123701211209,-0.044229815047374,-0.0256915229778651,0.000358811731397344,0.000966903982547367,-0.0180580049752183,-0.0478564452123439,0.165412403851523,-0.00124675069315809,0
0.13,0.000937453300316561,0.000537714990562614,-0.0463346579649749,-0.0269227871195265,0.000376024273488035,0.00101319388425807,-0.0189263288089576,-0.0501351281321767,0.16540348051964,-0.00129485011711573,0
0.14,0.000987937011832577,0.00056695119713154,-0.0489097524822252,-0.0283865898258045,0.000396558553440441,0.00106779891036224,-0.019946621713506,-0.0529159205913428,0.16539481951662,-0.00135812920844834,0
0.15,0.000896947270037823,0.000514618729131934,-0.0443614765169418,-0.0257663636575088,0.000359929201608104,0.000969431695082961,-0.0181113970909868,-0.0479981602804395,0.165386314788713,-0.00115859734740393,0
0.16,0.000894241941422528,0.000513158690803008,-0.0442343406629418,-0.0256932780453539,0.000358942159903942,0.000966520055451144,-0.0180606201862486,-0.0478605832506157,0.165378361794836,-0.00112537091891823,0
0.17,0.000894063465910572,0.000513116493436173,-0.0442308816514989,-0.0256911589239074,0.000358937397493354,0.000966334290808805,-0.0180594697393365,-0.0478566828275462,0.165370623704005,-0.00109760955263632,0
0.18,0.000893959730377511,0.000513113849762343,-0.044230946789299,-0.0256910157342828,0.000358959150017515,0.000966228829508449,-0.0180596785219125,-0.0478565873733401,0.165363085743638,-0.00107069690432059,0
0.19,0.000893860581097456,0.000513112346275475,-0.0442311020248271,-0.0256909520707829,0.000358981082592362,0.000966128149202279,-0.0180599415975084,-0.0478565973939698,0.165355742481349,-0.00104448311986669,0
0.2,0.000893763992952661,0.000513110911427775,-0.0442312516091262,-0.0256908884161476,0.000359002476639273,0.000966030074217048,-0.0180601965365658,-0.0478566052659546,0.165348588880928,-0.00101894649179053,0
0.21,0.000893670094548183,0.000513109514406717,-0.0442314055643029,-0.0256908034635094,0.000359023285441012,0.000965934724593539,-0.0180604209075764,-0.0478566172794911,0.165341620043664,-0.000994069425983092,0
0.22,0.000893578512257979,0.000513108153429068,-0.0442315484823796,-0.025690739827722,0.000359043573448587,0.000965841729813865,-0.0180606595085418,-0.0478566251647702,0.165334831197421,-0.000969834884314425,0
0.23,0.000893489374687714,0.000513106827544517,-0.0442316901579866,-0.0256906761995105,0.000359063323145731,0.000965751214922448,-0.0180608899311142,-0.0478566349915704,0.165328217693339,-0.000946226271618644,0
0.24,0.000893402449006745,0.000513105535849228,-0.044231822086364,-0.0256906125788658,0.000359082576426663,0.000965662948505928,-0.0180611137916142,-0.0478566382894108,0.165321775002626,-0.000923227421430427,0
0.25,0.000893317735215072,0.00051310427746289,-0.0442319473592408,-0.025690548965296,0.000359101336770271,0.000965576928851505,-0.0180613307917049,-0.0478566380281935,0.165315498713733,-0.00090082258483378,0
0.26,0.000902195801855906,0.000518223394231118,-0.0446711472730912,-0.025946853418605,0.000362695586963977,0.000975174170295593,-0.0182421585788277,-0.0483319175225407,0.165309416704044,-0.000895791297342423,0
0.27,0.000870830946575223,0.000500255937159315,-0.0431382929169817,-0.0250472417675274,0.00035014011277719,0.000941278089408555,-0.0176073371488667,-0.0466718149901889,0.165303342073963,-0.000815869935516029,0
0.28,0.000865695319788171,0.000497270964402261,-0.042801905300403,-0.0248977823956193,0.000348046351622753,0.000935719261243878,-0.0175155378261702,-0.0463153171232183,0.16529752134176,-0.00078567712846652,0
0.29,0.000892217604326012,0.000512658389468411,-0.0441940529621347,-0.0256682264829316,0.000358865259178375,0.000964409976885573,-0.0180466736404483,-0.0478151622240706,0.165291971527858,-0.000815379079744298,0
0.3,0.000888396947388743,0.000510545472608817,-0.0440102837129675,-0.0255624216943189,0.000357414648209083,0.000960291926955848,-0.0179727891445897,-0.0476163976560407,0.165286915327628,-0.000790343699926912,0
0.31,0.000892730261644328,0.00051302631751458,-0.0442262746675911,-0.0256866482218273,0.000359153870440598,0.000964972445132844,-0.0180600409109061,-0.0478497877753027,0.165281555967119,-0.000779413827076182,0
0.32,0.000892785715770915,0.000513094437760544,-0.0442325507474182,-0.0256900474541105,0.000359216992416447,0.000965036470142282,-0.0180626118412201,-0.0478564430070893,0.165276318928277,-0.000760953326550138,0
0.33,0.000892720431252229,0.000513095342233528,-0.0442328168146618,-0.0256901011926019,0.000359233549004583,0.000964970391186423,-0.0180628652487851,-0.0478566221295422,0.165271216691431,-0.000742746273371645,0
0.34,0.000892653400395882,0.000513094399059602,-0.044232906239848,-0.0256900618158733,0.000359248442611572,0.000964902332915526,-0.0180630495664569,-0.047856614076701,0.165266246221947,-0.000725003086496722,0
0.35,0.000892588244362518,0.000513093429372736,-0.0442329990252234,-0.0256899982492296,0.000359262877109135,0.00096483616555916,-0.0180632033276837,-0.0478566076770344,0.165261404129492,-0.000707717987632935,0
0.36,0.000892524589545081,0.000513092483284133,-0.0442330788086129,-0.0256899559660272,0.000359276966637303,0.000964771527662997,-0.0180633742366359,-0.047856594212424,0.165256687098438,-0.000690879322611209,0
0.37,0.000892462564541343,0.000513091561563135,-0.0442331542475597,-0.0256899136838736,0.000359290693961749,0.000964708545047411,-0.0180635400311287,-0.047856578662887,0.165252091898775,-0.000674475566023275,0
0.38,0.000892402169351302,0.000513090663620418,-0.0442332275696795,-0.0256898714025535,0.000359304061581782,0.000964647216493256,-0.018063700495047,-0.0478565631688698,0.165247615383898,-0.000658495485214014,0
0.39,0.000892343287559638,0.000513089788844221,-0.0442332951138295,-0.0256898291220702,0.000359317091043745,0.000964587425976936,-0.018063856377302,-0.0478565440637799,0.165243254488376,-0.000642928137504916,0
0.4,0.000892286035581671,0.000513088936637308,-0.044233364769445,-0.0256897868418769,0.00035932976553022,0.000964529287164291,-0.0180640065224784,-0.0478565290755996,0.16523900622599,-0.000627762862839509,0
0.41,0.000892230297002081,0.000513088106418241,-0.0442334328296667,-0.0256897445621549,0.000359342106462109,0.000964472684092013,-0.0180641516797269,-0.0478565144954919,0.165234867687603,-0.00061298927648965,0
0.42,0.000892175955405545,0.000513087297620262,-0.0442334954058425,-0.0256897022829742,0.000359354135198669,0.00096441750082559,-0.0180642926243293,-0.0478564964366296,0.165230836039288,-0.000598597261941804,0
0.43,0.000892122894372756,0.000513086509691245,-0.0442335486775093,-0.0256896570942328,0.000359365873039867,0.000964363621454823,-0.0180644272462314,-0.0478564706021084,0.165226908520707,-0.000584576963971628,0
0.44,0.000892071346742273,0.000513085742093124,-0.0442336061505787,-0.0256896148157843,0.000359377283785218,0.000964311274598085,-0.0180645591933099,-0.047856451222581,0.165223082441843,-0.000570918781895781,0
0.45,0.000892021079679522,0.00051308499430183,-0.0442336580471632,-0.0256895725377918,0.000359388407771209,0.0009642602295698,-0.0180646873289501,-0.0478564281274219,0.165219355182747,-0.000557613362996749,0
0.46,0.000891971964591609,0.000513084265806603,-0.0442336997108757,-0.0256895515257366,0.000359399268133141,0.000964210358532347,-0.0180648335169522,-0.0478564001750048,0.165215724191311,-0.000544651596118331,0
0.47,0.000891924375080049,0.000513083556110376,-0.0442337516174822,-0.0256895092464037,0.000359409805361482,0.000964162029029782,-0.0180649525546929,-0.0478563805220878,0.165212186981369,-0.000532024605426208,0
0.48,0.000891877949720899,0.000513082864728059,-0.044233797355293,-0.0256894669673201,0.000359420080782162,0.000964114883614215,-0.0180650682351719,-0.0478563564345714,0.165208741130312,-0.000519723744331577,0
0.49,0.000891832559922274,0.000513082191187912,-0.0442338321995608,-0.0256894459508728,0.000359430117376941,0.000964068794523557,-0.0180652024211472,-0.0478563267061388,0.165205384278676,-0.000507740589568781,0
0.5,0.000891788579283671,0.000513081535029226,-0.0442338764440947,-0.0256894036703732,0.000359439855490995,0.000964024129372988,-0.0180653099375191,-0.0478563043189943,0.165202114127699,-0.000496066935427944,0
0.51,4.63321122160526,0.0132395811527781,8.34075221018882,-0.658628827938497,-0.400718349711839,4.61586896637266,-1.40111125203169,8.24856512517126,0.0894536205559296,27.5773595015589,3360.27579480651
0.52,4.60552767805918,-0.059642065170755,9.72640027469923,2.99562517090103,-1.8728661283384,4.20794662925158,-1.08723601941329,10.1190192363833,0.405804204932919,58.7216980831641,3360.27579480651
0.53,4.64896033041571,0.0201560224405904,7.55628781792932,-0.994451250297713,-3.77362692713933,2.71532285995397,-6.72988446214704,3.57702026870935,0.951403595413125,90.2728640167083,3360.27579480651
0.54,4.64407974095745,-0.00299838013399012,7.80183853690538,0.170767673237961,-4.58284551767201,-0.751673194818364,-7.72731096392655,-1.08927105026506,1.73272204480429,123.267590248785,3360.27579480651
0.55,4.60171355528168,-0.00251673969612654,9.92172054617115,0.147706861739872,-1.6883377080143,-4.28080480313444,-3.78263583735399,-9.1735501325978,2.7653786181988,158.600984332679,3360.27579480651
0.56,4.58612929960812,0.0211313225860734,10.7024720825466,-1.03068361772447,3.60515494842178,-2.83476388494496,9.07684870295668,-5.76333540765837,-2.23252521553969,191.486101838134,3360.27579480651
0.57,4.56230359819746,0.0174494524936397,11.8954292410386,-0.838271172375747,3.00385217957158,3.43391768812254,7.16462990075508,9.53268135270443,-0.714869097315114,222.664348884288,3360.27579480651
0.58,4.60863326583948,0.0305561522533811,9.5806288376087,-1.49521519892551,-3.95874945949987,2.3598171484995,-9.01884958979854,3.56152628681974,1.03987828004071,256.810789290577,3360.27579480651
0.59,4.58841043444656,0.07213526282615,10.5934673789281,-3.56869783805059,-0.521909397065777,-4.55920216620578,2.51226766007188,-10.8924591609002,3.04333483924845,289.127008004883,3360.27579480651
0.6,4.63695571328569,0.0196544237722933,8.1678669091873,-0.934868998472102,3.92137624013531,2.47478341812952,6.38650295127203,5.17693055235386,-1.00358336884868,321.888959613747,3360.27579480651
0.61,4.62521503102256,-0.00366385005391209,8.756592501458,0.236951566695107,-4.60635530087103,0.417274908341701,-8.69869136492108,1.03287308968582,1.47966396805342,354.704369651674,3360.27579480651
0.62,4.56293018292916,0.0307642837102731,11.8726355349705,-1.48904008793583,3.95778701823497,-2.2709469861115,11.0697833265031,-4.54275379412083,-2.08498025673989,387.942588974686,3360.27579480651
0.63,4.58789435804885,0.0667744550465701,10.6263112041595,-3.27650279564377,-3.4829205655039,2.98705503847071,-10.2625738670583,4.28176809281852,0.876443111243972,419.661752283493,3360.27579480651
0.64,4.55087066918038,0.00010106275295807,12.4793388649062,0.0594686363327524,3.66262292968325,-2.70104000947385,10.0084669903088,-7.45439625508096,-2.20620157551708,453.050048491977,3360.27579480651
0.65,4.57659705353298,0.0650692643104427,11.1949922293123,-3.19372074158257,-4.29524887524403,1.58123739497886,-11.6202503479245,0.705326194847266,1.23227347711034,485.939372278153,3360.27579480651
0.66,4.54534502194062,0.0314619926867612,12.7595470275907,-1.49548108150363,4.46268212373665,0.863492610243723,12.2158707370276,3.97680853834672,-1.37274467090299,518.015578017953,3360.27579480651
0.67,4.53663943435052,0.0484855416901311,13.1968193166429,-2.34038242367474,-2.58827094805131,-3.72616447631217,-5.47611780950173,-12.2329703548085,2.54517323290358,550.315965147552,3360.27579480651
0.68,4.5811405287511,0.108376608666766,10.9737685129496,-5.33507801137699,-1.76316665356935,4.22963797330375,-9.33514481073819,7.85759022384281,0.418608507369897,582.953107681236,3360.27579480651
0.69,4.57730661575625,0.0582209359785396,11.16750401918,-2.82036574045961,4.55969253270925,0.405375799953183,10.8246859440921,3.93621431582865,-1.46940646865672,615.59214893532,3360.27579480651
0.7,4.50787272095052,0.0424503030560728,14.6412295724521,-2.02734588463215,0.0607080172360495,-4.50766381101815,2.3618294123053,-14.5910073866183,-3.11870908626131,648.176998394189,3360.27579480651
0.71,4.53650744532996,0.0986507464764568,13.2115816481447,-4.83457049014451,-4.47887734578628,-0.727522846869431,-12.1128240826402,-7.15530951201839,1.75356666229031,680.665735075789,3360.27579480651
0.72,4.58325254964821,0.0563619578290493,10.8764688927604,-2.70905147883908,-2.467936751904,3.86246926107492,-8.23318244865165,7.60600041134625,0.580866904503697,713.138804702007,3360.27579480651
0.73,4.49448383028074,0.0407408763105234,15.317063568253,-1.9248348356293,1.59472493116925,4.20224905420476,3.49879896294219,15.0358182788723,-0.353639689906148,745.829261236179,3360.27579480651
0.74,4.55657269649301,0.024029359588696,12.2147920924952,-1.10274484353681,3.96377000446678,2.2475452165056,10.0446235175006,7.03723883668185,-1.04970480330366,778.666956711904,3360.27579480651
0.75,4.5452222155437,0.0828693111076548,12.7845270975968,-4.03737781263438,4.54139638427663,0.204037232569394,12.5043578204748,4.83586478395219,-1.50766805679023,810.953688010117,3360.27579480651
0.76,4.50313236156185,0.0562532545301857,14.8912320507702,-2.68821247116521,4.43850431284558,-0.762263051211365,15.1285889858433,0.317920709353111,-1.7283845017618,843.030986946016,3360.27579480651
0.77,4.51584929702071,0.138528304527521,14.2576271398866,-6.82539701673577,4.45188413314161,-0.769943263909552,15.0733658071494,4.76021211081555,-1.71138360893504,875.85338271725,3360.27579480651
0.78,4.57188293777028,0.121841303365866,11.4581889106939,-5.97171875928989,4.55582098201474,0.401813488717283,10.7000665698595,7.24293403627138,-1.45618230614293,908.128270625257,3360.27579480651
0.79,4.53624548796656,0.084416200390798,13.2422925376511,-4.08119695088141,3.77475402152539,2.51711765695672,8.55181514551204,10.9032535475245,-0.964073823630487,940.447379440507,3360.27579480651
0.8,4.45687993840388,0.0804922543321915,17.2128857046164,-3.89800371919182,1.11092661388719,4.31695492759788,0.196156888734137,17.6476454449318,-0.233816928255803,972.957380243995,3360.27579480651
0.81,4.49224030150111,0.0114470053429907,15.4472113684461,-0.441463630783514,-2.99739813994177,3.34603621484223,-10.6643048951131,11.1840882642629,0.733041108838906,1005.2976280643,3360.27579480651
0.82,4.47843943543335,0.0512935357350086,16.1396537307616,-2.41700218680746,-4.19920969708694,-1.55746227034359,-14.200684919975,-8.04182006286595,1.9374154280208,1037.42086963166,3360.27579480651
0.83,4.55989682246612,0.0870700053856281,12.0692286109788,-4.22025503893478,0.984240452980584,-4.45325846410143,6.93181522698946,-10.7436850994713,-2.90498124534732,1070.01958070349,3360.27579480651
0.84,4.50734794628991,0.0922376346390872,14.6990750881504,-4.47168371806964,4.27572584083746,1.42928717344084,12.3383895323193,9.1554851029471,-1.22773355075586,1102.16720475289,3360.27579480651
0.85,4.54324253322916,0.0610810980369501,12.9068203231545,-2.88510049184188,-2.83251711830199,3.5526933994937,-10.4125468830007,8.15405930267447,0.686528204787421,1134.20098930512,3360.27579480651
0.86,4.48223655096653,0.116949205428545,15.9596444791255,-5.68915913227585,-1.45553467456601,-4.2409362676898,0.642008186139912,-16.931172700713,2.83706476086106,1166.5188829907,3360.27579480651
0.87,4.48517397336116,0.129046865330134,15.8152709437982,-6.29944112414863,3.97478298053319,2.08195555246302,10.7107475456005,13.2319930666841,-1.05953362769494,1198.88119976828,3360.27579480651
0.88,4.47971116289926,0.123712411161387,16.0909096815395,-6.03404592515845,-4.4786741499523,0.156827045590507,-16.1350789948365,-5.91492269068402,1.56340336870103,1231.18897338354,3360.27579480651
0.89,4.44732369699699,0.0599772747419778,17.7128710883006,-2.84209420963774,4.24453194238453,-1.32899733988969,17.786062407242,-2.34078741728183,-1.86074976697092,1263.37904557678,3360.27579480651
0.9,4.44443898973618,0.0991897992163231,17.8597510203907,-4.80059708181136,-4.16193742854921,1.56241908289578,-18.4427650196647,1.37144350291071,1.23398319702531,1295.49423920909,3360.27579480651
0.91,4.47207994477694,0.0744774928834602,16.4803227691599,-3.55312947021198,4.23094405695539,-1.45057172050755,16.772588273338,-1.70471411704809,-1.88443337171738,1327.58615807128,3360.27579480651
0.92,4.52480106230044,0.0629049696811705,13.8468983789059,-2.9579379133081,-4.50404299511188,-0.437468155171783,-13.4352521467636,-4.46989833974062,1.68152186300328,1359.62347033978,3360.27579480651
0.93,4.4593755111083,0.0780520728444012,17.1208650396356,-3.7039587065941,3.25432886993385,3.04983043487057,9.70591367740034,14.5821318569139,-0.80032431687399,1391.6264237894,3360.27579480651
0.94,4.41598803177211,0.140622875275422,19.2929411677999,-6.83592411043887,0.276949377264668,-4.40953785925894,8.62696664884572,-18.5613276407581,-3.0470348721871,1423.82337013735,3360.27579480651
0.95,4.44906738450729,0.0557903044545749,17.6417111411673,-2.61705616319735,-4.16639922380548,1.56154752019615,-17.4835648445513,3.52191926030183,1.22474410783627,1456.08255694568,3360.27579480651
0.96,4.46581621955237,0.139516585233233,16.8069439327214,-6.78079022359271,2.45812023147844,3.73103528688333,3.0277019746524,17.8685618102492,-0.551327152629057,1487.99456093433,3360.27579480651
0.97,4.42320097373185,0.162655785101943,18.9405115369131,-7.92191712222566,3.75336226358757,-2.34594021166915,20.368430671738,-2.57425331736282,-2.09265589683792,1519.99196137207,3360.27579480651
0.98,4.45825889464489,0.0955366215174351,17.1904072211487,-4.58831994163739,-1.22731593473404,-4.28706137279129,0.0610431634305693,-17.7921065095718,2.88419245686823,1552.18401076011,3360.27579480651
