t,iq,id,vq,vd,ia,ib,va,vb,theta_e,omega,r
0,0,0,0,0,0,0,0,0,0,0,0
0.01,0.00100597353576404,0.000570021553533438,-0.0484511537358797,-0.0285533739563263,-0.000920612667203085,-0.000699556747616304,0.0453499248165259,0.0332594916040987,2.73611815061203,-0.00323916989233405,0
0.02,0.0011180055987958,0.000634867409128426,-0.0542567311969881,-0.0318016167237382,-0.00102441029357659,-0.000776901986434913,0.0506256964302465,0.0373118555874443,2.73609474152651,-0.00335306303331467,0
0.03,0.00114844829618725,0.00065256332038563,-0.0558237702809374,-0.0326880334873313,-0.00105269841614363,-0.000797871180565386,0.0520592716725855,0.0384009517403891,2.73607178344373,-0.00319002969849221,0
0.04,0.00112979274366896,0.000642976254085581,-0.055068002940438,-0.0322078109976113,-0.00103654517752826,-0.000784489771703797,0.0513206142908433,0.0378948886515904,2.73605157193026,-0.00288927954620471,0
0.05,0.00114609421244955,0.000652626937698079,-0.0559496519535611,-0.0326912316930692,-0.00105185973043743,-0.000795641232656795,0.052113397030401,0.0385132968374086,2.73603214784666,-0.00271863938069663,0
0.06,0.00114514202885906,0.000652710697674523,-0.0560116331998628,-0.0326954068713736,-0.00105157524476366,-0.00079471443029459,0.0521423772036044,0.0385676701883543,2.73601425797236,-0.00250625329095663,0
0.07,0.00117618240637252,0.000670770255831465,-0.0575666364570473,-0.0336000535733075,-0.0010804299598625,-0.000816093677833604,0.053587804914423,0.0396387234602821,2.73599800977308,-0.00242371048100064,0
0.08,0.00114348181962723,0.000652868762541359,-0.056121145990391,-0.0327033316603981,-0.00105109039297539,-0.000793093486743598,0.0521940833480475,0.0386635305219511,2.73598280898099,-0.00213294470275108,0
0.09,0.00114229562840689,0.000652700470530472,-0.0561475460987247,-0.0326949044425634,-0.00105047861543621,-0.000792055481276032,0.0521972895673871,0.0386903950772684,2.73596903991643,-0.00196791322730936,0
0.1,0.00114149679464918,0.000652695447908852,-0.0561852669727449,-0.0326946672374591,-0.00105016877091817,-0.000791310199923839,0.0522124445403687,0.0387244899990397,2.73595642317518,-0.00181768976370905,0
0.11,0.00114076757730518,0.000652692215130763,-0.0562199668713818,-0.0326945028523332,-0.00104988719038034,-0.000790629294042606,0.0522264343051095,0.0387558350646013,2.73594486085556,-0.00168003093413371,0
0.12,0.00114009959441385,0.000652689264290699,-0.0562517787564976,-0.0326943414321603,-0.00104962925455045,-0.000790005562572079,0.0522392503676167,0.0387845754905489,2.73593426482125,-0.00155387661435438,0
0.13,0.0011934708070214,0.000683154283332161,-0.0588216375473347,-0.0342203995456054,-0.00109869206512443,-0.00082701154047571,0.054656011649415,0.0405430780699973,2.73592374877194,-0.0016155668463699,0
0.14,0.00128274083365611,0.000735143482332658,-0.0635140448667917,-0.0368246259635281,-0.00118169906533481,-0.00088850847206529,0.0589010695904779,0.0438263730394411,2.73591432186514,-0.0018141521626192,0
0.15,0.00113973027279005,0.000653439003689479,-0.0564056876705149,-0.0327318935239605,-0.0010501950730442,-0.000789340189532033,0.0523356083990881,0.0389096716607177,2.73590554649371,-0.00121694649846281,0
0.16,0.00113784193967105,0.000652686186296063,-0.0563606113079001,-0.0326941783411323,-0.00104876389539364,-0.000787894554604131,0.0522834496448863,0.0388827557875287,2.73589822871391,-0.0011248869956435,0
0.17,0.0011374051530669,0.000652677419632918,-0.0563800307875217,-0.0326937520481577,-0.00104858873486918,-0.000787489657981157,0.0522909825802891,0.0389004169049151,2.73589152974941,-0.00104508097328543,0
0.18,0.00113701772696127,0.00065267564445502,-0.056398427892829,-0.0326936661640537,-0.00104843903324902,-0.000787127945031059,0.0522984032402357,0.0389170334757278,2.73588539070293,-0.000971990166828477,0
0.19,0.00113666312998115,0.000652674074914393,-0.0564153070481929,-0.0326935860516366,-0.0010483020693166,-0.000786796854715643,0.052305210339103,0.0389322797899101,2.73587976470932,-0.00090500815619804,0
0.2,0.00113633810248667,0.000652672636875367,-0.0564307696424843,-0.0326935029832622,-0.00104817652318476,-0.00078649337589909,0.0523114374966457,0.0389462502276436,2.73587460889119,-0.000843623964852698,0
0.21,0.00113604000437667,0.000652671318855467,-0.0564449256468051,-0.0326934498663236,-0.00104806137404125,-0.000786215045800735,0.0523171598434928,0.0389590308060351,2.73586988395476,-0.000787369767877587,0
0.22,0.00113576693555981,0.000652670110846738,-0.0564579017728589,-0.0326933966938519,-0.00104795589176117,-0.000785960084499625,0.0523224011898257,0.0389707479233626,2.73586555389068,-0.000735816841847115,0
0.23,0.00113551668414498,0.000652669003677073,-0.0564697906321704,-0.032693343470022,-0.00104785922143398,-0.000785726428464899,0.0523271993508118,0.0389814849561993,2.73586158569866,-0.000688572292597205,0
0.24,0.00113528738748301,0.000652667988937697,-0.0564806852644851,-0.032693287287254,-0.00104777064441597,-0.0007855123376893,0.0523315895327968,0.0389913269659244,2.73585794913617,-0.000645276060864488,0
0.25,0.00113507741576738,0.000652667058919929,-0.0564906748842078,-0.0326932339691519,-0.00104768953253204,-0.000785316288515098,0.052335613360363,0.0390003521834043,2.73585461648859,-0.000605598178218834,0
0.26,0.00114489911533807,0.000658240462100103,-0.0569700311836376,-0.0329724048287763,-0.00105668942352558,-0.000792137584297593,0.052781437851223,0.0393304430640545,2.73585159970988,-0.000604309713406121,0
0.27,0.00110165882366473,0.000633848304132216,-0.0549567428178823,-0.031750572395047,-0.00101721302946188,-0.000762032472472546,0.0508642760049429,0.0379627166448474,2.73584858017058,-0.000419459952392877,0
0.28,0.00108469570657374,0.000623774304385902,-0.0537726534792258,-0.0312459336589214,-0.00100126355119972,-0.000750420188767964,0.0499333445797723,0.0370738146336782,2.73584593065355,-0.00032982096649078,0
0.29,0.00113389986357733,0.000652398575039188,-0.0564994359899995,-0.0326797734142307,-0.00104698651021001,-0.000784329043687732,0.0523271234447797,0.039013151751535,2.73584385575995,-0.000475756226313988,0
0.3,0.00113151617017987,0.000651168452341308,-0.0563941267679568,-0.0326181690788292,-0.0010449162780315,-0.000782623260967811,0.0522289981305144,0.0389406502546914,2.73584273970251,-0.000454468167704609,0
0.31,0.00113417109217896,0.000652649431777714,-0.05653102860546,-0.0326923556993553,-0.00104732653651185,-0.000784475922544652,0.0523512774471837,0.0390370473526432,2.73584069243596,-0.000439723306894297,0
0.32,0.00113407990253661,0.00065266251837937,-0.05653799219135,-0.0326930129871276,-0.00104730404985956,-0.000784384991813664,0.0523547037667245,0.0390430871308119,2.73583880211017,-0.000417313879167325,0
0.33,0.0011339710167717,0.000652662159786861,-0.0565431825962863,-0.0326929922545926,-0.00104726210068168,-0.000784283274188412,0.0523568010800916,0.0390477735771905,2.73583706962083,-0.000396688135095909,0
0.34,0.00113387074572741,0.000652661717643127,-0.0565479130895254,-0.0326929627641802,-0.00104722336120397,-0.000784189656551247,0.0523587031749616,0.0390520484855386,2.73583548191816,-0.000377785231432214,0
0.35,0.00113377920583629,0.000652661311391387,-0.056552263169988,-0.0326929361560192,-0.00104718799669477,-0.000784104186031607,0.0523604525945113,0.0390559796733748,2.73583402690273,-0.000360462070781602,0
0.36,0.00113369492114353,0.000652660939068355,-0.0565562272556191,-0.032692936553022,-0.00104715543152808,-0.000784025495652699,0.0523620697296149,0.0390595519108976,2.7358326934862,-0.000344586639840517,0
0.37,0.00113361804958267,0.000652660597849887,-0.0565598758495376,-0.0326929098957762,-0.00104712573347081,-0.000783953720973758,0.0523635331334553,0.0390628507837047,2.73583147150578,-0.000330037949145981,0
0.38,0.00113354746444892,0.000652660285138566,-0.0565632099876394,-0.0326928832182042,-0.00104709846275322,-0.000783887818029829,0.0523648684154102,0.0390658660861589,2.73583035164897,-0.000316705120471059,0
0.39,0.00113348262111485,0.000652659998553478,-0.0565662549603725,-0.0326928835452376,-0.00104707340894141,-0.000783827278403237,0.052366110720212,0.0390686099417785,2.73582932538127,-0.000304486541894702,0
0.4,0.00113342356109768,0.000652659735912274,-0.0565690609934328,-0.032692856828527,-0.00104705059258184,-0.000783772132897342,0.052367230517318,0.0390711494230124,2.73582838488067,-0.00029328909339512,0
0.41,0.00113336907872722,0.000652659495214951,-0.0565716119445704,-0.0326928571173986,-0.00104702954157896,-0.000783721267014098,0.0523682713744006,0.0390734479891759,2.73582752297969,-0.000283027437171358,0
0.42,0.00113331902013899,0.00065265927462874,-0.0565739405823105,-0.0326928573893381,-0.00104701019868532,-0.000783674533219398,0.0523692216531275,0.0390755460708612,2.73582673310999,-0.00027362336726668,0
0.43,0.00113327346429437,0.000652659072473645,-0.05657608789817,-0.0326928277154766,-0.00104699259826266,-0.000783631998414512,0.0523700702694791,0.0390774928298261,2.73582600925127,-0.000265005213545498,0
0.44,0.00113323155477864,0.000652658887209536,-0.0565780450605696,-0.0326928279571824,-0.00104697640518867,-0.000783592870550653,0.0523708689528927,0.0390792562343849,2.735825345887,-0.000257107295482359,0
0.45,0.00113319313772255,0.0006526587174259,-0.056579835468874,-0.0326928281854223,-0.00104696156140645,-0.000783557003510825,0.0523715996377696,0.0390808693330582,2.73582473796168,-0.000249869421600748,0
0.46,0.00113315829209172,0.000652658561829403,-0.0565814916263047,-0.0326928013844868,-0.00104694810053948,-0.000783524465503294,0.0523722505124576,0.0390823724111456,2.73582418084203,-0.00024323643074102,0
0.47,0.00113312604504767,0.00065265841923401,-0.0565829910213981,-0.0326928015896909,-0.00104693564083112,-0.000783494358703329,0.0523728625042434,0.0390837232338749,2.73582367028203,-0.000237157771668481,0
0.48,0.00113309635914069,0.000652658288554141,-0.0565843557600554,-0.0326928017849403,-0.00104692416955754,-0.000783466645054249,0.0523734196681744,0.0390849525724567,2.73582320239114,-0.000231587117811536,0
0.49,0.00113306935078611,0.000652658168794474,-0.0565856135914051,-0.0326928019698155,-0.00104691373455754,-0.000783441428174313,0.0523739330962501,0.0390860857362681,2.73582277360271,-0.000226482014195899,0
0.5,0.00113304474970331,0.000652658059042145,-0.0565867711419249,-0.0326927751324618,-0.0010469042308713,-0.000783418456667099,0.0523743807131179,0.0390871393049898,2.7358223806493,-0.000221803553894147,0
0.51,4.57599290056358,0.0369080656456196,11.2020589255385,-1.83753332627863,-0.949824400629911,4.47648375840749,-4.20778686386157,10.5431106702308,0.217145481607163,66.7844108455266,5518.95522377434
0.52,4.60239075625846,-0.0307459295835892,9.88398143737324,1.56683737235951,-3.85131651672527,2.51998156213064,-7.36784934035495,6.77221267412597,0.984712021785084,143.038770143661,5518.95522377434
0.53,4.55514635985632,0.00242482826631951,12.2482760834193,-0.0902910237347069,-3.30692944268064,-3.13266370691722,-8.82534492320516,-8.49362740359413,2.32967181395663,225.516420373258,5518.95522377434
0.54,4.50523551419973,-0.0405190189516491,14.7460483835723,2.07889851910105,4.10347705798233,-1.86017871827305,12.4998944909117,-8.09446722764707,-2.00539933414907,304.007199311814,5518.95522377434
0.55,4.4297996349664,0.0259067896623055,18.520305399809,-1.24726028162676,-2.12354676207293,3.88771721155084,-10.0640675140353,15.5971765196544,0.505784277152481,383.333893166405,5518.95522377434
0.56,4.4526116513179,0.0682454541590811,17.3821401670692,-3.3340669505792,1.90596715846715,-4.02463627552975,10.6705618577211,-14.1206908067252,-2.68398176244564,460.05524674007,5518.95522377434
0.57,4.47392556377948,0.0422951237853443,16.3190372399285,-2.02363721730808,-3.70296220851983,2.5111490815978,-14.7121619664016,7.34563641217111,0.984341940126326,538.696376360394,5518.95522377434
0.58,4.41171072286742,0.104078764205402,19.4325325139157,-5.10651776324873,3.89673741339277,2.07110149980316,14.4372543547844,13.9737443180425,-1.05868321109124,616.856130074677,5518.95522377434
0.59,4.36944314348641,0.095118245809839,21.5487340937074,-4.64010196420134,2.43049683102694,-3.63232240023024,16.1698839679181,-14.9804318944268,-2.53012089914666,694.757559117348,5518.95522377434
0.6,4.44303284936257,0.10745103345168,17.8722219247375,-5.28139441725407,-1.36981014799538,-4.22796721647101,-0.0336501038364974,-18.6362096786922,2.85245590225583,773.508303071456,5518.95522377434
0.61,4.33936716112847,0.107606740185165,23.0585141002152,-5.26241546301225,-2.6069272137013,-3.47067962682772,-9.10240808569545,-21.8296645887343,2.52216225731293,850.837582789966,5518.95522377434
0.62,4.41732211488807,0.111722831390384,19.1639189049817,-5.45844582292754,-1.75482350128113,-4.0553435288622,-2.10073556566243,-19.8150783163154,2.75848888837633,928.173835580713,5518.95522377434
0.63,4.36981844302511,0.0647237480917022,21.5423244631583,-3.07124897720739,1.72639985900293,-4.01485316237146,11.6052097865609,-18.4071567431229,-2.72068140403143,1005.00479756548,5518.95522377434
0.64,4.29640601492345,0.125521509353415,25.2162300612741,-6.12793500390496,4.22047295276647,0.813921586731431,23.2743819716076,11.4766279784131,-1.3510771933769,1082.60410294195,5518.95522377434
0.65,4.31582704678743,0.132691357334659,24.2486279935612,-6.48323229641134,-2.26520449952957,3.67597860023752,-18.7618312621779,16.6739901723887,0.582994901242715,1159.59995566537,5518.95522377434
0.66,4.23886767162203,0.117378830236952,28.1000834281806,-5.70110328629389,-0.376629483638163,-4.22373379361965,3.97034215916421,-28.3963668537168,3.08034207992321,1236.25579881493,5518.95522377434
0.67,4.28200258548531,0.141601439922233,25.94698164888,-6.87656365338915,0.753233517721806,4.21761026858473,-3.09066174966458,26.6642231147954,-0.143672336676049,1312.43606689169,5518.95522377434
0.68,4.24654221581305,0.109203802936535,27.7237223807395,-5.26207017147288,1.28833167660235,-4.04786953252216,14.0560496136549,-24.4687889849966,-2.8077458881212,1389.08980060914,5518.95522377434
0.69,4.1930937079233,0.0989085140792441,30.399919593871,-4.74885460686628,-4.09088547846002,0.925458664505467,-30.7389081438921,1.35139095466242,1.3719007210999,1465.48820028412,5518.95522377434
0.7,4.14815743015297,0.118584653773578,32.6505759520895,-5.75791400514233,0.833595357460243,4.06526643228517,-0.0293350740495359,33.1543786421524,-0.173670000654797,1541.69912815574,5518.95522377434
0.71,4.26789206739073,0.152518533665696,26.6676525142889,-7.36447544009447,3.97412894531439,1.56347808683799,21.5125720648329,17.3956440606833,-1.16025930453932,1617.5382021269,5518.95522377434
0.72,4.14239184150412,0.123228814355778,32.946641939734,-5.911014911333,4.13947863066457,-0.198272982321749,33.0483457951226,5.31301727769096,-1.58891834752691,1693.60717637009,5518.95522377434
0.73,4.22689878441836,0.0776536604956799,28.7253658756454,-3.61397092008318,4.21027116463175,0.382518162936361,28.1619226874568,6.71666145094473,-1.46182226454278,1769.41782197156,5518.95522377434
0.74,4.18141593666113,0.133519775066584,31.0036075182488,-6.38655267892767,3.03327320020825,2.88120121799848,17.2422419601141,26.5465030927844,-0.779183466160109,1845.05733386515,5518.95522377434
0.75,4.06439098354629,0.225682331845946,36.8591577906432,-10.9979982665618,-1.59228575693452,3.74630920377687,-26.1440555299794,28.2142134278485,0.457364004957575,1920.6011294187,5518.95522377434
0.76,4.19555652775311,0.143538455429351,30.3052226428628,-6.93532146591747,2.10056993499668,3.63468070316319,8.13807274596704,30.0046158990654,-0.48983043678396,1996.16965461142,5518.95522377434
0.77,4.05700743846691,0.146536933865451,37.2369829726333,-7.00058771384311,-3.93888592692813,-0.982832683324114,-33.8414064921761,-17.039962907081,1.8514273892708,2071.15113802695,5518.95522377434
0.78,4.15148896504606,0.227327689204485,32.5173096913498,-11.0891399977271,4.15665076272066,-0.0937706881280998,32.1440743037589,12.1286001915624,-1.53864821599128,2146.59189959106,5518.95522377434
0.79,4.0562047443804,0.189833570724061,37.2860074687974,-9.25392088074893,-3.89439343413338,-1.15001456211941,-32.1938382235928,-20.9627809477538,1.90470234070524,2221.77969701181,5518.95522377434
0.8,4.05478849871095,0.12852124659305,37.3613086732443,-6.18276463835581,1.64226702014373,3.70955341175358,8.30459925207142,36.9476331530619,-0.385091885732954,2296.70358782592,5518.95522377434
0.81,3.97488953430466,0.141878667799939,41.3607258647384,-6.85008295606315,3.30381632290416,-2.2146498754461,38.7643971214068,-15.9673039795969,-2.12565276592197,2371.62875390851,5518.95522377434
0.82,3.98748765961356,0.170944893723687,40.7353581409877,-8.27868882894475,-0.865560033403785,-3.89616296127801,1.02819162631934,-41.5553716573513,2.96582991386112,2446.39338473698,5518.95522377434
0.83,4.04875116087885,0.213726115614924,37.6766855034513,-10.3395750783385,-3.1056560934685,-2.60633172184886,-20.488424658836,-33.2665582578928,2.32173843512365,2520.83718893552,5518.95522377434
0.84,3.96404022757945,0.261801528460399,41.9167128197652,-12.7604049892889,-3.30592146381598,-2.20296124370202,-25.5135919127041,-35.6215577539407,2.22454067691604,2595.46460943749,5518.95522377434
0.85,3.96412618931944,0.174697129336004,41.9168545769719,-8.3868571467168,-1.94282666187269,-3.45980347617652,-11.408127465006,-41.1972899371866,2.67397187831933,2669.93553783994,5518.95522377434
0.86,3.88496336880142,0.189163147830827,45.8793433607886,-9.18685902915382,-3.00686717229307,2.46728046269823,-42.3161169110132,19.9664412355367,0.932303447993287,2744.4322309778,5518.95522377434
0.87,3.8767891854068,0.212708888715201,46.2923226513757,-10.2720852609024,-2.57550174682435,-2.90543115759611,-20.7151321513209,-42.6541694564509,2.47113011396613,2818.47009461624,5518.95522377434
0.88,3.88778494826876,0.22917338872428,45.7467549040833,-11.029376606909,3.80262305055237,-0.84110057751274,46.9152921660145,3.65624035982291,-1.72960210614463,2892.47553212439,5518.95522377434
0.89,3.77601859829682,0.27838114887676,48,-13.4997808746013,-2.77360399514261,2.57738887187448,-45.9068876891215,19.4628298651722,0.895640986379308,2966.48068592223,5518.95522377434
0.9,3.79710437828904,0.152255181070342,48,-7.32347842236841,2.93083974760898,-2.41895879948789,42.6457161898479,-23.2158615359809,-2.22072636724538,3040.47649429018,5518.95522377434
0.91,3.88552233801925,0.212620648014998,45.872037281268,-10.2692041460092,-3.85368970891771,0.539969449682694,-46.5753640929125,-6.35891639661126,1.48625185585334,3113.94768601568,5518.95522377434
0.92,3.82380008477771,0.319092095510778,48,-15.4972696281989,2.27358529701265,3.09096696051112,11.9231561204651,49.0102409099987,-0.550937891278315,3187.34907774369,5518.95522377434
0.93,3.81628114137448,0.186455214803678,48,-8.95486628574044,3.30215112107443,-1.92212519642318,46.7347287151604,-14.1440716243892,-2.04911817807994,3261.00611296111,5518.95522377434
0.94,3.71712579078885,0.273198112052649,48,-13.3650469134608,-1.66876311039462,3.33270026170414,-36.0591450445064,34.3854989444425,0.537591893240711,3334.29565991052,5518.95522377434
0.95,3.67728882407951,0.294270699090744,48,-14.2411686416283,-0.124706060638866,3.68693595529992,-19.5934294033574,46.0750302061208,0.113664530855282,3407.21505716199,5518.95522377434
0.96,3.71177971851725,0.196925669791531,48,-9.35050505119993,-0.632575787402795,3.6627771255443,-19.7801681446708,44.7233372288011,0.224021451893133,3479.97589430015,5518.95522377434
0.97,3.71323235911373,0.289546142941578,48,-13.9795511724209,-2.64778061996088,2.61938720127843,-45.6739218067303,20.3302906465948,0.868608129282048,3552.87751647824,5518.95522377434
0.98,3.68377585963522,0.156794330503531,48,-7.51263359604581,-3.34685456479268,-1.54704672464526,-39.2352553598425,-28.6536978485568,2.04631927712272,3625.6284316101,5518.95522377434
0.99,3.82304977247945,0.249639795988413,48,-12.0793729897114,1.99877259910059,-3.26847635568639,37.5298225884333,-32.2710964843974,-2.52753201296446,3698.12582183552,5518.95522377434
