t,iq,id,vq,vd,ia,ib,va,vb,theta_e,omega,r
0,0,0,0,0,0,0,0,0,0,0,0
0.01,0.000586821976210622,0.000330059710516865,-0.0286230011696714,-0.0165217255065368,-0.00066385539719143,-0.000112229478703345,0.0326460997957359,0.0051454618645182,2.25062360620397,-0.00237266373232478,0
0.02,0.000653383452975784,0.000367495490861293,-0.0319971197857536,-0.0183956393342804,-0.000739155524299402,-0.000124947922446183,0.0364482424374371,0.00580868697061549,2.25060615153128,-0.00244407387591122,0
0.03,0.000679035157045961,0.000382394939769173,-0.0332933802748675,-0.019141452333044,-0.000768473339932782,-0.000129473396024269,0.0379252894168392,0.00604291239338435,2.25058902797087,-0.00234261926569407,0
0.04,0.000662566822371974,0.00037403235035639,-0.032549419202702,-0.0187228510278726,-0.000750410786421166,-0.000125613075927576,0.0370836522556928,0.00590021833697609,2.25057382003928,-0.00208272194749498,0
0.05,0.000677013971657704,0.000382712165197272,-0.0332953053396691,-0.0191573423395672,-0.000767104657043084,-0.000127933437195028,0.0379369537495781,0.00603064369529027,2.25055947496071,-0.00196726541289397,0
0.06,0.000676672512999016,0.000383139583854848,-0.0333233021148315,-0.0191787299627972,-0.000767109459389055,-0.000127376245354861,0.0379722515834705,0.0060311074027789,2.25054626278245,-0.00180188828116232,0
0.07,0.000693226421887638,0.00039315379394286,-0.0341625395500162,-0.019680017508793,-0.000786280390352457,-0.000129984327678342,0.038940133484415,0.00616832245174998,2.25053439671204,-0.00172629831598237,0
0.08,0.000675591360940024,0.00038365205664894,-0.0333485442120556,-0.0192043893176643,-0.000766593660724451,-0.000126280429540133,0.0380081512269152,0.00602614391130744,2.25052325217287,-0.00151175984075989,0
0.09,0.000673781265200558,0.000383178324916748,-0.0332947632593214,-0.0191806762616449,-0.000764889343677523,-0.000125503441984026,0.0379514778485861,0.00601040193802117,2.25051326565794,-0.0013800446553227,0
0.1,0.000672908390197861,0.000383152651789792,-0.0332831954302905,-0.019179378700552,-0.000764195462307216,-0.000124967802098329,0.0379417198873953,0.00600379524771881,2.25050418210173,-0.00126358464991879,0
0.11,0.000672155640243116,0.000383149398670151,-0.0332746864556577,-0.0191792263418293,-0.000763608990951161,-0.000124490864526204,0.0379350558155324,0.00599825158407745,2.25049591241352,-0.00115774140577139,0
0.12,0.000671472623115018,0.000383147434043996,-0.033267050498417,-0.0191791278397696,-0.000763077465652238,-0.000124057330380831,0.0379291000720337,0.00599324296888652,2.25048838326667,-0.0010613862138888,0
0.13,0.00070299965915493,0.000401242271974589,-0.0348140367744566,-0.0200848960792116,-0.00079897265944213,-0.000129794341383776,0.0397016636763019,0.00626083927119664,2.25048104399353,-0.00110672421645579,0
0.14,0.000732230494737993,0.000418617570097077,-0.0363556299663462,-0.0209546532211949,-0.000832629660328635,-0.000134647748437356,0.0414473978502713,0.00655305526542795,2.25047435470238,-0.00115019275498557,0
0.15,0.00067301298543966,0.000384902030929208,-0.0334095008098687,-0.0192669613359801,-0.000765380866509105,-0.000123645384732324,0.038095222813654,0.00601369622319154,2.25046815866704,-0.000817158741198526,0
0.16,0.000669361544704135,0.000383228309437842,-0.0332502725412001,-0.0191831802517577,-0.000761489477859613,-0.000122648235993784,0.0379187491763728,0.00597858591431438,2.250463082262,-0.000738389218887263,0
0.17,0.000668771695954336,0.000383144180395852,-0.0332372402543664,-0.0191789642103449,-0.000760978387720518,-0.000122339436418229,0.0379059903959892,0.00597349981228241,2.25045849115413,-0.000678883347522466,0
0.18,0.000668383242620807,0.000383139003973572,-0.0332325418524977,-0.0191787111838666,-0.000760673511129806,-0.000122096129535782,0.0379022019615578,0.0059705851570399,2.25045431283221,-0.000625370235307522,0
0.19,0.000668037746804212,0.000383137833703279,-0.0332286573656431,-0.0191786530435544,-0.000760404516811899,-0.000121876993654063,0.0378991668157802,0.00596804470140846,2.25045050875264,-0.000576685133459186,0
0.2,0.000667723624929534,0.000383136943763758,-0.0332251404924175,-0.0191786050248736,-0.000760160057999941,-0.000121677619910963,0.0378964219078175,0.0059657403585538,2.25044704531722,-0.000532361542954407,0
0.21,0.000667437733768939,0.000383136142057013,-0.0332219423472957,-0.0191785569470975,-0.000759937573285056,-0.000121496158451899,0.0378939230026189,0.00596364815961583,2.25044389201843,-0.000492007049982131,0
0.22,0.000667177329272584,0.000383135412426063,-0.0332190236282283,-0.0191785247204629,-0.000759734921906797,-0.000121330875647795,0.0378916497004671,0.00596172997067859,2.25044102108416,-0.000455266137550316,0
0.23,0.000666940266049766,0.000383134748031051,-0.0332163661384191,-0.0191784938855066,-0.000759550434227681,-0.000121180408861709,0.0378895789136751,0.00595998463943599,2.25043840723025,-0.000421815219317067,0
0.24,0.000666724448620317,0.000383134143030429,-0.0332139462362025,-0.0191784615366915,-0.000759382479730596,-0.000121043427834548,0.0378876905673983,0.00595839869132532,2.25043602743604,-0.000391359689913884,0
0.25,0.000666528014343521,0.00038313359212208,-0.0332117446528384,-0.0191784305883709,-0.000759229609045643,-0.00012091874985082,0.0378859716331441,0.00595695695224507,2.25043386074235,-0.000363631324909411,0
0.26,0.000673268947590903,0.000387014074399245,-0.0335436526676783,-0.0193726828942433,-0.000766911870513803,-0.000122135795073707,0.0382662311082388,0.00601440217990179,2.25043195044458,-0.000369095021751614,0
0.27,0.000651808122034463,0.000374850913097975,-0.0325141916481607,-0.0187638280092648,-0.000742575176175315,-0.00011810648893553,0.0370828551058627,0.00584086956644171,2.25042993223058,-0.000251220126333938,0
0.28,0.000650173402759346,0.000373871724290807,-0.0323394056848061,-0.018714818734226,-0.000740688452179622,-0.000117839453018097,0.0369161128087745,0.00576907404972798,2.25042828824293,-0.000223754543441291,0
0.29,0.000665040464033433,0.000382672458014327,-0.0331630781437608,-0.019155355266164,-0.000757783593193635,-0.000120337254460431,0.0378336566735796,0.00594405669958248,2.25042696717564,-0.000271680547080944,0
0.3,0.00066063024174323,0.000380372844605327,-0.0329521666113468,-0.0190402359591262,-0.000752908052532378,-0.000119353599236757,0.0375972590684259,0.00590101519256013,2.25042636198731,-0.000245094122680921,0
0.31,0.000665450637469815,0.000382994509475395,-0.0331891202788591,-0.0191714677868923,-0.00075830526268776,-0.000120343150105557,0.0378640502267035,0.00594782165318522,2.25042511103698,-0.00025042851641178,0
0.32,0.000665611425848051,0.000383124275679947,-0.0332008656939017,-0.0191779628963789,-0.000758512026268068,-0.000120342373424616,0.0378772751459113,0.00595010682259723,2.25042392459535,-0.000236406099108922,0
0.33,0.000665527848460451,0.000383130452414756,-0.03320046275763,-0.0191782704808471,-0.000758451031546576,-0.000120284219205464,0.037877161499347,0.00594957332165012,2.25042284181016,-0.00022261226510964,0
0.34,0.000665439081804056,0.000383130521586698,-0.0331994829117658,-0.0191782869301129,-0.000758382150190218,-0.000120227627591922,0.0378764155717252,0.00594890734676059,2.25042185584337,-0.000209997736397015,0
0.35,0.000665357773989536,0.000383130309011919,-0.033198566239973,-0.0191782714801146,-0.000758318882588049,-0.000120176010094745,0.0378756982063264,0.00594830923356667,2.25042095815808,-0.000198509745975122,0
0.36,0.000665283742132461,0.000383130101792048,-0.0331977301872934,-0.0191782560039229,-0.00075826126791002,-0.000120129022440226,0.0378750430516109,0.00594776485572145,2.25042014085651,-0.00018805029140748,0
0.37,0.000665216104828302,0.000383129912439865,-0.0331969560060331,-0.0191782549086657,-0.000758208629342342,-0.000120086095447911,0.0378744446233824,0.00594725095137208,2.25041939674083,-0.000178527428005469,0
0.38,0.000665154704033445,0.000383129740001672,-0.0331962588812417,-0.0191782393849939,-0.000758160844162769,-0.000120047125538126,0.037873896665214,0.00594679922405641,2.25041871925772,-0.000169857296478411,0
0.39,0.00066509870826384,0.00038312958299636,-0.0331956182384121,-0.0191782396980737,-0.000758117265435209,-0.000120011586733256,0.0378734022313531,0.00594637297596658,2.25041810244055,-0.000161963538736043,0
0.4,0.000665047901263088,0.000383129440044363,-0.0331950424160038,-0.0191782241343235,-0.00075807772475056,-0.000119979340055525,0.0378729479080292,0.00594600190904336,2.25041754085679,-0.000154776633797956,0
0.41,0.000665001451549842,0.000383129309888685,-0.0331945072790937,-0.0191782244087459,-0.000758041575187413,-0.000119949860135651,0.0378725348852047,0.00594564599879373,2.25041702956053,-0.000148233285970731,0
0.42,0.00066495937569805,0.000383129191384001,-0.0331940295198576,-0.0191782088117181,-0.000758008829465968,-0.000119923154857314,0.0378721562436655,0.00594534022966104,2.25041656404892,-0.000142275867422092,0
0.43,0.000664920842224211,0.000383129083487764,-0.0331935819944989,-0.0191782075986891,-0.000757978840692457,-0.000119898699329255,0.0378718099106026,0.00594504385342278,2.25041614022194,-0.00013685191064847,0
0.44,0.000664885801212465,0.000383128985250506,-0.033193175374606,-0.0191782078261465,-0.000757951569898331,-0.000119876460081531,0.0378714960737827,0.00594477350331153,2.2504157543469,-0.000131913646392812,0
0.45,0.00066485408632412,0.000383128895807846,-0.0331928133163949,-0.0191781921889971,-0.000757926887572442,-0.000119856330661218,0.0378712067211204,0.00594454480858829,2.25041540302549,-0.000127417582932507,0
0.46,0.000664825040701429,0.000383128814372755,-0.0331924738635766,-0.0191781923918999,-0.00075790428268313,-0.000119837896497311,0.0378709447194693,0.00594431919229148,2.25041508316358,-0.000123324123046514,0
0.47,0.000664798556215808,0.000383128740228128,-0.0331921615493706,-0.0191781925839538,-0.000757883671016829,-0.000119821088049932,0.0378707036493604,0.00594411172582251,2.25041479194397,-0.000119597215279256,0
0.48,0.000664774458244277,0.000383128672721638,-0.0331918766779095,-0.0191781927658948,-0.000757864916649685,-0.000119805794129422,0.0378704837630914,0.00594392250259093,2.25041452680201,-0.000116204036426997,0
0.49,0.000664752513956191,0.000383128611259268,-0.0331916158323172,-0.0191781929387036,-0.000757847838391807,-0.000119791867092038,0.0378702824174967,0.00594374928587268,2.25041428540249,-0.000113114702472206,0
0.5,0.000664732789845806,0.00038312855529954,-0.0331913898227164,-0.0191781772543309,-0.000757832487879595,-0.000119779347536728,0.0378700980730584,0.00594361111606358,2.25041406561943,-0.00011030200538112,0
0.51,4.668144372004,0.0159794234123404,6.59390728844707,-0.785590931033056,-0.790586603213493,4.60073907569909,-1.91274470660126,6.35910167609589,0.173600065379974,53.7478470337452,1301.12174938101
0.52,4.66297129542541,0.0321493425092743,6.8538836170213,-1.5768943779898,-3.30143843541344,3.29315033658653,-5.9916776143405,3.68267781387672,0.793549460894665,115.918560588669,1301.12174938101
0.53,4.62593503129256,0.0186223490866735,8.70719458731955,-0.888901992915181,-4.39805454107334,-1.43413317351261,-7.98828917304893,-3.57667728795942,1.8900335524603,183.493249622115,1301.12174938101
0.54,4.60725098751388,0.0746271950770414,9.64296066361346,-3.66843267444475,1.38346791607728,-4.39526420199941,6.52468907474589,-7.99202859884911,-2.82045081211337,245.265502831437,1301.12174938101
0.55,4.64628880620937,0.0144512564854091,7.69268660682745,-0.643486686059597,3.27563968316157,3.29520760736219,4.94855731465555,5.9248023468777,-0.77930991178696,310.35653568262,1301.12174938101
0.56,4.6204626646714,0.047244022194898,8.9857303773597,-2.27217189555977,-4.56993063831763,-0.683111406888617,-8.51407577134079,-3.66287172822696,1.72940188613482,374.525802980472,1301.12174938101
0.57,4.6112091094299,0.0372578700420028,9.45025591909332,-1.75378268268903,4.61088828146328,-0.0659306881050937,9.46097863029173,1.69498495321391,-1.57701459243602,437.945951793097,1301.12174938101
0.58,4.5037894974237,0.0492938571378825,11.562530622,-2.33426600847205,-4.32372589079453,-1.26172268852097,-10.3850937198058,-5.59381270814878,1.8656705239954,500.842829286512,1301.12174938101
0.59,4.18777734827436,0.0819022170537793,10.9955657478081,-3.98334526978926,2.15001864973803,3.59466366961595,2.00062454511143,11.5224566426705,-0.519476628171067,561.848954010024,1301.12174938101
0.6,3.87795756140141,0.0934979218099063,11.4615244435077,-4.53852935057543,2.30954846698577,-3.11661396198773,10.6242420653192,-6.25222134706232,-2.47974256323415,616.887993678495,1301.12174938101
0.61,3.58138286301437,0.0704110972803658,12.1674816246096,-3.39663343575145,-2.85907756482108,-2.15799360806514,-7.46649326954586,-10.1900052030361,2.23701164399368,669.021912817391,1301.12174938101
0.62,3.34170174651355,0.0398193699210441,11.1692407757255,-1.87437252519863,-2.85449286755666,1.73793745973231,-10.5642575494028,4.08187142120318,1.03581545007589,717.194747866383,1301.12174938101
0.63,3.10308268585735,0.0576097919795958,11.0584978155762,-2.76936408282534,-0.479656846620437,3.06632848091814,-4.63924893287413,10.4133145875448,0.17373281818355,761.743601336884,1301.12174938101
0.64,2.82902951604612,0.0975658678808933,13.5440623266526,-4.77088486412707,1.12248704872209,2.59864386299598,0.496643362613652,14.3511780723876,-0.373269784809124,803.017250071212,1301.12174938101
0.65,2.60641913905158,0.0474363676686054,14.3007198089045,-2.25272320358861,1.57066807182872,2.08054626132894,6.58497431865967,12.8927678218206,-0.628451428092866,841.165584905602,1301.12174938101
0.66,2.46279332511298,0.0865305136662888,11.9202120561391,-4.19815020577953,1.4882259426603,1.96418482725258,3.42759262534018,12.1641904542935,-0.613278324881904,876.596045105132,1301.12174938101
0.67,2.25680524010142,0.0810165523361057,13.2545407038767,-3.96490441088024,0.844090266114972,2.09457518274031,0.781714113406513,13.8127563977304,-0.34719687071036,909.811796638914,1301.12174938101
0.68,2.11356778812293,0.0668808237762945,12.0939910421844,-3.22825479676476,-0.253435514867086,2.09938378563423,-5.0196203802569,11.4668940694235,0.151770672253693,940.209764513794,1301.12174938101
0.69,1.92989380896296,0.0843886562473957,13.5739216906707,-4.14511052277987,-1.41656996979238,1.31337012295058,-13.0303445401293,5.62524777019148,0.866882403049608,968.813036947016,1301.12174938101
0.7,1.78579749869491,0.0488653126319338,13.6383190665692,-2.33314943902248,-1.75614775470232,-0.327727918825372,-12.8428173551215,-5.14872563352777,1.78264809437373,994.982973474938,1301.12174938101
0.71,1.65651906694977,0.074370136844842,13.4254997511985,-3.63029332829491,-0.493187563935868,-1.58314634926827,0.0967606336759292,-13.9073257889022,2.88446280172996,1019.44542907536,1301.12174938101
0.72,1.53861815615178,0.00382408224209047,13.1619075895094,-0.125328988888967,1.30685258959479,-0.812094060509173,11.2623807769426,-6.81251040258983,-2.12432604920338,1042.19306166007,1301.12174938101
0.73,1.40994044486164,0.0277136762265588,13.919404117431,-1.33657197180937,0.919184672929563,1.06948569086173,7.8329784436196,11.583638647764,-0.690309540069721,1063.16370912536,1301.12174938101
0.74,1.24463818340948,0.0440803716430493,16.8890570327782,-2.14405191973426,-0.940909563021963,0.815939017928949,-14.4897321598877,8.93783351968845,0.891813327588114,1082.53677072924,1301.12174938101
0.75,1.21246505070654,0.0605223414459456,13.5680721035525,-2.94127207901324,-0.371258088400548,1.15581221865668,-7.54028269099263,11.6570922184694,0.360675260924703,1100.56004539924,1301.12174938101
0.76,1.16396286699109,0.0294765092239285,11.4088591183282,-1.38861824423565,-0.953217925528157,-0.668620973932125,-8.34540442817754,-7.90218652907152,2.20780397972961,1117.33225082237,1301.12174938101
0.77,1.04822962991335,0.0695832457722171,12.9628118614883,-3.40262888270719,0.863729359010214,-0.597995635021093,12.8704127719293,-3.73695728500261,-2.11007937425807,1132.84002536407,1301.12174938101
0.78,0.941144529368129,0.0530493007720298,14.3677284619888,-2.58149719759098,0.0860107411715027,0.938706240458157,-2.07621561716337,14.4493971379314,-0.0350645525935042,1147.29233906695,1301.12174938101
0.79,0.841316582485331,0.0675842734818283,15.6997145526256,-3.34402332156801,-0.744335271979608,-0.397927416589893,-11.4005444753086,-11.3000493218227,2.14190476145764,1160.69228718028,1301.12174938101
0.8,0.75379219849529,0.0118534263712055,16.6992209800534,-0.581665097053682,0.71675368056223,-0.233682142299313,16.1277270239001,-4.37021014006764,-1.87023444391437,1173.01099653259,1301.12174938101
0.81,0.75349019252321,-0.00273738818146033,13.5850114519749,0.153953846293572,-0.355365333063118,0.664432422131596,-6.22741665654708,12.0745815547719,0.487497020906767,1184.43177757358,1301.12174938101
0.82,0.707814760604472,0.0380572765154849,12.9259818290909,-1.87575262449807,-0.188395565057742,-0.683342668572596,-0.929049060467031,-13.028289296663,2.92629406695044,1195.0676385049,1301.12174938101
0.83,0.621014714272398,0.0568872948265767,14.580181913298,-2.80348919783429,0.501654916266854,0.370456184508788,9.02556023769643,11.7889999025765,-0.843367699077817,1204.81423171327,1301.12174938101
0.84,0.548062413074486,0.00798013886181018,15.7247350064552,-0.347821004770555,-0.541633028968881,-0.0840818242623076,-15.4434989455042,-2.98104189752618,1.7393642771291,1213.93692893249,1301.12174938101
0.85,0.494046919960047,-0.00634798959431543,16.0904789286295,0.31169220637842,0.470075795039794,-0.152155851059379,15.1437913183932,-5.44667317627428,-1.89668542970223,1222.41701333854,1301.12174938101
0.86,0.492633180634806,-0.0175648329293921,13.993180725933,0.889811385161371,-0.368950966778159,0.326911544812453,-9.52256983219927,10.2918188344274,0.810098331833687,1230.23673389843,1301.12174938101
0.87,0.495348582138764,0.0234798653782263,11.8557603720962,-1.13498474185357,0.185354420164827,-0.459962238483144,5.97847185531581,-10.300733888418,-2.7111568893611,1237.43831054961,1301.12174938101
0.88,0.352123518224588,0.00620229217203407,17.1726529380125,-0.302597263886565,0.291481913801584,-0.197655595523159,14.5459516807904,-9.13273582962146,-2.14906447462564,1244.13360492019,1301.12174938101
0.89,0.410901466534168,-0.0110236441661892,12.5223179776507,0.55020178309678,-0.276371333217261,0.304270310918345,-7.75078498493817,9.850710718155,0.710565040959161,1250.2768956168,1301.12174938101
0.9,0.375166742658349,0.0375364623448093,12.6971102984474,-1.84796020349465,0.137298798192214,-0.351152546362991,7.42348809082757,-10.4653423933467,-2.66915258213391,1256.02925292928,1301.12174938101
0.91,0.29808773510615,-0.0152695706556306,15.0886905762433,0.747112144278799,-0.0955235440889843,0.282780321333365,-3.37215062602439,14.7260096433876,0.274585915061028,1261.30083393387,1301.12174938101
0.92,0.323188124644915,0.00867258418072506,12.445093151784,-0.434590603591412,0.0281873261387869,-0.322073364737003,1.848965748759,-12.3146473034849,-3.02746870198135,1266.25646463569,1301.12174938101
0.93,0.287465928859933,0.0349123646390824,12.9500059317038,-1.71478064593438,0.038182191019827,0.287049915082589,-1.56726579152006,12.9686855245073,-0.0113827707621392,1270.82095294009,1301.12174938101
0.94,0.244092638435742,-0.0248946460504495,13.9197656660906,1.22288929592134,-0.000716979422621184,-0.245357790748545,-2.66900057780788,-13.716113529153,3.03703339226445,1275.07125893093,1301.12174938101
0.95,0.228200395609464,-0.0174444726516946,13.6175110220071,0.886996639097143,0.0209691575398819,0.227903542347369,3.15211315786502,13.2773322663956,-0.168045860757795,1278.95408123929,1301.12174938101
0.96,0.164583191263851,0.0374407099605995,15.7865976013,-1.89164180948763,-0.0700414476720365,-0.153569623353554,-1.34931997357238,-15.8421686700304,2.93736783653496,1282.51086443306,1301.12174938101
0.97,0.217925191271409,-0.000403335185436851,12.1757959194453,0.0160798194878244,0.046128587752127,0.212987570205274,2.61499554964273,11.8916804156488,-0.215135487550812,1285.83826896184,1301.12174938101
