t,iq,id,vq,vd,ia,ib,va,vb,theta_e,omega,r
0,0,0,0,0,0,0,0,0,0,0,0
0.01,0.000910725108046341,0.000505183860949878,-0.0436490581477583,-0.0252969529776152,-0.000725004570390472,0.000747662576770546,0.0344332349970071,-0.0368717837211457,1.27646207541891,-0.00480595485086486,0
0.02,0.00100160282718744,0.000558901114991122,-0.0485247714532149,-0.0279868209599683,-0.000796362984875423,0.000825460281351258,0.0383175648191934,-0.0408617158029245,1.27642860594503,-0.00456955326244391,0
0.03,0.00103128703607801,0.000577674940718809,-0.0501660780775368,-0.0289269232102835,-0.000819297613831899,0.000852063793319727,0.0396142367393906,-0.0422387798551363,1.27639833056987,-0.00403813258930792,0
0.04,0.00100642801157298,0.000566961640854642,-0.0492100486873928,-0.028390451700923,-0.000798596522819664,0.000834617540206095,0.0388540006260685,-0.0414489236886494,1.2763741417012,-0.00331982366592763,0
0.05,0.00102305391932139,0.000577835655220041,-0.0501671562968566,-0.028934959385144,-0.000811333302895701,0.000849865658733652,0.0396110092230266,-0.042248590436445,1.27635270581339,-0.00291700656198106,0
0.06,0.00102015490457227,0.000578060626429897,-0.0501847670427327,-0.0289462332497791,-0.000808478384686156,0.000849254272080303,0.0396238249929688,-0.0422652073863425,1.27633459819034,-0.00247428206985049,0
0.07,0.00104672412640653,0.000594333212261121,-0.0515503627231171,-0.029761077116119,-0.000829168356159661,0.000872549827311668,0.0406935100842895,-0.0434419134594271,1.27631974113425,-0.00228607244204807,0
0.08,0.00101565302994266,0.000578401865125903,-0.050209563487411,-0.0289633275959431,-0.000804047636353715,0.000848296642270163,0.0396414161752899,-0.042289865625747,1.27630677122695,-0.00179363835181155,0
0.09,0.00101294518099606,0.00057806526196582,-0.0501721343404257,-0.0289464546278585,-0.000801545133472997,0.000847197017110252,0.039610050496195,-0.0422632724654076,1.27629623616676,-0.00152988358032963,0
0.1,0.00101126799847531,0.000578056526028788,-0.0501680558609071,-0.0289460305144432,-0.000799935252976335,0.000846708865591011,0.0396058993145493,-0.0422620308420213,1.27628744821385,-0.00131338775225657,0
0.11,0.00100988255300907,0.000578054950400598,-0.0501653356329108,-0.0289459494525666,-0.000798603706505846,0.000846311063681599,0.0396030096845914,-0.0422614542200726,1.27628011167574,-0.00113273676802087,0
0.12,0.0010087264457339,0.000578053754284625,-0.0501630872324696,-0.0289458797455517,-0.000797492543711628,0.000845979212445467,0.0396006194813136,-0.0422609774098104,1.27627398668721,-0.000981920555903816,0
0.13,0.00105787164332269,0.000605727244855289,-0.0525098813346569,-0.0303316334308229,-0.000836482906441115,0.000886732347519844,0.0414438252791175,-0.0442685550994783,1.27626772864407,-0.0011321417266858,0
0.14,0.00111898523654154,0.000642035862733464,-0.0557840779138451,-0.0321497786783812,-0.00088442018786221,0.000939222518861001,0.0440490087951598,-0.0469590932826729,1.2762627025923,-0.0013836621200997,0
0.15,0.00100858951219884,0.000579394575709995,-0.0502891194503065,-0.0290130293004587,-0.000796959000482198,0.00084723505004814,0.0397010680680899,-0.0423624432549559,1.27625830197191,-0.000612790694924246,0
0.16,0.00100535454701534,0.000578078423649073,-0.0501596556241552,-0.028947122141667,-0.000794243263973443,0.000845038500144123,0.0395962042656813,-0.0422618922951739,1.27625574969906,-0.000533298065225497,0
0.17,0.00100488846203804,0.000578050380126687,-0.0501556390680923,-0.0289457169665885,-0.00079380361525425,0.000844878028777567,0.0395926797477482,-0.042259464873929,1.27625364708973,-0.000481106976027423,0
0.18,0.00100455555741956,0.000578049457141957,-0.0501549003680629,-0.0289456618511732,-0.000793483832796537,0.000844781894890717,0.0395919147085655,-0.0422592671569498,1.27625189241052,-0.000437890818395059,0
0.19,0.00100427883819988,0.00057804915888708,-0.0501543358047749,-0.028945662575498,-0.000793217879814205,0.000844702438784936,0.0395913123429705,-0.0422591619523396,1.27625042751448,-0.000401820262838945,0
0.2,0.00100404802984784,0.000578048919774916,-0.0501538715512947,-0.0289456392551974,-0.000792996047878,0.000844636174896712,0.0395908231708716,-0.0422590532800791,1.27624920453005,-0.000371706570182903,0
0.21,0.00100385524607237,0.000578048720335579,-0.0501534759088306,-0.0289456368782935,-0.000792810762146757,0.000844580827140243,0.0395904021099473,-0.0422589765706691,1.27624818350761,-0.000346565813686331,0
0.22,0.00100369451974374,0.000578048553820372,-0.0501531531690518,-0.0289456134069311,-0.00079265628620117,0.000844534683410462,0.0395900640614026,-0.0422588941634293,1.27624733109554,-0.000325576764547574,0
0.23,0.00100356006004718,0.000578048414792617,-0.0501528664600546,-0.0289456138063876,-0.000792527056636428,0.000844496079603308,0.0395897595107665,-0.0422588394855832,1.27624661944961,-0.000308053815836736,0
0.24,0.00100344783567707,0.000578048298716102,-0.0501526251257767,-0.0289456141530502,-0.000792419197417894,0.000844463859580241,0.0395895033623733,-0.0422587932769569,1.27624602532391,-0.00029342458087176,0
0.25,0.0010033541213431,0.000578048201803249,-0.0501524190237473,-0.0289456144557534,-0.00079232912838247,0.000844436953680278,0.0395892850878498,-0.0422587533700132,1.27624552931163,-0.000281211196059512,0
0.26,0.00101367879792272,0.000583666537458817,-0.0506372314748507,-0.0292269541759673,-0.000800577796542077,0.000852810954427209,0.039971527560876,-0.0426687361693762,1.27624518600574,-0.000335581201790937,0
0.27,0.000976336114343768,0.000562826255884954,-0.0489004061947711,-0.0281833667392449,-0.000770892906262995,0.000822027815562683,0.038612436587653,-0.0411659037012048,1.27624444341525,-9.23397150744662e-05,0
0.28,0.000969399287854638,0.000558258356953521,-0.0482285291634915,-0.0279546333860387,-0.000765580663414939,0.000815643071573998,0.0380358855220441,-0.0407519811245482,1.27624409903446,-4.2308011608391e-05,0
0.29,0.00100226938662669,0.000577632308552096,-0.0501123731105706,-0.0289247765654851,-0.000791410782384061,0.000843725062315037,0.0395569599470637,-0.0422272371566348,1.27624426596764,-0.000244985133670293,0
0.3,0.000998493901402733,0.000575671713777513,-0.0499248458252923,-0.0288266124517229,-0.000788368207433509,0.00084075178423246,0.0394060635368313,-0.042078806692351,1.27624560530286,-0.000253606036001731,0
0.31,0.00100317483937223,0.000577998228589026,-0.0501465029471998,-0.0289431154716591,-0.000792171821399566,0.000844337323575149,0.0395843365729767,-0.0422546564193416,1.27624522855862,-0.000273064481447618,0
0.32,0.00100322587483874,0.000578047023704336,-0.0501519322952115,-0.0289455390174758,-0.000792206186507117,0.000844399121043625,0.039588813165157,-0.0422585661627319,1.27624486538083,-0.000264843955582044,0
0.33,0.00100317139251567,0.000578047990568757,-0.0501519393539273,-0.0289455887021237,-0.000792153512861139,0.000844384470619968,0.0395887926313022,-0.0422586278086294,1.27624456095571,-0.000257366179185507,0
0.34,0.00100312342940593,0.000578047962455608,-0.0501518262016978,-0.0289455918075976,-0.000792107408945563,0.000844370720842298,0.0395886727092798,-0.0422586079938146,1.27624430677223,-0.00025110782350854,0
0.35,0.00100308338253526,0.00057804792143974,-0.0501517282270472,-0.0289455919837509,-0.000792068919529042,0.000844359223621842,0.0395885699354046,-0.042258588120274,1.27624409456377,-0.000245882575215251,0
0.36,0.00100304997133794,0.000578047886827906,-0.0501516440522324,-0.0289455921439809,-0.000792036807736895,0.000844349631170168,0.0395884818525759,-0.0422585708503704,1.27624391739925,-0.000241520206917586,0
0.37,0.00100302203166073,0.00057804785792394,-0.0501515679672219,-0.0289455922910721,-0.00079200995486731,0.000844341609443924,0.0395884027513168,-0.0422585547581952,1.27624376949163,-0.000237878233400015,0
0.38,0.00100299863218107,0.000578047833792399,-0.050151497251762,-0.0289455924272669,-0.000791987465898665,0.0008443348910051,0.0395883298237078,-0.04225853924745,1.2762436460095,-0.000234837689978424,0
0.39,0.00100297919082235,0.000578047813645841,-0.0501514394169401,-0.0289455925539609,-0.000791968780645067,0.000844329309314179,0.0395882700864857,-0.0422585266597215,1.2762435429192,-0.000232299257386085,0
0.4,0.00100296300909263,0.000578047796826082,-0.0501513900758888,-0.0289455926728344,-0.00079195322804447,0.0008443246636298,0.0395882191989291,-0.0422585158563708,1.27624345685343,-0.000230180017783138,0
0.41,0.0010029493885,0.00057804778278399,-0.0501513398171638,-0.0289455927855565,-0.000791940137472738,0.000844320752873972,0.0395881680356309,-0.0422585042180453,1.27624338500069,-0.000228410746263905,0
0.42,0.00100293797979847,0.000578047771060585,-0.0501512924840845,-0.0289455928929687,-0.000791929172876043,0.000844317477077321,0.0395881201749373,-0.04225849295425,1.27624332501343,-0.00022693364961964,0
0.43,0.00100292866657273,0.000578047761273223,-0.0501512600548949,-0.0289455929953485,-0.000791920221309903,0.000844314803628845,0.0395880869963584,-0.0422584856202258,1.2762432749329,-0.0002257004785232,0
0.44,0.00100292063391554,0.000578047753102212,-0.0501512165866758,-0.0289455930946535,-0.000791912501674429,0.000844312496941632,0.0395880436045594,-0.042258474751089,1.27624323312259,-0.000224670951470375,0
0.45,0.00100291411465752,0.000578047746280579,-0.05015118613094,-0.0289455931903239,-0.000791906235697488,0.000844310625435194,0.039588012957676,-0.0422584673827955,1.27624319821735,-0.000223811438986725,0
0.46,0.00100290852671929,0.000578047740585298,-0.0501511499353847,-0.0289455903733789,-0.00079190086547013,0.000844309020815059,0.0395879779073309,-0.0422584553327918,1.27624316907633,-0.000223093865120498,0
0.47,0.00100290398652174,0.00057804773583076,-0.050151122467431,-0.0289455904643004,-0.000791896501649484,0.00084430771745589,0.0395879505678849,-0.0422584484086314,1.27624314474776,-0.000222494790338177,0
0.48,0.00100290014481613,0.000578047731861291,-0.0501510934558234,-0.0289455905535423,-0.000791892809402591,0.000844306614446831,0.0395879219215459,-0.0422584408756598,1.27624312443711,-0.000221994645877588,0
0.49,0.00100289688518712,0.000578047728547303,-0.0501510631111566,-0.0289455906413892,-0.000791889676805086,0.000844305678392761,0.0395878921417073,-0.042258432821564,1.27624310748062,-0.000221577094527478,0
0.5,0.00100289420763472,0.000578047725780685,-0.0501510364641202,-0.028945590727841,-0.000791887103420717,0.000844304909628886,0.0395878660189912,-0.0422584257287419,1.27624309332445,-0.000221228496989066,0
0.51,4.5913380908621,0.028505193135979,10.4345814897295,-1.41426489588844,-1.39199295789706,4.3753346861471,-4.57016258856822,9.4865299227694,0.314228176035916,96.5172798009536,1647.43526837126
0.52,4.58151650096679,0.0494584380569618,10.9275093982893,-2.44460865319199,-4.52408343047081,0.724850812143741,-11.1685931258423,-0.805667863545197,1.42272088868198,206.652811488437,1647.43526837126
0.53,4.56953863041285,0.0167551269307022,11.5284967735656,-0.807064968841666,1.02377156301114,-4.4534094597155,3.40991783920278,-11.0421941683676,-2.91196690737535,326.471702800334,1647.43526837126
0.54,4.50123917434963,0.0142716598190638,14.9456843950386,-0.652567953832016,0.49695245890785,4.47374519151004,0.954138058829856,14.9294657484841,-0.107457845681684,436.866867913547,1647.43526837126
0.55,4.49664058456867,0.0137744167014284,15.1780808117288,-0.631938234452106,1.63438324949519,-4.18912373595184,6.14801563210214,-13.8915581144435,-2.76654383002016,552.66659062376,1647.43526837126
0.56,4.44824422117733,-0.00417696393397482,17.6005425338666,0.271403067033409,-4.41831349970447,-0.515169793946051,-17.5151922979722,-1.75236864737329,1.68593192638035,664.99242387089,1647.43526837126
0.57,4.40363517121127,0.0260552799650489,19.833816636716,-1.2332663267392,-2.7535700297266,3.43664570331805,-13.4509856799573,14.6277890485584,0.681411866750123,776.900721787496,1647.43526837126
0.58,4.33005748321695,-0.0123001668583305,23.515702315171,0.698922860980471,-2.08100353575698,3.79723233240143,-10.6289881661627,20.9881242397913,0.498490113052442,888.794577858295,1647.43526837126
0.59,4.4001286829552,0.0725977753333878,20.0153406709182,-3.51258461749717,-3.9526432405402,1.9346871262714,-19.6120600841172,5.32157985235291,1.13210834903079,999.031703377265,1647.43526837126
0.6,3.68643809783294,0.110675889992989,24.2881950282128,-5.39812386105377,-2.11386932467952,-3.02218984843091,-8.8031660614607,-23.2714508839076,2.56124964634668,1102.11091288042,1647.43526837126
0.61,3.10104604126178,0.0290364579596112,21.3705516401093,-1.35538450454994,3.09926888837824,-0.108912916804802,21.3983754757648,0.804407580733841,-1.59656019245586,1188.89162831466,1647.43526837126
0.62,2.57039656367543,-0.00886668764457899,21.5765020921735,0.493510038548561,-2.30244340956003,1.14270357419491,-19.0730048170547,10.0999743534488,1.10666325222252,1261.25758503338,1647.43526837126
0.63,2.08896430160374,0.0572489850779483,23.6142897098754,-2.7532730369557,1.88519915564181,-0.901705851835659,22.6935317391123,-7.08652299254403,-1.9895416563398,1320.85551177609,1647.43526837126
0.64,1.74456760477455,0.0860639248543611,22.3191527929396,-4.21517802137522,-1.74636042001461,0.0338882014358838,-22.1832107481935,-4.88031433902558,1.60068628067932,1370.95840478825,1647.43526837126
0.65,1.40542136874052,0.0191096721078299,23.898458819191,-0.889030898044935,0.978826699358854,1.0086985158623,15.7618074590385,17.9858871200296,-0.756773366437075,1412.83131382541,1647.43526837126
0.66,1.22258203710925,0.0600147624846288,20.2696588581534,-2.9539816688098,0.311847133986998,-1.18366379272257,8.93499814381329,-18.4323326276311,-2.83493799082487,1447.71766828726,1647.43526837126
0.67,1.0078224062492,0.045177848445568,20.3492993430402,-2.22261997285302,-1.00876572459508,0.0117793637459035,-20.2645376218148,-2.89526134751859,1.60391705284067,1476.78042791398,1647.43526837126
0.68,0.794671397771878,-0.0134454453349532,22.0859800302351,0.707412545306137,0.0223697342959069,0.79447026717461,1.70171161667383,22.0316845470081,-0.045067243944098,1501.22596226792,1647.43526837126
0.69,0.611899895803359,0.0427323855658201,23.787113081087,-2.1051757294705,0.613126292234494,-0.0179913599010557,23.682716919244,3.06389179106044,-1.53040916961464,1521.5140125029,1647.43526837126
0.7,0.514346857304014,0.0590182695584469,22.4950751740585,-2.91281909817571,0.0760812683136267,-0.512101050938171,8.63431932075598,-20.9752580926305,-2.87986009542465,1538.38638012308,1647.43526837126
0.71,0.393998232072083,-0.0100854508137613,23.3596842984287,0.555181530543431,-0.320267610293198,-0.229706292885346,-19.6361592524676,-12.6650829790351,2.16740213282436,1552.57500841005,1647.43526837126
0.72,0.29798544851914,0.00639622396006487,23.8715114640778,-0.266335364452337,-0.251637703856047,0.159733231383318,-20.5617441403795,12.1299081617102,1.02666051038695,1564.36947333662,1647.43526837126
0.73,0.21872252392984,0.00695352466919728,24.2733943107585,-0.320034055385405,0.0146991493613033,0.21833879405094,0.540245637902873,24.2694917089933,-0.0354403999330386,1574.20078002695,1647.43526837126
0.74,0.132372508636707,0.0134626847611699,25.5906580280974,-0.722985922375887,0.120464629253566,0.0564977700670971,21.5790619090968,13.7749255561817,-1.03090125091596,1582.46026388803,1647.43526837126
0.75,0.158662213554647,-0.0446880256949704,21.7675785481344,2.19862536032599,0.163532816244477,-0.0206817712424469,19.189472867846,-10.5083566925791,-1.971139934892,1589.42049323414,1647.43526837126
0.76,0.151264352757031,-0.0674554643989805,20.0781617597902,3.36215977305652,0.106214208761912,-0.12708141464969,2.25102246789816,-20.2328840218314,-2.86487845723357,1595.16865949752,1647.43526837126
0.77,0.0590132820041732,0.0519514368063657,22.9433504437337,-2.59098282047834,-0.0757614413147829,-0.02101721316104,-10.3721126334836,-20.628373689613,2.5632479692364,1600.03584475746,1647.43526837126
0.78,0.0602479825355798,-0.0167794148184035,21.4591527022643,0.876858824800329,-0.0419747344341503,0.0463625908512256,-8.82227374403774,19.581409604086,0.464144723036635,1604.1081780234,1647.43526837126
0.79,-0.0136947281884218,1.09341155875124e-05,23.8870601932027,0.0400269651737287,-0.00443049118661039,-0.0129582578904344,7.7837994598745,22.5833060644381,-0.330243396646897,1607.66764755732,1647.43526837126
0.8,-0.0752722435012582,-0.0904501223287827,25.9725573486527,4.47044443382485,-0.108038383619253,0.0466352113316058,25.186842980303,7.75767680111319,-1.10155997910583,1610.4386427131,1647.43526837126
0.81,-0.00680147964404239,-0.00826079187209213,21.702598364191,0.368543128744727,-0.00422808604501152,0.00982975564794594,20.7389314767598,-6.40588175018798,-1.8534017669169,1612.92802582033,1647.43526837126
0.82,0.00876410490831561,0.0180068542944016,20.2598792530143,-0.915146302766448,-0.0107261836634882,-0.0169116918266887,11.4136693630097,-16.7639002554322,-2.58897598751267,1614.86919697455,1647.43526837126
0.83,-0.00745501241307335,0.0117200464286964,20.5220310718233,-0.566378117772406,-0.0102893237511406,0.0093309439562185,-2.91488207008522,-20.3218602987686,2.97153703435066,1616.53485357928,1647.43526837126
0.84,-0.118912097863665,0.0464097902420428,25.5948387917587,-2.28798074712463,0.0622402052102642,0.111445558476022,-18.2950758664286,-18.0449668250444,2.26015683980578,1617.97734816042,1647.43526837126
0.85,-0.133624261374225,0.0316055466671345,25.8978575700331,-1.62829406935592,0.133993760453551,0.0300004327877439,-25.9155259661114,-1.31752882087212,1.55880091167501,1619.29451938925,1647.43526837126
0.86,-0.0736571827494476,-0.106446434657607,22.6173219496324,5.27609781908485,-0.0128990013205138,-0.128801551958177,-13.8041644127795,18.6768708630442,0.865669994634883,1620.15960026517,1647.43526837126
0.87,-0.064397982030524,-0.00508399588756889,21.8835832330197,0.228689952970819,0.00647698987006802,-0.0642728224525075,-3.67593144868024,21.5738508893451,0.179217428444511,1621.07852239846,1647.43526837126
0.88,-0.134411733052992,0.0291390193024802,25.1457739240485,-1.45125161722288,-0.0390095906283075,-0.131885739438466,10.806271237572,22.7517159668424,-0.501069456366024,1621.8572313876,1647.43526837126
0.89,-0.0418939840301426,-0.00244724816765316,20.2829363631118,0.160432523903259,-0.0396123152514158,-0.013854941426595,18.7842474214006,7.65344987024638,-1.17598327070907,1622.70409472847,1647.43526837126
0.9,-0.204630997034974,0.012105563305981,28.2687003725802,-0.624738525529421,-0.200218078049389,0.0439671562952575,27.3743546733263,-7.08197890415776,-1.8460507173059,1623.15795799855,1647.43526837126
0.91,-0.157312210695205,-0.0249690578958727,25.7836861942535,1.18997976137543,-0.072355638815619,0.141898720986497,14.2062608752394,-21.5498649077173,-2.51263832491884,1623.59623074232,1647.43526837126
0.92,-0.071010533487992,-0.018007864967909,21.3561413257325,0.87210686376388,0.0204057145956001,0.07035897866509,-1.59586443975501,-21.3142806445915,3.10767275557151,1624.10895843492,1647.43526837126
0.93,-0.0567942373763646,-0.0048029715587806,20.5098837381939,0.249354323671656,0.0399857041085791,0.0406176981363846,-13.2975086000866,-15.6170987562859,2.44840231192039,1624.59929761336,1647.43526837126
0.94,-0.169171928549107,0.0030535520323034,26.0516950662887,-0.1216520930691,0.16437454820966,0.0401182438537425,-25.3894464070617,-5.83794708793946,1.79213429650983,1624.95905322685,1647.43526837126
0.95,-0.152266467754276,0.0319468972122308,25.1468116392742,-1.60709690336982,0.151617073964546,-0.0348990591031077,-23.4999358508324,9.09383918291495,1.13774859277729,1625.22180898406,1647.43526837126
0.96,-0.14167930490867,-0.0386366190944092,24.5675833674587,1.87473326686224,0.0319710672282919,-0.143330613041089,-9.81082789624033,22.6015139609997,0.485696516960773,1625.40477785436,1647.43526837126
0.97,-0.106786371031749,-0.00150400889483942,22.8390837061344,0.0434878780227226,-0.106091578836632,-0.0122543045839761,22.6546755231056,2.89677625545205,-1.44171574334539,1625.58026457961,1647.43526837126
