t,iq,id,vq,vd,ia,ib,va,vb,theta_e,omega,r
0,0,0,0,0,0,0,0,0,0,0,0
0.01,0.000425386367926966,0.000241012906963326,-0.0206943979875252,-0.0120565993984221,0.000389879558717768,-0.000295016462311931,-0.0189232953980027,0.0146808919483814,-1.70308390415447,-0.00161765701548567,0
0.02,0.00053059935338557,0.000298660621246578,-0.0258565512698229,-0.0149404128771326,0.000486564583391819,-0.000366044733175227,-0.023659723976734,0.0182207201244333,-1.70309711464061,-0.00194273942287127,0
0.03,0.000572029485374302,0.000321417093097277,-0.0278868994239134,-0.0160787970395983,0.000524625062804484,-0.000394075149368853,-0.0255218764809623,0.0196173569731133,-1.703111505796,-0.00200980323448905,0
0.04,0.000564950710218937,0.000317412076242663,-0.0275705436723007,-0.0158784553277479,0.000518131119312641,-0.000389178460762398,-0.0252344469280594,0.0193773814076226,-1.70312543975294,-0.00188962411994646,0
0.05,0.000578461236465852,0.000325366184693433,-0.028249092811958,-0.0162763500805271,0.000530468642963167,-0.000398852823818987,-0.0258542956239464,0.0198616770296991,-1.70313896072872,-0.00185294461515563,0
0.06,0.000580894272551867,0.000327041173164833,-0.0283910886060725,-0.0163601438581283,0.000532654140903593,-0.000400841179280334,-0.0259837317818355,0.0199638148154642,-1.70315202477498,-0.00177584433279015,0
0.07,0.000589145605155254,0.000332179624910549,-0.0288130434836492,-0.0166171905638598,0.00054015017194609,-0.00040703026794831,-0.0263678240368116,0.0202746233649366,-1.70316434344426,-0.00172650993599142,0
0.08,0.000582222076237317,0.000328474448094127,-0.0285005668289464,-0.0164318482021153,0.00053377139769512,-0.000402450126241042,-0.0260823022075636,0.0200499739765896,-1.703176338462,-0.00161979906884716,0
0.09,0.000580207419068052,0.000327692202087985,-0.0284242169404457,-0.0163927061192572,0.000531873076212894,-0.000401414821912091,-0.0260115604819013,0.0200013910487807,-1.70318765599532,-0.00153683558898882,0
0.1,0.000579303299304703,0.000327526089683207,-0.0284005003127745,-0.0163844075103807,0.000530994486491157,-0.000401136519559712,-0.0259889320932258,0.0199903135577164,-1.70319839932216,-0.0014620375826074,0
0.11,0.000578667909596852,0.00032748990071865,-0.0283887899953751,-0.0163825929127084,0.000530365339928641,-0.000401022182518971,-0.0259773597002076,0.0199872341996351,-1.70320861209089,-0.00139181139534637,0
0.12,0.000578113156692666,0.000327481153043852,-0.0283800440876855,-0.0163821598329294,0.000529812704276284,-0.000400945415147176,-0.0259685534347605,0.0199859024243743,-1.70321832372346,-0.00132522571691573,0
0.13,0.000599232499222989,0.000339784119657488,-0.0294190097312593,-0.0169976009703868,0.000549118776169357,-0.000415934376740744,-0.0269169663340229,0.0207333908391634,-1.70322780825798,-0.00134516234275678,0
0.14,0.00061136298679897,0.000347027073564416,-0.0300737863829683,-0.0173599281592108,0.000560182752557306,-0.00042472082024756,-0.027517971738057,0.0211792578841863,-1.70323699057021,-0.00133184479973481,0
0.15,0.000584177353711349,0.000331595850576798,-0.0287244643740863,-0.0165879837543208,0.000535269370885663,-0.000405839487113578,-0.0262822261815252,0.0202361222954131,-1.70324580561231,-0.00116674540810383,0
0.16,0.000577819695850074,0.000328342471733207,-0.0284318987674765,-0.0164252399497034,0.000529393832978548,-0.000401779229503499,-0.0260135551353729,0.0200363750251456,-1.70325380476557,-0.0010887555651249,0
0.17,0.000576091929186413,0.000327655884255789,-0.0283623425036591,-0.01639089611121,0.000527768863444324,-0.000400874439369552,-0.025948993573921,0.0199933408945067,-1.70326132707469,-0.00103208882386856,0
0.18,0.000575405405809653,0.000327510346561962,-0.0283424179079157,-0.0163836145194399,0.000527104718187492,-0.000400643263021597,-0.0259300626844389,0.0199836765078304,-1.7032684621396,-0.00098207428363898,0
0.19,0.000574964349549264,0.000327478887117423,-0.0283337042193152,-0.0163820360347715,0.000526668965259368,-0.000400557393881203,-0.0259214983352779,0.0199811366915493,-1.703275243599,-0.000935367893071539,0
0.2,0.000574591648643656,0.000327471510345504,-0.0283276746384714,-0.0163816744367307,0.000526297921948834,-0.000400504244835607,-0.0259154405129066,0.0199801489182671,-1.70328169202002,-0.000891139100090944,0
0.21,0.000574247858830603,0.000327469245850541,-0.028322454118158,-0.0163815537477619,0.000525954988249002,-0.000400459811573453,-0.0259101591626124,0.0199794985581237,-1.70328782443301,-0.000849118487507674,0
0.22,0.000573923063144957,0.000327468093445128,-0.0283175915278499,-0.0163814991327132,0.000525630856114622,-0.000400418827897099,-0.0259052298861114,0.0199789531337595,-1.70329365647349,-0.000809165113135368,0
0.23,0.000573614682029621,0.000327467208327143,-0.0283129899195924,-0.0163814547010989,0.00052532307420769,-0.000400380123975326,-0.0259005636722048,0.0199784448286938,-1.70329920288694,-0.000771170471644834,0
0.24,0.000573321551323531,0.000327466410841576,-0.0283086191240969,-0.0163814131781293,0.000525030506631734,-0.000400343375800711,-0.0258961312964317,0.0199779628166573,-1.7033044776698,-0.000735037027423061,0
0.25,0.000573042699872827,0.000327465661604152,-0.0283044567993396,-0.0163813867702601,0.000524752190561862,-0.000400308423478587,-0.0258919087331562,0.0199775165968256,-1.70330949412596,-0.000700673274283651,0
0.26,0.000576709985123704,0.000329732347217388,-0.0284905370778334,-0.0164947709638069,0.000528085942932653,-0.000403042261580348,-0.0260612821377138,0.0201146152205387,-1.70331419408814,-0.000683886986511268,0
0.27,0.000567576995029119,0.000324543307513383,-0.0280576133239712,-0.016235186080768,0.000519716790874321,-0.000396694417683572,-0.0256663599887118,0.0198002246816673,-1.70331889914403,-0.000616857257453097,0
0.28,0.000566932291943557,0.000324331054133368,-0.0279849718782681,-0.0162245731145589,0.000519104074569304,-0.000396401079828478,-0.0255956723867462,0.019780216855421,-1.70332321865764,-0.000585680650092656,0
0.29,0.000570872083672464,0.000326802760390737,-0.028232451664087,-0.0163482217173546,0.000522681103209739,-0.000399373815444874,-0.0258245630475522,0.0199355868658988,-1.70332724033643,-0.00057446186374908,0
0.3,0.000563036957141246,0.000322603161044707,-0.0278598646643297,-0.0161381369176824,0.000515468295298838,-0.000394177436143445,-0.0254829378329309,0.0196781960985149,-1.70333063825466,-0.000521192725562742,0
0.31,0.000569711265330185,0.000326437757051278,-0.0281893259654833,-0.0163299605205011,0.000521575902798585,-0.000398862272836916,-0.0257840891240975,0.0199119676835313,-1.70333424644328,-0.000523442531188186,0
0.32,0.000571037893794119,0.000327245571523479,-0.0282600317596152,-0.0163703707450499,0.000522782731866709,-0.000399840162430605,-0.0258487641146896,0.0199614585421001,-1.70333777686224,-0.000505231499525106,0
0.33,0.000571187404147964,0.000327415443755701,-0.0282735311111697,-0.0163788664950089,0.000522907129778857,-0.000400030070236564,-0.0258609548284707,0.0199717511629652,-1.70334115629754,-0.000483404708096335,0
0.34,0.000571083294576769,0.000327450874466732,-0.028274465906587,-0.0163806366373541,0.000522797963273128,-0.000400053114137553,-0.0258615831967899,0.0199737125618472,-1.70334437508349,-0.000461648428663459,0
0.35,0.000570929550293851,0.000327457986843836,-0.0282727080409662,-0.0163810004935454,0.000522643402591487,-0.000400041445695505,-0.0258597314986875,0.0199739200948396,-1.70334743730832,-0.000440736486229979,0
0.36,0.000570771421638861,0.000327459147852723,-0.0282704591249263,-0.0163810539441964,0.000522485342542062,-0.000400023219452048,-0.0258574370726965,0.0199737511621714,-1.70335034980259,-0.000420799695734171,0
0.37,0.000570618258925454,0.000327459070990164,-0.028268184201173,-0.0163810569757911,0.000522332425621625,-0.000400004347147737,-0.0258551263800783,0.019973525115656,-1.70335311971403,-0.000401828434538111,0
0.38,0.00057047212093896,0.000327458748927889,-0.0282659961312595,-0.0163810332935098,0.000522186558570737,-0.000399986088590671,-0.0258529080207896,0.0199732805498758,-1.70335575398407,-0.000383783863699031,0
0.39,0.000570332928040804,0.000327458390128143,-0.0282639031849359,-0.0163810202865553,0.000522047632230068,-0.000399968643465824,-0.025850785117666,0.0199730557921472,-1.70335825924655,-0.00036662247063712,0
0.4,0.000570200643472617,0.00032745803780051,-0.0282619155498356,-0.0163809936667227,0.000521915601912959,-0.0003999520531471,-0.0258487708528724,0.0199728282787127,-1.70336064181758,-0.000350301417239671,0
0.41,0.000570074721920747,0.000327457700359316,-0.0282600178262943,-0.0163809806264645,0.000521789923562663,-0.000399936257128681,-0.0258468462475172,0.0199726230847198,-1.70336290770523,-0.000334779640723616,0
0.42,0.000569954970380796,0.000327457378918571,-0.028258211478878,-0.0163809675688423,0.000521670403424333,-0.000399921234071271,-0.0258450144361933,0.0199724270750807,-1.703365062624,-0.000320018017844932,0
0.43,0.000569841039604583,0.000327457073085865,-0.0282564896361111,-0.0163809530395297,0.000521556693182487,-0.000399906940335052,-0.0258432686912727,0.019972238041582,-1.70336711200848,-0.000305979325543505,0
0.44,0.000569732696765881,0.000327456782181124,-0.0282548508372941,-0.0163809399495167,0.000521448560067811,-0.000399893347236167,-0.0258416070767496,0.0199720588112066,-1.70336906102668,-0.000292628160205178,0
0.45,0.000569629709031846,0.000327456505493408,-0.0282532930525613,-0.0163809268439881,0.000521345771410445,-0.000399880425920185,-0.0258400276745778,0.0199718878015838,-1.70337091459418,-0.000279930851285402,0
0.46,0.000569531727154255,0.00032745624233228,-0.0282518078843656,-0.0163809122687488,0.000521247979241277,-0.000399868132031763,-0.0258385222596613,0.0199717225829055,-1.70337267738557,-0.000267855377041424,0
0.47,0.000569438634722288,0.000327455992038301,-0.0282503983036143,-0.0163808991343128,0.000521155066473811,-0.00039985645189849,-0.025837093303226,0.0199715665485153,-1.70337435384623,-0.00025637128391463,0
0.48,0.000569350024280074,0.000327455753983313,-0.02824905218242,-0.0163808859866894,0.000521066627613873,-0.000399845333287267,-0.0258357288914747,0.0199714167639711,-1.70337594820467,-0.000245449609765698,0
0.49,0.000569265837619953,0.000327455527570341,-0.0282477744454538,-0.0163808728258501,0.000520982603430481,-0.000399834770049223,-0.0258344338254963,0.0199712739847502,-1.70337746448116,-0.000235062810835285,0
0.5,0.000569185725493647,0.000327455312230032,-0.0282465551462599,-0.0163808581976566,0.000520902646281528,-0.000399824717482922,-0.0258331983619097,0.0199711355540105,-1.70337890649983,-0.000225184692284626,0
0.51,4.72322421661105,-0.0117114855773182,3.83942521235382,0.59058527971187,-0.397702658486521,4.70646542053676,0.274812238859551,3.87484905089779,0.0818215276338125,25.4633646979882,3123.00584554253
0.52,4.76317914719751,0.0403787161204174,1.84230009578665,-2.01005433032305,-1.70623762915727,4.44727547852171,-2.54497631132158,0.978510924107628,0.374817558217816,54.4964210884923,3123.00584554253
0.53,4.73621833356346,0.0176067241923241,3.19101883067236,-0.864932724785962,-3.6448025085865,3.02448157100039,-3.01307221891215,1.3609208646101,0.881860398238778,83.9670685324446,3123.00584554253
0.54,4.70731701019656,-0.00267333620099053,4.63679240738797,0.155759149964925,-4.70366318007094,-0.185454225234305,-4.63934362234015,-0.0244027838643583,1.60963562043296,114.974734042988,3123.00584554253
0.55,4.72968174269513,-0.000650486009110107,3.51930901671178,0.0571162876327135,-2.5443011287203,-3.98703167490657,-1.94174079666789,-2.93571812406732,2.57345958469747,147.832227905385,3123.00584554253
0.56,4.72009587928209,0.0286891844196711,3.99938261320175,-1.40413209452655,2.74681381508077,-3.83863804547913,3.48399198991624,-2.414217894031,-2.51441533076385,177.837904042581,3123.00584554253
0.57,4.71552196037537,-0.0261778758453145,4.22889949243751,1.34905565240983,4.19977831429793,2.14445674955663,4.38375353928927,0.697314116597319,-1.10424665940069,207.189680910529,3123.00584554253
0.58,4.70999140900107,0.0287171324789177,4.50630430061683,-1.39715658081972,-2.36592874214379,4.07274169739005,-3.49108635191729,3.17350611225856,0.532367391012607,239.351873278911,3123.00584554253
0.59,4.69838905156249,0.026926090112577,5.087331920369,-1.29740555874706,-3.21044501867014,-3.43054332085562,-2.50245747049817,-4.61539964252512,2.39505562188484,268.633263649758,3123.00584554253
0.6,4.69092979511327,0.00671902111533451,5.46126150674555,-0.286992527393642,4.56157509523941,-1.09402931332652,5.37901116640804,-0.986904669914005,-1.80475376480194,300.231547752315,3123.00584554253
0.61,4.68731651178149,-0.00611154934205871,5.64292030346944,0.367544720326126,-2.26911937292517,4.10147177292133,-2.40344390335614,5.11870062380752,0.504027428046136,329.585193941823,3123.00584554253
0.62,4.67368165621353,0.0302993134447695,6.32570079589526,-1.45454236550737,-0.521728046774473,-4.64456866858818,0.781110795335252,-6.4436053555177,3.03621366789665,360.835470019479,3123.00584554253
0.63,4.70069719405921,0.0165506554801728,4.9759360560989,-0.764513762087929,2.24084152638196,4.13224603431053,1.68328208548592,4.74457399009533,-0.493377290231421,391.345002157252,3123.00584554253
0.64,4.67835417548717,0.0561568979643208,6.09413946567814,-2.73083972237457,-2.89982395015395,-3.67167161475543,-1.55620805870295,-6.49416953077625,2.48511567290989,421.081510650519,3123.00584554253
0.65,4.69614218234912,0.0585391175324874,5.20589143342843,-2.84689905393697,2.68621141112554,3.85245979600815,0.56872630850519,5.90615697606868,-0.596427863517037,451.605523307484,3123.00584554253
0.66,4.68486586996597,0.0537434418752332,5.77080824570633,-2.60528742633694,-1.49857501589381,-4.43904601224807,0.694839733996645,-6.2934051297053,2.82748772583132,482.296447866167,3123.00584554253
0.67,4.68895187064636,0.048317622549773,5.56770282417308,-2.33094620758021,-0.841543468416322,4.61306935008056,-3.34425837895278,5.02479460831401,0.190745940594387,512.799661407922,3123.00584554253
0.68,4.67982506166572,0.016946981392491,6.02524600757747,-0.757502662450447,3.70751772589927,-2.85575946468108,5.24672812421651,-3.05765330376143,-2.22351814066334,543.179540999394,3123.00584554253
0.69,4.65218770936899,0.0427790933438961,7.4083895869411,-2.04511181357286,-4.4611508920667,-1.32015652566038,-6.48591528027357,-4.1230597350786,1.86770365979118,573.434053187821,3123.00584554253
0.7,4.65346726410256,0.0378764153970843,7.34567816368212,-1.7926879569027,0.511868161520088,4.62538465277641,-1.03483081997551,7.49011635218366,-0.102077305441699,603.612752924602,3123.00584554253
0.71,4.65420466664243,0.0449572002562462,7.31007913289035,-2.13774637122459,4.46176334407094,-1.32525849944678,7.61613425020623,0.0414193147984387,-1.8498630210537,633.719024362623,3123.00584554253
0.72,4.6323804876624,0.0461356704771023,8.40258821243533,-2.18767267643973,-1.12026612797928,-4.4951174940226,0.17727597406063,-8.68089705249515,2.90730877803332,663.883140430762,3123.00584554253
0.73,4.62354483607724,0.0734988433431962,8.84575817706352,-3.56874973593661,-4.62349987730292,-0.076274607630659,-8.72554317052211,-3.8533503323976,1.60318729288422,694.462267871508,3123.00584554253
0.74,4.67431085835661,0.0876034127014385,6.30886938016999,-4.26509430575609,-2.25096199952799,4.09756347542639,-6.83969211331531,3.34835393709982,0.521076833453786,724.76854744035,3123.00584554253
0.75,4.61708277016116,0.0495097466834991,9.1716702470455,-2.34343435603497,1.58599806543128,4.33641726059474,0.848447694471731,9.42822126444486,-0.339904300329849,754.593835850972,3123.00584554253
0.76,4.62455931817851,0.0859918552915553,8.79935905917395,-4.18113854664596,3.88807468415149,2.50535800575257,4.97715423588009,8.37487761765963,-0.979796774829166,785.114023958585,3123.00584554253
0.77,4.60994194734998,0.0635296420102329,9.5317300044382,-3.03950537988438,4.5524012171832,0.728864823640016,8.86837124523851,4.63081648183991,-1.3982579899695,815.005540907618,3123.00584554253
0.78,4.61559397761177,0.0583116548603857,9.25064664583758,-2.78780392470871,4.61259294327698,-0.176335914918141,9.31891863518113,2.55030773822321,-1.59637401102122,845.378988734142,3123.00584554253
0.79,4.65107304110961,0.0802350702624612,7.47823165647565,-3.8602243848173,4.65088127358876,-0.0906723729590434,7.4868755820736,3.8434327140725,-1.57304043549792,875.191905057177,3123.00584554253
0.8,4.62997507288305,0.050895443681831,8.53470577159742,-2.40396582189533,4.50771418356662,1.05819296963187,7.7118000007182,4.37588791326993,-1.32922765753974,905.627746544504,3123.00584554253
0.81,4.59072913948133,0.112635313085784,10.4985383634712,-5.48046216951854,3.56658840248777,2.89256424528076,4.43381806119779,10.981622410236,-0.864843174250035,935.577546386314,3123.00584554253
0.82,4.62965501620442,0.0760619065271204,8.55383534369996,-3.63520062285937,0.901127083844047,4.54174646600336,-2.05017230922359,9.06529515007981,-0.179438267164473,965.499486991499,3123.00584554253
0.83,4.61949684635964,0.0985003207443318,9.06340281607421,-4.7620661517794,-2.99436838163836,3.51897874698866,-9.57954398499629,3.61315397954009,0.726347269441087,995.690183015152,3123.00584554253
0.84,4.57569383803257,0.0842507101564429,11.2552245873415,-4.05391716055536,-4.41907836857441,-1.18988178150977,-9.68652357419946,-7.02036935656664,1.8522290525463,1025.85814320264,3123.00584554253
0.85,4.58953439595443,0.116937736616306,10.5648994245921,-5.68858226424272,0.143395132142398,-4.58878396113519,6.2782782184106,-10.2254726365599,-3.0848800666441,1055.92986560351,3123.00584554253
0.86,4.58887954477646,0.0660980107681712,10.5994046911337,-3.14220423088179,4.58614716209378,0.171576895631313,10.4225032821989,3.68676722448693,-1.51899881779036,1085.9174598556,3123.00584554253
0.87,4.58146456975841,0.123836844357358,10.9719611148243,-6.02651339586924,-1.08754323388429,4.4522357173003,-8.70421552834023,8.99663417351227,0.266600953087712,1115.86012924391,3123.00584554253
0.88,4.58819681787348,0.0709671304435604,10.6371279095704,-3.37368986584586,-3.55198238753821,-2.90516909865262,-5.95264058682299,-9.43908594725042,2.27182355013635,1145.79337617888,3123.00584554253
0.89,4.5939801535195,0.119712161029223,10.3497764218456,-5.80067312454866,4.46187773313782,-1.10028712023644,11.3515369588778,3.45083893441644,-1.78651732989599,1175.64606603108,3123.00584554253
0.9,4.59102713089692,0.12438977319943,10.4992796419341,-6.01972008608316,-3.31971511986313,-3.1737193409721,-3.11367274884319,-11.6951675886853,2.36080215678581,1205.43920942585,3123.00584554253
0.91,4.53669110097747,0.112278855848975,13.2179681138405,-5.40529585679777,4.35240777603879,1.28480319046769,10.9225743423757,9.19941705181879,-1.25901081648087,1235.34344961017,3123.00584554253
0.92,4.57923156513599,0.100715552307603,11.0928610330295,-4.8524841084034,-4.57816571572988,-0.141081639237631,-10.8213268556639,-5.43111894578807,1.62359321084996,1265.46496934903,3123.00584554253
0.93,4.60824719063221,0.131729749936287,9.64400489481302,-6.37999823513175,4.60956465746855,-0.072170392854798,9.56075652499509,6.50408660468367,-1.55787383949765,1295.17441894599,3123.00584554253
0.94,4.55769758256919,0.136180509149445,12.1734817783938,-6.58682456249525,-4.50023523715628,-0.734190163027391,-10.6964727717442,-8.78438311262155,1.76238676479368,1324.96198223945,3123.00584554253
0.95,4.58772669724002,0.0949135057134818,10.6740197640664,-4.54021512133797,3.86721033629214,2.47000587793042,6.35241559692121,9.70541433199522,-0.981716885561231,1354.92558931395,3123.00584554253
0.96,4.5482633679367,0.14366176820572,12.6492258458132,-6.9518590527981,-1.76116577802359,-4.19590675183296,1.9669470449818,-14.2990341670547,2.77576615634681,1384.56810930469,3123.00584554253
0.97,4.56407489089021,0.138059960462247,11.8607337648173,-6.68660752040726,-1.93805131225602,4.13446456913106,-11.3224095515736,7.56245776968561,0.468580787838287,1414.44301599696,3123.00584554253
