t,iq,id,vq,vd,ia,ib,va,vb,theta_e,omega,r
0,0,0,0,0,0,0,0,0,0,0,0
0.01,0.000734974521630632,0.000417423974604117,-0.0361353709046789,-0.020895987841584,-0.000737501565736838,-0.000412942807851386,0.0365789182390689,0.0201094524727515,2.59773964068381,-0.00211014808514391,0
0.02,0.000816540749417094,0.000463663282963378,-0.0402352355376825,-0.0232107081501524,-0.000819282120040842,-0.000458801965131352,0.0406814476321681,0.0224194328687303,2.59772392041122,-0.00223469976303041,0
0.03,0.000848447978532781,0.000481931158509433,-0.0418214322479721,-0.0241251783562014,-0.000851432170485924,-0.000476639143252247,0.0422851205540045,0.02330289693844,2.5977080174461,-0.00220915960293156,0
0.04,0.000829341935485754,0.000471566123054739,-0.0409136375813151,-0.0236063276255111,-0.000832682897325908,-0.000465641328566382,0.0413717206199993,0.0227939723839196,2.59769335269297,-0.00204029342053111,0
0.05,0.000847768481111516,0.000482270570490505,-0.0418385661130875,-0.0241421786608742,-0.000851384778459803,-0.000475857394325565,0.0423092092412932,0.0233075356541449,2.59767904544743,-0.00198653642701156,0
0.06,0.000848022548478642,0.000482736142190737,-0.0418746623082244,-0.0241654889251606,-0.000851921131589115,-0.00047582224754348,0.0423481531829357,0.0233257823108786,2.59766540381177,-0.00188343153733095,0
0.07,0.000869946112638554,0.000495588685779985,-0.0429676595814616,-0.0248088730350652,-0.000874270506422916,-0.000487919528167384,0.0434646175119594,0.0239275359307519,2.59765265956038,-0.00185204640861742,0
0.08,0.000847948084083001,0.000483313539370141,-0.0419145344202271,-0.0241943941241794,-0.000852388589971315,-0.000475438347554379,0.0423941062101321,0.0233438784554874,2.5976403226178,-0.00169224332701069,0
0.09,0.000846424290480422,0.000482773454642578,-0.0418600908676155,-0.0241673564163648,-0.000851143322116585,-0.000474404187628185,0.0423430635599206,0.0233107977547135,2.59762880723424,-0.00160000354966447,0
0.1,0.000845876480907736,0.000482747324433131,-0.0418522043139009,-0.0241660391163379,-0.00085084260766823,-0.00047393971892692,0.0423381082361255,0.0233042709281154,2.59761793446334,-0.00151557902979666,0
0.11,0.000845400095262095,0.000482743833850442,-0.0418467618313641,-0.024165868251942,-0.000850597935804399,-0.00047352516490159,0.0423353846549492,0.0232992675906051,2.59760766262161,-0.00143594419021811,0
0.12,0.000844952114986025,0.000482741463593612,-0.0418417206899231,-0.0241657469347415,-0.000850368647084553,-0.000473134823646967,0.0423328978695279,0.0232946060961679,2.59759795822598,-0.00136071433189656,0
0.13,0.000884881066118106,0.000505664017370633,-0.0438087816972434,-0.0253132520596793,-0.000890652596302865,-0.000495427645914809,0.0443330609572896,0.0243833916793958,2.59758835726229,-0.00140717884779521,0
0.14,0.000924261372261585,0.000528745316117194,-0.0458420871313158,-0.0264686761756235,-0.00093078856016104,-0.000517168589382686,0.0463742935052705,0.0255247462853638,2.59757929197395,-0.00145607771445641,0
0.15,0.000847402840731806,0.000484749352366496,-0.0420088500709147,-0.024266268477605,-0.000853368044389924,-0.00047416926293697,0.0425060471557962,0.0233844227060884,2.59757063085391,-0.00115998552017885,0
0.16,0.000843507821826643,0.000482821269299228,-0.0418319166337836,-0.0241697429011784,-0.000849705946337022,-0.000471827964760411,0.0423320580009218,0.023282667084582,2.59756294789153,-0.00108982462418805,0
0.17,0.000843009783080517,0.000482735194727729,-0.0418201379629964,-0.0241654412423663,-0.000849377930503548,-0.000471440233509816,0.0423224492745093,0.0232745091696667,2.59755571248688,-0.00103324402964176,0
0.18,0.000842686662712512,0.000482729862351954,-0.0418162069533345,-0.024165175614494,-0.000849209342951415,-0.000471160719249721,0.0423203463779156,0.0232709939387359,2.59754887784898,-0.000980238407944598,0
0.19,0.000842388222589936,0.000482728151350437,-0.0418128251054671,-0.0241650889517348,-0.000849056446963821,-0.000470900770368465,0.0423186720245869,0.0232678719572951,2.59754242081653,-0.000930181706831623,0
0.2,0.000842106720900299,0.00048272668030933,-0.041809650750856,-0.0241650081138682,-0.000848912352609106,-0.000470655494874535,0.0423171017188355,0.023264939612421,2.597536320483,-0.000882891178460557,0
0.21,0.000841840588392959,0.000482725296703296,-0.0418066410486233,-0.0241649488062657,-0.000848776126911672,-0.000470423612000833,0.0423156271880249,0.0232621512818991,2.59753055714147,-0.000838213096325969,0
0.22,0.000841589354681544,0.000482723989624848,-0.0418038058928556,-0.02416486796899,-0.000848647526271705,-0.000470204708850884,0.0423142171490718,0.023259536928913,2.59752511217594,-0.000796003102381249,0
0.23,0.000841351860339354,0.000482722754599882,-0.0418011188135142,-0.0241648086473825,-0.000848525955395777,-0.000469997780552923,0.0423128951445017,0.0232570508774554,2.5975199679989,-0.00075612485370856,0
0.24,0.000841127520926823,0.000482721587653401,-0.0417985803600186,-0.024164749315263,-0.000848411116533884,-0.000469802314797247,0.0423116434312313,0.0232547040344696,2.59751510799414,-0.000718449541053792,0
0.25,0.000840915407482751,0.000482720485040105,-0.0417961722169769,-0.0241647085658252,-0.000848302533322834,-0.000469617505186186,0.042310468805868,0.0232524704384314,2.59751051646378,-0.000682855470861276,0
0.26,0.000849361328071357,0.000487618407882739,-0.0422161491530047,-0.0244098887131416,-0.000856867128235554,-0.000474304861748845,0.0427377401204798,0.0234847074857454,2.59750623335019,-0.000675534700171234,0
0.27,0.000821705627770048,0.000471883008685853,-0.0408726727667873,-0.0236221944882283,-0.000829090275924111,-0.000458784292411438,0.0413684534475249,0.0227427903059525,2.59750194403022,-0.000560063315938063,0
0.28,0.000819082541131645,0.000470367082753246,-0.0406630210647619,-0.0235462954265587,-0.000826437213756,-0.000457321477129263,0.0411950779860038,0.0226025410110261,2.59749805853301,-0.000522624734073695,0
0.29,0.000839194026966317,0.000482175893824752,-0.0417397327818031,-0.0241374397351784,-0.000846953016291182,-0.000468413060958927,0.0422582933660851,0.0232176211410985,2.59749454777538,-0.000556116709364915,0
0.3,0.000834169569128156,0.00047949922799527,-0.0414991416594627,-0.0240034403748125,-0.000842063280620012,-0.00046549738037821,0.0420191674539505,0.0230810197949788,2.59749175799419,-0.000519830260554953,0
0.31,0.000839626704303784,0.000482574351382757,-0.0417713516062189,-0.0241573789309171,-0.000847520744636073,-0.000468571867064209,0.0422918612472704,0.0232340965837692,2.59748849478398,-0.00051132554915134,0
0.32,0.000839742137925488,0.00048270827858784,-0.0417823843488306,-0.0241641000257141,-0.000847696547863876,-0.000468598658944488,0.0423033953766705,0.0232399249467638,2.59748537518857,-0.000487919652030459,0
0.33,0.000839618151324865,0.000482713466656256,-0.0417814258575915,-0.0241643559285863,-0.000847638186055979,-0.000468487392002404,0.0423031866878947,0.0232388476518511,2.59748242622729,-0.000465094968604895,0
0.34,0.000839490089755696,0.000482713055243798,-0.0417799851126915,-0.0241643281152314,-0.000847572847047353,-0.000468375675552085,0.0423024818224029,0.0232375115049472,2.59747964009292,-0.000443498197342089,0
0.35,0.000839368549795338,0.000482712433896313,-0.0417785953012863,-0.0241643101138241,-0.000847510631723256,-0.000468269778375328,0.0423018081348663,0.0232362203713659,2.59747700786528,-0.000423092939019331,0
0.36,0.000839253875966795,0.000482711836649097,-0.0417772883408064,-0.0241642691723278,-0.000847451922740214,-0.000468169866832913,0.0423011543240226,0.0232350181536148,2.59747452104585,-0.000403814828125866,0
0.37,0.000839145258104284,0.000482711271914859,-0.041776038050842,-0.024164249678564,-0.000847396311748039,-0.000468075236546847,0.0423005450024,0.0232338591338872,2.59747217160211,-0.000385601666694828,0
0.38,0.000839043040716305,0.000482710738327143,-0.0417748752567658,-0.024164210160859,-0.000847343979545221,-0.000467986176504463,0.0422999608219315,0.0232327908327771,2.59746995194562,-0.000368394628391186,0
0.39,0.00083894612259068,0.000482710234187551,-0.0417737577352556,-0.0241641891769601,-0.000847294358040608,-0.000467901739291372,0.0422994130817112,0.0232317568609543,2.59746785490637,-0.000352138133561658,0
0.4,0.000838854617779673,0.000482709757873099,-0.0417727033205324,-0.0241641696307853,-0.000847247508115571,-0.000467822017553836,0.0422988965448644,0.0232307810401941,2.59746587371061,-0.000336779672718935,0
0.41,0.000838768177034964,0.000482709307849434,-0.0417717060558777,-0.0241641500680542,-0.00084720325070913,-0.000467746707822642,0.0422984070328055,0.0232298587558599,2.59746400195963,-0.000322269637076971,0
0.42,0.00083868650931825,0.000482708882666281,-0.0417707621894775,-0.0241641304897488,-0.000847161436794093,-0.000467675556691098,0.0422979427451835,0.0232289865414027,2.59746223360714,-0.000308561158313803,0
0.43,0.000838609381796464,0.000482708480953484,-0.0417698703221937,-0.0241641094411817,-0.000847121947380815,-0.000467608360796942,0.0422975018462942,0.0232281637109141,2.59746056294114,-0.00029560995718477,0
0.44,0.000838536561643795,0.000482708101416674,-0.0417690284520309,-0.0241640898334701,-0.000847084663395405,-0.000467544917015447,0.0422970859162431,0.0232273868160094,2.5974589845653,-0.000283374200499938,0
0.45,0.000838467757819531,0.000482707742832135,-0.0417682312225709,-0.0241640702122708,-0.000847049435543618,-0.000467484972633607,0.0422966910566525,0.0232266518108785,2.5974574933816,-0.000271814366001571,0
0.46,0.000838402795700687,0.000482707404044069,-0.0417674784833498,-0.0241640505781276,-0.000847016174720365,-0.000467428374748231,0.0422963173023344,0.0232259583625658,2.5974560845732,-0.000260893114699265,0
0.47,0.000838341384248961,0.000482707083960249,-0.0417667638197051,-0.024164030931997,-0.000846984731480912,-0.000467374871049009,0.0422959614393809,0.0232253007896979,2.59745475358954,-0.000250575170266617,0
0.48,0.000838283407046539,0.00048270678154847,-0.0417660891381557,-0.0241640098188229,-0.000846955046708264,-0.000467324358810707,0.0422956233099763,0.0232246812947159,2.59745349613183,-0.00024082720509643,0
0.49,0.000838228342599516,0.000482706495833966,-0.041765435647435,-0.0241640101350025,-0.000846926851520324,-0.000467276388908437,0.042295312870343,0.023224071775301,2.59745230813799,-0.000231617732650666,0
0.5,0.000838176651826744,0.000482706225894646,-0.041764833255939,-0.0241639904540391,-0.00084690038555007,-0.000467231352907836,0.0422950102494832,0.0232235191036026,2.59745118577086,-0.000222917005757331,0
0.51,4.66099352929789,0.0244353540462275,6.95146355529883,-1.21551533517849,-0.5618635599793,4.62706895417083,-2.07999122321596,6.74343826264069,0.126080556328946,38.883103137386,2188.79647887981
0.52,4.63604188924736,0.0286683867042218,8.20035927566967,-1.41805540762041,-2.48738824967329,3.91236577669314,-5.63433474637353,6.12462614001468,0.572494572591986,83.0035137738984,2188.79647887981
0.53,4.65761226222111,0.0454534481265263,7.1232488250396,-2.24781515657209,-4.53187634225766,1.07587862680899,-7.44418653874796,-0.614356230428996,1.34746750225064,129.000384779344,2188.79647887981
0.54,4.60407229889876,0.0440880367665906,9.80184063814704,-2.17640132299747,-2.88484608119334,-3.58846604781155,-4.35876697957647,-9.04510657936819,2.47404052683707,178.185014811191,2188.79647887981
0.55,4.61651475533899,0.0428796325273517,9.18127247404504,-2.10245830454739,3.29518195618669,-3.23354650883051,8.0711424805747,-4.85517808358045,-2.33746607399635,222.770727283711,2188.79647887981
0.56,4.57575815453214,0.011487293738893,11.2206704287327,-0.529029844705943,2.34909448061751,3.92676072199684,5.28156316952318,9.91405103543261,-0.536604377839471,269.86344294796,2188.79647887981
0.57,4.57508460360921,0.0241802158375264,11.2560099490224,-1.14709153702969,-4.57250493128388,-0.155507126539512,-11.2022794062575,-1.5882427619717,1.61007754641832,314.939126526308,2188.79647887981
0.58,4.59681564309809,0.0126983628249394,10.1712615959124,-0.571194806634693,3.73104921132828,-2.68517170544015,8.6043239499241,-5.45402927424958,-2.19184798330767,362.032713808123,2188.79647887981
0.59,4.57496788045309,0.0938565395681552,11.2654131985756,-4.62980678931736,-2.60330719445755,3.76323422184731,-10.3504362830788,6.41974409077,0.625696083552687,407.99862909911,2188.79647887981
0.6,4.57184675301906,0.0690425489259417,11.4233022642124,-3.36642834190239,2.67532235792563,-3.70799135487616,9.52294241557027,-7.15110076494916,-2.50148072310653,453.382494932263,2188.79647887981
0.61,4.54266289658968,0.0122204667866654,12.8843200321574,-0.509258559432094,-3.79531840710384,2.49629600018904,-11.0623039146562,6.62498898649566,0.991696113997516,499.198816555613,2188.79647887981
0.62,4.54977408457542,0.06565639907237,12.530660985027,-3.18088397478473,4.52991253755139,0.429706161868708,12.1102371183124,4.52522314598613,-1.46178993117865,545.285390062275,2188.79647887981
0.63,4.53533916924969,0.016542997601432,13.2544496350508,-0.730358113753399,-1.93688554152242,-4.10098152275056,-4.9551838014807,-12.3150319364575,2.70399874070354,591.447506804051,2188.79647887981
0.64,4.52239798636181,0.0179615237840046,13.9036487245397,-0.788663075816374,-3.5922675745663,2.74736598146398,-11.5540490467482,7.77414869473744,0.921862015811428,637.03765985683,2188.79647887981
0.65,4.53157465894391,0.0613612159741281,13.446907827342,-2.93731580539654,2.32814476461918,3.88827417286703,4.21071653351004,13.1040841164917,-0.525967574623413,682.171486818623,2188.79647887981
0.66,4.53633563883286,0.0689269537137194,13.2110621733766,-3.33085939260402,4.52085037833755,-0.380793657744686,13.4088840192779,2.41425296927935,-1.63963526585671,728.284535633943,2188.79647887981
0.67,4.54119142309596,0.0719109879336584,12.9705563210782,-3.45178115730701,2.95064510001289,-3.45272127823197,11.1699117558561,-7.44198869943974,-2.4186086148184,773.407412906902,2188.79647887981
0.68,4.47547087883117,0.0426494799547794,16.2588944944981,-2.00214021127948,1.18270909876584,-4.31657940423928,6.37153046231145,-15.0918459830691,-2.8646343062385,819.34586157637,2188.79647887981
0.69,4.46089956461654,0.0766712877974687,16.989837422225,-3.66589802693732,0.653866705135948,-4.41338438659984,6.39495195211242,-16.1616203862024,-2.9773214944811,864.244749531378,2188.79647887981
0.7,4.53314470052482,0.106240723559586,13.3799570396695,-5.14143610374393,1.6030986281438,-4.24155192773614,9.78781440118895,-10.4716906390593,-2.75680521316542,909.675276831407,2188.79647887981
0.71,4.49280474714486,0.0587600997928093,15.3994001693074,-2.76618213185863,3.58776296245445,-2.7049406963065,14.052679444346,-6.87862556006166,-2.20373322751319,955.180396373718,2188.79647887981
0.72,4.507581711504,0.104066539405335,14.6630963886093,-5.02874565308371,4.39120781333332,1.02294509658608,12.9464896433706,8.52543749370978,-1.31884220621236,1000.47854196451,2188.79647887981
0.73,4.49936100034262,0.113005111955633,15.0767014732157,-5.46442674667416,0.571326402340502,4.46437069571075,-3.89818704480768,15.5554178582874,-0.102172293507769,1045.63813071791,2188.79647887981
0.74,4.47679652834764,0.132614055689368,16.2075110300549,-6.42857050765869,-4.42532542040737,0.689774287349245,-16.8825856788498,-4.35754900805326,1.44578468538796,1090.71409320262,2188.79647887981
0.75,4.47829791234136,0.103486321563178,16.1350898763016,-4.95642717135061,0.714112951023935,-4.42220581877546,7.81301068921872,-14.9620907493367,-2.95838703480661,1135.94732942668,2188.79647887981
0.76,4.42754151503558,0.128658019621362,18.6756412121314,-6.25212889132872,3.10682797431295,3.15710257853668,8.12533385190556,17.9401126014617,-0.748321894324433,1181.31782647702,2188.79647887981
0.77,4.43334920034843,0.193991575187848,18.3880298535094,-9.48037545779413,-4.36809931013531,-0.78225717016167,-15.863521989646,-13.2795267535524,1.79173142165028,1225.98374447223,2188.79647887981
0.78,4.47290864485942,0.143078760882974,16.4128659252196,-6.96171169878397,4.45988567108817,-0.369869000994062,16.7449879940659,6.11988355565769,-1.62156241926005,1271.31838691113,2188.79647887981
0.79,4.4087791569905,0.176872846193088,19.6222209774704,-8.60205948685601,-4.4099301358689,0.14537487950002,-19.5602728108113,-8.74200841172804,1.57793973785569,1315.86605210264,2188.79647887981
0.8,4.34535015047555,0.119121232733641,17.6966919549294,-5.73413043297133,4.05812842451804,1.55815643901522,14.1394337336417,12.0884064980437,-1.17678746338241,1360.73090541111,2188.79647887981
0.81,4.13899727284947,0.111693625214255,18.3643261200129,-5.38799748699404,-0.198150469735901,4.13575994007296,-6.74626994076333,17.9099646188482,0.0748540165953493,1403.66341830267,2188.79647887981
0.82,3.92161825177972,0.0815580946705866,19.9706447193348,-3.89087965162368,3.43797999754682,-1.88839481358272,19.5019558856638,-5.79994065512215,-2.05228832345449,1444.48434805545,2188.79647887981
0.83,3.72314707683328,0.166674539125838,20.9726881288642,-8.15535089510695,-2.64541157315236,-2.62514802751322,-8.21363428874296,-20.9499309627433,2.39708708356358,1483.56890733855,2188.79647887981
0.84,3.56137372920526,0.0904309319715466,20.5332092229022,-4.34754571449892,-2.60051810769872,2.43492631594094,-18.2299100734319,10.4011640428233,0.843658249015119,1520.93026839173,2188.79647887981
0.85,3.43032918084296,0.12072499255039,18.9183388238665,-5.87008756504168,1.57667878626322,3.04890419949801,2.78785991852757,19.6109487009308,-0.442078343915842,1556.67664404706,2188.79647887981
0.86,3.23861411318611,0.0965837809408596,20.6655867734765,-4.66206240610077,3.23235304878578,0.223256733099735,20.1051192251013,6.67723621829631,-1.47202270383625,1590.74861134861,2188.79647887981
0.87,3.09705248775342,0.1409355640273,20.2248578706059,-6.86276510897182,2.30524718823508,-2.07302492658472,19.9899021738917,-7.51972286094179,-2.25772945851817,1623.2447356269,2188.79647887981
0.88,2.97104206938416,0.144694597941939,19.3976868266259,-7.02856539842378,0.829712000652419,-2.85650231939298,12.9566746024861,-16.0560134849553,-2.81024380332349,1654.23857338943,2188.79647887981
0.89,2.84646448356129,0.0342634652588206,18.7922433878815,-1.56970844751282,-0.0292345467067702,-2.84652057475547,1.60290636163551,-18.7894408473322,-3.13982594695259,1684.14678259538,2188.79647887981
0.9,2.73523937904081,0.0835930794878924,17.7366313686219,-4.00219834274878,-0.396189167229877,-2.70768469496792,1.94529331005489,-18.0782056028506,3.02685540070071,1712.42090003919,2188.79647887981
0.91,2.54624835215331,0.0945850591374495,20.9460430130123,-4.60429157101113,-0.165982137706673,-2.54259256158312,4.01484370218103,-21.0669705658147,3.11353424279376,1739.55339036102,2188.79647887981
0.92,2.4298881675309,0.0949161049653764,20.7140237350944,-4.58904038548511,0.515524458568857,-2.37646798974986,9.62146346467074,-18.909191197819,-2.88893152765709,1765.34380199751,2188.79647887981
0.93,2.3194421272272,0.0513637580682882,20.5372388406309,-2.45834146593776,1.48744843023184,-1.7804345493727,15.3641598969296,-13.8478956026483,-2.42347040455752,1790.04995197388,2188.79647887981
0.94,2.18854096842999,0.139558849063887,21.5628289292113,-6.8171569920536,-2.11396788352016,-0.58337640532832,-18.1506768104289,-13.4900760638366,1.90373914618964,1813.42167010895,2188.79647887981
0.95,2.13281665427029,0.0847606179330451,19.0976797527043,-4.11957191451498,-0.961925852906112,-1.90546317114657,-4.17435638777026,-19.0857798751739,2.7138125912923,1835.92759007101,2188.79647887981
0.96,1.98176382812919,0.0322418791343813,21.6394808179545,-1.52412868369933,0.996164641642176,-1.71350034023729,12.483870925723,-17.7409995497713,-2.59872217093546,1857.34320749711,2188.79647887981
0.97,1.89224439933991,0.0997054581975155,21.2734189009192,-4.83398735340891,1.89308050526758,0.0823179555351822,20.7114363684611,6.8528963965676,-1.47469714705694,1877.70583990156,2188.79647887981
0.98,1.81838102534849,0.116098691319812,20.3389443785926,-5.67561962110188,0.482449769218554,1.7570517009054,-1.43299231309908,21.0673170942462,-0.20421417231764,1897.21229215278,2188.79647887981
