t,iq,id,vq,vd,ia,ib,va,vb,theta_e,omega,r
0,0,0,0,0,0,0,0,0,0,0,0
0.01,0.000802093604055361,0.000458437693299569,-0.0393309314504285,-0.0229585614053122,0.000907617334380289,0.000172482006704369,-0.044816418239989,-0.00809360035448863,-0.863758790734268,-0.001541569561181,0
0.02,0.000888064075495454,0.000507836441465208,-0.0436720067394814,-0.0254324475944006,0.00100507061856379,0.00019075823747728,-0.0497239933623536,-0.00903205665371185,-0.863770216589883,-0.00165279512229551,0
0.03,0.000916250248704713,0.000523967588988811,-0.0450642547141795,-0.026240291571092,0.00103698118438828,0.000196790690295217,-0.0513073801490808,-0.00932162522943745,-0.863781918521506,-0.00164806179170253,0
0.04,0.000899922178192986,0.000514875241852189,-0.0442936950771136,-0.0257849563881352,0.00101866289801273,0.000193086358110187,-0.0504258495538376,-0.00916673858556509,-0.863792829418433,-0.00155919702827106,0
0.05,0.000915941726129809,0.000524076590301533,-0.0450935956710837,-0.0262457717321362,0.00103682170149674,0.000196484802142922,-0.0513334515153779,-0.00933539821758685,-0.863803723625681,-0.00153453222346673,0
0.06,0.00091596658950772,0.000524223588197769,-0.0451162156892487,-0.0262531157094975,0.0010369381579884,0.000196378257515894,-0.0513555187099503,-0.00934396599988544,-0.863814263684526,-0.00147999891568281,0
0.07,0.000941621687456703,0.000539013286755757,-0.0463821970363699,-0.0269937827455248,0.00106605294791027,0.000201786614620189,-0.0527992677792524,-0.00960259500385343,-0.863824322230807,-0.00147875911745045,0
0.08,0.000915935589008168,0.000524461507871603,-0.0451551251396764,-0.0262650463183138,0.00103707303270069,0.000196156573419519,-0.0513930383765818,-0.00935914477429426,-0.863834177020155,-0.00137681565435674,0
0.09,0.000915282947994599,0.000524222489425097,-0.0451425276139694,-0.0262530657368823,0.00103642339681583,0.000195904660081021,-0.0513757662453385,-0.00935958880867037,-0.863843575052732,-0.00132685377688731,0
0.1,0.00091506103161361,0.000524216331328315,-0.0451501204608233,-0.0262527649538283,0.00103625243441515,0.000195755832040224,-0.0513814287482471,-0.00936428455017319,-0.863852618442251,-0.00127958237897569,0
0.11,0.000914854249319372,0.000524214045416411,-0.0451577564126084,-0.0262526533656708,0.00103609542522924,0.000195614244697558,-0.0513872438143317,-0.00936888179693674,-0.863861321950787,-0.00123410119346654,0
0.12,0.000914655499680809,0.000524211904415693,-0.0451651170994128,-0.0262525476343385,0.00103594455156401,0.000195478105966667,-0.0513928504014934,-0.00937331251514672,-0.863869698375032,-0.00119032945170172,0
0.13,0.000958216833146177,0.000549189766161132,-0.0472971400134548,-0.0275034380789672,0.00108529176133124,0.00020476984975171,-0.0538264946303711,-0.00980647925723415,-0.863878114124439,-0.00123308775234565,0
0.14,0.00101979280535112,0.0005848789187695,-0.0504592541055757,-0.0292907458062005,0.00115529372687371,0.000217616911367528,-0.0573917913243744,-0.0105007810830423,-0.863886146230786,-0.00131353806803021,0
0.15,0.000915861691307826,0.000525192420091755,-0.0452729188500004,-0.0263016371263897,0.00103750327916607,0.000195490821898926,-0.0515069304154923,-0.00940475496228565,-0.863893947996967,-0.0010671417098649,0
0.16,0.00091394022870837,0.000524219926232542,-0.0451941569163447,-0.02625293838552,0.00103541202102927,0.000194974919973913,-0.0514154798923548,-0.00939026201402056,-0.863901104358963,-0.00102627409096649,0
0.17,0.00091374733980026,0.000524202381205407,-0.0451987601859996,-0.0262520601528693,0.00103525529761701,0.000194855860084778,-0.0514184743875149,-0.00939356568518269,-0.86390798583389,-0.000990255731825947,0
0.18,0.000913589725397183,0.000524200431620588,-0.0452045497634039,-0.0262519618198217,0.00103513547335001,0.000194748121107677,-0.0514228750751232,-0.00939706005672594,-0.863914608598041,-0.000955646903597406,0
0.19,0.000913438513843899,0.0005241987980934,-0.0452101437536021,-0.026251875142247,0.00103502067321894,0.000194644559403362,-0.0514271323178246,-0.00940043128108767,-0.863920982472554,-0.000922339642045503,0
0.2,0.000913292698061601,0.000524197229793394,-0.0452155119519111,-0.0262518102538248,0.00103490997051102,0.000194544701784908,-0.0514312298122498,-0.00940365156073888,-0.86392711681255,-0.000890284105086339,0
0.21,0.000913152778788757,0.000524195720391705,-0.0452206979531517,-0.0262517236006386,0.00103480374376463,0.000194448868799254,-0.0514351725012102,-0.00940678186976043,-0.863933020619959,-0.000859433236454431,0
0.22,0.000913017847834719,0.000524194267619297,-0.0452256742251484,-0.0262516587284166,0.00103470130272928,0.000194356463231889,-0.0514389678072814,-0.0094097707747835,-0.863938702558349,-0.000829741763694403,0
0.23,0.000912887980945325,0.000524192869353797,-0.0452304618886576,-0.0262515938615994,0.00103460270536024,0.000194267527129636,-0.0514426177227913,-0.00941264812698498,-0.863944170965432,-0.000801166115972891,0
0.24,0.000912763061705253,0.000524191523553495,-0.0452350717752388,-0.0262515289996721,0.00103450786347637,0.00019418197801145,-0.0514461305555746,-0.0094154205530294,-0.863949433866272,-0.000773664359878019,0
0.25,0.000912642799076199,0.000524190228253122,-0.0452395052139708,-0.0262514641421946,0.00103441655609276,0.000194099620254385,-0.0514495073851986,-0.00941808852337948,-0.863954498983445,-0.000747196137879653,0
0.26,0.000921206130143731,0.000529121149206645,-0.0456650944556408,-0.0264984008357416,0.00104413152070555,0.000195906335327011,-0.0519335480840279,-0.00950645474917895,-0.863959346458758,-0.000739065883706832,0
0.27,0.000887481486144943,0.000509875953034904,-0.0440374737646109,-0.0255345968340695,0.00100598909683889,0.000188634071086198,-0.0500699921967072,-0.00918208105327699,-0.863964154653769,-0.000647323179770579,0
0.28,0.000878470646909839,0.000504619277073274,-0.043465344435209,-0.0252713357536858,0.000995724063388623,0.000186774949779121,-0.0494640037164563,-0.00901048910910332,-0.863968699911383,-0.000605925400563948,0
0.29,0.00091163429138387,0.000523867286090199,-0.045227900339711,-0.0262352888932465,0.00103344350888948,0.000193671186800433,-0.0514303516919396,-0.00942190412254015,-0.863972926129486,-0.000649771248463517,0
0.3,0.000908873965724947,0.000522379084533343,-0.0451013825900764,-0.0261607637549208,0.00103037872074193,0.000193006438682029,-0.0512857804378876,-0.00939622246724748,-0.863976618439253,-0.000625179523118075,0
0.31,0.000911967461371562,0.00052415417606717,-0.0452597467946993,-0.0262496461086637,0.00103388466943537,0.000193661408638038,-0.0514639653892807,-0.00943127070766698,-0.863980650929001,-0.000610428267864214,0
0.32,0.000911928848432033,0.000524182066100234,-0.0452657569055423,-0.0262510492222688,0.00103387417257662,0.000193611100670135,-0.051469483598849,-0.0094339064850909,-0.863984542702061,-0.000590198168056503,0
0.33,0.000911840873541771,0.000524181577612112,-0.0452690733403829,-0.0262510293968854,0.00103380768104382,0.00019355046779621,-0.0514720280054657,-0.00943588249702474,-0.863988288402148,-0.000570626475837534,0
0.34,0.000911755343341662,0.000524180662961053,-0.0452722220484607,-0.0262509862897635,0.00103374274412448,0.000193491892606253,-0.0514744284334785,-0.00943777451718261,-0.863991893339387,-0.000551788581307846,0
0.35,0.000911673206714957,0.000524179775418729,-0.045275260156563,-0.0262509214439941,0.00103368037881516,0.00019343564111225,-0.0514767293747778,-0.00943961820091773,-0.863995362800793,-0.000533658598331667,0
0.36,0.000911593962940163,0.000524178921080099,-0.0452781731328324,-0.0262508783328525,0.00103362020933268,0.000193381378195284,-0.0514789480570473,-0.00944137079204032,-0.863998701877371,-0.000516209951667622,0
0.37,0.000911517495603193,0.000524178098815397,-0.0452809652977,-0.0262508569507752,0.00103356214740366,0.000193329024005118,-0.0514810878067397,-0.00944303484989475,-0.864001915469008,-0.000499417036732378,0
0.38,0.00091144407259325,0.000524177307423241,-0.0452836597555907,-0.0262508138318735,0.00103350639691254,0.000193278748505112,-0.0514831380099832,-0.0094446581907874,-0.864005008291963,-0.000483255210704438,0
0.39,0.000911373443550205,0.000524176545745964,-0.0452862534264956,-0.0262507707099298,0.00103345276763405,0.000193230385261374,-0.0514851104802296,-0.00944622205501438,-0.864007984884236,-0.000467700756848662,0
0.4,0.000911305608474057,0.000524175812668504,-0.0452887553171588,-0.0262507275844513,0.0010334012597208,0.000193183930569862,-0.0514870121065074,-0.00944773206832805,-0.864010849614072,-0.000452730849719631,0
0.41,0.000911239967760565,0.000524175107118047,-0.0452911441821272,-0.0262507061819655,0.00103335141734698,0.000193138991489248,-0.0514888408803098,-0.0094491576968669,-0.864013606685391,-0.00043832352166543,0
0.42,0.000911177138542015,0.000524174428061436,-0.0452934592268369,-0.0262506630487823,0.00103330370995149,0.00019309596535309,-0.0514905984343818,-0.00945055723770201,-0.86401626014414,-0.000424457630593533,0
0.43,0.000911116387267013,0.000524173774505193,-0.0452956718731597,-0.0262506387251276,0.00103325757983325,0.000193054372503319,-0.0514922893986401,-0.00945188110403499,-0.864018813883974,-0.000411112828944958,0
0.44,0.000911058098244718,0.00052417314549166,-0.0452978090045872,-0.0262505955849769,0.00103321331936816,0.000193014459334343,-0.051493909817555,-0.00945317517470094,-0.864021271652731,-0.000398269533834017,0
0.45,0.000911001887171019,0.000524172540100424,-0.0452998589153714,-0.0262505741614818,0.00103317063642903,0.000192975973233271,-0.0514954771443549,-0.00945440083956832,-0.864023637056434,-0.000385908898312858,0
0.46,0.000910948021929712,0.000524171957444834,-0.0453018422374018,-0.0262505310137687,0.00103312973484577,0.00019293908522307,-0.0514969788911134,-0.00945560435379425,-0.864025913566911,-0.000374012783715078,0
0.47,0.000910896001806974,0.000524171396671412,-0.0453037407405834,-0.0262505095804562,0.00103309023395354,0.000192903467325522,-0.051498429433724,-0.00945674067442727,-0.864028104524395,-0.000362563733037021,0
0.48,0.000910845844329177,0.000524170856959005,-0.0453055620397251,-0.0262504881422275,0.00103305214718435,0.000192869128205325,-0.0514998204885916,-0.00945783109827242,-0.864030213144164,-0.00035154494532084,0
0.49,0.000910797665911641,0.000524170337517075,-0.045307318307898,-0.0262504666984309,0.00103301556316759,0.000192836140846046,-0.0515011613411966,-0.00945888337208236,-0.864032242520569,-0.00034094025099752,0
0.5,0.000910751233723724,0.000524169837584966,-0.0453090040972725,-0.0262504452499625,0.00103298030493869,0.000192804351537781,-0.0515024478768812,-0.0094598938047458,-0.864034195631448,-0.000330734088163406,0
0.51,4.5948227174007,-0.0394335016345968,10.2603100389366,1.9814897759781,-0.540709014260885,4.56306745153846,0.849769569313009,10.4152847059732,0.109364880094939,33.6882310862581,4213.84688707247
0.52,4.61720293680439,-0.018124156314709,9.14296620382921,0.922168802981217,-2.21229094197251,4.05273490778062,-3.538048002645,8.48094585742267,0.495746187612135,71.7962945303805,4213.84688707247
0.53,4.57341779743335,-0.0482344148100839,11.3339957209845,2.43877007465807,-4.22039357596894,1.76259892561305,-9.4483595958442,6.71830033773138,1.16463110721517,111.052338095715,4213.84688707247
0.54,4.56399335885746,-0.0284342540042273,11.8070149330798,1.44988598773629,-3.84653035232704,-2.45663349629582,-10.7629287907518,-5.06627425753972,2.13292982478983,153.658652874234,4213.84688707247
0.55,4.54817576287147,-0.0184377529814426,12.5998059444886,0.958270640618467,1.2185082317929,-4.38194938466425,2.40209255440761,-12.4057786462399,-2.87442424608569,193.592017007144,4213.84688707247
0.56,4.63235107794203,-0.0251378636462148,8.39283959941327,1.30757387610255,4.47585445186838,1.19416721910686,8.45101449069019,0.854318477553704,-1.31549406361481,232.232521267873,4213.84688707247
0.57,4.57893347345274,-0.0144063755518362,11.0656867872984,0.769333748203358,-2.37235452319658,3.91647460278134,-5.04404190007404,9.87921757028422,0.541481165625856,273.742897078104,4213.84688707247
0.58,4.56010119509506,0.0411377143114082,12.009303176242,-1.99601231057242,-2.03493288993123,-4.08108605085978,-3.46750194886039,-11.6697839807557,2.68806636668343,312.556592476148,4213.84688707247
0.59,4.5731025337648,0.0230270106575475,11.3613128184517,-1.08584589629659,4.18792381227635,1.8371421202821,9.93992804262134,5.60859347579488,-1.15236387962754,352.697600328997,4213.84688707247
0.6,4.602997588212,0.0713109739106486,9.86867796462974,-3.50363443261532,-4.60345543033885,0.0294983553672229,-9.83644685015753,-3.59312849352793,1.57987959284255,393.223552741428,4213.84688707247
0.61,4.55417083490716,0.0173585785229865,12.3121245339285,-0.798405576929255,4.52560353536087,-0.509593911361347,12.326279736832,-0.537298663314537,-1.67911486850854,432.966497310178,4213.84688707247
0.62,4.53716218589425,0.0192272767239781,13.1647331447513,-0.878327772447178,-4.5283448361816,-0.283378605237421,-13.0768572496886,-1.75426991071281,1.63753138454,472.374571905416,4213.84688707247
0.63,4.46416444259959,0.0247387970098172,16.8168658653552,-1.14201420352328,3.85664438597289,2.24848176750265,13.9002535081924,9.53384111375795,-1.03741779328625,511.986956687803,4213.84688707247
0.64,4.54539289959097,0.0791597143419351,12.7577600670374,-3.87044030189523,-1.33166399564972,-4.34666928517882,0.195739606395665,-13.3305077197051,2.86172100290566,551.80774145571,4213.84688707247
0.65,4.49294142638851,0.0707504239498618,15.3827343528645,-3.4486595597183,-3.07126983473164,3.28006553070432,-13.1694202734561,8.66534122759847,0.768281415019177,591.646250811372,4213.84688707247
0.66,4.4854668703458,0.117312675622436,15.7588929509319,-5.76901542063622,3.91661840545709,2.18935505911357,10.6043148713454,13.0066426133662,-1.03492834385175,631.111509909443,4213.84688707247
0.67,4.50899433236607,0.0207881256123068,14.5849734807475,-0.913523497370063,2.50244270744395,-3.75089889645621,8.9078443990517,-11.5847436215325,-2.54863954493684,670.193999922703,4213.84688707247
0.68,4.4314853298756,0.104563355153439,18.4629566406667,-5.11169208501085,-2.70104346778302,-3.51473468547631,-6.77635878587474,-17.9190157512124,2.50995286562889,709.875183993093,4213.84688707247
0.69,4.49290425129293,0.0424852091183381,15.3945096393077,-1.99773898163253,-4.49305845071284,0.0204783485139041,-15.384540003525,-2.0731176892334,1.57569436996229,749.476707083322,4213.84688707247
0.7,4.43304303623451,0.0458880171970348,18.3901928111277,-2.14486552905492,-3.52525695078106,2.68822240564269,-16.0210245277629,9.28043171673613,0.929655706032468,788.662304081696,4213.84688707247
0.71,4.47720104942494,0.122176998525152,16.1848559728566,-5.96933133680995,-2.32602421308397,3.82751457424887,-13.7942553680425,10.3586195176753,0.573352286831589,828.145390655904,4213.84688707247
0.72,4.46214194307874,0.0847336346892469,16.9404174263017,-4.10670951088544,-2.08688673328409,3.9449707567323,-11.7972288435336,12.8323106725734,0.505564172406734,867.85880328228,4213.84688707247
0.73,4.43815352077952,0.068042633876551,18.1425361519382,-3.23571586743396,-2.89650717461956,3.36334397013001,-14.4676246703457,11.4153104030138,0.726289710306201,906.867887383501,4213.84688707247
0.74,4.44816000330122,0.0948633152658002,17.6448882685959,-4.56807254869379,-4.16929660112242,1.55309121284648,-18.1654688115335,1.49168082328888,1.23553647583359,946.050766987596,4213.84688707247
0.75,4.43516537990201,0.117315962846325,18.2973602587227,-5.69012642757512,-4.02222717764044,-1.87246989659928,-13.8409613077198,-13.2513667701666,2.03293534236153,985.375723381674,4213.84688707247
0.76,4.44638689422889,0.165547053472411,17.7391386429994,-8.09936106435975,-0.271562261442801,-4.44117283814128,7.67391426325269,-17.927290072029,3.1177367958906,1024.58523888726,4213.84688707247
0.77,4.43859318586246,0.0862388366394922,18.1316726766909,-4.11728892736144,4.31023706310853,-1.06320415082673,18.5932610631352,0.0162850892935338,-1.79321110868706,1063.75610437922,4213.84688707247
0.78,4.38210323403553,0.0972138407558205,20.9591043582189,-4.65841403942188,0.681388337337503,4.32989482762799,-1.81850780715932,21.3934080084659,-0.133907587432096,1102.90102342368,4213.84688707247
0.79,4.38055149587691,0.0630634108705908,21.0396504038036,-2.98655176454452,-4.26871003308668,-0.985557230831978,-19.716421238693,-7.92774331666906,1.81209500749096,1142.27942777436,4213.84688707247
0.8,4.41209064992613,0.0910957248798578,19.4656627189129,-4.37146438745015,3.40836628318294,-2.80319132667013,17.9926730471111,-8.61890031250979,-2.23842985577958,1181.36673737486,4213.84688707247
0.81,4.42163128065057,0.117374706189533,18.9916642009825,-5.64930972545538,-1.11050387906428,4.28151621954932,-10.6830728139868,16.6874193555523,0.280318728702287,1220.11369652772,4213.84688707247
0.82,4.34775693048102,0.14250517597098,22.6884590694841,-6.94978503022791,-0.387938295755027,-4.33275915905915,5.65671906322139,-23.0448956681045,3.08505966702808,1259.44145084979,4213.84688707247
0.83,4.38582154966592,0.126997540898656,20.7882674706593,-6.12182217346058,-2.91768466335393,3.27699179830184,-18.7197128593361,10.9179266172269,0.756408808471916,1298.15934501456,4213.84688707247
0.84,4.39731809369286,0.137429843834211,20.2165823919942,-6.67550140714204,3.60424633690798,-2.52283604738403,20.5717281253314,-5.48420683294257,-2.15025395871724,1337.38146808498,4213.84688707247
0.85,4.28648645456133,0.157460225894792,25.7613229252439,-7.64375241089641,-4.26968470635383,0.410551283282367,-26.1680896142276,-6.10768333490978,1.51165368567512,1376.12845231782,4213.84688707247
0.86,4.37397790175733,0.16683100286203,21.3899614730129,-8.09571278520143,3.32436028038175,2.8474802887461,10.2060383093636,20.46723721818,-0.824388776414049,1414.89982907892,4213.84688707247
0.87,4.3752387700362,0.164585620928174,21.3301646828361,-7.99336288090676,0.990875236391042,-4.26473551200437,13.3173723498417,-18.480188560684,-2.87570171723705,1453.84877251578,4213.84688707247
0.88,4.37936966436301,0.143689599857049,21.1268774312848,-6.95167279941288,-4.37864308154717,-0.16434756666631,-20.5862662406541,-8.41880911860654,1.6411114195529,1492.75802089326,4213.84688707247
0.89,4.35172684796752,0.128863725596723,22.5123456797918,-6.20742238961736,-0.561854589587444,4.3172273323576,-9.69391633996441,21.2453709481227,0.159018533719937,1531.5507895622,4213.84688707247
0.9,4.31052835897261,0.181304980836667,24.5755735505724,-8.82377192101018,3.80668307390949,2.03044088916527,16.7024288168404,20.0710397805391,-1.03875988197882,1570.30461560272,4213.84688707247
0.91,4.31828366600535,0.100745041626298,24.1911824525289,-4.76638369245939,3.97030845666421,-1.7012860260525,24.2265625309321,-4.58316374245123,-1.95230400132021,1608.95149613045,4213.84688707247
0.92,4.25234201122277,0.157811872792766,27.4916379933861,-7.6061602418085,2.1237903333902,-3.68738820676679,21.0408093798457,-19.2594956793903,-2.58194202435767,1647.64431254208,4213.84688707247
0.93,4.29427564170162,0.126620078232393,25.3984358738076,-6.10157080074919,0.7865535961449,-4.2235257039013,11.3468422126606,-23.5278320903872,-2.92799314566059,1686.50830655091,4213.84688707247
0.94,4.32230788951135,0.18153780871281,24.0003159850582,-8.81277530975807,0.469933307067525,-4.30051905642015,12.318694745962,-22.4037928886769,-2.99077534147517,1725.05124097974,4213.84688707247
0.95,4.27665618188792,0.212398522419625,26.2864339623633,-10.3187208117368,1.35265008391155,-4.06266402510721,19.1473179300298,-20.7565128510214,-2.77056636878986,1763.56058549634,4213.84688707247
0.96,4.26534328465012,0.136917870044656,26.855658418924,-6.57781538608372,3.18364046176201,-2.84188902831888,24.8188194620754,-12.1868882359785,-2.26744888123615,1802.23424036577,4213.84688707247
0.97,4.3100386529276,0.187629835577321,24.6245175381211,-9.11837324280215,2.65135090150012,3.40323030987373,6.84442524072153,25.3508468833776,-0.61834139064486,1840.72946555564,4213.84688707247
