t,iq,id,vq,vd,ia,ib,va,vb,theta_e,omega,r
0,0,0,0,0,0,0,0,0,0,0,0
0.01,0.000769449180916814,0.000304549419113655,-0.0248745399208445,-0.0152332575696418,0.000208529001052631,0.000800823355313775,-0.0120889937119327,-0.0265452651802461,0.122145683913858,-0.0261873226991328,0
0.02,0.000934192283228787,0.000392412310556944,-0.0408807472432907,-0.0196280783176062,0.000275803074151562,0.000975005286041774,-0.0145069412924089,-0.0429656328703594,0.122003672488639,-0.0113366828040917,0
0.03,0.000841256203596541,0.000429170303413615,-0.0424232564224393,-0.0214666829739974,0.000323624417279529,0.000887223977337337,-0.0161454717757128,-0.04471996091825,0.121974203826516,0.000447029228872748,0
0.04,0.000720773524182723,0.000427453497130438,-0.0384994115204898,-0.0213808010274961,0.000336558200924109,0.000767436995956379,-0.0165365047526494,-0.0408152832964198,0.122002260238765,0.00353246726029391,0
0.05,0.000736366825816417,0.00043847273073497,-0.0372984540983685,-0.0219319700425322,0.000345585684477232,0.000784260780892127,-0.0172291187472719,-0.0396905965597273,0.122017741662486,-0.000383395507323091,0
0.06,0.000766522472222999,0.00044139389235852,-0.0380350770217138,-0.0220780929949889,0.000344818210944411,0.000814546297048461,-0.0172846700437036,-0.0404394541978916,0.122013464652839,-0.00166075102890758,0
0.07,0.000783050675600675,0.000447458913827546,-0.0385326658902847,-0.0223814599681558,0.000348829306011837,0.000831688616845091,-0.0175253588998036,-0.0409702073017888,0.122010065812057,-0.00216682311947208,0
0.08,0.000777788098319554,0.000443775644097214,-0.0389674707707855,-0.0221972127471689,0.000345818502394601,0.000826014958449906,-0.0172897922197251,-0.0413792595029664,0.122004510021652,-0.000784357656639187,0
0.09,0.000767126726578199,0.000442799281022232,-0.0387109676869158,-0.0221483793792487,0.000346145711740268,0.000815314518543741,-0.0172724784764814,-0.0411187453075122,0.122005977073142,-0.000324467302722794,0
0.1,0.000764135901639846,0.000442540691106497,-0.0384911028028359,-0.0221354399343695,0.000346251360235768,0.000812315169743147,-0.0172863090751053,-0.0408989757161044,0.122008042441585,-0.000499736146981565,0
0.11,0.000765715557452717,0.000442472129298105,-0.0384683192002045,-0.022132024117875,0.000345990679548376,0.000813874898124016,-0.0172856726758621,-0.0408759537354907,0.122008503992906,-0.000692800277647152,0
0.12,0.000767151866530006,0.000442453859833108,-0.0385168121895732,-0.0221310967339611,0.000345798027394376,0.000815298183888475,-0.0172788648017199,-0.0409239672448638,0.122008149561666,-0.000725902630688215,0
0.13,0.000803886250864867,0.000457672138098055,-0.0394160079068952,-0.022892300136214,0.000356436860689335,0.000853609778917011,-0.0179251916945364,-0.0419090275186272,0.122002916371429,-0.00227767643551931,0
0.14,0.000814609830810582,0.000466392717736973,-0.0412952031666278,-0.0233285004071798,0.000363790870655502,0.000865313553597213,-0.0181296186391833,-0.0438272707776634,0.121999083855313,-0.00230661782583833,0
0.15,0.000776931044973105,0.000448796437699961,-0.0394611706402254,-0.0224483548387304,0.000350910937918172,0.000825773337414429,-0.0174792195438461,-0.041899755457527,0.121998869324663,0.000312133324357474,0
0.16,0.000758463690774196,0.00044413117086855,-0.038557118334146,-0.022215010504704,0.000348521557833171,0.000806878175987815,-0.0173573146898992,-0.0409741588408262,0.122006553453754,0.000162490803867037,0
0.17,0.000760805134089216,0.000442894244852646,-0.0382974812050768,-0.0221531249603683,0.000347006265450283,0.000809052789327342,-0.017327357357197,-0.0407089756586787,0.122009764520237,-0.000588582374492067,0
0.18,0.000766629541507586,0.000442565946823849,-0.038428900276162,-0.0221367119210203,0.00034597210993441,0.000814793698028988,-0.0172951004794457,-0.0408374079798819,0.122009059166984,-0.000857513439221559,0
0.19,0.000768404148115212,0.000442478677571886,-0.0385511687479725,-0.0221323407156401,0.000345670435077485,0.000816544098784488,-0.017275927387753,-0.0409582159069572,0.122007923968904,-0.000770125162820534,0
0.2,0.000767598843299281,0.000442455516789299,-0.0385666914697822,-0.0221311858179212,0.000345745685090874,0.000815741864692944,-0.0172729033596903,-0.0409734778382252,0.122007643683356,-0.000663427326676986,0
0.21,0.0007668008739887,0.000442449420285517,-0.0385407998245618,-0.0221308791398288,0.000345836601043721,0.000814949148867186,-0.0172757425789178,-0.0409477445162199,0.122007827564921,-0.000642637959476559,0
0.22,0.000766685389858787,0.000442447826481752,-0.0385260205507508,-0.0221307967424597,0.000345848952471643,0.000814834380874797,-0.0172774533995877,-0.040933067658777,0.12200797686279,-0.000662201832610073,0
0.23,0.000766848138446012,0.000442447401139217,-0.0385267087201254,-0.02213077581068,0.00034582871240908,0.000814995872312516,-0.017277348342869,-0.0409337483872064,0.122007989726056,-0.000675708235751561,0
0.24,0.00076694534523024,0.000442447281166501,-0.0385308186060562,-0.022130769687301,0.000345816790472292,0.000815092330113223,-0.0172768434627526,-0.040937826387935,0.122007955686067,-0.000676100950046541,0
0.25,0.000766942434844905,0.00044244724710267,-0.0385322630003347,-0.0221307683242393,0.000345817125025951,0.000815089431211906,-0.0172766670300541,-0.040939259579049,0.122007938320582,-0.00067270530004854,0
0.26,0.000772347241133829,0.000445034630731087,-0.0385189932178481,-0.022260196892486,0.000347726776166515,0.000820769256596416,-0.0174067133429646,-0.0409418555369041,0.122008796171902,-0.00120053140946189,0
0.27,0.000766672442914854,0.000439479435687554,-0.0388096010297342,-0.0219823368350766,0.000342906791881082,0.000814459170983485,-0.0170957147169578,-0.0411964173579973,0.122004799014198,-7.6631344217379e-05,0
0.28,0.000761330137170285,0.000439103099277937,-0.0372133995898893,-0.021963512571719,0.000343181984293817,0.000809111386160999,-0.0172712213593522,-0.0396098208312167,0.122006578459938,-3.83310530577375e-05,0
0.29,0.00076222279335123,0.000441560612613483,-0.0383655602624416,-0.0220864258890456,0.000345510482130724,0.000810297394820902,-0.017252892265756,-0.0407684207600633,0.122009179309956,-0.000577956585181933,0
0.3,0.000745057349960739,0.000435467027334947,-0.0374603444469447,-0.02178163743669,0.000341545107696662,0.00079252061552677,-0.0170602268945549,-0.0398329737003586,0.122017049890337,-0.000851024600611639,0
0.31,0.000769697790665372,0.000440596419040284,-0.0382240504052285,-0.0220382069039074,0.000343641601240243,0.000817600356728957,-0.0172221502034941,-0.0406221384873959,0.122011745124738,-0.00156174412797867,0
0.32,0.000773810900056469,0.000441956071766688,-0.0386868784354977,-0.0221062109333623,0.000344494353579079,0.000821846773291577,-0.0172335087650661,-0.041089722566083,0.122007108045712,-0.00099012075722562,0
0.33,0.000769010309922919,0.000442316736551036,-0.0386756922962125,-0.022124255617654,0.00034543700541922,0.000817125588565127,-0.0172528015314105,-0.0410808069607251,0.122006601369273,-0.000568285365923758,0
0.34,0.000765956510749766,0.000442412607844322,-0.0385491602912195,-0.0221290400640454,0.000345902999223492,0.000814106508429802,-0.0172729083861953,-0.0409558153281846,0.122007614520173,-0.000545644002570691,0
0.35,0.000765966990135397,0.000442438107530047,-0.0385000939563048,-0.0221303102929797,0.00034592658671319,0.000814120203395549,-0.0172801183251108,-0.0409072778240991,0.122008163878771,-0.000647438121769033,0
0.36,0.000766775553288502,0.000442444843263583,-0.0385132112872673,-0.0221306476418215,0.000345834899285,0.000814923561377359,-0.0172788584018028,-0.0409203379877855,0.122008122593686,-0.000695190341996565,0
0.37,0.000767104717752456,0.000442446599204756,-0.0385314532497566,-0.0221307366306407,0.000345796712763412,0.000815250436729688,-0.0172767331959165,-0.0409384523819609,0.122007960969462,-0.000687986946441533,0
0.38,0.000767026952354496,0.000442447059571022,-0.0385354256400541,-0.022130760297697,0.000345806679411379,0.000815173286262342,-0.0172762754969631,-0.0409423971643979,0.122007905486262,-0.000672454319525523,0
0.39,0.000766908325151119,0.000442447187500267,-0.0385321878018463,-0.0221307666663978,0.000345821227840908,0.000815055563313077,-0.0172766750709471,-0.0409391845123009,0.122007925268451,-0.00066797468131559,0
0.4,0.000766880094437962,0.000442447225227766,-0.0385297481103849,-0.0221307683132238,0.000345824682594938,0.000815027554911512,-0.0172769726988316,-0.0409367635499819,0.122007947997334,-0.00067022612075565,0
0.41,0.000766899826837249,0.000442447235256948,-0.0385295394719693,-0.0221307697708327,0.000345822287652415,0.000815047143269866,-0.0172769993694752,-0.0409365567110718,0.122007952115093,-0.000672330106915968,0
0.42,0.000766915310075004,0.000442447236925588,-0.0385300298608926,-0.0221307697900799,0.000345820408417464,0.00081506251012576,-0.0172769398815345,-0.0409370433826459,0.122007947816469,-0.000672600949364007,0
0.43,0.000766916474228219,0.00044244723695426,-0.0385302224753928,-0.0221307698658773,0.000345820269087437,0.000815063664641845,-0.0172769166313213,-0.0409372345252346,0.122007944963525,-0.00067215806011961,0
0.44,0.000766912865353253,0.000442447237052717,-0.0385301080758031,-0.022130769960526,0.000345820708439659,0.000815060082591592,-0.0172769306500638,-0.0409371209868461,0.122007944920984,-0.000671904914617451,0
0.45,0.000766911119123431,0.000442447237224486,-0.0385299486187017,-0.0221307700478191,0.000345820920540828,0.000815058349616166,-0.0172769501136228,-0.0409369627383448,0.122007945651046,-0.000671917624027033,0
0.46,0.000766911235538753,0.00044244723730531,-0.0385298435399024,-0.0221307701277571,0.000345820906202087,0.000815058465282243,-0.0172769629690456,-0.0409368584557146,0.122007945958487,-0.000671989506753262,0
0.47,0.00076691181761536,0.00044244723730235,-0.0385297822211709,-0.0221307702058559,0.000345820835414091,0.000815059043007362,-0.0172769705122442,-0.0409367976011107,0.122007945888738,-0.000672015669883271,0
0.48,0.000766912050446003,0.000442447237281634,-0.0385297221128367,-0.0221307702853335,0.000345820807148963,0.000815059274065563,-0.0172769779112747,-0.0409367379473248,0.122007945775622,-0.000672007480573254,0
0.49,0.000766911934030681,0.000442447237273878,-0.0385296467059162,-0.0221307703661903,0.000345820821335548,0.000815059158503709,-0.0172769871702661,-0.0409366631102515,0.122007945743843,-0.000671997228608516,0
0.5,0.00076691181761536,0.000442447237275371,-0.0385295672879484,-0.0221307704470472,0.000345820835494621,0.000815059042958549,-0.0172769969155811,-0.0409365842927258,0.122007945757082,-0.000671995176500403,0
0.51,4.65250298477416,0.012143325796852,7.3756727508822,-0.526228765185058,-4.39796145857068,1.51784929838924,-7.14875702313137,1.890168845803,1.24108055396392,385.271786426917,3353.95448815254
0.52,4.56802136090814,0.0510404468414373,11.6012657879238,-2.41167222493821,2.35301488922716,3.91570494445152,3.78312903125756,11.2291346743837,-0.5299207606659,840.166045992914,3353.95448815254
0.53,4.49987883169853,0.134949018638562,15.0106206590466,-6.54346329805076,-3.61589328636459,2.68187182378716,-16.0578220983409,3.20655484293775,0.962615370965276,1282.07808897565,3353.95448815254
0.54,4.36647166312918,0.128412261205204,21.6837049753975,-6.15448610269824,2.61567026464033,3.49869026357212,7.43213615465271,21.2796643024999,-0.612572172595387,1717.57897487958,3353.95448815254
0.55,4.30040388226706,0.213372523105481,24.9902513232855,-10.2564053119903,-3.492657159113,2.51800463723376,-26.5490814888402,4.98525658554508,0.995729097912453,2148.17049444892,3353.95448815254
0.56,4.22641925177306,0.247223583782297,28.6931441934676,-11.9355551346066,2.34625735305996,3.52403399889221,4.175401282763,30.7948051496719,-0.528965388784827,2576.7353416489,3353.95448815254
0.57,3.26568861839579,0.207063954572901,34.6560966384966,-9.90701901346714,-2.7404894079424,1.78810386682616,-35.042250476517,8.44006762360705,1.05600354341149,2986.9701758336,3353.95448815254
0.58,1.00385691075417,0.0668437889652911,36.5917740186227,-3.24147377128704,0.985192686438001,0.203941560210801,34.3935859362782,12.9052828130087,-1.3001838330414,3193.46701730729,3353.95448815254
0.59,0.26306065222006,-0.01092103083056,32.6987125121887,0.532238980346882,0.122312754794398,-0.233151808218274,13.495189663367,-29.7887383794064,-2.6999462803143,3269.38306189667,3353.95448815254
0.6,-0.0462222899974905,0.00128791562640598,33.199762750625,-0.0185509438773182,0.0252616664648816,0.0387299241761448,-18.8897094818767,-27.302078062404,2.53577969572388,3297.54549116879,3353.95448815254
0.61,-0.142214578406985,-0.021590510353868,32.397169597226,0.991537135555097,0.140257515911297,-0.0319212418180964,-32.2381902388907,3.35541859142844,1.49768376525413,3308.09060345853,3353.95448815254
0.62,-0.220159554750904,0.0148834455179456,34.2155939916585,-0.728677266090822,0.142118740906565,-0.168801688326079,-20.8089604317796,27.1702964376314,0.632288413889266,3312.41845920741,3353.95448815254
0.63,-0.189305550317908,-0.00665133063026617,31.910774082535,0.233428862279917,-0.0465324218445958,-0.183617987402094,6.97616338009093,31.1397677588419,-0.213073663403116,3313.81409352111,3353.95448815254
0.64,-0.188929059861567,0.0471824047849647,31.838936927594,-2.34379108185986,-0.140628870640302,-0.134699256582585,26.4812962566079,17.8312144814782,-1.05166163263694,3314.48412673454,3353.95448815254
0.65,-0.254411508612452,0.00633444023872559,34.8273633881853,-0.427325837747821,-0.243948584526811,0.0724874399807799,33.2593230614968,-10.3414349795036,-1.8845225669797,3315.06648386582,3353.95448815254
0.66,-0.206817395526452,0.0642899000256293,32.4135385314123,-3.20488050332464,-0.144115143567412,0.161670812864272,16.3315013863421,-28.1813910521792,-2.71492726593188,3315.66991129927,3353.95448815254
0.67,-0.263139861183409,-0.0562878639219646,35.2674478523842,2.70270503922527,0.180288603717829,0.199767188341822,-19.97023630695,-29.193957497987,2.61813428509489,3315.86628815495,3353.95448815254
0.68,-0.190497685676165,0.0146983373323955,31.5830615900136,-0.724216857895892,0.182568424827669,0.0563398582200526,-30.6460779183631,-7.67021366569858,1.79311545200821,3316.1471342852,3353.95448815254
0.69,-0.252015442062512,0.0113964210819258,34.6595958319502,-0.683050637334619,0.214413406069382,-0.132923108409209,-28.9887869963243,19.0106383346021,0.970654746381875,3316.54292175967,3353.95448815254
0.7,-0.216947838331744,0.0109783465757119,32.8426844229198,-0.543670383700555,0.0434703907545028,-0.212831421030833,-5.47519463911525,32.38764797347,0.150916317473514,3316.85538529589,3353.95448815254
0.71,-0.268624172117395,-0.0466666348656268,35.3607131129114,2.21874684903915,-0.202731332442069,-0.182309427901304,23.6020784995044,26.4243213713613,-0.666378880068311,3317.13693700418,3353.95448815254
0.72,-0.225058465230834,-0.0085731785733555,33.2005810788235,0.432021665123892,-0.224926573907265,-0.0115259929398213,33.1068860514198,2.52968825529434,-1.48152304318152,3317.58068621288,3353.95448815254
0.73,-0.238129515952595,-0.00742337385003983,33.9045919283085,0.25922551215464,-0.173561418365169,0.16320908952079,25.2395575156537,-22.6396397521092,-2.29430056719443,3317.6304707789,3353.95448815254
0.74,-0.218063962604647,0.00243597003756896,32.9071711172315,-0.118868070239124,0.0165910758942139,0.217445537865318,-2.75148053174717,-32.7921544800017,3.05426985653114,3318.02560668829,3353.95448815254
0.75,-0.243270147577345,-0.0207719416995885,34.1102194817434,0.925953558294814,0.203009834380779,0.135642343716714,-27.2249084723151,-20.5710675891868,2.24500936250605,3318.41998536498,3353.95448815254
0.76,-0.221154682377027,-0.0321097827639378,32.9820809273536,1.60839265223074,0.214969241185171,-0.0610627302919105,-32.4800217228413,5.9542235519006,1.43821691995586,3318.64685747132,3353.95448815254
0.77,-0.232445856052198,-0.0610499008489024,33.7646234560235,2.94227347879441,0.0880446988996546,-0.223620878687946,-17.5706117166812,28.9824149140939,0.631924139866767,3318.58170975211,3353.95448815254
0.78,-0.213411770571991,0.0149150693723776,32.6893875402163,-0.743210261127202,-0.0218720769234703,-0.212811313994601,4.86887253195318,32.3333032570798,-0.172192483219503,3319.0537657024,3353.95448815254
0.79,-0.253556363673302,-0.0199573741575654,34.6468100950577,0.883622640117312,-0.220983046323488,-0.125919099345906,29.160375159242,18.7311174067482,-0.974320782657731,3319.4244439565,3353.95448815254
0.8,-0.189073240544444,0.0172068686820373,31.529688272425,-0.854285594141915,-0.184649464911174,0.0441513502379603,30.1476629279885,-9.27197208866823,-1.89625503554614,3319.51617546055,3353.95448815254
0.81,-0.250288550141434,-0.000555557352808905,34.5933267681949,-0.0864312505848145,-0.107647946401597,0.225957045943233,15.0256231003378,-31.1598520166381,-2.69477574993975,3319.67721234012,3353.95448815254
0.82,-0.198735032873211,0.0546654180789738,32.0479162596074,-2.72885958368462,0.0168169282186182,0.205429092755031,-8.42911700390675,-31.0397422306424,2.79148398756765,3319.9898009497,3353.95448815254
0.83,-0.247704150084795,-0.025308346359226,34.3576168608694,1.15248398784494,0.235952902248012,0.0795241239210435,-31.7513909649772,-13.1766166935865,1.99769202838891,3320.49374031088,3353.95448815254
0.84,-0.206201430098475,0.0586426651068803,32.2857037185995,-2.92759730151796,0.21355869464166,-0.018726342099948,-31.2078608570596,8.77535818593473,1.20625338127817,3320.70832294994,3353.95448815254
0.85,-0.269230067448894,-0.00704551023100591,35.534926493037,0.236431306704866,0.102233385097768,-0.249164209718014,-14.1279740353061,32.6065522600297,0.41552166576945,3320.7800778664,3353.95448815254
0.86,-0.174284399911418,0.0812172702082779,30.7061896650533,-4.05110553852688,0.0121028479469908,-0.191897936685467,7.4200476637395,30.0703247820562,-0.373097294625454,3321.16317113019,3353.95448815254
0.87,-0.218373146051369,0.00287316179652829,32.8996764549176,-0.252116764789568,-0.208523672865025,-0.0649073480428959,31.4672181237686,9.60554304828814,-1.28218797509425,3321.27796723894,3353.95448815254
0.88,-0.206591293767189,0.0213314259478398,32.3378946850802,-1.05770220270719,-0.1918235520023,0.0796160617626235,28.9399773395323,-14.4684442218336,-2.06709740998604,3321.75151125374,3353.95448815254
0.89,-0.244646508903014,-0.029965033214788,34.1941972558051,1.38808062223958,-0.0416386968525542,0.242932164314273,8.50173078956822,-33.1495168496383,-2.84996570603118,3321.85111591676,3353.95448815254
0.9,-0.241021208528164,0.0473302436254478,34.0986515393718,-2.36087373618202,0.0715703008789193,0.234966097456893,-13.9514198395998,-31.2033595316421,2.65201610495875,3322.0404205396,3353.95448815254
0.91,-0.256805269139721,-0.0372630974604111,34.8665348665135,1.75289456921944,0.256301731772642,0.0405821017274006,-33.8175126610698,-8.66739467123676,1.87192673801952,3322.2368299648,3353.95448815254
0.92,-0.164762180170126,0.00638719193593801,30.2870699004729,-0.299862690569761,0.149264108515959,-0.0700542514354098,-27.036352100849,13.654017206238,1.09323693004354,3322.72280347813,3353.95448815254
0.93,-0.223131089088809,-0.0612455138265422,33.2469882194815,2.9590790014551,-0.0167793386026456,-0.230774672955879,-3.54923680304387,33.1891743241545,0.195303728334893,3322.74102946688,3353.95448815254
0.94,-0.228282647200306,0.0236167957277959,33.5897791645061,-1.16790380210412,-0.105316776035428,-0.20390953076973,17.4264424325513,28.7394566364125,-0.579838100613314,3322.95015635224,3353.95448815254
0.95,-0.169552252505996,-0.0494447873486554,30.377569489357,2.37831763335696,-0.176241729246599,0.0114719744586166,30.1697724233198,4.27059185253529,-1.35204601867816,3323.63176378902,3353.95448815254
0.96,-0.21122477463667,0.0791590720609047,32.5802477313024,-3.94143485845843,-0.221434728536694,0.042996803459516,29.8308206317003,-13.6795318419831,-2.12114567929635,3323.60885101867,3353.95448815254
0.97,-0.239605921022879,-0.00270896632159529,33.8966780649682,0.0338089704663264,-0.0572010204515202,0.232693745397375,8.43049735574259,-32.8315799379408,-2.88924552995172,3323.86029173042,3353.95448815254
