t,iq,id,vq,vd,ia,ib,va,vb,theta_e,omega,r
0,0,0,0,0,0,0,0,0,0,0,0
0.01,0.000668458501105205,0.000381022985814488,-0.0330610952002179,-0.0190718930695287,3.71746623292364e-05,0.000768526725559699,-0.00204101292497725,-0.0381130868250459,0.469736720524682,-0.00123170659859812,0
0.02,0.000746750160664052,0.000425366654984592,-0.0369762445244186,-0.0212914933700393,4.12844975446465e-05,0.000858410265483268,-0.0022484004987912,-0.0426088611001639,0.469727424108656,-0.00132885363263876,0
0.03,0.000777786035630845,0.000443072812041702,-0.0385148967812746,-0.0221777723970862,4.30333001986605e-05,0.000894098858665472,-0.00234265193925594,-0.0443820103697511,0.469717862957253,-0.00133480394669422,0
0.04,0.000760128526123447,0.000433271562971057,-0.037653516792602,-0.0216871747495203,4.22938238571641e-05,0.000873916961712911,-0.00229546855505572,-0.0433918390896231,0.469708872851207,-0.00125145928331028,0
0.05,0.000777863451497479,0.000443505503705268,-0.0385360628238845,-0.0221994250980334,4.3400066935296e-05,0.000894362966128655,-0.00235317250749984,-0.0444106427762481,0.469699997278996,-0.00123595254535846,0
0.06,0.000778551466545031,0.000444069535903835,-0.0385783082519076,-0.0222276686119467,4.35993055487959e-05,0.000895231388710722,-0.00235961857284351,-0.0444610764567438,0.469691399145389,-0.0011896145828703,0
0.07,0.00079809782333027,0.000455462700994696,-0.0395493962113718,-0.0227979344915432,4.49192762648974e-05,0.000917817338157074,-0.00242897614945477,-0.045585092219169,0.469683235521294,-0.00118149220120344,0
0.08,0.0007790895167387,0.000444726914833799,-0.0386204869370149,-0.0222605635786186,4.39564643106969e-05,0.000896007998354386,-0.00237058090536976,-0.0445135378088617,0.469675220490388,-0.00110098567955671,0
0.09,0.000777699028785787,0.000444130808570269,-0.0385593446046132,-0.0222307237375695,4.40610430266637e-05,0.000894497948003817,-0.00237198323130854,-0.0444454927949262,0.469667612254744,-0.00105618611185184,0
0.1,0.000777335649737654,0.000444095883643195,-0.0385485119122041,-0.0222289874093724,4.42008856248909e-05,0.000894157786932411,-0.0023756618972623,-0.0444350299025586,0.46966031587136,-0.00101506503620383,0
0.11,0.000777043089442234,0.000444092090752265,-0.0385408820620075,-0.0222287851082475,4.43361700886401e-05,0.000893894877455129,-0.00237924571431394,-0.0444281179810392,0.469653314229507,-0.000975711301213178,0
0.12,0.000776765392973305,0.000444090095399363,-0.0385337092430809,-0.0222286886887077,4.44660743217475e-05,0.000893646046702609,-0.00238270446033559,-0.0444216621515278,0.469646595173028,-0.000937952000396444,0
0.13,0.000813055531297753,0.000464938619292251,-0.0403284668586953,-0.0232722538019309,4.66396807839465e-05,0.000935442118390886,-0.00250133649532763,-0.0464943690346639,0.46963990479068,-0.000969786867972415,0
0.14,0.000845937294624625,0.000484135308722812,-0.0420059843745872,-0.0242331330547758,4.88830898727227e-05,0.000973451255643269,-0.00259930806166755,-0.0484251077286265,0.469633471970632,-0.000996577179670747,0
0.15,0.000779983826207487,0.000446300823606812,-0.0387110545529318,-0.0223393447623926,4.49982422667903e-05,0.000897515655846899,-0.0024019819354582,-0.0446298392535177,0.469627242678475,-0.000836825490927402,0
0.16,0.000775963133981774,0.000444205664386775,-0.0385184285984442,-0.0222344794223301,4.49545676051517e-05,0.000892981827599838,-0.00239589572214358,-0.0444105967147941,0.469621557886474,-0.000797689981811607,0
0.17,0.000775520318025274,0.000444088278246831,-0.0385018717043632,-0.0222286065417772,4.50551396075331e-05,0.000892533583088728,-0.00239839287640781,-0.0443931614681674,0.469616119409956,-0.000766713233254911,0
0.18,0.000775292293203753,0.00044408039464391,-0.0384956845266629,-0.0222282130975217,4.5155956908063e-05,0.000892326440471166,-0.00240107361034382,-0.0443874535223964,0.46961090139089,-0.000737365787454096,0
0.19,0.000775084874171885,0.000444078626446843,-0.0384903075812882,-0.0222281223038863,4.52527126840394e-05,0.000892140448938225,-0.00240364816538637,-0.044382605538158,0.469605894014662,-0.000709224584385033,0
0.2,0.000774886535547732,0.000444077250262684,-0.03848518132603,-0.0222280475320697,4.53455267590119e-05,0.000891962740464522,-0.00240611454616919,-0.0443779888185131,0.469601088727518,-0.000682220352170617,0
0.21,0.000774696229579459,0.00044407594722405,-0.0384802619218553,-0.0222279742316132,4.54345964211474e-05,0.000891792236160203,-0.00240847998379282,-0.0443735576687684,0.469596477370627,-0.000656306018797242,0
0.22,0.000774513395023124,0.00044407469762011,-0.0384755293058378,-0.02222791941173,4.55201652462892e-05,0.000891628426359651,-0.00241076907761633,-0.0443693018785867,0.469592052117012,-0.000631437530189717,0
0.23,0.000774337952836497,0.000444073498376998,-0.0384709869999329,-0.0222278631418457,4.56022731369593e-05,0.000891471238935135,-0.0024129627986023,-0.0443652155537893,0.469587805456232,-0.000607572674628058,0
0.24,0.000774169611984551,0.000444072347420575,-0.038466627720762,-0.0222278083315378,4.56810565341357e-05,0.000891320413172421,-0.00241506736131076,-0.0443612935008844,0.469583730180592,-0.000584670947669151,0
0.25,0.000774008139635026,0.000444071242808471,-0.0384624467521872,-0.0222277535247669,4.57566253842568e-05,0.000891175740325206,-0.00241708391224257,-0.0443575308407017,0.469579819373358,-0.000562693479742063,0
0.26,0.000781711379394027,0.000448548898805899,-0.0388456314406736,-0.0224518779407293,4.62671537159293e-05,0.000900071189285116,-0.00244371978869382,-0.0448006488645466,0.469576101816094,-0.000556720447029613,0
0.27,0.000757654397963008,0.000434811663262787,-0.0376637484315032,-0.0217642652933287,4.49060599764943e-05,0.00087240175093785,-0.00236550750224091,-0.0434355334251439,0.469572385688302,-0.000490448386903481,0
0.28,0.000755990629046056,0.000433877362849565,-0.0375370251890825,-0.0217174935549592,4.48287638438257e-05,0.000870495134467149,-0.00238129105648803,-0.0433013537809131,0.469568923750448,-0.000468105597465891,0
0.29,0.000772412343453114,0.000443503319554432,-0.0383974402416215,-0.0221993243864429,4.59848603316351e-05,0.000889495033934879,-0.00242177398108012,-0.0442866620000647,0.469565688873575,-0.000481362275165489,0
0.3,0.000767152118883388,0.000440648898300572,-0.0381409341535388,-0.0220564514719717,4.58221038533843e-05,0.000883512399391898,-0.00241055666164423,-0.043993262282093,0.469562893540265,-0.000455884481839132,0
0.31,0.000772828913698798,0.000443876482514136,-0.0384236029393152,-0.0222179944631297,4.61343321364463e-05,0.000890035103227008,-0.0024268434250004,-0.0443184270004289,0.469559851120314,-0.000449804638724365,0
0.32,0.000773041691299733,0.000444054303394905,-0.0384369238541232,-0.0222268999538341,4.61992488902912e-05,0.000890305178156939,-0.00242888800867583,-0.044334328685193,0.469556905598224,-0.000433886680198369,0
0.33,0.000772944152467204,0.00044406339026947,-0.0384348387379207,-0.0222273582438582,4.62540054175451e-05,0.000890222176983754,-0.00243036557315812,-0.0443326697424325,0.469554077458627,-0.000418030040690806,0
0.34,0.000772833225231161,0.000444063170213389,-0.0384319828272557,-0.0222273480509365,4.63064183683495e-05,0.000890123030136317,-0.00243176906648345,-0.0443301117144909,0.469551363370241,-0.00040277985015233,0
0.35,0.000772725732212113,0.000444062464267118,-0.0384291894416864,-0.0222273131199653,4.63567460663456e-05,0.000890026730771538,-0.00243311733847378,-0.0443275985103549,0.469548758810862,-0.000388143191155888,0
0.36,0.000772622546557223,0.000444061759391355,-0.0384265059193223,-0.0222272767285377,4.640503167029e-05,0.000889934277707064,-0.00243440992472642,-0.044325182867678,0.469546259365242,-0.00037409712162738,0
0.37,0.000772523435437899,0.00044406108140787,-0.0384239248469396,-0.0222272403320309,4.64514073904207e-05,0.000889845474828832,-0.00243565166695984,-0.0443228588245203,0.469543860791189,-0.000360617911589105,0
0.38,0.00077242851526946,0.000444060430665962,-0.0384214561820982,-0.0222272039293527,4.64958245380529e-05,0.000889760425949114,-0.00243683824040871,-0.0443206352510882,0.469541559017914,-0.000347682689984636,0
0.39,0.000772337224814262,0.000444059806147986,-0.0384190757258688,-0.0222271844801571,4.65385396780972e-05,0.000889678629952756,-0.00243799589319079,-0.0443184982323382,0.469539350138922,-0.000335269503087523,0
0.4,0.000772249755225341,0.000444059206802742,-0.0384167968071265,-0.0222271480651105,4.65794687611337e-05,0.000889600256678139,-0.00243908851315819,-0.044316444298402,0.46953723040488,-0.000323357282843108,0
0.41,0.000772165778095374,0.000444058631617092,-0.0384146066395683,-0.0222271116449554,4.6618762721327e-05,0.000889525012654288,-0.00244013717147078,-0.0443144697128882,0.469535196218481,-0.000311925811433864,0
0.42,0.00077208508143574,0.000444058079618216,-0.0384124980751502,-0.0222270936272773,4.66565197190864e-05,0.000889452708252414,-0.00244116167190336,-0.0443125764222844,0.469533244126979,-0.000300955686982866,0
0.43,0.000772007856393387,0.000444057549872503,-0.0384104839854648,-0.0222270571946821,4.66926554156417e-05,0.000889383513374359,-0.00244212350518987,-0.0443107592387979,0.469531370817106,-0.000290428290627976,0
0.44,0.000771933562573636,0.000444057041483636,-0.0384085405960278,-0.0222270377061154,4.67274163832743e-05,0.000889316945569446,-0.00244306510265394,-0.0443090129523327,0.469529573109875,-0.000280325754919435,0
0.45,0.000771862237346684,0.000444056553591631,-0.0384066727586167,-0.0222270196646059,4.67607876892445e-05,0.000889253037646871,-0.00244397058510019,-0.0443073348706217,0.469527847953682,-0.000270630933494363,0
0.46,0.00077179403449034,0.000444056085370934,-0.0384048911787376,-0.0222269832139142,4.67927016494695e-05,0.000889191926246622,-0.00244481753165759,-0.0443057255496307,0.469526192420739,-0.000261327371976376,0
0.47,0.000771728413613626,0.000444055636029136,-0.0384031716140356,-0.0222269651578845,4.68234045887093e-05,0.000889133128980451,-0.00244564985729817,-0.0443041800163639,0.469524603701356,-0.00025239928004818,0
0.48,0.000771665412081474,0.000444055204805515,-0.0384015186412332,-0.0222269470943967,4.68528813428322e-05,0.000889076678710905,-0.00244644920060149,-0.0443026940196527,0.469523079098755,-0.000243831504652207,0
0.49,0.000771605029891516,0.000444054790970195,-0.0383999348658958,-0.0222269275680362,4.68811335837912e-05,0.000889022574995354,-0.00244721319991689,-0.0443012692185441,0.469521616025606,-0.000235609504271528,0
0.5,0.000771547034217831,0.000444054393822702,-0.0383984111265655,-0.0222269094900516,4.69082682589085e-05,0.000888970609779946,-0.00244794870717766,-0.0442998987544071,0.469520211998519,-0.000227719324250531,0
0.51,4.69650720716762,0.00374869508784879,5.17568439044444,-0.181754037480533,-0.342965552951991,4.68396932410756,-0.563335794851694,5.14814493015392,0.073888888274158,22.8284534501083,1570.96232795361
0.52,4.67474289901898,-0.0219249131619597,6.26508505722814,1.11029071606801,-1.56166866939596,4.40623340743231,-1.01697114450589,6.28090805057139,0.335919278081353,48.7015410454525,1570.96232795361
0.53,4.6246143050669,0.017018168069372,8.77273846653698,-0.831676288304628,-3.27116828272477,3.26906793364245,-6.81375892148397,5.58796161499731,0.789399200257942,75.2128638678853,1570.96232795361
0.54,4.68915500021999,0.00462763117783149,5.54697462843468,-0.205873503814914,-4.65073420621928,0.599055401578504,-5.52831874344005,0.499002303602369,1.44367980230847,103.770845912181,1570.96232795361
0.55,4.6256108272717,0.0531743430971354,8.72556673163262,-2.63124475138015,-3.45568478710213,-3.07527977399258,-4.6794118710922,-7.82061815143285,2.30950898145144,131.851652587063,1570.96232795361
0.56,4.67446368185614,0.052097013280064,6.2843303919355,-2.56620658503678,1.01211327046489,-4.56387461917323,3.92787757829363,-5.53624443481576,-2.91221371969817,157.731136335688,1570.96232795361
0.57,4.64453553415184,0.0465937574104963,7.78216964076725,-2.29069075910108,4.62437821167802,-0.434749883940539,7.94644179696693,1.6320206000316,-1.65450181214873,185.977048078826,1570.96232795361
0.58,4.59302236444783,0.00757133956759537,10.3593357639475,-0.324833809130817,0.889078319298505,4.50615706646519,1.66971995203355,10.2290463756666,-0.193152510836942,212.309700461033,1570.96232795361
0.59,4.61192218634961,0.0157098138367551,9.41591827912559,-0.732777750777789,-4.58398574975194,0.507097325240153,-9.44038958682999,0.27481761238722,1.4640269636444,240.229695660083,1570.96232795361
0.6,4.60589934169931,0.0666676968967206,9.7186524201774,-3.26647254719106,0.754907184187406,-4.54410260347826,4.94553350421129,-8.98129980150404,-2.96249376091425,266.48249999593,1570.96232795361
0.61,4.60040846474439,0.00196739647894639,9.99487704862307,-0.0251638003455041,3.62256255832551,2.83563086881189,7.85224752313155,6.18388302520467,-0.906222894820711,293.744228100464,1570.96232795361
0.62,4.61396765377867,0.00952605287783914,9.31856756488478,-0.402391344731475,-4.49714629301633,1.03172839207262,-9.17606198597382,1.67257486684563,1.34734493692143,321.198327614259,1570.96232795361
0.63,4.6012971766677,0.076522556914201,9.95376395761229,-3.75347506332321,2.7515616508585,-3.6887260526165,9.05424599456282,-5.58449831630324,-2.48406705701048,348.35288527267,1570.96232795361
0.64,4.57440669125609,0.0347944325640199,11.3000558849621,-1.66029732284406,-0.721743422444944,4.51724403388874,-3.50513928229125,10.8702276340125,0.166042214298588,375.310676665155,1570.96232795361
0.65,4.5810163710841,0.0836035478368387,10.9713297482873,-4.09784414365617,-0.664648026193783,-4.53331485191886,2.67147399869415,-11.402878134298,3.01426367497753,402.294464263978,1570.96232795361
0.66,4.6235425127914,0.00836296571158246,8.84686045527429,-0.323960793012286,1.03003936524971,4.5073533490088,1.63936064988203,8.69967741758989,-0.222857517409256,429.250547697185,1570.96232795361
0.67,4.60955835258298,0.0210383412113866,9.5479277926893,-0.94918204819071,-0.576090240404035,-4.57346595620648,-0.207742426496415,-9.59274281836273,3.02085303262849,456.09621198062,1570.96232795361
0.68,4.53990243077846,0.0902154956961985,13.0326371238922,-4.39942682338409,-0.717542594105201,4.48374681960262,-6.64418446189058,12.0440607609617,0.178555447885065,482.758011726626,1570.96232795361
0.69,4.57450314177748,0.0861477004990798,11.3045289639661,-4.18049449106197,2.79055644015599,-3.62578200871719,10.3265702115538,-6.21537263185389,-2.46680840148912,509.539653787361,1570.96232795361
0.7,4.59642594318752,0.0735485703889366,10.2103460567147,-3.56590860437526,-4.48789108073714,0.995677905174925,-10.7186325167965,-1.44145334385153,1.36847366192514,536.840501225918,1570.96232795361
0.71,4.53301515543168,0.0888862588778672,13.3829011130042,-4.31288643782792,3.55680239464274,2.81163366956904,7.59366847013782,11.8338172536035,-0.882272066634464,563.383471853256,1570.96232795361
0.72,4.56591669075562,0.0677187278035646,11.7399202537918,-3.2644830329708,0.862255020777208,-4.48427221878429,5.58378052538802,-10.8306958263189,-2.93679668356763,590.413431791116,1570.96232795361
0.73,4.54778050115353,0.0714878315052727,12.6487927025041,-3.42739644989415,-4.52668874216406,0.443291132655165,-12.8867827610169,-2.38114118145619,1.48889722139748,616.996970694718,1570.96232795361
0.74,4.49956760245764,0.0715164312770145,15.0616121237801,-3.4438175614966,0.842699845142539,4.42052940042544,-0.807748378592264,15.4291795543688,-0.172480323333826,644.047565877273,1570.96232795361
0.75,4.48871282132865,0.0607939257579688,15.606518501496,-2.87506281504715,4.47460233002705,-0.360794514766795,15.763832217413,1.82510266814071,-1.63771099754819,670.564880166665,1570.96232795361
0.76,4.55946383996244,0.068908925275641,12.0711537261623,-3.27597177387804,0.994603106687647,-4.45019365961471,5.99656084141203,-10.9766115636444,-2.9065974057605,697.251781430797,1570.96232795361
0.77,4.52576431973961,0.0731760347577528,13.7583632655508,-3.49457383988766,-3.41270907240136,-2.97343474739912,-7.88790195777781,-11.8019324169294,2.30368449200331,724.097485842904,1570.96232795361
0.78,4.44240970230049,0.12395853911894,14.4873337380303,-6.04121337724143,-4.37803427731063,0.763665862276951,-15.2074250759525,-3.88758542873614,1.42599879930259,750.663668721903,1570.96232795361
0.79,4.36904440658229,0.0494712675538589,14.3205826528191,-2.31278363033504,-2.9120572442658,3.25744056570806,-11.3712937897524,9.00676041560487,0.740796781103945,776.723459394621,1570.96232795361
0.8,4.31340175127075,0.0454269118503419,13.2843997132701,-2.10584812279715,-1.00153349536179,4.1957632118429,-5.26329186944178,12.3777070071676,0.2448476916819,802.283958953593,1570.96232795361
0.81,4.26514661892173,0.0776944895919321,11.8994201696749,-3.71161950043616,0.355631735366525,4.25100437348782,-2.92783701979058,12.1161087018905,-0.0652498125795212,827.341406298309,1570.96232795361
0.82,4.13623834715812,0.0796165438460095,14.5841500244511,-3.7976771054161,0.871386759584225,4.04419232650682,-0.930235092788521,15.041756745967,-0.192975559003952,851.927492707803,1570.96232795361
0.83,4.0554925216587,0.109848927076252,14.8922180794136,-5.30201715152932,0.680957027735677,3.99942294667454,-3.14776902366803,15.4913232286193,-0.141566718997971,876.127402571197,1570.96232795361
0.84,3.957178837854,0.0545726068174626,16.064736217962,-2.57513896363605,-0.284730647718527,3.94729920102647,-3.94230193797349,15.7849721527973,0.0857982231288237,900.085763737328,1570.96232795361
0.85,3.90032865533441,0.115374446701392,15.1451644673064,-5.59689744044735,0.0528350495122525,3.90167699074608,-5.83896418012573,15.0534967699819,0.0160312772446543,923.294797013544,1570.96232795361
0.86,3.76025245645601,0.0953402252952371,18.5089525701186,-4.57638659108342,-1.9969651973976,3.18758816273771,-14.0361926771739,12.9038728528763,0.585013305188054,946.090584185834,1570.96232795361
0.87,3.74845526774706,0.121862903621919,15.3869472383749,-5.93317464377023,-3.60120173956494,1.04743185579506,-16.3775575127272,-1.93295540231081,1.3202480256455,968.663527502005,1570.96232795361
0.88,3.64999162567568,0.160777736191198,16.7095414169303,-7.84932900412981,-3.00843022139799,-2.07307403411856,-8.59463637371258,-16.3386953513076,2.21818173310602,990.52243205542,1570.96232795361
0.89,3.60947453288783,0.0759256806439621,15.0756165502501,-3.62692481177218,0.408137405697137,-3.58712907080549,5.61317383996922,-14.4541024419612,-3.00726955421848,1012.1948293504,1570.96232795361
0.9,3.44981543017671,0.0576076822677012,19.5194093334179,-2.73460708367547,3.35222299098356,-0.816790160361148,19.6419994459315,-1.63623787807139,-1.79309834899779,1033.35231798375,1570.96232795361
0.91,3.43657044989513,0.110421819261273,16.6033132305837,-5.3320929558553,1.51929035104087,3.08447179667694,1.9978204798757,17.323681446302,-0.425558327555756,1053.92842178515,1570.96232795361
0.92,3.37276706416194,0.14459591668685,16.2512760802851,-7.06451411015336,-2.92721781516376,1.68162466406924,-17.6787646383992,1.21351337458159,1.09219917085002,1074.27695817968,1570.96232795361
0.93,3.34902106427228,0.10046696576284,13.9665091477923,-4.87272288990705,-1.34974075034435,-3.06663261689575,-0.723786519991719,-14.7744014840084,2.75696029695964,1094.19331032681,1570.96232795361
0.94,3.20756207862408,0.128401922853197,17.5992793593045,-6.28318036930695,3.154353420937,-0.595815439412819,18.3286010068078,3.64353875419645,-1.71747391443674,1113.61886513901,1570.96232795361
0.95,3.15911758014612,0.115129028230704,16.5816509312802,-5.59615626412238,-0.615283225975139,3.10075879909471,-9.26339593765399,14.8478149315499,0.232312675967578,1132.61531203052,1570.96232795361
0.96,3.13449054059655,0.114374110454533,14.4084913866242,-5.53015114523264,-2.37250004937775,-2.05167148976977,-6.78017226248276,-13.8642150812298,2.32027671915833,1151.21439185819,1570.96232795361
0.97,3.00730928533227,0.0926522850695113,17.3917867356336,-4.44751089260087,2.94889612059297,-0.597080608901368,17.8920352544533,1.45934007378802,-1.73977220296404,1169.45164294564,1570.96232795361
