t,iq,id,vq,vd,ia,ib,va,vb,theta_e,omega,r
0,0,0,0,0,0,0,0,0,0,0,0
0.01,0.000555962620763705,0.000264038016925368,-0.0243948506660132,-0.0132056259042107,0.000613637789092086,-4.75307675774817e-05,-0.0275054521444417,0.00359824913935522,-1.20471591661167,-0.0112784156557163,0
0.02,0.000779972920458349,0.000353372980987778,-0.0356418914976194,-0.0176736389514494,0.000854778503878633,-5.08323681085212e-05,-0.0396062812215736,0.00374759004053193,-1.20480078041176,-0.0110726393105595,0
0.03,0.000841860316578236,0.000393515718030997,-0.0396494268084334,-0.0196813466968454,0.000926928700793107,-6.62313869148279e-05,-0.0440666200533903,0.00419111573556301,-1.20486898660182,-0.00766013135501196,0
0.04,0.000793819955161234,0.000396144373989341,-0.0385167723264652,-0.019812807900255,0.000883006300210673,-8.59090219001975e-05,-0.0430558160857319,0.00472078473696792,-1.20490685200185,-0.00350116421451721,0
0.05,0.000763579653981493,0.000407151088977382,-0.0376336566979905,-0.0203632888485982,0.000858703996255238,-0.000107020297351715,-0.0424280196192341,0.00555146830879302,-1.20492288099466,-0.00146842596382651,0
0.06,0.000736586372492791,0.000410661221848316,-0.0366350270804144,-0.0205388573917219,0.000834752600880602,-0.000119959237222947,-0.0415582717054129,0.00607288440522807,-1.20492753372371,-0.000377793967080539,0
0.07,0.000726064307438207,0.000415803359539617,-0.0361686538539398,-0.0207960314023023,0.000826766832073089,-0.000128523996685382,-0.0412147840646315,0.00647981621633314,-1.20492581783452,-0.000217266096688851,0
0.08,0.000716645120236769,0.0004134213400953,-0.0357655152898862,-0.0206769019500066,0.000817118993505837,-0.000129668744334844,-0.040795713892376,0.00651276333154116,-1.20492493341388,-2.47138093154782e-05,0
0.09,0.000712934576467375,0.000412661984597947,-0.0355825853442036,-0.0206389210821786,0.000813382561886907,-0.000130285961919629,-0.0406113130059482,0.00654268287072119,-1.20492347938229,-3.17475707593891e-05,0
0.1,0.000712356470525084,0.000412420003733934,-0.0355345949785274,-0.020626821327334,0.000812756293311498,-0.000130265913658977,-0.0405621774989289,0.00654850783790708,-1.20492236041104,-9.97489293384336e-05,0
0.11,0.000712979750691916,0.000412342918225211,-0.0355465341350269,-0.0206229569940614,0.000813310820880567,-0.000129970441815699,-0.040571947918287,0.00654060290090665,-1.20492174522067,-0.00016299617485353,0
0.12,0.00071376355060108,0.000412318357206379,-0.0355732592998473,-0.0206217423373968,0.00081403398561108,-0.000129666896801641,-0.0405964711591074,0.00652989767698684,-1.2049215086181,-0.000202278764971206,0
0.13,0.000740460107577586,0.000425257872649484,-0.0366974754537438,-0.0212688889124165,0.000843592629315505,-0.000132200245569847,-0.0418777927006143,0.00673207388337464,-1.20492318569888,-0.000810224617875107,0
0.14,0.000754837660826277,0.000432681360562796,-0.0376181228669276,-0.0216401703818604,0.000859674061333587,-0.00013399090361056,-0.0428703174366646,0.0067495203582787,-1.2049258612092,-0.00100477092459252,0
0.15,0.00073010490408338,0.000418803164365822,-0.0363817246971746,-0.0209460599762994,0.000831612918123203,-0.000129881545494492,-0.0414674122056359,0.00654377914049773,-1.20492806198484,-0.000160067059504129,0
0.16,0.000716746459825444,0.000414377767618814,-0.0358028361682502,-0.0207247407899347,0.000817555598535571,-0.000130526875670118,-0.040847669453831,0.00654414690323415,-1.20492647833552,8.83218918531469e-05,0
0.17,0.000711747483244089,0.000412966900187125,-0.0355506152135953,-0.0206541655285386,0.000812383026743775,-0.000130996024417079,-0.0405869077564189,0.00656838751272563,-1.20492425351047,5.89151501360186e-05,0
0.18,0.000711180976210845,0.000412517226307444,-0.035491770390415,-0.0206316871336885,0.000811693352912309,-0.000130777458923821,-0.0405239265566462,0.00656838304759208,-1.20492261462328,-4.83859030216151e-05,0
0.19,0.000712225324194415,0.000412373937765796,-0.0355153002279245,-0.020624509330465,0.000812617426868229,-0.000130269315352335,-0.0405433367275844,0.0065532268689367,-1.20492174386295,-0.000142363720854502,0
0.2,0.000713410813126173,0.000412328269153074,-0.0355566333237436,-0.0206222378961381,0.000813708152251479,-0.00012980228344525,-0.0405811234685913,0.00653630531653883,-1.20492142647539,-0.000198742629563087,0
0.21,0.000714220596704745,0.000412313694208747,-0.0355889470010133,-0.0206215080705071,0.000814459126450355,-0.000129498936409034,-0.0406110374198589,0.00652406188089452,-1.20492139772375,-0.000223151133586213,0
0.22,0.000714623276858963,0.000412309027023425,-0.0356068927651965,-0.0206212763352805,0.000814833474411883,-0.000129350572366358,-0.0406277119892156,0.00651742806707878,-1.20492147096074,-0.000228728568277946,0
0.23,0.000714753800364688,0.000412307523673299,-0.0356138908894122,-0.0206211860003767,0.000814954810564083,-0.000129302536525126,-0.0406342140776404,0.00651484325502752,-1.20492155062917,-0.000226338073518226,0
0.24,0.000714751297387474,0.00041230703592858,-0.0356148955811816,-0.0206211613585924,0.000814952291848543,-0.000129303020088844,-0.0406351431059413,0.00651446297059406,-1.20492160406084,-0.000222262558978829,0
0.25,0.000714707350589629,0.00041230687712722,-0.0356136157138199,-0.0206211543765232,0.000814911193646021,-0.000129318615766117,-0.0406339452833745,0.00651491540541894,-1.20492163018194,-0.000219098058093318,0
0.26,0.000717949223660507,0.000414324610786952,-0.0357347688468822,-0.0207220805149717,0.000818660432936856,-0.000130042556119616,-0.0407831906797683,0.00656579647771209,-1.20492113036079,-0.000345666056342615,0
0.27,0.000713018138558187,0.000410234299649967,-0.035564061807683,-0.020517508633112,0.000812592176381734,-0.000127988286204161,-0.0405505846148348,0.00643589466707199,-1.2049225204638,-0.00010593300996431,0
0.28,0.000711270647264531,0.000409829881930062,-0.0352209057370724,-0.0204972804378565,0.000810815671755994,-0.000128235768090611,-0.0402229050663062,0.00653977173262117,-1.20492244631633,-6.34668410784775e-05,0
0.29,0.000712401901599931,0.000411516922464968,-0.0355203189118047,-0.0205816468390366,0.000812475715292982,-0.000129405791745937,-0.0405326889617235,0.00651140290070541,-1.20492167040046,-0.000152723593111283,0
0.3,0.000697393767949336,0.000405617696690119,-0.0348290226164496,-0.0202866048042726,0.000796350881910043,-0.000129263515053036,-0.0397816164185623,0.00648306609778645,-1.20491800808192,-1.48283288866568e-05,0
0.31,0.000709440917659968,0.000410174244243457,-0.0353192379191031,-0.0205144954135393,0.000809230827372388,-0.000129208336887016,-0.0403209168367772,0.00652048730541143,-1.20491797941135,-0.000348060804917526,0
0.32,0.000715113821835667,0.000411627068536372,-0.035578371774671,-0.0205871575516658,0.000815047852344265,-0.000128536454444889,-0.0405888865388577,0.00649568192952448,-1.20491926618362,-0.000407495205235482,0
0.33,0.000716745856355384,0.000412090163356023,-0.0356720082375045,-0.0206103186123859,0.000816737383500978,-0.000128386026223196,-0.0406846034387662,0.00648386058077952,-1.20492051443518,-0.000358767599578991,0
0.34,0.000716513563793934,0.000412237730004983,-0.0356797565124266,-0.0206177094333945,0.000816573158751299,-0.000128607579664931,-0.0406944779111705,0.00648802239539847,-1.20492130730616,-0.000292944932378328,0
0.35,0.000715771093459096,0.000412284747618496,-0.0356574317467668,-0.0206200486506745,0.000815896605804303,-0.000128917415377034,-0.0406744653093846,0.00649820874758477,-1.20492167390389,-0.000245053573372406,0
0.36,0.000715129821107226,0.000412299738504401,-0.0356334414857394,-0.0206207996659051,0.000815303128700466,-0.000129160921872224,-0.0406523309662137,0.00650749706050078,-1.20492177481211,-0.000219865589313789,0
0.37,0.000714748444973074,0.00041230452953122,-0.0356174209884328,-0.0206210387428478,0.000814948711957476,-0.000129301823429677,-0.0406374565058398,0.00651345111574954,-1.204921755414,-0.000210838650880819,0
0.38,0.000714585056215882,0.000412306068474953,-0.0356095993163306,-0.0206211152688032,0.000814796694850869,-0.000129361674109557,-0.0406301802498243,0.0065163188431556,-1.20492170464787,-0.000210155207379134,0
0.39,0.000714549025721751,0.000412306566625423,-0.0356071429531731,-0.0206211402571345,0.000814763232919628,-0.0001293749949747,-0.0406278956887581,0.0065172192456224,-1.20492166192995,-0.000212367462471588,0
0.4,0.000714566255203361,0.000412306729074901,-0.0356072427492561,-0.0206211475287403,0.000814779383354703,-0.000129368962181538,-0.0406279916438788,0.00651718931683298,-1.20492163693657,-0.000214715138932556,0
0.41,0.000714594311301415,0.000412306781990965,-0.0356080998257302,-0.020621150383388,0.00081480560274059,-0.000129358965528613,-0.0406287930810936,0.00651688492357741,-1.20492162645283,-0.00021627244560043,0
0.42,0.000714615906346325,0.00041230679879468,-0.0356088757625843,-0.020621151814364,0.000814825774724572,-0.000129351253492177,-0.0406295181855536,0.00651660856857126,-1.20492162430514,-0.000217025581641049,0
0.43,0.000714627722501435,0.000412306803731921,-0.035609327073964,-0.020621151837477,0.000814836810384939,-0.000129347031712826,-0.0406299396251848,0.0065164471776163,-1.20492162557112,-0.000217255641313763,0
0.44,0.000714632262698965,0.000412306804922984,-0.0356094958621426,-0.0206211518957622,0.000814841050252177,-0.000129345410046013,-0.0406300972499272,0.00651638692263639,-1.20492162747375,-0.000217237700757317,0
0.45,0.000714632844775572,0.000412306805067374,-0.0356094927670587,-0.0206211519731746,0.000814841593668466,-0.000129345203099021,-0.0406300943780779,0.00651638816035783,-1.20492162890413,-0.000217147269740838,0
0.46,0.000714632029868323,0.000412306805008787,-0.035609419047707,-0.0206211520573408,0.000814840832578041,-0.000129345495220352,-0.0406300255631987,0.00651641464464856,-1.20492162967697,-0.000217065891371391,0
0.47,0.000714630982130431,0.000412306804964016,-0.0356093246612422,-0.0206211521426328,0.000814839854135151,-0.00012934587026011,-0.0406299374526871,0.00651644850436898,-1.204921629967,-0.000217016281105506,0
0.48,0.000714630283638503,0.000412306804957905,-0.0356092392908117,-0.0206211522262358,0.000814839201868966,-0.000129346120179115,-0.0406298577625119,0.00651647912648622,-1.20492163000122,-0.000216994384275186,0
0.49,0.00071462993439254,0.00041230680497166,-0.0356091661217883,-0.0206211523081517,0.000814838875751694,-0.000129346245092541,-0.040629789466149,0.00651650537800106,-1.20492162994252,-0.000216989073223289,0
0.5,0.000714629817977218,0.00041230680498853,-0.035609102211936,-0.020621152388943,0.000814838767056459,-0.000129346286703221,-0.0406297298157549,0.00651652831551227,-1.20492162987558,-0.000216990921572081,0
0.51,4.7080519481945,0.0464624758605617,4.59794725431167,-2.2886688486246,-1.91092913736697,4.30305260722235,-3.98994714699166,3.23410664887693,0.427794097629935,132.233631715362,2362.50836935288
0.52,4.71179419578792,0.0401442928082614,4.41171617946917,-1.93888649019301,-4.34221404733887,-1.82969759107859,-3.2827013548933,-3.52794448434563,1.97811175916391,293.448542248248,2362.50836935288
0.53,4.66679816399326,0.0659280350721146,6.66261797062933,-3.19373444885795,4.66388038736619,-0.177683262015065,6.73719960023456,3.03324240689302,-1.59474954368443,448.997152934883,2362.50836935288
0.54,4.65735125513888,0.0485507431296688,7.13633480123274,-2.27501907270686,-3.62905366181628,-2.9194601227042,-4.06905124214844,-6.28854579097868,2.2586803216187,602.914511105645,2362.50836935288
0.55,4.58936527582613,0.135342242796852,10.5372319977263,-6.59376239332946,-3.69052299680691,2.73141559775939,-12.4156157176075,0.602865678481667,0.963132823779815,758.478133083905,2362.50836935288
0.56,4.55166703029997,0.101629426659059,12.423963205393,-4.86182929978869,-3.19274912345404,3.24566700845393,-12.2971073085499,5.17430166411383,0.799503512028027,911.737134183297,2362.50836935288
0.57,4.50787471651726,0.121841726962309,14.6156187785655,-5.85920519324655,-4.44987906213996,-0.730996715842932,-13.2473880001699,-8.51195094851229,1.76063757211307,1065.11275180739,2362.50836935288
0.58,4.49657738052365,0.177228994236103,15.1827286271016,-8.59069704255645,2.7656655248735,-3.54988907713481,16.3591007287901,-6.05765198624832,-2.44034165874058,1217.46613992419,2362.50836935288
0.59,4.45232740663534,0.165672781566955,17.39759615295,-7.97296091437724,-2.94165558755593,3.34624105686206,-17.7528009374633,7.14720340539774,0.758336426335119,1369.65640016156,2362.50836935288
0.6,4.40692040880054,0.233149338533182,19.6705485072808,-11.3375052592325,4.21162563143897,1.31814856680402,14.4826469324653,17.4849204147449,-1.21461952718256,1521.09675446948,2362.50836935288
0.61,3.93287530692487,0.173938043864999,19.5614008177897,-8.37684004709907,3.32774909465167,-2.10329469784145,21.1393810891664,-2.43852789524749,-2.09024940695919,1665.93354570476,2362.50836935288
0.62,3.21129477023743,0.162413661396019,21.5162261885901,-7.78598098691918,2.87160577545401,-1.44660726154044,22.8273279260888,-1.57562339473775,-1.98691669201447,1787.02711321729,2362.50836935288
0.63,2.70972190758548,0.167148921884019,18.4759306000221,-8.07716875019615,2.45854417018043,1.15156074169256,12.3473452627256,15.9418860715734,-1.07114703640693,1887.85607214763,2362.50836935288
0.64,2.24792305004944,0.148812953191329,18.2232282161254,-7.19308693625198,-0.98330430330081,2.02692278616903,-15.2698238155951,12.2743238889217,0.517778056596846,1971.38557391197,2362.50836935288
0.65,1.76580913459603,0.12243193858106,22.9791068022644,-5.89920207812154,1.08326314755672,-1.39986157621138,19.6910224892562,-13.2326704756067,-2.41378630456159,2040.57111030204,2362.50836935288
0.66,1.44026711360153,0.0932185233572407,23.2304211386366,-4.54975814342242,-0.188621460193562,1.43090216170549,-8.98008086001894,21.9023038329207,0.195697225519687,2098.144671611,2362.50836935288
0.67,1.22768003196788,0.0979998805849375,20.4885798402794,-4.73206047879416,-0.0397943603525246,-1.23094217832173,5.69631070422235,-20.2416981651103,-3.09425341644666,2145.6041827333,2362.50836935288
0.68,0.978165775094947,0.058593312745156,21.9768141670142,-2.84204906898597,-0.152840470700011,0.967926262884601,-7.49538384840747,20.8537005063138,0.21644168336296,2184.96913169669,2362.50836935288
0.69,0.752456164854325,0.0390865472710249,24.1107534920749,-1.92762158616671,0.423047222690398,-0.623497462367563,16.0909268096455,-18.0589654560191,-2.49353918018079,2217.54424273804,2362.50836935288
0.7,0.621688855958149,0.0597541998410202,23.0304347981714,-2.92137909788466,-0.582487525761361,0.225335040225882,-22.9641909226946,3.40313356958116,1.29749926309965,2244.60338429149,2362.50836935288
0.71,0.479179716494814,0.0647223354543314,23.8945609680414,-3.14843469602651,0.441069515733485,0.198141019724192,18.6265083995775,15.2943084097012,-1.01432760945294,2266.82506143116,2362.50836935288
0.72,0.372962107906646,0.0775582155061772,23.9758647403283,-3.80622138832846,-0.0908366150568276,-0.369952321376267,2.94700403954833,-24.0965677741535,3.1058496788022,2285.30981798066,2362.50836935288
0.73,0.288587465010522,0.0699804951740118,23.9019124911549,-3.43948613334528,-0.265796688996844,-0.132408892391387,-16.0640716805324,-18.0298942492467,2.27087073609698,2300.52217672202,2362.50836935288
0.74,0.223504213997361,0.0125479616743407,23.5821241566618,-0.573567967243006,-0.0611798459565253,0.21533372115276,-8.24847401008776,22.0999601008275,0.332904837287035,2313.16307204527,2362.50836935288
0.75,0.129656577065896,-0.00247524892353558,25.2875101819808,0.168968061316575,0.129369719661689,0.00896830353712944,25.2642164625849,1.09822035183452,-1.52067249604613,2323.64110510395,2362.50836935288
0.76,0.115950419327561,0.0254218491848347,23.4939499111077,-1.22671029903859,-0.0438605803029185,-0.110304214124869,-2.59351374824426,-23.3825616009254,2.97896108781076,2332.32771603728,2362.50836935288
0.77,0.0152515690768401,0.0233090066421275,26.4452220505988,-1.15621639090631,-0.00722400415567025,0.0269023031338811,-25.4875117113679,7.14656227923331,1.25372833298351,2339.63109485097,2362.50836935288
0.78,-0.0372512759029904,-0.0358642711688747,27.3945018945684,1.71998170858686,-0.0480034726812022,-0.0192242064444898,12.824688542513,24.2681774123423,-0.42344985168636,2345.41464678299,2362.50836935288
0.79,-0.00146609034058265,-0.00710503956847332,24.176332571485,0.287838717795103,0.00205615100209225,0.00695724451294594,21.1862122241407,-11.649992245842,-2.06164643111562,2350.35457662154,2362.50836935288
0.8,0.00971925614739341,0.021850409567729,22.4314429384201,-1.14419924429243,-0.0108959118170431,-0.021288105693353,14.9810532594457,-16.7346009049481,-2.46239246287314,2354.36284550999,2362.50836935288
0.81,0.00676594693987447,0.00245696817157826,21.6078670421086,-0.149555410004849,-0.00682602040928702,-0.00228477043952832,-16.8259119815909,-13.5576904713841,2.24211995121366,2357.64877188089,2362.50836935288
0.82,0.0103381243674445,0.0553194610457289,20.630361484997,-2.76502859293631,0.0362811102446023,0.0430209324079068,-15.199741574149,14.2205855786774,0.68543432833006,2360.37554799754,2362.50836935288
0.83,-0.0998164800793969,0.0167029994076677,25.4218846583999,-0.82481933217851,-0.0641622699838925,-0.0782657204347298,18.5980193910701,17.3512599324978,-0.852499207923131,2362.6573175433,2362.50836935288
0.84,-0.135571937217481,0.0567591232186726,26.7081057195831,-2.82735687844758,-0.134842686335044,0.0584704897482644,20.5386420632926,-17.30552051348,-2.37643749654396,2364.30591614382,2362.50836935288
0.85,-0.12810431111929,-0.0371298633450944,25.8995704259302,1.77048027320977,0.114343926046215,0.0686644584607707,-18.9121579092215,-17.7834932412677,2.39369999493786,2365.6934290175,2362.50836935288
0.86,-0.0936148700530421,-0.0280749981383936,23.7855921562071,1.32862089335999,0.0950991455372741,0.0225411165118131,-21.2578874150626,-10.7527601269728,2.0948929017492,2366.84365389478,2362.50836935288
0.87,-0.0909370743641059,0.00552677824309517,23.3403838745879,-0.325782425354986,0.0558562892570214,-0.0719734098267356,-13.4340351844856,19.0894303808101,0.599276025717417,2367.80844352612,2362.50836935288
0.88,-0.113900479350518,-0.0166422143497608,24.251983643266,0.813571958221319,-0.0990058822155704,-0.0587206759281411,19.3631389635448,14.6249601518397,-0.890378414135352,2368.52021405313,2362.50836935288
0.89,-0.0972898772773863,0.0379445541568734,23.2172166644981,-1.88804341453438,-0.0947995135509609,0.0437968222741555,17.4584275067437,-15.4209975868357,-2.37544919034608,2369.14084220841,2362.50836935288
0.9,-0.145632041169996,-0.011814174981143,25.4512185279271,0.601061632532246,0.104393066040562,0.102226972509585,-17.1388969118242,-18.8250899676008,2.42665761177532,2369.60754424512,2362.50836935288
0.91,-0.113933821484835,-0.0252201819039827,23.7166736872602,1.17563592048693,0.0778959552070401,-0.0868860944903788,-18.5890581012325,14.7753053949664,0.948739841388086,2369.93821440907,2362.50836935288
0.92,-0.102833535852606,-0.0466134793320034,23.0453180691516,2.25813590528259,-0.0920057543470768,-0.065440764958928,13.5414874603914,18.7833431538466,-0.52696074139432,2370.21084136801,2362.50836935288
0.93,-0.0883563052377557,-0.0120319634065319,22.21461700427,0.559991583788613,-0.0715676592794218,-0.0531946892457148,16.2695658043347,15.1361827340561,-0.796267993291189,2370.41997667236,2362.50836935288
0.94,-0.0900304032160449,-0.00681371023937696,22.2052085499795,0.332958191856345,-0.0646093879097655,0.0630676394389013,16.8011904538035,-14.5224704248496,-2.26858137674444,2370.64882159792,2362.50836935288
0.95,-0.114259877998981,0.0479379880046698,23.3786957094612,-2.38582913663464,0.0247996017135943,0.121401606946222,-11.2057311946866,-20.6564077742773,2.54284032195087,2370.69195694528,2362.50836935288
0.96,-0.190185466476506,-0.00432582864584079,27.0780492855754,0.19523080805137,0.164962394971678,-0.0947450932638073,-23.6880240266359,13.1200756817171,1.07219689583334,2370.83783502785,2362.50836935288
