t,iq,id,vq,vd,ia,ib,va,vb,theta_e,omega,r
0,0,0,0,0,0,0,0,0,0,0,0
0.01,0.00132033221637345,0.000739409327092302,-0.0642799539402744,-0.0370177185185481,-0.000601218273611214,0.00138871879877125,0.0286515443365573,-0.068420121090309,0.919070105132654,-0.00478165092444213,0
0.02,0.00145998918803255,0.000819072521376692,-0.0714406075285429,-0.0410059675916548,-0.000663877343649396,0.00153678726472968,0.0319228037564912,-0.075935396110771,0.919035594988088,-0.00479481345783004,0
0.03,0.0015119002208238,0.000849844025980405,-0.0741028488385063,-0.0425465174366063,-0.000686429309146108,0.00159276236449975,0.0331022521363652,-0.0787761337935955,0.919002577736025,-0.00448449785167471,0
0.04,0.00147551188882021,0.000832195617971267,-0.072497150223947,-0.0416629620502161,-0.000668162214170526,0.00155667727425279,0.0323595118754292,-0.0771005913633303,0.918974156558519,-0.00389696529591462,0
0.05,0.00150501521283,0.000850288495344667,-0.074048463034566,-0.0425687552097406,-0.000680599116293492,0.00158897645012937,0.0330412128646662,-0.07876263105255,0.918947817746893,-0.00360235524431645,0
0.06,0.00150294512569156,0.000850919445704005,-0.0740684135375811,-0.0426003531254254,-0.000678533129880889,0.00158823825214332,0.0330360395682608,-0.0788006348961059,0.918924161370717,-0.00322484327434043,0
0.07,0.00154116987253705,0.000874144838664192,-0.0760104481273783,-0.043763100181599,-0.00069479583883168,0.00162990567743084,0.0338727732072033,-0.0809038466161091,0.918903455875583,-0.0030526512761111,0
0.08,0.0014989366756435,0.000851748367046886,-0.0740762972735472,-0.0426418444373339,-0.000674780686738489,0.00158649218818151,0.0330140021481015,-0.0788397131967251,0.918884424483325,-0.0025886139383082,0
0.09,0.00149498793302304,0.000850951210099934,-0.0739702441368125,-0.0426019590397676,-0.000672099101413116,0.00158347392770918,0.0329525901700362,-0.0787442107889292,0.918867833731778,-0.00231398804594139,0
0.1,0.00149281456450259,0.00085091785647709,-0.0739401029854074,-0.0426002778781319,-0.000670368400336436,0.00158213865710088,0.0329284914430193,-0.0787250719661386,0.918853110775206,-0.00207553801297279,0
0.11,0.00149093706819459,0.000850912066951488,-0.0739158649432886,-0.0425999795614139,-0.000668858806328229,0.00158100366356233,0.0329083762562312,-0.0787105591463158,0.918840034818413,-0.00186397153627837,0
0.12,0.00148927174002023,0.000850907764557677,-0.0738944395055878,-0.0425997661344193,-0.00066751930070358,0.00157999757043979,0.0328905607426001,-0.0786977717511082,0.918828421199548,-0.00167607370467418,0
0.13,0.00156044648408523,0.000891565689761452,-0.0773732410202185,-0.0446352602656786,-0.000699407423970191,0.00165550954819027,0.0344198544149237,-0.0824269282881095,0.918817070716596,-0.00178016039466804,0
0.14,0.00163504529105509,0.000935919855527879,-0.081301400692925,-0.0468558090943663,-0.000731775104954441,0.00173603694532739,0.0361940786504482,-0.0865758238260799,0.918807061593803,-0.00191872249932392,0
0.15,0.00149081724297014,0.000853900528117718,-0.0741225108741393,-0.0427495921111844,-0.000666883710873536,0.00158333454456989,0.0329785403206021,-0.0789562544848852,0.918797958798159,-0.00120659075749853,0
0.16,0.00148414153435856,0.000851000135671376,-0.0738366907363303,-0.0426043754874312,-0.000663326292499348,0.0015769830546331,0.0328389165078929,-0.0786676253115229,0.918791003907793,-0.00107162457784653,0
0.17,0.00148303656695923,0.00085089548944821,-0.073814513656958,-0.0425991430318027,-0.000662501820218434,0.00157623346338948,0.0328239813022306,-0.0786502108384208,0.918784871694012,-0.000971519427249745,0
0.18,0.00148224697623186,0.000850889866095256,-0.0738040244945397,-0.0425988568366802,-0.000661869035037588,0.00157575348428316,0.0328153893073631,-0.0786437973395791,0.918779427045729,-0.000883394682695333,0
0.19,0.00148155313855139,0.000850887956437779,-0.0737950618910938,-0.0425987803008077,-0.00066131107106848,0.00157533414996457,0.0328079314488284,-0.0786384567287267,0.918774591357668,-0.000805156362139256,0
0.2,0.00148093706631354,0.00085088636900402,-0.0737871056486427,-0.0425987093353754,-0.00066081557967667,0.00157496189699776,0.0328013126987516,-0.0786337133949712,0.918770296460356,-0.000735668876514096,0
0.21,0.00148039014477525,0.000850884962672708,-0.0737800478437243,-0.0425986381439177,-0.000660375702583385,0.00157463142731489,0.0327954460198585,-0.0786294992474023,0.91876648187286,-0.000673952406731508,0
0.22,0.00147990434127935,0.00085088371353394,-0.0737737730736392,-0.0425985667503028,-0.000659984984003418,0.00157433788437704,0.0327902354339906,-0.0786257460561379,0.918763093880784,-0.000619137852616872,0
0.23,0.00147947302015248,0.000850882603922953,-0.0737682037282997,-0.042598495173261,-0.000659638084442651,0.0015740772600386,0.0327856154809088,-0.0786224083189027,0.918760084776681,-0.00057045335312461,0
0.24,0.00147908972152816,0.00085088161826753,-0.0737632426061899,-0.0425984616056371,-0.000659329811454492,0.00157384565074317,0.0327814823855181,-0.0786194588098553,0.918757412188722,-0.00052721336822128,0
0.25,0.00147874926373686,0.000850880742733981,-0.0737588310709781,-0.0425984249634071,-0.00065905599511027,0.00157363992662459,0.0327778115063245,-0.0786168305337729,0.91875503848353,-0.000488809023662459,0
0.26,0.00149395925487181,0.000859483357386042,-0.0745000944678487,-0.0430291083119947,-0.000665922269371374,0.00158970859845319,0.0331055002396428,-0.0794090302908099,0.918753035548449,-0.000517651356395675,0
0.27,0.00144289886380545,0.000830664834229202,-0.0720570836913529,-0.041586312703542,-0.000642821029921545,0.00153581975553341,0.0320390126858181,-0.0767798566063873,0.918750735048624,-0.00027993368338648,0
0.28,0.00143709221569707,0.000827003307873038,-0.0715138362920194,-0.0414030326049416,-0.000640424921595725,0.00152938694497147,0.0317183031974248,-0.0763045813327342,0.918749040300126,-0.000230526617208526,0
0.29,0.00147610842028459,0.00085003454285389,-0.0736676692780161,-0.0425560511736499,-0.000657459234596669,0.00157136951329834,0.0327305061181673,-0.0785280647768559,0.918747925379272,-0.00036731915154779,0
0.3,0.00146818250736218,0.000845931765297723,-0.0732856113635213,-0.0423506453921556,-0.00065364933720494,0.00156329874638073,0.0325514899570223,-0.078132953992762,0.91874813287928,-0.000339233477950923,0
0.31,0.0014771980665511,0.000850702959317219,-0.0737253419979053,-0.0425894991449524,-0.000657918070493853,0.00157256270632717,0.032755967350206,-0.0785896818486895,0.918746872617802,-0.000355188740145102,0
0.32,0.00147739226209312,0.000850871115003884,-0.0737406629703784,-0.0425979408909919,-0.000657968510723452,0.00157281498890904,0.0327629288076771,-0.0786057277773475,0.91874568059199,-0.000337346896237188,0
0.33,0.00147725483314508,0.000850876680162502,-0.0737393841432613,-0.0425982031955716,-0.000657854229882135,0.00157273671640267,0.0327616697244484,-0.0786051950330563,0.918744618984659,-0.000320228440597147,0
0.34,0.00147711990780298,0.000850876542612238,-0.0737376254585257,-0.04259821260045,-0.000657745586217067,0.00157265535213778,0.0327601920199659,-0.0786041661989358,0.918743675985506,-0.000304973851773318,0
0.35,0.00147700017346367,0.000850876240929184,-0.0737360655352414,-0.0425981779952277,-0.000657649282545564,0.00157258300606257,0.0327589072960537,-0.0786032195390181,0.918742838439762,-0.000291423215639331,0
0.36,0.00147689330419865,0.000850875966631534,-0.0737346498902826,-0.0425981785485953,-0.000657563335328649,0.00157251842679487,0.0327577232791053,-0.0786023853052191,0.918742094558967,-0.000279387902760356,0
0.37,0.00147679842571173,0.000850875722776893,-0.0737333905259537,-0.0425981790488673,-0.000657487031279943,0.00157246109315761,0.0327566700523844,-0.0786016431368415,0.91874143386843,-0.00026869852718412,0
0.38,0.00147671454729108,0.000850875506178788,-0.0737322875262946,-0.0425981442944157,-0.000657419570220286,0.00157241040758686,0.03275576831218,-0.0786009654105268,0.918740847064972,-0.00025920457227069,0
0.39,0.00147663957581894,0.000850875313798143,-0.0737312802015362,-0.0425981417979742,-0.000657359277288277,0.00157236510297986,0.0327549282019768,-0.0786003692312008,0.91874032588504,-0.00025077235112651,0
0.4,0.00147657321908577,0.000850875142927538,-0.0737303931072193,-0.0425981421735482,-0.000657305910312463,0.00157232500471168,0.0327541864944959,-0.0785998463832258,0.918739862990553,-0.00024328312729404,0
0.41,0.00147651408010251,0.000850874991163301,-0.0737295910663989,-0.0425981425169972,-0.000657258350108944,0.00157228926745055,0.0327535164795309,-0.0785993734258862,0.918739451862888,-0.000236631442928016,0
0.42,0.00147646209947957,0.000850874856368313,-0.0737289020054693,-0.0425981076285971,-0.000657216541656298,0.00157225785727811,0.0327529612588441,-0.0785989395173134,0.918739086712757,-0.000230723633796505,0
0.43,0.00147641553335103,0.000850874736646016,-0.0737282660660278,-0.0425981079172,-0.000657179091923756,0.00157222971785961,0.0327524301248342,-0.0785985644661927,0.918738762398708,-0.000225476510389422,0
0.44,0.00147637408949662,0.000850874630311093,-0.0737276930147067,-0.0425981081828992,-0.000657145762479016,0.00157220467353964,0.0327519518414079,-0.0785982263706435,0.918738474353313,-0.000220816186499746,0
0.45,0.00147633753508571,0.000850874535866712,-0.0737271928123321,-0.0425981084267036,-0.000657116362787177,0.00157218258451323,0.0327515340063831,-0.07859793140884,0.918738218521387,-0.000216677038805052,0
0.46,0.00147630470596509,0.000850874451983532,-0.0737267264302291,-0.0425981086538319,-0.000657089962674443,0.00157216274566135,0.0327511453119221,-0.0785976560194951,0.918737991299827,-0.000213000782808296,0
0.47,0.00147627583496539,0.000850874377480165,-0.0737263225726647,-0.0425981088632559,-0.00065706674288657,0.00157214529943878,0.0327508083223303,-0.0785974177250652,0.918737789489103,-0.000209735652118347,0
0.48,0.00147625022359469,0.000850874311308645,-0.0737259614453056,-0.0425981090580795,-0.000657046144402754,0.00157212982302156,0.0327505070790925,-0.0785972046094582,0.918737610247669,-0.000206835669522491,0
0.49,0.00147622717336106,0.00085087425253644,-0.0737256215743045,-0.0425981092414565,-0.000657027608632018,0.00157211589346788,0.0327502243136928,-0.0785970037270341,0.918737451051451,-0.000204259999554741,0
0.5,0.00147620732336649,0.000850874200336672,-0.0737253468657285,-0.0425980742161332,-0.000657011640531379,0.00157210389941813,0.0327500161065807,-0.0785968138184614,0.918737309658577,-0.000201972373488997,0
0.51,4.62081240640127,0.0242900726782347,8.9604975965989,-1.20653814807462,-0.804594946800288,4.55028837266014,-2.79356442413617,8.59896792002475,0.180270417630554,55.2593243520856,4603.03018021682
0.52,4.58765353302578,0.00325076265183888,10.6197721302327,-0.140548201727301,-3.33122332102528,3.15428703386344,-7.81304606645361,7.19413824294124,0.813381770282563,117.690317131782,4603.03018021682
0.53,4.57121099454149,0.015660784913428,11.4433971186018,-0.748144921429871,-4.3082833465602,-1.52804117174673,-10.5194636065983,-4.56639287260085,1.91505597706318,184.048836941041,4603.03018021682
0.54,4.67495126868663,0.0231077425505344,6.25810265979884,-1.11905279252259,1.6929298189207,-4.35771636990863,3.33609800890858,-5.41170750576841,-2.76610493857763,251.403340771131,4603.03018021682
0.55,4.62223785863376,-0.00601996261811288,8.89545209682984,0.363175720262505,2.95903253592141,3.55094994516899,5.98221994259186,6.59348232493565,-0.696025306783559,313.896172383139,4603.03018021682
0.56,4.62019284620661,0.0862652898006298,8.99963220553657,-4.25868940875983,-4.46114399348088,-1.2049140657294,-7.45598589246054,-6.59833991899807,1.8532620059137,380.239156282595,4603.03018021682
0.57,4.54215656712966,-0.0616513163231547,12.9034203641443,3.1459877697438,4.47433072740835,0.784443565142151,13.2398056762319,-1.05025796679119,-1.41081164415083,445.253997321084,4603.03018021682
0.58,4.57864772507918,-0.0020765955629416,11.0809639121424,0.194929955618952,-3.98911968552727,-2.24743040763461,-9.75229334277727,-5.26483935806421,2.0834081250475,508.743272285163,4603.03018021682
0.59,4.47532722560694,0.0079642719325555,16.249316144184,-0.289689049711187,1.04418290255286,4.35181562935546,3.48134426062216,15.8746476193393,-0.233710448990475,572.597827830415,4603.03018021682
0.6,4.52014517488391,0.123220427147615,14.0108619323147,-6.05512320065023,3.88201574953671,-2.31880344057914,15.1820105835827,-1.57331614795653,-2.08198895837306,636.854582042003,4603.03018021682
0.61,4.34459430224307,0.0120236330089543,22.7909468427759,-0.514937407398904,-1.37640363936978,-4.12081997184581,-6.67161917286912,-21.7986677605761,2.82199883960791,701.311947988167,4603.03018021682
0.62,4.43717528021765,-0.003091358813198,18.1644304904952,0.267866297912469,-4.18171602930608,-1.48384132376695,-17.2122841797888,-5.80995358946889,1.91107998776425,764.892162534982,4603.03018021682
0.63,4.33980014074536,0.00740836351177299,23.0359279403091,-0.219455380596715,-4.31506854048323,0.462713341492635,-22.9318030495642,2.19876002128082,1.46567961720189,827.727061512024,4603.03018021682
0.64,4.39208187598296,0.147674191783498,20.4246509408623,-7.27448895938364,-4.3639932227006,0.517449538100261,-20.9652485995107,-5.52656374585292,1.48638504575514,892.046675919334,4603.03018021682
0.65,4.32421197612274,0.0879285446638622,23.8209873738282,-4.22714568145768,-4.01617122863711,-1.6052754609965,-20.2867929777914,-13.1815868070798,1.97137779676564,954.765991450088,4603.03018021682
0.66,4.37485691863561,0.142455743159398,21.2916670704091,-6.96030034991257,-1.09370158918788,-4.23833499514855,2.14629827167745,-22.297405035724,2.92160303116717,1018.11011240798,4603.03018021682
0.67,4.38352991653364,0.0753868323124929,20.8611652263047,-3.61365627115868,4.04567235697017,-1.68924624719991,20.7206405892654,-4.34761771729711,-1.94913871947997,1081.40849283165,4603.03018021682
0.68,4.35193685060224,0.0786963587496585,22.4440488581062,-3.77998650901172,0.40643565957253,4.33363098603677,-2.07784832305798,22.6650871054963,-0.0754317715317905,1144.36246042807,4603.03018021682
0.69,4.3023103057892,0.118241696552732,24.9286532379746,-5.74718199225866,-3.39884921841827,-2.64039373135166,-15.6095992227485,-20.2684055913753,2.25873712587024,1207.07942367925,4603.03018021682
0.7,4.28451235654325,0.154054655403119,25.8218839681895,-7.50869487453925,4.0899763054767,1.28564100388186,21.8317931694804,15.7010508371447,-1.2302958297523,1269.53582705872,4603.03018021682
0.71,4.26710944439657,0.179537898722204,26.6954183292408,-8.7494956712295,-3.91643030670535,-1.70353471354586,-20.1864984456637,-19.5372545353037,2.02313236116389,1332.04729623437,4603.03018021682
0.72,4.29920637206706,0.134598586073067,25.0940177980631,-6.56766863053884,2.35263654730414,3.60088787457812,7.45335606592101,24.8453513528119,-0.547428383515245,1395.13816026042,4603.03018021682
0.73,4.17837580479498,0.165396638413455,31.139105082324,-8.03536423838439,1.78838814608378,-3.77992701689352,21.5421493609361,-23.8777458040462,-2.66010976090864,1457.01655227655,4603.03018021682
0.74,4.27935982901724,0.114295328551551,26.0935359043522,-5.52938694273331,-3.99109748763088,-1.54826509763724,-21.9298026322656,-15.1832306333028,1.96755629230308,1519.77233072679,4603.03018021682
0.75,4.12428811437986,0.08083758647867,33.8508355929456,-3.82487594409207,-2.80698857257382,3.0227640197744,-26.2673502529341,21.6918200485347,0.76800011858054,1581.73072428702,4603.03018021682
0.76,4.17423855435342,0.191030139643506,31.3571261064083,-9.27884870661975,0.0915680435269552,4.1776040162164,-10.0229752908536,31.1272606776194,0.0238168748103711,1643.53277616439,4603.03018021682
0.77,4.11520784718392,0.155960426437038,34.312540500093,-7.52491595392713,1.2323662053295,3.92944433935643,1.76058855877985,35.0838299450172,-0.266027687730623,1705.50146062624,4603.03018021682
0.78,4.09570233473613,0.135850201890527,35.2917425147901,-6.50646198460021,3.56341651665896,2.02368367610129,26.6947952235707,23.9839330648441,-1.02115332359989,1767.3748865446,4603.03018021682
0.79,4.08249233618194,0.222253901427816,35.9562088224642,-10.81458213992,1.8089959706692,3.66656161134472,4.18845669492147,37.3130134170439,-0.403947871380589,1829.2364098221,4603.03018021682
0.8,4.0700480551114,0.0666143294325356,36.582492256399,-3.12944403296296,-2.46227204158259,3.24144181392209,-25.0629256358044,26.8313607224658,0.665996602878952,1891.24253655526,4603.03018021682
0.81,4.06224566728611,0.15271365004619,36.9767401896059,-7.38245454971841,-3.4012474653814,-2.22635958450827,-25.8831402744688,-27.4197556473511,2.1879542419804,1952.70428994318,4603.03018021682
0.82,4.12148066194896,0.10797345894293,34.0191490196989,-5.06083873279401,3.45391819259893,-2.25137962891412,31.6275460018877,-13.5134348928135,-2.12226766044556,2014.09227523431,4603.03018021682
0.83,4.05328667559713,0.185500703291656,37.4331099735392,-9.00579942841054,-1.02557279708707,3.92577939056309,-19.7076086496643,33.0749498404384,0.301263304460191,2075.63399330323,4603.03018021682
0.84,4.07845322722756,0.19788676544754,36.1790219718541,-9.67586910175259,-0.0630812562987761,-4.08276384986028,10.8654617353813,-35.839723980398,-3.10856001891181,2137.13360899925,4603.03018021682
0.85,3.97845716709881,0.240712488247222,41.183117124447,-11.6880068913359,-0.61251598316599,3.93838648469196,-20.1946076618884,37.7470060078973,0.214718862672317,2198.17509100945,4603.03018021682
0.86,4.00063513307913,0.206608772209914,40.0785858743807,-9.97249138322346,2.85570117467779,-2.80940197439331,36.5999103383478,-19.1360966057207,-2.29642381714745,2259.22847597128,4603.03018021682
0.87,3.99876286813472,0.243862399740467,40.1765728625899,-11.8298076781985,-3.83750239304775,-1.15028202147691,-33.6311657450123,-24.9608903550669,1.92293054617488,2320.23848426652,4603.03018021682
0.88,3.94228062184418,0.289731495301258,43.005074740958,-14.1155481617889,-0.911026314976243,3.84649865386151,-26.4120947253589,36.7571272762417,0.305921738741852,2381.16334930849,4603.03018021682
0.89,3.91495832172278,0.0133016612034957,44.3755193677475,-0.417472429800909,2.98924708445776,2.52813715274271,33.5142868102238,29.0887191534629,-0.865380770774501,2442.12858413323,4603.03018021682
0.9,4.07723730583512,0.153908858788705,36.2658624978134,-7.39600647211719,2.28248116908642,-3.38198635385673,27.3770925695756,-24.9080006600851,-2.51018563508098,2502.9192916468,4603.03018021682
0.91,3.88876415669443,0.279221045726675,45.6938138554414,-13.5719934738077,1.07585079346421,-3.74739858154566,28.465382103953,-38.234090196901,-2.79034008363014,2563.44872265934,4603.03018021682
0.92,3.93935247626882,0.245130790658717,43.1685922624999,-11.9820722075057,1.72942969050007,-3.54790924100816,31.7122209441681,-31.6454176003432,-2.62588901988943,2624.26752711999,4603.03018021682
0.93,3.91009178034533,0.282592490029046,44.6358405603531,-13.7161586598894,3.40447610233096,-1.94376405841922,46.1817913216332,-6.90893777925689,-2.01742966271534,2684.63531672193,4603.03018021682
0.94,3.8999724287724,0.276694336068,45.145887738534,-13.4465000812152,3.36523659939377,1.99035859354481,29.4870876797239,36.7351494389598,-0.9658605584401,2744.99994479646,4603.03018021682
0.95,3.90238970842399,0.22979085370428,45.0290620578462,-11.1440160095045,-1.76904936507794,3.48595949729439,-32.3266095915712,33.2685412205524,0.528429197373152,2805.444057594,4603.03018021682
0.96,3.92491528699695,0.199267082330038,43.9067584420986,-9.62810073172792,-2.61545069056931,-2.93327207490256,-20.0194008088789,-40.2458364535582,2.46413649508675,2865.69082819095,4603.03018021682
0.97,3.88377926511718,0.261510044598287,45.9674467652676,-12.7277248796603,3.88528773829075,0.238050570819432,43.9588163318199,18.5100947981191,-1.44237065725268,2925.68700159831,4603.03018021682
0.98,3.92121874809728,0.288437719758267,44.0993056498438,-14.0132426502532,-1.463659319804,3.64922651861457,-31.9631668547626,33.4585668101284,0.454869508259142,2985.59860646522,4603.03018021682
