t,iq,id,vq,vd,ia,ib,va,vb,theta_e,omega,r
0,0,0,0,0,0,0,0,0,0,0,0
0.01,0.000532364896966311,0.000300703463905085,-0.0256309516517925,-0.0150487627252183,0.000611386411283121,-6.45080032356927e-06,-0.0297111657638267,0.000810907572325593,-1.06717826227062,-0.00200683148737722,0
0.02,0.000605842713664863,0.000341421055440534,-0.0293048012820882,-0.0170864758102868,0.000695391494395934,-6.66335656585146e-06,-0.0339122612196224,0.000823148085274471,-1.06719348245484,-0.00215594586408497,0
0.03,0.000634036992501275,0.000357466045619415,-0.0307088818523677,-0.0178894600027818,0.000727828390772906,-7.12146163124258e-06,-0.0355295189932004,0.000849402098901358,-1.06720889972252,-0.00212409704732811,0
0.04,0.000618931358568624,0.000349473037126143,-0.0300488349184939,-0.0174894439072265,0.000710740718474859,-7.42033689360671e-06,-0.0347583646164921,0.000818057045632793,-1.06722306989712,-0.00193256076140092,0
0.05,0.000633553970044743,0.000358146822637764,-0.0307999624509386,-0.0179235270761341,0.000727733634363157,-7.97100630859195e-06,-0.0356257091597873,0.000836275487138107,-1.06723664182028,-0.00186418669191323,0
0.06,0.000634113678354572,0.000358883939049536,-0.0308792570058122,-0.0179604091759414,0.000728579452156827,-8.35587690998661e-06,-0.0357129475941642,0.000830773816827184,-1.06724945770439,-0.00174721375111151,0
0.07,0.000647863708457604,0.000367207763155343,-0.0315815804993267,-0.0183769883211958,0.000744639213205497,-9.02043317634033e-06,-0.0365291002809867,0.000857180992809412,-1.06726125801406,-0.00169186407209856,0
0.08,0.000634021795450156,0.000359651804243059,-0.0309698781576183,-0.0179988388718973,0.000728869286118877,-9.08961790642968e-06,-0.0358108452380781,0.000821533425166191,-1.06727257449074,-0.00153186556756662,0
0.09,0.00063212842208441,0.00035900491024101,-0.0309226411782658,-0.0179664735096473,0.000726898669278329,-9.44416144904776e-06,-0.0357538456775377,0.000816349851140281,-1.0672829874043,-0.00142753654420338,0
0.1,0.000631369190726709,0.0003589475775651,-0.0309263843671498,-0.0179636033391865,0.00072620590601316,-9.76731848354617e-06,-0.0357557315611209,0.00081237644068561,-1.06729268267409,-0.00133436785629791,0
0.11,0.000630753443480319,0.000358940684287228,-0.0309342466557238,-0.0179632503568736,0.000725663157653313,-1.00649353443493e-05,-0.0357624405002249,0.000808596938378578,-1.06730172028951,-0.00124788217178927,0
0.12,0.00063018764190366,0.000358938228696514,-0.0309419666428894,-0.0179631263884184,0.000725166299125433,-1.03418876714837e-05,-0.0357691358556031,0.000805064916251942,-1.06731014582423,-0.00116728698174001,0
0.13,0.000658352706631919,0.000375178894951353,-0.0323150751964308,-0.0187759056325822,0.000757671983897279,-1.09842780215024e-05,-0.0373639940448523,0.000854790202826642,-1.06731837246788,-0.0012021952728758,0
0.14,0.000679642105990799,0.000387835452867227,-0.0334823817833105,-0.0194092960724781,0.000782425957449032,-1.18047382987008e-05,-0.038692037757068,0.000846686552450085,-1.0673261123932,-0.00121443017157832,0
0.15,0.000633242885490555,0.000361398051442037,-0.0311828760939149,-0.0180862316122537,0.000729028968492051,-1.10393256098756e-05,-0.0360395273674286,0.000797497682063799,-1.06733341635055,-0.000962957973395459,0
0.16,0.000628624701201176,0.000359141297449382,-0.0309892689611021,-0.017973294495152,0.000723894953213989,-1.12952735783687e-05,-0.0358154507302296,0.000792208775184815,-1.06733974402152,-0.000885842555705526,0
0.17,0.000627849054640518,0.000358947475622464,-0.0309764408561816,-0.0179635926779009,0.000723121970894236,-1.15039505722104e-05,-0.0357995290080694,0.000790109368663165,-1.06734559921404,-0.000828321146229645,0
0.18,0.000627448280534327,0.000358929729182723,-0.0309797916376464,-0.0179627122076914,0.000722762298129168,-1.16857023627498e-05,-0.0358020349535095,0.000787916845874313,-1.06735105390602,-0.000776007680512074,0
0.19,0.000627104314842847,0.000358927085390345,-0.0309843239736419,-0.0179625674716395,0.000722459674022435,-1.18530052190066e-05,-0.0358059311200722,0.000785785531458459,-1.06735613886972,-0.000727356523360382,0
0.2,0.000626785967220546,0.000358925806239394,-0.0309886575457054,-0.0179625166288056,0.000722180150370696,-1.20088925281553e-05,-0.0358096987733501,0.00078382006037757,-1.06736087947485,-0.000682010703534339,0
0.21,0.000626489735211006,0.000358924714618572,-0.03099272352422,-0.0179624566305811,0.000721920091416515,-1.21540403961089e-05,-0.0358132278862999,0.00078196420518848,-1.06736529906958,-0.000639736446960726,0
0.22,0.000626213584844427,0.000358923705323786,-0.0309965137652326,-0.0179623980642407,0.000721677664793949,-1.22893541171868e-05,-0.0358165164126177,0.000780231940631284,-1.0673694193941,-0.000600324855458178,0
0.23,0.000625956006023852,0.000358922764915607,-0.0310000395000125,-0.0179623529432093,0.000721451541259461,-1.24155654863043e-05,-0.0358195799667834,0.000778629091391803,-1.06737326071344,-0.000563582002581128,0
0.24,0.000625715947710244,0.000358921888080557,-0.0310033289595502,-0.0179623092419215,0.000721240797576057,-1.25331908983449e-05,-0.0358224374583489,0.000777132176136253,-1.06737684192002,-0.000529327168944299,0
0.25,0.000625491958014833,0.000358921070478956,-0.031006384855483,-0.0179622789647739,0.000721044159842564,-1.2642940003021e-05,-0.0358250970376441,0.000775751028403167,-1.06738018062741,-0.000497391879327676,0
0.26,0.000631372146186314,0.000362376073162701,-0.0312985085996208,-0.0181351783278568,0.000727861575513392,-1.28348070454365e-05,-0.0361643876433435,0.000786384082805604,-1.06738322734286,-0.000492318174889686,0
0.27,0.000614300341707843,0.000352660751985897,-0.0304994357000042,-0.0176489810456612,0.000708220794934032,-1.25627002128629e-05,-0.0352298941850641,0.000746100313621812,-1.06738632875089,-0.000395942667064374,0
0.28,0.000613650174797489,0.000352354303121639,-0.0303624074856509,-0.0176336341056713,0.000707503416283926,-1.26098336189887e-05,-0.035102459571305,0.000798856772082379,-1.06738903483348,-0.00036820395191004,0
0.29,0.000623710313694859,0.000358358290061306,-0.0309678353260103,-0.0179341031112737,0.00071921190362125,-1.30175709908061e-05,-0.0357777287010173,0.000770070244257617,-1.06739142988281,-0.000385726076019467,0
0.3,0.000618067860741694,0.000355374176810032,-0.0307065916836957,-0.0177847689411824,0.000712829833553704,-1.31268587644005e-05,-0.0354768518787097,0.000765349525740734,-1.06739315074418,-0.000347402153390706,0
0.31,0.000623878487978723,0.000358615048388011,-0.0309917843198029,-0.0179469556799342,0.000719483026899953,-1.31641443259326e-05,-0.035804903930758,0.000769914288665024,-1.06739531633627,-0.000350247705628718,0
0.32,0.000624283049345615,0.000358891061664387,-0.0310195597260554,-0.0179607648406648,0.000719970524554411,-1.32122524838366e-05,-0.0358358937551896,0.000768685909029228,-1.06739739777743,-0.000332490592698222,0
0.33,0.000624202139520887,0.000358914174747818,-0.0310236933074388,-0.017961930469842,0.000719910775808785,-1.32729307898725e-05,-0.0358400753692322,0.000767782628882928,-1.06739934398358,-0.000314071412228687,0
0.34,0.000624085135685598,0.000358915742268843,-0.0310255713945006,-0.0179620017249392,0.000719809018410362,-1.33320533758867e-05,-0.0358417534592587,0.000767004098871852,-1.06740115892508,-0.000296729152219525,0
0.35,0.000623972034906895,0.000358915499080313,-0.031027129397726,-0.0179619961791866,0.000719709807841748,-1.33876182465515e-05,-0.0358431142199402,0.000766308306539057,-1.06740285101637,-0.000280545653161584,0
0.36,0.000623866268277264,0.000358915126913292,-0.0310285650740564,-0.0179619818743294,0.000719616960766052,-1.34394493642413e-05,-0.0358443636930017,0.000765659749831985,-1.06740442853329,-0.000265456588149869,0
0.37,0.000623767774294601,0.000358914767513658,-0.0310299077052485,-0.0179619526695781,0.000719530491618842,-1.3487706201249e-05,-0.0358455245591549,0.000765039201234163,-1.06740589922974,-0.000251389139794009,0
0.38,0.000623675861085061,0.000358914431367593,-0.0310311534991245,-0.0179619368566432,0.00071944979934285,-1.3532736960703e-05,-0.0358466071385976,0.000764473530809719,-1.06740727033909,-0.000238274247954789,0
0.39,0.000623590117890145,0.000358914117871873,-0.0310323107769312,-0.0179619224740994,0.000719374523776698,-1.35747441610828e-05,-0.0358476129446509,0.000763948487851869,-1.06740854860445,-0.000226047421652561,0
0.4,0.00062351019546116,0.000358913825577669,-0.0310333889582186,-0.0179619080679294,0.000719304358233165,-1.3613899573063e-05,-0.0358485495218816,0.000763458479572952,-1.06740974031285,-0.000214648527079408,0
0.41,0.000623435744549357,0.000358913553059326,-0.03103439563338,-0.0179618921841913,0.000719238996038665,-1.36503746752237e-05,-0.0358494228130203,0.000762998780449982,-1.0674108513253,-0.000204021501452743,0
0.42,0.000623366186394884,0.000358913298980167,-0.0310353252471095,-0.0179618925970373,0.000719177929523628,-1.36844514481136e-05,-0.0358502365216053,0.000762587835160176,-1.06741188710629,-0.000194114078165061,0
0.43,0.000623301456165047,0.000358913062093716,-0.0310361963384393,-0.017961878126978,0.000719121101241317,-1.37161637651243e-05,-0.0358509918421284,0.000762189571041816,-1.06741285275,-0.000184877529800423,0
0.44,0.000623241149717283,0.000358912841237083,-0.0310370090036884,-0.0179618636385941,0.000719068156567817,-1.374570900166e-05,-0.0358516960257592,0.000761817132284745,-1.0674137530056,-0.00017626642848759,0
0.45,0.000623184917802802,0.000358912635326584,-0.0310377646866343,-0.0179618476780933,0.000719018789004242,-1.37732578873785e-05,-0.0358523496323672,0.000761468707439499,-1.06741459230095,-0.000168238422476349,0
0.46,0.000623132414492906,0.000358912443351118,-0.031038463792498,-0.0179618480130689,0.000718972694997306,-1.37989793948182e-05,-0.0358529615845436,0.000761159812415323,-1.06741537476375,-0.000160754027836341,0
0.47,0.000623083516746343,0.00035891226436799,-0.0310391165985522,-0.0179618334758852,0.0007189297662688,-1.38229348344333e-05,-0.0358535258467273,0.000760858325843428,-1.06741610424263,-0.000153776434266728,0
0.48,0.00062303799504396,0.000358912097498763,-0.0310397269671068,-0.0179618189245024,0.000718889801303911,-1.38452367470474e-05,-0.0358540529666509,0.000760575527965688,-1.06741678432523,-0.000147271324052589,0
0.49,0.000622995387036376,0.000358911941923431,-0.0310402861080869,-0.0179618192134414,0.000718852394668845,-1.38661098625282e-05,-0.0358545424075983,0.000760328790709796,-1.06741741835627,-0.000141206703281196,0
0.5,0.000622955860722903,0.000358911796878542,-0.0310408157374139,-0.0179618046356296,0.000718817693117879,-1.38854747231345e-05,-0.0358549988590041,0.000760081728121068,-1.06741800945443,-0.000135552744487954,0
0.51,4.69465381143604,0.00153272729215889,5.26824363951924,-0.0656656562041582,-0.608125012823536,4.65510050667676,-0.749240399513774,5.2151070791956,0.130227142116055,40.4017530779511,4680.71575536139
0.52,4.70114823695814,-0.00821860470019242,4.94462626778801,0.435902642153446,-2.64356598670018,3.88746976390554,-2.41243913823903,4.33814216523941,0.595443671210293,86.7676651605109,4680.71575536139
0.53,4.69583118147984,0.00652002084557779,5.21165821962336,-0.291209647946826,-4.63552089151893,0.750212676460311,-5.19199395939703,0.537943475478431,1.41173598392262,136.966903513876,4680.71575536139
0.54,4.63134715218933,0.0435787427706953,8.43705770623484,-2.13243198107138,-2.43201417320545,-3.94164719530319,-2.53727216054935,-8.3242692697638,2.5981728013371,185.45161427695,4680.71575536139
0.55,4.62074444308766,0.0124865802393168,8.96850948109643,-0.567493546058548,3.85133435903437,-2.55316642190298,7.80076511740659,-4.46142071770723,-2.15350550377956,233.798136572629,4680.71575536139
0.56,4.61458573476672,0.0339118086386008,9.27774149493709,-1.61926576047781,1.23227919781486,4.4471383487486,0.848090327762729,9.37972556346339,-0.262964046425304,281.168874962903,4680.71575536139
0.57,4.6307399083684,0.0346506332886322,8.47145150633813,-1.64549427260142,-4.26194058924085,-1.81130206733291,-7.11661569295704,-4.88128293629454,1.98014506886256,329.741346638183,4680.71575536139
0.58,4.63513956598656,0.0211832681996165,8.25293368544012,-0.959278512418765,4.58893755098253,-0.653161297236842,8.30664825340681,-0.175283983393463,-1.70761043355326,377.969617801136,4680.71575536139
0.59,4.6717252166004,0.0349059677269539,6.42517946084856,-1.62981407273725,-4.40747453394101,1.54932345191845,-6.60631911993523,0.543849888646436,1.24023802520124,425.853593933149,4680.71575536139
0.6,4.65390083993672,0.0630364022574004,7.31799150405576,-3.02228647677933,4.57404370980018,-0.860750112872893,7.72808076560476,1.72162216570456,-1.74325846352382,473.94473177525,4680.71575536139
0.61,4.60982461717199,0.0526867234172088,9.52344412690684,-2.50889507472538,-4.36596254316219,-1.48041546993204,-8.15075600003755,-5.5277227826791,1.90913966635196,522.492518920604,4680.71575536139
0.62,4.55525689835361,0.0882802513709187,12.2535474076091,-4.26358669196018,1.73342446501695,4.21347818753829,0.467911378580526,12.9656721573615,-0.370917639091255,569.698418662117,4680.71575536139
0.63,4.61521796972645,0.0965114420568183,9.25729138265237,-4.67446632445585,3.37704742572204,-3.14723720919761,10.0174894866522,-2.68290580278443,-2.30007670853286,617.953048314211,4680.71575536139
0.64,4.57265745391534,0.0974856211530022,11.3871518927757,-4.72080194653311,-3.14863986196201,-3.31734331308096,-4.16882906452605,-11.6006061685715,2.40359551204766,665.841317224234,4680.71575536139
0.65,4.57355816764671,0.102816380674145,11.3440653076249,-4.97683716698198,-4.17838907088822,1.8625440379397,-12.3860606661789,-0.205492248146696,1.17395373163964,713.346379431383,4680.71575536139
0.66,4.51469018147722,0.0738224607559212,14.2894622366231,-3.51765211385648,-1.23481725609118,4.34316745411668,-7.49937491662771,12.6618317500215,0.293353441533071,760.953023532758,4680.71575536139
0.67,4.53377955190353,0.136756494588862,13.3370243519015,-6.65350267140529,1.20431007631504,4.37304203091588,-3.31322392559194,14.531616000311,-0.238577825853377,808.551329131158,4680.71575536139
0.68,4.54729120736685,0.0976612476816635,12.6635875101887,-4.6700312622205,1.95326586633077,4.10757197128933,0.931950828470289,13.4650327987583,-0.422405629418493,855.709618283907,4680.71575536139
0.69,4.50527066363215,0.144541871293673,14.7667461561052,-6.99453739802492,1.29234816162703,4.31835528115517,-2.9838722819488,16.0647705136499,-0.258713817424639,903.124086305076,4680.71575536139
0.7,4.51158216038645,0.124500206148904,14.4533678300272,-5.99454676082894,-1.00810096332071,4.39927338761758,-9.41967336752678,12.4941660844947,0.25285124127512,950.566393010126,4680.71575536139
0.71,4.52685060946052,0.11420080637909,13.6921733062607,-5.48462026199646,-4.00672358771531,2.10987780598699,-14.7044122859185,1.15625628331609,1.11133022216681,998.091672143951,4680.71575536139
0.72,4.46619692869538,0.130208434874734,16.7271759172371,-6.25708312339697,-3.36911515826017,-2.93477976904266,-8.04180870694897,-15.946122290392,2.31654962970554,1045.14315491172,4680.71575536139
0.73,4.49625674073361,0.139876923251581,15.2265320544764,-6.71271381416144,2.88150893655409,-3.45438800380178,15.1309050158397,-6.92556990856845,-2.41526767196064,1092.28287522532,4680.71575536139
0.74,4.44529686757525,0.154565317775584,17.7769385793164,-7.45699400930605,2.33558400236639,3.78544608285782,2.32460903925256,19.1369406573318,-0.518062354053039,1139.51953505033,4680.71575536139
0.75,4.44832918909958,0.1752317630424,17.6278273775838,-8.50308223837536,-4.42269463695105,-0.508046153079333,-16.1177518518654,-11.1022871899513,1.72453990977213,1186.73567258398,4680.71575536139
0.76,4.51022877265551,0.170801887416648,14.5353624425071,-8.24433304970541,3.64935869093793,2.65584600670117,6.32049947184194,15.4692299483832,-0.903831624679429,1233.61611972635,4680.71575536139
0.77,4.45327600389798,0.159596892944404,17.3855867005288,-7.66359684176485,-4.06614225811448,-1.82308131247806,-12.215362396319,-14.5524658735661,2.02810543267016,1280.56145790438,4680.71575536139
0.78,4.46768277493338,0.191729638613135,16.6679042761288,-9.26960606647688,3.81464346455435,2.33354770041066,8.66066889845576,16.9922760046198,-0.978904949979661,1327.45838234378,4680.71575536139
0.79,4.41994382002622,0.154134872396409,19.0575587630094,-7.40619521085263,-2.25723866952084,-3.80322685622307,-2.65279438649463,-20.273257149501,2.64082015862391,1374.46850303887,4680.71575536139
0.8,4.39898639033275,0.203367885271261,20.1082186280453,-9.86729787190327,-1.19263790006948,4.23911011869358,-15.6989533903252,15.976447857222,0.320450037838483,1421.19548115495,4680.71575536139
0.81,4.38704459680614,0.213004857418164,20.7081158115595,-10.3407718837111,4.35227073931537,-0.590991349639669,21.523617119445,8.51419577596418,-1.65724498909531,1467.90922620957,4680.71575536139
0.82,4.4303771795621,0.214583412360699,18.5443086485566,-10.4060534939504,-0.877452280405114,-4.34791507387815,7.50328648808835,-19.8966837550774,2.99085416685234,1514.67506181805,4680.71575536139
0.83,4.40473420408518,0.178003533736625,19.829341925312,-8.55127797778542,-4.39172160886859,-0.38229566680427,-18.5841267704797,-10.9980629395833,1.69801649507794,1561.27828211922,4680.71575536139
0.84,4.38039168395595,0.212462882319053,21.0494199307821,-10.2324777530173,-2.81983788633131,3.35879235381473,-21.8084786446903,8.49540697038627,0.746854789699145,1607.69664639143,4680.71575536139
0.85,4.40456292681944,0.236859300884663,19.8438382464946,-11.4918981714398,-0.367815187171631,4.39556468418037,-14.0980992390671,18.0854979964943,0.137208362576725,1654.47917463825,4680.71575536139
0.86,4.42912104717206,0.26741726187199,18.6189058048657,-12.9526079571147,-3.40774969257381,2.84180704397972,-22.6728828830968,0.611627362490589,0.936012922782503,1700.83755241046,4680.71575536139
0.87,4.39043762776908,0.189059922764425,20.5561429286754,-9.04403305209342,-3.61399689503184,2.50014252802245,-22.2132688787476,3.30457738174708,1.00863394741286,1747.36058730768,4680.71575536139
0.88,4.39576431081765,0.267748453793038,20.2929322280487,-12.9883855304722,-4.30722059029675,0.917760261337592,-21.9971858413421,-9.82980529623126,1.42169640784247,1793.844041148,4680.71575536139
0.89,4.37878576035861,0.243664647814395,21.1450529545141,-11.7758072425399,-3.74251321607282,-2.28620472032451,-10.7166586278983,-21.7010628429981,2.17476250313486,1840.18538015948,4680.71575536139
0.9,4.37877340646035,0.246530097152545,21.1488665326833,-11.8934252247326,0.305477876187928,-4.3750562169058,14.4559025485612,-19.4873035769461,-3.0156413700676,1886.4596400311,4680.71575536139
0.91,4.32713398264501,0.237474933252171,23.7341414194257,-11.4119390846503,4.32369284160025,-0.293535447909042,23.8800489147019,11.1033817560467,-1.58375687520475,1932.62381532982,4680.71575536139
0.92,4.3266389161925,0.264358257662774,23.7622954064096,-12.8152956704814,-0.542919085655661,4.30057303925148,-17.0012589946174,20.9722597423663,0.18660338513411,1978.9300475249,4680.71575536139
0.93,4.36780549582116,0.296416452060511,21.7074021176147,-14.3459442460513,-3.46760715799335,-2.67231887322807,-6.75105835026064,-25.1284825279604,2.29514435478733,2024.84905583046,4680.71575536139
0.94,4.29933994942994,0.272750942270252,25.1341388244732,-13.210015358615,4.30540788228625,-0.148929662663223,24.7436296603784,13.9277504089059,-1.54201855512981,2071.05247417802,4680.71575536139
0.95,4.2273168117615,0.222089019161942,28.738824116177,-10.6871592295032,-3.27746768399447,-2.67912981018197,-14.0771986018964,-27.2390870533518,2.30856908658949,2117.02019830286,4680.71575536139
0.96,4.24167246461541,0.2313963707779,28.0246533499999,-11.0679930335739,3.35062375751697,2.61125449028788,13.8644495276944,26.7517981540104,-0.854285263984654,2162.84258536817,4680.71575536139
0.97,4.24654648870283,0.300370036966119,27.7845764993751,-14.5152530858454,-2.43793157199109,-3.48996688954357,-1.80827576753085,-31.2954533781559,2.60245275015266,2208.73942376307,4680.71575536139
