t,iq,id,vq,vd,ia,ib,va,vb,theta_e,omega,r
0,0,0,0,0,0,0,0,0,0,0,0
0.01,0.00094064905393085,0.000527776465427639,-0.0457004835431115,-0.0264149121319033,0.00042290845910662,-0.000992228338305432,-0.0200744693099478,0.0488190276524875,-2.22738058232915,-0.00418440899153751,0
0.02,0.00105987502118131,0.000593796515079495,-0.0517006848971149,-0.0297191727117872,0.00047701078263013,-0.00111731377647428,-0.022808434898542,0.0550995947624188,-2.22741171393482,-0.00435799346146255,0
0.03,0.00110533554786662,0.000620080724766163,-0.0539839306453816,-0.0310347005211453,0.000496937684221772,-0.00116589867338651,-0.0238120935322475,0.0575360895957836,-2.22744239683295,-0.00418651218074822,0
0.04,0.00107764748671359,0.000606167759641333,-0.0527391324108813,-0.0303383703515334,0.000483469759814645,-0.00113798965276204,-0.0232497052131044,0.0562252968915507,-2.22746974339716,-0.0037093776523081,0
0.05,0.00110191446676214,0.000620936654728648,-0.0539872685495266,-0.031077533546609,0.000493643814684609,-0.00116451432171052,-0.0237855384556242,0.0575733134112962,-2.22749538778433,-0.00350077913718902,0
0.06,0.0011016479621945,0.00062196616911671,-0.054049206144864,-0.0311290518877377,0.000492776705215908,-0.00116517864163808,-0.023801780322821,0.0576524917916272,-2.22751899819167,-0.00320122675076888,0
0.07,0.00112622568748076,0.000637157473535348,-0.0552979262220688,-0.0318893869483227,0.000502942323313168,-0.00119222605433861,-0.0243253121051309,0.0590175637873099,-2.22754014543003,-0.00305092282338972,0
0.08,0.00109981380903041,0.000623093955717202,-0.0540906792356229,-0.0311854941825178,0.000490587760671751,-0.00116497216330021,-0.023797801089436,0.0577234899402881,-2.22755999412653,-0.00267457875771857,0
0.09,0.00109617845171891,0.000622105773714095,-0.0539720265330142,-0.0311360465853997,0.000488291381645688,-0.00116197862214062,-0.02373299974063,0.0576123057025131,-2.22757773805893,-0.00243312350863529,0
0.1,0.00109444430910281,0.000622033439118439,-0.0539395790197318,-0.0311324163091195,0.000486943486588917,-0.00116087035709319,-0.0237085920874658,0.0575900007926756,-2.22759383488464,-0.00222151651931136,0
0.11,0.00109298973472762,0.000622025517833604,-0.0539158980857977,-0.0311320189735797,0.00048577941055648,-0.0011599830470035,-0.0236892387306851,0.0575755732939765,-2.22760845585166,-0.00202988448472194,0
0.12,0.00109167735598809,0.000622022366708834,-0.053894810781046,-0.0311318747021977,0.000484726609712395,-0.00115918565730427,-0.0236718623448347,0.0575628976401057,-2.2276217376922,-0.00185584810602058,0
0.13,0.00114153921750817,0.000650727162896517,-0.0563332119396037,-0.0325685408904663,0.000506671020298226,-0.00121237044785431,-0.0247249050132388,0.0601898637251539,-2.22763461160531,-0.00193028533766136,0
0.14,0.00118181275842684,0.000674860437540796,-0.0584846156455297,-0.0337763961136363,0.000523813741582388,-0.00125608008115234,-0.0256903870156763,0.0624603811757131,-2.22764640165549,-0.0019728253826938,0
0.15,0.00109529788801341,0.000625714897738873,-0.0541813879953755,-0.0313166738012363,0.000485297753009845,-0.00116433787521604,-0.0237839151362389,0.057885077903296,-2.22765729492578,-0.00142384485669323,0
0.16,0.00108783821656075,0.000622271995362761,-0.0538507844553044,-0.0311443770957162,0.00048148240656474,-0.00115706054888733,-0.0236268043954584,0.0575469662553168,-2.22766618774004,-0.00127602866215119,0
0.17,0.00108654159167769,0.000622029355945689,-0.0538137214202186,-0.0311322148443272,0.000480594515223669,-0.00115608047386011,-0.0236044204853233,0.0575148915304401,-2.22767418889612,-0.00116877875221423,0
0.18,0.00108578554894307,0.000622010942589574,-0.0538003121460937,-0.0311312927636964,0.0004799986545375,-0.00115560770274214,-0.0235939470770505,0.0575061443454648,-2.22768145135161,-0.00107343292215493,0
0.19,0.00108513107367592,0.000622008359570003,-0.0537896775006398,-0.0311311820751191,0.000479474333308449,-0.00115520916293563,-0.0235852137937755,0.057499718202083,-2.22768804824919,-0.000986979294964674,0
0.2,0.00108453929400225,0.000622007003138347,-0.0537801436115867,-0.0311311006797362,0.000478999614087408,-0.00115484958409836,-0.0235773691230169,0.0574939730898098,-2.22769404096402,-0.000908455488731148,0
0.21,0.00108400181620487,0.000622005839974696,-0.0537714816175526,-0.0311310479393094,0.000478568415734814,-0.00115452305042349,-0.0235702290163722,0.0574887700795742,-2.22769948486065,-0.000837123883716854,0
0.22,0.00108351358209143,0.00062200478794055,-0.0537636077615945,-0.0311309979929756,0.000478176723811593,-0.00115422643341867,-0.0235637400335944,0.0574840387517302,-2.22770443020182,-0.000772324936208517,0
0.23,0.00108307005145654,0.00062200383238614,-0.0537564482992222,-0.0311309450286826,0.000477820898380456,-0.00115395697187374,-0.0235578446883681,0.0574797305644741,-2.22770892264619,-0.000713460314524302,0
0.24,0.00108266738260254,0.000622002964195805,-0.0537499504822402,-0.0311308948743919,0.000477497854261481,-0.00115371233329435,-0.0235524952558933,0.0574758189132163,-2.22771300367043,-0.000659986544937205,0
0.25,0.00108230120407579,0.000622002175376228,-0.0537440222154909,-0.0311308675216899,0.000477204090615091,-0.00115348986056094,-0.0235476044244725,0.05747226428827,-2.22771671095197,-0.000611409930119304,0
0.26,0.00109291302851437,0.000628157036443382,-0.0542645237075496,-0.0314388975773851,0.00048184491306435,-0.00116484575377335,-0.0237714811334311,0.0580341235723557,-2.22771995286393,-0.00062090931311147,0
0.27,0.00106119141899307,0.0006101430030098,-0.0527500431975609,-0.0305373177566907,0.000467722323740843,-0.00113121065223981,-0.023122586710894,0.0563953971252515,-2.22772342340585,-0.000426234879555558,0
0.28,0.00105972202401914,0.000609324623506751,-0.0525198997400256,-0.0304963605717592,0.000467055381402505,-0.00112966655952357,-0.0229651980447245,0.0562224826523311,-2.22772620477895,-0.000384109289524553,0
0.29,0.00107947524502432,0.000621112131352694,-0.0536450564040984,-0.0310863167269974,0.000475496301372869,-0.001151064877283,-0.0234957685423183,0.0573768248063267,-2.22772844907341,-0.000449678223007304,0
0.3,0.00107061581950234,0.000616501322158292,-0.0532221061314864,-0.0308555584865427,0.000471295457011887,-0.00114200381146104,-0.0233017135025701,0.0569358254391012,-2.22772942321301,-0.000395247250938826,0
0.31,0.0010800372822946,0.000621614043875029,-0.0536816879012888,-0.0311114445512609,0.000475631329291228,-0.00115180701043431,-0.0235092551547277,0.0574191650937861,-2.22773150435912,-0.00041375117553328,0
0.32,0.0010805810321692,0.000621971643082082,-0.0537141169988749,-0.0311293376682597,0.000475841215014983,-0.00115242319916563,-0.0235238923991226,0.05745318542107,-2.22773350790668,-0.000391024574084324,0
0.33,0.00108045769785425,0.000621996322738063,-0.053713914103668,-0.0311305667248719,0.000475726371578199,-0.00115236829257717,-0.0235228760852475,0.057454077780659,-2.22773533667257,-0.000367333806781645,0
0.34,0.00108029804023935,0.000621997724120775,-0.0537114356816813,-0.0311306289473022,0.00047559717341226,-0.00115227269046813,-0.0235207800261785,0.0574526525810786,-2.22773699862928,-0.000345578056550702,0
0.35,0.00108014914505184,0.000621997525445371,-0.0537089922759885,-0.0311306354038443,0.000475477650394928,-0.00115218232115898,-0.023518754497435,0.057451201021725,-2.22773850843487,-0.000325796637871387,0
0.36,0.00108001393452469,0.000621997241896611,-0.0537067694578533,-0.031130610240446,0.000475369175146879,-0.00115210017577235,-0.0235169309017057,0.0574498558788964,-2.22773987997556,-0.000307825419478894,0
0.37,0.00107989076711454,0.000621996977084151,-0.0537047270506103,-0.0311306107835089,0.000475270369866553,-0.00115202533996782,-0.0235152416871164,0.0574486383105064,-2.22774112591038,-0.000291499907115707,0
0.38,0.00107977918889742,0.000621996736004999,-0.053702881004368,-0.0311305855400775,0.000475180858751883,-0.00115195754602879,-0.0235137302690377,0.05744751755361,-2.22774225774143,-0.000276669485160742,0
0.39,0.00107967767473268,0.000621996516957596,-0.0537011900897992,-0.0311305830937519,0.000475099423058637,-0.00115189586622789,-0.0235123337284402,0.0574465071476081,-2.22774328591892,-0.000263197240102672,0
0.4,0.00107958553787398,0.00062199631795959,-0.0536996518562617,-0.0311305577841108,0.000475025509218674,-0.00115183988415642,-0.0235110774637501,0.0574455696631787,-2.22774421993526,-0.000250958790001586,0
0.41,0.00107950171884251,0.000621996137178445,-0.0536982423035563,-0.0311305581832137,0.000474958269428805,-0.0011517889554732,-0.0235099123112186,0.0574447291090202,-2.22774506841374,-0.000239841143341807,0
0.42,0.00107942558322226,0.000621995972947264,-0.0536969560212194,-0.0311305585530781,0.000474897193290419,-0.00115174269517206,-0.0235088492543377,0.0574439619847745,-2.22774583918826,-0.000229741656380054,0
0.43,0.00107935619969065,0.000621995823751119,-0.0536957703183091,-0.0311305588972275,0.000474841536036018,-0.00115170053669755,-0.0235078699138295,0.05744325460352,-2.22774653937469,-0.00022056708553477,0
0.44,0.0010792937487387,0.000621995688214691,-0.0536947159100299,-0.0311305334836728,0.000474791433966072,-0.00115166259227976,-0.02350701395481,0.0574426054994484,-2.2277471754377,-0.000212232726520658,0
0.45,0.00107923658881586,0.000621995565087168,-0.0536937304514817,-0.0311305337826609,0.000474745581191551,-0.00115162786123213,-0.0235062002382454,0.0574420174937239,-2.22774775324989,-0.000204661632317417,0
0.46,0.00107918466758247,0.000621995453233307,-0.0536928292832424,-0.031130534061576,0.000474703930805869,-0.00115159631323891,-0.0235054563201443,0.0574414797039574,-2.22774827814531,-0.000197783902745779,0
0.47,0.00107913763579259,0.000621995351620281,-0.0536920111257307,-0.0311305343217598,0.000474666201295644,-0.00115156773650916,-0.023504780907881,0.0574409914639047,-2.22774875497057,-0.000191536039124051,0
0.48,0.0010790950918559,0.000621995259311282,-0.0536912707841803,-0.031130505927859,0.000474632070153075,-0.00115154188714758,-0.0235041871227334,0.0574405270296519,-2.22774918812801,-0.000185860358007481,0
0.49,0.0010790560927232,0.000621995175454469,-0.0536905744665035,-0.0311305061581669,0.000474600786527247,-0.00115151819045963,-0.0235036129961803,0.0574401112144867,-2.22774958161624,-0.000180704458636405,0
0.5,0.0010790208188808,0.000621995099276049,-0.0536899433959563,-0.0311305063741126,0.000474572489620331,-0.00115149675778839,-0.0235030926149499,0.0574397343874669,-2.227749939069,-0.000176020739135341,0
0.51,4.63695247109673,0.0327410313168366,8.15342208026886,-1.63166629865375,-0.760063550656433,4.57435280595029,-3.00085744686625,7.7547070294606,0.171714119650142,52.7995874343467,1093.22203421518
0.52,4.73600781244822,0.0406084347242469,3.2017519421697,-2.01598225535441,-3.29300122738189,3.40405081645423,-3.68266417748445,0.867977251409301,0.777392013325311,112.549390961218,1093.22203421518
0.53,4.63412440779711,0.0764042471835076,8.2971748633493,-3.79764896904046,-4.50257500593064,-1.09898359946693,-7.0658307467529,-5.77401803454846,1.82668029903972,174.396211977783,1093.22203421518
0.54,4.63132517561804,-0.0549389882195812,8.43853656762454,2.77671295046593,1.00733415531105,-4.52078190961296,-0.979755947592533,-8.82944576378262,-2.93421320208554,241.149266627933,1093.22203421518
0.55,4.64043371939267,0.0482912862156963,7.98457256982006,-2.37718885162779,3.77191522433346,2.70344459770166,5.03617879924491,6.63636414470021,-0.938523976499133,302.241664939071,1093.22203421518
0.56,4.43188523302909,0.00721241547004622,8.0517007474778,-0.308395664218839,-4.41899746098578,0.337816780932311,-8.05227091802728,0.293131157224272,1.49612564145511,362.92577634128,1093.22203421518
0.57,4.11127036314998,0.0587853768807913,9.56856579387702,-2.89350585037087,3.86418550545415,-1.40501604933482,9.98817717289347,-0.407607925307764,-1.90523718417377,420.892716690468,1093.22203421518
0.58,3.83313142879126,-0.00043024852386031,10.2567084512851,0.0630275492891559,-3.76047362786084,0.742788549766506,-10.049846706617,2.05051747130611,1.37566920369486,475.174369433281,1093.22203421518
0.59,3.60791372698893,0.0491793039023101,9.37325403303136,-2.39832722261839,3.43008252287743,1.11981871371141,8.0946245770672,5.29970919870428,-1.24160541505062,524.087729998415,1093.22203421518
0.6,3.37336790690946,0.0704214958281362,9.19135852820164,-3.46827028074044,-1.2582183732776,-3.13072783032765,-0.00436026622575936,-9.8239478481052,2.7803279250544,571.550374109341,1093.22203421518
0.61,3.115948472341,-0.000846101288134671,10.9521512570373,0.0895112825262056,-2.34211088018095,2.05515260336297,-8.17119500082477,7.29309273801036,0.850292599509522,615.9662782533,1093.22203421518
0.62,2.9532204737826,0.0293065411931761,8.81393331169177,-1.42474080589602,2.07388223123393,2.10270837994659,5.10240419172329,7.32671674430093,-0.768573174150997,657.08981590313,1093.22203421518
0.63,2.7116590480913,0.0406100501976339,11.2652824509387,-1.99469234127686,2.32525914076719,-1.39567686000417,10.7454934264203,-3.92679987502988,-2.09640570966979,695.334213784102,1093.22203421518
0.64,2.60733121172169,-0.00562095415455144,7.42325818293298,0.318661821828171,-0.0233683649652515,-2.60723254855844,-0.401175798315178,-7.41925639036814,3.13047417012237,731.039255417758,1093.22203421518
0.65,2.38593817059853,0.0618827883089713,9.92967499876194,-3.06291773684603,-1.77668191700967,-1.5937163484067,-5.11356757308478,-9.04606750578503,2.32789233037703,764.524945214687,1093.22203421518
0.66,2.22917277114129,-0.0516505451481331,9.73359480460019,2.61959243748414,-2.17853735608943,-0.475241002581552,-10.0543378569364,0.717929395720498,1.76241219228397,795.649408623025,1093.22203421518
0.67,2.09067898760033,0.0880730134665778,9.12661227453068,-4.37040719504467,-2.0528785993232,0.405444128500412,-9.68574014084645,-2.92949630211544,1.41790709967021,824.655562867731,1093.22203421518
0.68,1.89343308388841,0.030346170416069,11.9794734771703,-1.47435381819098,-1.8046598800562,0.573770381370138,-11.897197613154,2.03425488201573,1.278990439598,851.545668401532,1093.22203421518
0.69,1.74179530127679,0.0540804694090603,13.0205036572341,-2.65298796290515,-1.67929411842394,0.465560772132027,-13.278237713936,0.510160593904198,1.33139124447489,876.552866760476,1093.22203421518
0.7,1.66766135608347,-0.0125408778835506,10.5578101163203,0.685326322696985,-1.66770727647371,0.00202785327192884,-10.5514204277512,0.777530435218074,1.56206047771242,900.13133884554,1093.22203421518
0.71,1.54423378960086,0.0649286635649235,10.8175612485265,-3.23121066496035,-1.45373259076937,-0.524914548124112,-8.7872000719714,-7.08840381342101,1.95932927198693,922.302777137679,1093.22203421518
0.72,1.42263649841543,0.00854386505452331,11.4035291099105,-0.39568264734474,-0.844682409540272,-1.14476164823383,-6.39563440896709,-9.44949212523203,2.51190725685912,942.597733358041,1093.22203421518
0.73,1.37532756206476,-0.0386448011327337,8.69490501436231,1.98595589290121,0.130190353029384,-1.36969697218314,-1.40224381858096,-8.80790022028993,-3.07491810517364,961.41055182408,1093.22203421518
0.74,1.26077029194002,-0.0360397313806711,9.60119594598257,1.81457381640557,1.00785080055611,-0.7583385491289,6.37192988882423,-7.40770890493445,-2.2444293948883,979.190954870969,1093.22203421518
0.75,1.16001690990713,0.0584708023377409,10.0970770906166,-2.90064525534149,1.13068408202052,0.265728381363222,8.89560121549793,5.58864810898141,-1.28960709022538,995.447220378082,1093.22203421518
0.76,1.03154144946125,0.0614011527581864,12.3947930402949,-3.02720420327357,0.285335907874033,0.993192470367326,-0.245453937823845,12.7567477110926,-0.220303832989542,1010.40743728128,1093.22203421518
0.77,0.950981721094121,0.0368576280581298,12.4181975529664,-1.8398677394951,-0.755503838679612,0.578738860231088,-11.2046997435852,5.66139977562407,0.955852555655915,1024.58466490835,1093.22203421518
0.78,0.923885804289444,-0.0352793695591566,10.0821923382102,1.80152417465116,-0.70811895681794,-0.594455344226223,-9.06849146382501,-4.76010023708009,2.23098690161012,1037.48713308183,1093.22203421518
0.79,0.802434558733463,-0.0566512632502293,12.654823014048,2.83314776860284,0.404924252083485,-0.695087718746522,3.0417371587622,-12.6063121828957,-2.68458417836505,1049.70390242639,1093.22203421518
0.8,0.72270825906681,0.0107375389574429,13.3626506230229,-0.516233811749215,0.685124234857917,0.230276584299394,12.4299724679085,4.93180630888981,-1.23169327251035,1060.8383657305,1093.22203421518
0.81,0.69407315295903,0.0060085958855996,11.7844471696991,-0.290934895485455,-0.199202935581406,0.664899868655992,-3.75763510841099,11.1730934212902,0.299745102078618,1071.1411276689,1093.22203421518
0.82,0.718194689425915,0.00334312369419992,7.67895125464846,-0.150841366149676,-0.679794150113698,-0.231721172677027,-7.20735030194423,-2.65389282264251,1.9039689997223,1080.67832895271,1093.22203421518
0.83,0.582164866535125,0.0492812311910898,11.8086177527426,-2.44549099689268,0.199969291420903,-0.548959792757349,7.18220776659408,-9.68709301306365,-2.70781226079696,1089.4816626032,1093.22203421518
0.84,0.540995650218696,0.0737302814346069,11.3592901170559,-3.67996040915144,0.489054353586172,0.242772088993746,7.33299766726718,9.42351981948465,-0.974572064094881,1097.50942062633,1093.22203421518
0.85,0.510309914281077,0.0248900782730719,10.5770556565487,-1.23560698289693,-0.354285415854974,0.368127109464201,-8.54450507735978,6.35549085129429,0.814975948278213,1104.90579602171,1093.22203421518
0.86,0.465874255086971,-0.0306228062030316,10.6076443369469,1.54438279463576,-0.190192905467774,-0.426383907438256,-6.31347099796453,-8.66298566046311,2.65638237687012,1111.677795431,1093.22203421518
0.87,0.399003692856392,-0.0255223027350117,11.9444796016958,1.26232702511406,0.397668968735747,-0.0414092520408593,11.5664258956499,-3.23756922305903,-1.73843040423474,1117.81375323004,1093.22203421518
0.88,0.34176307966077,0.0139199683514346,12.8936087188403,-0.682562104529145,-0.0520816980845259,0.338058079126577,-3.15003525585187,12.521514074104,0.19356695993573,1123.49205554529,1093.22203421518
0.89,0.304168534904175,-0.0129812084277173,13.0103869490166,0.63050950275982,-0.244733016681631,-0.18108771339852,-11.1321362156843,-6.76337593747847,2.16517599209177,1128.63928186319,1093.22203421518
0.9,0.333778208776037,-0.0457749229602459,9.84318330678062,2.31307843279192,-0.0845218823793587,0.326127716738099,1.14525323636088,10.0462423060434,0.117297094566963,1133.40360280788,1093.22203421518
0.91,0.222632704108734,-0.0162676729187251,13.8180188850972,0.79618860904246,-0.176216504853996,-0.137031753758022,-11.9388600550833,-7.00251260585854,2.15880929858336,1137.80600600589,1093.22203421518
0.92,0.29055803365248,0.0172076553085589,8.99055435923425,-0.834781823817743,0.249475546546357,-0.149940074685224,8.35316592527842,-3.42805300491254,-2.05281262909663,1141.63296632328,1093.22203421518
0.93,0.276940179838346,-0.0315953649671978,8.32013039622037,1.575280913377,-0.0441919523764328,0.27521119461509,1.19421443305569,8.38331268974512,0.0456193838262975,1145.12194092222,1093.22203421518
0.94,0.210676770180466,0.00979311169768066,10.3764401964062,-0.476562489470655,-0.179681948761749,-0.110430991209789,-8.31037541648339,-6.23179616106571,2.16832643588226,1148.28831736448,1093.22203421518
0.95,0.189220329971212,0.0865949757038477,10.254175712601,-4.32883876747676,0.140708129531231,-0.153310943429968,11.1304511878244,0.0045798651818143,-1.96984223839169,1151.17215578679,1093.22203421518
0.96,0.152117939282845,0.0368163395290975,10.9939660396711,-1.86785135778439,0.00662112889255836,0.156369661252333,-3.96418636852558,10.4231177874864,0.195141263140865,1153.76577694062,1093.22203421518
0.97,0.109218012922382,0.0274180430190139,12.1272344948674,-1.35596149482755,-0.0953440394401755,-0.0599152532577169,-7.40867434547362,-9.69639069508226,2.3778016550152,1155.96282006365,1093.22203421518
