t,iq,id,vq,vd,ia,ib,va,vb,theta_e,omega,r
0,0,0,0,0,0,0,0,0,0,0,0
0.01,0.000518439522088353,0.000294011049658523,-0.0252109350593217,-0.0147120284250737,0.000580243471866765,0.000136160011532421,-0.0284979500573535,-0.00631679265720334,-0.824423682523219,-0.00135315958534837,0
0.02,0.000601253496814521,0.000339907895427654,-0.0293153624987824,-0.0170086582232204,0.000672206611811157,0.000158686533275861,-0.0330706864994858,-0.00741718460347794,-0.824434176527669,-0.00150381305760885,0
0.03,0.000632756659904099,0.000357657982034381,-0.0308687961562262,-0.0178968554183744,0.000707388733142902,0.000167037130567959,-0.0348143078589658,-0.00781946150972006,-0.824445081275991,-0.0015128839617365,0
0.04,0.000618701025879245,0.000349988001913677,-0.030222029917006,-0.0175130657122806,0.000691863524162045,0.000163117825027289,-0.034078969893477,-0.0076617474473225,-0.824455353969668,-0.00140319956069994,0
0.05,0.000633716412127759,0.000358793329866233,-0.0309770497876587,-0.0179536679103074,0.000708867594197836,0.000166840877643193,-0.0349325171546285,-0.00785054458125485,-0.824465326282197,-0.00137420298491632,0
0.06,0.000634974102598212,0.000359786451940438,-0.0310670614459753,-0.0180033639287334,0.000710466852039697,0.000166958839607544,-0.0350324189430289,-0.00787483603883512,-0.824474913356681,-0.00131070167487075,0
0.07,0.00064765350126363,0.000367396255505076,-0.0317063568267179,-0.0183841645061005,0.000724944106126278,0.000169973848726685,-0.0357603980621744,-0.00802897865518148,-0.824483910279661,-0.00128219688117068,0
0.08,0.000635653492924715,0.000360755339920742,-0.0311541269003635,-0.0180518524599846,0.000711626433639866,0.000166696122611552,-0.0351294028059274,-0.00789772490404065,-0.824492668227893,-0.00118863958545249,0
0.09,0.000633773179397706,0.000360003744189433,-0.0310885400578466,-0.0180142474039847,0.00070973698473887,0.000165965512224874,-0.0350557823180835,-0.00788051765605812,-0.82450088840782,-0.00112619335818105,0
0.1,0.000633120305851179,0.000359917530481691,-0.0310808610446279,-0.0180099342629738,0.000709200396428346,0.000165580035436057,-0.0350472773946572,-0.00787819793189107,-0.824508678139024,-0.00107006919790827,0
0.11,0.000632635421488102,0.000359906550771315,-0.0310800661345963,-0.0180093808925418,0.000708838154442546,0.000165253661429992,-0.0350463762912585,-0.00787780552660742,-0.824516068901101,-0.00101718328758474,0
0.12,0.000632191340924244,0.000359904133109895,-0.0310800843039457,-0.0180092524480011,0.000708511617384966,0.000164948975746192,-0.0350463576782028,-0.00787766637829257,-0.8245230821939,-0.000967041719595415,0
0.13,0.000659345164634278,0.000375578384420666,-0.0324113562234064,-0.0187935829944216,0.000739091155419817,0.000171870395795323,-0.0365563537949834,-0.00820535015857102,-0.824529974153581,-0.000992356846072555,0
0.14,0.00067795760187533,0.000386588972599175,-0.0334094729759495,-0.0193445472141445,0.000760233220718141,0.000176417101757047,-0.037663306677846,-0.0084781909356587,-0.824536586759594,-0.000996530411689622,0
0.15,0.000636488894248231,0.000362915090925788,-0.0313481068146751,-0.0181599297942478,0.000713714431883013,0.000165641738233204,-0.0353455998937802,-0.00794829661909343,-0.824542921684072,-0.000840214086887467,0
0.16,0.000631243164348647,0.000360239717145825,-0.0311123754890111,-0.0180260508003028,0.000708047461230476,0.00016404078453627,-0.0350816724833908,-0.00788635985689344,-0.824548607984675,-0.000786351439944348,0
0.17,0.000630323928239585,0.000359936581776012,-0.0310843960044055,-0.0180108895998543,0.000707167601559938,0.000163635511781357,-0.0350508782299481,-0.00787830911085564,-0.824553965282971,-0.000746481652723498,0
0.18,0.00062993485537231,0.000359901482723044,-0.0310811464321468,-0.0180091221814419,0.00070685892844511,0.00016339355726775,-0.0350473323849398,-0.00787722273280406,-0.824559044472127,-0.000709985322283534,0
0.19,0.000629622911765893,0.000359896707012879,-0.0310808224581599,-0.0180088843877487,0.000706627428619395,0.00016318188582688,-0.0350469710363099,-0.00787700848971308,-0.824563863807983,-0.000675511452067352,0
0.2,0.00062933384391775,0.000359895398129317,-0.0310808488488118,-0.0180088182822604,0.000706415036837299,0.000162983374689284,-0.0350469815595008,-0.00787691466591925,-0.824568437039524,-0.000642816507659033,0
0.21,0.000629060375738371,0.000359894520016652,-0.0310809131464348,-0.0180087710965879,0.000706214351863399,0.000162795304245166,-0.0350470309210645,-0.00787684086696375,-0.824572776788546,-0.000611792975819366,0
0.22,0.000628800822052533,0.00035989372771143,-0.0310809701582349,-0.0180087403619673,0.000706023904360382,0.000162616775062391,-0.0350470843558999,-0.0078767578071359,-0.824576894981958,-0.000582353540037888,0
0.23,0.00062855471147434,0.000359892980360389,-0.0310810324218877,-0.0180086960882523,0.000705843322545159,0.000162447488893133,-0.0350471307996467,-0.00787669562201832,-0.824580802931121,-0.00055441709187453,0
0.24,0.000628321001989936,0.000359892271560829,-0.0310810818515304,-0.0180086667975509,0.000705671838911403,0.00016228673525045,-0.0350471764197968,-0.0078766207148993,-0.824584511369814,-0.000527906871979001,0
0.25,0.000628099283281593,0.000359891598891326,-0.0310811303089586,-0.018008636042501,0.000705509152373073,0.000162134229973914,-0.0350472188406942,-0.00787655285808608,-0.824588030483701,-0.000502750064544498,0
0.26,0.000633594370827776,0.000363150494999431,-0.0313563218383061,-0.0181717108269287,0.000711756890773666,0.000163469376946205,-0.0353600142284463,-0.00794351228166907,-0.824591320681005,-0.000494645892113606,0
0.27,0.000618444826706147,0.000354512331724134,-0.0306354292198814,-0.0177394514556591,0.000694769477720904,0.000159525452049198,-0.034537267458946,-0.00777141029049928,-0.824594626721127,-0.000430618743925283,0
0.28,0.000617962153610891,0.000354335262441767,-0.0305449108286973,-0.0177306059202555,0.000694295338907945,0.000159325716304015,-0.0344648206525724,-0.00771635284434853,-0.824597634072427,-0.000408327802000857,0
0.29,0.000626185124418122,0.000359261741802627,-0.0310265534334321,-0.0179771188735273,0.000703678058323812,0.000161288559418287,-0.0349858463631579,-0.00786221185189407,-0.824600407759105,-0.000411202806731405,0
0.3,0.000619682715827523,0.000355774627488052,-0.0307197818080349,-0.0178026185404697,0.000696536627140086,0.00015943331180136,-0.0346421492943074,-0.00778201217563053,-0.824602692071336,-0.000377682878922017,0
0.31,0.00062612441370333,0.000359423534436968,-0.0310383257927151,-0.0179852169267182,0.000703744088842001,0.000161125156206108,-0.0350000257709923,-0.0078640887549488,-0.824605223682089,-0.00037743169228093,0
0.32,0.000626755402703472,0.000359835335568263,-0.0310762593020289,-0.0180058165748086,0.00070448735707863,0.000161249394596948,-0.0350418829190065,-0.00787462787839735,-0.824607678320112,-0.000362008263204319,0
0.33,0.000626701676888999,0.000359881462786084,-0.0310807895254173,-0.0180081314187941,0.000704479596880504,0.000161177407385829,-0.0350467991934235,-0.00787592159786389,-0.824610013863651,-0.000345565102415622,0
0.34,0.0006265732653679,0.000359886299976743,-0.0310813536024477,-0.018008365366925,0.000704388947300998,0.000161085122543749,-0.0350473896614745,-0.00787605503191941,-0.824612230912127,-0.000329746342916163,0
0.35,0.000626442004261764,0.000359886491689349,-0.0310814335963802,-0.0180083800065055,0.000704293033160086,0.000160994394455612,-0.0350474749085929,-0.00787602484737383,-0.824614334863003,-0.000314709576020798,0
0.36,0.000626316272851942,0.000359886176681707,-0.0310814514329526,-0.0180083684445593,0.00070420081776415,0.00016090786825394,-0.035047495881869,-0.00787597547129008,-0.824616331412421,-0.000300437427244748,0
0.37,0.000626197116037868,0.000359885821588173,-0.0310814749047713,-0.0180083390290804,0.000704113386072774,0.000160825906704951,-0.0350475080705665,-0.00787594660252383,-0.824618226034292,-0.000286893544349299,0
0.38,0.000626083841063533,0.000359885478251712,-0.0310814856759905,-0.0180083245330133,0.000704030265481967,0.000160747997756492,-0.035047520299393,-0.00787590154691925,-0.824620023930991,-0.000274041066911101,0
0.39,0.000625976328647482,0.000359885151700046,-0.0310814934254342,-0.0180083100243124,0.000703951372654967,0.000160674053220593,-0.0350475295778313,-0.00787585766619118,-0.824621730040788,-0.000261844734984126,0
0.4,0.000625874345959072,0.000359884841714253,-0.0310815013364979,-0.0180082955031858,0.000703876537270313,0.000160603911863139,-0.0350475382804703,-0.00787581695697364,-0.824623349049401,-0.000250271055245947,0
0.41,0.000625777543750481,0.000359884547522956,-0.0310815061346327,-0.018008279515178,0.000703805503104466,0.000160537334000716,-0.0350475430505334,-0.0078757781085427,-0.824624885403713,-0.000239288240306291,0
0.42,0.000625685689194762,0.000359884268330099,-0.031081509456971,-0.0180082649711075,0.000703738099363342,0.000160474159163044,-0.0350475470993484,-0.00787573994697324,-0.824626343323172,-0.000228866125125666,0
0.43,0.00062559854945943,0.000359884003372747,-0.0310815124628248,-0.018008250416228,0.000703674155233194,0.000160414227006798,-0.0350475503222062,-0.00787570418710192,-0.824627726812451,-0.000218976084608107,0
0.44,0.000625515891713842,0.000359883751926169,-0.0310815155159192,-0.0180082358509392,0.000703613499891341,0.000160357377309798,-0.0350475530163906,-0.00787567094238139,-0.824629039671041,-0.000209590955032053,0
0.45,0.000625437253164115,0.000359883513302198,-0.0310815069133975,-0.0180082361873409,0.000703555793644574,0.000160303293856864,-0.035047556739695,-0.00787562119229251,-0.824630285504872,-0.000200684959450342,0
0.46,0.000625362744488993,0.000359883286847475,-0.0310815030574895,-0.0180082201458084,0.000703501117889919,0.000160252049829577,-0.0350475523296541,-0.00787558891974334,-0.824631467735831,-0.000192233636891187,0
0.47,0.000625292135728902,0.000359883071942223,-0.0310815027387721,-0.0180082055501747,0.000703449303887577,0.000160203487274983,-0.0350475510231183,-0.00787556010195861,-0.824632589610942,-0.000184213775177129,0
0.48,0.000625225135843643,0.00035988286799783,-0.0310815011822211,-0.0180081909458755,0.000703400138038608,0.000160157406873091,-0.0350475483506731,-0.00787553245760301,-0.824633654211668,-0.000176603347169141,0
0.49,0.000625161398455084,0.000359882674455883,-0.0310814903570563,-0.0180081912382632,0.000703353366102389,0.000160113571830355,-0.0350475485564759,-0.0078754894877147,-0.824634664461749,-0.00016938145026706,0
0.5,0.000625101092450678,0.000359882490786104,-0.0310814874955549,-0.0180081766162094,0.000703309112191105,0.000160072095214628,-0.0350475440794778,-0.00787546468305134,-0.824635623136031,-0.000162528249001322,0
0.51,4.6681475502182,-0.0219075739453471,6.59348250577014,1.10151319110315,-0.389862220579889,4.65189089955567,0.578274251124133,6.65980042903374,0.078918913125412,24.4990761646986,3738.77185098584
0.52,4.70981042054564,0.0164237677321895,4.51125725759434,-0.810436242312985,-1.64644056310152,4.41268822939042,-2.35006263738948,3.93515622909663,0.360604248439675,52.3779313453398,3738.77185098584
0.53,4.67125954482086,0.00567128650173787,6.43977680998128,-0.265624418304394,-3.49994866381594,3.09371253500121,-5.00586155756193,4.05988075693066,0.848144567808257,80.7938257329833,3738.77185098584
0.54,4.69514338783533,0.0215107092337476,5.24659131258092,-1.05118270137192,-4.69363271071832,0.121021154434083,-5.26769288265136,-0.939743138829621,1.54959937456139,111.063832542608,3738.77185098584
0.55,4.65894341898021,-0.0129482786099242,7.05771898637617,0.674787216493171,-2.85438251916629,-3.68217624149848,-4.87166525085158,-5.15107879592639,2.4793852935178,142.087344904497,3738.77185098584
0.56,4.68873549462269,0.00609475567573603,5.56923771774693,-0.26886847225412,2.1741142919594,-4.15421529654871,2.82685773372544,-4.8059935877427,-2.65813906244888,170.225837179869,3738.77185098584
0.57,4.62417215223661,-0.00772011390574129,8.7985761798879,0.430851958300116,4.46053114321827,1.21929882065851,8.60397284461459,1.8900337278463,-1.30563162983945,199.444812151,3738.77185098584
0.58,4.68862251501871,0.00383545327882895,5.5772652567919,-0.146104604999206,-1.24257655717492,4.52097326895454,-1.6233311393329,5.33779264418281,0.269042123331219,229.357736186958,3738.77185098584
0.59,4.67604551961857,0.0281438114262116,6.20733556112507,-1.35033795607239,-4.15537940748015,-2.14453159350858,-4.87233803126913,-4.07611941349442,2.05324812000515,258.040722636976,3738.77185098584
0.6,4.65268780300327,0.0544168472956986,7.37659294452686,-2.66398966596952,3.65267144050178,-2.88243930260945,7.46948454413631,-2.39118486415096,-2.22717986102245,287.493247549593,3738.77185098584
0.61,4.64228329398549,-0.00647324453907094,7.89822088467127,0.382163562962123,0.0574299973879993,4.64193255874228,0.490849085244322,7.89221194009817,-0.0137657792142148,317.155172978956,3738.77185098584
0.62,4.66118073833437,0.039389348546225,6.95471323095911,-1.89379628453338,-3.12628593837537,-3.45752709717722,-3.20525434225732,-6.45607040649579,2.41491385872149,345.563239723177,3738.77185098584
0.63,4.6567705449025,0.0312703500655998,7.17668512463974,-1.48451057227366,4.3916164804431,1.54925608966539,6.24845267968984,3.82954568155211,-1.22493583489451,374.775879185331,3738.77185098584
0.64,4.66554206279895,0.0296072088779701,6.73963656006761,-1.40014002849152,-4.65882530864958,-0.252004107208596,-6.64285676490278,-1.80431346006441,1.63118127919517,404.186145565007,3738.77185098584
0.65,4.61363197567831,0.0404619220586038,9.33668499299913,-1.94209307365192,4.61280654262508,-0.0961923825116305,9.35946451091526,1.82916271395952,-1.58287678071604,433.441568109022,3738.77185098584
0.66,4.61506178188085,0.0593551826833278,9.26678712219945,-2.88348573563856,-4.58455916719856,-0.533043648066666,-8.82042991148092,-4.04819092094794,1.6994064202591,462.53642624707,3738.77185098584
0.67,4.62273394927282,0.0700720003179586,8.88479096581283,-3.41365234826097,4.12774037067835,2.08238773605211,6.28737174491108,7.14573225095026,-1.08840929453202,491.54224542553,3738.77185098584
0.68,4.63994821347408,0.050767016151358,8.02573382535327,-2.43857879573754,-2.35671736174798,-3.99719651637067,-1.88622331481576,-8.17320203990369,2.61980167643005,520.437843143291,3738.77185098584
0.69,4.59606895253594,0.0448697102569442,10.2213743260028,-2.13293733796042,-1.12647506976131,4.45611007769889,-4.66439716472697,9.34180463773579,0.257368299030858,549.236959732702,3738.77185098584
0.7,4.55213383644473,0.052868503391851,12.4199221588496,-2.52198759108918,4.30116536619708,-1.49154082618701,12.5794252111719,-1.54043798902221,-1.8929826014281,578.043861747124,3738.77185098584
0.71,4.58656825030478,0.086044457739147,10.7000118595398,-4.19887034171459,-2.98424897388304,-3.48400201281364,-3.56746902307498,-10.9267529811112,2.45206166298039,607.348513653533,3738.77185098584
0.72,4.60601571233888,0.0725644920534446,9.72942470398767,-3.51100799302012,-3.005285755869,3.49126107207561,-9.087260964996,4.94070545081132,0.726485038177692,636.263526421162,3738.77185098584
0.73,4.59071383468496,0.100576825126077,10.4963668995746,-4.89065807596466,3.32457534718438,3.16732820696154,3.98897986257419,10.8710760351706,-0.787710216099319,664.828840235259,3738.77185098584
0.74,4.59204809327157,0.0840511308917862,10.4315709002387,-4.0824109588028,3.94518678976049,-2.35148282524507,11.0824952185798,-1.63157911650551,-2.08999621238182,694.105936247779,3738.77185098584
0.75,4.52168557183019,0.0811205188760138,13.9516404682555,-3.90808755743182,-0.258661028771889,-4.5150100134191,3.35707816582427,-14.094376406942,3.10230447118307,722.536276294033,3738.77185098584
0.76,4.60580688724093,0.0318589694999681,9.74755480661977,-1.45609268443438,-3.68044781744684,-2.76925548470061,-6.86476340693786,-7.07177869990899,2.22276370258478,751.691363117924,3738.77185098584
0.77,4.52945191681304,0.101322670439851,13.5673110088982,-4.91890495121199,-4.52714301412089,0.176570325827332,-13.6471707753123,-4.69279061547499,1.55417950236762,780.334799834,3738.77185098584
0.78,4.59125280594363,0.0803355879740005,10.4793180637227,-3.85212811843728,-4.04861621698977,2.16674014646607,-11.0824064863558,1.35471937784113,1.09689780224778,808.961678221851,3738.77185098584
0.79,4.54449402489724,0.102744112258151,12.8193538263458,-4.98413676867486,-3.34718130785026,3.0756071900209,-12.921603804551,4.712706968624,0.85026052238367,837.89621264541,3738.77185098584
0.8,4.56373930288069,0.054317998603099,11.8592392168304,-2.56538942859849,-3.281190819298,3.17245231279915,-10.3844435754719,6.27583535078906,0.814147255383589,866.720088161862,3738.77185098584
0.81,4.50299622852408,0.0570071647322352,14.898557903913,-2.70170154511376,-3.7294626548417,2.52414998703999,-13.9288572502929,5.93743669912212,0.988461130307191,895.41868183557,3738.77185098584
0.82,4.5325367121615,0.0846096186693571,13.4237664552578,-4.07789999657957,-4.42750233750028,0.973792013775389,-13.9634196128368,-1.36003196405552,1.37296671122915,924.047309224677,3738.77185098584
0.83,4.50988157517774,0.088428293825721,14.5587849062753,-4.26546276003379,-4.19380123828174,-1.6609884283351,-11.7800070170816,-9.55948875107519,1.96750495759645,952.686536247055,3738.77185098584
0.84,4.49652394536725,0.0884482358629155,15.2289448002488,-4.26130682956822,-1.70691334388244,-4.1608890297825,-1.5281801601677,-15.7398907563814,2.77196803832541,981.329352485346,3738.77185098584
0.85,4.52966431686866,0.0756137394835874,13.574269906356,-3.60636258515162,2.66107084551264,-3.66637126001644,11.0385682442508,-8.68427692460355,-2.49706550388649,1009.87819342623,3738.77185098584
0.86,4.54055338514734,0.0918048502280333,13.0321736252577,-4.39624059860214,4.36818232529632,1.24259259086282,11.1721501688281,8.02169192906418,-1.27343644198968,1038.32287800583,3738.77185098584
0.87,4.49215397116416,0.149690773082882,15.454575320549,-7.27325964620144,-3.65732569164332,2.61262768366214,-16.8960196844341,2.50374180833379,0.983811573923923,1066.74013923896,3738.77185098584
0.88,4.46608483566329,0.129440861394368,16.7604786411291,-6.29820786992432,-2.31543540087604,-3.82118144038073,-2.78809570313607,-17.6863673206986,2.62578641375016,1095.49209557259,3738.77185098584
0.89,4.50150795712572,0.0965498378741954,14.9917860092832,-4.62509381864173,4.35480777798881,-1.14391650745493,15.6570799446308,1.00049397140491,-1.80622705702753,1123.92095580691,3738.77185098584
0.9,4.45841494824289,0.147843568208568,17.1489613226621,-7.16492532948845,-0.975204141794673,4.35296432941999,-11.2374030421414,14.803506418811,0.253541498795454,1152.30239582294,3738.77185098584
0.91,4.48123476137715,0.108602663382929,16.0105646835567,-5.2254887531762,-2.69028397234692,-3.58547509727819,-5.04144957417663,-16.0694648444483,2.52211161328252,1180.85880878928,3738.77185098584
0.92,4.41489544269895,0.127906063047222,19.3301302677368,-6.17230144881835,4.2710956764993,1.12490153040928,16.798048225761,11.383181328072,-1.28430582478916,1209.21220830962,3738.77185098584
0.93,4.48964520179123,0.134870168884446,15.5952717137475,-6.51279578791728,-4.4022360762752,0.891864075497513,-16.4717705899423,-3.78282730679568,1.40093958111486,1237.58138686742,3738.77185098584
0.94,4.48060739982184,0.116587231575996,16.0498598471542,-5.62294517910261,4.04701824379034,-1.92641599565955,16.9501971942645,-1.38069861882789,-1.98905283306998,1266.10806358177,3738.77185098584
0.95,4.40630553562903,0.153343310604187,19.7677120581136,-7.45861059858836,-3.88252014810301,2.08927737359028,-21.0264476941268,2.06925335326883,1.11190348537797,1294.35077229617,3738.77185098584
0.96,4.44050262102576,0.165727065946273,18.0606413276396,-8.02967231143137,4.20491302479743,-1.43674473780584,19.6074762541768,2.491842197352,-1.86273774252861,1322.53320058134,3738.77185098584
0.97,4.46137663438268,0.171286762432612,17.0197173588648,-8.30892254640806,-4.46029915892274,-0.197362716118013,-16.2762077872755,-9.68473194896399,1.65339064909317,1350.85894172406,3738.77185098584
