t,iq,id,vq,vd,ia,ib,va,vb,theta_e,omega,r
0,0,0,0,0,0,0,0,0,0,0,0
0.01,0.00127957314878625,0.000724166280718947,-0.0629022004522651,-0.0362711982905753,-0.00108570691070373,0.000991445787360681,0.0532220002741592,-0.0493933733813411,1.34574856718369,-0.00347192955026169,0
0.02,0.00141833778572528,0.000804457942778646,-0.0699532430821158,-0.0402927342480707,-0.00120302745672525,0.00110070867829818,0.0591964457960435,-0.0548884455601296,1.34572348579273,-0.00357553537833689,0
0.03,0.00145908138973206,0.000828171461714717,-0.0720122364039633,-0.0414804778144525,-0.00123742329641877,0.00113294750864337,0.0609370427210684,-0.0565072478185434,1.345698945541,-0.00339965302203405,0
0.04,0.0014335252592284,0.000815085771061898,-0.0708363504079662,-0.0408250585889435,-0.00121540858362643,0.00111451400075577,0.0599359122193119,-0.0556071971452418,1.34567737019446,-0.0030659458165775,0
0.05,0.00145578720773097,0.000828283759214234,-0.0719840417261337,-0.0414860893155448,-0.00123413932421965,0.00113237383773463,0.0609059199845993,-0.0565089973434028,1.34565670618896,-0.00288269876795973,0
0.06,0.00145450259081181,0.000828432608094143,-0.0719809187258327,-0.0414935430651335,-0.00123283238885519,0.00113225556912808,0.0609001381808418,-0.0565167227134359,1.34563770939805,-0.00265077744971293,0
0.07,0.00149423569404734,0.000851628638042985,-0.073967698397063,-0.0426553629482021,-0.0012663637972022,0.00116375872913406,0.0625763809556745,-0.0580938631947646,1.3456205135666,-0.00256016204322636,0
0.08,0.00145224607397312,0.000828695982488535,-0.071975034192725,-0.0415067280331922,-0.00123053636550073,0.00113204944412478,0.0608895777585939,-0.0565302869216623,1.34560443931755,-0.0022445812364046,0
0.09,0.00145051187207593,0.000828423979951731,-0.0719360052368862,-0.0414931072379932,-0.00122889026976887,0.00113141490464802,0.0608537557315671,-0.0565091781135391,1.34558992941535,-0.00206524077631886,0
0.1,0.00144939428443629,0.000828417067865869,-0.0719230694061598,-0.0414927794031014,-0.00122778744664041,0.00113117488301336,0.0608404704385099,-0.0565067766928757,1.3455766685139,-0.00190270240070972,0
0.11,0.0014483790259674,0.000828413572478006,-0.0719115492737218,-0.041492605869655,-0.00122678490017552,0.00113095961847865,0.0608285950802886,-0.0565047721998747,1.34556454699102,-0.00175414676991459,0
0.12,0.00144745131181465,0.000828410409415672,-0.0719010316953703,-0.0414924352991222,-0.00122586879544455,0.00113076292955575,0.060817755192436,-0.0565029308909141,1.34555346692416,-0.00161835494887086,0
0.13,0.00151587567072963,0.000867474495817437,-0.0752642904704178,-0.0434490517876156,-0.00128382705987222,0.00118413644920827,0.063658411705645,-0.0591619822214649,1.34554249341014,-0.00168618753053199,0
0.14,0.00162209409657346,0.000929468309496925,-0.0807047008062809,-0.0465541293650511,-0.0013735031161824,0.00126830193027322,0.0682672292623952,-0.0634044249402579,1.34553266342116,-0.0018780244244008,0
0.15,0.00144719604649558,0.00082958257594049,-0.0719821440122239,-0.0415511612908534,-0.00122532429521035,0.00113188516151762,0.0608820086000066,-0.0565801121423754,1.34552352731892,-0.00125800112425607,0
0.16,0.00144433871463981,0.000828413491262109,-0.0718667548671348,-0.0414926126454408,-0.00122279174976226,0.00113011661868402,0.0607821856585386,-0.0564977279706749,1.34551596142257,-0.00115878939598054,0
0.17,0.00144373198028353,0.000828397884616279,-0.0718587987272841,-0.0414918241737013,-0.00122219602949688,0.00112997431458073,0.0607742165396721,-0.056495601879958,1.34550905560025,-0.00107407218793819,0
0.18,0.00144320312845721,0.00082839592101363,-0.0718527759044294,-0.0414917136703789,-0.00122167384833952,0.00112986197397027,0.060768013985979,-0.0564945323431987,1.34550274323944,-0.000996709944938953,0
0.19,0.001442719748561,0.000828394269581655,-0.0718472688588145,-0.0414916462452894,-0.00122119653435714,0.00112975942715153,0.0607623352057895,-0.0564935869896246,1.34549697322532,-0.000925995475362416,0
0.2,0.00144227832464228,0.000828392761494111,-0.0718422532341184,-0.0414915414547198,-0.00122076064518578,0.00112966578251905,0.0607571717929739,-0.0564926848163811,1.34549169895864,-0.000861356655506475,0
0.21,0.00144187445640752,0.000828391382811471,-0.0718376469872339,-0.0414914739066257,-0.00122036184646104,0.0011295800966992,0.0607524247013698,-0.0564918828196674,1.34548687784604,-0.000802271466201588,0
0.22,0.00144150511705716,0.000828390122427335,-0.0718334250551696,-0.0414914406645926,-0.00121999714615408,0.00112950173121295,0.0607480679551335,-0.0564911749151897,1.34548247095336,-0.000748262751166121,0
0.23,0.00144116783838111,0.000828388970202839,-0.0718295792459479,-0.041491370078784,-0.00121966410031252,0.00112943016904395,0.0607441075641965,-0.0564904916060557,1.3454784426917,-0.000698894350512517,0
0.24,0.00144085966353751,0.000828387916866637,-0.0718260671759165,-0.0414913023497843,-0.00121935979199933,0.00112936478096115,0.0607404913956267,-0.0564898645923168,1.34547476052985,-0.000653767578282191,0
0.25,0.00144057763567678,0.000828386953940274,-0.0718228373142217,-0.0414912689165231,-0.00121908130728196,0.0011293049349517,0.0607371605157379,-0.056489314818414,1.34547139473184,-0.000612518002762656,0
0.26,0.00145361012283639,0.000835782565386841,-0.0724663451132482,-0.0418616998143813,-0.00123012854960212,0.00113942908391475,0.0612814658796172,-0.0569943420443387,1.34546836379476,-0.000614137096312581,0
0.27,0.00139895169862805,0.000804950333370668,-0.069816614860624,-0.0403173872177261,-0.00118373720688916,0.00109716777172596,0.0590435900618044,-0.0548972303060397,1.34546530240305,-0.000417892037964624,0
0.28,0.00138082625121384,0.000794130772622028,-0.0687217171811683,-0.0397754740221846,-0.00116848450281858,0.00108257507210324,0.0580973069122437,-0.054124538571359,1.34546265287358,-0.00033318474193009,0
0.29,0.00143891922784505,0.000827983680269281,-0.0717757932342773,-0.0414710882169568,-0.00121754273234276,0.00112855447984303,0.0606952046386892,-0.0564597891084972,1.34546059348992,-0.000477944124735808,0
0.3,0.0014353303075662,0.000826126276737991,-0.0716044346428919,-0.0413780359640648,-0.00121445838213436,0.0011259434066589,0.0605489107409339,-0.0563308647977114,1.3454595567695,-0.000455020155433046,0
0.31,0.00143936113986014,0.000828356610827478,-0.0718068913290398,-0.0414897429524468,-0.00121788667317514,0.0011290204679028,0.0607211746448681,-0.0564851074385813,1.34545751644083,-0.000442273658776466,0
0.32,0.00143925699623277,0.000828382135237465,-0.0718076818819584,-0.0414910128366773,-0.00121777733231987,0.00112902437178011,0.0607215550534627,-0.0564866362546325,1.34545563246607,-0.000419341116545277,0
0.33,0.00143911322332887,0.000828381946746238,-0.0718060386282769,-0.0414910279192503,-0.00121763529187241,0.00112899416085377,0.0607198526852206,-0.0564863883707102,1.34545391011664,-0.00039823482984002,0
0.34,0.00143898148764575,0.000828381499648872,-0.0718045186122939,-0.0414909941060889,-0.00121750520926488,0.00112896620682843,0.0607182897239638,-0.0564861113730761,1.34545233574494,-0.000378940110991161,0
0.35,0.00143886116066383,0.00082838108773829,-0.0718031307360643,-0.0414909602627861,-0.00121738639184892,0.00112894067121812,0.0607168632099895,-0.0564858556540295,1.34545089664014,-0.000361303130066593,0
0.36,0.00143875079893896,0.000828380711167373,-0.0718018404713339,-0.0414909606945141,-0.00121727741949927,0.00112891724588601,0.0607155311660187,-0.0564856476430323,1.34544958118007,-0.000345181480923683,0
0.37,0.00143865026256139,0.000828380366938562,-0.0718006752700722,-0.0414909267960618,-0.00121717814450383,0.00112889590965661,0.0607143350791393,-0.0564854272492694,1.34544837874202,-0.000330444969761023,0
0.38,0.00143855806162296,0.000828380052275111,-0.0717995920582598,-0.0414909242617204,-0.00121708710426776,0.00112887633879573,0.0607132177366626,-0.0564852494717421,1.34544727961503,-0.00031697458845752,0
0.39,0.00143847366051481,0.000828379764639467,-0.0717985928599193,-0.0414909246127012,-0.00121700376725887,0.00112885842200727,0.0607121869733423,-0.0564850875434856,1.34544627492254,-0.000304661553816232,0
0.4,0.00143839710569314,0.000828379501709653,-0.0717977062661518,-0.0414908906456491,-0.00121692817010914,0.00112884217732771,0.0607112785120466,-0.056484912083516,1.34544535655178,-0.00029340642905857,0
0.41,0.00143832655800826,0.000828379261364734,-0.071796864334207,-0.0414908909538106,-0.00121685851226263,0.0011288272007996,0.0607104103818159,-0.0564847752198504,1.34544451708535,-0.000283118320807052,0
0.42,0.00143826257604101,0.000828379041665168,-0.071796117006834,-0.0414908569509181,-0.00121679533095094,0.00112881362362713,0.0607096462051736,-0.0564846216719489,1.34544374974434,-0.000273714145049258,0
0.43,0.00143820378630361,0.000828378840837877,-0.0717954156543418,-0.0414908572224307,-0.00121673728080955,0.00112880114474345,0.0607089229065232,-0.0564845078013579,1.34544304833198,-0.000265117956177681,0
0.44,0.00143815000242504,0.000828378657261916,-0.0717947693195795,-0.041490857477649,-0.00121668417414258,0.00112878972783827,0.0607082566422758,-0.0564844025491799,1.34544240718337,-0.000257260333668291,0
0.45,0.00143810075874401,0.000828378489455828,-0.0717941715107137,-0.0414908577180718,-0.00121663555154558,0.00112877927373273,0.0607076407919218,-0.0564843047807976,1.34544182112106,-0.000250077821460127,0
0.46,0.00143805610171982,0.000828378336064828,-0.0717936398633864,-0.04149082365891,-0.00121659145326051,0.00112876979726099,0.0607070999388609,-0.0564841853065223,1.34544128541262,-0.00024351241550618,0
0.47,0.00143801512352663,0.000828378195851041,-0.0717931429905977,-0.0414908238733989,-0.00121655098980521,0.00112876109963831,0.0607065879224233,-0.0564841042150702,1.34544079573079,-0.00023751109534153,0
0.48,0.00143797752137776,0.000828378067682639,-0.0717926786078096,-0.0414908240767923,-0.00121651386183687,0.00112875311692331,0.0607061099534876,-0.0564840278182306,1.34544034812192,-0.000232025395906218,0
0.49,0.0014379431788579,0.000828377950525226,-0.07179225261186,-0.041490824269473,-0.00121647995203217,0.00112874582650132,0.0607056715754782,-0.0564839576536169,1.34543993897075,-0.000227011016162388,0
0.5,0.00143791174672107,0.000828377843432047,-0.0717918582120019,-0.0414908244526047,-0.00121644891645596,0.00112873915343656,0.0607052659824289,-0.0564838924056373,1.34543956497282,-0.000222427461318146,0
0.51,4.67973174547392,0.034957230020991,6.01490118660271,-1.7433303200811,-0.782676368574541,4.61394938416126,-2.76677239000296,5.61811422377884,0.175502867068009,53.8303674905708,3262.8813441722
0.52,4.54605461648595,-0.0273963598337841,12.7004894036603,1.38949107267992,-3.25537778025994,3.17330720926846,-8.06504578261496,9.90899354414309,0.792137447037391,114.438358599131,3262.8813441722
0.53,4.46179277656627,0.0601073817299578,16.9153940665651,-2.98220839389756,-4.29453526637626,-1.21168251790968,-15.3680769354181,-7.67113646332082,1.85926392598188,177.415404190578,3262.8813441722
0.54,4.49846205777888,-0.0127637537567749,15.0839912954909,0.663331877472953,1.19472998588845,-4.33692795184623,3.3248007944649,-14.7279496963848,-2.87561908151081,245.052268189532,3262.8813441722
0.55,4.58125504076018,-0.0398619787110817,10.9464366472539,2.03831577330832,3.41571225678485,3.05325997987186,9.56949518559943,5.69244836224713,-0.850069872688853,306.645387399778,3262.8813441722
0.56,4.41824690206341,-0.0577454569273474,19.0991279280484,2.93905840946938,-4.40910547194716,-0.289877840881831,-19.2272006559704,1.93119312376661,1.62337809481244,369.840439785853,3262.8813441722
0.57,4.57448333268069,0.0652462099656481,11.2896588834351,-3.20816380437,4.51967913620599,-0.708981900074021,11.6290061733365,1.58585249014409,-1.71213177042995,432.622692861106,3262.8813441722
0.58,4.43211232856599,0.0661725158575963,18.4107611873392,-3.26640359409506,-4.40894658327099,-0.457371316049264,-17.8965871811988,-5.41642753136257,1.68909282332186,496.658346313472,3262.8813441722
0.59,4.40903109174793,0.0201728061166959,19.5673696038604,-0.92295732454283,2.95888406034299,3.26878681280299,12.3778542451033,15.1829683436403,-0.731101647849801,558.003024274121,3262.8813441722
0.6,4.43540129298756,0.111799609221613,18.2515566507777,-5.50419797626014,1.83412955359247,-4.0399570001544,12.9143161023752,-14.0226942898413,-2.6902186870143,620.218512993827,3262.8813441722
0.61,4.37016246079918,0.112735107428008,21.5164018687251,-5.54822925358317,-3.84939901920134,-2.07199332267189,-15.9220658822751,-15.4992327315672,2.09037545632958,682.703343631503,3262.8813441722
0.62,4.39550709808084,0.0626313989555206,20.2520494675153,-3.02974307028163,-3.76763029760562,2.26481065035874,-19.0280559323969,7.56689752409664,1.04379921733291,745.059348144172,3262.8813441722
0.63,4.40883846496746,0.0574259308455736,19.5884536242574,-2.75403363414839,-1.87817591868586,3.9891865795145,-11.0503233765487,16.4067842650961,0.453054109721702,807.132387303215,3262.8813441722
0.64,4.42490686211341,-0.0301504829910995,18.7881441206767,1.64686460322338,-1.40923686125393,4.19461097825366,-4.29733407034045,18.3640802222317,0.317302272000044,869.312226884965,3262.8813441722
0.65,4.29292327031456,0.0159990761915689,25.3904931000338,-0.717839024857989,-2.53853682541157,3.46197587531695,-15.667578518901,19.9929841715174,0.636429554096711,932.062997683467,3262.8813441722
0.66,4.32943020620755,0.0733271454338755,23.5684037118455,-3.55139171604156,-4.26101632804917,0.770118583581908,-23.8326654130432,0.293421122682808,1.40892596867214,993.357763261598,3262.8813441722
0.67,4.29422788748387,0.152693636446807,25.331869493656,-7.48782198389761,-2.22591892716304,-3.67545826067348,-5.80562478250822,-25.7694744026898,2.63259635831908,1054.73905756631,3262.8813441722
0.68,4.2602347573372,0.0998797868782206,27.0349359832385,-4.87808478918747,3.87938514427633,-1.76350419954671,26.7808780876185,-6.12111457860591,-1.97401491774642,1116.70275004961,3262.8813441722
0.69,4.2464854190384,0.0863131947289888,27.7259247093058,-4.21217912219792,-0.556984739059448,4.21068360033676,-8.35741915696683,26.769813204024,0.151838405095164,1178.07086506033,3262.8813441722
0.7,4.21715152801741,0.121467473846914,29.1961755971541,-5.90771596081503,-1.80262014831222,-3.81440453522711,-6.29778837650782,-29.1145262530279,2.72891401599396,1238.96739436678,3262.8813441722
0.71,4.27111089025298,0.106461178287093,26.5019255797472,-5.18013359853838,2.24651115076964,3.63413123989593,8.89634180765932,25.4959005719441,-0.528752104517625,1300.48234304779,3262.8813441722
0.72,4.24170295287692,0.155061201637258,27.9760050156764,-7.63257335397996,-0.980619618372422,-4.12970617365947,2.02090432164761,-28.9279964457233,2.94499548030069,1361.89757281197,3262.8813441722
0.73,4.12257084788328,0.0819146347689863,33.936427873123,-3.976154200111,-2.20275797395687,3.48570763423667,-22.0139418535201,26.1319211517366,0.58344147620703,1422.93504097813,3262.8813441722
0.74,4.14487998465523,0.120848404670999,32.8248981096726,-5.91748288432379,4.05552687407299,0.864486088828967,30.488746344767,13.5250466143784,-1.33162936909653,1483.74732460224,3262.8813441722
0.75,4.22320116097827,0.110785990252167,28.912853983473,-5.38728491973127,1.30645239343016,-4.01757186935405,14.7368751689853,-25.4519247706287,-2.80096713335783,1544.3427317568,3262.8813441722
0.76,4.23354537780923,0.160761773082895,28.3996132267099,-7.84594621046008,-2.79782400012317,-3.18134117598057,-11.8481636316855,-26.9762473654316,2.45820408634005,1604.83995126538,3262.8813441722
0.77,4.06250009270042,0.129263121104846,36.9559908893093,-6.23477527380641,-3.91058685616038,-1.10811840436586,-33.327962988057,-17.142478478688,1.8787293485887,1665.30804643265,3262.8813441722
0.78,4.07559472165262,0.105646003534153,36.3054557121418,-5.14751059664302,-4.03328722843614,-0.595170182518716,-34.8839578981757,-11.3001089006764,1.74321937461496,1726.28778585959,3262.8813441722
0.79,4.07361264361135,0.18454218854547,36.408790466696,-9.00758113385561,-3.69891199439253,-1.71651561230373,-28.1409727196478,-24.7956083918666,2.05055140532761,1786.20415320002,3262.8813441722
0.8,4.08362645942869,0.127558972712837,35.9124305251645,-6.2381527372709,-1.48892031504764,-3.80465407719337,-6.15973456930917,-35.9259639513534,2.79979895739978,1846.86779855609,3262.8813441722
0.81,4.00410455315133,0.0285752833127142,39.8928659354007,-1.16426202273602,2.98633816730746,-2.6674808658857,30.7103815955687,-25.4885998213318,-2.29272099154073,1906.58012567543,3262.8813441722
0.82,4.10876879663977,0.0253363915894029,34.6640358673482,-1.04681711838947,3.71331502535278,-1.75895266549975,31.8603521587271,-13.6970496463307,-2.00700728106836,1966.91553642702,3262.8813441722
0.83,4.07667515940109,0.200674566719162,36.273095191886,-9.87565372121312,-0.0626677671002137,4.08113016062616,-12.1945207021563,35.5606472953687,0.0645396420708348,2027.10839462578,3262.8813441722
0.84,3.99947705013393,0.0834252353248022,40.1373791410811,-4.01807923028262,-2.21515346183488,-3.33104662005172,-18.1323681313553,-36.0329209330125,2.57559924263846,2086.97180595818,3262.8813441722
0.85,3.90232469405681,0.104966144284118,44.999382151589,-5.09889921527566,2.75775519035073,2.76295896085792,27.2170691918456,36.1963300879878,-0.757563695428013,2146.76857238069,3262.8813441722
0.86,3.9276174165046,0.134605514550525,43.7390851476157,-6.57839146400604,-2.03854774428334,-3.35985420952383,-15.6566968070037,-41.3672654268764,2.63049235872734,2206.47667232658,3262.8813441722
0.87,4.00901373760035,0.145913351225638,39.6735984117528,-7.12686516304966,-0.545058979463028,3.97446758236131,-13.8373433875073,37.8591408508637,0.172670210135572,2266.15482496479,3262.8813441722
0.88,4.04590085184422,0.146252708124604,37.8335037833419,-7.09252694293565,3.85109943003847,-1.24889420590574,38.3292675137184,-3.54192021680676,-1.84825826155928,2325.57865706988,3262.8813441722
0.89,3.8962315010493,0.192433451293889,45.3212176764528,-9.33285971510406,-1.3044543251129,-3.67641801984486,-4.09075115243625,-46.0910055992172,2.84998282740304,2384.83028229735,3262.8813441722
0.9,3.86203354686295,0.0990352441426818,47.0352048530965,-4.78261498269358,-3.8423280395481,-0.402027776627037,-46.019522639743,-10.8345483364843,1.70068596161854,2444.4154005022,3262.8813441722
0.91,3.6530803820994,0.158253710392775,45.8213984752547,-7.68093915381933,-2.95334271352627,2.15587739247711,-42.4002474543027,18.9951678151747,0.98352599072285,2502.24357426275,3262.8813441722
0.92,3.3540844422255,0.207720947071516,47.0257346607798,-10.2219664331907,-1.93681864351079,2.74622722650193,-37.4000332444749,30.2844156532616,0.67610270766892,2556.21849744342,3262.8813441722
0.93,3.19379622879291,0.256200127908703,42.1180184535519,-12.5764895047219,-1.99032526379406,2.51089191342347,-37.9181591631614,22.2330558491916,0.750306126749202,2606.31616861303,3262.8813441722
0.94,2.83690748813469,0.13193000162212,48,-6.47972820486251,-2.57265443879447,1.20287104883017,-46.8482343232454,12.297553350288,1.17990698935532,2653.2782245967,3262.8813441722
0.95,2.57795383766388,0.0783724183817518,48,-3.74486017959618,-1.37979098262857,2.17902846914533,-30.0010424304378,37.6558286438075,0.594875760185868,2696.79919260135,3262.8813441722
0.96,2.38858186013277,0.117872382219064,48,-5.65971125539836,-2.38914750546636,-0.105789404805946,-47.2613345312928,-10.1192188342636,1.66435483539002,2737.30623524765,3262.8813441722
0.97,2.28785952063009,0.0438083215378327,44.1504701785855,-1.99611054291882,-0.319843695081785,-2.26581560721303,-3.35154869023114,-44.0683060222052,3.02050451866814,2775.05955180506,3262.8813441722
0.98,2.14189666914693,0.0602200595254535,42.4238921488068,-2.8671547846234,2.13274492134886,-0.206753228106836,42.5206444252687,-0.0447132245101503,-1.63932876825648,2810.32568987452,3262.8813441722
0.99,1.95495499668952,-0.0345566772438192,43.3282770612634,1.84247877837936,-0.485712757307642,1.893971045294,-8.22733858810636,42.5798687281095,0.233367285682814,2843.21084720531,3262.8813441722
