t,iq,id,vq,vd,ia,ib,va,vb,theta_e,omega,r
0,0,0,0,0,0,0,0,0,0,0,0
0.01,0.000716179679563712,0.000409514070871286,-0.0355853302401779,-0.0205053093309866,7.94101486250595e-05,-0.000821163282153373,-0.00381714932527362,0.0408926987381675,-2.52575923744865,-0.00114047717319228,0
0.02,0.000791945150299718,0.000452955453968317,-0.039378443358405,-0.0226805205561088,8.77066592851931e-05,-0.000908104237563022,-0.00423220689844478,0.0452455107032282,-2.52576773363071,-0.00122528954554061,0
0.03,0.000819233319168755,0.000468566503502229,-0.0407321586693338,-0.0234621867924227,9.07177153368601e-05,-0.00093939773023178,-0.00437567531192782,0.0468020985054186,-2.52577647305763,-0.00122969444975205,0
0.04,0.000803267352523527,0.000459627513347333,-0.0399422840480154,-0.0230145895485753,8.87847307716815e-05,-0.000921202020317915,-0.00428442190176679,0.045898813884777,-2.52578468149339,-0.00116579878010974,0
0.05,0.000819106870518092,0.000468720512251787,-0.0407285562487236,-0.0234699139595582,9.05035361655811e-05,-0.000939384955104693,-0.00436651839851556,0.0468036929360273,-2.52579288975003,-0.0011539242448696,0
0.06,0.000819298098868517,0.000468933642558567,-0.0407393171839926,-0.0234805811964212,9.04325099607378e-05,-0.000939664885517711,-0.00436365250521607,0.0468186735689234,-2.52580087253146,-0.00111749324385017,0
0.07,0.000842091396183055,0.000482086320632504,-0.0418700645956012,-0.0241391574947227,9.28539018189488e-05,-0.000965869190410125,-0.0044788033493453,0.0481221524285099,-2.52580851885044,-0.00111957803483894,0
0.08,0.000819487257632563,0.000469246147128058,-0.0407510926385135,-0.0234962297485944,9.02723993234352e-05,-0.000940001173370042,-0.00435696901187058,0.0468373908822966,-2.52581605028907,-0.00104794147404925,0
0.09,0.000818758040378226,0.000468941024279084,-0.0407161113015066,-0.0234809385830191,9.00935158510334e-05,-0.000939230307931717,-0.00434890915606507,0.0468000340321295,-2.52582326086701,-0.00101355922605609,0
0.1,0.000818569120809265,0.000468932242582495,-0.0407078647192936,-0.0234805013785257,8.99850241221391e-05,-0.000939071642160298,-0.00434417690835177,0.0467930798514075,-2.52583022843282,-0.000981179611633947,0
0.11,0.000818399293492743,0.000468930517799576,-0.0407005256253673,-0.0234804163246473,8.98820199970889e-05,-0.000938932615577094,-0.00433969233951688,0.046787068804941,-2.52583696276,-0.000949904530906821,0
0.12,0.000818235403357905,0.000468929010467317,-0.0406934432398021,-0.0234803385711166,8.97824809712348e-05,-0.000938798539771329,-0.00433536070347543,0.0467812705010886,-2.52584347169487,-0.00091967670490978,0
0.13,0.00085740026500478,0.00049140062266563,-0.0426353397909947,-0.0246055413738356,9.40520073763338e-05,-0.000983749971433249,-0.00453807260993749,0.0490164335950714,-2.52585001368255,-0.000953621604302014,0
0.14,0.000906216376583828,0.000519710563199126,-0.0450954269333087,-0.0260230995350357,9.91292695277416e-05,-0.00103995220015747,-0.0048013904454032,0.0518434748979903,-2.52585630309929,-0.0010045143482889,0
0.15,0.000819915856530189,0.000470125007905055,-0.0407797434940805,-0.0235402308896195,8.97588765084005e-05,-0.000940862837471707,-0.00433542345644512,0.0468863951827489,-2.52586243574036,-0.000835136390414359,0
0.16,0.000817667871493808,0.000468951694213362,-0.0406692402213138,-0.0234814883566905,8.94130649908896e-05,-0.000938350543980091,-0.00431929152679398,0.0467622830530213,-2.52586809874189,-0.000805393610147186,0
0.17,0.000817478834728776,0.000468922728673244,-0.0406607386375468,-0.0234800226084714,8.93224039117378e-05,-0.000938179982122464,-0.00431532239972608,0.0467545197904079,-2.52587356574644,-0.00077992041045409,0
0.18,0.00081734452294398,0.00046892085290718,-0.0406549185577864,-0.0234799324490373,8.92414073758871e-05,-0.000938069723787785,-0.00431178762050658,0.0467497392320775,-2.52587884961803,-0.000755379792614286,0
0.19,0.000817215915529376,0.000468919657238776,-0.04064935179101,-0.0234798728556178,8.91633171643555e-05,-0.000937964498481524,-0.00430838250343976,0.0467451823244847,-2.52588395663974,-0.000731662480639477,0
0.2,0.000817091615481067,0.000468918516104473,-0.0406439700745561,-0.0234798147272993,8.90878314627571e-05,-0.000937862805062843,-0.00430509109891791,0.0467407765626517,-2.52588889273424,-0.000708739011447708,0
0.21,0.000816971506382683,0.000468917413435302,-0.0406387686248222,-0.0234797566084939,8.90148906859696e-05,-0.000937764539796749,-0.00430191156068788,0.0467365172286079,-2.52589366362236,-0.000686582769287589,0
0.22,0.000816855247887002,0.000468916347611946,-0.0406337313696238,-0.0234797179736594,8.89442943137706e-05,-0.000937669424460075,-0.00429881844560714,0.0467324024752959,-2.52589827483377,-0.000665168074697721,0
0.23,0.000816743113235394,0.00046891531739794,-0.0406288729831082,-0.0234796598690228,8.88761960589079e-05,-0.000937577681945316,-0.00429585177552388,0.0467284218111982,-2.52590273171224,-0.000644470108793547,0
0.24,0.000816634703872425,0.000468914321605318,-0.0406241743891374,-0.0234796017722592,8.8810361787833e-05,-0.000937488986716374,-0.0042929843874814,0.0467245709368397,-2.5259070394232,-0.000624464883380122,0
0.25,0.000816529795867672,0.000468913359085458,-0.0406196253329677,-0.0234795631501522,8.87466583554411e-05,-0.000937403155797575,-0.00429019423023377,0.0467208527467075,-2.52591120295958,-0.000605129213122623,0
0.26,0.000824528596729372,0.000473526534210773,-0.0410166402885872,-0.0237105633812889,8.9596194626517e-05,-0.000946597753713065,-0.00433070359471365,0.0471783912696926,-2.52591520331192,-0.000599798944779324,0
0.27,0.000795266789843668,0.000456803895494161,-0.0395671482619615,-0.0228732113247538,8.63455906827528e-05,-0.000913051753701037,-0.00417702323215918,0.0455114875038038,-2.52591918515283,-0.000533611150199677,0
0.28,0.000789634777244434,0.000453522903045688,-0.03925159775703,-0.0227089295253805,8.57681845489074e-05,-0.000906559387762346,-0.00412873676904775,0.045159018361345,-2.52592296121831,-0.000507018950616965,0
0.29,0.00081549424167829,0.000468546104046254,-0.0405706824443145,-0.0234611771673357,8.84340970903349e-05,-0.000936347008485203,-0.00427622453392135,0.0466703440292656,-2.5259265102343,-0.000532978204904438,0
0.3,0.000812325777085076,0.000466819965174871,-0.0404141665995335,-0.0233747431429089,8.80105627853376e-05,-0.000932763736881397,-0.00425625354406955,0.0464926637729052,-2.52592966087265,-0.000513294013769151,0
0.31,0.00081588805456707,0.000468858926166407,-0.0405912226161711,-0.0234768399687953,8.84000082717196e-05,-0.000936849747167983,-0.00427499394288007,0.0466961860882056,-2.52593305581527,-0.000503493997496623,0
0.32,0.000815894325665971,0.000468906377684659,-0.0405920385441017,-0.0234792151630355,8.83618060427698e-05,-0.000936882560900851,-0.00427337229315493,0.0466982379440815,-2.52593634832781,-0.000488349218311977,0
0.33,0.00081581642606892,0.000468906781248968,-0.0405886649918514,-0.0234792332964772,8.83135084794012e-05,-0.000936819478216157,-0.00427126066883339,0.0466955078600718,-2.5259395309165,-0.000473572678488897,0
0.34,0.000815739050282321,0.000468906096756022,-0.0405852996921586,-0.0234791961415564,8.82665018763518e-05,-0.000936756185128757,-0.00426920393831538,0.0466927521173156,-2.52594260699413,-0.000459287306527514,0
0.35,0.000815664235630516,0.000468905409746178,-0.0405820442101624,-0.0234791575319495,8.82210731760461e-05,-0.000936694972135333,-0.00426721663758261,0.0466900847381284,-2.52594558011816,-0.000445479969092812,0
0.36,0.000815591699981031,0.000468904745103093,-0.0405788850753631,-0.0234791383676543,8.81770358708052e-05,-0.000936635623603535,-0.00426527376232251,0.0466875068104887,-2.52594845373491,-0.000432134747628899,0
0.37,0.00081552183297765,0.000468904102666511,-0.0405758422915261,-0.0234790983011905,8.81346119511388e-05,-0.000936578457865082,-0.0042634196471602,0.0466850113806988,-2.52595123117441,-0.000419236177545761,0
0.38,0.000815454294281587,0.000468903481708295,-0.0405728994534591,-0.0234790596899662,8.80936024230591e-05,-0.000936523196953802,-0.00426162641404001,0.0466825979813962,-2.52595391565581,-0.000406769309912431,0
0.39,0.000815388859965796,0.000468902881511674,-0.0405700458853153,-0.0234790405187164,8.80538756147567e-05,-0.000936469657936386,-0.00425987306849257,0.0466802682967488,-2.52595651028999,-0.000394719696074303,0
0.4,0.000815325861466176,0.000468902301382911,-0.0405672987236981,-0.0234790019053501,8.80156206448179e-05,-0.000936418111283768,-0.00425820110847232,0.0466780138772956,-2.52595901808429,-0.000383073370958826,0
0.41,0.000815264734516738,0.000468901740652036,-0.0405646302516417,-0.0234789827290972,8.79785094612009e-05,-0.000936368096213312,-0.0042565626499732,0.0466758345597859,-2.52596144194528,-0.000371816836890804,0
0.42,0.000815205586627586,0.000468901198670671,-0.0405620463856865,-0.0234789635497711,8.79426020233571e-05,-0.000936319700387095,-0.00425497684859629,0.0466737239609609,-2.52596378468204,-0.000360937047948151,0
0.43,0.000815148758138546,0.000468900674812747,-0.0405595645467299,-0.0234789249323544,8.79080928134811e-05,-0.00093627320155634,-0.00425346950366214,0.0466716850925794,-2.52596604900941,-0.000350421394843151,0
0.44,0.000815093568369781,0.000468900168472583,-0.0405571512179875,-0.0234789057479454,8.78745867738085e-05,-0.000936228043903157,-0.00425198940195462,0.0466697130499564,-2.52596823755203,-0.000340257690309004,0
0.45,0.000815040241245979,0.000468899679065103,-0.0405548180441098,-0.0234788865603373,8.78422112974652e-05,-0.000936184410141523,-0.00425055901661351,0.0466678061274614,-2.52597035284623,-0.000330434154973779,0
0.46,0.00081498900069091,0.000468899206024083,-0.0405525766460572,-0.0234788479386453,8.78110938405575e-05,-0.000936142482988412,-0.00424920080677225,0.0466659626029947,-2.52597239734359,-0.000320939403708536,0
0.47,0.000814939107816707,0.000468898748802958,-0.0405503904813707,-0.0234788272913656,8.77808059309864e-05,-0.00093610165910983,-0.00424786301822316,0.0466641742555017,-2.52597437341371,-0.000311762432435582,0
0.48,0.000814891019381633,0.000468898306873079,-0.0405482828119591,-0.0234788080958599,8.77516096023695e-05,-0.000936062311317719,-0.00424657246565637,0.0466624505453235,-2.5259762833465,-0.000302892605371067,0
0.49,0.000814844502553218,0.000468897879723268,-0.0405462423968815,-0.0234787888976628,8.77233687320215e-05,-0.000936024249434,-0.00424532374131378,0.0466607814651568,-2.52597812935581,-0.000294319642700883,0
0.5,0.000814799557331461,0.000468897466859548,-0.0405442696138423,-0.0234787696966251,8.76960817064568e-05,-0.000935987473371402,-0.00424411696298549,0.0466591673328146,-2.52597991358089,-0.000286033608666632,0
0.51,4.64195495533163,0.0153437374313822,7.90359168645137,-0.763369069762781,-0.364669875445506,4.62763407364377,-1.4077472788591,7.8145851765579,0.0819455827254699,25.2902950306855,4662.16901050593
0.52,4.5988875608864,-0.0173965484460802,10.0585137439578,0.881894963865924,-1.68781079932689,4.2780093668959,-2.83449457052919,9.69108239539426,0.372000799030987,53.8855504260664,4662.16901050593
0.53,4.61005107190586,-0.0192656539939617,9.50187198199208,0.982164670019812,-3.54567643697423,2.94637415398824,-6.65169486791629,6.85603194168007,0.87327149201974,83.0336340685018,4662.16901050593
0.54,4.57268970131384,-0.0228638644665566,11.3715962693631,1.1689368899628,-4.57100691796677,-0.126133329060564,-11.3950963338833,0.911808481879356,1.59338348784286,113.864042632118,4662.16901050593
0.55,4.59694885200928,0.00108042056423852,10.1603306331192,-0.0293028724390677,-2.57529778659388,-3.80785782634577,-5.66575447906548,-8.43400281097789,2.54717762247677,145.975453229468,4662.16901050593
0.56,4.59942945905824,0.0163559740090924,10.0380074365015,-0.785551685002671,2.5207239918314,-3.84720280512272,6.18666978150435,-7.94379013819543,-2.55800782912674,175.082065004177,4662.16901050593
0.57,4.57622164429164,-0.00548364653060718,11.2001745543206,0.31761707314617,4.20875558409861,1.79672230502695,10.4304192728623,4.09281619972209,-1.16851484065121,204.531362707557,4662.16901050593
0.58,4.55961712402822,0.00107280582798897,12.0322333467038,-0.0127301258330789,-1.97319107645355,4.11055062545735,-5.22102017912489,10.8404681474005,0.447780325417041,235.80015145077,4662.16901050593
0.59,4.5534351523274,0.0283290475843425,12.3431399319066,-1.36348222381914,-3.47009015150519,-2.94839762613772,-8.46709704326673,-9.08407699291468,2.28131449593342,264.717820812043,4662.16901050593
0.6,4.60095609971096,0.0245587336355936,9.96893944504152,-1.17684408392575,4.27235510816656,-1.70774178159005,9.70740772792018,-2.55557251133506,-1.94572279856372,295.697548552253,4662.16901050593
0.61,4.56929331109932,0.00307904422676408,11.5539474867462,-0.0941305374767265,-1.46889964255144,4.32675220962359,-3.81075438673055,10.9078281105172,0.327957321422482,325.412301494927,4662.16901050593
0.62,4.5680883377576,0.0679650651226147,11.6161624782877,-3.33210490991934,-1.48864175902768,-4.31925873558335,-0.455186435800288,-12.0760489880321,2.82456712909282,355.01221214895,4662.16901050593
0.63,4.58738037920541,0.0490057755856801,10.6535848093721,-2.38469598378745,3.1415478678378,3.34322259259585,5.45688319985448,9.45558406280236,-0.743626106349286,385.504294678179,4662.16901050593
0.64,4.57566986893804,0.00576145100863767,11.2411597403861,-0.219506111604366,-3.72943617441582,-2.65105521722651,-9.02657885064299,-6.70318800982291,2.19002368174926,415.633248829204,4662.16901050593
0.65,4.56234142970137,0.0655795595240054,11.9096696648704,-3.21119150589803,3.72307752757352,2.63779334358738,7.72398727978332,9.61727627322993,-0.940016570592696,445.34363730958,4662.16901050593
0.66,4.57916458801681,0.0665277052433776,11.070623207235,-3.24149425131158,-3.03203617341237,-3.43219039431542,-4.74796209100745,-10.512984312754,2.43254580621198,474.9926963491,4662.16901050593
0.67,4.51531372810358,0.0126801070777645,14.2653709340814,-0.535016042107141,1.16941384232395,4.36127161659272,3.138693931278,13.9260780716613,-0.259165417962575,504.753870773736,4662.16901050593
0.68,4.52081794511506,0.0141642869508116,13.9923441992202,-0.612784345652938,1.78607823478817,-4.15306152845285,6.13046596319336,-12.5927990501658,-2.7323082855003,534.678646982323,4662.16901050593
0.69,4.54475000351502,0.0547725599364865,12.798013965895,-2.65207990628561,-4.35981464234952,1.28443330388404,-13.0378001311566,0.915672998717509,1.29634550712294,564.650906044563,4662.16901050593
0.7,4.49022619306683,0.0945902643177121,15.5264860489954,-4.6407719179687,3.09685308646087,3.25278027906665,7.03909799157264,14.5965623517763,-0.739783519121731,594.486679933744,4662.16901050593
0.71,4.49463091921381,0.0967115003492252,15.3086054421211,-4.7328107363449,2.39613263936871,-3.80389387191658,12.3853914438214,-10.1663649763284,-2.55795243078741,623.993588490571,4662.16901050593
0.72,4.47116107549846,0.0297409834483782,16.4844527625601,-1.36146111545177,-3.81880975559942,-2.32569515192506,-13.3058093355606,-9.82579244517567,2.12446648731664,653.426668587641,4662.16901050593
0.73,4.44661644761665,0.0376015531654841,17.7141308857082,-1.77670848146084,-2.97515908383625,3.30488125881733,-13.2730812154009,11.8647562601794,0.741399148523109,683.449331519983,4662.16901050593
0.74,4.45647148641319,0.0797159905834204,17.2238152220794,-3.86831124944592,1.9045848072997,4.02977039794722,3.553799418348,17.2914473778534,-0.423625937951687,713.041260253211,4662.16901050593
0.75,4.47500200157825,0.101996586424015,16.2997379978145,-4.96005263610106,4.40695773921287,0.784072511036622,14.9986165443161,8.0823933773887,-1.3719332118301,742.504219529623,4662.16901050593
0.76,4.48403171101369,0.0386676498280061,15.8507898254181,-1.80494316004771,3.84544195106598,-2.3066451338473,14.5777808519634,-6.48025179547133,-2.10247406266457,772.34077609911,4662.16901050593
0.77,4.44727991901065,0.0723751048572612,17.6909502130285,-3.47821596809791,2.16612668031693,-3.88476923879111,11.875740302711,-13.5659315206568,-2.61666471581865,801.809848445551,4662.16901050593
0.78,4.48562502074583,0.114542012467747,15.7763298029385,-5.58121455325989,0.902088246063601,-4.39547363724037,9.00199279009744,-14.1069721679615,-2.91364240554453,831.266070670246,4662.16901050593
0.79,4.45485420376187,0.117155671075975,17.3175139777444,-5.72961694132472,0.537586702927771,-4.42385035516294,8.20791532238245,-16.289718436004,-2.99437311482614,861.074109839124,4662.16901050593
0.8,4.44609039354523,0.0806551298843976,17.7584133475145,-3.90206758329657,1.16289389888574,-4.29207441891286,8.70129809649342,-15.9647983852523,-2.85886636148497,890.457424796311,4662.16901050593
0.81,4.41310252791179,0.0731476533396599,19.4105149397759,-3.48464569473134,2.55741378072302,-3.59728498387583,14.3138018138015,-13.5656154847573,-2.50699587712187,919.727355217914,4662.16901050593
0.82,4.43177315990916,0.0601888562332552,18.4797427299921,-2.83477989967171,4.11286929916682,-1.65182994502368,18.2610070784801,-4.00905087595293,-1.93912215366411,949.195610764248,4662.16901050593
0.83,4.44026175642732,0.101719189460002,18.0580433674894,-4.91414334094671,4.1035052551964,1.69926921930309,14.5378906919773,11.7852224953803,-1.15528820951072,978.72197498276,4662.16901050593
0.84,4.43874824363755,0.101960134190886,18.1365355801983,-4.92284655183054,0.788653407054253,4.36931432182458,-2.05253233400872,18.6803493554729,-0.155609037921109,1008.16074272345,4662.16901050593
0.85,4.37600414795279,0.0962685890822897,21.2765547744204,-4.63258788178026,-3.76971157231465,2.22439983044887,-20.8235832515881,6.36639883415341,1.0597047402751,1037.55961715241,4662.16901050593
0.86,4.40515809664472,0.0471076829335879,19.8217356199612,-2.15814019326759,-2.70736381791092,-3.47531554649254,-10.2970433256031,-17.0742399781685,2.49046508999441,1066.9035290652,4662.16901050593
0.87,4.45098615480857,0.142051208890191,17.5332514314025,-6.90096891228237,3.65583866262805,-2.54289204825504,18.4635940440698,-3.75951761012734,-2.14663929076119,1096.29481051934,4662.16901050593
0.88,4.41901000433362,0.104528710862759,19.134961646267,-5.06716715002786,-3.52944617651013,-2.66112482926173,-11.8566387029314,-15.8506485292742,2.24048842639731,1125.87396270071,4662.16901050593
0.89,4.44096731694273,0.127373960435755,18.0400457083069,-6.19242459713709,4.04958163231981,-1.82737610773717,19.0335259942044,-1.23055263072237,-1.9660160398559,1155.18345216955,4662.16901050593
0.9,4.46607490795347,0.107776334695379,16.7876899954151,-5.17453366574965,-1.32513305942274,4.26631728737993,-10.2681517371661,14.2536800140409,0.325283704067972,1184.26494380423,4662.16901050593
0.91,4.42005308414491,0.125944738251584,19.0918148372562,-6.127586240238,-1.46981084907624,-4.17041813391535,0.00420010842156149,-20.0510520739117,2.83123441954604,1213.75851025176,4662.16901050593
0.92,4.42334832652367,0.109318259709243,18.9301448132418,-5.25905349208665,3.03554726329697,3.21922563855904,8.7284729459278,17.6017552055226,-0.731331599876933,1242.87930847643,4662.16901050593
0.93,4.35709338199809,0.10931360302986,22.2460172624104,-5.28905774218694,-3.57875172284668,-2.48771949975894,-14.8152237095235,-17.4174786429156,2.20333385199042,1272.17762240249,4662.16901050593
0.94,4.41574841096306,0.082243399756523,19.3163685957504,-3.88712005973717,3.59083411201406,2.57128535672773,13.1714412945695,14.6541779813612,-0.930744078754283,1301.29125610384,4662.16901050593
0.95,4.33739970370071,0.165873340189277,23.2369800221391,-8.11249230745296,-2.95042816565504,-3.18363374054837,-8.97552544519241,-22.9174543736969,2.43241827084417,1330.66441177532,4662.16901050593
0.96,4.28967999063736,0.129206690253709,25.626165501564,-6.22020414325393,1.28412245758969,4.09500650851677,0.93953528565805,26.353530529026,-0.273759521363434,1359.64054332319,4662.16901050593
0.97,4.37516938419261,0.118045961324232,21.3548920372086,-5.66403737694925,1.49503861900229,-4.11350234192872,13.1024203498618,-17.78874122314,-2.76601487810389,1388.80618325903,4662.16901050593
