t,iq,id,vq,vd,ia,ib,va,vb,theta_e,omega,r
0,0,0,0,0,0,0,0,0,0,0,0
0.01,0.000616333230938982,0.000349597308579104,-0.0301891573905483,-0.0174939512734572,0.000631306384501617,0.000321771935713689,-0.0312313753265436,-0.015557144671242,-0.583456364361419,-0.001174338987643,0
0.02,0.00071163805509134,0.000402497325139214,-0.0349288765248053,-0.020141075326217,0.000727962734529699,0.000372160013078314,-0.0360518993557173,-0.0180540821817857,-0.583465440202401,-0.00129898566589388,0
0.03,0.000748012802783933,0.000423028548148726,-0.0367313904778642,-0.0211684748384254,0.000765140473322515,0.000391198621880615,-0.0379025428125499,-0.0189920146842087,-0.583474847026836,-0.00130498009653985,0
0.04,0.000731170804156926,0.00041383907708902,-0.0359407244873494,-0.0207086181644703,0.000748196036363712,0.000382199185958067,-0.0370833329436982,-0.0185851812136502,-0.58348369485478,-0.00120982648668318,0
0.05,0.000748917138665054,0.000424235404141378,-0.0368334403452465,-0.0212288551572944,0.000766652706361072,0.00039127507784485,-0.0380094875845116,-0.019043252676974,-0.583492287515445,-0.00118474145159974,0
0.06,0.00075030077715122,0.000425343627248541,-0.0369282800287075,-0.0212843064001993,0.000768343106782369,0.000391812873314147,-0.0381081728696774,-0.0190915354372295,-0.583500545459247,-0.0011296955259205,0
0.07,0.000765637245035022,0.000434525012445939,-0.0377008262461824,-0.0217437512224953,0.000784458034158454,0.000399547206310112,-0.0389173818100512,-0.0194828234586596,-0.583508293563066,-0.00110576206104336,0
0.08,0.000751047833695189,0.000426438660168358,-0.037015493221067,-0.0213391111815032,0.000769674535397536,0.00039182124616336,-0.0382022521492471,-0.0191335395350875,-0.583515835324005,-0.00102419395340588,0
0.09,0.000748883239615371,0.000425573232570654,-0.0369336253802592,-0.0212958017663924,0.000767762465104915,0.00039048620978656,-0.0381211381803512,-0.0190888103463096,-0.583522912166688,-0.000970406845482536,0
0.1,0.000748142919553691,0.0004254790938985,-0.0369198763743345,-0.0212910997160678,0.000767278626478473,0.000389915114829262,-0.0381097668889448,-0.0190796715455475,-0.583529618137797,-0.000922026714877398,0
0.11,0.000747588487283993,0.000425467416110391,-0.0369140345980022,-0.0212905018991023,0.000766965881644283,0.000389453983013179,-0.0381061706910278,-0.0190748833989735,-0.583535980111449,-0.000876419893058125,0
0.12,0.00074707902135923,0.000425464627720586,-0.036909299125632,-0.0212903613989051,0.000766685198402186,0.000389025731986307,-0.0381035594194081,-0.0190707789566395,-0.583542016571463,-0.000833179368517145,0
0.13,0.000779477647585477,0.000444156537756003,-0.0385066404430946,-0.0222257255016884,0.00080013741089366,0.000405759235021434,-0.0397643623728164,-0.019888180343448,-0.583547951902122,-0.000855612975908712,0
0.14,0.000802144496980991,0.000457554009111589,-0.0397012074245235,-0.022896133038581,0.000823809316514913,0.000417288479728602,-0.0409821352564044,-0.020515442206085,-0.583553642086871,-0.000860549126301494,0
0.15,0.000751948054831664,0.000428887120308818,-0.0372031696458046,-0.0214616245099347,0.000772230760453385,0.000391190096681269,-0.0384087272469178,-0.0192209997027163,-0.583559093113151,-0.00072331420103782,0
0.16,0.000745941706177733,0.000425824240352894,-0.0369269545417412,-0.0213083570585183,0.000766367179558136,0.000387861649023946,-0.0381287239456626,-0.0190747598290669,-0.583563983147015,-0.000677243276117755,0
0.17,0.00074492483087525,0.000425495945815816,-0.0368927579874292,-0.0212919425094078,0.000765534700732372,0.000387190425417278,-0.0380962713894409,-0.0190550915496362,-0.58356859132217,-0.000642994618419918,0
0.18,0.000744486872144922,0.000425459766554197,-0.0368859550753631,-0.0212901250724457,0.000765264881519977,0.000386841539735195,-0.038091089522888,-0.0190502495096894,-0.583572960228359,-0.000611562560589908,0
0.19,0.000744130435338283,0.000425454842283518,-0.0368823765912876,-0.0212898865376505,0.000765065974550085,0.000386543635576844,-0.0380889976405387,-0.0190472368218236,-0.583577105273128,-0.000581857973257154,0
0.2,0.000743799231035927,0.000425453310082053,-0.0368793215801129,-0.0212897961337679,0.000764883717391438,0.000386265082577842,-0.0380873137517669,-0.0190445874410881,-0.583581038262699,-0.000553686185174681,0
0.21,0.000743485460616343,0.000425452191430976,-0.0368764456914382,-0.0212897409329579,0.00076471133190941,0.000386001005426997,-0.0380857540886982,-0.0190420758143974,-0.583584770083509,-0.000526956837221804,0
0.22,0.000743187871926405,0.000425451165619742,-0.0368737226176116,-0.0212896871882639,0.000764547864800786,0.00038575052784702,-0.0380842761926797,-0.0190396981891619,-0.583588311029385,-0.00050159480639582,0
0.23,0.000742905272383991,0.000425450195924122,-0.0368711263876805,-0.0212896526112087,0.000764392632327645,0.000385512667225111,-0.0380828807217219,-0.0190374227598526,-0.583591670863669,-0.000477530006133566,0
0.24,0.000742637427807818,0.000425449276074242,-0.0368686771753917,-0.0212896003145149,0.000764245504041731,0.000385287224347121,-0.0380815481886832,-0.0190352863327044,-0.583594858849985,-0.000454696068968212,0
0.25,0.000742383117185265,0.000425448403171813,-0.0368663441288125,-0.0212895642609518,0.00076410580832835,0.000385073175022664,-0.0380802901043263,-0.0190332441117002,-0.583597883777795,-0.000433030037088657,0
0.26,0.000748989595242597,0.000429357400982754,-0.0371974347890658,-0.0214851596924095,0.000771009275749698,0.000388430030080401,-0.0384260068116054,-0.0192016468671205,-0.583600712006554,-0.000426284260217915,0
0.27,0.000730597850913696,0.000418870336555985,-0.0363113113679401,-0.0209603908961725,0.000752124621341554,0.000378858987722423,-0.0374998663858902,-0.0187512490469362,-0.583603553815927,-0.000370092856453381,0
0.28,0.000730008127567118,0.000418641396514426,-0.0362224175003551,-0.0209489357028697,0.000751609595095903,0.000378491085429196,-0.0374413719156885,-0.0186832841257658,-0.583606138181132,-0.000350847024844017,0
0.29,0.000740175220450131,0.000424718593409392,-0.0367941645253907,-0.0212530399449294,0.000762284255915638,0.00038362475642116,-0.0380102399852146,-0.0189927329862945,-0.583608519923658,-0.00035425444949383,0
0.3,0.000732713909006518,0.00042071628520711,-0.036437354434239,-0.021052756412258,0.00075483368292675,0.000379602392259744,-0.0376465280984586,-0.0188052724748192,-0.583610478639167,-0.000325820215434969,0
0.31,0.000740172932211871,0.000424939132608893,-0.0368077918971248,-0.0212640834716084,0.000762468616588727,0.000383498167816732,-0.0380270433665479,-0.0189978620646708,-0.583612655797045,-0.000325313208065116,0
0.32,0.000740855444183713,0.000425389594180055,-0.0368480290427147,-0.0212866198904111,0.000763221419014224,0.000383817875523318,-0.0380680619776153,-0.0190189402428218,-0.583614764954916,-0.000311903566414472,0
0.33,0.000740783559456957,0.000425437189404975,-0.0368511888512693,-0.0212889959163394,0.00076322229427655,0.000383730131224749,-0.0380718240657254,-0.0190201913551437,-0.583616771111449,-0.00029772540336298,0
0.34,0.000740634285565963,0.000425441784421987,-0.0368502404904523,-0.0212892349162737,0.000763144602392235,0.000383601580715678,-0.0380715371295478,-0.0190191957799987,-0.583618675206206,-0.000284108810179793,0
0.35,0.000740483817441901,0.000425441811904238,-0.0368489104246963,-0.0212892278290141,0.000763062403132953,0.000383474625150941,-0.0380708326475458,-0.0190180209949806,-0.583620481972481,-0.000271170270022009,0
0.36,0.000740339781908386,0.000425441375224072,-0.0368475857810141,-0.0212892121935749,0.000762983325343517,0.000383353363982182,-0.0380701222587811,-0.0190168589654998,-0.583622196333383,-0.000258891436909327,0
0.37,0.000740203167170349,0.000425440911419281,-0.0368463309178622,-0.0212891774378277,0.000762908280142857,0.000383238377368123,-0.038069432696077,-0.0190157690427388,-0.583623823009474,-0.000247240405886326,0
0.38,0.000740073450718965,0.000425440466021869,-0.0368451349568105,-0.0212891603154503,0.000762837019374587,0.000383129200740009,-0.0380687887205819,-0.0190147217247643,-0.583625366484671,-0.000236185272993358,0
0.39,0.00073995036994075,0.000425440042807734,-0.0368439993999226,-0.0212891431762988,0.000762769403159253,0.000383025609592591,-0.0380681765128665,-0.0190137278288001,-0.583626831014659,-0.000225695582621096,0
0.4,0.000739833517380056,0.000425439641149504,-0.0368429177564563,-0.0212891245662338,0.000762705208037724,0.000382927261150856,-0.0380675913599637,-0.0190127825858404,-0.583628220637098,-0.000215742416259188,0
0.41,0.000739722660210269,0.000425439260001427,-0.0368418915611706,-0.021289107395994,0.000762644306347304,0.000382833958753869,-0.0380670366097768,-0.0190118855265103,-0.583629539183417,-0.000206298332192604,0
0.42,0.000739617507391076,0.000425438898322802,-0.0368409187446153,-0.0212890902108847,0.000762586538270765,0.000382745457312975,-0.0380665099775102,-0.0190110355869071,-0.583630790289102,-0.000197337292027249,0
0.43,0.000739517709676512,0.00042543855512079,-0.03683999371223,-0.0212890730118803,0.00076253171188029,0.000382661463287556,-0.0380660084469553,-0.0190102279665091,-0.583631977403249,-0.000188834589146565,0
0.44,0.000739423092441519,0.000425438229452793,-0.0368391189749021,-0.0212890543439579,0.000762479731444916,0.000382581828961328,-0.0380655322501158,-0.0190094654375755,-0.583633103799295,-0.000180766780618437,0
0.45,0.00073933330644427,0.000425437920424081,-0.0368382877663411,-0.0212890371183023,0.000762430404981712,0.000382506261010203,-0.0380650801469567,-0.0190087406312456,-0.583634172582718,-0.000173111622563433,0
0.46,0.000739248060644398,0.000425437627185254,-0.0368374956273813,-0.0212890198805271,0.00076238357255372,0.000382434514775732,-0.0380646485228192,-0.0190080505156381,-0.583635186700103,-0.000165848008827383,0
0.47,0.000739167238626582,0.000425437348930298,-0.036836746374806,-0.0212890026307166,0.000762339170428756,0.00038236649141064,-0.0380642395344183,-0.0190073981691044,-0.583636148947661,-0.000158955912789074,0
0.48,0.000739090288099058,0.000425437084894186,-0.036836021497021,-0.0212890029911322,0.000762296894656566,0.000382301728432618,-0.0380638577364777,-0.0190067583323042,-0.583637061978359,-0.000152416332145481,0
0.49,0.000739017615151457,0.000425436834351311,-0.0368353499803584,-0.0212889842619767,0.000762256969393368,0.000382240563177498,-0.0380634885256305,-0.0190061753212311,-0.58363792830954,-0.000146211236517372,0
0.5,0.000738948551080777,0.000425436596612263,-0.0368347065820397,-0.0212889669781303,0.000762219026496465,0.000382182436184849,-0.0380631351727111,-0.0190056166646812,-0.58363875032986,-0.000140323517739352,0
0.51,4.68593671115759,-0.0162808263702258,5.70400326062439,0.819792799096054,-0.294921656201772,4.67667500933996,0.47912846550722,5.74266047613857,0.0595044665106241,18.4172050386876,2511.41437515803
0.52,4.72044076308591,-0.0194984647987829,3.97976892711736,0.986895582846924,-1.28209007411717,4.54303711516677,-0.114184311226195,4.09871754915625,0.270926148150699,39.2731785666593,2511.41437515803
0.53,4.67919214832585,-0.0302148849058581,6.04323219572961,1.52960088152365,-2.804412212338,3.74580088145561,-2.36019416939759,5.7697328977174,0.636199604390471,60.4920438559711,2511.41437515803
0.54,4.67648015415958,0.0164072597674843,6.17989004721721,-0.796823723594411,-4.28262121537211,1.87853436382362,-5.98557058119205,1.73173723750037,1.16093682623425,82.9868015833048,2511.41437515803
0.55,4.64942444177443,-0.0109732260514868,7.53378354099469,0.574442838866963,-4.45824056433282,-1.31960566912879,-7.39073956881908,-1.56998332589236,1.85621233052635,106.403713685142,2511.41437515803
0.56,4.66056080262158,0.0253319527011524,6.97808755537825,-1.23389689542733,-1.95178552145855,-4.23225731507256,-1.76453109504989,-6.86313612670418,2.71492490366919,127.630392097821,2511.41437515803
0.57,4.63752999062825,0.0232713187514747,8.13083186436362,-1.12151317091539,2.54628580051407,-3.87603593770147,5.43255317389874,-6.15268921788271,-2.55534287247349,149.113716756807,2511.41437515803
0.58,4.69610247304446,-0.00717746402243935,5.20349191265074,0.401708870925153,4.60681118516322,0.911438784329001,5.18344760728195,0.607921873734292,-1.37700124203813,171.894755081261,2511.41437515803
0.59,4.68482379823378,0.0328257645619709,5.76872076493975,-1.58677245095911,0.222297660574374,4.67966187896303,-1.35213196430047,5.82818369872525,-0.0404605343736178,192.959883253197,2511.41437515803
0.6,4.61327462794889,0.0512979542720452,9.34756269391158,-2.51398664509516,-4.57828681479252,0.569406809308058,-9.57086864727338,-1.44759473091182,1.45817973464738,215.487438299896,2511.41437515803
0.61,4.63298647627294,0.0510387846106648,8.3634024352882,-2.49406268426904,-0.17460276394782,-4.6299765141612,2.27008648173562,-8.4269541551553,3.11491508808913,237.11218121613,2511.41437515803
0.62,4.67301906194509,0.0431888116539865,6.36318077381933,-2.08902226268496,4.56827197818767,0.984816510858529,5.74853755480888,3.43633519250513,-1.34922637588726,258.672181403297,2511.41437515803
0.63,4.63710727228822,0.0109971265937538,8.16020170162047,-0.480050299522585,-2.71979694730198,3.75574085327362,-5.1899784350592,6.31533561616656,0.629135848444271,280.915564919127,2511.41437515803
0.64,4.6362730863627,0.0218667289624332,8.20340653844691,-1.02376676404158,-1.71676393751028,-4.30676536022464,-2.04885597063378,-8.00913019208628,2.76699268159072,302.886202460606,2511.41437515803
0.65,4.64032079895138,0.0627103039223944,8.00262577817213,-3.06368171711183,4.37691609432239,1.542438070932,6.45381687630222,5.63705709891136,-1.21846902072285,324.521998706662,2511.41437515803
0.66,4.63089722193751,0.0531707976985158,8.47540458463132,-2.57201267092868,-4.36096341893034,1.55885671972374,-8.85094936684868,0.329283097179625,1.238975088684,346.117605922171,2511.41437515803
0.67,4.58999313894179,0.0789768127376371,10.5222585171401,-3.85369378661332,2.94729301207252,-3.5196218906967,9.80485043868021,-5.4252915108427,-2.42726097344969,367.813926675327,2511.41437515803
0.68,4.58279105480134,0.0772791821620407,10.8840971622659,-3.77206491954777,-1.49401544093226,4.33311248252556,-7.26556801428262,8.93887947254917,0.34888751230821,389.581272693649,2511.41437515803
0.69,4.61195484929107,0.0667124862227213,9.42767418956254,-3.24582424483132,0.58875675288748,-4.5747069385532,4.55146053677779,-8.87133713906945,-2.99913387067506,411.402727298896,2511.41437515803
0.7,4.646564259142,0.0821871430567462,7.69899788681528,-4.01236921581704,-0.35926079464512,4.63338384145439,-4.72508112163646,7.28335661485672,0.095068506458136,433.107826852005,2511.41437515803
0.71,4.63266175330512,0.019606662103131,8.3958870089814,-0.867083878347735,0.930748837502665,-4.53824260515261,2.57025681807706,-8.03968488243175,-2.93507530617698,454.627107151821,2511.41437515803
0.72,4.6010121878792,0.0692594531414379,9.98015770538501,-3.33531375159978,-2.04942482116142,4.11994756365538,-7.54249055238708,7.3374860758381,0.476649097599878,476.097925202354,2511.41437515803
0.73,4.57314067207524,0.0301681660464852,11.3756257879811,-1.39929286898706,3.57911962992143,-2.84682777834249,9.81314974816374,-5.92156859467934,-2.23612869007321,498.004380580838,2511.41437515803
0.74,4.59874197455222,0.0376995594697265,10.0974884746216,-1.75813213563703,-4.58194327944195,0.394518427034009,-10.2034861377436,-0.96910924995604,1.49310291898293,519.530312300311,2511.41437515803
0.75,4.5406720690137,0.0603168047885645,13.0029293914803,-2.87071540434281,3.60271426582427,2.76437893098746,8.43233570583613,10.3059640129701,-0.903029108504575,541.01553790288,2511.41437515803
0.76,4.58953431052694,0.106033897639211,10.5618500643965,-5.17048445474504,-0.100893867506559,-4.58965018301527,5.18230975985896,-10.5560528528623,-3.14047272194466,562.716931910693,2511.41437515803
0.77,4.56056025998022,0.0780972781707057,12.0126405301635,-3.76662878684111,-3.94668059798011,2.2865960131374,-12.3279011142246,2.55223020957899,1.06280544040576,584.203298663907,2511.41437515803
0.78,4.57691227779726,0.0753928561401191,11.1970846191397,-3.61520774653204,3.51462353749321,2.9327856162882,6.11614949732938,10.0517235509676,-0.858927115288457,605.660669099716,2511.41437515803
0.79,4.51600720600012,0.0470457983644921,14.2444744727043,-2.2134605356,2.19750043311866,-3.94557045789732,8.98271883681352,-11.2745386976558,-2.62300913068144,627.372549153335,2511.41437515803
0.8,4.51795392601486,0.0936543653560757,14.1492913192223,-4.54715330244475,-4.04474473921546,-2.01512253035199,-10.4194662678705,-10.5978191475823,2.05373538780424,648.829434752902,2511.41437515803
0.81,4.51134611293995,0.104298694242157,14.4818499176231,-5.03936904163853,-2.48005404930166,3.76994083254651,-12.381516333391,9.04528997104884,0.604988690013291,670.150116888873,2511.41437515803
0.82,4.55824350874583,0.155833957183522,12.1392222990174,-7.61473714497097,3.00913070188449,3.42738975405645,1.8021161682041,14.2160935959306,-0.686333258413677,691.600959046069,2511.41437515803
0.83,4.52772364126486,0.099753800600213,13.6674443197112,-4.80849023575258,4.36287798839843,-1.21471307342572,14.4315745959935,1.28462728447213,-1.82031120633703,713.096869992554,2511.41437515803
0.84,4.52361762385145,0.119251284218069,13.8750003363382,-5.78051107056457,1.41586798517655,-4.29798268076538,10.1277768145312,-11.1066682387361,-2.79700683152038,734.562112396474,2511.41437515803
0.85,4.50538960334422,0.0911828190925792,14.7887212010691,-4.36890037587736,-2.14152559114262,-3.96493605584013,-2.87802648511898,-15.1496049060114,2.66660539314378,755.971346044559,2511.41437515803
0.86,4.52197097476044,0.121682273738444,13.9620191247628,-5.88407250485176,-4.15548309964975,-1.787453015003,-10.203185080889,-11.2006830813,2.00391790794804,777.355123468247,2511.41437515803
0.87,4.46173611702508,0.0972994240487228,16.9761995072875,-4.65953964447514,-4.44283934021704,0.421586234246442,-17.2701617760469,-3.41235573157799,1.49799250549823,798.772687191773,2511.41437515803
0.88,4.45257750021948,0.123900028999988,17.4366012625245,-6.03056450594874,-4.41460626242664,-0.59333730743182,-16.2406772105544,-8.7546088200022,1.73221831919597,820.275297049083,2511.41437515803
0.89,4.51555533593247,0.118542054768821,14.2901892991289,-5.73949361923656,-4.50964832582692,0.259546119184081,-14.4625114889705,-5.29027963737196,1.53955213578531,841.574145958859,2511.41437515803
0.9,4.47402958841311,0.128780316321956,16.3689574679991,-6.22190381355816,-4.45513799812206,0.430430651274894,-16.7515422223904,-5.10300782145242,1.50325684868796,862.784416506649,2511.41437515803
0.91,4.46414075609419,0.0961819554068652,16.8659566428825,-4.63089358070409,-4.46303896259542,-0.138155264548023,-16.5997762882735,-5.50936439298331,1.62328399385707,884.276313262269,2511.41437515803
0.92,4.49053508245601,0.163815794237604,15.5488422919041,-7.97661537422785,-4.30294528143611,-1.29475976388543,-12.1408544695271,-12.5695084309863,1.89954342610749,905.441222160196,2511.41437515803
0.93,4.44515303186202,0.0677026340301841,17.820557963853,-3.19873627314642,-3.26581278740405,-3.01636137771238,-10.6995696030917,-14.605595167496,2.33173701155363,926.832859593928,2511.41437515803
0.94,4.43943769446974,0.108861799880936,18.1090193023689,-5.21310523824062,-1.08214059095778,-4.30690488355079,1.10458951346106,-18.8120421093855,2.91994776873372,947.951614437648,2511.41437515803
0.95,4.48468203130291,0.0997892198596791,15.8494877012758,-4.78807519536925,2.15049127136345,-3.93671412501353,12.0556914395648,-11.3486663702572,-2.61937365652175,969.351101777478,2511.41437515803
0.96,4.42066855524045,0.118164816691142,19.0528420941109,-5.66637747131735,4.35419085644379,-0.772848875820255,19.6827462065249,2.77635143310566,-1.71973850366558,990.501488565724,2511.41437515803
0.97,4.45492323606866,0.121008865024157,17.3428014300712,-5.80205212952349,2.8413088424129,3.43335815881553,6.12141330307917,17.2326686711453,-0.664164921355243,1011.69994427021,2511.41437515803
