t,iq,id,vq,vd,ia,ib,va,vb,theta_e,omega,r
0,0,0,0,0,0,0,0,0,0,0,0
0.01,0.000541092689899036,0.000305775698116366,-0.0267340205599174,-0.0152991109596732,-0.000177341118275877,0.000595676258037356,0.00862906419227806,-0.0295687318399018,0.803726412937117,-0.00121794391698135,0
0.02,0.000641800883304464,0.000360917827096992,-0.0317395378022795,-0.0180580783598126,-0.000211568744028718,0.000705272088117001,0.0103176351964272,-0.0350291144322107,0.803716845716192,-0.00137566980258521,0
0.03,0.000679695828698129,0.000382051677468468,-0.0336198801415473,-0.0191154912789186,-0.000224175747546717,0.000746789888802719,0.0109371171319676,-0.0370955228620388,0.803706849936875,-0.00138273026398294,0
0.04,0.000665771221885597,0.000374572342438748,-0.0329467109652707,-0.0187412676628787,-0.000219335055403183,0.000731743051270304,0.0107118654541968,-0.0363589990996993,0.803697452583675,-0.00127327822628231,0
0.05,0.000681593587138889,0.000383997660937883,-0.0337384042389578,-0.0192128584419603,-0.000224177603183808,0.000749512123894862,0.010954183398185,-0.0372480833893646,0.803688426046763,-0.00123655039935422,0
0.06,0.000683181663072729,0.000385342064185575,-0.0338283275097381,-0.0192801237479209,-0.000224381329951261,0.000751584133652995,0.0109719134900792,-0.0373590153538268,0.80367981601474,-0.00116987864391961,0
0.07,0.000695151490798966,0.000392741725268315,-0.0344288218515933,-0.0196503609276293,-0.000227856637365881,0.000765220890158568,0.0111469461895337,-0.0380424243355032,0.803671811271326,-0.00113247875437327,0
0.08,0.000683753510885673,0.00038658713012468,-0.0338778307591216,-0.0193424247742001,-0.000223917013738047,0.000752880896148359,0.0109637218280954,-0.037438397625505,0.803664083421541,-0.00104259521894825,0
0.09,0.000681345680462462,0.000385705672522789,-0.0337689707432804,-0.0192983130400556,-0.000222790009547547,0.000750576720760054,0.0109157015841485,-0.0373311629898979,0.803656897301687,-0.000978202941658317,0
0.1,0.000680343696517133,0.00038557783106427,-0.0337287617258866,-0.0192919171315421,-0.000222152358317157,0.000749790730066029,0.0108909429028329,-0.0372987237966549,0.803650154136981,-0.000920726003771541,0
0.11,0.000679593464617657,0.000385557788694708,-0.0337004012173846,-0.0192909075666919,-0.000221621433736706,0.000749256982405016,0.0108709908269983,-0.0372783813409148,0.803643817289629,-0.000867160634197983,0
0.12,0.000678917264100846,0.000385553255737104,-0.0336751695492298,-0.0192906839798911,-0.000221133329934209,0.000748785693570508,0.0108527600493804,-0.0372607720249054,0.803637860856282,-0.000816878996076854,0
0.13,0.000706636145539038,0.000401628083579167,-0.0350485002334067,-0.0200949682621462,-0.000229925819821814,0.000779598535838164,0.0112829286127804,-0.0387930488617055,0.80363205776537,-0.000834376397707597,0
0.14,0.000724095175203384,0.00041206415907655,-0.0359487847976412,-0.0206171374014668,-0.000235246184918425,0.000799230834258545,0.0115683707866788,-0.0397938975271334,0.80362651714758,-0.000829982650193713,0
0.15,0.000684102014100777,0.000389336176886251,-0.0339530949655856,-0.0194799619865856,-0.000222227520910595,0.000755111351576092,0.0109208339275937,-0.0375901178911002,0.803621253754561,-0.000693252769628582,0
0.16,0.000677594033680241,0.000386087197095817,-0.0336388091322905,-0.0193174001572827,-0.000219794240796373,0.000748256299641446,0.0108072490777577,-0.0372549969272118,0.803616598563622,-0.000639946548919733,0
0.17,0.000676197526361747,0.000385621723703648,-0.0335758815792764,-0.019294118755831,-0.000219108788795894,0.000746952841297437,0.0107779480435294,-0.0371946055008073,0.803612267048372,-0.000601262153466738,0
0.18,0.000675601988467648,0.000385554068859302,-0.0335520481645176,-0.0192907225755524,-0.000218724005597951,0.000746491658500342,0.0107629973380824,-0.0371756614174041,0.803608202121575,-0.000566633386626532,0
0.19,0.000675150790178341,0.000385543328008777,-0.0335349915117834,-0.0192901999632816,-0.000218403808577702,0.000746171577888944,0.0107509396321038,-0.0371634870181154,0.803604382069582,-0.000534345457916388,0
0.2,0.000674743432116554,0.000385540783910922,-0.0335197824366344,-0.0192900685992481,-0.000218109654350817,0.000745887775688838,0.0107399489632406,-0.0371528741476348,0.803600791333759,-0.00050403446348063,0
0.21,0.000674363024272205,0.0003855394713569,-0.0335056076504628,-0.0192899954242514,-0.000217834208271592,0.000745623517726206,0.0107296705229242,-0.0371430186975141,0.803597416025942,-0.000475547868968717,0
0.22,0.000674005715516984,0.000385538391475597,-0.0334922950210169,-0.0192899455863154,-0.000217575381407157,0.00074537541498005,0.0107200040976774,-0.0371337762507885,0.803594243202718,-0.000448771076142921,0
0.23,0.000673669943598843,0.000385537398161345,-0.033479784201664,-0.0192898986344085,-0.000217332141222176,0.000745142280830495,0.0107109199798145,-0.0371250903393077,0.803591260714024,-0.000423600733128695,0
0.24,0.000673354311527939,0.000385536467361843,-0.0334680218240046,-0.0192898502035743,-0.000217103490013616,0.000744923131029653,0.0107023823480835,-0.0371169209089845,0.803588457141721,-0.000399940351954364,0
0.25,0.000673057655153046,0.000385535592654073,-0.0334569652880737,-0.0192898017486074,-0.000216888585997101,0.00074471715545395,0.0106943591200456,-0.0371092395610506,0.803585821752549,-0.00037769933367967,0
0.26,0.000678435718521856,0.000388771514595229,-0.0337251740707318,-0.0194517164435514,-0.000218512009030245,0.000750780138680094,0.0107749484045548,-0.0374119917350128,0.803583391972593,-0.000370434792135157,0
0.27,0.00066414044313393,0.000380628619733899,-0.0330242779454085,-0.0190442896224257,-0.000213872020014834,0.000734996213202109,0.0105531276383255,-0.0366322180339607,0.803580937404652,-0.000316874968156468,0
0.28,0.000663592477768622,0.00038046414774787,-0.0329687794885008,-0.0190360638700591,-0.000213590126906823,0.000734497925089336,0.0105188069593282,-0.0365877964460658,0.803578748499491,-0.000297695705897204,0
0.29,0.000670720820528669,0.000384808238682548,-0.0333540632100295,-0.0192534172008981,-0.000215704565251436,0.000742573457765833,0.0106452052937923,-0.0370117172093311,0.803576759866752,-0.000298138234318584,0
0.3,0.000662819752011854,0.000380608979855392,-0.0329669424963945,-0.0190433066186133,-0.000212930751334333,0.000734066559883921,0.0105123275650656,-0.0365917722131064,0.803575206728629,-0.000266929044202894,0
0.31,0.000670289655865668,0.000384827997207139,-0.0333373049505987,-0.0192543969123447,-0.000215378009836974,0.000742289110167755,0.0106323388328826,-0.0370008252984997,0.803573433339109,-0.000269931375769456,0
0.32,0.000671260209165097,0.000385430382304514,-0.0333874319583621,-0.0192845489056389,-0.00021565723357003,0.000743396802266929,0.0106474287611987,-0.0370573434024005,0.803571709405047,-0.000258111394007379,0
0.33,0.000671253715456373,0.000385516000182606,-0.0333892992281422,-0.0192888282947323,-0.00021559191713018,0.000743454277127325,0.0106457420214744,-0.0370617373681037,0.803570080242074,-0.000244776736596494,0
0.34,0.000671108099587643,0.000385527802429496,-0.0333841818537409,-0.0192894124440103,-0.00021547776536603,0.000743362025133862,0.0106415960532711,-0.0370586219916201,0.80356854749788,-0.000231904285785425,0
0.35,0.000670949842455073,0.000385529082704214,-0.0333783167205857,-0.0192894844746542,-0.000215361886190043,0.000743253404080941,0.0106372707139547,-0.0370546179329338,0.803567106501825,-0.000219752747961058,0
0.36,0.000670798055604446,0.000385528883771368,-0.0333726528086361,-0.0192894648317032,-0.000215251755869448,0.000743148190618683,0.0106331570688084,-0.0370506866296609,0.803565751919163,-0.000208322377645986,0
0.37,0.000670654757700705,0.000385528496338236,-0.0333672963472899,-0.0192894509712906,-0.000215147927697605,0.00074304871625139,0.010629263744343,-0.0370469720295045,0.803564478591949,-0.000197576519441976,0
0.38,0.000670519958112877,0.00038552810347188,-0.0333622544971028,-0.0192894356270277,-0.0002150502776785,0.000742955120357023,0.0106256007567463,-0.0370434739258744,0.8035632816496,-0.000187475113597997,0
0.39,0.000670393249387294,0.000385527730045706,-0.0333575134502763,-0.0192894187999977,-0.000214958491801282,0.000742867139036832,0.0106221579946584,-0.0370401827852345,0.803562156510257,-0.000177979652521812,0
0.4,0.000670274224075219,0.000385527378404781,-0.0333530591001448,-0.0192894034015946,-0.000214872271906,0.000742784492114135,0.0106189231217693,-0.0370370909584049,0.803561098866758,-0.000169053809408634,0
0.41,0.000670162300097607,0.000385527047746869,-0.0333488681279079,-0.0192893879786116,-0.000214791196509614,0.000742706775866829,0.0106158802099955,-0.0370341812569013,0.803560104670203,-0.00016066341702912,0
0.42,0.00067005706999834,0.000385526736888241,-0.0333449256694705,-0.019289371077114,-0.000214714970278103,0.000742633707455384,0.010613019426901,-0.0370314423577767,0.803559170114513,-0.000152776354826642,0
0.43,0.000669958184536423,0.000385526444654348,-0.0333412194501,-0.0192893556084582,-0.000214643339949323,0.000742565044403897,0.0106103297823772,-0.0370288678751928,0.803558291621618,-0.000145362428667425,0
0.44,0.000669865236255754,0.000385526169931852,-0.0333377339631246,-0.0192893401188698,-0.000214576010476872,0.000742500503820792,0.010607800998013,-0.0370264460352876,0.803557465828713,-0.000138393255662378,0
0.45,0.000669777875907832,0.000385525911672347,-0.0333344563026158,-0.0192893231541293,-0.000214512728821289,0.000742439843219668,0.0106054246753654,-0.0370241668669341,0.803556689574077,-0.000131842155568187,0
0.46,0.000669695812459408,0.000385525668890617,-0.0333313762092152,-0.0192893076255203,-0.000214453283948183,0.000742382860526201,0.0106031912978939,-0.0370220253764224,0.803555959886159,-0.000125684048658899,0
0.47,0.000669618580246676,0.000385525440659862,-0.0333284744394348,-0.0192892920796247,-0.000214397339213104,0.000742329232447366,0.0106010879184643,-0.0370200071898713,0.803555273971508,-0.000119895359712386,0
0.48,0.000669545937086137,0.000385525226108694,-0.0333257426603348,-0.0192892924794628,-0.000214344718927161,0.000742278790821043,0.0105990973602903,-0.0370181180419562,0.803554629204001,-0.000114453927757451,0
0.49,0.000669477727058093,0.000385525024417863,-0.0333231766791893,-0.0192892754438254,-0.000214295309579367,0.000742231427367198,0.0105972396851458,-0.0370163310201835,0.803554023115469,-0.000109338921234947,0
0.5,0.000669413465800696,0.000385524834817054,-0.033320755595095,-0.0192892758082594,-0.000214248761314331,0.000742186805818651,0.0105954755805026,-0.0370146567167403,0.803553453385562,-0.000104530758247438,0
0.51,4.64274490254691,-0.00481908751370827,4.28125406182798,0.247519727234882,-0.285948806273387,4.63393318185757,-0.0121832030854775,4.28838593492372,0.06059145333647,18.7631819268239,916.028003829263
0.52,4.63136360599573,0.0367151085154748,4.28596485682143,-1.82323124277791,-1.2271779285329,4.46597259080895,-2.92252902800191,3.62663632020582,0.276092738740038,40.0536466609825,916.028003829263
0.53,4.61900861759556,-0.00860821563897218,4.10052066573166,0.452893367135187,-2.79907515616001,3.67430169977458,-2.11801366741784,3.54025426159177,0.649145429281649,61.8952124842473,916.028003829263
0.54,4.53671712280738,0.0377529973246138,6.85316686260166,-1.86351056280558,-4.19472353581231,1.7284449656506,-7.05343136923948,0.829260865939035,1.18826497499063,85.4709159014188,916.028003829263
0.55,4.52967062411123,0.0368387374079093,5.96494704607949,-1.80955474069589,-4.30146224142572,-1.42010409516305,-5.06759263997296,-3.6296813162314,1.89780677335839,107.616297731174,916.028003829263
0.56,4.48752076817289,0.0238136209631268,7.08752223619531,-1.14705543337535,-1.67957429281527,-4.16142282497711,-1.55179294640547,-7.01003896332147,2.76328830022262,128.708545134312,916.028003829263
0.57,4.50393071369158,-0.00267653620053876,4.69508511612803,0.17961917603872,2.72589485017834,-3.58537254735845,2.69631318223359,-3.84785427470963,-2.49213762962647,151.46017652021,916.028003829263
0.58,4.44070482187362,0.00244526629262332,6.66436781756332,-0.0632227526999247,4.28634985307134,1.16063354742752,6.41520156076184,1.80637328894985,-1.30581225982077,172.377386749555,916.028003829263
0.59,4.43718333742844,0.000434777609156708,5.22807397710199,0.03934588797959,-0.177573049887795,4.43362875880894,-0.170421600616601,5.22544372154128,0.040127992434947,194.228865250248,916.028003829263
0.6,4.34455268709581,0.0366636566131104,8.27846361989418,-1.77360955793507,-4.34158134285876,0.164783852389787,-8.32717223923689,-1.52867696652775,1.54129853060502,215.82632709364,916.028003829263
0.61,4.36472132343337,0.0227023909295724,5.75722742227496,-1.06098678912108,0.226051244233675,-4.35892285602398,1.38732932397623,-5.68741399102614,-3.08457835026781,236.644246729181,916.028003829263
0.62,4.34833724892248,0.0274876304263301,4.89006791231304,-1.28954559377828,4.16415576239958,1.25243729849742,4.29463528433069,2.67054297850614,-1.27231541865224,257.425175248043,916.028003829263
0.63,4.29272113552339,0.0443812495117744,5.88707869713437,-2.12991860661004,-2.70813054522669,3.3309838475573,-5.399449209721,3.16862700371632,0.692963363239305,278.226917271982,916.028003829263
0.64,4.19647184538493,0.0162989500382932,8.86838944363127,-0.720231784483923,-1.38282753825499,-3.96212438021882,-2.20883733540551,-8.61905463336961,2.80968254747977,298.812729440542,916.028003829263
0.65,4.21504461376302,0.0516199482537227,6.04341938202678,-2.4800962623079,3.95697848698848,1.45313005907273,4.7636587807345,4.4700503708685,-1.20660709686932,319.273758552238,916.028003829263
0.66,4.12874265444973,0.0693232737487026,8.3891479795247,-3.36889659825248,-3.83739890160392,1.5250217352303,-9.03843560832717,-0.184254894653929,1.20931329734723,339.655099775664,916.028003829263
0.67,4.087485698715,0.0498826570266303,8.36709810021836,-2.40265639409053,2.3723772641983,-3.32894183382448,6.87816138133597,-5.33591457756215,-2.51022260093408,359.847320433505,916.028003829263
0.68,4.01549799431044,0.0464222370226542,9.89060761423996,-2.21764676020401,-0.749288414672044,3.94524347005855,-4.13143223244564,9.25598961973349,0.19924688691944,379.479473552133,916.028003829263
0.69,3.9989773725375,0.0662497798890458,8.65500396817158,-3.1939541412559,-0.421382314057533,-3.97726614709172,2.41213378230274,-8.90460820933663,3.05260385972488,398.892525629098,916.028003829263
0.7,3.97149106859324,0.0170425702586766,7.79643733257447,-0.74734345106527,0.939103540385429,3.85890091833834,1.08411224024561,7.75678141790528,-0.234428698903482,418.499550248232,916.028003829263
0.71,3.89945631830146,0.0893441224372553,9.22183033967423,-4.34339746473183,-1.0102000840363,-3.76739137079867,2.03611958617061,-9.98806654869637,2.90252027118983,437.335782622202,916.028003829263
0.72,3.87181919216161,0.0705248913644194,8.29132940064665,-3.41673668889723,0.473690692740621,3.84338064010109,-2.53394310031804,8.60228836970922,-0.104417108070822,456.467854226438,916.028003829263
0.73,3.81666957925048,0.0552952076992599,8.79526791587138,-2.62990125000823,0.582353636293038,-3.77238498558496,4.06066272427101,-8.23311220234895,-2.97394209294694,474.917006715774,916.028003829263
0.74,3.79892907414534,0.0524496613298033,7.28813545742091,-2.49212658841274,-2.02438724694552,3.21503800160507,-6.05848540879984,4.75629771248069,0.575750296436402,493.358724512882,916.028003829263
0.75,3.67608206132926,0.102396819958663,11.0280483360886,-5.004728282829,3.26037781615042,-1.70117633604474,12.1061114182903,-0.327447119388251,-2.02386236367409,511.649988994368,916.028003829263
0.76,3.63240552764471,0.068017485009777,10.8283875155874,-3.28736230988783,-3.55897331285007,-0.72986660010711,-9.84444038756213,-5.58101429848874,1.79179263643069,529.534341023375,916.028003829263
0.77,3.55416727128821,0.0901353350715322,12.2967995241884,-4.37809094731091,1.92094771481743,2.99168668945504,2.63672354862119,12.7838432331264,-0.545443138399976,547.093242281496,916.028003829263
0.78,3.53703872736003,0.0857009979301325,10.6670650129699,-4.13895075638059,1.25663568227802,-3.30739389579115,7.86144440699547,-8.31353602207806,-2.75426676502588,564.433073713778,916.028003829263
0.79,3.4691440554976,0.121821282641794,11.5378905310125,-5.94483307706589,-3.42736624449736,0.550419411702469,-12.1851741282774,-4.47051335792265,1.44666177193182,581.569631903496,916.028003829263
0.8,3.41534361177808,0.075368428515145,11.6839393228141,-3.61993344708579,1.73571071383326,2.9423733115318,2.55528836790068,11.961975489751,-0.510897096282594,598.467127116657,916.028003829263
0.81,3.38083530698129,0.0754265234567951,10.8411591702429,-3.65172248681036,2.36249705439523,-2.41957521092978,10.3001860280205,-4.97714547340025,-2.34582346027283,615.140099602016,916.028003829263
0.82,3.32559019605816,0.0449746199114256,10.9887694835046,-2.12619106207936,-2.66979170191154,-1.98337720491051,-7.4406774063002,-8.36122376984624,2.22325823776428,631.533261883272,916.028003829263
0.83,3.28137842043242,0.0686841817823159,10.5669482557048,-3.2999921641494,-1.87250451058189,2.69553124870723,-8.8791914679219,6.61137675512243,0.628068219948558,647.562137645785,916.028003829263
0.84,3.23390473229356,0.0815665062685067,10.3169439882012,-3.92621021077822,2.48369831576032,2.07268801047936,5.16108129409644,9.7579557157546,-0.850143057457896,663.315667871897,916.028003829263
0.85,3.13348207220259,0.0394790935749782,12.7013455028699,-1.85327573645197,0.350106295959901,-3.11411208487649,3.41683554238669,-12.3727136641433,-3.01703859651993,678.96947799787,916.028003829263
0.86,3.08620035926534,0.0519627556714235,12.3567794753062,-2.46550965728847,-2.80742132097386,-1.28285553046625,-10.088626703244,-7.54906273083771,2.0162516450482,694.267140750651,916.028003829263
0.87,3.04347421668644,0.0799244579515973,11.8301251158422,-3.83965747692332,-2.28961123493717,2.0066897167882,-11.5524853422896,4.60813543776208,0.877410464891452,709.220099779278,916.028003829263
0.88,3.01898032626982,0.0968528963985202,10.3327726765313,-4.71574529045691,0.553456556746002,2.96939531449416,-3.09462391622596,10.9283003091268,-0.15220216395351,724.085508135792,916.028003829263
0.89,2.87764702499673,0.0810965881758967,14.700044502575,-3.90121536157927,2.56910222584935,1.29890061599116,11.0690363657041,10.4301113900968,-1.07451627078392,738.502536476348,916.028003829263
0.9,2.85192512583921,0.0805474205854526,13.2364087093673,-3.89515535053017,2.68115468639399,-0.975384210444031,13.7894364786671,-0.475596811368403,-1.89146963634754,752.792359060262,916.028003829263
0.91,2.84368235623552,0.0820920247849309,10.9452056425804,-3.98893346308278,1.38266589429861,-2.48626295239299,9.02213323747835,-7.3695473793486,-2.60520109441565,766.764987657913,916.028003829263
0.92,2.72317305920382,0.0717901759948819,14.2161961677492,-3.43799358427084,-0.278240831323861,-2.70987220723175,2.34923283583984,-14.4361053767429,3.06563106501419,780.370981240525,916.028003829263
0.93,2.69699707076204,0.105989146219449,12.7727110670406,-5.16666432471596,-1.58656082182388,-2.18354108215735,-2.80060152721637,-13.4904855113575,2.55251528150413,793.801716503153,916.028003829263
0.94,2.64119304764633,0.0775718576046587,12.8334741736707,-3.76358667577609,-2.27132689347544,-1.35018230287718,-8.8170097652857,-10.055992384206,2.1364839247033,806.959641294189,916.028003829263
0.95,2.56038432257859,0.0606076063276633,14.1413142861837,-2.92390823544089,-2.49875722899021,-0.561652447533313,-13.011276859106,-6.26359989188283,1.81556129866457,819.797127938777,916.028003829263
0.96,2.49476957898344,0.0864673609722731,14.6752289477159,-4.18764119317451,-2.49588063426016,0.0439512941767559,-14.6017539119711,-4.43705602003024,1.587834202213,832.330931057043,916.028003829263
0.97,2.45452796654604,0.0707417543279529,13.9379330278263,-3.38900919282702,-2.42860788581558,0.362733609300833,-14.2424705506265,-1.70393456792644,1.45134661366293,844.609962128928,916.028003829263
