t,iq,id,vq,vd,ia,ib,va,vb,theta_e,omega,r
0,0,0,0,0,0,0,0,0,0,0,0
0.01,0.00093208411770175,0.000518192622232879,-0.0455285364750302,-0.0259494065757082,0.000571021437625393,-0.000900688022558681,-0.0275872278811314,0.0445551814385722,-2.06915904286974,-0.00391641789160047,0
0.02,0.00102579845177954,0.000573508287309556,-0.0503888543857915,-0.0287194175212131,0.000626869543512285,-0.000994086915064644,-0.030530986933956,0.0493122745967864,-2.06918638904237,-0.00375118883929255,0
0.03,0.00105593110979209,0.000592368853364375,-0.0519715178593891,-0.0296638997904718,0.000644295547739238,-0.00102507297995137,-0.0314683826643947,0.0508991798742885,-2.06921130096462,-0.00333603215676345,0
0.04,0.00103145978884174,0.000581650021893049,-0.0508992229608306,-0.0291271356377432,0.000627905190310965,-0.00100397266693182,-0.0307821313980488,0.0499157421568496,-2.06923137074239,-0.00276803716077345,0
0.05,0.00104825134768856,0.000592515828325637,-0.0518025110561671,-0.0296712604913218,0.000637441025121594,-0.00102155510582603,-0.0313144873517615,0.0508260438433345,-2.06924929339224,-0.00244594423826066,0
0.06,0.00104549568820921,0.000592719565567916,-0.051750406204414,-0.0296814586521096,0.000634907700519299,-0.0010204263468239,-0.0312630720170564,0.0508105683701244,-2.06926454673322,-0.00209015724001645,0
0.07,0.00107297407233711,0.000609433991088455,-0.0531402575840948,-0.0305184799953424,0.000651038313026996,-0.00104825200423021,-0.0320829771388431,0.0522106040497381,-2.06927718199235,-0.00193801572478437,0
0.08,0.00104117800771688,0.000593036782627977,-0.0516677164629804,-0.0296973626068757,0.000630939591456596,-0.00101865573244135,-0.0311816361036796,0.0507857444584689,-2.06928827057383,-0.0015366435546793,0
0.09,0.00103859056895375,0.000592722420275516,-0.0515911979119243,-0.0296815976858299,0.000628808071404903,-0.00101714829142706,-0.0311215049577622,0.0507355976838234,-2.06929737242273,-0.00131982214560303,0
0.1,0.0010369583438382,0.000592714778012725,-0.0515530443088224,-0.0296812237997377,0.000627370358335928,-0.00101636600120812,-0.0310877850101784,0.050717265767374,-2.06930503035299,-0.00114000876249362,0
0.11,0.00103559655172124,0.000592713239636467,-0.0515215150743637,-0.0296811464780273,0.000626168487806354,-0.00101571759227434,-0.0310598030631549,0.0507023234722634,-2.06931147776056,-0.000988678341289546,0
0.12,0.00103445019412027,0.0005927120369531,-0.0514949733458035,-0.0296810964995636,0.000625156713758436,-0.00101517183082831,-0.031036240371588,0.0506897578697949,-2.06931690609544,-0.000861268422069934,0
0.13,0.0010846931999623,0.000621047621246943,-0.0539434342338119,-0.0311000366688455,0.000655730823955345,-0.00106408485207515,-0.0325079753856806,0.0531068537390901,-2.06932241680628,-0.000978198053909338,0
0.14,0.00114952148780131,0.000659469781057413,-0.0573084335514903,-0.0330240933312212,0.000694292861454805,-0.00112883013140939,-0.0345432107537571,0.0564057965753193,-2.06932688051951,-0.00118851834975691,0
0.15,0.00103416410156136,0.000593980879081345,-0.0515545722064198,-0.0297446181311188,0.000624284649993749,-0.00101615813211067,-0.0310575083844241,0.0507744758328873,-2.06933080554745,-0.00054771893541365,0
0.16,0.00103106966332648,0.000592732661997985,-0.0514181858993554,-0.0296821115815168,0.000622161247874984,-0.00101358376115348,-0.0309674879658466,0.0506544398666438,-2.06933320000113,-0.000479116216766947,0
0.17,0.00103058956552219,0.00059270844864379,-0.051405582148679,-0.0296809224012358,0.000621749141471402,-0.00101333418117446,-0.0309568858380937,0.0506474308315831,-2.06933519541685,-0.000432000947402957,0
0.18,0.00103023373410644,0.000592707623439264,-0.0513972935515218,-0.0296808753979702,0.000621435313996735,-0.00101316436193329,-0.0309495435270167,0.0506434783983134,-2.06933687497443,-0.000392573254635911,0
0.19,0.00102993517904865,0.000592707301295194,-0.0513903596972652,-0.0296808515685083,0.000621171820204275,-0.00101302220500575,-0.0309433934370821,0.050640185843301,-2.06933828905253,-0.000359382893786041,0
0.2,0.00102968360553588,0.000592707037132988,-0.0513845063666523,-0.0296808492880103,0.000620949788433088,-0.00101290242354397,-0.030938193373097,0.0506374219309294,-2.06933947962273,-0.000331438684379372,0
0.21,0.00102947201272317,0.000592706814833234,-0.0513795840766056,-0.029680825286599,0.000620763041750543,-0.00101280167818121,-0.0309338309439142,0.0506350782828657,-2.06934048201267,-0.000307911305889489,0
0.22,0.00102929378086563,0.000592706627654125,-0.0513754306822592,-0.0296808257604699,0.000620605739159825,-0.00101271681644756,-0.030930140143841,0.0506331188679243,-2.06934132596573,-0.000288102636620283,0
0.23,0.00102914388817321,0.000592706470047549,-0.0513719371704078,-0.029680801635667,0.000620473447341271,-0.00101264544799497,-0.0309270474236577,0.0506314492388967,-2.06934203652482,-0.000271424901802338,0
0.24,0.00102901757754915,0.000592706337342829,-0.0513689853660779,-0.0296808019978724,0.000620361969065999,-0.00101258530730405,-0.0309244244537977,0.0506300566558896,-2.06934263477307,-0.000257383229698441,0
0.25,0.00102891117394511,0.000592706225606713,-0.0513664922316648,-0.0296808023156349,0.000620268060483825,-0.00101253464478293,-0.0309222091340787,0.0506288804197148,-2.06934313846295,-0.000245560967406878,0
0.26,0.00103934433694617,0.000598401288203353,-0.0518708128367798,-0.0299659967815278,0.000626707811559808,-0.00102252534022166,-0.0312287584752525,0.0511205128256077,-2.06934350736072,-0.000287258494903939,0
0.27,0.00100077292496539,0.000576866025496013,-0.0500169588696784,-0.0288875634884139,0.000603127806783038,-0.000985168872529188,-0.030116178788839,0.0492869483131886,-2.06934418084928,-8.73466027045419e-05,0
0.28,0.000992830606165575,0.000571717180277086,-0.0494334000580481,-0.0286297287590996,0.00059861382327008,-0.000976849342198204,-0.0297269186525848,0.0487814792471615,-2.06934453371008,-4.13721357100786e-05,0
0.29,0.00102782481832837,0.000592306053145793,-0.0513210007968854,-0.0296607523107261,0.000619503950522187,-0.00101166455559751,-0.0308917754028819,0.0505895598210743,-2.06934445285398,-0.000210835129294355,0
0.3,0.00102421604210413,0.000590427324310986,-0.0511417355381001,-0.0295666853810596,0.000617233810127535,-0.00100828832673592,-0.0307793614880652,0.0504211949943527,-2.06934341007496,-0.000216967649390783,0
0.31,0.00102867612946664,0.000592662672100102,-0.0513582963637606,-0.0296786264619463,0.00062008182758318,-0.00101238438813348,-0.0309160200860853,0.0506230696036143,-2.06934375436187,-0.000230602418948954,0
0.32,0.00102870977539957,0.000592705189481976,-0.0513616075754044,-0.0296807596698622,0.000620090718422777,-0.00101243802011156,-0.0309178917577594,0.0506265364859718,-2.06934408025465,-0.000223444121615676,0
0.33,0.00102865417915387,0.000592705939851673,-0.0513603537725395,-0.0296807760928245,0.000620041252067537,-0.00101241226640174,-0.0309167687856809,0.0506259599115468,-2.06934435545157,-0.000216995976470159,0
0.34,0.00102860528471875,0.000592705903899288,-0.0513591924563719,-0.0296807762832615,0.00061999809177554,-0.0010123889995763,-0.0309157370056797,0.0506254119582578,-2.0693445871691,-0.000211557495085525,0
0.35,0.00102856407369486,0.000592705860906983,-0.0513582075631713,-0.0296807764563981,0.000619961720105453,-0.00101236937767454,-0.0309148620366475,0.0506249472139134,-2.06934478226211,-0.000206978398295776,0
0.36,0.001028529381929,0.000592705824467173,-0.0513573736260701,-0.0296807766148138,0.000619931102244474,-0.00101235285958924,-0.0309141212172471,0.0506245536828878,-2.06934494651886,-0.000203123063173347,0
0.37,0.00102850016168325,0.00059270579378176,-0.0513566659122549,-0.0296807767608748,0.000619905313432938,-0.00101233894666883,-0.0309134925772852,0.0506242196920207,-2.06934508481288,-0.00019987709757607,0
0.38,0.00102847548163504,0.000592705767946081,-0.051356061173422,-0.0296807768966928,0.000619883531986639,-0.00101232719535373,-0.0309129554894573,0.0506239342539312,-2.06934520124865,-0.000197144185396628,0
0.39,0.0010284548761231,0.000592705746193726,-0.051355555712044,-0.0296807770233183,0.000619865345794127,-0.00101231738445804,-0.0309125065309106,0.0506236957084052,-2.06934529928028,-0.000194843234030991,0
0.4,0.00102843741382485,0.000592705727879569,-0.0513551194403397,-0.0296807771428569,0.000619849934258398,-0.00101230906990694,-0.0309121191279284,0.050623489760745,-2.0693453818169,-0.000192905968272481,0
0.41,0.00102842274549431,0.000592705712459657,-0.0513547488370755,-0.0296807772560941,0.000619836988424521,-0.0010123020857497,-0.0309117900635042,0.0506233148037031,-2.06934545130782,-0.000191274904409625,0
0.42,0.00102841028905489,0.000592705699477374,-0.0513544264854864,-0.0296807773643435,0.000619825995198593,-0.00101229615454322,-0.0309115039358774,0.0506231625743314,-2.0693455098148,-0.000189901644541734,0
0.43,0.00102839992809126,0.000592705688546949,-0.0513541564203125,-0.0296807774678633,0.000619816850761932,-0.00101229122136151,-0.0309112642006293,0.0506230350557692,-2.06934555907431,-0.000188745440475615,0
0.44,0.00102839119694213,0.000592705679343952,-0.0513539236547868,-0.0296807775677076,0.000619809144810582,-0.00101228706416896,-0.030911057620745,0.0506229251281708,-2.06934560054753,-0.000187771984634861,0
0.45,0.00102838374636154,0.000592705671595715,-0.0513537177192549,-0.0296807776646577,0.000619802569494117,-0.00101228351649665,-0.0309108749382839,0.0506228278241895,-2.06934563546521,-0.000186952392055308,0
0.46,0.00102837757634949,0.000592705665072098,-0.0513535444806233,-0.0296807777587135,0.000619797123873066,-0.00101228057878519,-0.0309107212535346,0.0506227459811475,-2.06934566486399,-0.000186262343292292,0
0.47,0.00102837233766001,0.000592705659579674,-0.0513533914214632,-0.0296807778506593,0.000619792500422299,-0.00101227808441276,-0.0309105855282019,0.0506226736414614,-2.06934568961594,-0.000185681362807422,0
0.48,0.00102836803029311,0.000592705654955301,-0.0513532627234621,-0.0296807779405061,0.000619788698476527,-0.00101227603369125,-0.0309104713977908,0.0506226128273216,-2.06934571045528,-0.000185192211400177,0
0.49,0.00102836418858749,0.000592705651061996,-0.0513531386199493,-0.029680778029304,0.000619785308495581,-0.00101227420422683,-0.0309103614698801,0.0506225541072938,-2.0693457280004,-0.000184780374677179,0
0.5,0.00102836116178913,0.000592705647784008,-0.0513530395213986,-0.0296807781162649,0.000619782636741989,-0.00101227276323356,-0.0309102736445164,0.0506225072561049,-2.06934574277241,-0.000184433632369957,0
0.51,4.62932301999668,0.039440091947413,8.53531501313127,-1.96310083114298,-1.13138217079135,4.48911589602446,-4.0557643822189,7.76248301270559,0.255405721358436,78.4554272310562,2994.1399736049
0.52,4.5295673406773,0.00359544545476997,13.5249532694796,-0.151280685262156,-4.14293680548792,1.83113840183968,-12.4358827142242,5.3194048450366,1.15541686687582,167.59045868156,2994.1399736049
0.53,4.5434407398401,0.058722695920479,12.8334009056595,-2.9126973627495,-1.86738335043651,-4.14236424448254,-2.45192580381486,-12.9293481887115,2.7309965322942,264.145167808749,2994.1399736049
0.54,4.55890450120272,-0.0288578810531266,12.0624996955038,1.49681080286509,4.35044528440025,1.36310999403018,11.9717877990667,2.10253142133949,-1.27348854480933,355.406723858223,2994.1399736049
0.55,4.42993637795384,-0.0079353278643377,18.5134192211499,0.442432667972278,-4.41017403197316,-0.418048190830523,-18.4748623518239,-1.27353798721968,1.66351440437691,448.446139212122,2994.1399736049
0.56,4.45334289593137,0.010894462757872,17.345726486536,-0.451934832942253,3.76396332177525,2.3801180118624,14.3953607350191,9.6877273778536,-1.0044873096494,537.708099800935,2994.1399736049
0.57,4.41830138890444,-0.00795159995798822,19.1006343036051,0.502937291308058,0.618114234014125,-4.37485830454495,2.13998919292802,-18.9870382886114,-3.00303355706874,628.894470983838,2994.1399736049
0.58,4.37748086626427,0.0597341750928984,21.1446479808442,-2.87178955411486,-4.09293444732608,-1.55363912028354,-18.6084405170037,-10.443622695314,1.94723041816634,719.812351440323,2994.1399736049
0.59,4.35293157953041,0.059914509888527,22.3753617865594,-2.86249838576862,-4.14936691706696,1.31694998846522,-22.2464131913746,3.73467698825248,1.27722988843713,810.395357340908,2994.1399736049
0.6,4.30213338443266,0.0660793241830855,24.9186606940668,-3.22194955104384,-4.08847215685897,1.34056464115815,-24.7514688824993,4.32266096914488,1.26931219523251,901.656269232019,2994.1399736049
0.61,4.34115797697228,0.149671869636524,22.9708795255734,-7.34912382200034,-4.12976013999579,-1.34652717599479,-19.0634029499068,-14.7735437556121,1.92044551010093,990.477790607558,2994.1399736049
0.62,4.27565861852373,0.0437965900967141,26.2495111174763,-2.09136428359887,0.323682275388504,-4.26361402428265,4.33869803566068,-25.9727999612783,-3.05557777034844,1080.79906552332,2994.1399736049
0.63,4.18992653824993,0.0498791103261431,30.539864081388,-2.30641746209752,3.74351258217452,1.88257426644449,26.0581350192932,16.0927455375212,-1.09293558825869,1168.99265129177,2994.1399736049
0.64,4.19315276779973,0.112823509877089,30.3825013064761,-5.46130333879318,-4.18290641805828,0.313931801916161,-30.6095915165966,-3.99688966365506,1.52278576328188,1257.9618585251,2994.1399736049
0.65,4.20038415615951,0.140457642859345,30.0249835156078,-6.83953513757635,4.19887569771226,0.17999523303359,29.4165686277512,9.10737976475486,-1.49452829083507,1346.71612193816,2994.1399736049
0.66,4.16946671405547,0.143446944978236,31.5750433637025,-6.96382083393152,-2.86196349212574,-3.03548919869262,-15.6297474609929,-28.3052849894216,2.42000042596598,1434.96226176412,2994.1399736049
0.67,4.06674779722146,0.150980723089755,36.7153102097554,-7.31936190193937,-2.49852922420543,3.21225536667646,-29.2080659090188,23.4195633670772,0.698172815293823,1523.22004985098,2994.1399736049
0.68,4.09703073592287,0.136447189051179,35.2055642350758,-6.68012133521104,1.63993968701932,3.75697704403895,6.79448807422456,35.183671013304,-0.3782834670097,1611.72153907097,2994.1399736049
0.69,4.02225090400251,0.16832267086901,38.949016051085,-8.17008582861252,3.0322021749471,2.64812855173678,22.6126085859268,32.7482226500041,-0.811086588424001,1698.76249919947,2994.1399736049
0.7,4.09628078849086,0.0589113995948767,35.2520842029105,-2.76181668334231,2.36810680041994,3.34291146053352,17.6853951477598,30.6196647680714,-0.601958314331742,1786.70621479581,2994.1399736049
0.71,3.93499685763948,0.052491716203777,43.3207510617414,-2.47684182662276,-0.911661235973811,3.82829328039602,-12.9984909270832,41.3988097848961,0.247122352062175,1873.99748506557,2994.1399736049
0.72,3.87760390572998,0.181096379839118,46.1949001677722,-8.83227619924027,-3.8553331736773,-0.452784792662652,-44.1399181177009,-16.2371651753858,1.73437378973154,1960.61993285371,2994.1399736049
0.73,3.86588898412191,0.103791381503666,46.7850151178386,-4.96106872794575,2.46131184101831,-2.98292043301404,34.4743174252954,-32.0151726617203,-2.42487077846138,2047.31590299355,2994.1399736049
0.74,3.68440609330924,0.0539281586804474,44.0486984097714,-2.54565452109091,-1.14357620948853,3.50285454448294,-16.6899977652948,40.8437530490307,0.33019652563594,2132.18070333836,2994.1399736049
0.75,3.31134471022303,0.108298844926321,45.4319556102609,-5.2420388290921,1.60823048096842,-2.89660614337167,27.837283087173,-36.285358369224,-2.60206297427087,2209.81532701785,2994.1399736049
0.76,2.99478900706228,0.142333339585529,45.5489726520721,-6.85637322109211,0.51701091684468,-2.95325577765321,16.6655994069649,-42.9415481767098,-2.92079291974378,2280.45676693204,2994.1399736049
0.77,2.67289986150156,0.076370704732232,47.3381029241667,-3.72013383278146,-2.65232470035333,0.339705516664025,-47.4741785575872,0.968377238031527,1.47197590154151,2345.62436464305,2994.1399736049
0.78,2.37737912731062,0.155772741529552,48,-7.55672722499628,0.0722617783110359,2.38138088036567,-9.23624918703899,47.7053018783858,0.0350941807902645,2404.39318482646,2994.1399736049
0.79,2.21685192913898,0.115508147517578,45.037823254709,-5.65224580948219,1.91419440408613,1.12411493684387,34.4850037323077,29.5150457190216,-0.987745412066971,2458.56420593561,2994.1399736049
0.8,1.89681087683055,0.0330691867488851,48,-1.6149387027183,1.89122102724127,-0.149224996885179,48.0087660330184,-1.32906395648942,-1.63210490470022,2507.92325890245,2994.1399736049
0.81,1.69356453625615,0.0982040548525972,48,-4.71515484456171,1.54967201493101,-0.690160503791445,46.5707263959656,-12.5459207776995,-1.93186242359662,2552.60243557045,2994.1399736049
0.82,1.54958812518331,0.140595220534848,48,-6.84230437420295,1.41012881739961,-0.657667919306965,47.4766769094474,-9.83779847248281,-1.91671211395624,2593.77040510835,2994.1399736049
0.83,1.36009428656539,0.126527708345031,48,-6.16498453524138,1.35332544229809,-0.185407595733144,48.2222462664266,4.07700862641599,-1.61418854348969,2631.00069772484,2994.1399736049
0.84,1.2952215169649,0.0872636101452099,45.1624302898805,-4.20919958612373,1.16717474373866,0.568257717275372,37.0920337086207,26.1063882259245,-1.05043916543065,2665.15821863101,2994.1399736049
0.85,1.11486892689091,0.0580404774531594,47.2551520192941,-2.75392753269895,0.329741997480976,1.06657003345638,8.92179114364409,46.4869352830572,-0.247826763289444,2696.22621467565,2994.1399736049
0.86,0.955876237999075,0.117099820912383,48,-5.71054811573083,-0.583049528718752,0.766462652377673,-37.5815248687953,30.4013050430108,0.772212997856824,2724.5515581112,2994.1399736049
0.87,0.812814083864354,0.119887151709604,48,-5.85484416382795,0.573446049501076,-0.588387026016805,41.7109188801048,-24.4638191286648,-2.22261306703819,2750.55592399132,2994.1399736049
0.88,0.618004464717579,0.0350589981197409,48,-1.82003423965151,0.476505293535215,0.395096642598922,33.9166772120012,34.0142842278126,-0.821860532323399,2774.12517854531,2994.1399736049
0.89,0.607581956754784,0.0151948822119791,48,-0.822146569526491,-0.399953538763114,0.457628545274736,-33.0861674320334,34.7847876181706,0.743249804675406,2795.53400596589,2994.1399736049
0.9,0.548609100975187,-0.0149062356621496,48,0.744325496130207,-0.334792166121125,-0.434865895464732,-30.8809720651623,-36.7548579748971,2.4583284481629,2815.03743191306,2994.1399736049
0.91,0.488760071923525,0.00672038081960963,47.9144451432731,-0.252128408192711,0.447243303306515,-0.197243501977953,44.200537614427,-18.497840325767,-1.9724089349346,2832.98481382858,2994.1399736049
0.92,0.248300214700719,0.0968884292192958,48,-4.75086078236804,0.0955616559038754,0.248813854634172,-5.00701061316069,47.9739567150046,0.00533789022255356,2849.29157746901,2994.1399736049
0.93,0.289277535030872,-0.0349348458216234,48,1.65560427557288,-0.232716281073251,-0.175342716556901,-42.3533882181948,-22.6479917863853,2.09632517264323,2863.84825904186,2994.1399736049
0.94,0.322481839566728,-0.00396536788524763,46.2337706377538,0.211322979152116,0.29566084007345,-0.128821305069729,42.0682199140175,-19.1799655383373,-1.993996073433,2877.258990114,2994.1399736049
0.95,0.107303094593716,0.0685377663118361,48,-3.34205706596797,0.0345818686522639,0.122537642709991,-17.0790606105119,44.9830527431681,0.293351316846085,2889.6036638126,2994.1399736049
0.96,0.120781140229366,-0.0204117678750526,48,0.907057766245015,-0.0370800654742321,-0.11674670379637,-22.7568008022743,-42.2723404963212,2.66664196620354,2900.65395757459,2994.1399736049
0.97,0.168416977732026,0.00664533234423705,46.333173051656,-0.323885785268909,-0.128148530204727,0.109482386879001,-36.587237273202,28.4295954201079,0.903225344321755,2910.74477670427,2994.1399736049
0.98,0.00677133000351247,0.0109342757368633,48,-0.465535604499032,-0.00860743517328256,-0.00955622078250414,13.8556524865331,-45.9590863439591,-2.85847882122594,2920.04830165107,2994.1399736049
0.99,0.021618446208875,-0.00672085448825295,48,0.237180465615277,-0.000657273169806272,0.0226295181901547,13.1414372416096,46.1666425224762,-0.272376253627455,2928.31258252708,2994.1399736049
