t,iq,id,vq,vd,ia,ib,va,vb,theta_e,omega,r
0,0,0,0,0,0,0,0,0,0,0,0
0.01,0.00107830485200967,0.000592958746711526,-0.0529782739226334,-0.029678699642896,0.000873601086795134,-0.000866696354163129,-0.0427707687502595,0.0431066591239293,-1.84946129698863,-0.00213180302555196,0
0.02,0.0012067711423042,0.000664375678354841,-0.0595052802444326,-0.0332532410454192,0.000977451958313561,-0.000970710719564085,-0.0480619907191711,0.0483394400578195,-1.84947656202758,-0.00206757799728234,0
0.03,0.00125214065657127,0.000692890435024394,-0.0618431772050455,-0.0346804630457865,0.00101321291687714,-0.00101062008878725,-0.0499163757557165,0.0503554219056791,-1.84949054285711,-0.00184736363316537,0
0.04,0.00121527216746437,0.000677415580931435,-0.0601482044479967,-0.0339059204625705,0.00098201290295795,-0.000985610962158154,-0.0484993204098236,0.0491450288484749,-1.8495019242981,-0.00150332124497406,0
0.05,0.00123894338182058,0.00069369238007217,-0.0613917645390608,-0.0347205898415939,0.00100028275488335,-0.00100778183740837,-0.0494702701354987,0.0502708711371552,-1.84951185949156,-0.00132769714670841,0
0.06,0.00123521971449482,0.000694704432824237,-0.0612863644743941,-0.0347712680862291,0.000996415827748813,-0.00100773880061946,-0.0493545696316843,0.0502910132258629,-1.84952031471604,-0.00112494615246078,0
0.07,0.00126120864203896,0.000712107745462759,-0.0626156465869475,-0.0356423381283998,0.0010166064820977,-0.00103162781101458,-0.0503925384134233,0.0514945389047455,-1.84952722826416,-0.00102398347043809,0
0.08,0.00122843959139841,0.000695847329876038,-0.0610728603717256,-0.0348284751988086,0.000989569827539189,-0.0010069850508497,-0.0491329118771394,0.0502879103675185,-1.84953332015711,-0.000810732483105316,0
0.09,0.00122279399456418,0.000694828076750554,-0.0608420978927959,-0.0347774493658292,0.000984417605993175,-0.00100445666227755,-0.0489248473994697,0.0501756033080618,-1.84953826089536,-0.000684509833066396,0
0.1,0.00121970400803246,0.000694761838732478,-0.0607284949156151,-0.0347741278827278,0.000981460981249705,-0.00100354682105707,-0.0488163367933667,0.0501413534599615,-1.84954237588446,-0.000582981369530237,0
0.11,0.00121724489661345,0.000694755576725005,-0.0606395291549623,-0.0347738144805791,0.00097909506612613,-0.00100286753921415,-0.0487307190567865,0.050116740615026,-1.84954581143952,-0.000498486307043986,0
0.12,0.00121520024151645,0.000694753411124866,-0.0605656654444773,-0.0347737127171919,0.000977127054491482,-0.00100230566626757,-0.0486595907430076,0.0500964585134833,-1.84954868036612,-0.000427947256916581,0
0.13,0.00127218474467529,0.000727108046440562,-0.0633693434419447,-0.0363931315891522,0.00102300637590034,-0.00104909393795331,-0.050909303662913,0.0524249608076707,-1.8495515078874,-0.000490148793473102,0
0.14,0.00131883934982957,0.00075553262217669,-0.0657988357371335,-0.0378158297722358,0.00106003616582149,-0.00108926126387683,-0.0528534157429371,0.0544613643790645,-1.84955390087926,-0.000539279911525044,0
0.15,0.00121802302966691,0.000698547221256378,-0.0607690646081858,-0.0349635858685911,0.000978789632613209,-0.00100673689522778,-0.0488025259017977,0.0503353257240734,-1.84955598905643,-0.000266176496707524,0
0.16,0.00120971703443581,0.000694985082726605,-0.060375184561823,-0.0347853073019117,0.00097178320679907,-0.00100102795545379,-0.0484728446950684,0.0500556074993641,-1.84955722093623,-0.000219304050789555,0
0.17,0.00120845576000246,0.00069476184767721,-0.0603225921010978,-0.0347741363565216,0.000970631056649477,-0.00100046724121207,-0.0484253067504032,0.0500304441641961,-1.84955821137793,-0.000193712173974382,0
0.18,0.00120782721524735,0.000694747384623131,-0.0602993513758886,-0.0347734110821236,0.000970029930955045,-0.0010002811821604,-0.0484031215292774,0.0500233917368788,-1.84955903561995,-0.000173354130454584,0
0.19,0.00120733406229478,0.000694746053442386,-0.0602814851739685,-0.0347733402150091,0.00096955549346288,-0.00100014487042975,-0.0483859301054529,0.0500184407225813,-1.84955972371964,-0.000156429178304295,0
0.2,0.00120692449558846,0.000694745613354082,-0.0602666716424513,-0.034773306947106,0.000969161283959431,-0.00100003230497835,-0.0483716688445346,0.0500143603387205,-1.84956029832675,-0.000142301036056314,0
0.21,0.0012065825837889,0.000694745287759996,-0.0602543028845164,-0.0347733080763423,0.000968832181001479,-0.000999938373812774,-0.0483597532582918,0.0500109811488276,-1.84956077817255,-0.000130503229793324,0
0.22,0.0012062973486493,0.000694745018443344,-0.0602439848806925,-0.0347732773619948,0.000968557630485375,-0.000999860015421524,-0.0483498219817854,0.0500081318100266,-1.84956117888553,-0.000120651065002251,0
0.23,0.00120605881365533,0.000694744793676394,-0.0602353479472091,-0.0347732781798141,0.000968328031172835,-0.000999794486072562,-0.048341501509611,0.0500057721617051,-1.8495615135158,-0.000112423651088517,0
0.24,0.00120585962704006,0.000694744605966698,-0.0602281323618872,-0.0347732788759777,0.000968136306246279,-0.000999739766225604,-0.0483345503101948,0.0500038008345242,-1.8495617929611,-0.000105553043571221,0
0.25,0.00120569371760843,0.000694744449199473,-0.060222124610311,-0.0347732507242571,0.000967976611450517,-0.000999694188268938,-0.0483287705605266,0.0500021319007485,-1.84956202632233,-9.98154874873343e-05,0
0.26,0.00121822265159032,0.000701694978654925,-0.0608341854102071,-0.0351211404275255,0.000978109165556125,-0.00100982410952224,-0.0488214677708179,0.0505050186036636,-1.84956216384565,-0.00012462521305915,0
0.27,0.00118149197062091,0.000680886253521046,-0.0590467570195458,-0.0340796370481386,0.000948521999200814,-0.000979711888213927,-0.0473896130545266,0.0490118939687132,-1.8495625395032,-3.39819104901526e-05,0
0.28,0.00117993158402441,0.000679730969243979,-0.058845712664093,-0.0340218197605625,0.000947339621046673,-0.00097817195621366,-0.0472122330250554,0.0489009935640685,-1.84956267083389,-2.74779312624937e-05,0
0.29,0.00120337187191396,0.00069380577586993,-0.0601142668385851,-0.0347262880824626,0.000966002091140795,-0.000998153433423838,-0.0482379691326165,0.0499273321487092,-1.84956262901414,-8.07725031066135e-05,0
0.3,0.00119387638902838,0.000688995847438944,-0.0596460893448015,-0.0344855212894529,0.000958197298341805,-0.000990915762069621,-0.0478541458941249,0.049567003878358,-1.84956204760671,-7.29426192751506e-05,0
0.31,0.00120470288439882,0.000694385078251686,-0.0601750855474301,-0.0347552694201798,0.000967122764687894,-0.000999076190588026,-0.0482884877167468,0.049971908380003,-1.84956217814585,-9.41119388711978e-05,0
0.32,0.00120540174657867,0.000694721782930007,-0.060210625759894,-0.0347721259558641,0.000967701831801232,-0.000999592362446261,-0.0483180092605496,0.0499979017458326,-1.84956234343508,-9.18712373312851e-05,0
0.33,0.00120536135177461,0.000694742737320203,-0.0602099159743681,-0.0347731796443746,0.000967657088217044,-0.000999601530128078,-0.0483170298210267,0.0499987263187217,-1.8495624856747,-8.85103976023939e-05,0
0.34,0.0012052810252861,0.000694743972855939,-0.0602070509641492,-0.0347732469084373,0.000967579403648402,-0.00099958072979113,-0.0483142509489144,0.0499980083763356,-1.84956260477186,-8.5592397772312e-05,0
0.35,0.00120521047760484,0.000694743988229188,-0.0602044860465225,-0.0347732501186989,0.000967511475747635,-0.000999561428230261,-0.0483117791911558,0.0499973104809501,-1.84956270425192,-8.31472819925279e-05,0
0.36,0.00120515133862146,0.000694743937542686,-0.060202329623733,-0.0347732503833103,0.000967454550696631,-0.000999545186607284,-0.0483097017893651,0.0499967213661816,-1.84956278732819,-8.11047741208606e-05,0
0.37,0.00120510219375712,0.000694743891243947,-0.0602005373733563,-0.0347732218854443,0.000967407246436643,-0.000999531686021447,-0.048307983100952,0.0499962041464484,-1.84956285670422,-7.93990554302292e-05,0
0.38,0.00120506086631795,0.000694743852331558,-0.060199022767879,-0.0347732220955697,0.000967367467219474,-0.000999520332584006,-0.0483065240116098,0.0499957903731023,-1.84956291463921,-7.79746281737216e-05,0
0.39,0.00120502640738276,0.000694743819820191,-0.0601977570602273,-0.034773222284138,0.000967334299140914,-0.000999510866060849,-0.0483053046951745,0.0499954446065896,-1.84956296302003,-7.67851070061413e-05,0
0.4,0.00120499765279832,0.000694743792668705,-0.0601966976060668,-0.0347732224548087,0.000967306621700563,-0.000999502966636618,-0.0483042840737837,0.0499951551921491,-1.8495630034221,-7.57917531369411e-05,0
0.41,0.00120497355482675,0.000694743769995185,-0.060195805051087,-0.0347732226108465,0.000967283426534951,-0.000999496346431413,-0.0483034242456781,0.0499949113673981,-1.84956303716131,-7.49622160773549e-05,0
0.42,0.00120495353139144,0.000694743751060215,-0.0601950611566789,-0.0347732227540882,0.000967264153143197,-0.00099949084562796,-0.0483027076208918,0.0499947081684891,-1.84956306533647,-7.42694803322001e-05,0
0.43,0.00120493676758513,0.000694743735248025,-0.0601944342652641,-0.0347732228871027,0.000967248017329232,-0.000999486240284252,-0.0483021037173817,0.049994536931015,-1.84956308886518,-7.36909856075313e-05,0
0.44,0.00120492268133121,0.000694743722042993,-0.0601939028551082,-0.0347732230117123,0.000967234458863078,-0.000999482370476035,-0.0483015918054326,0.0499943917716162,-1.84956310851373,-7.32078920925683e-05,0
0.45,0.00120491103979905,0.000694743711015662,-0.0601934616234846,-0.0347732231286387,0.000967223253381155,-0.000999479172341383,-0.0483011667548451,0.0499942712627423,-1.84956312492179,-7.28044669026767e-05,0
0.46,0.00120490126091204,0.000694743701807085,-0.0601930867458964,-0.034773223239723,0.000967213840841924,-0.000999476485882409,-0.0483008056336144,0.0499941688762042,-1.84956313862406,-7.24675717094946e-05,0
0.47,0.00120489311183953,0.000694743694116813,-0.0601927709821934,-0.0347732233456877,0.00096720599703994,-0.000999474247173681,-0.0483005014585965,0.0499940826419685,-1.84956315006651,-7.21862348594046e-05,0
0.48,0.00120488624333555,0.000694743687695175,-0.0601925005868798,-0.0347732234476298,0.000967199385907759,-0.000999472360233738,-0.0483002409959924,0.0499940087967486,-1.84956315962194,-7.19512940696268e-05,0
0.49,0.00120488065540012,0.00069474368233227,-0.0601922786212444,-0.0347732235455523,0.000967194007192066,-0.000999470825161885,-0.0483000271733497,0.0499939481979584,-1.84956316760159,-7.17550980335745e-05,0
0.5,0.00120487588237193,0.000694743677853736,-0.0601920843792525,-0.0347732236409205,0.000967189412996536,-0.000999469513905596,-0.0482998400705908,0.0499938951618683,-1.8495631742652,-7.15912572442412e-05,0
0.51,4.69717158899598,-0.00447639652897092,5.14252566909487,0.234158935127485,-0.399288373812745,4.68017198072196,-0.198932481737883,5.14400879975037,0.084155802849864,25.8457456030452,2832.83853078592
0.52,4.59631698593208,-0.000894855106367221,10.186535295877,0.0682824621161627,-1.70829432844725,4.26706703993837,-3.72075051017854,9.48294149880651,0.380608131631091,55.1390798961081,2832.83853078592
0.53,4.58605735725456,0.0790901107474813,10.7010682105894,-3.92286244147551,-3.53437834761292,2.92341359126137,-10.8100324266997,3.61177373545574,0.896970383516544,86.3405308016889,2832.83853078592
0.54,4.55312465068127,0.0803695964025586,12.3493876038686,-3.98502948057961,-4.54584185972808,-0.269675996357368,-12.0067247937911,-4.92203147875298,1.64770023781494,117.665133164425,2832.83853078592
0.55,4.57557433897874,0.0109540525474844,11.228657578521,-0.482871053414101,-2.30316509835441,-3.95366046247146,-5.21098816401718,-9.95798763929616,2.61650440045983,147.077594639081,2832.83853078592
0.56,4.49560612073182,-0.007731585393836,15.2291389414505,0.450803415414938,2.79348917392724,-3.52235040921902,9.08887584824962,-12.2279283786118,-2.47280817125544,177.784521778556,2832.83853078592
0.57,4.56673371564595,0.0853066470025505,11.6748960192653,-4.20883820253557,4.02478505498704,2.15949978346681,8.12388590014548,9.38189714062125,-1.05965991700995,208.33234843057,2832.83853078592
0.58,4.56720936283661,0.0723729132093145,11.6534242407107,-3.55578660014848,-2.42139545614905,3.87317482790146,-9.31812772190777,7.84973952676095,0.574566937405708,238.242767982918,2832.83853078592
0.59,4.44998657758116,0.0558345192803804,17.5169987311228,-2.72196576671724,-2.9516464536301,-3.33065777992405,-9.39297776782165,-15.0341714382452,2.42899790356083,268.13695288725,2832.83853078592
0.6,4.5047015884187,-0.00116270576655597,14.7838592930051,0.140645793077543,4.40646483203398,-0.935631036592108,14.4314174172009,-3.21192592769403,-1.78027854921376,298.058714728495,2832.83853078592
0.61,4.45028241167571,0.0760594679394151,17.5075472363872,-3.70447664708755,-2.11479002085087,3.9164348269878,-11.8095334749378,13.4451581086825,0.512205768993375,327.711041448092,2832.83853078592
0.62,4.44125812508661,0.0560204331100205,17.961550008782,-2.6586868382933,-0.584666084565146,-4.40296236551403,0.500169137338627,-18.1503643284686,3.02218870740592,357.081410743708,2832.83853078592
0.63,4.43105595344862,0.0339268423821744,18.4746707689819,-1.59494989847632,2.28356532750585,3.79746458683154,8.02612671984955,16.7164175312129,-0.533747365127891,387.054826190754,2832.83853078592
0.64,4.35145397518226,0.0725351016053919,22.4578859728065,-3.46645693512769,-2.95922169491536,-3.19114712908018,-12.4131540920135,-19.0338270334319,2.41055344345371,416.220796239005,2832.83853078592
0.65,4.39075194367443,-0.0152375757394889,20.4962386314603,0.895199448771307,2.85884898852083,3.33255416691591,14.0764885591154,14.9247998290074,-0.71250714954456,445.947834823997,2832.83853078592
0.66,4.3102742181114,0.0493234503839017,24.5234630975856,-2.34771839843931,-2.02821774752557,-3.80358112923806,-9.20640047725274,-22.8506939550958,2.66315151190249,475.319955410769,2832.83853078592
0.67,4.28636965794579,0.126590424615569,25.7221048755912,-6.18008398903448,0.252303634238427,4.28080983650439,-5.42270283442701,25.8923620265114,-0.0293455245049652,504.511725836526,2832.83853078592
0.68,4.30218818491112,0.0653394377671963,24.9347726918627,-3.10667241914618,2.4966542162433,-3.50425600449384,17.2777627357668,-18.2448134427649,-2.5073645405734,533.712954577122,2832.83853078592
0.69,4.26272354357613,0.102890624708599,26.9117111812983,-5.00997391878498,-4.24922203789478,0.354274698899793,-27.1604692781152,-3.41305522444108,1.51174730586703,562.945080565674,2832.83853078592
0.7,4.20226620944464,0.0836961734483366,29.9383026856953,-4.02314291874325,2.22794730641563,3.56402821878916,11.9075845891768,27.7614314453802,-0.538771722787849,592.035815139076,2832.83853078592
0.71,4.30677609022198,0.138547920469858,24.7166780191473,-6.69345935143307,2.88271548380253,-3.20272809601742,21.9460035361724,-13.1942979798773,-2.37657400643053,620.842680880173,2832.83853078592
0.72,4.18229043623203,0.0628841415097277,30.9448888474831,-2.99062270224423,-3.21126156663836,-2.68016918474985,-21.5061560179198,-22.4502833671015,2.28132558870049,650.049667424213,2832.83853078592
0.73,4.19564409314572,0.222033337530905,30.2811563762795,-10.8546051461788,-3.05964222146077,2.87946481763162,-30.1283164270328,11.2718868711823,0.868596964705459,678.797337588592,2832.83853078592
0.74,4.22451448645824,0.113110530091496,28.8417277341999,-5.45815826374875,1.48473238617619,3.95662563047765,4.24689874146163,29.0448033459622,-0.332223335213472,707.843783913586,2832.83853078592
0.75,4.07599328680125,0.1223180690138,36.2719863006007,-5.95121822114422,3.98029889948644,0.886512072564807,33.6845635722528,14.7113617810692,-1.32164792864026,736.683491453576,2832.83853078592
0.76,4.07896442506943,0.140049079634166,36.1277172397598,-6.83173625300286,3.44990481212091,-2.18076163598714,34.6325385711278,-12.3479490323688,-2.1001798955648,765.371546900905,2832.83853078592
0.77,4.04853686636423,0.146145127344516,37.6534656143764,-7.13294642601793,1.71565231463432,-3.66995181056192,23.514742386588,-30.2608540524201,-2.66821003115147,794.055141238996,2832.83853078592
0.78,4.06927253745987,0.172216861339776,36.6211039180932,-8.4291830185286,3.82340228657318,1.40364973781986,30.5763131221722,21.8459482374768,-1.1766554056627,822.723811092956,2832.83853078592
0.79,4.11086147558395,0.21303954027921,34.5461376541994,-10.4206129948572,4.03908442792085,0.79395522625015,30.9708008698788,18.5157850357416,-1.32492556406506,851.249611598322,2832.83853078592
0.8,4.02779871300839,0.241748192167797,38.7037546511085,-11.7718624119543,3.9125398125927,0.986730396717116,33.3368338989668,22.9175233027455,-1.26380305546575,879.686929910188,2832.83853078592
0.81,4.03145774749106,0.182948546202111,38.52529813231,-8.94925377635478,3.47802903674983,2.04681111973923,27.3985989926835,28.5237534797771,-0.993528406077427,908.35521436162,2832.83853078592
0.82,4.08660594211283,0.212418071502048,35.7723440649013,-10.2780595669441,2.19572977093589,3.45314933593066,8.6539504263946,36.1995614666371,-0.514440419387252,936.667734085122,2832.83853078592
0.83,3.93568752596126,0.155892556399849,43.3227117358199,-7.53995563754632,-0.524422475367998,3.90370591342084,-14.8902603480888,41.3761819157743,0.173129435381885,965.177983136985,2832.83853078592
0.84,3.88855883712604,0.125140989474291,45.6834983451611,-6.04889657737436,-3.34832072019547,1.98123659661014,-42.9555745122483,16.6850169067578,1.0686650681916,993.586549948819,2832.83853078592
0.85,3.91324444044003,0.116614271044425,44.4534597899234,-5.61904429846969,-3.29323545143172,-2.1169981578356,-33.4832133778199,-29.7751266666975,2.17190731427042,1021.8641304528,2832.83853078592
0.86,3.85260605581764,0.198754316306701,47.4895456762854,-9.72995099390093,1.09993428350378,-3.69759668860009,25.0383597667704,-41.5091488117196,-2.80091215825518,1050.08207856044,2832.83853078592
0.87,3.84809423227419,0.134914772080009,47.7191907820569,-6.52659435015609,3.72876319693386,0.960393792867722,43.9172508591163,19.7735348302544,-1.2836659190778,1078.29935997797,2832.83853078592
0.88,3.9415092413178,0.203377272744169,43.0524275785131,-9.88914716506416,-1.49471026680483,3.65276588803207,-27.2837315692106,34.740534591665,0.439964918053307,1106.38459275813,2832.83853078592
0.89,3.90955378403458,0.24704195904763,44.6541323666252,-11.9645280892461,3.32622773812892,-2.06926304608451,44.9947049485484,-10.6121626640153,-2.06420576902474,1134.36173154612,2832.83853078592
0.9,3.81124592814829,0.190592471919276,48,-9.30441002582848,-0.0794777918514461,3.81518076842784,-12.6764379710879,47.2216048678346,0.0707952666225144,1162.45292190693,2832.83853078592
0.91,3.79943298715211,0.204819460680281,48,-9.85214809211867,-2.68817806920594,-2.69283135446191,-24.6968580697952,-42.3217440981516,2.41091502348266,1190.32254570704,2832.83853078592
0.92,3.84025065239915,0.180817057820568,48,-8.7659566087369,3.77078000358005,0.749291696371883,44.4764490036418,20.0670745075785,-1.32759150507224,1218.29677698161,2832.83853078592
0.93,3.67448621254247,0.169647275820249,48,-8.25399063385739,-3.60815881706744,0.715415316565434,-48.6940756717535,-1.00764867753849,1.42119415220721,1246.03691662292,2832.83853078592
0.94,3.68420803961938,0.170706140625352,48,-8.1006342941702,3.41768278032024,-1.38635272522754,47.9615404090255,-8.32531786548131,-1.90985483328117,1273.72929848044,2832.83853078592
0.95,3.67067879079245,0.261452336238204,48,-12.6320295744669,-3.39441305315472,1.42133744546141,-49.5192731394434,3.37783346413126,1.24535683286798,1301.36733121472,2832.83853078592
0.96,3.68661682538835,0.179595863008492,48,-8.57733893291655,3.64508949366128,-0.580276549971138,48.6488521488542,3.29544045144902,-1.67998850744661,1329.02750440989,2832.83853078592
0.97,3.69886841124791,0.131633699585527,48,-6.32947014162328,-3.56328341191881,-1.00098265766118,-43.7929211263951,-20.6456351680212,1.88022660849344,1356.68007521839,2832.83853078592
0.98,3.83829411600005,0.232207784968521,48,-11.2584388314874,-3.50740445303822,1.57624115513085,-48.8766892947773,6.4669690353475,1.20886225668609,1384.21230442329,2832.83853078592
0.99,3.6193157242434,0.228440849404866,48,-10.9509664435821,3.34400721473851,1.40329871417639,38.1376394866334,31.1358976173169,-1.11043590520011,1411.5987707589,2832.83853078592
