t,iq,id,vq,vd,ia,ib,va,vb,theta_e,omega,r
0,0,0,0,0,0,0,0,0,0,0,0
0.01,0.00119361108358821,0.000680882735774412,-0.0588614795054161,-0.0341261371367507,0.000471733524261969,0.00129064952672197,-0.0238044670077706,-0.0637386409952299,0.16798330898093,-0.00153440257888618,0
0.02,0.00135190611193083,0.000772144503858969,-0.0668500396392739,-0.0387002070497979,0.000535261021082672,0.00146196884700909,-0.0269793203229225,-0.0723792104155804,0.167972109042455,-0.00165330128164778,0
0.03,0.00137804827567727,0.000787214940285362,-0.0681671248905583,-0.0394555318335451,0.000545765547458583,0.00149025648111753,-0.027504648270364,-0.0738037277624676,0.167960883957694,-0.00159238021707897,0
0.04,0.00136461741521721,0.000780087778595183,-0.0675521723067622,-0.0390983369599741,0.00054099883783453,0.00147581770205177,-0.02725602083073,-0.0731374409237361,0.167950795342908,-0.00148744247413596,0
0.05,0.00137678423254157,0.000787221642738271,-0.0681834740424385,-0.0394558770265368,0.000546013281078611,0.00148900041459242,-0.0275037334795705,-0.073819353892552,0.167940862198755,-0.00141862876713159,0
0.06,0.00137620935762993,0.000787232486403803,-0.0681918077791195,-0.0394564213949397,0.000546133967107303,0.00148843033886351,-0.0275035667906993,-0.0738274044733321,0.16793152142004,-0.00133758847898069,0
0.07,0.00140879846401184,0.000805967679640214,-0.0698131233993694,-0.0403954545151302,0.000559171841051154,0.00152368758772992,-0.0281590572132073,-0.0755826199673103,0.167922800686659,-0.00130694779855333,0
0.08,0.00137518667984825,0.000787265193642301,-0.0682080605037287,-0.0394580825429671,0.000546362433956854,0.00148741822642909,-0.0275037433633638,-0.0738432386657718,0.167914521581198,-0.00119013051598622,0
0.09,0.001374607352343,0.000787218771266268,-0.0682098572247409,-0.0394557441916775,0.000546424959624039,0.00148683507170408,-0.0275017074878526,-0.0738444070840251,0.16790680445086,-0.00112303475557482,0
0.1,0.00137413766237071,0.000787214618580121,-0.0682151416849071,-0.039455545630303,0.000546510122636883,0.00148636733572401,-0.0275011633493908,-0.0738493849026991,0.167899563182025,-0.00106017712765166,0
0.11,0.00137369730905043,0.000787210810066418,-0.068220117637115,-0.0394553500531352,0.000546590052622685,0.00148592882425497,-0.0275006408111601,-0.0738540713380975,0.167892768316135,-0.00100119472456171,0
0.12,0.00137328419690429,0.00078720723604519,-0.0682247901131408,-0.0394551545422047,0.000546665033654951,0.0014855174381097,-0.0275001381755301,-0.073858470105047,0.167886392333216,-0.000945848407373456,0
0.13,0.00143190205780099,0.000820702596952164,-0.0711049823460317,-0.0411339739221524,0.000569904389902969,0.00154890452970739,-0.0286745694214569,-0.0769785125444227,0.167879993468535,-0.000970532700506184,0
0.14,0.00157589033669929,0.000903865394202706,-0.07840616934552,-0.0453021292701665,0.000627848647064211,0.00170476071063333,-0.0315646493052296,-0.0848733363435603,0.167874131999333,-0.00111585850055214,0
0.15,0.00137261743977669,0.000787459926930069,-0.0682615488379782,-0.0394678315247994,0.00054705202426838,0.00148489253996499,-0.0275078102898238,-0.0738963405595209,0.167868587610689,-0.000791957685346542,0
0.16,0.00137181426870909,0.000787195104411119,-0.0682414206467968,-0.039454562896108,0.000546932370376097,0.00148405373975388,-0.0274984521752548,-0.0738741440098038,0.167863701538228,-0.000748883638564866,0
0.17,0.00137151600434277,0.000787191943225789,-0.06824471188312,-0.0394544038737178,0.000546985888277364,0.00148375663222557,-0.0274980841610706,-0.0738772363621649,0.167859117435948,-0.000709090032843378,0
0.18,0.00137123729777655,0.000787189529073872,-0.068247855818346,-0.0394542739554889,0.000547036453300651,0.0014834790865588,-0.027497748601737,-0.0738801961217767,0.167854815931869,-0.000671751080344436,0
0.19,0.00137097556081179,0.000787187264794438,-0.0682507938100084,-0.0394541767257782,0.000547083935400078,0.00148321844170874,-0.0274974601112387,-0.0738829655890724,0.167850779602581,-0.000636713965077468,0
0.2,0.00137073026543426,0.000787185139930994,-0.0682535644492371,-0.0394540468051098,0.000547128437128533,0.00148297416646108,-0.0274971489850702,-0.0738855714400235,0.167846992101118,-0.000603836782231119,0
0.21,0.00137049984418096,0.000787183145906276,-0.0682561503790107,-0.039453946648516,0.000547170234995501,0.00148274470561655,-0.0274968808297281,-0.0738880065730684,0.167843438087999,-0.000572986378548289,0
0.22,0.00137028374201296,0.000787181274673365,-0.0682585810453579,-0.0394538493898805,0.000547209435445161,0.00148252950276924,-0.0274966252975579,-0.0738902951357671,0.167840103169134,-0.00054403780926039,0
0.23,0.00137008065133139,0.000787179518678009,-0.0682608448346081,-0.0394537847842091,0.000547246269767559,0.00148232726008944,-0.0274964146605045,-0.0738924302763871,0.167836973838261,-0.000516873832056163,0
0.24,0.0013698905097755,0.000787177870830551,-0.0682629889634682,-0.0394536874965194,0.000547280760419866,0.00148213790801415,-0.027496177547925,-0.0738944472849793,0.167834037421344,-0.000491384432248196,0
0.25,0.00136971174989307,0.000787176324476269,-0.0682649823952526,-0.0394536228529926,0.000547313180521636,0.00148195989353234,-0.027495984429194,-0.0738963261462967,0.167831282025841,-0.000467466377212593,0
0.26,0.00137807226102424,0.000791954099274233,-0.0686822414672453,-0.0396930926138216,0.000550631090530597,0.00149099961572859,-0.0276625803023394,-0.0743476532597434,0.16782870429569,-0.000456680169041844,0
0.27,0.00132846222949797,0.000763865114951913,-0.0662753968619779,-0.0382852350633257,0.000531227314933204,0.00143739324783167,-0.0266767269454939,-0.0717393873164689,0.167826202653424,-0.000367761399989479,0
0.28,0.00128638176123386,0.000739378662831415,-0.0640005060094682,-0.0370579633812357,0.000514117253615572,0.00139181259234865,-0.0258468571461284,-0.0692913948127804,0.167823859478313,-0.000290437775272795,0
0.29,0.00136890252275897,0.00078706342812447,-0.0682621392427786,-0.0394479691080279,0.000547351001597334,0.00148113802117065,-0.0274915812164563,-0.0738923195127031,0.167821860758693,-0.000385415672927146,0
0.3,0.00136785352123859,0.0007865453649869,-0.0682169314268109,-0.0394219799078629,0.000547017673693884,0.00148001639565706,-0.0274736200364454,-0.0738433641923172,0.167820349463837,-0.00037100417985544,0
0.31,0.00136887653428701,0.000787167709255082,-0.0682741726647743,-0.0394531943702097,0.000547463225716208,0.0014811279435295,-0.0274949758979094,-0.0739049626171771,0.167818439684906,-0.000355985283704754,0
0.32,0.00136876308349229,0.00078716810585992,-0.0682756045116476,-0.0394531994396668,0.000547485223342371,0.00148101517069751,-0.0274948743079754,-0.0739063258743504,0.16781664584936,-0.000340417720732287,0
0.33,0.00136865391294196,0.000787167164029676,-0.068276814199537,-0.0394531672871383,0.000547505022251755,0.00148090645489408,-0.0274947649580505,-0.0739074669172647,0.167814962594151,-0.000325806318048174,0
0.34,0.00136855175432692,0.000787166277272257,-0.0682779618836593,-0.0394530995761946,0.000547523550255406,0.0014808047184763,-0.027494623240108,-0.073908543741844,0.16781338310666,-0.00031209565598109,0
0.35,0.00136845550587633,0.000787165445147541,-0.0682790178930907,-0.0394530673882949,0.000547541000479236,0.00148070887158542,-0.0274945246650196,-0.0739095387905713,0.167811900990178,-0.000299230215028145,0
0.36,0.00136836531102215,0.000787164664297794,-0.0682800132825161,-0.0394530351822797,0.00054755735459824,0.00148061905180002,-0.0274944294470208,-0.073910476580371,0.167810510241676,-0.000287157889871698,0
0.37,0.0013682807041031,0.000787163931564388,-0.0682809471528239,-0.0394530029595296,0.000547572695662411,0.00148053479639682,-0.0274943381534222,-0.0739113560700699,0.167809205228952,-0.000275829787308657,0
0.38,0.00136820133587322,0.000787163243983963,-0.0682818230621344,-0.0394529707207562,0.000547587086949767,0.00148045575765387,-0.0274942505808386,-0.0739121806225437,0.167807980666547,-0.000265200028253016,0
0.39,0.00136812674067121,0.000787162598774751,-0.0682826374411166,-0.0394529384674762,0.000547600610872662,0.00148038147327685,-0.0274941676930831,-0.0739129465824362,0.167806831594906,-0.000255225561926301,0
0.4,0.00136805691849707,0.000787161993326816,-0.06828340881002,-0.0394529061994828,0.000547613271779915,0.00148031194028706,-0.0274940867403062,-0.0739136720818146,0.167805753360263,-0.000245865991502278,0
0.41,0.00136799140368952,0.000787161425190892,-0.0682841312250147,-0.0394528739179719,0.000547625151524879,0.00148024669676859,-0.0274940090389077,-0.0739143511404306,0.167804741595627,-0.000237083410496136,0
0.42,0.00136792996341792,0.000787160892067812,-0.0682848093606698,-0.0394528416237155,0.000547636292818436,0.00148018551053766,-0.0274939341114994,-0.0739149882546262,0.167803792203494,-0.000228842249243121,0
0.43,0.00136787224843173,0.000787160391800916,-0.0682854410139324,-0.0394528064073463,0.000547646757579227,0.00148012803478713,-0.0274938597415068,-0.0739155806606235,0.167802901338592,-0.000221109130842749,0
0.44,0.0013678178824766,0.000787159922365469,-0.0682860217683745,-0.0394528067007633,0.000547656612011167,0.00148007389623682,-0.0274938248250879,-0.0739161303235369,0.167802065393057,-0.000213852735979267,0
0.45,0.00136776703599862,0.00078715948186197,-0.068286573565227,-0.0394527743717639,0.000547665830802355,0.00148002326077032,-0.0274937587725366,-0.073916647404127,0.167801280981304,-0.000207043676077717,0
0.46,0.00136771944914932,0.00078715906850785,-0.068287096063728,-0.0394527420322101,0.000547674460311466,0.00147997587015397,-0.0274936940292485,-0.0739171369257698,0.167800544926375,-0.000200654374281587,0
0.47,0.00136767451283524,0.000787158680630095,-0.0682875706717557,-0.0394527422907476,0.000547682605041853,0.00147993112193946,-0.0274936660712356,-0.0739175859215759,0.167799854247018,-0.000194658953764371,0
0.48,0.00136763274675171,0.000787158316658747,-0.0682880344808723,-0.0394527099312625,0.000547690180800595,0.00147988952673072,-0.0274936046101972,-0.0739180199932282,0.167799206146212,-0.000189033132927479,0
0.49,0.0013675930491271,0.000787157975120839,-0.0682884428269433,-0.0394527101699387,0.000547697374040448,0.00147984999654907,-0.0274935815997339,-0.0739184059236985,0.167798597999198,-0.000183754127060217,0
0.5,0.00136755628890208,0.000787157654633777,-0.0682888489796813,-0.0394526777932232,0.000547704041928672,0.00147981338655223,-0.0274935240275056,-0.073918785275291,0.167798027342666,-0.000178800556061191,0
0.51,4.54460180571482,-0.0331958886473851,12.7718833261364,1.67334356600782,-0.534959909126859,4.5131281208444,0.252405763565072,12.8785625640776,0.110679321677424,33.9664418721083,1834.61015637909
0.52,4.41078626928681,0.0750290766973607,19.4649672048285,-3.73901226567294,-2.04813252801392,3.90714960340277,-12.6106845353526,15.2916904414692,0.499829319231014,72.3731358336515,1834.61015637909
0.53,4.54356802871197,0.0535935869038413,12.8282699347015,-2.65074504300592,-4.17628512185272,1.79039808005996,-12.8649124926127,2.46677630887023,1.17758587684129,113.351745680133,1834.61015637909
0.54,4.4614625865038,0.104553701672343,16.9361237869312,-5.20344897272975,-3.75793778846407,-2.40696561365973,-11.1352561678771,-13.7809375665741,2.16389592717249,154.722936108385,1834.61015637909
0.55,4.51727853309974,0.0836007414249275,14.1479141623948,-4.12887339986406,1.23921902546551,-4.34478200103237,8.08049264516998,-12.3254496595439,-2.84524520115829,193.313461238836,1834.61015637909
0.56,4.51225982556475,0.0476211433587463,14.4015860637475,-2.32562581046139,4.3303453788983,1.26919872602935,13.0990654959652,6.42095784865652,-1.27513385900828,234.098049962094,1834.61015637909
0.57,4.31832760943597,-0.0190479830657857,24.1010857422033,1.01227384989385,-2.39890203691183,3.59076387212751,-12.4557059586378,20.6577448278404,0.584566509826462,274.275230238559,1834.61015637909
0.58,4.42777723003778,-0.0359626360826037,18.6315217747127,1.8704458619224,-1.71112060729726,-4.08394059424445,-9.0584811992345,-16.3882912387805,2.73670366245042,313.647572349305,1834.61015637909
0.59,4.41878948487485,0.0232774548551135,19.0839135273846,-1.07486658050948,3.9541751421619,1.97249620954109,16.5471225071383,9.5678540133275,-1.10281027682747,353.180096961776,1834.61015637909
0.6,4.40889846904357,0.018554161429327,19.5814767357364,-0.846704977246485,-4.40186455213062,-0.249636599754412,-19.4937266008118,-2.03611485026809,1.63165552307949,393.080229494108,1834.61015637909
0.61,4.41457635499748,0.0410529896413383,19.3007642139378,-1.96258385856516,4.40549289201356,-0.286010699938604,19.3799415220596,0.888313708930771,-1.62632758211297,432.724310763408,1834.61015637909
0.62,4.3359150368328,0.109564997562788,23.2371202425624,-5.36598058579517,-4.31891432733786,-0.398926971311155,-22.4488908126037,-8.05014323464067,1.68816619694335,471.726541112895,1834.61015637909
0.63,4.288956345106,0.00762522595262971,25.5884241974578,-0.241099069296929,3.59553610878916,2.33823111874964,21.2947270666317,14.1901437916578,-0.992421813776508,511.131529121365,1834.61015637909
0.64,4.3027940462861,-0.0153762317969577,24.8999775767386,0.909686823824269,-1.01766600743782,-4.18074502099386,-6.85864853428565,-23.9540258353928,2.89924539610267,550.487582344371,1834.61015637909
0.65,4.22322050554911,0.0783243893249854,28.8821846128468,-3.80910088971041,-2.95945408971845,3.01386091903763,-23.2824911520653,17.5104381256598,0.79483410353202,589.934777446943,1834.61015637909
0.66,4.22185215579438,0.113436791422564,28.9542204788183,-5.50069585883199,3.66118738899386,2.10537655389866,21.8340678360525,19.7959091783644,-1.02205976542782,628.685724265431,1834.61015637909
0.67,4.21854431628733,0.169642056824361,29.1233493329594,-8.31070729122233,2.2036207138665,-3.60124288619113,23.0954727429847,-19.5917449663886,-2.55227323578349,667.67757416226,1834.61015637909
0.68,4.28521031850585,0.0403505004169682,25.7938409943534,-1.81810172237143,-2.64288365986417,-3.37339911619361,-14.2739636590955,-21.5611151978208,2.48644198242178,706.685133655273,1834.61015637909
0.69,4.13680563103991,0.147374867077055,33.2178853222278,-7.17269338535992,-4.12659959226682,0.325662379701394,-33.4963391696218,-5.7332972986515,1.52765192058625,745.669509720859,1834.61015637909
0.7,4.1390928962241,0.0776020763121321,33.10742560696,-3.73276542372609,-3.07040077088194,2.77682393968151,-27.4183622362733,18.9279840529693,0.854310305812533,784.801445948271,1834.61015637909
0.71,4.19624941492498,0.101611643771007,30.2536646161441,-4.91601248499589,-1.79364611089364,3.79495292556893,-17.97862385113,24.8237887091867,0.46573107418845,823.627665758119,1834.61015637909
0.72,4.16842359560922,0.105579559747301,31.648987724208,-5.04716665186202,-1.37443374280156,3.93672887084145,-15.9067994639881,27.8227612934303,0.361223366952023,862.109821770294,1834.61015637909
0.73,4.12818060093256,0.155713140013108,33.6653060537667,-7.62062328582297,-1.99063089610697,3.61987710997943,-23.8568203678848,24.9455176914148,0.540480942006484,901.070265469288,1834.61015637909
0.74,4.13221114517612,0.158843413753967,33.4679038771039,-7.69872670174769,-3.39874053636834,2.35562368489905,-32.3582606722502,11.5027800562289,1.00314626127114,939.576813230647,1834.61015637909
0.75,4.06820791596295,0.152477785536566,36.6722592722049,-7.37779340390147,-4.0305573533556,-0.57286346008175,-34.7775962332113,-13.7769821034288,1.74944358933057,978.119001144167,1834.61015637909
0.76,4.15504995023355,0.166006690451326,32.334435050975,-8.06122039429552,-1.63138784214811,-3.82499307433383,-3.95251809190093,-33.0889190673301,2.7783776771735,1016.74761036218,1834.61015637909
0.77,4.13706042204118,0.238302184607833,33.238262153017,-11.6800886125387,3.22143192276826,-2.60661336484297,33.8112968792966,-9.89963354319271,-2.19355190236838,1055.24211289644,1834.61015637909
0.78,4.03425515935631,0.125953331460872,38.3829251914936,-6.02921333148794,2.89413934671018,2.81336744388697,22.338474825172,31.7898238771079,-0.768338265446121,1093.63097099805,1834.61015637909
0.79,4.07515484307983,0.134895161604411,36.3423534204393,-6.44383305873008,-3.58310707544361,1.94587445268374,-35.3792823754937,10.5164640074495,1.1063797406164,1131.99034271234,1834.61015637909
0.8,3.98301222636357,0.0871655149751516,40.9539735753946,-4.15946992323285,0.392202558096483,-3.96461364773229,9.05175756617884,-40.1571267226569,-3.02110685527432,1170.4726168807,1834.61015637909
0.81,4.04873699707607,0.12308592417569,37.6721770935096,-5.86828949313187,2.33877287278972,3.30719864322143,15.9147463848423,34.6460761998541,-0.585134421943848,1208.54147132601,1834.61015637909
0.82,3.94376464603909,0.122536950202141,42.9252122218569,-5.92452377614968,-3.40629489710606,-1.99134375773293,-33.2192077384851,-27.8236960789358,2.13088159833619,1246.86521761766,1834.61015637909
0.83,3.98304555393096,0.299422347203427,40.9655811205414,-14.6621046786251,3.76632895555559,1.33006459438538,31.5913837398697,29.9189007744421,-1.15628835754348,1284.83897097386,1834.61015637909
0.84,4.0335981621321,0.186081611771187,38.4422924969166,-9.01725385908805,-3.5386057257424,-1.94494473380041,-28.0968877990738,-27.7432084587199,2.11946017550449,1323.09185811495,1834.61015637909
0.85,3.97040013277345,0.191086610130755,41.6065559956028,-9.30025379849606,2.42653037692834,3.1484189106189,16.1543670491328,39.4542348522128,-0.608536082453822,1361.22713844357,1834.61015637909
0.86,3.79042502384013,0.110724909641368,38.3254960787366,-5.28731808436385,0.200332875572434,-3.78674644067086,8.41090688284591,-37.7631570133456,-3.05953479730604,1398.33376202458,1834.61015637909
0.87,3.33881390004768,0.145945406439115,44.6926002050618,-7.06648212639523,-2.7950271997061,1.83215754609569,-42.0244394108729,16.7723038052029,1.03424402118522,1432.57544166869,1834.61015637909
0.88,3.09424153741051,0.176615407544515,41.9851493290213,-8.57368295802845,2.55834534830454,1.74939783149152,28.0155741811807,32.4251199989108,-0.914008574504349,1464.07241248667,1834.61015637909
0.89,2.80677849875155,0.211141916454275,42.6611790401297,-10.2828721166949,0.718920863729365,-2.72134879088158,23.6764398771038,-36.9477989981567,-2.80823071525948,1493.09220309512,1834.61015637909
0.9,2.56170506923337,0.179225576780345,42.3234784942362,-8.84370981780384,-2.44359530792861,-0.789491380685978,-35.9677293675106,-23.9960513280645,1.9531456582801,1519.97579885988,1834.61015637909
0.91,2.39219794307205,0.149325666670104,39.1168369448674,-7.25639816320099,-1.26775681872818,2.03413416522432,-28.6251012703012,27.6294376370431,0.61967483901758,1544.51121521141,1834.61015637909
0.92,2.07579743700158,0.0855624251342059,44.285752956615,-4.19550560226457,1.14180662162873,1.73566516553797,19.1975840300757,40.1283310094146,-0.540677867384676,1567.20596706817,1834.61015637909
0.93,1.96386974401241,0.0461864851787385,40.0287513638864,-2.11691980607656,1.96438499861182,0.0104470134184275,39.9510885471239,3.26998610349694,-1.54196440062816,1587.97466323253,1834.61015637909
0.94,1.72772237770872,0.0442558507626744,42.8067531754066,-2.14915477541032,1.13896041963483,-1.29990474930568,30.6049434826199,-30.0062396526872,-2.39648088798026,1607.2392210631,1834.61015637909
0.95,1.48503888801393,0.13388523509465,46.5975453673104,-6.51514879308577,-0.0958903863132622,-1.48797539929351,7.70385113650235,-46.41582785776,-3.11603422917849,1624.80441589028,1834.61015637909
0.96,1.5038305526761,0.110435187873119,37.982971275977,-5.39195227852017,-0.904400475690994,-1.20654964317784,-15.9547310748097,-34.888763415404,2.57166739671187,1641.09773722664,1834.61015637909
0.97,1.32541406279592,0.0689053193078086,39.8637259934572,-3.40402146038962,-1.1845884848714,-0.59851524825704,-32.9080975222256,-22.75436506809,2.09057740635497,1656.10818255447,1834.61015637909
0.98,1.12642771045464,0.0114714787844744,43.301024486197,-0.573420438302998,-1.12583342424159,0.0383416557549422,-43.3023801904848,0.459785158534389,1.54693683569615,1669.91658013138,1834.61015637909
