t,iq,id,vq,vd,ia,ib,va,vb,theta_e,omega,r
0,0,0,0,0,0,0,0,0,0,0,0
0.01,0.000494734075259445,0.000281472011977262,-0.023645125275436,-0.0140858590747087,-5.21072527482505e-06,-0.000569175849005785,0.000802328789901,0.0275110821974802,-2.63348219775215,-0.00205115279976845,0
0.02,0.00056522931059019,0.000320938977931989,-0.0271387396145241,-0.0160609280129916,-5.40404660835485e-06,-0.000649966766370825,0.00082863682501373,0.0315242439642201,-2.63349797557631,-0.00225987354419823,0
0.03,0.000592532460558669,0.000336414207524589,-0.0284720307853598,-0.0168353555428816,-5.65214724393344e-06,-0.000681349608550295,0.000857110759007344,0.033065859953198,-2.63351435570877,-0.00228048953180253,0
0.04,0.000579020290017956,0.000328939525833341,-0.0278785566411945,-0.0164612949953091,-5.70563522221652e-06,-0.000665907766612353,0.00081952721561041,0.032365360008221,-2.63352984660596,-0.00213190565515639,0
0.05,0.000593158531820819,0.000337146779553771,-0.0285878173810217,-0.0168720128793097,-6.00852784503239e-06,-0.000682252806830755,0.000833825504983865,0.0331848287058631,-2.63354503272214,-0.00210326678903242,0
0.06,0.000594181579929403,0.000337900178478457,-0.0286774001412699,-0.0169097254821921,-6.1791364724716e-06,-0.00068351305679967,0.000823684748452578,0.0332814308313325,-2.63355973865163,-0.00202139916283174,0
0.07,0.000607175130122376,0.000345563609069809,-0.0293291225329497,-0.017293235128767,-6.56358979914476e-06,-0.000698593419552049,0.000842195652936301,0.0340373929121161,-2.63357366189524,-0.00199527497422093,0
0.08,0.000594899999460099,0.000338671398779063,-0.0287887880820788,-0.0169483123627274,-6.5223480176438e-06,-0.000684515730049303,0.000804133459278487,0.0333974996153767,-2.63358731436077,-0.00186275752933918,0
0.09,0.000593426506611071,0.000338035849363829,-0.0287556662369423,-0.0169165186711476,-6.69264574944977e-06,-0.000682919074778716,0.0007928976053898,0.0333530846859638,-2.63360024210076,-0.00178064965568861,0
0.1,0.000593003604702697,0.000337975976220123,-0.0287704802417161,-0.0169135156348371,-6.85447923379917e-06,-0.000682520367320105,0.000783480297993949,0.0333645575887275,-2.63361260262959,-0.001706356741992,0
0.11,0.000592693582183524,0.000337969125156363,-0.0287891223711147,-0.0169131777996468,-7.00736316636597e-06,-0.000682246076413745,0.000774512226561773,0.033380672266933,-2.63362443239489,-0.00163565913675336,0
0.12,0.000592405969755585,0.000337967209358177,-0.0288073951383713,-0.016913082995875,-7.15330697069672e-06,-0.000681993766689104,0.000765919610486627,0.0333965830323087,-2.63363575529955,-0.00156802958458122,0
0.13,0.000618728267356333,0.00035312250614977,-0.0300798859338651,-0.017671509752795,-7.60009794523381e-06,-0.000712363960126063,0.000810047652494591,0.0348772937244012,-2.63364696483777,-0.0016147765676844,0
0.14,0.000638281812662471,0.000364600721518423,-0.0311639684133772,-0.018245918181966,-8.12656561342205e-06,-0.000735031507786418,0.000785045139951675,0.0361038801474469,-2.63365777624043,-0.0016349334911287,0
0.15,0.000596045540535106,0.000340413630866442,-0.0290702381597249,-0.0170355056774089,-7.54286072701877e-06,-0.000686363483675752,0.000746133619481415,0.0336857608637542,-2.63366821539548,-0.00139322711869341,0
0.16,0.000591772543803641,0.000338187337815094,-0.0288954874157949,-0.0169240989746722,-7.68233365935938e-06,-0.000681547064264706,0.000734102003487528,0.0334788801089484,-2.63367771512941,-0.00131925840205569,0
0.17,0.000591156120604738,0.000337981490705688,-0.0288918508683173,-0.0169137988967357,-7.80843315831471e-06,-0.000680908272353696,0.000727173620248428,0.0334706865517025,-2.63368676064175,-0.00126357912925207,0
0.18,0.000590899952763323,0.000337961569141344,-0.0289040963566864,-0.0169128003312186,-7.92150347183376e-06,-0.00068067468454095,0.000720635260013749,0.033480894343824,-2.63369541413905,-0.00121173768777703,0
0.19,0.000590686742955386,0.00033795879476658,-0.0289173227844772,-0.0169126572884819,-8.02840803285548e-06,-0.000680486972636346,0.000714355116307346,0.0334923757047345,-2.63370369652138,-0.00116225648823503,0
0.2,0.000590485815038032,0.000337957638129561,-0.0289301301823459,-0.0169125942837187,-8.1305086275947e-06,-0.000680310780276703,0.000708336995699251,0.0335035302091239,-2.63371162407976,-0.00111490826073756,0
0.21,0.000590293689799933,0.000337956668805347,-0.0289423969218856,-0.0169125511870651,-8.22825821414233e-06,-0.000680142371841652,0.000702587999238826,0.0335142223144503,-2.63371921205138,-0.00106958951621749,0
0.22,0.00059010983005,0.000337955753557427,-0.0289541388743243,-0.0169125095503818,-8.32181185876342e-06,-0.000679981213219597,0.000697084755205711,0.0335244568947727,-2.6337264749867,-0.00102621215575332,0
0.23,0.000589933886540761,0.000337954878559578,-0.0289653789469364,-0.0169124679179513,-8.41133710227562e-06,-0.000679826992579332,0.000691815298565263,0.0335342532376677,-2.63373342680863,-0.000984692906922282,0
0.24,0.000589765451818587,0.0003379540410381,-0.0289761350948634,-0.0169124262890212,-8.49703901357806e-06,-0.000679679352592651,0.000686771325803755,0.0335436270126443,-2.63374008084465,-0.000944952165471645,0
0.25,0.000589604293051121,0.00033795323929958,-0.0289864325985628,-0.0169123832076053,-8.57903826935984e-06,-0.000679538089027955,0.000681939682048145,0.0335525995836681,-2.63374644984994,-0.000906913746770459,0
0.26,0.000595068458431051,0.000341162092164838,-0.0292609757850004,-0.0170729628383018,-8.72984350343612e-06,-0.000685873044507657,0.00068894792754518,0.0338705788955776,-2.63375247587079,-0.000894925386729511,0
0.27,0.00057951117755594,0.000332278497870224,-0.0285444795438096,-0.0166283923253458,-8.53678787502793e-06,-0.000667959076824278,0.000649108817442677,0.0330283121199934,-2.63375851405278,-0.000793034478585658,0
0.28,0.000578977074885007,0.000332033934123848,-0.0284093186924636,-0.0166161598715474,-8.58654346726489e-06,-0.000667373402169613,0.000704330756285336,0.0329042561932728,-2.63376410127548,-0.000757987517429198,0
0.29,0.000588047464059785,0.000337405984612989,-0.0289772905666573,-0.0168849877256002,-8.87343605093533e-06,-0.000677911410563692,0.000663214344592869,0.0335312738471309,-2.63376932195069,-0.00076613202005591,0
0.3,0.000582634515351359,0.000334474372348748,-0.0287346667491654,-0.0167382802027256,-8.94697333816085e-06,-0.000671755934774594,0.000653151569499123,0.0332479246022636,-2.63377379612912,-0.000716763440018291,0
0.31,0.000588186308074762,0.000337629443900525,-0.0290100356611507,-0.0168961732158059,-9.00750323082995e-06,-0.000678141312176705,0.000657378123126121,0.0335653197869913,-2.6337786472903,-0.000712039503998396,0
0.32,0.000588612264275521,0.000337919175055634,-0.029043345314508,-0.0169106741462487,-9.05674050566315e-06,-0.000678654361201082,0.000654010007486914,0.0336014743433747,-2.63378335720113,-0.00068623969453718,0
0.33,0.00058855042288516,0.000337945316293374,-0.0290531078603314,-0.0169119835797611,-9.11271791451969e-06,-0.000678612993874373,0.000650558766946103,0.0336106387656782,-2.63378787175336,-0.000659500696989455,0
0.34,0.000588446088276917,0.000337947229096973,-0.0290603246785738,-0.0169120781824036,-9.16805554505189e-06,-0.000678522715331071,0.000647277465841286,0.0336169881273452,-2.63379219353573,-0.000633710669811451,0
0.35,0.000588341869933482,0.000337946933916019,-0.0290670262369049,-0.0169120622096583,-9.22128092854286e-06,-0.000678431465984665,0.000644143920844033,0.0336228336261165,-2.63379633025065,-0.00060900650591934,0
0.36,0.000588241726109721,0.000337946455746161,-0.0290734214687536,-0.0169120345918584,-9.27224422787588e-06,-0.000678343689271828,0.000641143240812025,0.0336284059283333,-2.63380028977215,-0.000585358749307542,0
0.37,0.000588145728353301,0.000337945980027804,-0.0290795346757089,-0.0169120209906029,-9.32107792737366e-06,-0.00067825953786398,0.000638286281750286,0.0336337387390233,-2.63380407968481,-0.00056272378687546,0
0.38,0.000588053966431911,0.000337945522998416,-0.0290853912107217,-0.016911993359011,-9.36775757818094e-06,-0.000678179098077294,0.000635536446904329,0.0336388405668301,-2.63380770725416,-0.00054105839232736,0
0.39,0.000587966001332291,0.000337945085363013,-0.029090989217037,-0.0169119797398695,-9.41250205702701e-06,-0.000678101986613167,0.000632919372552915,0.0336437234178289,-2.633811179434,-0.000520321048666606,0
0.4,0.000587881922819195,0.000337944666432529,-0.0290963523694427,-0.0169119506399739,-9.45527169852962e-06,-0.000678028281552395,0.000630397994592432,0.0336483936321498,-2.6338145028805,-0.000500472003633503,0
0.41,0.000587801408299752,0.000337944265420088,-0.0291014829085909,-0.0169119370035655,-9.4962270568082e-06,-0.000677957700598776,0.000627998473697041,0.0336528682077562,-2.63381768396456,-0.000481473206469662,0
0.42,0.000587724431122604,0.000337943881561759,-0.0291063971008579,-0.0169119093460495,-9.53538461734884e-06,-0.000677890220067834,0.000625687337608817,0.0336571470163082,-2.63382072878504,-0.000463288236221925,0
0.43,0.00058765061048376,0.000337943514124693,-0.0291110927569848,-0.0169118956938718,-9.57293290943396e-06,-0.000677825506820446,0.000623490334110332,0.0336612417665992,-2.63382364317802,-0.00044588223204234,0
0.44,0.000587579933058468,0.000337943162407417,-0.0291155853356573,-0.016911882033203,-9.60888163541006e-06,-0.00067776354884623,0.0006213878859246,0.0336651591476729,-2.63382643273095,-0.000429221826368052,0
0.45,0.000587512501934397,0.000337942825738008,-0.0291198954358524,-0.016911852901497,-9.64318375463959e-06,-0.000677704435874577,0.000619356642720611,0.0336689096364282,-2.63382910279125,-0.000413275080961718,0
0.46,0.000587447819897759,0.000337942503473654,-0.0291240129155372,-0.0169118392259948,-9.67608397433006e-06,-0.00067764773308526,0.000617428730772,0.0336724994034107,-2.63383165847764,-0.000398011425682098,0
0.47,0.000587385873621047,0.000337942194998506,-0.0291279513058906,-0.0169118255428354,-9.70759159388339e-06,-0.000677593428506664,0.000615584220578461,0.0336759327493242,-2.63383410468912,-0.000383401599879808,0
0.48,0.0005873266048966,0.000337941899723235,-0.0291317211904734,-0.0169118118521468,-9.73773761299928e-06,-0.00067754147096255,0.000613818122015145,0.0336792189184217,-2.63383644611567,-0.000369417596307847,0
0.49,0.000587269897309097,0.000337941617083636,-0.0291353296984469,-0.016911798154113,-9.76658121497337e-06,-0.000677491758425083,0.000612127118028796,0.0336823641366522,-2.63383868724521,-0.000356032607429592,0
0.5,0.000587215576235553,0.000337941346539349,-0.0291387805497264,-0.0169117844493572,-9.79420977264346e-06,-0.000677444138013911,0.00061050954333465,0.0336853716512692,-2.63384083237456,-0.000343220974026666,0
0.51,4.71417895446979,-0.0246546910781276,4.29201049501027,1.24023774582479,-0.662880395352673,4.66740620152297,0.647533370635393,4.42043485297096,0.135849932145515,42.2202569420557,5340.66474499943
0.52,4.69947509458918,-0.0204099066049237,5.02820742811602,1.0353184856713,-2.75390602567662,3.80808145011286,-2.08723450422094,4.6902245608631,0.621767367353538,90.4247691518325,5340.66474499943
0.53,4.70362360362239,0.0143682390927058,4.82183335233129,-0.697046882213064,-4.67577844485407,0.511250804875956,-4.86849136311804,-0.183692898345039,1.46494341226984,140.022900925542,5340.66474499943
0.54,4.67087058306182,0.0032713461415228,6.4605894150825,-0.137413362368532,-2.06038305264972,-4.19188076903097,-2.72242535303755,-5.86058855573157,2.68545435733652,193.764594098045,5340.66474499943
0.55,4.67965361709824,0.0467542472117355,6.02260032998013,-2.30538268719026,4.26365141415146,-1.92940937964373,6.44089929288727,-0.318308604906565,-1.98575753080178,244.921684136951,5340.66474499943
0.56,4.64732064399462,0.0603458508448371,7.64043534308517,-2.97491884877102,0.125027218430311,4.64603045453475,-2.86828152339922,7.68110379380234,-0.0139196986143316,293.433417667016,5340.66474499943
0.57,4.68177910483743,0.00966816933708725,5.91877531820911,-0.43659676224683,-3.39713623607549,-3.22158570482512,-3.98520158258583,-4.39780471899346,2.33174243961278,346.296728610669,5340.66474499943
0.58,4.62547848906246,0.0572194783441331,8.7350242855699,-2.80314074029728,4.38617927309795,1.46961107294666,7.32416638531826,5.52402335617659,-1.23512725100491,395.05805204591,5340.66474499943
0.59,4.62728292942627,0.0491758847625683,8.64617263124278,-2.39824107105306,-4.45629421690965,-1.24723992436883,-7.63007975890014,-4.72120157131209,1.85432328779413,446.65929909638,5340.66474499943
0.6,4.64772560945787,0.0638183528875205,7.62540017220847,-3.12799153074872,3.87676481372793,2.56439480229095,4.54017427080623,6.87879905168495,-0.972664224428475,497.658863373107,5340.66474499943
0.61,4.61659807709158,0.0594498491780395,9.18317573676785,-2.89233843566151,-1.36182213389543,-4.41157030609345,0.178958686192763,-9.6262304162846,2.85505627554115,547.177308826916,5340.66474499943
0.62,4.61198053778796,0.0365642498906298,9.41547748253513,-1.73948670736009,-3.18582149936256,3.33500266859028,-7.80575128269725,5.54502273592081,0.770452433298188,597.289422640364,5340.66474499943
0.63,4.63256658133564,-0.00595580387062467,8.38766172597204,0.395634460144069,3.75122697158234,2.71827239433077,7.02997251610323,4.59226330671739,-0.945012703379311,647.717214665427,5340.66474499943
0.64,4.59943376196737,0.0351876168782821,10.0458162396192,-1.65660797210533,3.43184766236591,-3.06242562708395,8.63986600462928,-5.38660276199118,-2.29172117654847,698.093257051798,5340.66474499943
0.65,4.60992434354598,0.055263790186205,9.52286511944386,-2.6528969980786,-0.644119839806029,-4.56503736804989,1.41377616617005,-9.78386730886639,3.01340693952898,748.444282106033,5340.66474499943
0.66,4.64470482352135,0.0654512189501344,7.78550027736081,-3.16620500708452,-3.17331146043079,-3.39229437620073,-2.89548984292432,-7.89018423645446,2.4036258161927,799.129697560561,5340.66474499943
0.67,4.57944774165489,0.0857560593426159,11.050036042638,-4.18156767258763,-3.84873512826413,-2.48312980585546,-6.8390567771439,-9.63411164264931,2.16250030800627,849.652684663707,5340.66474499943
0.68,4.63356244869159,0.0737295191135291,8.34595722343306,-3.56132631131501,-3.53758848097022,-2.99346032998941,-3.94108115996282,-8.1734892403199,2.28898312133225,899.287386452238,5340.66474499943
0.69,4.5933889559339,0.0761474520222226,10.3563586236989,-3.67071265619732,-1.68701392490897,-4.27305564580058,-0.206738181317558,-10.985697732571,2.78215081834823,949.421613325911,5340.66474499943
0.7,4.58295040697155,0.0924129886432454,10.880106407347,-4.49017439438296,2.12395439834612,-4.06211672739433,9.17100506144236,-7.37774001237264,-2.63965598344679,999.69742915213,5340.66474499943
0.71,4.55401411101079,0.0661938372948185,12.3286884985049,-3.16139185429603,4.50752917670399,0.652385521408522,11.676337529042,5.06498770555878,-1.41252775413614,1049.53814826006,5340.66474499943
0.72,4.60789301518908,0.0788874105437293,9.6365638341972,-3.79232966308567,-0.758319452628812,4.54575107883564,-5.47753611313373,8.78872715092423,0.182415664861403,1099.50472086837,5340.66474499943
0.73,4.59356219868482,0.0702822561608378,10.3549900391921,-3.36904596402491,-3.89971224284412,-2.42857935668754,-6.88056461990535,-8.44003080153069,2.14308119917833,1149.88095951363,5340.66474499943
0.74,4.52533824983289,0.0777295194047514,13.7681042798127,-3.74029698170718,4.37400619497709,-1.16309843086884,14.2634891774973,0.321548526015295,-1.81351870841864,1199.59436391822,5340.66474499943
0.75,4.54620053729526,0.0673960623080769,12.7269759753145,-3.19056050630049,-3.45777244181961,2.95233658228718,-11.8358721268973,5.6628371702118,0.87890878137849,1249.09879993834,5340.66474499943
0.76,4.593215239374,0.0954715734025837,10.3782367168847,-4.58768972771942,3.21212253274173,-3.28466282762757,10.6213962484233,-3.99257261968971,-2.34657723898425,1298.87891115634,5340.66474499943
0.77,4.51101822526569,0.100262044317131,14.4901169962684,-4.82419789370839,-3.92264690542797,2.22983837117093,-15.0433466575958,2.63326740431124,1.07611897708507,1348.6724691289,5340.66474499943
0.78,4.55277000964132,0.0800262299410073,12.4046325346613,-3.80180151261241,4.5130044007344,0.605731159112641,11.6916040010213,5.62449988395254,-1.41979897956949,1398.41437446462,5340.66474499943
0.79,4.51405977675514,0.0852618538205544,14.3422327140928,-4.07380740371257,-1.87634908739477,-4.1064972122319,-1.97648190636869,-14.7779925991839,2.73188310731046,1448.35844681305,5340.66474499943
0.8,4.53877487250419,0.0733355340364303,13.1086425709161,-3.48460478248695,-3.68876456933197,2.6455380163341,-12.7591433773484,4.60252548264873,0.964783789934545,1498.24328865675,5340.66474499943
0.81,4.50988816323148,0.10104252899752,14.5551616590059,-4.85150522007219,2.00588469162182,4.0405107896699,1.78579084241453,15.238135873109,-0.438397322630713,1547.62044850659,5340.66474499943
0.82,4.53245953500405,0.0787001637847422,13.4288009589538,-3.70938272359925,4.52037926766042,0.339932976827416,13.0291539397191,4.93288586939107,-1.47837556810263,1597.02316891674,5340.66474499943
0.83,4.53593804335166,0.139231674700903,13.2571318061181,-6.76173610805064,3.70778584088191,-2.61657095270136,14.7883781261261,-1.6662806841639,-2.15464952793302,1646.94416024396,5340.66474499943
0.84,4.51773630444273,0.141009962553176,14.1694794774583,-6.81596637861315,-0.60471343755336,4.47930204211119,-9.05581415520453,12.8539401088886,0.165392803940004,1696.09014248117,5340.66474499943
0.85,4.48372021888414,0.110978651028115,15.872654755991,-5.3327304906075,-0.847726152855371,4.40425063228462,-8.59490461972947,14.3703443962242,0.214899981398401,1745.80515288784,5340.66474499943
0.86,4.47695691529728,0.11026625213668,16.213138967921,-5.30400647877757,-2.53614618997829,3.69097065429231,-13.8042244718198,10.0220629937975,0.626655201519498,1795.28964511751,5340.66474499943
0.87,4.50243830699748,0.101759867882694,14.9414765043048,-4.83330691627204,-4.42035741718425,0.861827177207844,-15.5437012428031,-2.23649894926368,1.4008413205863,1844.36467573471,5340.66474499943
0.88,4.48094272515661,0.130535234645005,16.0187315235559,-6.27817710512293,-2.65551557146348,-3.6116650181506,-3.94499186680325,-16.7467103204752,2.5367145476556,1893.74419230708,5340.66474499943
0.89,4.49137313582959,0.170100230997405,15.499707161058,-8.26061760664797,3.38970245031153,-2.95148844351271,17.2511769567823,-3.29782032979343,-2.24934367200724,1943.13113163813,5340.66474499943
0.9,4.47583912134127,0.122271504099613,16.2788969642659,-5.86547248895627,1.81888485847853,4.09142322822283,0.781475772433502,17.2857036162543,-0.391009851024629,1992.45528408831,5340.66474499943
0.91,4.50988158116226,0.149790200217365,14.5793326329862,-7.23197596933198,-4.39921920742772,-1.0041610155681,-12.2556856723775,-10.7077815229922,1.82841205230797,2041.63518459431,5340.66474499943
0.92,4.47114567958951,0.176020850699223,16.5186808989552,-8.53223338400053,4.21380786395377,-1.5053073817909,18.3144947861474,3.20079769569101,-1.87455154513168,2090.76313242794,5340.66474499943
0.93,4.46872301872574,0.159909283632651,16.642426081345,-7.70857829765537,-3.83414962925668,2.30094611356983,-18.2948352068513,1.30058832774666,1.06605816680661,2139.84169797932,5340.66474499943
0.94,4.44246388688399,0.165029096116888,17.9579884839341,-8.00418969980584,4.1241744364228,-1.65948944160252,19.6074327116268,1.45085684980163,-1.91622257797985,2189.22041788498,5340.66474499943
0.95,4.47580336924478,0.134951875256034,16.2937408671571,-6.48017949667295,-4.43156915578913,-0.64204565743915,-14.925642837216,-9.20347236922178,1.74481749819278,2238.29109119301,5340.66474499943
0.96,4.45975571421513,0.215825588705852,17.0988088514189,-10.4898397393088,2.39563857085607,3.76787971584038,-0.647816744401174,20.0495968877037,-0.517975529066145,2287.10968216727,5340.66474499943
0.97,4.41543669836276,0.159581090736069,19.3175260134291,-7.71551460969456,2.79245670848837,-3.42399370516177,18.5408914608628,-9.43034043968847,-2.42131248420166,2336.39682806577,5340.66474499943
