t,iq,id,vq,vd,ia,ib,va,vb,theta_e,omega,r
0,0,0,0,0,0,0,0,0,0,0,0
0.01,0.000531968629439315,0.000301793928609018,-0.0261719035891884,-0.0150997044516303,0.000602966638027097,-0.000102476492324375,-0.0297507371708931,0.00527856512669834,-1.22310178842517,-0.000879525389490562,0
0.02,0.000632388284466106,0.00035724483750271,-0.0311528602944511,-0.0178740876085907,0.000716270274683257,-0.000120398130622921,-0.0353789130691621,0.00619000988770103,-1.22310874196239,-0.00100522194941285,0
0.03,0.000670426067028652,0.000378495421265586,-0.0330363876078162,-0.0189373132127643,0.000759271656900462,-0.000127422314757449,-0.0375119550641567,0.0065481268433727,-1.22311609106187,-0.00102180406102528,0
0.04,0.000657190870429191,0.000371206369593287,-0.0324066108006867,-0.018572618570836,0.000744343995047657,-0.000125084075879384,-0.0367955576754794,0.00642008718908186,-1.2231230910068,-0.000953140458576466,0
0.05,0.000673092518134861,0.000380543047349294,-0.033203996462555,-0.0190397592133533,0.000762474452622547,-0.000128449437340002,-0.0377043494113176,0.00658785605922814,-1.2231298910883,-0.000935540493542663,0
0.06,0.00067499383300688,0.000381913195840334,-0.033314729714374,-0.0191083199009799,0.000764727981416342,-0.000129094841853514,-0.0378317730736945,0.00661483571076908,-1.22313645373095,-0.000895598850716789,0
0.07,0.000686959988344327,0.000389154144350869,-0.0339176066627316,-0.0194706095234596,0.000778444398621173,-0.000131830542389899,-0.0385219712877717,0.00675028925653604,-1.22314263529555,-0.000875349904609299,0
0.08,0.000676107371342316,0.000383174988296543,-0.0334019709597844,-0.0191714529095317,0.000766203204159391,-0.000129911120291356,-0.0379352230839265,0.00664493192090057,-1.22314866557251,-0.00081713531152133,0
0.09,0.000673956919399353,0.000382294537655796,-0.0333118102886482,-0.0191273925905395,0.00076388070334484,-0.000129820313453315,-0.037835407633342,0.00663443902966643,-1.22315434845206,-0.000776065023120179,0
0.1,0.000673171973324565,0.00038216349570015,-0.0332878005358296,-0.0191208401374793,0.000763097368394923,-0.000129968648004782,-0.0378105660386132,0.00663666240785886,-1.22315974823772,-0.000739189561878702,0
0.11,0.000672619744812474,0.000382142668772716,-0.0332744916969689,-0.0191197962583078,0.000762570410051328,-0.000130141116187315,-0.0377976635865984,0.00664040917754197,-1.22316488593334,-0.000704436031043505,0
0.12,0.000672124086943636,0.000382138114690842,-0.0332632892336727,-0.0191195774508838,0.000762102212748015,-0.000130309417441208,-0.0377870242022264,0.00664420457870359,-1.22316977532653,-0.000671413376696217,0
0.13,0.000699494336466652,0.000397974548805516,-0.0346172676533417,-0.0199119167412592,0.000793229584138703,-0.000135878236274306,-0.0393299037658478,0.00692808183143676,-1.22317457461738,-0.000686561822895294,0
0.14,0.00071669855008647,0.000408167253119549,-0.0355160703956371,-0.0204218941200229,0.000812876365679616,-0.000139604198843391,-0.0403486425416039,0.00710155341084955,-1.22317920565212,-0.000685460242760216,0
0.15,0.000677756680428467,0.000385958541224962,-0.0335764218353178,-0.0193107243516299,0.000768697549207494,-0.000131993148505171,-0.0381464507106216,0.00671777317494085,-1.22318365312948,-0.000589701977055982,0
0.16,0.000671414027243646,0.000382693438133229,-0.0332763914450075,-0.0191473543851365,0.000761621460311324,-0.000131087050325383,-0.0378086860625378,0.00666653326518628,-1.22318767474308,-0.000552406545787078,0
0.17,0.000670117400750181,0.000382212425780114,-0.0332230084782348,-0.0191232943393356,0.000760238030529843,-0.000131079388711588,-0.0377502745826647,0.0066622404390072,-1.22319146958361,-0.000525219263632102,0
0.18,0.00066961463029777,0.000382140630916783,-0.0332080197702001,-0.0191197033812103,0.000759740400298482,-0.000131185895052014,-0.0377349350466534,0.00666410620175866,-1.22319507614817,-0.000500626612909604,0
0.19,0.000669249174765879,0.000382129029416794,-0.0331992909382991,-0.019119122618046,0.000759392399184049,-0.000131302083415782,-0.0377265075535578,0.00666666305591154,-1.22319850777846,-0.000477419299384752,0
0.2,0.000668918702499312,0.000382126324668037,-0.0331918317687742,-0.0191189827016867,0.000759080340723522,-0.000131414591597461,-0.0377194250481281,0.00666919558512487,-1.2232017735781,-0.000455363167536141,0
0.21,0.000668606973168491,0.000382124975485668,-0.0331848684623375,-0.0191189082700639,0.000758786386064188,-0.000131521868079427,-0.0377128320936126,0.00667161478060184,-1.22320488165594,-0.000434376820050901,0
0.22,0.000668310486526339,0.000382123871284016,-0.0331782495765976,-0.019118859969976,0.000758506865078075,-0.000131624067083439,-0.0377065728506181,0.00667393552408013,-1.22320783964382,-0.000414404615748651,0
0.23,0.000668028493590327,0.000382122846655283,-0.0331719582621051,-0.0191188116674128,0.000758241016365797,-0.000131721293969737,-0.037700622528795,0.00667613926293917,-1.22321065479201,-0.000395396967938447,0
0.24,0.000667760179455043,0.000382121875203151,-0.0331659729134441,-0.0191187648171555,0.000757988063936508,-0.000131813806956585,-0.0376949612661157,0.00667823498950518,-1.22321333399845,-0.000377307204047845,0
0.25,0.000667504787419137,0.000382120951060235,-0.0331602740134802,-0.0191187179635005,0.000757747293550207,-0.000131901863459094,-0.0376895701745584,0.00668022823517342,-1.2232158838278,-0.000360090985463807,0
0.26,0.000672796737212688,0.000385293518658803,-0.0334259716424176,-0.0192774471144139,0.00076380311689988,-0.000133083972508142,-0.0379934298146011,0.00673905322814032,-1.22321827577608,-0.000353385423237705,0
0.27,0.000658885994844968,0.00037736099646068,-0.032750759528916,-0.0188805548666727,0.000748021928826649,-0.000130365907533758,-0.0372233891506761,0.00659597619247117,-1.2232206758108,-0.000313839505146815,0
0.28,0.000658365326986317,0.000377196230721046,-0.0326893530832198,-0.01887231888929,0.000747475987194331,-0.000130389987406338,-0.0371628348698739,0.00660923064304382,-1.22322287419025,-0.000298483415202869,0
0.29,0.000665297936521677,0.00038139428898575,-0.0330762747832682,-0.0190823510145432,0.000755423702520282,-0.000131977186216012,-0.0375981463813899,0.00667498782501364,-1.2232249170527,-0.000296876143243809,0
0.3,0.000657458704693608,0.000377176891667468,-0.0326967400217127,-0.0188713558774667,0.00074661650066902,-0.000130683422491443,-0.037169427235342,0.00660594881134305,-1.22322663301718,-0.000272199015892129,0
0.31,0.000664858090553629,0.0003813903505731,-0.0330642724052708,-0.0190821554462127,0.000755008344401806,-0.000132126000350172,-0.0375867712262641,0.00667902649701753,-1.22322849146151,-0.0002726024192285,0
0.32,0.000665847214995967,0.000382009022321706,-0.0331175729932588,-0.0191131111166052,0.000756148810520968,-0.00013237213906558,-0.0376474164124752,0.00669004446810433,-1.22323030175792,-0.000262377833345164,0
0.33,0.000665854571221351,0.000382099414275877,-0.0331225498553249,-0.0191176322404179,0.000756186286261241,-0.000132455928054467,-0.0376536240489292,0.00669266519260081,-1.2232320310544,-0.000251010121818726,0
0.34,0.000665717508611829,0.000382112193346046,-0.0331202291238061,-0.0191182704019977,0.000756061553733308,-0.000132515872794332,-0.0376516484249998,0.00669411766086641,-1.22323367783458,-0.000239938785888993,0
0.35,0.00066556466316325,0.000382113590412309,-0.0331169221418044,-0.0191183526732234,0.000755918115633182,-0.000132570431420344,-0.0376485567095305,0.00669538040542491,-1.2232352452456,-0.000229363107566916,0
0.36,0.000665415958057574,0.000382113337903553,-0.0331136154829434,-0.0191183361348167,0.000755778018324893,-0.000132621971250514,-0.0376454321457316,0.00669654728029181,-1.22323673699088,-0.000219292108815586,0
0.37,0.000665273946812667,0.000382112865028613,-0.033110443820552,-0.0191183064893299,0.000755644148979997,-0.000132670969094127,-0.0376424305213265,0.00669765313083551,-1.22323815670438,-0.000209706504159801,0
0.38,0.00066513850530845,0.000382112380769882,-0.0331074101410491,-0.0191182912342469,0.000755516461639558,-0.000132717666394599,-0.0376395639870671,0.00669872292520032,-1.22323950786139,-0.000200583638869643,0
0.39,0.000665009823614764,0.000382111914830007,-0.0331045330954893,-0.0191182601048494,0.00075539514470478,-0.000132762028892443,-0.0376368397488261,0.00669972198141162,-1.22324079377203,-0.000191901288634324,0
0.4,0.00066488718779318,0.000382111470612213,-0.0331017857236952,-0.0191182433599926,0.00075527952768289,-0.000132804305382249,-0.0376342427439097,0.00670068805137309,-1.2232420175869,-0.000183638199954551,0
0.41,0.000664770430947473,0.000382111047700472,-0.0330991680076446,-0.0191182280528319,0.000755169453131899,-0.000132844554624231,-0.0376317685258982,0.00670160908227214,-1.22324318230448,-0.000175774129850194,0
0.42,0.000664659560796779,0.000382110645162415,-0.0330966882603319,-0.0191181968817305,0.000755064927626684,-0.000132882775306337,-0.0376294189990417,0.00670246608382052,-1.2232442907786,-0.000168289810424187,0
0.43,0.000664553805196163,0.000382110262030714,-0.0330943154368072,-0.0191181800886327,0.000754965224511702,-0.000132919231595265,-0.0376271752570155,0.00670329816658369,-1.22324534572524,-0.000161166903836049,0
0.44,0.000664453230079548,0.00038210989737294,-0.0330920600310031,-0.0191181647345846,0.000754870405128745,-0.000132953902140056,-0.0376250427422501,0.00670408968899411,-1.22324634972929,-0.000154387957709967,0
0.45,0.000664357544406291,0.000382109550299772,-0.0330899143003638,-0.0191181493653461,0.00075478019521895,-0.000132986887117093,-0.0376230136635539,0.00670484201403281,-1.22324730525044,-0.000147936362424382,0
0.46,0.000664266398928029,0.000382109219964589,-0.03308786732927,-0.0191181325268115,0.000754694265824997,-0.000133018306475563,-0.0376210772472018,0.00670555758100506,-1.22324821463022,-0.000141796310424376,0
0.47,0.000664179735441881,0.00038210890556125,-0.0330859223557514,-0.0191181171292775,0.000754612561661442,-0.000133048180985761,-0.0376192375141044,0.00670623810768622,-1.22324908009654,-0.000135952757489866,0
0.48,0.00066409726290716,0.000382108606321996,-0.0330840707474336,-0.0191181017183589,0.000754534808552711,-0.000133076610673864,-0.0376174858386072,0.00670688524703501,-1.22324990377017,-0.000130391385877519,0
0.49,0.000664018748493223,0.000382108321516754,-0.0330823064858198,-0.019118086294795,0.000754460787078565,-0.000133103675695487,-0.0376158165489265,0.00670750112593733,-1.22325068766906,-0.000125098569237664,0
0.5,0.000663944075784747,0.000382108050449539,-0.0330806290656008,-0.0191180708588404,0.000754390387297569,-0.000133129416512778,-0.0376142291573106,0.00670808598937459,-1.22325143371393,-0.00012006133922787,0
0.51,4.71273968186652,0.0273359254033986,4.36377313809168,-1.36266630505969,-0.180186491790046,4.7093731419408,-1.55347623808194,4.29954498027295,0.0440429602776758,13.6542452148526,1454.08081837621
0.52,4.72707184699865,-0.0175952236520217,3.64795078398126,0.891788345303839,-0.960773286324517,4.62843737462956,0.145705365316853,3.752545978624,0.200951543810389,29.1779268719388,1454.08081837621
0.53,4.68860984591181,-0.00626428984896865,5.57197315691931,0.331296959441687,-2.13930194112712,4.17210842778543,-2.24072837525709,5.11231639133205,0.47246956409859,44.9704500536768,1454.08081837621
0.54,4.73086655493298,0.0234530954445467,3.46006445848432,-1.14864779679656,-3.57860458635034,3.09438808536061,-3.37546462132121,1.37756176201317,0.862792245290636,61.7931644680794,1454.08081837621
0.55,4.72835925835517,0.0070484919099405,3.58641924972898,-0.325192385825459,-4.64137900467902,0.902791167566502,-3.58307180492713,0.360207666994567,1.38017654528988,79.0890648026142,1454.08081837621
0.56,4.70627768756475,0.0505389050136669,4.69145426273285,-2.49298148053387,-4.26524488698682,-1.98979644874107,-3.15186120343255,-4.27673598856602,2.01803631587396,94.7817616110306,1454.08081837621
0.57,4.72841010325351,0.0199975919971356,3.58585881149931,-0.956115377754568,-1.73123680561927,-4.40012285409223,-0.407574787248428,-3.68868849652358,2.7709731005093,111.016159042798,1454.08081837621
0.58,4.67679509430924,0.0502985305111332,6.16763347269363,-2.47128319784101,2.22349454332073,-4.11473137788477,5.15169500255205,-4.19606743250182,-2.63541524265064,127.738566872489,1454.08081837621
0.59,4.68771143306828,0.0354254728770167,5.62286997469872,-1.71560125909067,4.67341443979371,-0.367547164014779,5.73031420601845,1.31280369167099,-1.64172421483903,143.672672554561,1454.08081837621
0.6,4.70341501282511,0.051150549679842,4.83883614252779,-2.50041604178499,2.40670880594494,4.04134654354069,0.268392042802507,5.44007181088717,-0.526245222409048,160.164144182686,1454.08081837621
0.61,4.68612073520638,-0.00341913344536326,5.70477435462019,0.230510674001427,-3.04541874426,3.56162377399895,-3.5289506130398,4.48821714923496,0.706697411932149,176.65919415102,1454.08081837621
0.62,4.66304557655723,0.0801664087290002,6.85971546090947,-3.93576627719848,-4.1542383136951,-2.11960485354373,-4.20707208370641,-6.69675271126771,2.05978224281688,192.486828901812,1454.08081837621
0.63,4.65873170312597,0.0214075154557865,7.07666158638459,-0.99265162979857,1.75497924339606,-4.31558654399121,3.61369659371903,-6.1648757809786,-2.75076244864115,208.826195501988,1454.08081837621
0.64,4.66337386984105,0.0751946439578785,6.84577723442063,-3.68237997886295,4.30429075911489,1.7960487591918,4.80185151582322,6.11283978785872,-1.15936863974264,225.274047433849,1454.08081837621
0.65,4.68750830480979,0.0695010387963486,5.64032728724557,-3.39417609259781,-2.39520294060744,4.02995873122294,-5.84501901419596,3.02811426113632,0.551079951046678,241.610131956058,1454.08081837621
0.66,4.63564108713759,0.0690624777453952,8.23503529429402,-3.36896696130983,-3.24686816920278,-3.30934812408853,-3.23939625092384,-8.28686047995053,2.38062112999325,257.845343179979,1454.08081837621
0.67,4.68668327730006,0.0629769210509502,5.68435509946164,-3.0576853661671,4.3228169275975,-1.81168983128614,6.41548450790108,0.709148238472916,-1.95422187784526,274.019827483691,1454.08081837621
0.68,4.66209292507184,0.048156278666009,6.91526580568885,-2.30902052887178,-0.477482031461472,4.6378271182539,-3.07353724821906,6.61103968751442,0.112921325033197,290.168095518997,1454.08081837621
0.69,4.62601921810612,0.0667280239255388,8.72040961031569,-3.22881708162704,-3.49794940084362,-3.02801195912465,-4.3619914570717,-8.21241950016719,2.29873162215156,306.237819445372,1454.08081837621
0.7,4.61187299416987,0.0647336346687046,9.42921234286475,-3.11745302961728,4.5772267040614,-0.567942477226383,9.71324032681216,2.06918369225474,-1.68021003456787,322.300991604655,1454.08081837621
0.71,4.62259264524982,0.0381209536192093,8.89476363188121,-1.78958126680772,-3.09738238803409,3.43162327671887,-7.33254167083205,5.34352447576104,0.742496058577058,338.600892624498,1454.08081837621
0.72,4.62658701454135,0.0858225928072909,8.69657878213159,-4.17581016492553,0.571617763285344,-4.59194142528577,5.36770304006449,-8.01596139717497,-2.99919918261528,354.851785039626,1454.08081837621
0.73,4.63632655150669,0.0539775014843213,8.21118035861068,-2.56163365617108,1.59514555772307,4.35361322496025,0.319584890461755,8.59554043489127,-0.339564225177366,370.776228864169,1454.08081837621
0.74,4.59954651781536,0.103970931010692,10.051806370509,-5.07868978629111,-3.0538707189864,-3.44100446901194,-2.62689032588791,-10.9513172025715,2.43833083892556,387.127279500161,1454.08081837621
0.75,4.60432259235148,0.0345493892266089,9.81466218599017,-1.58020911026381,3.76189211188522,2.65502315117401,7.05516183199091,7.00352384030245,-0.948706143473051,403.031962173506,1454.08081837621
0.76,4.64629208082814,0.0830484736754182,7.71784292845002,-4.01869853518088,-4.12881089539806,-2.13256834342734,-4.88504591498648,-7.20078910907443,2.06543604480126,419.344195516142,1454.08081837621
0.77,4.59187689709133,0.115183988558506,10.4403424274047,-5.60006559518696,4.11565032627114,2.03961348817016,6.62374011862824,9.82280772044012,-1.08561593022066,435.242201020792,1454.08081837621
0.78,4.57915210253858,0.103462790744458,11.0783804008257,-5.01703620356583,-3.8534174313942,-2.47598720244663,-6.37585981236003,-10.3561371286026,2.16450210952288,451.340335057023,1454.08081837621
0.79,4.58788085614023,0.0565119114777408,10.6437042484006,-2.67477931175273,3.17164000220506,3.31550057196339,5.30678464565561,9.60629591562925,-0.750908502096442,467.532058016749,1454.08081837621
0.8,4.56547324676426,0.0822871182330376,11.7659399596678,-3.96639832853555,-1.8829922412005,-4.15988669993859,-1.01569131828414,-12.3748951503065,2.73455511214546,483.59350865326,1454.08081837621
0.81,4.5586428912758,0.0571156849213408,12.1093109866953,-2.70196712091794,-0.191158770946255,4.55499127726209,-3.3572363105618,11.9442456124306,0.0544707108438422,499.583310576048,1454.08081837621
0.82,4.55449982743068,0.0778573805422337,12.3183147764686,-3.71721894727901,2.63381058211744,-3.71652690926585,10.2889033103966,-7.72638753257207,-2.50797514050275,515.585671197641,1454.08081837621
0.83,4.56040875444655,0.0818633061099563,12.0247865712544,-3.91352576964139,-4.40967441554976,1.1656762661073,-12.6108429421044,-0.936918525510081,1.33031147179458,531.609429836031,1454.08081837621
0.84,4.54904862582723,0.0499108531724599,12.5947415751683,-2.32825467555786,3.84805636162555,2.42668430809576,9.31548697900842,8.7903348925655,-0.997190317517146,547.662331241966,1454.08081837621
0.85,4.56100237051006,0.0751836952002727,11.9990451216644,-3.5877311310565,-0.374625705309661,-4.54621279668513,2.79178570945639,-12.2088013765875,3.07585704319376,563.698301099589,1454.08081837621
0.86,4.54062268242537,0.0841195467124267,13.0200610430027,-4.02309431458092,-3.73171923808288,2.5881657540461,-13.0654865294102,3.87302713356508,0.982930458260183,579.652360101541,1454.08081837621
0.87,4.54365690290122,0.136145088802663,12.8703570057787,-6.60472361866933,-0.904325655974979,4.45483430044625,-9.36750815388728,11.0235318533608,0.23023208066913,595.54785941146,1454.08081837621
0.88,4.5575044944799,0.13688982035909,12.1800311833858,-6.62682681596527,4.54203679564453,-0.399359220669305,12.5417545283211,5.91374556676082,-1.62846882644697,611.526366081406,1454.08081837621
0.89,4.51602431726808,0.133139332196564,14.2562099316923,-6.46746427380754,-1.15274475498599,-4.36845295794594,3.06969708808577,-15.35071905602,2.91306727960351,627.565247670825,1454.08081837621
0.9,4.51693667528201,0.0965230231650087,14.2127319341515,-4.60156166955817,-4.31092856557282,1.35200906987968,-14.9321000247053,-0.456626415126785,1.28825400407368,643.379000754199,1454.08081837621
0.91,4.55411850445266,0.0789999586676124,12.355824330905,-3.75096073082355,1.07007567739862,4.42732135615967,-0.966658313860221,12.8763998464093,-0.219804901032452,659.442779469585,1454.08081837621
0.92,4.52063588334092,0.157608004734717,14.0321431127251,-7.64556000595568,4.51062439401169,-0.339494696648798,14.3285980695609,7.07438375419676,-1.6110702422451,675.235854399984,1454.08081837621
0.93,4.50908364601635,0.159250887400024,14.6120016020512,-7.75026307374296,0.987544549882165,-4.40249383121746,11.1972118116332,-12.1737264703948,-2.88562736384659,691.244841866834,1454.08081837621
0.94,4.51211974221384,0.117429931601158,14.4624792442377,-5.66488329944391,-3.61309410255181,-2.70528471015844,-7.83540789489089,-13.4112114220531,2.23951307051222,707.137845864931,1454.08081837621
0.95,4.49322746627792,0.15200331157906,15.4093933108403,-7.35035703845971,-4.12926543878722,1.7780227800798,-17.0280955550855,-1.23333392391614,1.19801648857446,722.932634905189,1454.08081837621
0.96,4.53194753019346,0.136096585664309,13.4757420855596,-6.55915009779535,-1.09040118294503,4.40091989898569,-9.94843737784722,11.2092224753095,0.27289704832135,738.83343131075,1454.08081837621
0.97,4.5315441184317,0.158284825993586,13.4982647956555,-7.67695505759674,2.44985398276257,3.81551590831111,0.291229023687472,15.5259130844455,-0.535869717978843,754.747304407735,1454.08081837621
