t,iq,id,vq,vd,ia,ib,va,vb,theta_e,omega,r
0,0,0,0,0,0,0,0,0,0,0,0
0.01,0.000342252063881313,0.00018635974080733,-0.0164309742984892,-0.00931982012507051,0.00037963123742145,-8.80144976617628e-05,-0.0183252640532154,0.00458482943425509,-1.29999491653027,-0.00372033264833926,0
0.02,0.000488675863029764,0.000258397153841291,-0.0235375712880418,-0.0129223940280517,0.00053998538041005,-0.000118275006508466,-0.0261363790564535,0.00615590930515172,-1.30002691689708,-0.00482533744562553,0
0.03,0.000560735357098847,0.000293269577550947,-0.0270704252376738,-0.0146663546772592,0.000618742071630348,-0.000132625165833138,-0.0300067290856908,0.00689246629629834,-1.30006289337984,-0.00497484157738938,0
0.04,0.000572275097709344,0.000298877012723742,-0.0277184141549342,-0.014946789949506,0.00063135652686894,-0.000134963669825979,-0.0307058762319602,0.00699043474232141,-1.30009692691017,-0.00444768411285638,0
0.05,0.000585788408324698,0.000308243644723737,-0.0284503953534021,-0.0154152099498489,0.000646878125118934,-0.000140395495236741,-0.0315362377022891,0.00724702733177699,-1.30012756679156,-0.00400997838520957,0
0.06,0.000587041889249381,0.000311707579533731,-0.0285887246496758,-0.0155884390414329,0.000649008260527072,-0.00014341573358556,-0.0317156483346014,0.00737782214202436,-1.30015463575556,-0.00349712961714789,0
0.07,0.000587695097025096,0.000315489406865501,-0.0286865298409296,-0.01577757508405,0.000650645387435621,-0.000146900213479877,-0.0318602857686971,0.00753465729707292,-1.30017760951,-0.00305702306290631,0
0.08,0.000580602548114009,0.00031438545395833,-0.0284076879612883,-0.0157223536918091,0.000643512871836341,-0.000147745444322354,-0.0315766776285691,0.00755662430306635,-1.30019776669398,-0.00258036358297491,0
0.09,0.000574700393466527,0.000313975603153918,-0.0281761553993723,-0.0157018613933355,0.000637713409018656,-0.000148939012969241,-0.03134796370753,0.00759929968460752,-1.30021471895859,-0.00218023342957532,0
0.1,0.000569763127390652,0.000313822807971692,-0.0279826964276152,-0.0156942171387456,0.00063291280079015,-0.000150120494047886,-0.0311593913731025,0.00764408792571051,-1.30022897924043,-0.00184396928947252,0
0.11,0.000565621440754376,0.000313765308983647,-0.0278205037066268,-0.0156913506748641,0.000628904609228656,-0.000151179614543797,-0.0310022409781454,0.00768504826432432,-1.30024097649972,-0.00156121162457109,0
0.12,0.000562142275895945,0.000313743221375924,-0.0276842942309101,-0.0156902390947877,0.000625544568785286,-0.000152094509342202,-0.0308706114270358,0.0077206929764222,-1.30025107051446,-0.00132337358948297,0
0.13,0.000575471960309224,0.000322720203993763,-0.0283445566942606,-0.0161391760642417,0.000640787136089802,-0.000157188273703055,-0.0316267667655061,0.00797712493239409,-1.30026007001551,-0.00130532860299246,0
0.14,0.000582670757834598,0.000327965232502026,-0.0287590580248197,-0.0164014850277308,0.000649124513371402,-0.000160323959238766,-0.0320962270944724,0.00811938026513611,-1.30026822952272,-0.00123127246799152,0
0.15,0.000565373873920285,0.000318995894562271,-0.027908703151762,-0.0159529295047914,0.000630058626301878,-0.000156307790854468,-0.0311568706880061,0.00791461182427055,-1.30027541661962,-0.00088695682432102,0
0.16,0.00055705409796343,0.000315676381490951,-0.0275281195204588,-0.0157869195102859,0.000621153524461945,-0.000155335588123182,-0.030745723492721,0.00785650551237963,-1.3002806703295,-0.000686318041723399,0
0.17,0.000552792219567858,0.000314447670971234,-0.0273371530568137,-0.0157254755074737,0.00061671765817971,-0.000155292967913317,-0.0305452503240629,0.00784845206573546,-1.3002847422567,-0.000556626770860327,0
0.18,0.000550409286521835,0.00031399272217816,-0.0272332538483404,-0.0157027202539332,0.000614299299752574,-0.000155493352249616,-0.0304390230137959,0.00785438835983014,-1.30028801529698,-0.00046469160395787,0
0.19,0.000548932636045609,0.000313824149499981,-0.0271707653278102,-0.015694296629762,0.000612830882788892,-0.000155727148646454,-0.0303765347790137,0.00786305093594472,-1.30029070201521,-0.000394886838749296,0
0.2,0.000547922503534033,0.000313761586474369,-0.0271291465647746,-0.0156911568451987,0.000611840416906661,-0.000155938152052019,-0.0303355728739695,0.0078712143206583,-1.30029293311566,-0.000339468977072709,0
0.21,0.000547174450022533,0.000313738281848884,-0.0270989289028433,-0.0156899917694538,0.000611113046806273,-0.000156116726452052,-0.0303061280169832,0.0078782227707213,-1.30029479742253,-0.000294296548269945,0
0.22,0.000546589844811971,0.000313729529273661,-0.0270756107120982,-0.0156895534984437,0.000610547116540811,-0.000156265461550366,-0.0302835283106233,0.00788407873332634,-1.3002963603829,-0.000256927746025192,0
0.23,0.000546117489378708,0.000313726182140836,-0.0270569041818649,-0.0156893955062481,0.000610090837496035,-0.000156389256566284,-0.0302654494254764,0.0078889648454045,-1.30029767298205,-0.000225766129014839,0
0.24,0.000545728811758573,0.000313724852453572,-0.0270415702238704,-0.015689323088149,0.000609715765087631,-0.000156492507277645,-0.0302506449846896,0.00789302585496303,-1.30029877632763,-0.000199669679037825,0
0.25,0.000545405526371995,0.000313724283747693,-0.0270288368290759,-0.0156893012434304,0.000609403937730747,-0.000156578910100869,-0.0302383614365923,0.00789643536476584,-1.30029970422044,-0.000177765891288764,0
0.26,0.000547253178709394,0.000315005158430456,-0.0271184179802228,-0.0157533499157675,0.000611526575284873,-0.000157319862591114,-0.0303417949935326,0.00793423618813584,-1.30030029915185,-0.000187982192228486,0
0.27,0.000543197992414403,0.000312538929415019,-0.0269284728011249,-0.0156300207574666,0.000606959679323514,-0.000156027526540739,-0.0301257935903618,0.0078661780319718,-1.30030134199726,-0.000119777071395609,0
0.28,0.000542343916754241,0.000312216381517545,-0.0268421564093502,-0.0156138824967808,0.000606050378802314,-0.000155945282973907,-0.0300382988156661,0.00787370888387753,-1.30030193575577,-9.81185142804654e-05,0
0.29,0.000543523750086611,0.000313165864409156,-0.0269464774629028,-0.0156613669295913,0.000607440973855881,-0.000156545165432743,-0.0301515124588592,0.00789160048439365,-1.30030223960262,-0.000106126028969905,0
0.3,0.000534393578578923,0.000308616857847,-0.0265098220880022,-0.0154338795258708,0.000597427375693211,-0.000154600752087646,-0.0296699540077688,0.00778903932032124,-1.30030146228786,-1.34818666946738e-05,0
0.31,0.000540246222518478,0.000311833935463627,-0.0267880493952487,-0.015594765305912,0.000603926848998993,-0.000156136944091929,-0.029981055089877,0.0078697287784598,-1.30030140684834,-8.36623434612192e-05,0
0.32,0.00054271735445679,0.00031302439114845,-0.0269063343786345,-0.0156543010756102,0.000606626185675034,-0.000156623967309586,-0.0301109454452535,0.00789550101347002,-1.30030167252074,-0.000107660400142619,0
0.33,0.000543719062125165,0.000313464887664419,-0.0269549881792922,-0.0156763198712752,0.000607709117785343,-0.000156781001646552,-0.0301637108873864,0.00790372937001795,-1.30030203326275,-0.000112454235679884,0
0.34,0.000544088461757204,0.000313627862207983,-0.026973568634317,-0.0156844730945586,0.000608108576661728,-0.00015683956503675,-0.03018379146557,0.00790663227215763,-1.30030239706921,-0.000109723372285266,0
0.35,0.000544191203391085,0.000313688142822457,-0.0269793716594502,-0.0156874901995713,0.000608223637765469,-0.000156870402750103,-0.0301901870498761,0.0079079991017884,-1.30030272965944,-0.000104453980559645,0
0.36,0.000544186257633166,0.0003137104252359,-0.0269799317860551,-0.0156886076630156,0.000608224780128101,-0.000156893373781696,-0.0301910230986879,0.00790893506350342,-1.30030302113812,-9.87148147648851e-05,0
0.37,0.00054414202050867,0.000313718649966871,-0.0269785031760272,-0.0156890196665008,0.0006081843099196,-0.000156913272185353,-0.0301897545438934,0.00790972137905152,-1.30030327150357,-9.33123182625304e-05,0
0.38,0.000544087189151128,0.000313721675828013,-0.0269764616229151,-0.0156891727431587,0.000608132247388911,-0.00015693096879974,-0.0301878264420643,0.00791042083337479,-1.30030348441012,-8.8514640431726e-05,0
0.39,0.000544033438607638,0.000313722780596449,-0.0269743764286305,-0.0156892168217605,0.000608080718181995,-0.000156946505420439,-0.030185827419927,0.00791102592386445,-1.30030366454019,-8.43671182571981e-05,0
0.4,0.000543984660622676,0.000313723176810752,-0.0269724455831484,-0.0156892374780676,0.000608033795808609,-0.000156960013428812,-0.0301839710981547,0.00791156635091079,-1.30030381653799,-8.08286994853595e-05,0
0.41,0.000543942110835098,0.00031372331281262,-0.0269707414134444,-0.0156892450137433,0.000607992809391308,-0.000156971591921379,-0.0301823298932367,0.00791203284295393,-1.30030394462211,-7.78300501189068e-05,0
0.42,0.000543905672844456,0.000313723354201747,-0.0269692692191676,-0.0156892481587829,0.000607957690434204,-0.000156981433825416,-0.0301809112157283,0.00791243250790409,-1.30030405247832,-7.52975473981206e-05,0
0.43,0.000543874764579102,0.000313723361994519,-0.0269680105597184,-0.0156892498254342,0.000607927893838965,-0.00015698975539709,-0.030179698048745,0.00791277317509788,-1.30030414326725,-7.3162529653392e-05,0
0.44,0.000543848571131786,0.000313723358546905,-0.0269669342565216,-0.0156892500169446,0.000607902639881527,-0.000156996797563215,-0.0301786603270252,0.0079130632599385,-1.300304219675,-7.13642741967216e-05,0
0.45,0.00054382651042838,0.000313723351943324,-0.0269660194259742,-0.0156892501909057,0.000607881369456412,-0.000157002725030684,-0.030177778297829,0.00791330981586947,-1.30030428397311,-6.98503921217644e-05,0
0.46,0.000543807942184616,0.000313723345016512,-0.0269652411547916,-0.0156892503500065,0.000607863466016872,-0.000157007712783069,-0.0301770279393019,0.00791351956033697,-1.30030433807774,-6.85762332150417e-05,0
0.47,0.000543792226116226,0.000313723338680858,-0.0269645733428145,-0.0156892504969607,0.000607848312550692,-0.000157011933771866,-0.0301763840882537,0.00791369951884643,-1.30030438360405,-6.7503977893113e-05,0
0.48,0.000543779071184908,0.000313723333162067,-0.0269640066434682,-0.0156892506330031,0.000607835628448949,-0.000157015466808559,-0.030175837727537,0.00791385223109087,-1.30030442191127,-6.66016941909691e-05,0
0.49,0.000543768011729374,0.000313723328448725,-0.0269635219979046,-0.0156892507601211,0.000607824964799398,-0.000157018437005577,-0.0301753704827714,0.00791398282617121,-1.30030445414385,-6.58424656863627e-05,0
0.5,0.000543758640296001,0.000313723324457166,-0.0269631025956151,-0.0156892508800468,0.000607815928790079,-0.00015702095374206,-0.0301749661475286,0.0079140958267017,-1.30030448126517,-6.52036231871212e-05,0
0.51,3.61331237877371,0.0320380349552205,1.07472319046559,-1.59723418667649,-0.407648191487809,3.59038657170225,-1.71608468463382,0.872490881544261,0.121921096976307,37.6422929758733,988.785280431395
0.52,3.55555363944074,0.00810905035256226,1.0095690839107,-0.394240793373873,-1.85867768017068,3.03106329872427,-0.865329127604573,0.652580293348995,0.552356668206061,79.7409743350587,988.785280431395
0.53,3.46640258745264,0.0261351894799395,2.19195207938287,-1.28958263258085,-3.32618727589638,0.976272580836186,-2.46166914023108,-0.638641001345064,1.29284274475043,122.55744453213,988.785280431395
0.54,3.37135003508114,0.0270120413935289,2.95784489593124,-1.33175918537192,-2.40198566498303,-2.36583929602961,-1.14850913319497,-3.03370330243033,2.35662538473414,167.943146844887,988.785280431395
0.55,3.30208295210542,0.0396133804850447,2.82305346797306,-1.95595841906374,1.83535139435787,-2.74532444380028,3.20991919224523,-1.22140206295749,-2.54030030688835,209.301847200154,988.785280431395
0.56,3.25978694903736,0.025039170562619,1.63039606346695,-1.21864700631585,2.49310863280286,2.10029694524861,0.446503973356526,1.9859320359841,-0.863025971849078,248.73601214313,988.785280431395
0.57,3.1342519947758,0.0106145932262058,3.95326950702554,-0.498837109320601,-2.8096450399829,1.38907990614109,-3.7692961696571,1.29212408158876,1.11502783574258,290.014948083349,988.785280431395
0.58,3.07479681601865,0.0320597364436879,3.50779248895982,-1.56153909545838,0.688372417669339,-2.9969228720625,2.33904914524873,-3.04497316710001,-2.90538955178023,327.792953247327,988.785280431395
0.59,3.02400842190318,0.0325451121242225,2.22200721207937,-1.58550478347295,1.08903089523085,2.82129364464198,-0.707386544578575,2.63642670019432,-0.357621194917573,366.024828516268,988.785280431395
0.6,2.94029641590723,0.0233692687961251,2.61731603656392,-1.12892814622524,-1.86710069012629,-2.27152463095845,-0.768036919237361,-2.74498475137524,2.46155236881012,403.609084108346,988.785280431395
0.61,2.8323243478763,0.0248898698229694,4.43811982847944,-1.20107640835351,1.91789244599767,2.08431506322288,2.08536314728777,4.09765209535653,-0.735051836813769,439.104700132146,988.785280431395
0.62,2.77285472352346,-0.00160678066513786,3.73084957391019,0.135293565893367,-1.39815569667097,-2.39455351733407,-1.99986733949754,-3.15247101755575,2.61252354979776,473.605884938923,988.785280431395
0.63,2.71066572069601,0.0689482383436688,3.09277943280864,-3.39219408553721,0.26003794613856,2.69904478945703,-3.16551636356009,3.32442047370531,-0.0706175643518369,507.624491742455,988.785280431395
0.64,2.61884150762289,0.0568305695955009,3.94542895949405,-2.78510825229266,1.50445068600184,-2.14433875334045,4.58024588913467,-1.53120385529424,-2.50810185611992,540.730333099316,988.785280431395
0.65,2.5348587806555,0.0241110168340404,4.44121771921357,-1.14667384826287,-2.53494954591845,0.0110081173199178,-4.43523127988283,-1.1696149954987,1.57596530735435,572.808516201356,988.785280431395
0.66,2.49650785918764,0.0210889371410283,2.66805386805506,-0.992146616329848,0.972138429681532,2.2995528060455,0.101033609640459,2.84475984238764,-0.391517076259779,603.976522857294,988.785280431395
0.67,2.39496135387716,0.0362129080315773,4.06872240642984,-1.74796348629203,2.00534245965955,-1.30986750504003,4.37333603468029,-0.695564732976961,-2.13429075972418,634.287821789089,988.785280431395
0.68,2.2944584428078,0.0205545214465479,5.4007331389327,-0.981314607389111,-1.15369815312996,-1.98341690160904,-1.82091843334516,-5.17833495013068,2.62371670921942,663.768356648714,988.785280431395
0.69,2.23887840028425,0.0474442241267785,4.51289385732124,-2.3214588084233,-2.15031268540905,0.625286174988116,-4.95995558429268,-1.07434750825686,1.30899963444963,691.950465213323,988.785280431395
0.7,2.14403758796063,0.0185629641676337,5.70051220462213,-0.867460652717129,-0.402853226737129,2.10593234457667,-1.97005813366196,5.41915107088284,0.197668754910812,718.959109162512,988.785280431395
0.71,2.11728264360442,0.0281059605280428,3.49541404218188,-1.34841153774448,1.41256328801141,1.57744752536752,1.2806459574883,3.5208065742062,-0.717035165531534,745.550234580225,988.785280431395
0.72,2.02760583727382,0.0455021479017222,4.36775204320328,-2.22447537049984,2.01636003540532,0.218055232523285,4.04207965894597,2.77256931664514,-1.44063441061105,771.166272753975,988.785280431395
0.73,1.94044353127621,0.018843740114096,5.28066083880497,-0.877794988067535,1.77197544123833,-0.791062083695968,5.19268026056425,-1.30075925793794,-1.98096630309967,795.51087064124,988.785280431395
0.74,1.85730983167889,0.0314637500508997,5.9262004308993,-1.52778626229553,1.3071768925526,-1.31980239050961,5.30811055594043,-3.04597188699498,-2.34406166694595,819.533737551155,988.785280431395
0.75,1.82093626431495,0.0229929911590369,4.3733050669855,-1.0857663186493,1.01650221245515,-1.51098008207041,3.37989153142277,-2.98010384776284,-2.53676837411102,842.051978517973,988.785280431395
0.76,1.71513999676507,0.0172018775158306,6.24862816488108,-0.814026799664607,0.920083542070582,-1.44756602222635,4.08719976071539,-4.79612256823419,-2.56537285425416,864.211023842573,988.785280431395
0.77,1.6663251184302,0.0364453185079757,5.40880955368083,-1.76484354107898,1.05225562470613,-1.29256557351141,4.84962594788369,-2.97506666783964,-2.43645514211866,885.20409217526,988.785280431395
0.78,1.61878802930432,0.0284351721056814,4.48171562232563,-1.36667290061078,1.33395328239226,-0.91752486790634,4.49121211570378,-1.3351342510838,-2.15573963056455,905.391089985082,988.785280431395
0.79,1.50309879934239,0.0138587910170356,7.02882180261927,-0.654733798925664,1.48190473826271,-0.251905564423496,7.04375167056765,-0.467519714885975,-1.72995463528531,924.978541969241,988.785280431395
0.8,1.45274866751522,0.0225185348846745,6.40276804007607,-1.07799359808462,1.34350939025977,0.553144008070615,5.4563060706046,3.51940802357647,-1.16473172302048,943.490675013273,988.785280431395
0.81,1.38090371920024,0.0617150160497586,6.86098506434024,-3.0323003270913,0.675470111410748,1.20600329746557,0.372989285963972,7.49191833373362,-0.465894620018775,961.202925130997,988.785280431395
0.82,1.31690914695414,0.0552725773065897,6.97951705573861,-2.72137117738775,-0.41266352039921,1.25180412927316,-5.00776233844716,5.5715200599202,0.360383254531921,978.303026608696,988.785280431395
0.83,1.28928977590816,0.0455888804924365,5.3545931921212,-2.24659822630864,-1.23332477384965,0.378492370457547,-5.75408697186361,-0.780611916251172,1.30837741673509,994.593764666742,988.785280431395
0.84,1.18325017999668,-0.000358713289798751,7.7135259188231,0.0438985893816514,-0.822355751658656,-0.850771493910866,-5.39411539305386,-5.51397572654476,2.37287330923093,1010.14177423174,988.785280431395
0.85,1.14250340511499,0.0470137538028981,6.86565798879866,-2.31589989782796,0.408943657388203,-1.06784334470368,4.84377579769409,-5.38873714125929,-2.73473317676028,1024.81747445556,988.785280431395
0.86,1.07619704436912,0.055306054137061,7.3358601709393,-2.71743499304216,1.0752781524828,0.0709628968279183,6.96762280488529,3.55689890745098,-1.45355186667294,1038.85660866228,988.785280431395
0.87,1.01022074933943,0.0536084810760896,7.85036253247129,-2.63533681894488,-0.93348485778424,0.389904926779263,-8.27943471823149,0.155411669634768,1.22815210521771,1052.17623851303,988.785280431395
0.88,1.01062016380138,0.017121169886149,5.11759861019544,-0.811428620334937,-0.44301124754528,-0.908508274309361,-1.4295116153028,-4.98043456765445,2.70483368433582,1064.78947878058,988.785280431395
0.89,0.967727651419275,0.00723780654527112,4.60970989665246,-0.319929375083672,0.872077227106361,-0.419559892181715,4.30534135954326,-1.6780393064953,-2.01173419338524,1076.74604385646,988.785280431395
0.9,0.877418721735358,0.00579582393928768,6.53947683901653,-0.252046863413498,0.314482640695969,0.819144598668474,2.06754418628091,6.20915018236523,-0.359958908054191,1087.98997011322,988.785280431395
0.91,0.795571692079084,0.0124523278186423,8.10072873976351,-0.588130078215677,-0.777458643823891,0.169255531221865,-8.05742468348768,1.02255101293577,1.37208824925386,1098.66139591024,988.785280431395
0.92,0.768349153850849,0.0375287787744077,7.00288013153254,-1.84257129937744,-0.00812048261954923,-0.769222262562414,2.10900632250903,-6.92730044544912,-3.10334439979643,1108.65470715197,988.785280431395
0.93,0.739885523711447,0.0144799275424796,6.04281069434207,-0.689301096950627,0.700963800553244,0.237255151289387,5.45110357098488,2.69743710738696,-1.2248620038956,1117.98334977394,988.785280431395
0.94,0.670270680468178,0.0122106489251533,7.18469768255504,-0.577024529249194,-0.432944136752124,0.511831280300849,-5.17283899362279,5.01941977155952,0.720308576662247,1126.79252664485,988.785280431395
0.95,0.638761296020418,0.0279108395489027,6.49193028301275,-1.36238806635058,-0.282460204765945,-0.573595014780977,-1.36367888827688,-6.49165925881053,2.72768009266137,1135.02082949256,988.785280431395
0.96,0.554303380782901,0.049150708851071,8.50112269834363,-2.42877599599152,0.556462432343082,-0.00419422444999266,8.27703673005853,3.10784538551388,-1.4898936553742,1142.71122809544,988.785280431395
0.97,0.531868289055272,-0.0318239399505943,7.47318191796532,1.59449830022588,-0.339078048812821,0.411002088644147,-3.11465936536133,6.97780551794001,0.630038966322198,1149.85275872164,988.785280431395
