t,iq,id,vq,vd,ia,ib,va,vb,theta_e,omega,r
0,0,0,0,0,0,0,0,0,0,0,0
0.01,0.00116547068529915,0.000648713018886773,-0.0573431211928213,-0.0324949477839985,-0.00105923980605565,0.000810655002101414,0.0520327980628237,-0.0404566818383909,1.42546788001636,-0.00452238834971808,0
0.02,0.00128854273884515,0.000722375133212348,-0.0636635959001261,-0.0361847885250964,-0.00117031885316682,0.000901400024870432,0.057750889409569,-0.0450247391546495,1.42543673683353,-0.00429547766279313,0
0.03,0.00132007197476194,0.000742586044604192,-0.0653104770613979,-0.0371971998612384,-0.00119856224850074,0.000925998158022809,0.0592324665641671,-0.0462666726297573,1.42540885860639,-0.00373663339164942,0
0.04,0.00129393430292992,0.000731621458704762,-0.0641287661227356,-0.0366479542301758,-0.00117426897071011,0.000911388130032122,0.0581418023304733,-0.0455532876469498,1.42538706097763,-0.00306993738491331,0
0.05,0.00131053394733415,0.000742660317155521,-0.0650146762340654,-0.0372009181923682,-0.00118907608836796,0.000924738681933621,0.0589373480692369,-0.0462299193460386,1.42536776475244,-0.00265949950000553,0
0.06,0.00130697168631721,0.000742758676622974,-0.0649070355609853,-0.0372058400214597,-0.00118552233810393,0.000924338804979086,0.058829388409605,-0.0462201347506614,1.42535171099885,-0.00223944519830364,0
0.07,0.00134140057378832,0.000763330615256073,-0.0666341582579819,-0.0382362961131993,-0.00121659376516387,0.000949699288254573,0.0603883086028923,-0.047490815651954,1.42533864833842,-0.00206650124848255,0
0.08,0.00130165321062733,0.000742944551634361,-0.0647473006172149,-0.0372151446203173,-0.00118021066699993,0.000923780530775141,0.058668870483799,-0.0462076136852181,1.42532745064869,-0.00160495614809414,0
0.09,0.00129910105236662,0.000742751505770247,-0.0646599684435748,-0.0372054860133486,-0.00117770513337516,0.000923230178452714,0.0585834448468507,-0.0461859253289308,1.42531844486385,-0.00136681089313634,0
0.1,0.00129733738251329,0.000742747504913108,-0.0646045248594428,-0.0372052728878087,-0.00117595381796466,0.000922979283697864,0.0585282748248038,-0.0461781117955565,1.42531101709835,-0.00117193736493548,0
0.11,0.00129588593303735,0.000742745652877836,-0.0645589513461927,-0.0372051805076652,-0.00117451231547771,0.00092277422867362,0.0584829132002192,-0.0461717718865504,1.42530488870346,-0.00101117133301206,0
0.12,0.00129468837979068,0.000742744137563933,-0.0645213413099963,-0.037205118616987,-0.00117332296933439,0.000922605042411404,0.0584454760616237,-0.0461665535174035,1.42529983235062,-0.000878528337855737,0
0.13,0.00135660761596604,0.000777440403117492,-0.0675536805086275,-0.0389430905195353,-0.00122955240294742,0.000965918574468252,0.0611935392549431,-0.0483261296084032,1.42529447594738,-0.00102383707550633,0
0.14,0.00145692930144588,0.000836365956715351,-0.0726777641506889,-0.0418947534328659,-0.00132026620543409,0.00103877242442829,0.0658353065377257,-0.0519898084265318,1.42529038096509,-0.00137459558181236,0
0.15,0.00129346877841879,0.000743614594350133,-0.0645150492390699,-0.0372486993423983,-0.00117197804616517,0.000923304719462423,0.0584323311014505,-0.0462095213464764,1.42528682894212,-0.000545821816882426,0
0.16,0.00129117803724433,0.000742747830430391,-0.0644114235958001,-0.0372052793816631,-0.0011698354308008,0.000922117198795404,0.0583360082067887,-0.0461516462328559,1.42528492010737,-0.000487430802479152,0
0.17,0.00129078676494833,0.000742739271823908,-0.0643987407660159,-0.0372048759026417,-0.0011694480929926,0.000922053825040194,0.058323445765868,-0.0461494992082834,1.4252833567387,-0.000446324978944812,0
0.18,0.00129048129672085,0.000742738809081199,-0.0643891122666431,-0.0372048401501345,-0.00116914473098721,0.000922010582209618,0.058313864688043,-0.046148142912018,1.4252820669812,-0.000412489747698517,0
0.19,0.00129022949596213,0.000742738488876394,-0.0643811710751613,-0.0372048100974179,-0.0011688946567149,0.000921974997823928,0.0583059626742077,-0.046147023739652,1.42528100284319,-0.000384574223533571,0
0.2,0.00129002134536404,0.000742738225236699,-0.0643745908586374,-0.0372048077911662,-0.00116868793476677,0.000921945580743891,0.0582994118206216,-0.0461461184972707,1.42528012485519,-0.000361541977383709,0
0.21,0.00128984963276456,0.000742738007704572,-0.0643691547243816,-0.0372048083035331,-0.00116851740066818,0.000921921313110562,0.0582939996378225,-0.0461453729756253,1.42527940045425,-0.000342538766422415,0
0.22,0.00128970842656114,0.000742737828214656,-0.0643646846493917,-0.0372047779908388,-0.00116837716188573,0.000921901358382595,0.0582895536223376,-0.0461447296435017,1.42527880277339,-0.000326859790666755,0
0.23,0.00128959154557818,0.000742737680115151,-0.06436096940444,-0.037204778367856,-0.00116826108308635,0.000921884839681975,0.0582858548341532,-0.0461442200316851,1.42527830964526,-0.000313923541036474,0
0.24,0.00128949503727651,0.000742737557918034,-0.0643578920861141,-0.0372047786930277,-0.00116816523743074,0.000921871199876189,0.0582827912188111,-0.0461437978401166,1.42527790278057,-0.000303250231943994,0
0.25,0.0012894155256118,0.000742737457093057,-0.0643553504824772,-0.0372047789749717,-0.00116808627129529,0.00092185996261324,0.0582802609468847,-0.0461434491370336,1.42527756708909,-0.000294444006784536,0
0.26,0.00130126716238832,0.000749100887153125,-0.0649325489423523,-0.0375235357186924,-0.00117888968399087,0.000929874980856919,0.0588051259172488,-0.0465425483921914,1.42527732172941,-0.00034187987479924,0
0.27,0.00125116629369995,0.000721347086217816,-0.062498735848871,-0.036133286495585,-0.00113334232545833,0.000895150203379579,0.0565986065476979,-0.0448141061780537,1.42527678134509,-0.000101654726622043,0
0.28,0.00123315032301471,0.000710005180331071,-0.0614148476005234,-0.0355651572404258,-0.00111716116004655,0.000881316071413483,0.0556085436152301,-0.04409482727401,1.42527648519034,-1.27098982275955e-05,0
0.29,0.00128858885027426,0.000742431528642821,-0.0643183083349597,-0.0371894368952137,-0.00116731194118774,0.000921438349394343,0.0582457972807895,-0.046122945512827,1.4252767494204,-0.000270129116171234,0
0.3,0.00128596675040378,0.000741015832135259,-0.0641854301773084,-0.0371185339038127,-0.00116492406551122,0.00091965584226491,0.0581246662762724,-0.0460334462807923,1.42527808163665,-0.000291789559808222,0
0.31,0.00128941552479198,0.000742721428494371,-0.0643544750131119,-0.037203973312738,-0.00116808875144695,0.0009218439047162,0.0582795194009195,-0.0461425151337247,1.42527773710074,-0.000298720407087242,0
0.32,0.00128938269648221,0.000742737265945581,-0.0643540835101998,-0.0372047708869541,-0.00116805369108475,0.000921855172440517,0.0582790022426114,-0.0461432653677025,1.42527743065166,-0.000290861842033837,0
0.33,0.00128932320826171,0.000742737338691441,-0.0643521779376792,-0.0372047798488514,-0.00116799458774644,0.000921846913887402,0.058277103832506,-0.0461430126651863,1.42527717755931,-0.000284224475550147,0
0.34,0.00128927408657746,0.000742737277357461,-0.0643505959291829,-0.0372047493151055,-0.00116794580163519,0.000921839974149127,0.0582755333366313,-0.0461427652224267,1.4252769687381,-0.000278746449319033,0
0.35,0.00128923322479955,0.000742737225618555,-0.064349265704289,-0.0372047494997627,-0.00116790522041439,0.00092183419896173,0.0582742091944755,-0.0461425825542935,1.4252767964462,-0.000274226675606847,0
0.36,0.00128919958077159,0.000742737182919424,-0.0643481633089125,-0.0372047496659097,-0.00116787180713142,0.000921829444127442,0.0582731118672885,-0.0461424311478704,1.4252766542937,-0.000270497546524481,0
0.37,0.00128917175750971,0.000742737147688773,-0.0643472422513892,-0.0372047498171148,-0.00116784417493469,0.000921825511682472,0.0582721951109831,-0.0461423045724917,1.4252765370086,-0.000267420754680873,0
0.38,0.00128914882369134,0.000742737118621262,-0.0643464750764406,-0.0372047499557779,-0.00116782139852329,0.000921822270371943,0.0582714315593527,-0.0461421991029754,1.42527644024028,-0.000264882186602712,0
0.39,0.00128912996440923,0.000742737094638451,-0.0643458369373929,-0.0372047500839938,-0.00116780266845101,0.000921819605155163,0.0582707964624361,-0.0461421113476544,1.42527636040019,-0.000262787690708936,0
0.4,0.00128911436475613,0.000742737074850642,-0.0643453001406315,-0.037204750203849,-0.00116778717582262,0.000921817400444642,0.0582702622823725,-0.0461420374654421,1.42527629452707,-0.000261059585367815,0
0.41,0.00128910144265542,0.000742737058524561,-0.0643448463448596,-0.03720475031683,-0.00116777434256736,0.00092181557396443,0.0582698107587503,-0.0461419749406186,1.42527624017738,-0.000259633777811944,0
0.42,0.00128909084886115,0.000742737045054411,-0.064344467004204,-0.0372047504238401,-0.00116776382136026,0.000921814076826662,0.0582694333428803,-0.0461419226523446,1.42527619533548,-0.000258457387034235,0
0.43,0.0012890820012967,0.000742737033940738,-0.0643441403615459,-0.0372047505263691,-0.00116775503481601,0.000921812826074818,0.0582691084306375,-0.0461418775440953,1.42527615833809,-0.000257486782513117,0
0.44,0.00128907478354676,0.000742737024771042,-0.064343866643119,-0.0372047506247198,-0.00116774786654471,0.000921811806022323,0.0582688361825094,-0.0461418397289375,1.42527612781317,-0.00025668596602154,0
0.45,0.00128906884636535,0.000742737017205685,-0.0643436333979232,-0.0372047507197857,-0.00116774196999691,0.000921810967012773,0.0582686042267063,-0.0461418074682733,1.42527610262815,-0.00025602523650642,0
0.46,0.00128906384050353,0.000742737010963904,-0.06434342724125,-0.0372047479020738,-0.00116773699879493,0.00092181025921537,0.0582683996987979,-0.0461417759968992,1.42527608184926,-0.000255480088529274,0
0.47,0.00128905976596727,0.000742737005813786,-0.0643432516003973,-0.0372047479923541,-0.00116773295226759,0.000921809683301945,0.0582682251102291,-0.0461417516159744,1.42527606470549,-0.000255030303388641,0
0.48,0.00128905638992294,0.00074273700156475,-0.0643430976581906,-0.0372047480808393,-0.00116772959948374,0.000921809206063874,0.0582680721296214,-0.0461417302049609,1.4252760505611,-0.000254659199244666,0
0.49,0.00128905359595522,0.00074273699805925,-0.0643429618950083,-0.0372047481678315,-0.00116772682479772,0.000921808811076891,0.0582679372503024,-0.0461417112843582,1.42527603889144,-0.000254353012417528,0
0.5,0.00128905138406411,0.000742736995167092,-0.0643428462013604,-0.0372047482533262,-0.00116772462782932,0.000921808498717772,0.0582678223228245,-0.0461416951535275,1.42527602926357,-0.000254100386908987,0
0.51,4.55288690695641,-0.0621910904821169,12.3572828802291,3.12979019272653,-1.34063552825916,4.35147599092994,-0.473364100965953,12.7386794158738,0.285201085262606,87.3140748523149,1969.98889972491
0.52,4.51706994198824,-0.0318041382282979,14.1501810253986,1.62914690528997,-4.34632742702123,1.23059752199697,-13.1326493886811,5.51500342017481,1.28784212751346,186.927960876673,1969.98889972491
0.53,4.53868229145396,0.0812801563499912,13.0719660704086,-4.03889177742708,-0.489071948024616,-4.51298704144267,2.84709085882333,-13.3821903056744,3.05155042565874,294.88595251517,1969.98889972491
0.54,4.39256481668822,-0.0474123959439023,20.3804779993829,2.44694019400544,2.81631130036651,3.37124076024307,15.0951671509193,13.9099722674841,-0.706746015701784,393.201428406622,1969.98889972491
0.55,4.43165407427917,0.0748044400112855,18.4289226978561,-3.67711577086137,-2.49875904034796,-3.66078636314658,-7.05955938546985,-17.4157685296658,2.55953568379453,496.571199155625,1969.98889972491
0.56,4.40318743112109,0.055389557131522,19.8553656475044,-2.70179352931055,-1.17828218688723,4.24296814089927,-8.14702696694088,18.307407923326,0.283455575785829,597.983349673626,1969.98889972491
0.57,4.25336840329664,0.00633900166069079,27.3496237415764,-0.230995180783646,4.04298894191025,1.32114472057217,25.91206561525,8.75329270219629,-1.25347016041529,698.143227770396,1969.98889972491
0.58,4.08916284884488,0.0573144744053302,26.2008125133779,-2.74894863273,3.58457696885652,-1.96858977638636,24.4293473343979,-9.86135303910744,-2.05899701952205,795.715562760481,1969.98889972491
0.59,3.83871603262191,0.120855537810646,26.8730028687384,-5.91373323781447,3.11387084919631,-2.24814482955468,25.5811961026715,-10.1357254278081,-2.16464761858363,888.473758919252,1969.98889972491
0.6,3.55679076729239,0.117382631970371,29.3674913998889,-5.76849271939556,3.54948234377434,-0.256348075512361,29.5705623075202,4.61594022852707,-1.60990198217397,975.823209275076,1969.98889972491
0.61,3.29872289445602,0.139220150422288,31.5620199734585,-6.90519914865784,1.52523807705104,2.92824244095423,7.13382533489107,31.5111316232674,-0.438025837442721,1058.06546745557,1969.98889972491
0.62,3.08190124602106,0.125332736653573,32.1570146436577,-6.11464503426416,-2.95155552058373,0.895624694844313,-32.6618050188472,2.16077939602311,1.3168300571078,1134.29509786514,1969.98889972491
0.63,2.86912016622786,0.142755230590181,32.9930322531417,-6.98844225279001,1.18912422275719,-2.61499773746907,21.3428718722162,-26.1124553158755,-2.66509547545734,1206.43440208842,1969.98889972491
0.64,2.66852888831918,0.0774540351056913,33.7366575933926,-3.7162526376344,-0.320131158053387,2.65038895202035,-8.69051107652211,32.8092611387301,0.149221018853172,1274.30273757022,1969.98889972491
0.65,2.42127404525829,0.114049114884097,37.3268004171586,-5.55226699944353,0.613230443229028,-2.34510631450781,16.4314772556703,-33.9724042924826,-2.83875787253909,1337.91364048939,1969.98889972491
0.66,2.2563683373135,0.00741033571556038,37.240430896595,-0.330283242379288,-1.77177778428079,1.39716014466323,-29.5215388018276,22.7032492642892,0.906351745085209,1397.68172799472,1969.98889972491
0.67,2.23487980560722,0.072019472118461,30.3247180488072,-3.51262756096196,2.11607365532738,0.722569605716015,27.1256760219163,14.0044556293959,-1.20952923876322,1453.28273180451,1969.98889972491
0.68,2.00127425575416,0.114406893025154,34.5560955417947,-5.57027012608397,0.308745414078796,-1.98062208742641,12.7083341443393,-32.6136457889486,-2.9298492650019,1505.35541810187,1969.98889972491
0.69,1.85243263604399,0.0527315710601795,34.8364796107085,-2.59041991967924,-1.7036353790915,-0.729324197305362,-30.5353623480539,-16.9670926590455,2.0037471588738,1554.39700797693,1969.98889972491
0.7,1.59445749496159,0.0027256155301193,41.0407879356078,0.0117849296059208,-1.33978881608952,0.864446678807117,-34.5172662484942,22.2014581501004,0.999504410584998,1599.67102625889,1969.98889972491
0.71,1.5861274117374,-0.0125295815373855,35.0418131412202,0.716245131100167,-0.50761844411918,1.50275768900655,-10.2713422924258,33.5103148720486,0.317858011275101,1642.32290453479,1969.98889972491
0.72,1.38974862955782,-0.00445793215345491,38.8502987944262,0.228553114833568,0.0825433405214439,1.38730231869354,2.65997333035113,38.7598051443027,-0.0626368241520966,1682.05405276931,1969.98889972491
0.73,1.26951536124279,0.104470769700878,39.1493059432283,-5.13491031532897,0.308637147411055,1.23585051903184,1.27142902599602,39.4641473747352,-0.162623928875395,1718.90840281996,1969.98889972491
0.74,1.20959299683497,0.00261412620362778,36.7303701655139,0.00305345832837633,0.00451190801151855,1.20958740665324,0.0606813894688514,36.730320167244,-0.0015689457601901,1753.17384067956,1969.98889972491
0.75,1.09339197688129,0.0451377676649395,37.4303652824587,-2.1569837820626,0.956893449520811,0.530941013147706,30.8293549558701,21.3362531204365,-1.0229712952037,1785.12861612734,1969.98889972491
0.76,0.988118605429365,0.0114088867191377,37.8743681243487,-0.495047665735231,0.389485635131795,0.908190222980751,14.0678393704531,35.1682915203051,-0.393589230560331,1814.71359906993,1969.98889972491
0.77,0.861990788043673,-0.00475760442942003,39.6322138292496,0.296921438620757,-0.37506640183943,0.776128821577502,-16.7791057582406,35.9062967361138,0.444641020555575,1842.21242618012,1969.98889972491
0.78,0.740537710494316,0.0708559895082004,41.4104357703409,-3.49556023775309,-0.730604236337527,0.140121810432955,-41.5556786508269,0.410735845160622,1.47669975650945,1867.58682468212,1969.98889972491
0.79,0.754217685568409,0.08055314637063,36.6979167572857,-3.96534710012324,-0.403529264560596,-0.642259495264617,-12.5503688117333,-34.7123798469451,2.68702670673839,1890.985367856,1969.98889972491
0.8,0.675005088494471,0.0186374899685889,36.8651801436782,-0.844809375519486,0.526120371891841,-0.423292546362618,29.8610286760772,-21.6350219855056,-2.22070440373407,1912.57794742185,1969.98889972491
0.81,0.442615285417069,0.0743879722490297,44.8592293030173,-3.62923513686244,0.339835738916197,0.29317832773832,25.8463717387181,36.8440886613215,-0.692463329550254,1932.66051895704,1969.98889972491
0.82,0.327796247587594,0.0887111599069435,47.1993566821046,-4.35235832917257,-0.222067531676185,0.256916447896566,-41.556641486328,22.7984175461116,0.977068193732081,1951.1120774695,1969.98889972491
0.83,0.353588363152726,0.0171681241783781,42.7297122504899,-0.933467991162494,-0.142523162880457,-0.324047254404939,-14.4142491515881,-40.2359179452406,2.77575066867357,1967.96483605878,1969.98889972491
0.84,0.374658321616417,-0.0273487588743834,38.6858499347544,1.32915085212501,0.375134846122751,0.0197651155539177,38.6510515232395,-2.11136053527787,-1.59102426447704,1983.31348893939,1969.98889972491
0.85,0.22907331122824,0.0382415481067228,43.1494486119566,-1.89291436086692,-0.061470377704466,0.22396068981752,-19.8345889553185,38.3672662730486,0.433287760814478,1997.41529389781,1969.98889972491
0.86,0.210254259493798,0.15359015951503,41.4398745106685,-7.6086218337835,-0.244181446634044,-0.0904002868073062,-16.5521844137733,-38.7450579661706,2.55626976280241,2010.28705684885,1969.98889972491
0.87,0.0785844727557102,-0.0432613739981887,45.5310904373547,2.07474966226013,0.0759892701017811,0.0476728084750907,45.5753087877278,0.525367946190799,-1.51373311173917,2021.96822958356,1969.98889972491
0.88,0.156729826619472,0.0813402756885771,39.2902178182176,-4.12291380407745,-0.0525621278430951,0.168575507467335,-30.5872484803428,25.0027971403322,0.780967785844218,2032.61287937574,1969.98889972491
0.89,0.126742637992868,0.0465176136062771,38.5772547338548,-2.28022039837289,-0.13237529145988,0.0265399109253552,-37.7718128474455,-8.16664815474693,1.72468964659768,2042.28445861878,1969.98889972491
0.9,-0.0899573364533837,0.00409310285785044,47.3745638043884,-0.179442639597673,-0.078754541120974,0.043666899656571,40.4389761921506,-24.679357768136,-2.12253277950594,2050.78725421388,1969.98889972491
0.91,-0.0237680674905949,-0.101376836328181,42.1782248840147,5.00269443852083,-0.085797211118981,-0.0590001910196338,-10.6749055191104,41.1105339076226,0.3721097668503,2058.28499641313,1969.98889972491
0.92,0.00961850819464383,-0.0457999696283806,38.7230525419445,2.33366771140449,0.0425480863063334,-0.0194887985653252,-10.8217870491457,-37.253318351744,2.91907434624516,2065.20755808769,1969.98889972491
0.93,-0.150359805706519,0.0771024932974772,45.0315043124284,-3.89301414772036,-0.0492182093524842,-0.161649106130918,28.5315304727065,35.0562934247138,-0.769382262725232,2071.33960689549,1969.98889972491
0.94,-0.162848110716714,0.0240888086222777,44.0892287266547,-1.2763157044002,0.148679026419683,0.0706705381877001,-41.7874811038799,-14.1172056187281,1.86765104565694,2076.69113548576,1969.98889972491
0.95,-0.137285571061236,0.0597760740169329,41.3425866903206,-2.94285844839936,-0.145452358481407,-0.0355544435856318,41.2407237604884,-4.13189953956708,-1.74171528073021,2081.4095230687,1969.98889972491
0.96,-0.18786775162609,-0.0239432024140832,42.5039499522046,1.08266888594518,0.140680047998081,-0.126793900240278,-34.2995107244362,25.1257138708614,0.964031213936194,2085.41668632253,1969.98889972491
0.97,-0.162446139764992,0.0768174652951482,39.9782305053485,-3.87305849721104,-0.15095537221175,0.0974789561871207,24.3803236629337,-31.9195757263813,-2.58589268027314,2088.87019356093,1969.98889972491
0.98,-0.252708685638079,0.101197234578484,43.3389426100822,-5.00884769138784,0.142441332347763,-0.231976349920099,-12.2596282616944,41.8694878956094,0.169780266345194,2091.58700664768,1969.98889972491
