t,iq,id,vq,vd,ia,ib,va,vb,theta_e,omega,r
0,0,0,0,0,0,0,0,0,0,0,0
0.01,0.000831907093011382,0.000474382689846443,-0.0413616154889173,-0.0237512304923882,0.000761648495125198,-0.000580516940064729,-0.037846493654504,0.0290266619475127,-1.70380421877642,-0.000934533416257995,0
0.02,0.000920252879854312,0.000524881916988486,-0.0457871452252958,-0.0262795981987129,0.000842512494075664,-0.000642292057391392,-0.0418974094395014,0.0321198852990931,-1.70381116825741,-0.000995884970831823,0
0.03,0.000953419956760645,0.000543859031003689,-0.0474388124788137,-0.0272297295243858,0.000872865072315186,-0.000665506442557807,-0.0434082416080113,0.0332809804523812,-1.70381825834601,-0.000992275178750542,0
0.04,0.000933696614889178,0.000532956785725807,-0.04646650779026,-0.026683883696727,0.000854757634718302,-0.000652090246819769,-0.0425167069153217,0.0326112806930269,-1.7038248583069,-0.000930113856152469,0
0.05,0.000953026624231722,0.000544092266924727,-0.0474313008708431,-0.0272414123732674,0.000872435538713983,-0.000665696907166198,-0.0433988096764239,0.0332921337414769,-1.70383139032962,-0.000913741762165808,0
0.06,0.000953235757358295,0.000544418700891583,-0.0474474203998415,-0.0272577535932683,0.00087259533168333,-0.000666053690111676,-0.0434124095195952,0.0333107420099521,-1.70383768572334,-0.000876555250826126,0
0.07,0.000979260721782547,0.000559505055292195,-0.0487437637831592,-0.0280131038020478,0.00089638503894262,-0.000684464265015666,-0.0445968963793806,0.0342316421706513,-1.70384365005476,-0.000871338996896342,0
0.08,0.000953319710592644,0.000544869272086255,-0.0474623244191992,-0.0272803110416582,0.00087261091517529,-0.000666521706312098,-0.0434237964960794,0.0333355892053824,-1.70384947826983,-0.000806539747118874,0
0.09,0.000952179839434108,0.000544434626444183,-0.0474108169154117,-0.0272585556210062,0.000871535104645513,-0.00066594449503447,-0.0433754465483842,0.0333074323816538,-1.70385499622247,-0.000772408002492217,0
0.1,0.000951820018614366,0.000544419640811311,-0.0473977826595155,-0.0272578024413056,0.000871176937950003,-0.000665886503782909,-0.0433624516442455,0.0333051855176995,-1.70386027418589,-0.000740609488175386,0
0.11,0.000951498064153811,0.000544417146011225,-0.0473864179017671,-0.0272576947623818,0.000870854797972174,-0.000665845714717982,-0.043351033449826,0.0333037899367648,-1.70386532427407,-0.000710210067141424,0
0.12,0.000951190979785742,0.000544415108531426,-0.0473755912075038,-0.0272575819055296,0.000870547481508363,-0.00066580715891502,-0.0433401565233772,0.0333024510528329,-1.703870156377,-0.000681123632854008,0
0.13,0.000996655003419558,0.000570496134092856,-0.0496351396827691,-0.0285634069013946,0.000912145712265321,-0.000697694227045146,-0.0454063006644967,0.0348967500651274,-1.70387498089626,-0.000705274985896187,0
0.14,0.00104882689332253,0.000600862779590716,-0.0522668539979756,-0.0300837770056664,0.000959823691048401,-0.000734719275748428,-0.0478128445299293,0.0367530891726011,-1.70387957793792,-0.000738573954758947,0
0.15,0.000953340772001299,0.000546077122506326,-0.0474948647160004,-0.0273407919504219,0.000872448490921046,-0.0006677518116594,-0.0434468720081668,0.0334013531398566,-1.70388402026656,-0.000601193617425809,0
0.16,0.000950147022919553,0.000544456876076834,-0.047340117439795,-0.0272596666522229,0.000869495299109645,-0.000665725604056554,-0.0433041238427602,0.033300585631709,-1.70388805232699,-0.000573509131295966,0
0.17,0.000949811360609445,0.000544407440733077,-0.0473269747493923,-0.0272572043588869,0.000869166601763903,-0.000665635411202329,-0.0432912958918127,0.0332965678171078,-1.70389190360401,-0.000550221378920265,0
0.18,0.000949574447466109,0.000544404481517437,-0.0473185780116255,-0.02725704161694,0.000868929723978809,-0.000665604240944231,-0.0432828723245489,0.033295451732732,-1.70389558843555,-0.00052803761674054,0
0.19,0.000949350196522767,0.000544402959947593,-0.0473106636221439,-0.0272569742809835,0.000868705311712324,-0.000665576036107304,-0.0432749194824027,0.0332944872781277,-1.70389911420754,-0.000506814448320534,0
0.2,0.000949135724464534,0.000544401542614803,-0.0473030948943205,-0.0272569069543397,0.000868490679495345,-0.000665549098629025,-0.0432673143173049,0.0332935620663539,-1.70390248779208,-0.000486507456148131,0
0.21,0.000948930565630123,0.000544400187470482,-0.0472958548195474,-0.0272568396364481,0.000868285366968087,-0.000665523330931453,-0.0432600397515948,0.0332926741306431,-1.70390571575814,-0.000467077003022006,0
0.22,0.000948734196150585,0.000544398890731672,-0.0472889230441677,-0.0272567723264871,0.000868088851191079,-0.00066549866537291,-0.043253075401708,0.0332918210470579,-1.70390880439143,-0.000448485250988555,0
0.23,0.000948546441400006,0.000544397649855096,-0.0472822965603529,-0.027256702112552,0.000867900955396841,-0.000665475081638387,-0.0432464184719449,0.0332909997960857,-1.70391175970621,-0.000430695998065296,0
0.24,0.000948366517560828,0.000544396462437616,-0.0472759415680131,-0.0272566574258012,0.000867720899171912,-0.000665452478457576,-0.0432400314954806,0.0332902343253922,-1.70391458745702,-0.000413674604983789,0
0.25,0.000948194537085998,0.000544395326180625,-0.0472698688734321,-0.027256590129562,0.000867548790597568,-0.000665430873389368,-0.0432339313879727,0.0332894786012408,-1.70391729314992,-0.000397387927654935,0
0.26,0.000957633198721957,0.000549848843317739,-0.047740388582312,-0.0275296435801053,0.000876178382508707,-0.000672091166298686,-0.043663959951615,0.0336226795330405,-1.70391986098774,-0.000393089854123557,0
0.27,0.000924444272094033,0.0005309261520619,-0.0460964325005578,-0.0265822162002535,0.000845793069806959,-0.000648932873429327,-0.0421602190588101,0.0324655392117342,-1.70392241712349,-0.000339321796763246,0
0.28,0.000919381652770143,0.000527973352547938,-0.0458105436433372,-0.026434382264279,0.000841165643569987,-0.000645336225954005,-0.0418964054150544,0.0322811661482285,-1.70392479813535,-0.00031928196539036,0
0.29,0.000946703356787845,0.00054390616448679,-0.0472047100613849,-0.0272321025735123,0.000866129277708488,-0.000664756523710958,-0.043172276503713,0.0332569782758545,-1.70392699805301,-0.000337954027202424,0
0.3,0.000942372043154492,0.00054157489507371,-0.0469915713237107,-0.0271153761653688,0.000862144497954579,-0.000661872570318426,-0.0429764557271563,0.0331130737502971,-1.70392887235804,-0.000321776581282687,0
0.31,0.00094716961501805,0.000544306405224102,-0.0472314289341228,-0.0272521323232071,0.000866535654297823,-0.000665218537183134,-0.0431959687270149,0.0332805480882666,-1.7039309497786,-0.000315000672867022,0
0.32,0.000947194586901306,0.000544386292125437,-0.0472344784881303,-0.0272561294581628,0.000866548470893891,-0.000665302764236462,-0.043198394169331,0.0332850010106187,-1.70393294884363,-0.000303144247264399,0
0.33,0.000947077500350573,0.000544387873308645,-0.047230402726444,-0.0272562266287921,0.000866430937837025,-0.000665290446522909,-0.0431942779000793,0.0332846389259803,-1.70393486196959,-0.000291633808959306,0
0.34,0.000946961372102225,0.000544387174575167,-0.0472262989897306,-0.0272561848168871,0.000866314712235255,-0.000665275924305404,-0.0431901551026999,0.0332841317934607,-1.70393669252776,-0.000280615094755216,0
0.35,0.000946850133293021,0.000544386440621439,-0.0472223654277831,-0.0272561400906168,0.000866203390096425,-0.000665261947382347,-0.0431862039927591,0.0332836409356039,-1.70393844407128,-0.000270071837336866,0
0.36,0.000946743465769581,0.000544385736381983,-0.0472185892596289,-0.0272561179318682,0.000866096645187356,-0.000665248540884352,-0.0431824084059232,0.0332831900611931,-1.70394012001087,-0.000259983666936402,0
0.37,0.000946641656600158,0.000544385062450491,-0.0472149879419973,-0.0272560731939267,0.000865994759779616,-0.000665235746381808,-0.0431787915288175,0.0332827368830533,-1.70394172360982,-0.000250330944781642,0
0.38,0.000946544011263511,0.000544384417577093,-0.0472115296682318,-0.0272560510188606,0.000865897043582052,-0.000665223473184336,-0.0431753157395025,0.033282322057683,-1.7039432579904,-0.000241094875219221,0
0.39,0.000946450816826615,0.000544383800511445,-0.0472082315849753,-0.0272560062696535,0.000865803779293843,-0.00066521176078866,-0.0431720039253084,0.0332819032542492,-1.70394472614065,-0.000232257473754532,0
0.4,0.00094636143697717,0.000544383210055825,-0.0472050646002653,-0.0272559840789827,0.000865714334487263,-0.000665200526045683,-0.0431688211648899,0.0332815214685677,-1.70394613091926,-0.000223801532176543,0
0.41,0.000946275957040787,0.000544382645063667,-0.0472020355550532,-0.0272559618795787,0.00086562879206099,-0.000665189781547343,-0.0431657771433573,0.0332811553605275,-1.70394747506155,-0.000215710585052712,0
0.42,0.000946194144186824,0.00054438210443796,-0.0471991352560675,-0.0272559396721062,0.000865546919645817,-0.000665179497592473,-0.0431628626614792,0.033280803824372,-1.70394876118487,-0.000207968877668631,0
0.43,0.000946115881999959,0.000544381587128373,-0.0471963602502703,-0.0272559174566286,0.000865468600326667,-0.000665169659880521,-0.0431600742132964,0.0332804665108317,-1.70394999179373,-0.000200561335350693,0
0.44,0.000946041255804314,0.000544381092130447,-0.0471937170567146,-0.0272558726780914,0.000865393917208533,-0.000665160280843206,-0.043157421174746,0.0332801220343187,-1.70395116928414,-0.000193473534111298,0
0.45,0.000945969687493819,0.000544380618482703,-0.0471911789309102,-0.0272558475384325,0.000865322295902057,-0.000665151284785316,-0.0431548713588896,0.0332798087723645,-1.70395229594904,-0.000186691672564863,0
0.46,0.000945901029570111,0.00054438016526458,-0.0471887405325358,-0.0272558253026488,0.000865253588874765,-0.000665142653131362,-0.0431524216213138,0.0332795095245088,-1.70395337398226,-0.000180202545051858,0
0.47,0.000945835514859875,0.000544379731595709,-0.0471864155027232,-0.0272558030591862,0.000865188025610325,-0.000665134417755515,-0.0431500857989902,0.0332792233072914,-1.70395440548299,-0.000173993515924385,0
0.48,0.000945772794117144,0.000544379316633215,-0.0471841882756051,-0.0272557808090884,0.00086512525872804,-0.00066512653321074,-0.043147848396786,0.0332789481424638,-1.70395539245966,-0.000168052494943727,0
0.49,0.000945712490980585,0.000544378919571149,-0.047182041849076,-0.0272557811000659,0.000865064914024912,-0.000665118950409042,-0.0431456895054895,0.0332787042043191,-1.70395633683414,-0.000162367913736595,0
0.5,0.000945655241757758,0.000544378539637476,-0.0471800097626632,-0.027255758835053,0.000865007621052788,-0.000665111754671612,-0.0431436482938181,0.0332784513278321,-1.70395724044548,-0.000156928703270657,0
0.51,4.59481229427494,-0.0125936234876327,10.2607134300135,0.63574823867663,-0.265141925895762,4.58717324483226,0.0707768372735389,10.2801462321868,0.054995653166431,16.9434898478091,1856.32587417248
0.52,4.60554287857151,-0.00764130453029666,9.72565438155458,0.394001587670019,-1.14406093775922,4.46118909782909,-2.01849491214298,9.52204120397466,0.249378510783311,36.0880522988734,1856.32587417248
0.53,4.62475020881876,-0.027477102759196,8.76678028534166,1.39435090289669,-2.57722320364339,3.84018099101427,-3.6796404885512,8.07842168290804,0.58513826890281,55.6191446068576,1856.32587417248
0.54,4.58264820182557,0.045232280142167,10.8734980139175,-2.23923309491572,-3.99330844799967,2.24859915058164,-10.6062483491634,3.27942370972425,1.06782745632414,76.3867549403178,1856.32587417248
0.55,4.58590491767283,0.0377628724511765,10.7123477299316,-1.86526327800613,-4.54849447838067,-0.585788296752457,-10.3594924615598,-3.30371259678164,1.70711296073481,97.6816240147961,1856.32587417248
0.56,4.63697510718179,0.0426414683336169,8.16051143478507,-2.09895887197187,-2.82896582689342,-3.67427663489216,-3.2439346400473,-7.77666144785721,2.4946484604204,117.001166423705,1856.32587417248
0.57,4.58816154947292,0.0143645437350061,10.6028974614307,-0.673632697551178,1.26578625481993,-4.41012674435638,3.60392098176049,-9.99434685940258,-2.85895721127497,137.073430469416,1856.32587417248
0.58,4.54406330554168,-0.00296376784711549,12.8095943869105,0.192381326243042,4.4486236163981,-0.926427562368091,12.4994988982393,-2.80806805914136,-1.77676444124935,157.601380249254,1856.32587417248
0.59,4.52564980118731,0.00682473389264926,13.7321597871381,-0.28348393664909,2.37522286626888,3.85225505847327,6.94795851906304,11.8481411191465,-0.551013442887066,177.24334110858,1856.32587417248
0.6,4.54584957564673,0.0307054151028261,12.7241930514223,-1.47939229486481,-3.31652957936981,3.10907104069516,-10.3460586744312,7.55332776180109,0.824427702119242,197.427353591898,1856.32587417248
0.61,4.52660057697892,0.00506063133822288,13.6886254021568,-0.198875612966524,-3.24206577630216,-3.15897893244411,-9.65449905671992,-9.7061148187006,2.34433299424247,217.776557232417,1856.32587417248
0.62,4.53783844445157,-0.0418413965968601,13.1287228042426,2.1730433969508,3.49609268246746,-2.89327917871907,8.63591460781329,-10.1245473460411,-2.27134694657109,237.24789502223,1856.32587417248
0.63,4.56209684726447,0.049421748697708,11.9179615765306,-2.39436570326151,2.05677761413815,4.07244840348468,3.10840909365818,11.751961034954,-0.456844309002506,257.250006870337,1856.32587417248
0.64,4.52034194671245,0.0059593124422944,14.007811045747,-0.219754333647688,-4.50970406435419,0.309993678258453,-13.9908692357201,0.72293864849579,1.50348336790372,277.434036988099,1856.32587417248
0.65,4.53171782137272,-0.00480938022271848,13.4412022151194,0.320417561893836,2.04974484010366,-4.04166248382441,5.78095027651187,-12.1387478061865,-2.67329959740322,297.48143185181,1856.32587417248
0.66,4.5551942769251,0.0654679522050166,12.2695701938111,-3.19460324165549,1.92030220700274,4.13116453159124,2.09545877838435,12.5042750737716,-0.420749310016682,317.437367768795,1856.32587417248
0.67,4.53454588607233,0.039107098407249,13.3042012536415,-1.86929497335372,-4.17933151566551,-1.75977948624433,-11.4763330254309,-6.98497065020357,1.97795520586075,337.333490685957,1856.32587417248
0.68,4.48163103778718,0.0703550174223944,15.9522512650845,-3.42591560510544,4.38785881700737,-0.914692073511396,16.3121291588355,0.354486196012413,-1.7606156573582,357.133490113544,1856.32587417248
0.69,4.48173862450111,0.0785289089963093,15.9492231289159,-3.82174201526711,-3.5444037129956,2.7439661454173,-15.0669137757392,6.47854456816065,0.929526056117208,376.852702087294,1856.32587417248
0.7,4.5012835409921,0.0432608972586208,14.9743667140773,-2.04025791718373,2.59271943289996,-3.67984116014549,10.3984962792361,-10.9665667365411,-2.51819316364646,396.590915486939,1856.32587417248
0.71,4.41635317247214,0.0347056962428087,19.2233571190122,-1.63870513070544,-1.9399988518643,3.96759174867093,-10.0459919934089,16.4712130184404,0.462636011901254,416.632305933328,1856.32587417248
0.72,4.49977722286802,0.0535409720471751,15.0545673655318,-2.56658116737664,1.89917377466481,-4.079705953222,8.82917101949336,-12.4608617904464,-2.69401169599641,436.499824281653,1856.32587417248
0.73,4.48035510350125,0.0526718791690086,16.028216002971,-2.49443138455417,-2.40122477472314,3.78291894726555,-10.8382640914467,12.0688826182958,0.57733868921217,456.028975108385,1856.32587417248
0.74,4.4520304294803,0.042290225620587,17.4470028645404,-2.00313185418648,3.32324593302603,-2.96283645799554,14.4512997530999,-9.97849596014314,-2.28942387581853,476.09379749478,1856.32587417248
0.75,4.46314434067809,0.033184377244948,16.8938895165209,-1.50879521434965,-4.25550309106874,1.34590194684622,-16.5891823555055,3.53256206895831,1.27191264066158,495.578033926062,1856.32587417248
0.76,4.43638207664065,0.0601265238746943,18.234680339974,-2.88348365904845,4.29676605984927,1.10584924638896,16.8395149962129,7.56629234204939,-1.30534314706758,515.5402121148,1856.32587417248
0.77,4.43021744749965,0.0488522425958752,18.5456311591674,-2.27952934880677,-2.52950089908973,-3.63742194077635,-8.53401327638167,-16.6224939928548,2.54498023729808,535.064274673902,1856.32587417248
0.78,4.45834451405335,0.0947819915404757,17.1420494476295,-4.58173284074029,-1.04010126246362,4.33635893299108,-8.78325978532397,15.417408427891,0.256664978563086,554.715240576089,1856.32587417248
0.79,4.44204941904354,0.0620005365704634,17.9595496073253,-2.95628164513277,4.20183121706052,-1.4423111769295,17.9870754373128,-2.78390741148916,-1.88749538049016,574.54698156048,1856.32587417248
0.8,4.3540778242963,0.0911416064201354,22.3610284990035,-4.42625428998673,-3.02228648410536,-3.13561555367422,-11.9271944270639,-19.4254821219935,2.3955256711637,594.22088083585,1856.32587417248
0.81,4.44540940847497,0.112392182325718,17.7973407950109,-5.48473154064804,-2.1860204947929,3.87241671414003,-13.8445063707741,12.4562138226804,0.539192896370943,613.811402492216,1856.32587417248
0.82,4.33770262001467,0.0706765442973494,23.185589790117,-3.39480170630157,4.02675283406278,1.61428646991894,20.0628742500085,12.1069124622685,-1.17323051589965,633.383764598719,1856.32587417248
0.83,4.39742145720576,0.049297472442366,20.2025960700701,-2.31785567303217,1.66528812936375,-4.07020406850603,9.99456669156893,-17.7094884042199,-2.74202079395211,652.985078124239,1856.32587417248
0.84,4.3842256527282,0.147987636155357,20.8653364511474,-7.25710510979504,-3.8250987852749,-2.14754608737121,-14.0748190332596,-17.0272519501882,2.11611850176445,672.621612586646,1856.32587417248
0.85,4.37460921027808,0.13688960402675,21.3492068275934,-6.69414779857284,-3.14979843615206,3.03886727547527,-20.3153328444897,9.37483324300194,0.834602775373595,692.19633643302,1856.32587417248
0.86,4.40664178047118,0.0779795661821261,19.7506313942093,-3.72252189978359,1.39167104749812,4.18184460372353,2.35164944710017,19.9603195025092,-0.303566324386786,711.690626169437,1856.32587417248
0.87,4.3918527406569,0.143386649197859,20.4932241184411,-6.96674403569139,-1.59933007838784,4.09280753605,-14.4804002776928,16.0880628114541,0.405157519975659,731.094265935326,1856.32587417248
0.88,4.3294522383533,0.101708702953124,23.6164031765,-4.88349062785378,1.96273079754632,3.86033536895462,5.80211220380488,23.4076584408136,-0.446885100734103,750.662853893828,1856.32587417248
0.89,4.39872761541781,0.133033858038114,20.1558134093113,-6.47396347463266,4.07905092770747,1.65161925733281,15.8352348455888,14.0504218672217,-1.15583603464576,770.240977662249,1856.32587417248
0.9,4.33282436860518,0.140915640660278,23.454192922953,-6.82180182600339,4.26214899610688,-0.792029142106949,24.2142047295101,3.21067518409002,-1.72201779058436,789.571575519643,1856.32587417248
0.91,4.3849350864085,0.0767844449528519,20.8519594783432,-3.65709471031973,3.63868267088827,-2.44817074232587,19.4898100553569,-8.26594579058113,-2.14553620228659,809.179929641877,1856.32587417248
0.92,4.31327866347964,0.115567267597382,24.4380907707565,-5.5408537906074,2.74080127972952,-3.33252711424853,20.2068095876641,-14.8191156124955,-2.42653122201741,828.461274551609,1856.32587417248
0.93,4.33505990324278,0.0711906722102582,23.3523269142738,-3.35376364135473,2.30382896568509,-3.67289866091938,15.5433325225472,-17.7477806208753,-2.56495575818447,848.016739102589,1856.32587417248
0.94,4.28381665071542,0.0842087204803328,25.0570637520973,-4.02924047748866,2.2791826633919,-3.62815415775645,17.1124399365017,-18.7418148033141,-2.56104534878743,867.435231730554,1856.32587417248
0.95,4.31411586736258,0.122543303535298,22.593464983491,-5.87366266112614,2.77318653240728,-3.30696976622796,19.3949452043032,-12.9923313357926,-2.41536346337628,886.581821714885,1856.32587417248
0.96,4.33138873657709,0.100995855278233,20.7205989956209,-4.80615360792364,3.62130545514262,-2.37850275397877,20.1235730116634,-6.89087400004801,-2.12862970368613,905.819045114048,1856.32587417248
0.97,4.26090496860106,0.141712502886266,23.2090734968639,-6.86494144676746,4.20603096726466,-0.696201901271631,23.9061599752497,3.77942176637471,-1.70158714451138,924.955283148353,1856.32587417248
0.98,4.23483193441556,0.15905771001434,23.4407843794662,-7.74347716207671,3.90637830282695,1.64295752320737,17.9833124059717,16.9124890478443,-1.13513084936187,943.949802283754,1856.32587417248
