t,iq,id,vq,vd,ia,ib,va,vb,theta_e,omega,r
0,0,0,0,0,0,0,0,0,0,0,0
0.01,0.000744514453417264,0.000421273842111075,-0.0364358492584257,-0.0210833204418676,-0.000834946482695645,-0.000186112311329493,0.0411741200692071,0.00876181194523786,2.30503498382156,-0.00269414121621591,0
0.02,0.00084420148211958,0.000476747054391198,-0.0414197312478204,-0.0238595563304418,-0.000946120866478395,-0.000211705461190189,0.0467342051076031,0.0100392548472323,2.30501455805576,-0.0028987653844986,0
0.03,0.000882769866546061,0.000498693754534252,-0.0433387058984946,-0.0249579299105691,-0.000989461328307685,-0.000221233762967615,0.048894901341407,0.0105085830248976,2.30499379051975,-0.00286937963910175,0
0.04,0.000861872596230669,0.000487510502095641,-0.0423643107778649,-0.0243982446249069,-0.000966459300987216,-0.000215516313355254,0.0477967536221567,0.0102703218860544,2.30497459610899,-0.00262839103496491,0
0.05,0.000882320731425414,0.000499547638467846,-0.0433977973595664,-0.0250006568791554,-0.000989708304591822,-0.000220261635388148,0.0489677921612463,0.0105146084522552,2.3049560882112,-0.00254954739123174,0
0.06,0.000883150026387391,0.000500506899299719,-0.0434758287524685,-0.0250486681376918,-0.000990970507772766,-0.000220087659988594,0.0490580731454921,0.0105303808306125,2.30493850601058,-0.00240432434012049,0
0.07,0.000902869770072261,0.000512328482249846,-0.0444691577875731,-0.0256402890875465,-0.00101353409477075,-0.000224505978031796,0.0501920584540183,0.0107558210740716,2.30492220237747,-0.00234132580219197,0
0.08,0.000883239789748068,0.000501523068664703,-0.0435488805533879,-0.0250995244452953,-0.000991724957306554,-0.000219361627575075,0.049146715996083,0.0105399920129753,2.30490648141987,-0.00213443893205136,0
0.09,0.000880814524881634,0.000500656606214014,-0.0434622746433,-0.0250561568844295,-0.000989347090079922,-0.000218365748089262,0.0490535175119474,0.0105134549360259,2.30489191129598,-0.00200232385064496,0
0.1,0.000879900407794923,0.000500584918749869,-0.043447152966983,-0.025052578351218,-0.000988623366114471,-0.000217793086414555,0.0490400367997734,0.0105053116877705,2.30487825241144,-0.00188361322847325,0
0.11,0.000879158587577486,0.000500576920908935,-0.0434385995498105,-0.0250521776143974,-0.00098807003209839,-0.000217289409606169,0.0490335524764695,0.0104992507165713,2.30486543437984,-0.00177264887802594,0
0.12,0.000878472355858775,0.000500574153533571,-0.0434310561045224,-0.0250520301517061,-0.00098756129072815,-0.000216819879737234,0.0490279792693779,0.0104937170648731,2.3048534042954,-0.00166854303238489,0
0.13,0.0009180680528119,0.000523384310467434,-0.0453806769611923,-0.0261935903816082,-0.00103224252641796,-0.000226396671114149,0.051240346049507,0.0109515731866404,2.30484161019204,-0.00171875945892699,0
0.14,0.000948836785257344,0.000541606720499141,-0.0470001681332892,-0.0271055639485097,-0.0010672968134254,-0.000233466478962859,0.0530538089645524,0.0113587303813844,2.30483045716982,-0.00174100577741598,0
0.15,0.000882665028825214,0.00050384854176692,-0.0437067486271162,-0.0252158957113392,-0.000992874948323559,-0.000217164092665332,0.0493427961393361,0.0105550812991176,2.30481987075577,-0.00140143999946575,0
0.16,0.000876552337541448,0.000500828137753202,-0.0434295974033411,-0.0250647444067994,-0.000986315110374348,-0.00021530287286043,0.0490358622412151,0.010481200172454,2.30481058102637,-0.00129993711828641,0
0.17,0.000875583307977174,0.000500585122024792,-0.0434010819666595,-0.025052583523987,-0.000985434690027505,-0.000214825662552734,0.0490066344563205,0.0104707037188349,2.30480191728133,-0.00122316758559917,0
0.18,0.000875079835037076,0.00050056425276136,-0.0433940389512952,-0.0250515324603744,-0.000985048626655378,-0.000214495901954814,0.0490007860401107,0.0104663681652717,2.30479379071915,-0.00115269141769924,0
0.19,0.000874642021314836,0.000500561232325591,-0.0433891138671315,-0.0250513747168052,-0.000984723159224028,-0.000214197367969044,0.0489971032864977,0.0104628125716256,2.30478616403778,-0.00108668102537872,0
0.2,0.0008742338874762,0.000500559721711392,-0.0433846244045374,-0.0250513047420619,-0.000984420636035841,-0.000213918059916233,0.048993797823149,0.0104595066263585,2.30477900614855,-0.00102473924167529,0
0.21,0.000873851132186251,0.000500558409557801,-0.0433804237777117,-0.0250512434782488,-0.00098413699184969,-0.000213656041045582,0.0489907080151089,0.0104564092842001,2.30477228820653,-0.000966605550936628,0
0.22,0.000873491892789543,0.000500557186272505,-0.0433764793908151,-0.0250511821944836,-0.000983870776653555,-0.000213410117719933,0.04898780410168,0.0104535038613111,2.30476598316904,-0.000912045007203615,0
0.23,0.00087315483050611,0.00050055603863374,-0.0433727809033209,-0.025051117980305,-0.000983620993524888,-0.000213179377393707,0.0489850767273528,0.0104507843421437,2.30476006565751,-0.000860837918832784,0
0.24,0.000872838309435034,0.000500554961394983,-0.0433692995008471,-0.0250510774660046,-0.000983386429849163,-0.000212962704206767,0.0489825225889424,0.010448210479584,2.30475451185325,-0.000812778166359436,0
0.25,0.00087254152685368,0.000500553950202349,-0.0433660448639576,-0.025051016114016,-0.000983166491883415,-0.000212759541231376,0.0489801192813184,0.0104458207277022,2.30474929940187,-0.000767672304913346,0
0.26,0.000880836229421766,0.00050542235804473,-0.0437794579272947,-0.0252946687495962,-0.000992587518134041,-0.000214695696086237,0.0494503435481912,0.0105415713499189,2.3047444942182,-0.000758493903781358,0
0.27,0.000856462984230606,0.000491549861180891,-0.0426053330898165,-0.0246004008585279,-0.000965198638552468,-0.000208666474357074,0.0481135386856588,0.0102704199153729,2.3047396375919,-0.000625342959891185,0
0.28,0.000855456193628435,0.000491056301432526,-0.0424703619181108,-0.0245757000780916,-0.000964121367972291,-0.000208354453307533,0.0479968166535069,0.0101981501711473,2.30473532576686,-0.000585152407744552,0
0.29,0.000870137603542751,0.000499791363438063,-0.0432874407906771,-0.0250128577650437,-0.000980874490673548,-0.000211698109609668,0.0488963803364145,0.0104206321198562,2.3047314530359,-0.00060799363432817,0
0.3,0.000862581564852105,0.000495781213311258,-0.0429265440213351,-0.0248121506411834,-0.00097257842869899,-0.000209611945090191,0.0484939959199814,0.0103277955425746,2.30472850370981,-0.000554532361563861,0
0.31,0.000870408430120167,0.000500167970144782,-0.0433144768351909,-0.025031707794131,-0.000981329211878653,-0.000211593505327144,0.0489291490078138,0.0104244268891964,2.30472497625196,-0.000554366530843692,0
0.32,0.000870899100036526,0.000500518089466113,-0.0433455784986784,-0.0250492215252258,-0.000981928782816582,-0.00021165884296099,0.0489640094290734,0.0104320877601052,2.30472158650657,-0.000527618592323029,0
0.33,0.000870775591525268,0.000500545515157515,-0.0433463980788711,-0.0250506039914795,-0.000981856115347852,-0.000211552622991323,0.0489655772277195,0.0104314540456318,2.30471839836923,-0.000500250232621347,0
0.34,0.000870610177697088,0.00050054717613781,-0.0433447618802983,-0.0250506737553222,-0.000981735032075298,-0.000211437659477692,0.0489644402053794,0.0104301597988323,2.30471540561073,-0.000474371187499297,0
0.35,0.000870450461979118,0.000500546809855662,-0.0433430074205609,-0.0250506624103682,-0.000981616782608649,-0.000211328199058677,0.0489631591169765,0.0104288555816385,2.30471259674697,-0.000450066323556022,0
0.36,0.000870300234096621,0.00050054631212847,-0.0433413434620308,-0.0250506423067298,-0.000981505453307245,-0.000211225361124522,0.0489619375575254,0.0104276269441531,2.30470996051986,-0.000427253908500139,0
0.37,0.000870159261231996,0.000500545832649692,-0.0433397814507343,-0.025050622175022,-0.000981400973895163,-0.000211128868060274,0.0489607899857337,0.010426474549242,2.30470748632264,-0.000405843491247219,0
0.38,0.000870026961308633,0.000500545381623768,-0.0433383144489593,-0.0250506020168001,-0.000981302921173591,-0.000211038312552472,0.0489597113558517,0.0104253932603365,2.30470516419667,-0.000385749009887295,0
0.39,0.000869902752245439,0.000500544958210973,-0.0433369341759844,-0.0250505789233208,-0.000981210864401223,-0.000210953296100393,0.0489586936690794,0.010424379232567,2.30470298479557,-0.000366889592480673,0
0.4,0.000869786226597733,0.000500544560790466,-0.0433356397631058,-0.0250505587164431,-0.000981124501859987,-0.000210873538325783,0.0489577402719484,0.0104234271306554,2.30470093934666,-0.000349189329222981,0
0.41,0.000869676918699768,0.000500544187773006,-0.0433344262699101,-0.0250505384868125,-0.000981043488496844,-0.000210798720371836,0.0489568456337991,0.0104225354021903,2.30469901961698,-0.000332576975223564,0
0.42,0.000869574246474938,0.000500543837662123,-0.043333281820339,-0.0250505182363619,-0.000980967392762685,-0.000210728445850013,0.0489560010183307,0.0104216957125234,2.30469721787949,-0.000316985664446175,0
0.43,0.000869477977092598,0.000500543509052383,-0.043332210885356,-0.0250504979655417,-0.000980896042400056,-0.00021066255269368,0.0489552098219624,0.0104209107002319,2.30469552688203,-0.000302352640628601,0
0.44,0.000869387644891462,0.00050054320062433,-0.0433312053614774,-0.025050477675696,-0.000980829092216378,-0.000210600723273135,0.0489544660996311,0.0104201746031023,2.30469393981802,-0.000288619004688919,0
0.45,0.000869302661706797,0.000500542911139454,-0.0433302500413251,-0.0250504780936173,-0.000980766106011314,-0.000210542558267648,0.0489537725079177,0.0104194615314608,2.30469245029994,-0.000275729477653968,0
0.46,0.000869223039710394,0.000500542639434922,-0.0433293589263561,-0.0250504548569895,-0.000980707093339548,-0.000210488060776257,0.0489531097942604,0.0104188135112472,2.30469105233165,-0.000263632178153252,0
0.47,0.000869148423577248,0.000500542384419592,-0.0433285267560363,-0.0250504345142923,-0.000980651790829672,-0.000210436988074393,0.0489524918926436,0.0104182070292378,2.30468974028697,-0.000252278413596384,0
0.48,0.000869078108723092,0.000500542145068694,-0.0433277300668029,-0.0250504348772412,-0.000980599675727522,-0.000210388863808791,0.0489519133646457,0.0104176128849587,2.30468850888396,-0.000241622484179584,0
0.49,0.000869012398361847,0.000500541920420855,-0.0433269950682289,-0.0250504145038177,-0.000980550973612596,-0.000210343886891438,0.0489513659682358,0.0104170791635303,2.30468735316699,-0.000231621498942761,0
0.5,0.000868950523618498,0.000500541709573264,-0.0433262936488169,-0.0250504148343129,-0.000980505113932432,-0.000210301538443578,0.0489508566324951,0.0104165560364062,2.3046862684834,-0.000222235203127144,0
0.51,3.95796665956278,0.0417792023421019,5.17233450231541,-2.08652492939389,-0.402388976096928,3.93768062339679,-2.65346218882227,4.90568740313884,0.11239117233687,34.3882763974284,734.054180196349
0.52,3.76549340636358,0.0149622172696306,5.45959433025195,-0.73954508672303,-1.79731646200395,3.30889981666457,-3.273410484583,4.43157770840561,0.50156279913944,71.5364971010469,734.054180196349
0.53,3.57666948650032,0.0278140867868507,5.83332919924085,-1.37805535321419,-3.26572361799325,1.45889941050346,-5.89665687311034,1.07526918678013,1.15844074733204,107.568762338328,734.054180196349
0.54,3.39263120917768,0.0402703659577157,5.8571752939868,-1.99730366522511,-2.98237452989421,-1.61771764758225,-4.14193575336304,-4.59783563980097,2.07967541054095,143.963568889086,734.054180196349
0.55,3.25297705816399,-0.0127571470284551,3.61457699026848,0.654484647657748,0.426165891177652,-3.22496590973274,-0.18969707111222,-3.66845089837788,-3.01412969804823,179.720261720853,734.054180196349
0.56,3.12555696474102,-0.0116535815634773,2.12975042926292,0.604592487851926,3.12549837400348,-0.0224066933296191,2.12303565490082,-0.627764745213072,-1.58169366683948,210.48738435354,734.054180196349
0.57,2.91241735885055,0.0473870629574764,5.38605619197774,-2.34508892221437,-0.152615369817928,2.90880197929751,-2.70922527175855,5.21240268811794,0.0686879432397453,239.942408483633,734.054180196349
0.58,2.69534668316545,0.0209011337650613,8.46805306227266,-1.0267253369006,-2.52097576376683,-0.953945385409416,-7.52570497442088,-4.0157007135587,1.9403016818535,270.124352286054,734.054180196349
0.59,2.5695606179018,-0.00343169792981191,8.11687318301672,0.199707241211158,1.97536703782626,-1.64334372895389,6.10503091694784,-5.35276664487432,-2.26603436104099,296.206556636964,734.054180196349
0.6,2.46544861350517,0.0519273480490953,6.46006703661196,-2.57914138356736,0.043393833496271,2.46561357283019,-2.60148497640679,6.45110163549451,0.00346112286217967,323.131530913777,734.054180196349
0.61,2.37553463985822,0.0180197356583974,4.8769873669752,-0.871477439259924,-1.50976367941387,-1.83414916742402,-2.39378424787653,-4.33754258531175,2.46048506152353,346.842858527774,734.054180196349
0.62,2.23194772772687,-0.0136464552764437,5.86899555915774,0.703770134994671,2.06811623494531,0.839447511046629,5.71218132276598,1.52032424573419,-1.19132854406856,370.982744387227,734.054180196349
0.63,2.08217009353025,0.0580520723744971,7.89831899854367,-2.8731926708555,-2.08291273511872,-0.0166396928760984,-7.79022475985995,-3.15453282079592,1.60665816351699,392.415078112138,734.054180196349
0.64,2.03168743011062,0.0363942903029527,4.87674503711136,-1.79561259348313,2.00407023807638,-0.335828585579929,5.08833987060116,1.0562500196999,-1.7189155506044,413.784375951488,734.054180196349
0.65,1.89944281093503,0.0519440920618059,6.33918085475295,-2.58185225384162,-1.85798112351572,0.398104666353151,-6.70419360930582,-1.38020397727161,1.3870607660775,433.99127423156,734.054180196349
0.66,1.79748855660624,0.0397707426024346,6.69713892397766,-1.95778641119779,1.78930877856915,-0.175843447511965,6.82622127580497,1.44474928367346,-1.64663416697239,452.396196380415,734.054180196349
0.67,1.7191339297824,0.019400984488205,5.8931832076748,-0.944203081817292,-1.69823588245353,-0.26794169939645,-5.65277104736691,-1.91502147898762,1.73856767821987,470.548755100649,734.054180196349
0.68,1.65739081504203,0.0352931572286379,4.51526501817303,-1.74760244880612,1.44064544687989,0.820201571028173,2.97865558502383,3.81698092858958,-1.03194302912219,487.867393605881,734.054180196349
0.69,1.56068328345795,-0.0572588176635568,5.23449208701887,2.88083979702694,-0.752520151762608,-1.36847517502383,-5.16046399043332,-3.01143765478191,2.60215680750871,503.958741184795,734.054180196349
0.7,1.44764721693493,0.0264441311973743,6.96134190393882,-1.29199225861891,-0.0736792833992961,1.44601283534137,-1.7700645035192,6.8553918015856,0.0691743222547605,519.039539684666,734.054180196349
0.71,1.40247767101945,0.0376576867353768,5.41797793495712,-1.85561201125167,0.967157001935065,-1.0163508511761,5.14835289739837,-2.5084344288487,-2.35414646801268,533.572792361789,734.054180196349
0.72,1.36574583168101,-0.0315929000432601,3.64585361196495,1.60539248107665,-1.36353309240159,-0.0838885809449676,-3.70467672514872,1.46454905698535,1.60911361407834,547.429712397934,734.054180196349
0.73,1.26733471578987,-0.00516699113151019,5.11783075503579,0.27633957155944,0.724250214705254,1.04001231057278,3.16791165644421,4.02900619668979,-0.612373501996304,560.645608009018,734.054180196349
0.74,1.16400146324902,-0.0282890573505844,7.03349553103668,1.42817699789666,0.480515689535495,-1.06056793715531,1.43133274711252,-7.03285400740534,-2.74048388269189,573.100254711858,734.054180196349
0.75,1.13163780377414,0.0198007397524874,5.59633107372924,-0.981444791989971,-1.12770670318423,0.0963004663480838,-5.64989982339992,-0.600655768354285,1.50310367337214,584.840054944473,734.054180196349
0.76,1.00362924867398,0.0274100394941256,9.07642834876695,-1.36549947757224,0.463395940609468,0.890666706061046,2.73971616848788,8.76014244802426,-0.452435417919729,596.006995287588,734.054180196349
0.77,0.976413251233889,0.0278731611726742,7.67445762986725,-1.38889788794993,0.690191465145492,-0.691227525304954,6.52977868715805,-4.2647775501796,-2.32840575767614,606.520095746852,734.054180196349
0.78,0.949917699468182,0.00931667510959138,6.38048701606068,-0.45661479484275,-0.798009867354885,-0.515374318143872,-5.07420269120256,-3.89507107529258,2.15403817637244,616.453819994534,734.054180196349
0.79,0.843238641190567,-0.00280318390462997,9.19994527050345,0.155223432161205,-0.350175217695042,0.767096200452816,-3.65121594685912,8.44581016857189,0.42491733977305,625.941140248208,734.054180196349
0.8,0.811274818621666,-0.0231207027528482,8.42162754848534,1.1754978648057,0.758877299388294,0.287761433653874,8.34167516513145,1.6498670355514,-1.23684564480581,634.906381417969,734.054180196349
0.81,0.740464079269107,-0.0122427864963384,9.6952104935911,0.63018829088542,0.235620003710548,-0.702082724727281,2.33160581225059,-9.43174735313067,-2.83433458595502,643.422782986388,734.054180196349
0.82,0.751467042984216,-0.018237013069216,7.01187628595557,0.927652886683856,-0.702087488990855,-0.26853019036906,-6.91830844237957,-1.47103950450644,1.91183958168992,651.446023827673,734.054180196349
0.83,0.712940509620552,0.0370828181855046,6.88234343025816,-1.84793746732608,-0.265160573737324,0.662834199327316,-4.56250544732873,5.47403580717745,0.432508426033977,659.1094482568,734.054180196349
0.84,0.690599402245412,-0.0392906215406284,6.05546626547787,1.96724957581584,0.556851139700819,0.410351185616258,6.14620480111337,1.66220008683042,-0.992555487080156,666.369508315517,734.054180196349
0.85,0.611024363371862,-0.0331117837319097,8.14809080971687,1.65571387426428,0.451739411247098,-0.412769508542023,4.52759547613243,-6.97378315416596,-2.36528514178739,673.3228008552,734.054180196349
0.86,0.616762917350134,0.00457246155761631,6.1019059096508,-0.230139863879498,-0.325009479672417,-0.524200573965738,-2.98034910639444,-5.32951585898679,2.59400337537091,679.824992339808,734.054180196349
0.87,0.55246841537722,0.0196738131539406,7.64215891861284,-0.986404733339688,-0.529767245706121,0.157971751558255,-7.64462837080937,0.967080300443132,1.31659582326691,685.942220231137,734.054180196349
0.88,0.52066159213131,-0.0422519619792162,7.67444239911237,2.11441275654564,-0.0849634664380993,0.515417239896597,1.47556657410341,7.82243636776454,0.0824017104911693,691.665019878893,734.054180196349
0.89,0.489314053722391,-0.029148797680049,7.75178344393459,1.46118049594511,0.425513276134999,0.243344092612275,7.59471732214392,2.13200933396547,-1.11080762662098,697.086141694798,734.054180196349
0.9,0.479244712603166,-0.0179138372559619,6.83540419877556,0.90291194786015,0.379768857273489,-0.292868597102033,4.67540348843555,-5.06740592083878,-2.26507476665908,702.261722355688,734.054180196349
0.91,0.45219859746146,0.0462451223326122,6.84386498690114,-2.30399192544149,-0.152721311291882,-0.428133605271716,0.605892422927403,-7.1958155287132,2.90086196394116,707.128138057658,734.054180196349
0.92,0.468505593119171,-0.0324454313882677,4.75700085696233,1.63951882358399,-0.446280136294802,-0.146233500780805,-5.01369760931774,0.424164364778798,1.81830041460485,711.735312574275,734.054180196349
0.93,0.432160434423906,0.0734885839233565,5.36047799638573,-3.66003217321807,-0.247580490200464,0.361755599708723,-6.35737716890726,1.30931867434313,0.768607848701065,716.117192933286,734.054180196349
0.94,0.359840581095022,-0.0535858423517185,7.80730177269991,2.69905749021959,0.0369376571589113,0.361928578295438,4.54349929821091,6.89894821205889,-0.249534872254309,720.273806759921,734.054180196349
0.95,0.345904789843291,-0.0107965943439802,7.4008597800298,0.532672643380336,0.323433734410732,0.123115025610555,7.16935396132827,1.91228381937805,-1.2382840134738,724.205668348253,734.054180196349
0.96,0.310646625701158,0.00376048909339011,8.12960269115785,-0.19690545214453,0.249026071246796,-0.185745748745759,6.69068520028472,-4.62211458359226,-2.19955628040018,727.796000533713,734.054180196349
0.97,0.335672092705542,-0.0166899399584264,5.90399749005006,0.831255775187039,0.0188396169736808,-0.335558306035507,-0.793422922838538,-5.9092006728333,-3.13518749175601,731.242037547764,734.054180196349
