t,iq,id,vq,vd,ia,ib,va,vb,theta_e,omega,r
0,0,0,0,0,0,0,0,0,0,0,0
0.01,0.000436430468756742,0.000247163308579114,-0.0214593937040422,-0.0123641648268567,0.000428807750875816,-0.000260163732975656,-0.0210782410363879,0.0130033036118788,-1.60084457458677,-0.00176135062697139,0
0.02,0.000546143407353721,0.000307196650291356,-0.0268808118841997,-0.0153672775798872,0.000536662877337043,-0.000323473892972042,-0.0264067542477054,0.0161683208117704,-1.60085898342042,-0.00212072418011212,0
0.03,0.000589517152033611,0.000330979985357528,-0.0290224641004957,-0.0165570301960886,0.00057929666283568,-0.000348559320168796,-0.0285114031987913,0.0174223580210804,-1.60087470064666,-0.00219491624466894,0
0.04,0.000582565576671794,0.000327039919690284,-0.0286979005601293,-0.0163599251399015,0.000572461482496552,-0.000344420689349256,-0.0281926521364268,0.017216010358288,-1.60088992122126,-0.00206285470659185,0
0.05,0.000596479188256301,0.000335241254462044,-0.0293951330013638,-0.0167701943832555,0.000586116814535594,-0.000353045606734921,-0.0288769638750678,0.0176474990063202,-1.60090467693504,-0.00202085100401192,0
0.06,0.000599020815471393,0.000337002266127207,-0.0295346528112484,-0.0168582888669064,0.000588599221715975,-0.000354890716894982,-0.0290135157864561,0.017740166907617,-1.60091892083328,-0.00193494734629203,0
0.07,0.000607386035283459,0.000342238248725169,-0.0299586148684301,-0.0171202093646978,0.0005967981137527,-0.000360384275696165,-0.0294291552679382,0.0180151323542625,-1.60093233820877,-0.00187889918656689,0
0.08,0.000600367250215399,0.000338503162725547,-0.0296284621602354,-0.0169333703639559,0.000589890407269309,-0.000356447098063718,-0.0291045496491243,0.0178188100496374,-1.60094538906315,-0.00176125593893915,0
0.09,0.000598262592521266,0.000337699164006112,-0.0295382874293534,-0.0168931527749954,0.000587806568232577,-0.000355587251350965,-0.0290154095783627,0.0177762493777031,-1.60095768978857,-0.00166916248397026,0
0.1,0.000597294861986592,0.000337525142356383,-0.0295031444525824,-0.0168844435363709,0.000586840380840232,-0.000355390969628619,-0.0289803380130185,0.0177668223037784,-1.60096935292851,-0.00158612376053072,0
0.11,0.0005966089183739,0.000337486568787087,-0.0294811870674934,-0.0168825071288056,0.000586151978024402,-0.0003553382110793,-0.0289582523104029,0.0177645450543986,-1.60098042735133,-0.00150824631993731,0
0.12,0.00059600989326089,0.00033747716228884,-0.0294629025552558,-0.0168820385134495,0.00058554977210587,-0.000355316889998421,-0.0289398034132109,0.0177638292537053,-1.60099094635778,-0.00143449402567877,0
0.13,0.000617610131145535,0.000350072831004646,-0.0305319965706137,-0.017512129149243,0.000606756118295953,-0.000368565155720993,-0.0299891985670122,0.0184262164112995,-1.60100120833371,-0.00145494853152268,0
0.14,0.000629966837414365,0.00035746333130618,-0.0311796520966963,-0.017881831986127,0.000618880256867581,-0.000376331605276364,-0.0306252067455659,0.0188156140437254,-1.60101113623988,-0.00143916416710902,0
0.15,0.000602290727959386,0.000341767151155454,-0.0298018803539963,-0.0170966515015265,0.000591687538670326,-0.000359812122054015,-0.0292716130451758,0.0179894478773545,-1.60102065782874,-0.00125938568147099,0
0.16,0.000595675040983501,0.000338393014556795,-0.0294868135648304,-0.0169278524454535,0.000585173765358082,-0.000356244650609908,-0.0289616375544128,0.0178114545388337,-1.60102928496816,-0.00117338752313821,0
0.17,0.000593838618574209,0.000337667026955561,-0.0294053528888364,-0.0168915356074077,0.000583357247990381,-0.000355468208452207,-0.0288811679276136,0.0177729258376415,-1.60103738582515,-0.00111086211117074,0
0.18,0.000593099798778115,0.000337510190303661,-0.0293772194522833,-0.016883702030837,0.000582620781668086,-0.000355293575283767,-0.0288531478896954,0.0177644666080654,-1.60104505985789,-0.00105579999351877,0
0.19,0.000592625466705713,0.000337475709314348,-0.0293616347491058,-0.0168819705941267,0.000582145121419873,-0.000355249005308146,-0.0288374932809596,0.0177624747023456,-1.60105234496055,-0.00100447366580461,0
0.2,0.000592226120966905,0.000337467562112636,-0.0293493381940668,-0.0168815699467027,0.000581743746941528,-0.0003552328063794,-0.0288250915733331,0.017761901702354,-1.6010592643374,-0.00095593784994992,0
0.21,0.000591858659698131,0.000337465110922228,-0.0293382387126674,-0.0168814359752878,0.000581374193299628,-0.000355223058816044,-0.0288138844850139,0.017761621328963,-1.60106583713874,-0.000909881432708356,0
0.22,0.00059151205044118,0.000337463918705156,-0.0293278138032711,-0.0168813772280531,0.00058102556103466,-0.000355215004848229,-0.0288033552315076,0.017761426941627,-1.60107208090294,-0.000866141553884221,0
0.23,0.000591183369158208,0.000337463030181401,-0.0293179377354556,-0.0168813330295538,0.000580694950464155,-0.000355207611424496,-0.0287933796818649,0.0177612545843678,-1.60107801214124,-0.000824593502621386,0
0.24,0.000590871232460738,0.000337462238411748,-0.0293085592255502,-0.0168813043714495,0.000580380979518798,-0.000355200639521299,-0.0287839062671726,0.0177611041650491,-1.60108364650679,-0.000785125592293535,0
0.25,0.000590574798221404,0.000337461497363442,-0.029299652771859,-0.016881261616902,0.000580082802557113,-0.000355194026800162,-0.028774910130486,0.0177609457324842,-1.60108899886028,-0.000747633259794656,0
0.26,0.000594294192844051,0.000339768547251994,-0.0294871387145906,-0.0169966625638921,0.000583728824189689,-0.000357615594123097,-0.0289587252538612,0.0178821173118762,-1.60109400581884,-0.000729207197026929,0
0.27,0.000585040862039705,0.000334514153260226,-0.0290390291241989,-0.0167338225792338,0.00057463714673821,-0.000352086180609431,-0.028518695285843,0.0176059663120938,-1.60109901868844,-0.000656706830683365,0
0.28,0.000584357751045287,0.000334289665187727,-0.0289795512515417,-0.0167225963006411,0.000573959534712262,-0.000351843735159391,-0.0284595040396014,0.0175930738529359,-1.60110361220451,-0.00062274457996869,0
0.29,0.000588306396159482,0.000336777672010696,-0.0292083180029848,-0.0168470590203907,0.000577829459863126,-0.000354452721024101,-0.0286843185047751,0.0177245341297489,-1.60110788199833,-0.000610267567657247,0
0.3,0.000580164406135086,0.000332419903703174,-0.0288131680421033,-0.0166290616734209,0.000569822024196529,-0.000349852242046088,-0.028295894066299,0.0174947627520268,-1.60111147282514,-0.000552028983040525,0
0.31,0.000587046467426501,0.000336375054897678,-0.029154356426466,-0.016826913631944,0.000576579688962393,-0.000354016376388693,-0.0286308610940801,0.0177029747226226,-1.60111529133518,-0.000554827454442128,0
0.32,0.000588443305049624,0.000337224647856232,-0.0292267086392265,-0.0168694122401609,0.000577948803645577,-0.000354910082618302,-0.0287018254229562,0.017747754353745,-1.60111902790517,-0.000535333588747127,0
0.33,0.000588608017629397,0.000337406849972308,-0.0292385214972796,-0.0168785225750206,0.000578106647289884,-0.000355099261031467,-0.0287132931744168,0.0177573212715869,-1.60112260213802,-0.000511807029714393,0
0.34,0.000588501544854079,0.000337445643198756,-0.0292368646427648,-0.0168804732375555,0.000577997839410431,-0.0003551367737173,-0.0287115175366757,0.0177593184442517,-1.6011260030547,-0.000488325673915989,0
0.35,0.000588341156095825,0.000337453634773691,-0.0292323882099458,-0.0168808677609082,0.000577836134272426,-0.000355141765365954,-0.0287069738003685,0.017759669817967,-1.60112923501009,-0.00046576359436618,0
0.36,0.000588175250774304,0.000337455024051271,-0.0292274711100484,-0.016880944601016,0.000577669172688669,-0.000355139896105814,-0.0287020021014067,0.0177596856245298,-1.60113230548535,-0.000444272909902229,0
0.37,0.000588014745054282,0.000337455010821684,-0.0292226567318146,-0.0168809361162429,0.000577507705338412,-0.000355136699039506,-0.0286971383935025,0.0177596148226899,-1.60113522234167,-0.000423844790326527,0
0.38,0.000587861412466974,0.000337454711748803,-0.0292180397085509,-0.0168809256311448,0.000577353468356856,-0.000355133348652927,-0.0286924746036106,0.0177595437918844,-1.60113799321798,-0.000404436179906729,0
0.39,0.000587715807881124,0.000337454366037658,-0.0292136553194138,-0.0168808982041297,0.000577207006508221,-0.00035513010521365,-0.0286880463183435,0.0177594588807284,-1.60114062540962,-0.000385998339970519,0
0.4,0.000587577318242838,0.000337454024358672,-0.029209480504889,-0.0168808847735658,0.000577067703016311,-0.000355127004893724,-0.0286838294268752,0.0177593905163952,-1.60114312585578,-0.000368483199229835,0
0.41,0.000587445755316057,0.000337453696900859,-0.0292055130695755,-0.016880871324409,0.000576935367078239,-0.000355124056077884,-0.0286798220428221,0.0177593248160074,-1.6011455011498,-0.000351844691807582,0
0.42,0.000587320769854817,0.000337453385188131,-0.029201742572313,-0.01688085785741,0.000576809647335528,-0.000355121253402902,-0.0286760136185001,0.0177592616460628,-1.6011477575555,-0.000336038966933545,0
0.43,0.000587202012611008,0.000337453088915524,-0.0291981581378757,-0.0168808429181973,0.000576690192594509,-0.000355118589485759,-0.0286723932220873,0.0177591993961228,-1.60114990102367,-0.000321024348174299,0
0.44,0.000587089308965924,0.000337452807416465,-0.0291947572907147,-0.0168808294173796,0.000576576826327569,-0.000355116061700071,-0.0286689581904006,0.0177591410648002,-1.60115193720703,-0.000306761240456112,0
0.45,0.000586982193256146,0.00033745253997623,-0.0291915226944014,-0.0168808159010913,0.000576469081198655,-0.000355113658366139,-0.0286656911437052,0.0177590848288416,-1.60115387147528,-0.000293212029468619,0
0.46,0.000586880432648844,0.000337452285898206,-0.0291884484020989,-0.0168808009145418,0.00057636672269006,-0.000355111374725645,-0.0286625860914247,0.0177590292017907,-1.60115570892969,-0.000280340983334248,0
0.47,0.000586783794317736,0.000337452044516884,-0.0291855281246636,-0.0168807873686886,0.000576269516380714,-0.000355109205897118,-0.0286596365728626,0.0177589770430012,-1.6011574544157,-0.000268114158574294,0
0.48,0.000586691987222342,0.000337451815198863,-0.0291827524444715,-0.0168807738090466,0.000576177169747422,-0.000355107145117863,-0.0286568331370978,0.0177589267462883,-1.60115911253645,-0.000256499310636295,0
0.49,0.000586604675731225,0.000337451597342412,-0.0291801094402858,-0.0168807742216539,0.000576089345777375,-0.000355105184164462,-0.0286541633660749,0.0177588920560885,-1.60116068766536,-0.000245465808867701,0
0.5,0.000586521832613233,0.000337451390375338,-0.0291776023135703,-0.0168807591789168,0.000576006015793407,-0.000355103324073486,-0.0286516312793918,0.0177588437758551,-1.60116218395546,-0.000234984555741587,0
0.51,4.73879945186362,0.00933168565169656,3.06063155883267,-0.462464722803769,-0.397563824784211,4.72210232106029,-0.723534943658452,3.0096239539294,0.0859632454446473,26.7376078638338,2337.90711935713
0.52,4.71456130627291,-0.0375992654902444,4.27319114773403,1.89066417344078,-1.84195904666444,4.3400102402854,0.108197632575933,4.67151654969882,0.393398826904057,57.1542831539308,2337.90711935713
0.53,4.70620131054418,-0.0164573484399982,4.69186614828885,0.83838498519914,-3.76813376398815,2.81953357071306,-3.24215412010583,3.49355606772627,0.924914548364951,87.9966760757242,2337.90711935713
0.54,4.73956125934731,0.00819259484863832,3.02456389800387,-0.388932622413413,-4.70856946922595,-0.541185368602564,-2.95910253995452,-0.7368632952729,1.68695899968865,120.278339441648,2337.90711935713
0.55,4.69752536121171,0.0406705983086124,5.12704284295936,-2.01188193577863,-2.06519584149544,-4.21940336458414,-0.399358409220577,-5.49315484016589,2.69507657547959,154.841241126757,2337.90711935713
0.56,4.72697641802883,0.00573599957747728,3.65528530942731,-0.257921958118745,3.41187833284786,-3.27160896198417,2.81969514054759,-2.34028924369771,-2.33399665854707,186.766674493167,2337.90711935713
0.57,4.72798974257259,-0.00370138223258198,3.60540197626542,0.222224191814742,3.56037821713919,3.11088534938573,2.86296339400225,2.20266829243294,-0.853456818693384,217.303011129086,2337.90711935713
0.58,4.69995364682035,-0.012646329526839,5.00811081747742,0.66956750178012,-3.57009739749472,3.05681677310103,-3.35853521274481,3.7748822265506,0.860007046870743,250.788208804762,2337.90711935713
0.59,4.66290296673741,0.012862855684864,6.86154751443445,-0.598254389888744,-1.50695590421328,-4.4126991097311,-1.6329022569402,-6.69121609478743,2.81526484991472,282.075255177025,2337.90711935713
0.6,4.67663478044309,0.0304067609540015,6.17588498786083,-1.47461445944397,4.49556838311353,1.28907034467158,5.50979048646552,3.15566981519615,-1.28504459365815,314.396216012875,2337.90711935713
0.61,4.7211397303373,0.00333352148495114,3.95157195245175,-0.110229334176248,-4.28520504151979,1.98146138439997,-3.63405844435302,1.55585687791094,1.1383879745083,345.995946197682,2337.90711935713
0.62,4.65043328153356,0.0188973762950218,7.48790396678463,-0.890733638852022,2.80092398216452,-3.71237278071067,5.24299601169288,-5.41969602953377,-2.49116472832711,378.711222914272,2337.90711935713
0.63,4.70766949950011,0.0463168935750364,4.62706771821174,-2.24749654594878,-1.78384905555491,4.35685436044744,-3.86669870027199,3.39258567383107,0.398451806501918,409.658581742984,2337.90711935713
0.64,4.70452412344892,0.0344870406223974,4.78542038460113,-1.65515451966072,1.71912814164529,-4.37930759557797,3.31746850318023,-3.82546565423302,-2.76018853943539,441.994126710905,2337.90711935713
0.65,4.69328929685393,0.0478182031656817,5.34828310205218,-2.32252349046069,-2.59709900473016,3.90951758713876,-4.92600092087333,3.11973755803172,0.596551781000757,474.338868924689,2337.90711935713
0.66,4.67149313393959,0.069738096078058,6.43926072927125,-3.4166122266052,4.00615631496882,-2.40383507806272,7.28435558991754,-0.274738941834024,-2.09631442973609,506.037227090019,2337.90711935713
0.67,4.67139729554367,0.0365472457005862,6.44519050994774,-1.73852175166418,-4.61943933510531,-0.695750402991528,-6.09323737662773,-2.72679241281706,1.72810978341794,537.46619451049,2337.90711935713
0.68,4.62748484039369,0.0364889129866981,8.6420045674736,-1.73104462075871,2.23890545941194,4.04996910267964,2.59982755788174,8.42149957505021,-0.497120896102005,569.133600621291,2337.90711935713
0.69,4.67513088845767,0.0379429773105007,6.26089422521118,-1.79793667806086,2.80810909592388,-3.73802244497378,5.22966221352041,-3.8835558358386,-2.48919001146959,600.950150418715,2337.90711935713
0.7,4.6848480614007,0.0365246640193936,5.77628112715033,-1.72149011727654,-4.20546623799243,-2.06474916893007,-4.39434360891232,-4.12537224145474,2.03498841043764,632.767625143799,2337.90711935713
0.71,4.6959233088609,0.0564724764288389,5.22380629910962,-2.71407426398447,-2.23829944327801,4.12854701626595,-4.91502709732871,3.23988579946342,0.508823078224505,664.625670147031,2337.90711935713
0.72,4.61812746805511,0.0379483696250089,9.11491719788077,-1.79908191193769,3.28925495124854,3.24181172427537,5.16571999671104,7.72228904960593,-0.784445195863287,696.648719738723,2337.90711935713
0.73,4.64644563322318,0.0755637551657286,7.70041207229528,-3.67797897800618,4.45239293671646,-1.3309260087138,8.40866426942216,1.45541768917011,-1.84500417957988,728.541636740816,2337.90711935713
0.74,4.65824374308399,0.0680519116215191,7.11188800526387,-3.29125416827168,2.0424396543186,-4.1871596686923,6.14766594827774,-4.85978480881285,-2.67315567544338,760.057847070264,2337.90711935713
0.75,4.61649494715461,0.044590332752382,9.20070423002461,-2.10398990485522,-0.63292803748266,-4.57311884759705,0.913526175917238,-9.39389172675731,3.01372311329683,791.419863662471,2337.90711935713
0.76,4.62686765993638,0.0764307065532874,8.6834977735034,-3.70880533443818,-2.25323120936966,-4.04186777524846,-0.833513708085122,-9.40551037900814,2.64954768861028,823.400940966329,2337.90711935713
0.77,4.63987007254316,0.0722950893625223,8.03480343014405,-3.49108444218027,-2.767549153326,-3.7248211438876,-1.85653798917273,-8.56148371710454,2.51816541350712,855.089059764772,2337.90711935713
0.78,4.6585221782863,0.0727351957120121,7.10368551311469,-3.49375173431112,-2.39194960955832,-3.99821164517518,-0.525568341901311,-7.8988877044954,2.61806941517457,886.404122792758,2337.90711935713
0.79,4.60588106361399,0.0454412795400789,9.73731605822735,-2.14327459443375,-0.921129224236234,-4.5130617361501,0.251054772915513,-9.96724242235302,2.95012068354031,918.348958090287,2337.90711935713
0.8,4.65607732574446,0.0800176125047369,7.22907207865923,-3.84836312904567,1.61590001537119,-4.36741640125441,6.21038711632298,-5.33858349722641,-2.7700376703365,949.572305642018,2337.90711935713
0.81,4.63408845313294,0.0909472162222413,8.3300797310964,-4.40484217977305,4.22477133588438,-1.90639826560147,9.39122009381897,0.773206379035848,-1.97506022935662,981.355536210108,2337.90711935713
0.82,4.63037492253711,0.0945732085172393,8.5173732088772,-4.59349044342393,3.81970634748102,2.61899970103912,4.25048301697093,8.69362956167145,-0.949341400406148,1013.02004229921,2337.90711935713
0.83,4.6136006462075,0.133330976206897,9.35773397287933,-6.50348828229749,-1.27064055727628,4.43717935699101,-9.03281610489078,6.94771747845193,0.307790102613929,1044.18060316901,2337.90711935713
0.84,4.6059694204518,0.110763437791782,9.74099116997917,-5.37998540946701,-4.5144161834678,-0.92047235902689,-8.29379971846953,-7.41916694849259,1.79597858927585,1075.80532188122,2337.90711935713
0.85,4.61050603288757,0.0609215905581031,9.51587521077828,-2.89259701481798,1.62377342256155,-4.31553440394948,6.16208628087689,-7.80690022891719,-2.76850278675396,1107.46373705365,2337.90711935713
0.86,4.59348825598254,0.101260081758639,10.3684956276176,-4.9128807062469,3.42515198187495,3.06246989586271,4.22070950986061,10.6690069663072,-0.819203040784979,1138.96984393208,2337.90711935713
0.87,4.58836589895456,0.047847158922693,10.6264236690433,-2.23787098975477,-4.47735683454306,1.00432402613728,-10.8594707957049,0.0289930685305113,1.3605645599625,1170.32608369754,2337.90711935713
0.88,4.52634285144014,0.0720234292671181,10.6269067791374,-3.44571275877204,2.60325622838437,-3.70351508603983,9.03576541338679,-6.56955306719444,-2.51300229041899,1201.50807334377,2337.90711935713
0.89,4.46703672281969,0.106261189166923,10.0868437531175,-5.15763142839033,-0.446170835577863,4.44596897299369,-6.36374524553724,9.37274374454073,0.12380251210537,1232.24061759021,2337.90711935713
0.9,4.37786240216044,0.101205035594059,11.0602552982075,-4.905512079877,-0.786709267143213,-4.30778483683558,3.10975067028574,-11.6928502426057,2.98407158893086,1262.51442036391,2337.90711935713
0.91,4.31099413912779,0.0973024642819506,10.9324873330564,-4.70826100739162,-4.21594046561449,0.905529804889814,-11.6223959864378,-2.570391514069,1.38179056871524,1292.2585428942,2337.90711935713
0.92,4.23177923254141,0.120719778859015,11.4500477246919,-5.87316929364584,4.22507922120812,-0.266897569288152,11.6461839820081,5.47394821922572,-1.60536311911719,1321.43062692449,2337.90711935713
0.93,4.18750248274078,0.117055907617298,10.2680745210456,-5.67555434611242,-3.99637628095135,-1.25612728237139,-7.85327130437927,-8.71615748625703,1.90328164642342,1350.07133083819,2337.90711935713
0.94,4.12634716531258,0.111439680418174,9.98233776817796,-5.38242847375453,2.62450616989488,3.18608334718955,1.89118926941778,11.1821736142986,-0.662049913177385,1378.31842537604,2337.90711935713
0.95,3.99314364338229,0.0701686196939617,13.2930542855245,-3.35558599980322,0.409207430751172,-3.97274075047594,4.92551199465308,-12.7947091108202,-3.02138035844741,1406.41214500705,2337.90711935713
0.96,3.93748565449848,0.122973527178907,12.7099938574479,-5.9825359127953,-3.46284592414236,1.87819431194401,-14.0429017799966,0.362752534958055,1.10504000190248,1433.70126246774,2337.90711935713
0.97,3.88662411788868,0.064060157783931,11.9956407144349,-3.0135517567646,2.96985043356671,2.50797510749467,7.0540708707465,10.1595755074212,-0.853035753465272,1460.46877120263,2337.90711935713
