t,iq,id,vq,vd,ia,ib,va,vb,theta_e,omega,r
0,0,0,0,0,0,0,0,0,0,0,0
0.01,0.000747090800291809,0.000426741738725556,-0.0368593609271779,-0.0213621407329362,-0.000539970320218468,0.000669839703760782,0.0265283127262578,-0.0333346991669583,1.19743804049666,-0.000917423147361614,0
0.02,0.000830586264206907,0.000474280834720499,-0.0410419939486974,-0.0237418843226191,-0.000600368826263678,0.000744562371412317,0.0295545402257182,-0.0370762928367972,1.1974311339132,-0.000990327772581204,0
0.03,0.00086354559023059,0.00049310718587662,-0.0426737386515069,-0.0246843093554095,-0.0006241849808292,0.000774118074247791,0.0307298411043659,-0.0385491888961505,1.19742400749421,-0.000998521704365337,0
0.04,0.000844512344762504,0.000482453756414715,-0.0417520115071322,-0.0241510278595643,-0.00061034389873253,0.000757260227936808,0.0300658831703399,-0.0377166446115322,1.19741727732168,-0.000943052020398512,0
0.05,0.000863671701410693,0.000493472442291618,-0.0427053858452332,-0.0247026034412368,-0.000624158775489063,0.000774512544829901,0.0307521170736991,-0.0385781789675297,1.19741058249315,-0.000935875183456891,0
0.06,0.000864313232645605,0.000493968716577888,-0.0427492425433333,-0.0247274372905728,-0.000624570022501769,0.000775212708923197,0.0307836414705548,-0.0386175000589148,1.19740406134433,-0.000906175783383899,0
0.07,0.000886899924286326,0.000507061997136531,-0.0438699997643236,-0.0253828756814782,-0.000640819308239912,0.000795646880736736,0.0315878378554967,-0.0396367980139412,1.19739782577894,-0.000905466612998008,0
0.08,0.000864915142698328,0.00049457933984822,-0.0428022507347711,-0.0247580148007647,-0.000624898103797601,0.00077600856138559,0.0308213641949642,-0.0386656885881847,1.19739167279128,-0.000848977657904128,0
0.09,0.000863655939736529,0.000494012728892828,-0.0427515719547613,-0.0247296523340974,-0.000623927805198425,0.000775025323747942,0.0307842967434901,-0.0386209746533824,1.19738579040754,-0.00081987162060757,0
0.1,0.000863374752995483,0.000493985214219596,-0.0427485256934778,-0.024728272244143,-0.000623671631883948,0.000774900672061139,0.0307817445336133,-0.0386187532244861,1.19738011134317,-0.000792949074848593,0
0.11,0.000863146943234636,0.000493982149896691,-0.0427477323450252,-0.0247281115183411,-0.000623456388967559,0.00077481813420143,0.0307808526529957,-0.0386184830082694,1.1973746259513,-0.000766999805704162,0
0.12,0.000862928734753368,0.000493980253414369,-0.0427470551099088,-0.0247280296101208,-0.000623249805355092,0.000774740067475029,0.0307800473535556,-0.0386183227740598,1.19736932750473,-0.000741937482258292,0
0.13,0.000903723414155499,0.000517406907642466,-0.0447600263734289,-0.0259007277998917,-0.000652682478831228,0.000811437920728218,0.032226265272968,-0.0404447213869799,1.19736402400979,-0.000768533015942898,0
0.14,0.000943777599608774,0.000540706256379087,-0.0468108532085175,-0.0270670725409871,-0.000681471901681352,0.00084774728571054,0.0337100358443659,-0.0422790240831077,1.19735890149025,-0.000795042250567831,0
0.15,0.000866099018044976,0.00049608873115729,-0.0429319084232584,-0.024833559448876,-0.000625420418780843,0.000777869422211541,0.0309130649764018,-0.0387844923845686,1.19735391110178,-0.000673810094261367,0
0.16,0.000862283386029693,0.000494068902251159,-0.0427532845693473,-0.0247324481214425,-0.000622601085516218,0.000774599642595144,0.0307834623290288,-0.0386253256113744,1.19734930794263,-0.000647467158400942,0
0.17,0.00086193094415263,0.000493976061493659,-0.0427443789544486,-0.0247278182248862,-0.000622303371131731,0.000774387381156689,0.0307766883288176,-0.0386179023494978,1.1973448718207,-0.000626269968300893,0
0.18,0.000861746786969163,0.000493970439447511,-0.0427434480362809,-0.0247275298679592,-0.000622130640788343,0.00077431762584351,0.030775761322234,-0.0386174260980447,1.19734058735497,-0.00060599399667695,0
0.19,0.00086157630873753,0.000493968811151324,-0.0427429114351217,-0.0247274364995119,-0.000621969303115262,0.000774256487315641,0.0307751359572737,-0.0386172707554453,1.19733644892347,-0.00058641832432272,0
0.2,0.00086141170648315,0.000493967410225485,-0.0427423952411077,-0.0247273753282583,-0.000621813463135404,0.000774197615273155,0.0307745232940966,-0.0386171484912173,1.19733245152838,-0.000567510214607753,0
0.21,0.000861252808577792,0.000493966064710892,-0.0427419004728554,-0.0247273141673322,-0.000621663020014958,0.000774140790111838,0.0307739358382057,-0.0386170298571423,1.19732859036204,-0.000549246502202973,0
0.22,0.000861099323983151,0.000493964765298125,-0.0427414215407338,-0.0247272530160897,-0.000621517702532916,0.000774085899986867,0.030773368206103,-0.0386169129565794,1.19732486078202,-0.000531605207013629,0
0.23,0.000860951078076245,0.000493963510087172,-0.0427409584253784,-0.0247271918738455,-0.000621377345281905,0.000774032882317476,0.0307728202067286,-0.0386167979202089,1.19732125830403,-0.00051456511653578,0
0.24,0.000860807896234091,0.000493962297562717,-0.0427405108116455,-0.0247271307401448,-0.000621241782835529,0.000773981674777726,0.0307722913794393,-0.0386166847662961,1.19731777859615,-0.00049810574204176,0
0.25,0.000860669662041368,0.00049396112627568,-0.0427400809768086,-0.0247270696139908,-0.000621110904056237,0.000773932236240606,0.0307717836832294,-0.0386165744538772,1.19731441747487,-0.000482207293086042,0
0.26,0.000869320530310662,0.000498972081770208,-0.0431709140164613,-0.0249779077332121,-0.000627334590292139,0.000781756122220158,0.0310812698540271,-0.0390074141158665,1.19731119555467,-0.000478035430364421,0
0.27,0.000841345410828344,0.000482975975851197,-0.0418034787325632,-0.0241771578888821,-0.000607121980135205,0.00075665764702938,0.030100145687237,-0.0377630378456885,1.19730797692958,-0.000427725244254132,0
0.28,0.00083878022848579,0.000481503326604666,-0.0416132088573532,-0.024103450551362,-0.000605268670002079,0.00075435241256587,0.0299497720298953,-0.03762507987028,1.19730494150514,-0.00041029245911928,0
0.29,0.000859155914154357,0.000493393436720176,-0.0426890888379124,-0.0246986429675683,-0.000619899100442825,0.000772859025628304,0.0307342025934882,-0.0385718817429616,1.19730207812832,-0.000422572816465841,0
0.3,0.000854041747224345,0.000490596485898463,-0.0424427971230932,-0.0245586337477509,-0.000616156090720792,0.000768390454030764,0.0305558787022804,-0.0383517378474529,1.19729954098452,-0.000404258902433771,0
0.31,0.000859664102429633,0.000493803024351533,-0.0427239880073207,-0.0247191551350368,-0.000620218738462995,0.000773429060951448,0.0307590084010104,-0.0386038752462272,1.19729681825329,-0.000398606343448096,0
0.32,0.000859823725451277,0.000493947195060349,-0.0427368242548135,-0.0247263570905565,-0.000620312705026857,0.000773623175932032,0.0307682296716348,-0.0386153457220062,1.1972941722371,-0.00038642864511905,0
0.33,0.000859731065248459,0.000493952867102284,-0.0427371039600527,-0.0247266453113549,-0.000620222385888783,0.000773596232872318,0.0307682862023197,-0.0386157947920025,1.19729161564335,-0.000374351524205816,0
0.34,0.000859630022759675,0.000493952302959872,-0.0427368067011704,-0.0247266192661804,-0.000620126605386539,0.00077356037057293,0.0307679235800108,-0.0386157380600509,1.19728914614154,-0.000362671267086823,0
0.35,0.000859532007054202,0.000493951484648032,-0.0427364983498497,-0.0247265815804552,-0.000620033800999944,0.000773525323408472,0.0307675581277931,-0.0386156638517905,1.19728676079726,-0.000351388377253907,0
0.36,0.000859437134554224,0.0004939506818186,-0.0427361897527444,-0.0247265380730551,-0.0006199439804992,0.000773491386741083,0.0307671977106217,-0.038615581630947,1.19728445674397,-0.000340489969280398,0
0.37,0.00085934563810151,0.000493949905752567,-0.0427358979426995,-0.0247264974739897,-0.000619857354396656,0.00077345865779461,0.0307668548945017,-0.0386155058260373,1.19728223121157,-0.000329962970991643,0
0.38,0.000859257168446388,0.000493949156074221,-0.042735610597818,-0.0247264568736813,-0.00061977359557464,0.0007734270104809,0.0307665191653962,-0.0386154293144549,1.19728008152399,-0.000319794726408438,0
0.39,0.000859171606179382,0.000493948431911181,-0.0427353267747413,-0.0247264367553992,-0.000619692591161834,0.000773396402054927,0.0307661820709419,-0.0386153709025348,1.19727800509647,-0.00030997300948954,0
0.4,0.000859089190119828,0.000493947732396917,-0.0427350632366548,-0.0247263961491111,-0.000619614561882563,0.000773366920435493,0.0307658740717034,-0.0386152986388523,1.1972759994324,-0.000300486010784038,0
0.41,0.00085900956802722,0.000493947056693327,-0.0427348070572813,-0.0247263555412794,-0.000619539178211574,0.000773338437838984,0.0307655755641771,-0.0386152269549426,1.19727406212016,-0.000291322323297957,0
0.42,0.000858932387662411,0.000493946403991251,-0.042734545105908,-0.0247263354100422,-0.000619466110679645,0.000773310826453873,0.0307652667606223,-0.0386151701973012,1.19727219083039,-0.00028247092878096,0
0.43,0.000858858120673441,0.000493945773508241,-0.0427343053548873,-0.0247262947963293,-0.000619395796948068,0.000773284259077112,0.0307649885635948,-0.0386151005074648,1.19727038331307,-0.000273921184476983,0
0.44,0.000858786178997527,0.000493945164488892,-0.04273406258627,-0.0247262746557439,-0.000619327688087555,0.000773258521794138,0.0307647024653628,-0.0386150468819633,1.19726863739487,-0.00026566281032846,0
0.45,0.00085871703428155,0.000493944576203195,-0.0427338444315256,-0.0247262340359877,-0.000619262221856719,0.000773233787354726,0.0307644490545616,-0.0386149813397541,1.19726695097673,-0.000257685876615799,0
0.46,0.000858649865633246,0.000493944007946116,-0.0427336138266161,-0.0247262138866266,-0.000619198632647555,0.000773209756835273,0.0307641788019257,-0.0386149285444465,1.19726532203045,-0.000249980792019257,0
0.47,0.000858585261113653,0.000493943459035884,-0.0427334039276914,-0.0247261732616865,-0.000619137466697872,0.000773186645420674,0.0307639374430608,-0.0386148625326261,1.19726374859793,-0.000242538292084887,0
0.48,0.000858522632662313,0.000493942928815299,-0.0427331890053882,-0.0247261531035553,-0.000619078175266355,0.000773164239103791,0.0307636860095815,-0.0386148120929595,1.19726222878708,-0.000235349428085176,0
0.49,0.000858462216101892,0.000493942416648244,-0.042732984387976,-0.0247261329401419,-0.00061902097672616,0.000773142624495552,0.0307634461725642,-0.0386147638146903,1.19726076077025,-0.000228405556260353,0
0.5,0.000858403836805058,0.000493941921920275,-0.0427327847558973,-0.0247261098616508,-0.000618965707344803,0.000773121738410638,0.0307632139729273,-0.0386147131018756,1.19725934278284,-0.000221698327424238,0
0.51,4.66432024356881,-0.0265984218122671,6.78510362595144,1.33617836333819,-0.271436873466801,4.65649147259299,0.9781202013087,6.84589546409703,0.0525237863865508,16.2057805050081,2917.4154773415
0.52,4.67016522841642,-0.00826431958955715,6.49412047748122,0.423687944651302,-1.11059623739995,4.53619747775173,-1.12146665379829,6.4105713313949,0.23833708965277,34.515286223883,2917.4154773415
0.53,4.6822756004702,0.0692945311375017,5.88994061266136,-3.45305455653438,-2.42495383432296,4.0060086660174,-6.05151582857125,3.16135135150019,0.559127031774209,53.0872373104787,2917.4154773415
0.54,4.61306390251156,-0.00564459301492182,9.35189904925334,0.304546734029517,-3.93129105177285,2.41357434033762,-7.8041089430863,5.16203914602302,1.01896668093808,72.5953641048956,2917.4154773415
0.55,4.63016818627569,0.0293100577190715,8.49809418114879,-1.44441401170796,-4.62441906184483,-0.232518500617128,-8.40283624827434,-1.92257107373954,1.62736475646634,93.3307919585886,2917.4154773415
0.56,4.61205898646074,-0.00973659490061474,9.4050213269575,0.517121299233857,-3.16821910537067,-3.35165192050693,-6.85015667811597,-6.46507494805048,2.38221038077841,112.312629925671,2917.4154773415
0.57,4.61638538992496,0.0126100091343191,9.19016241647836,-0.592431653261437,0.590507757905642,-4.57847940570843,1.78780948737633,-9.03403551807743,-3.01059452590979,130.764401929776,2917.4154773415
0.58,4.61914948174028,-0.00939018553529414,9.05357109650124,0.50678548779262,4.24450601970256,-1.82230589061075,8.11109319242017,-4.05390532128158,-1.97836408950091,151.001765638279,2917.4154773415
0.59,4.64374162167286,0.00410434880817823,7.82555949426867,-0.157061863668563,3.34290079890566,3.22325415429996,5.5194803855241,5.54971946148382,-0.802734023242076,169.522903760513,2917.4154773415
0.6,4.59397184862247,0.0351436552705482,10.3156885364556,-1.71404358109891,-2.21606877513916,4.02428274432783,-6.54005518225171,8.15959886220949,0.511010502357065,189.341796565841,2917.4154773415
0.61,4.6265926561967,0.0559090039213036,8.68628506185712,-2.73850225108115,-4.28837745411665,-1.73732674938155,-6.95185943824775,-5.88409662614953,1.96779623445475,207.916779098185,2917.4154773415
0.62,4.58517713357722,0.0628870551425895,10.7587725996564,-3.09186013542879,1.82488517174487,-4.2068513448813,7.23585038628581,-8.54126782951211,-2.71858695746464,227.680050950751,2917.4154773415
0.63,4.59307901477415,0.058213751915044,10.3654187480321,-2.84944975162148,3.85185536667631,2.50259343703239,7.03711044238248,8.12652117026607,-0.981950626528106,246.605867474634,2917.4154773415
0.64,4.59786199171674,0.0361889350866571,10.1280708709717,-1.73498309528391,-3.56920947467549,2.89868733391217,-8.99508296387986,4.96754148259122,0.896569076707937,265.494998223092,2917.4154773415
0.65,4.59572522094715,0.0799498898906128,10.2367061573052,-3.92624816210655,-1.10962085135772,-4.46047350149908,1.52795607614011,-10.8568378366282,2.9151691472468,284.888540862483,2917.4154773415
0.66,4.55862738299322,0.0281801619021462,12.0934493338115,-1.33558146145796,4.27426034337457,1.58511080229614,10.8405062238485,5.52437502712829,-1.2094870468914,304.209337118923,2917.4154773415
0.67,4.59213359113238,0.00672032042480897,10.4200360721482,-0.258905942756769,-4.06667592385855,2.13304547814204,-9.35470655152091,4.5971349085051,1.08919054919336,323.376484905706,2917.4154773415
0.68,4.59704701325662,0.0224430308639783,10.1763371755749,-1.04240748865413,1.71174802096377,-4.26652828942368,4.80080276558476,-9.03309163516809,-2.75516680087869,342.446707623801,2917.4154773415
0.69,4.50868126898354,-0.00798009837139446,14.5965590027064,0.483130888518626,0.783167814817384,4.4401484931348,3.03652578915169,14.2853932849868,-0.176357434562746,361.534049472262,2917.4154773415
0.7,4.53498963520289,0.0491229621324858,13.2831506876692,-2.36954651756152,-2.5982625379065,-3.71720000012348,-5.53486564414043,-12.3053689579601,2.54238060247045,380.58561878026,2917.4154773415
0.71,4.59437475661608,0.0321004068058623,10.3159324982876,-1.50774592096401,3.56805043616443,2.89453380103516,7.00764763467756,7.71910847828996,-0.882254357839814,399.571069404011,2917.4154773415
0.72,4.56597233518848,0.0608797775494261,11.7380946292256,-2.93717009222166,-3.93594964309248,-2.31519116274686,-8.51451498943288,-8.59725934062821,2.11583912728167,418.476305340634,2917.4154773415
0.73,4.5149406676412,0.0257008374206458,14.2917701091883,-1.163681370256,3.88350887229331,2.30297820314992,11.6518687637238,8.35720057784458,-1.02983650489475,437.380314054698,2917.4154773415
0.74,4.51491389588619,0.0448081986644169,14.2952228482209,-2.13620076450942,-3.54916627342603,-2.79103457977663,-9.81155653027873,-10.6136755386498,2.247108373565,456.606730569788,2917.4154773415
0.75,4.51744275428367,0.0483601747608251,14.1709474318952,-2.30671210318379,2.66174188514702,3.65030928574373,6.34793079356753,12.8779053609113,-0.61933948719966,475.669530699682,2917.4154773415
0.76,4.51263920521913,0.104638745331343,14.4132763398197,-5.10074640012128,-1.02198717562882,-4.39663554054182,2.0567215666539,-15.1502490106142,2.93638470052547,494.432804667399,2917.4154773415
0.77,4.54025644595913,0.0794272845319329,13.0346224258238,-3.85921325384773,-1.474245145184,4.29497829336808,-8.07445361514628,10.9360919683091,0.348139788733268,513.694958869515,2917.4154773415
0.78,4.5169400086009,0.115927924779395,14.202718559369,-5.65876232879865,3.83856349416317,-2.38361419410126,15.1148230070138,-2.29802764063483,-2.10082940819568,532.407750757693,2917.4154773415
0.79,4.50426240032714,0.0727384573781472,14.8388640946577,-3.51667102149685,-4.32278828476855,-1.26774291528303,-13.1258637344966,-7.7634118734346,1.87221457562903,551.604948173772,2917.4154773415
0.8,4.51002362500851,0.106455045665825,14.5531046987664,-5.16981410080661,1.42987862858983,4.27867887114524,-0.654857623893211,15.4301975263632,-0.298918892641219,570.296677968868,2917.4154773415
0.81,4.57131784408269,0.108464798318209,11.4907450554698,-5.28160970191062,3.23740114379503,-3.22923292412573,11.9658338034727,-4.09285283888746,-2.33120855957024,589.367443353748,2917.4154773415
0.82,4.54045750145726,0.109736274390479,13.0361453939306,-5.35677762955915,-4.06302237500037,-2.02969099931565,-9.00881655918985,-10.8386981463232,2.05824932653715,608.369369553538,2917.4154773415
0.83,4.50255648114711,0.12065418049592,14.93360634225,-5.86584074370508,-1.22893391020124,4.33327748263926,-10.0563108081533,12.5016518486806,0.303137764008717,627.09659023737,2917.4154773415
0.84,4.53155085499926,0.0781233552995264,13.4863340611057,-3.7329242181975,4.40219129844185,1.07785350674878,12.0920376525972,7.04262415827493,-1.31343733716146,645.932078123756,2917.4154773415
0.85,4.45890292746425,0.106400656442797,17.1211977458228,-5.15389319426327,1.42888280407513,-4.22509530643501,10.7118569181837,-14.3162197759674,-2.79161995726981,664.852636568924,2917.4154773415
0.86,4.52141344248765,0.109172049554953,13.99815061709,-5.29127132422633,-3.83965049633448,-2.39001717991952,-8.79818203889583,-12.1052784245455,2.15170571669788,683.766170617556,2917.4154773415
0.87,4.47665732260865,0.0526712651758996,16.2385097476041,-2.46210202728622,-3.61099986325478,2.64649107948899,-14.6415368054725,7.44154185567711,0.950096488086723,702.620461889911,2917.4154773415
0.88,4.47321200191824,0.148690028261492,16.4133306583029,-7.26243789229669,0.654071985348227,4.42763189262527,-5.3578831819506,17.1299012036504,-0.113436414897432,721.444731726031,2917.4154773415
0.89,4.46125475542372,0.132744259798289,17.013812027361,-6.45375417929433,3.91244343922717,2.1478364384069,11.3914889500609,14.1899514519879,-1.0389937151568,740.220185881031,2917.4154773415
0.9,4.45649684475455,0.129919250940326,17.2543375009817,-6.29965695000901,0.393211272950321,-4.44101655411201,8.27820549340345,-16.3972300738437,-3.02413759622581,758.997021408298,2917.4154773415
0.91,4.46072608852324,0.121055871703751,17.0455255527951,-5.84982381596975,-2.36847050950492,-3.78194119553852,-3.61169923274691,-17.6557641777708,2.60922079492713,777.858888492166,2917.4154773415
0.92,4.44400258273494,0.0835125572966846,17.8843448418089,-4.00931198532304,-3.88411463898982,-2.16096894326735,-13.4475230578985,-12.4534532007664,2.09729989487302,796.780948139493,2917.4154773415
0.93,4.38789298119333,0.112819874701995,20.6925246709772,-5.45365155350265,-4.35419550469588,-0.55435967153073,-19.625271012686,-8.53062894543236,1.7231372089342,815.473729191577,2917.4154773415
0.94,4.46919904635138,0.126311012143693,16.6298994517781,-6.09714532007676,-4.44269679175172,0.502135244984669,-17.0841886825169,-4.67538596166606,1.48650412039346,834.18315728002,2917.4154773415
0.95,4.41917225930227,0.141050371097862,19.1339839303294,-6.87751450656019,-4.3195487759477,0.943650908324849,-20.0666321429621,-3.27716665323698,1.38762189006238,853.101928554916,2917.4154773415
0.96,4.4182650735333,0.11503553244175,19.1821010137116,-5.53181083097403,-4.3556047398333,0.750337779983138,-19.7789286280931,-2.71070335793442,1.42623173947176,871.703341975876,2917.4154773415
0.97,4.41089308971623,0.0685843681191276,19.5535566845233,-3.24455559632036,-4.41087432598513,-0.0697806908961426,-19.4421850875423,-3.85618452025149,1.60216276575529,890.572986607689,2917.4154773415
0.98,4.38739955362939,0.160916629996875,20.7310752488573,-7.81707427938919,-4.18395785133974,-1.33028782720489,-16.8729435586182,-14.3592446504319,1.91529880794208,909.136232239346,2917.4154773415
