t,iq,id,vq,vd,ia,ib,va,vb,theta_e,omega,r
0,0,0,0,0,0,0,0,0,0,0,0
0.01,0.000982483757228217,0.000558878779194043,-0.048594750092897,-0.0279932408542771,-0.000877881346743479,-0.000712000115232121,0.043747474089448,0.035088884007756,2.76942968007607,-0.00158933577152837,0
0.02,0.00109071119860225,0.000621271648841238,-0.0540515385786467,-0.031118369812155,-0.000975367039610445,-0.000790119306466957,0.048643378045034,0.039035157676803,2.76941806264473,-0.00167381577951277,0
0.03,0.00112205860189286,0.000639305663573545,-0.0556208426955911,-0.0320216703985739,-0.00100357510805149,-0.000812751032025441,0.0500559695945677,0.0401679651616845,2.76940643331977,-0.00162715407154583,0
0.04,0.00110356529482184,0.000629404457561502,-0.0547380661598728,-0.0315257260956691,-0.000987635052804904,-0.000799114092983322,0.0492733718164858,0.0395254617002269,2.7693959169508,-0.00150511919931868,0
0.05,0.00112073616619332,0.000639386737546536,-0.0556073833410484,-0.0320257290112647,-0.00100318661155865,-0.000811468777436066,0.0500556914381574,0.0401529096752557,2.76938562219266,-0.00144578047528901,0
0.06,0.00112024959508887,0.000639492173609947,-0.0556074918751869,-0.0320310109478155,-0.00100311574526193,-0.000810967445100452,0.0500610407936156,0.0401506041006609,2.76937591833241,-0.00136143084117974,0
0.07,0.00115110084582633,0.00065734816032692,-0.0571459391622144,-0.0329253712607202,-0.00103097655709911,-0.000833202916377124,0.0514540352034103,0.0412579773701279,2.76936689344611,-0.00133633922151619,0
0.08,0.00111935449634362,0.000639681814133851,-0.0556071706581977,-0.0320405018098032,-0.00100298116787567,-0.000810046966974766,0.0500704735760163,0.0401459694204459,2.76935826687922,-0.00120798042850721,0
0.09,0.00111841848200085,0.000639485787338764,-0.0555809967022081,-0.0320306753467033,-0.00100246462123386,-0.000809238318583483,0.0500521220462715,0.0401247608870372,2.76935025700816,-0.00113744458680954,0
0.1,0.00111787588412346,0.000639480830698393,-0.0555729242439129,-0.0320304382358941,-0.0010022687339566,-0.000808727154279209,0.0500492665576603,0.0401169515248028,2.76934274455178,-0.00107186116620413,0
0.11,0.00111737112128395,0.000639478135647076,-0.0555655581555842,-0.0320303059567019,-0.00100208833071894,-0.000808250880659552,0.0500467468496216,0.040109785372044,2.76933569773676,-0.00101034943144373,0
0.12,0.00111689779057505,0.000639475628505119,-0.0555586551132931,-0.0320301737380483,-0.0010019191756948,-0.000807804258108673,0.050044378005256,0.0401030724228762,2.76932908769049,-0.000952650335633548,0
0.13,0.00116946545727398,0.000669550922848771,-0.0581582861158981,-0.033536609746844,-0.00104906024368741,-0.000845825336082574,0.0523934597177819,0.0419763721163698,2.7693225028886,-0.000985576089308821,0
0.14,0.00125329210929395,0.000718270419153931,-0.0624125486106109,-0.0359768643511059,-0.00112493851762374,-0.000906182563182797,0.056214248041137,0.0450512964272869,2.76931641875452,-0.00107609036568049,0
0.15,0.00111717491020126,0.000640329615135288,-0.0556179187847278,-0.0320729542547009,-0.00100283036447544,-0.000807733282766376,0.0501065244589223,0.0401417923269021,2.7693106419004,-0.000794361236387531,0
0.16,0.00111523265704458,0.000639476116822889,-0.0555349921446198,-0.0320301937667506,-0.00100133293241867,-0.000806229459756601,0.0500367320246188,0.0400798467254436,2.76930558063185,-0.00074748866185384,0
0.17,0.00111487431535001,0.000639465011794279,-0.0555291166439032,-0.0320296492926587,-0.00100119606516525,-0.000805894955582812,0.050034277742977,0.0400743344274307,2.76930083722814,-0.000706052137272274,0
0.18,0.00111455543887069,0.00063946322105069,-0.0555244525229998,-0.0320295645933853,-0.0010010819897748,-0.000805594120597511,0.0500326805515539,0.040069798013552,2.76929638787404,-0.000667213354408703,0
0.19,0.00111425646941468,0.000639461635355205,-0.0555200836368357,-0.0320294857098584,-0.00100097512201056,-0.000805312031351549,0.0500311850833826,0.04006554830564,2.76929221429648,-0.000630782182366566,0
0.2,0.00111397612640789,0.000639460148799791,-0.0555159895335252,-0.0320294068209658,-0.00100087491162102,-0.000805047516235772,0.0500297791682609,0.0400615675125731,2.7692882994013,-0.000596609055959375,0
0.21,0.0011137131292787,0.000639458754241357,-0.0555121468582407,-0.0320293250156251,-0.00100078089943555,-0.00080479936880482,0.0500284522471822,0.0400578341341471,2.76928462715564,-0.000564554015260772,0
0.22,0.0011134662412423,0.000639457445985626,-0.0555085319409447,-0.0320292726605843,-0.00100069264270425,-0.000804566423889475,0.0500272264667,0.0400543135935999,2.76928118251962,-0.000534485779102044,0
0.23,0.00111323472002736,0.000639456218699255,-0.0555051434925493,-0.0320292202866607,-0.00100060987810241,-0.000804347977775432,0.0500260744771994,0.0400510147025219,2.76927795138576,-0.00050628120329738,0
0.24,0.00111301793977866,0.000639455067377678,-0.0555019838130643,-0.0320291413580124,-0.00100053238421731,-0.000804143435959376,0.0500249729316975,0.040047948592907,2.769274920521,-0.000479824776263506,0
0.25,0.00111281435823844,0.000639453987324881,-0.0554990072542344,-0.0320290889527232,-0.00100045960586201,-0.000803951351044176,0.0500239551667766,0.040045052813292,2.76927207751259,-0.000455008145940872,0
0.26,0.00112266217329194,0.000645095063557987,-0.0559894989364276,-0.032311636502494,-0.00100929875123458,-0.000811069680806645,0.0504656810967922,0.0403990207314287,2.76926943255609,-0.000449028710489776,0
0.27,0.00108060534003302,0.000621256375199081,-0.053929146169859,-0.0311176216169269,-0.000971795963217554,-0.000780563892649057,0.0486040601040137,0.0389140658773879,2.76926681920914,-0.000354851456765903,0
0.28,0.00106570564324334,0.000612489328002115,-0.0530934690545789,-0.0306784894746117,-0.000958211182378326,-0.00076987208348031,0.0478911019360845,0.0382952807541733,2.76926443429476,-0.000308928266111558,0
0.29,0.00111157642252571,0.000639155704564491,-0.0554621758126959,-0.0320141465173827,-0.000999739225046273,-0.000802897029323352,0.0499970267334324,0.0400156949325047,2.769262363906,-0.000369294069382202,0
0.3,0.00110894961575411,0.000637789069368913,-0.0553369416565645,-0.0319456993485625,-0.000997511877460372,-0.000800945816902202,0.0498877730105622,0.0399238640767322,2.7692608070458,-0.000351416907711583,0
0.31,0.00111183083569422,0.000639430815284477,-0.0554833757723697,-0.0320279398781517,-0.00100009086228423,-0.000803030411573228,0.0500177280618193,0.0400302485561903,2.76925884686099,-0.000339457020223221,0
0.32,0.00111173358623071,0.00063944805976255,-0.0554831568882381,-0.0320288130226202,-0.00100007302950933,-0.000802931705399358,0.0500185356721349,0.0400296346615626,2.76925700020933,-0.00032339754835385,0
0.33,0.00111161009843659,0.000639447597428823,-0.0554813656104867,-0.0320287692142798,-0.0010000290656861,-0.000802815114822009,0.0500179125528284,0.0400278954136201,2.76925526792234,-0.000308277103367794,0
0.34,0.00111149375574789,0.000639446981930104,-0.0554796594397109,-0.0320287431631793,-0.000999987471962639,-0.000802705343001925,0.0500173326321195,0.0400262343535727,2.76925364300336,-0.000294093183151596,0
0.35,0.00111138451439356,0.0006394464025685,-0.0554780527102021,-0.0320287170948691,-0.000999948414154468,-0.000802602273620982,0.0500167848354662,0.0400246709665651,2.76925211879852,-0.000280788389369692,0
0.36,0.00111128214154296,0.000639445859071411,-0.0554765496322455,-0.0320286910094806,-0.000999911812375137,-0.000802505683636291,0.0500162709454146,0.0400232088617925,2.76925068906558,-0.000268308240404751,0
0.37,0.00111118605511948,0.000639445349240101,-0.0554751359633194,-0.03202866490849,-0.000999877457570839,-0.000802415025780588,0.0500157860170959,0.040021834478959,2.76924934794912,-0.000256601624005185,0
0.38,0.00111109602229247,0.000639444870991084,-0.0554738140010794,-0.0320286387921804,-0.000999845267551525,-0.000802330078425191,0.0500153311071814,0.0400205496831982,2.76924808995646,-0.00024562059582268,0
0.39,0.00111101146098533,0.000639444422368678,-0.0554725677215388,-0.0320286126620637,-0.000999815032910919,-0.000802250294923292,0.0500149005943566,0.0400193392900713,2.76924690993552,-0.000235320183148705,0
0.4,0.00111093237119806,0.00063944400153889,-0.0554714093848001,-0.0320285865177743,-0.000999786755853908,-0.000802175671096381,0.0500144991324587,0.0400182144778091,2.76924580305374,-0.00022565820072966,0
0.41,0.00111085763256161,0.000639443606780104,-0.0554702944812677,-0.0320285868466032,-0.000999760030852297,-0.000802105159428953,0.0500141353829467,0.040017123923706,2.76924476477772,-0.00021659507799581,0
0.42,0.00111078797241124,0.000639443236478108,-0.0554692701694334,-0.0320285577658566,-0.000999735124447819,-0.000802039433741494,0.0500137746194111,0.0400161316722289,2.76924379085515,-0.000208093697005577,0
0.43,0.00111072273604671,0.000639442889118517,-0.0554683138343325,-0.0320285315838789,-0.000999711800271932,-0.000801977880750073,0.0500134388689094,0.0400152047045794,2.76924287729724,-0.000200119240422565,0
0.44,0.00111066103592628,0.000639442563280559,-0.0554673905984191,-0.0320285318722272,-0.000999689737130659,-0.000801919670500284,0.0500131375491255,0.0400143017704935,2.76924202036294,-0.000192639048925061,0
0.45,0.00111060371580337,0.000639442257630901,-0.055466551562714,-0.0320285056680252,-0.000999669243578214,-0.000801865585895865,0.05001284005805,0.0400134895618196,2.76924121654211,-0.000185622487451355,0
0.46,0.00111054958267885,0.000639441970919497,-0.0554657454272237,-0.0320285059320903,-0.000999649887085879,-0.000801814512846188,0.0500125771960417,0.0400127008617201,2.76924046254323,-0.000179040819732605,0
0.47,0.00111049901464434,0.000639441701973163,-0.0554649989227933,-0.0320284797087171,-0.000999631806604038,-0.000801766800867892,0.050012309484872,0.0400119796804225,2.76923975527805,-0.00017286709060365,0
0.48,0.00111045140077783,0.000639441449691341,-0.0554642888742677,-0.0320284799517264,-0.000999614781184759,-0.000801721878402826,0.0500120779344426,0.0400112850209237,2.76923909185002,-0.000167076015606714,0
0.49,0.0011104068863398,0.000639441213041861,-0.0554636294202792,-0.0320284537109637,-0.000999598864903535,-0.000801679878412112,0.0500118384757188,0.0400106491807371,2.76923846954178,-0.000161643877442735,0
0.5,0.00111036497682404,0.000639440991056385,-0.0554630023298559,-0.0320284539354046,-0.000999583879005488,-0.000801640338077473,0.0500116338987868,0.0400100357873829,2.7692378858051,-0.000156548428834511,0
0.51,4.55160666851076,-0.0206846534763716,12.4212362490477,1.0435554692634,-0.490722487067754,4.52512348565286,-0.24505155554763,12.462586718142,0.103477427850673,31.7799133418932,4049.90271166011
0.52,4.57511751371648,0.00057884906524619,11.2474428556043,-0.0119285311365716,-2.06273930184897,4.08372466897429,-5.08294333551315,10.0333842808846,0.467855550757793,67.717874735367,4049.90271166011
0.53,4.58197728518086,-0.00392623216488097,10.9063298313858,0.224815172855456,-4.08464914955602,2.07609551375741,-9.61627896024932,5.1503156419377,1.09969951347401,105.078846394511,4049.90271166011
0.54,4.51309280472415,0.0402305650065777,14.3526113915349,-1.98821576264953,-4.08841951129352,-1.91166185872085,-12.0886773723196,-7.98838751333668,2.01708690934473,145.171514110722,4049.90271166011
0.55,4.5316832995146,-0.0374420149588879,13.4252191085126,1.91774984373773,0.375886894334948,-4.5162223676709,-0.909429767370106,-13.5309722515771,-3.06681575526109,181.536515508346,4049.90271166011
0.56,4.49304678955856,-0.0208415190713819,15.3593328611554,1.08656971458924,4.49157136525248,-0.117006379841685,15.3187695966441,-1.55725326436069,-1.60147922989327,219.298997099117,4049.90271166011
0.57,4.52712319959896,-0.050825725521388,13.6578452746131,2.60708744033066,-0.702974962422579,4.47249973962312,0.610784365359475,13.8910253374556,0.144675246273954,256.2199032274,4049.90271166011
0.58,4.52569950611576,0.0280004734544201,13.7314791026537,-1.34638173314793,-3.77585819155456,-2.49512223416819,-10.6598889176094,-8.75973917318313,2.16091977977989,294.382677305467,4049.90271166011
0.59,4.43559168091531,0.0377250671662905,18.2394301461668,-1.82051406627792,4.27438233235227,-1.18555995941687,18.0883541645477,-2.9669053136736,-1.8328541612549,331.066365656823,4049.90271166011
0.6,4.48858807818354,-0.00101033416411278,15.5921407147424,0.145990393464584,-2.99673701091597,3.34170484091473,-10.2985300928839,11.7079649465343,0.730802009457586,367.848082746722,4049.90271166011
0.61,4.46681754048174,0.0655700440435352,16.6833220867989,-3.18159551124352,1.78238413896749,-4.09632337002199,9.77865514407729,-13.8864570507472,-2.71650494524056,404.985978767822,4049.90271166011
0.62,4.38663092354614,0.077463177506929,20.6953587898415,-3.76944007164521,-1.59996207466742,4.08517475304382,-11.371258494112,17.6974866620681,0.390945246367308,442.103943468016,4049.90271166011
0.63,4.35863270283817,0.0777359613544418,22.0980882083059,-3.77336921943678,2.49839592039379,-3.57235772885328,16.0387811441156,-15.6627365788812,-2.5134573157826,479.214869942886,4049.90271166011
0.64,4.43198451991637,0.0660436053926394,18.4334573966463,-3.21708469213794,-3.99242621138472,1.92545617692011,-18.0750381160624,4.84096918119223,1.13632769230994,516.562664121488,4049.90271166011
0.65,4.41294022490556,0.101355829397797,19.3886647826232,-4.9691043268319,4.18776018940977,1.3953419038849,16.5702648276695,11.2266933424216,-1.22620620014554,553.392715660545,4049.90271166011
0.66,4.4449811027809,0.0990425798613432,17.7896712446144,-4.81491365660367,-0.884180845875408,-4.35728019164386,1.59036956888534,-18.3610054503116,2.96366884656362,589.732631986998,4049.90271166011
0.67,4.41131406078722,0.0661037428445992,19.4761799970807,-3.20063317090873,-3.98054178886926,1.9024585448263,-19.032942952446,5.22615753133644,1.13993619989896,626.980257628238,4049.90271166011
0.68,4.39441594109098,0.087315901574919,20.324175948018,-4.21115241409342,1.84914287821376,3.9873783550014,4.32784823118777,20.299646851818,-0.414361494542472,663.244029248165,4049.90271166011
0.69,4.37098854025377,-0.00678265700909675,21.4988450418406,0.474627080088129,4.33558013708578,-0.555276236096149,21.2593728444328,-3.23491503128308,-1.69972887824635,700.225143732415,4049.90271166011
0.7,4.34205026056581,0.116840663621574,22.9491117564284,-5.72784838958268,1.68115281994186,-4.00509393172703,14.668094704345,-18.5557801056019,-2.71727147793584,736.805799214141,4049.90271166011
0.71,4.23443110285508,0.121308545858499,28.3334691446799,-5.88939235351436,-1.467938155775,-3.97369854152837,-3.47246579736609,-28.7299912522138,2.8163689493526,773.016506028987,4049.90271166011
0.72,4.31499559392467,0.12400814231803,24.3087150342569,-6.01392042686348,-3.20275693212612,-2.894289727838,-13.4010817647243,-21.1540037121233,2.33437567393884,809.414074631769,4049.90271166011
0.73,4.31511059363741,0.104539417134964,24.3064581239695,-5.03088097060724,-3.73648668502459,-2.16096626019256,-18.1166638021,-16.9676210045598,2.11936001690952,845.860449112338,4049.90271166011
0.74,4.30081815875133,0.148555293553807,25.0246778165523,-7.22547857782822,-3.63255014039609,-2.30731120297986,-16.5656781995005,-20.1002573687874,2.17120771259695,882.242537698589,4049.90271166011
0.75,4.31241053814118,0.06175374659332,24.4486830563814,-2.92523012323092,-2.66642484721239,-3.38981956877616,-12.513887183335,-21.2060770070282,2.48939636224159,918.768641694157,4049.90271166011
0.76,4.21013652467589,0.13601831158681,29.5660602199587,-6.65204690567217,-0.419870835707208,-4.19135527232176,4.64131975649967,-29.9476175326755,3.0740464130408,955.182419849578,4049.90271166011
0.77,4.23164630221329,0.12151650463719,28.4943175121381,-5.87223834660322,2.89784646650462,-3.08611123333255,24.2568562339388,-16.0628216490093,-2.35893745581564,991.162409788058,4049.90271166011
0.78,4.1648631393264,0.0872747831860911,31.8372746578363,-4.19078366827627,3.97172727846066,1.25661620339361,28.7987748417306,14.2058189840678,-1.24341920453974,1027.46441664563,4049.90271166011
0.79,4.27951506243962,0.0366610161773711,26.1085315962289,-1.61619464375013,-0.549734570764115,4.24421784330889,-5.17635244367555,25.6412340306902,0.137374811320507,1063.5586118481,4049.90271166011
0.8,4.18677495118356,0.142653694225671,30.74950824306,-6.97198614076573,-4.12324615463782,-0.740456424510452,-28.5974452479586,-13.2788167103495,1.78254260507765,1099.74513590675,4049.90271166011
0.81,4.17135986923548,0.132376571407972,31.5242343395988,-6.36587238249647,-3.24517350676873,2.62423619864758,-28.9726088346489,13.9602872177686,0.922522226092204,1135.52619088725,4049.90271166011
0.82,4.14768182372677,0.137135118684768,32.712208235518,-6.62883203505466,-0.32613904422919,-4.13711298800013,5.13016195307893,-32.9804702836094,3.09597386613416,1171.5831157619,4049.90271166011
0.83,4.1957704375163,0.114781734295139,30.3118993379332,-5.52679609809979,2.94500235066431,2.99075668777071,16.6267001084798,25.9405003823296,-0.750340350123188,1207.61233290028,4049.90271166011
0.84,4.2017732361461,0.098513207399716,30.0158388589331,-4.71624740759512,-3.93975959262455,-1.46386390499551,-26.1377870224176,-15.4922452080331,1.94999055685889,1243.60587334854,4049.90271166011
0.85,4.1566391680008,0.0812468847791727,32.2767297138471,-3.84425151015608,4.08898515571996,0.751299291591931,30.8568147773866,10.2187343877866,-1.36954189908574,1279.45709932026,4049.90271166011
0.86,4.12926929428104,0.118797228487008,33.6494417046928,-5.69937288999671,-3.9950213355049,-1.05108620723947,-30.6742591455677,-14.961871682624,1.8568266002043,1315.23208928422,4049.90271166011
0.87,4.09003813236853,0.170847676374577,35.615288308778,-8.26490660326422,3.39789258823667,2.2829644788208,23.816158621943,27.7407287390312,-0.937448133731741,1350.90589542685,4049.90271166011
0.88,4.1256155249532,0.138405142012995,33.8407366030935,-6.62688926081105,-1.46028405901845,-3.86101410383944,-4.62987799507445,-34.1712648999965,2.81354364323805,1386.73301408303,4049.90271166011
0.89,4.10483427078171,0.125093475835003,34.8841605375171,-6.02967233301329,-2.0158368036697,3.57794839946738,-23.2017709291788,26.7383513067034,0.543542505895813,1422.5758619987,4049.90271166011
0.9,4.01985615152715,0.218474587527591,39.1374638714135,-10.6200842386663,4.02040773330626,0.208077587301519,37.7941050731752,14.7014587453203,-1.46479167917067,1458.06168053586,4049.90271166011
0.91,4.05428083377806,0.17142039107971,37.4207106764647,-8.34479609947497,-0.456046165981067,-4.03219542236137,5.69315505230016,-37.9148149807428,3.0712262012647,1493.84019249402,4049.90271166011
0.92,3.98680885232468,0.253514436917393,40.7988025063953,-12.3610131957123,-3.98999375919034,0.197140042411872,-40.6200181284999,-12.9364237879238,1.58493067578384,1529.28736672459,4049.90271166011
0.93,4.05005403373136,0.130932206744898,37.641048966233,-6.23073131155938,-1.30182393516043,3.83736046791934,-19.0709141745969,33.0449816538057,0.35938318130273,1564.81582802916,4049.90271166011
0.94,4.0599497229103,0.19014121920953,37.1507653752078,-9.23783833881548,-1.1245950605319,-3.90571778110364,0.389030968967585,-38.2800950892629,2.9080397617398,1600.44856207374,4049.90271166011
0.95,3.99227643225063,0.144235106094243,40.5389428451359,-6.96613529597128,-3.30525775179691,-2.24373484875559,-28.5788107936946,-29.5835173970435,2.20329086064296,1635.98101706371,4049.90271166011
0.96,3.96238561840592,0.133693381849931,42.0380013371405,-6.44254667865607,-3.91791133241731,-0.606913915326158,-40.1015231702765,-14.1621962827756,1.75821014581532,1671.37077347734,4049.90271166011
0.97,3.96965856188163,0.127200798600702,41.6788284674839,-6.10179388079024,-3.96991096178558,0.119063414109852,-41.6662332765266,-6.18721549096734,1.5728461562264,1706.7855408145,4049.90271166011
0.98,3.99113296423661,0.206121113694931,40.609558944428,-10.0141687658934,-3.99525477444972,-0.0978137974096167,-39.730990427938,-13.0716584008253,1.64687285053653,1742.10827407162,4049.90271166011
