t,iq,id,vq,vd,ia,ib,va,vb,theta_e,omega,r
0,0,0,0,0,0,0,0,0,0,0,0
0.01,0.0010951791673637,0.000623788389713108,-0.0539745856225167,-0.0312327441639947,0.000127061047825555,0.00125394770779877,-0.00671018603020524,-0.0619976903164624,0.416764726608733,-0.00196845891682016,0
0.02,0.00121095247886082,0.000690009362060625,-0.059801299227557,-0.0345483809444076,0.00014076842576796,0.00138661569156608,-0.00738433868494304,-0.0686677330146392,0.416750141683626,-0.00208736843938139,0
0.03,0.00125371390065926,0.000714498121227769,-0.0619246083016577,-0.0357745128477724,0.000145872992101891,0.00143562779999536,-0.00764708148527464,-0.071105520373363,0.416735338475171,-0.00206846669911131,0
0.04,0.00122807713554349,0.000700436222065734,-0.0606961751947784,-0.0350704462660899,0.000143411011843171,0.00140649124906931,-0.00750146822106951,-0.0696971294897158,0.416721649804316,-0.00192926251771203,0
0.05,0.00125291367017229,0.000714772557587994,-0.0619390820604714,-0.0357882592695124,0.000146486860208056,0.0014350031615895,-0.007655725963462,-0.071124111579745,0.416708157998519,-0.00188563428997328,0
0.06,0.0012530080354401,0.000715157211049722,-0.0619692175004908,-0.0358075137163549,0.000146818962013465,0.00143524324272479,-0.00766205550354462,-0.071159362431311,0.416695226991827,-0.0017995392347423,0
0.07,0.00128733886460167,0.000735083621963034,-0.063674437222384,-0.0368052272014314,0.000151163183451091,0.00147469962214722,-0.00788511522698086,-0.0731223882459643,0.416683043762759,-0.00178237290721892,0
0.08,0.00125284916640878,0.000715700458640526,-0.0620087889673106,-0.0358347299514108,0.000147414513053331,0.00143531430063617,-0.00767263764277399,-0.0712063790083844,0.416671199136653,-0.0016389379334182,0
0.09,0.00125133978166762,0.000715171814304893,-0.0619568655403566,-0.0358082562329511,0.000147557960695374,0.00143371845959921,-0.00767023664759958,-0.0711480981601078,0.41666004941073,-0.00156173201535876,0
0.1,0.00125079456186023,0.000715154307061188,-0.0619510862356119,-0.0358073651733359,0.000147777808431757,0.00143321123293896,-0.0076725153625134,-0.0711423713017836,0.416649442422018,-0.00148994755536973,0
0.11,0.00125030092217357,0.000715150805415101,-0.0619468185889832,-0.0358071995321942,0.000147988843823317,0.00143275691328913,-0.00767480906523497,-0.0711383242524516,0.416639348546996,-0.00142168302061385,0
0.12,0.00124983184612387,0.00071514782924961,-0.0619427888798585,-0.0358070514256604,0.000148189710905227,0.00143232533694257,-0.00767698770517739,-0.0711345055917953,0.416629742872373,-0.00135672151535848,0
0.13,0.00130960449523315,0.000749424091513474,-0.0648887929761661,-0.037523243625925,0.000155359433351799,0.00150085437313028,-0.00805489530682337,-0.0745229355816743,0.416620172824059,-0.00140450374557691,0
0.14,0.00138024857189941,0.00079058194796245,-0.0685040968747523,-0.0395839868226531,0.000164423373315641,0.00158210963304759,-0.00847706658028259,-0.0786628415682708,0.416611113907386,-0.00147599887512795,0
0.15,0.00125223405633147,0.000717183883048873,-0.062114336709601,-0.0359090050862981,0.000149118712881648,0.00143534193257563,-0.0077027482803886,-0.0713324269886455,0.416602401261072,-0.00117879447862895,0
0.16,0.00124822063754507,0.000715192372977805,-0.0619332296233945,-0.0358092924680123,0.000148932798418209,0.00143086474270434,-0.00768540727877304,-0.071126400679376,0.416594569123245,-0.00111904602732894,0
0.17,0.00124775424433427,0.000715136167645842,-0.0619250518146578,-0.0358064768338786,0.000149080768243947,0.00143041438648706,-0.0076866707335857,-0.0711177257688727,0.416587128858154,-0.00106853585861733,0
0.18,0.00124740566578536,0.00071513251883817,-0.0619219314664698,-0.0358062831097718,0.000149228606080772,0.00143009308706127,-0.00768825969644613,-0.0711147394673939,0.416580048818575,-0.00102064931804463,0
0.19,0.00124707676149252,0.000715130396927865,-0.0619190977820199,-0.0358061650683764,0.000149369385301351,0.00142979044632407,-0.00768977748361708,-0.0711120485522363,0.416573311221133,-0.000975083986185394,0
0.2,0.00124676358101745,0.000715128414021716,-0.0619163898377632,-0.0358060767723508,0.000149503459518091,0.00142950228789072,-0.00769124838676389,-0.0711094871492015,0.416566899492821,-0.000931722600987986,0
0.21,0.00124646553452857,0.000715126527805307,-0.0619138101384921,-0.0358059855701613,0.000149631051776956,0.00142922805314008,-0.00769264265870835,-0.0711070442181453,0.416560797872537,-0.000890458424858437,0
0.22,0.00124618203995543,0.000715124732656489,-0.0619113598929382,-0.0358058972807833,0.0001497524143909,0.00142896720548394,-0.00769396620262231,-0.0711047231057672,0.416554991361879,-0.00085119002074359,0
0.23,0.00124591228238774,0.000715123024162623,-0.0619090273931158,-0.0358058089931343,0.000149867893899879,0.00142871899597861,-0.00769522211252233,-0.0711025118195787,0.416549465687109,-0.000813820861592877,0
0.24,0.00124565567974888,0.000715121398147756,-0.0619068109799886,-0.0358057207062014,0.000149977741814804,0.00142848288878081,-0.00769641202809059,-0.0711004087393061,0.416544207265884,-0.00077825908906095,0
0.25,0.00124541107564343,0.000715119850637065,-0.0619046790498548,-0.0358056621120058,0.000150082441217674,0.00142825782299578,-0.00769757681171522,-0.0710983968790605,0.41653920317192,-0.000744417287598601,0
0.26,0.00125774382371878,0.000722239596483547,-0.0625179180795878,-0.0361621282484762,0.000151610413028599,0.00144241597449999,-0.00777578677998029,-0.0718033894772216,0.416534483598696,-0.000735962039264228,0
0.27,0.00121361329767629,0.000697113934246632,-0.0603660144865089,-0.0349041119777599,0.00014649454999264,0.00139189238823983,-0.00749630739789533,-0.0693264604125846,0.41652978760493,-0.000622214961731115,0
0.28,0.00120627066416274,0.000692815927953262,-0.0598866889295603,-0.0346888927058017,0.000145540781557047,0.00138343800227879,-0.00749371813576856,-0.0688010099969629,0.41652545054656,-0.000579566059810685,0
0.29,0.00124345180603153,0.000714510026832175,-0.0618435626057487,-0.0357751054524857,0.00015034273708594,0.00142621668542066,-0.00769561852273911,-0.0710300067679858,0.416521492063546,-0.0006225955753977,0
0.3,0.00123804400417028,0.0007116207497855,-0.0615852051386732,-0.0356304639619548,0.000149893046736016,0.0014201017999874,-0.0076681024874983,-0.0707351939161677,0.416518210255576,-0.000590601484298109,0
0.31,0.00124402376361677,0.000715017551482181,-0.061885360129199,-0.0358005374586025,0.000150585462432675,0.0014269440219836,-0.00770246357659593,-0.0710784660463116,0.416514486348079,-0.000576924697727816,0
0.32,0.00124402515108203,0.000715108536448015,-0.0618924328553671,-0.0358050880080973,0.000150673195846746,0.00142698156381882,-0.00770401711750061,-0.071086747655783,0.41651092037805,-0.000553136149312514,0
0.33,0.00124386448257931,0.000715109981914109,-0.0618912297177415,-0.0358051544491094,0.000150744362597234,0.00142683470465245,-0.00770480590814783,-0.0710856481085781,0.416507526248036,-0.000530191563977232,0
0.34,0.00124370707354299,0.000715109050053114,-0.0618898618853964,-0.0358050986651731,0.000150811801417929,0.00142668988879918,-0.0077055378776095,-0.0710843497588108,0.416504296259462,-0.00050834798539438,0
0.35,0.00124355677359971,0.000715108100678001,-0.0618885330273052,-0.0358050696090823,0.000150876124354156,0.00142655159034677,-0.00770626740945552,-0.0710830990643841,0.416501222491523,-0.000487560639207839,0
0.36,0.00124341403288834,0.00071510719547784,-0.0618872808747217,-0.0358050108899084,0.000150937216615354,0.00142642024482557,-0.00770692820707206,-0.0710819076594332,0.416498297388347,-0.000467778681196639,0
0.37,0.00124327805202878,0.000715106333969445,-0.0618860799774667,-0.0358049818012799,0.000150995411529284,0.00142629511996529,-0.00770758530337629,-0.071080776202561,0.416495513760271,-0.000448953491894755,0
0.38,0.00124314893190836,0.000715105514088235,-0.0618849492612766,-0.0358049230573552,0.000151050676257319,0.00142617630620709,-0.00770817731151889,-0.0710796979646656,0.416492864764438,-0.000431038796680879,0
0.39,0.00124302575672919,0.000715104733825984,-0.0618838561582555,-0.0358048910287441,0.000151103388836066,0.00142606296428831,-0.00770876942237861,-0.0710786659173376,0.416490343889147,-0.000413990558846705,0
0.4,0.00124290851873528,0.000715103991269354,-0.0618828127967598,-0.0358048618952172,0.000151153559574054,0.0014259550854435,-0.00770933538661442,-0.0710776814680325,0.416487944937983,-0.000397766871550108,0
0.41,0.00124279686867651,0.000715103284598424,-0.0618818136845604,-0.0358048327469101,0.000151201336582826,0.00142585234868522,-0.0077098751848289,-0.0710767383717009,0.416485662013811,-0.000382327854800012,0
0.42,0.00124269080655291,0.000715102612079857,-0.0618808701772154,-0.0358048035836233,0.00015124672634869,0.00142575475249545,-0.00771038462242976,-0.0710758469701588,0.416483489505127,-0.000367635557431162,0
0.43,0.00124259020818289,0.000715101972064304,-0.0618799869205316,-0.035804744781044,0.000151289785279742,0.00142566218186226,-0.00771083510820917,-0.071074999486844,0.416481422071486,-0.00035365386381426,0
0.44,0.00124249415777611,0.000715101362982184,-0.0618791284114269,-0.0358047155931941,0.000151330889722527,0.00142557379790123,-0.00771129555535649,-0.0710741873856136,0.416479454630868,-0.000340348405078075,0
0.45,0.00124240276398191,0.000715100783339318,-0.0618783098902402,-0.0358046863923855,0.000151370001302677,0.00142548969866079,-0.00771173304760139,-0.0710734125811629,0.416477582346943,-0.000327686474626769,0
0.46,0.00124231579396965,0.000715100231713756,-0.061877529023017,-0.0358046571794945,0.000151407219517468,0.00142540966996211,-0.00771214885745796,-0.0710726729041187,0.416475800617267,-0.000315636947745137,0
0.47,0.00124223267342573,0.000715099706751765,-0.0618767659696276,-0.0358046546614789,0.000151442781745755,0.0014253331853921,-0.0077125757467026,-0.0710719609806793,0.416474105062862,-0.000304170205085048,0
0.48,0.00124215396890099,0.000715099207165904,-0.0618760575227631,-0.0358046254232739,0.000151476463598925,0.00142526076193844,-0.00771295027871169,-0.0710712888180548,0.416472491514794,-0.000293258059859306,0
0.49,0.00124207910608159,0.000715098731729405,-0.0618753830456018,-0.0358045961741949,0.000151508501975061,0.00142519187329802,-0.00771330551029212,-0.0710706483180083,0.416470956007152,-0.000282873688556002,0
0.5,0.00124200773572156,0.00071509827927602,-0.0618747326310666,-0.0358045669155202,0.000151539042500344,0.00142512619904828,-0.00771364571887622,-0.0710700303918438,0.416469494765936,-0.000272991565002896,0
0.51,4.68856375774018,0.034496187527682,5.57310248501262,-1.72238599250923,-0.392474991779522,4.67223538343011,-2.22258674201905,5.39316168771593,0.0911621828488975,28.0265495023196,3552.17277765807
0.52,4.59922560902047,0.0162568880380004,10.0413563619279,-0.803313612273679,-1.82846326356256,4.22017328825258,-4.76051790774468,8.87759086672371,0.412386955423375,59.6172644114322,3552.17277765807
0.53,4.62247671458525,0.0972656318657095,8.88030448285588,-4.85277915909402,-3.74812634763074,2.70708338663982,-10.0647118050666,1.05396847966159,0.966331965537054,91.6614136904097,3552.17277765807
0.54,4.63753375350191,0.0494786825034867,8.1290495336095,-2.45289026994058,-4.56367687196773,-0.825845544371746,-7.52072540858424,-3.94167557327102,1.76048830341736,125.4646702222,3552.17277765807
0.55,4.63383276746891,0.016103944397786,8.31578060713976,-0.78359956180891,-1.51700057212931,-4.37851284319837,-1.95373138711021,-8.12090937311637,2.81154598154832,160.934582043901,3552.17277765807
0.56,4.62213758763612,-0.0218077855965189,8.90222597809652,1.12384747094084,3.82366395998219,-2.59696464736904,6.7047953949106,-5.96308470637658,-2.17213166271037,193.17368794275,3552.17277765807
0.57,4.65769384818758,0.0713809959628143,7.12616445529454,-3.53021154789474,2.83894605827795,3.69318189481877,1.42443784828863,7.82403925304287,-0.64003740103837,225.24600662962,3552.17277765807
0.58,4.61453757770973,0.0302881317958585,9.2858664135467,-1.4791741046456,-4.1795467446793,1.95608369863448,-9.05419960265742,2.53707324240492,1.13962741867682,259.889218813405,3552.17277765807
0.59,4.48032228200197,0.0309879713968937,15.9985070646048,-1.49787903364812,0.0541986473619281,-4.48010161844559,1.80177594628631,-15.9671372930478,-3.12257925570218,291.49586147796,3552.17277765807
0.6,4.58145821564165,-0.00125202889110732,10.943716687461,0.109533000256178,3.47114728062972,2.99013335913695,8.36493639670587,7.05724956995449,-0.859979972315962,325.697540043566,3552.17277765807
0.61,4.49312745040924,-0.015658081337004,15.3622192390801,0.851522441738801,-4.48018365610158,-0.341165456534635,-15.3835395673759,-0.263781722884155,1.64331464422838,357.634510846927,3552.17277765807
0.62,4.57694147577036,-0.032157955050879,11.1735619422275,1.67588059489088,4.35188469188962,-1.41793054667596,10.0689372361838,-5.12577459306567,-1.89279556416515,390.917568379152,3552.17277765807
0.63,4.56085395231786,-0.0138280730221148,11.9800943054331,0.751496662921866,-4.05661187674044,2.08458150991161,-10.2933892791283,6.1752363476858,1.09308047023381,424.320024033081,3552.17277765807
0.64,4.48892703027928,0.115996097137979,15.5786719351712,-5.74054503857052,4.10293386456974,-1.82478894140939,16.5896621653757,-0.657256298751132,-1.96344288883448,456.691401193104,3552.17277765807
0.65,4.47770240509245,-0.00721153486522774,16.1421283972059,0.452308851382346,-4.46834528427079,0.28941536818351,-16.0767120731862,1.5205990282743,1.50450598710734,489.035577078095,3552.17277765807
0.66,4.4488321368238,0.0467101554319336,17.5878748709098,-2.24513381461267,3.92595058664342,2.0931319144982,14.3551513016176,10.4069015286955,-1.07048045816989,521.837388587814,3552.17277765807
0.67,4.47175320128525,0.0385844216638858,16.4442147087438,-1.83472990459216,-1.2056384516971,-4.30633270597958,-2.52560309272791,-16.3523625274171,2.87724122083982,554.584302466284,3552.17277765807
0.68,4.43935501096345,0.0249309836102387,18.0665233885666,-1.14641605148194,-3.10858104219139,3.16941924829114,-13.5367378746941,12.0195783962891,0.781323611703492,587.271371036069,3552.17277765807
0.69,4.41487211232334,0.0820102674260315,19.2931384931424,-3.9969511944289,3.92325636476604,2.02629734946686,15.0746069879638,12.6868844057417,-1.07547523521455,619.849019303776,3552.17277765807
0.7,4.50917604200201,0.0514801923049584,14.5804199353276,-2.45663237437702,1.90780599453901,-4.08602436056929,8.53284802131503,-12.0753547673961,-2.69334935589687,652.461589448272,3552.17277765807
0.71,4.44122403149304,0.0246086973550619,17.9805537840156,-1.12472395759438,-3.57628657864338,-2.63348643309815,-13.7473659738324,-11.643678419734,2.21106088250337,685.31662782458,3552.17277765807
0.72,4.44718726132283,-0.0420833656420553,17.6849919788594,2.20105204684026,-3.92351812373052,2.09409910932935,-14.4676238704051,10.4063168772485,1.07106763634989,718.122037191168,3552.17277765807
0.73,4.49304979560296,0.113532030590057,15.3944963859545,-5.56659035926867,-0.64583328304104,4.44784052752053,-8.08309227445955,14.2352051789794,0.169456794519548,750.336574124522,3552.17277765807
0.74,4.42677510729849,0.079527855226553,18.7109124640649,-3.84001216949392,2.17138275103661,3.85846594890446,5.50227511165171,18.2912248713819,-0.494622202926325,782.562991986159,3552.17277765807
0.75,4.43967775527378,0.00675653415920996,18.0685078281597,-0.231982473980141,3.53769252879277,2.68244586024593,14.2405354611399,11.1234859996549,-0.920515946617327,815.471228747307,3552.17277765807
0.76,4.38849044806448,0.104024321435394,20.6306960792858,-5.06343591116005,3.97501619248594,1.86250254809969,16.2125913588705,13.7264666018812,-1.10892249574098,847.387783696469,3552.17277765807
0.77,4.41913954861855,0.0162225330610932,19.1010614129032,-0.700414197140536,3.8638697813696,2.14466030721939,16.3245748021453,9.94230278538223,-1.06040943618434,880.172215638995,3552.17277765807
0.78,4.42144586773552,0.0578862460181639,18.9886867907007,-2.73697581213435,3.13439884163256,3.11898673937002,11.3277963463656,15.4836136792031,-0.774771354599524,912.001123695716,3552.17277765807
0.79,4.34328348137313,0.096765438926001,22.8998026605557,-4.71546751193445,1.17934998456654,4.18122094173964,1.15830508449852,23.3515508067393,-0.252641123021518,944.576295131574,3552.17277765807
0.8,4.34518022868921,0.0221769646512687,22.8079504630472,-0.9905315858252,-2.08482367141839,3.81242616933709,-11.9117706029969,19.4754583578644,0.505525013019811,976.790329890602,3552.17277765807
0.81,4.39245214368537,0.142747131288445,20.4473103784027,-6.96941952839541,-4.37156863550643,0.450999160879187,-20.8864393983325,-5.51561053132803,1.50048042529807,1008.75972982806,3552.17277765807
0.82,4.32144912783695,0.0108614370128377,24.000570081337,-0.380344437187724,-1.73291701355545,-3.95879263910435,-9.22018926548487,-22.1621329304899,2.73149519394865,1041.02406137421,3552.17277765807
0.83,4.35006657106957,0.0879360146316173,22.5728238542551,-4.25167541326237,3.74376386892283,-2.21698985319153,21.7432199444041,-7.40550518359396,-2.0852354070362,1073.31723777223,3552.17277765807
0.84,4.39394048948834,0.0477612993055145,20.3822519592292,-2.24466038137935,1.68707750856841,4.05743313524191,5.53851647855673,19.7433414186655,-0.383182378716925,1105.5343067783,3552.17277765807
0.85,4.37355685268244,0.0641125382197443,21.4046759833262,-3.06416938234593,-4.37190105269848,0.136349355027591,-21.4523716155577,-2.71017343041059,1.55427685466692,1137.60862962505,3552.17277765807
0.86,4.3322917724246,0.0328442177772597,23.471156184165,-1.49525921137474,2.36576724980638,-3.62945947267673,14.2118192350595,-18.7391346321185,-2.55635543816862,1169.66656282224,3552.17277765807
0.87,4.36913477300929,0.0810088829905691,21.6323385818998,-3.89415897927125,0.728780350402054,4.30868661017603,-0.639328683816174,21.9707488609706,-0.149017198467251,1201.61396765502,3552.17277765807
0.88,4.34313502072538,0.0638549567295705,22.9356703911693,-3.01600768076427,-2.67524349228051,-3.42198356523829,-11.4558856251287,-20.0973620947317,2.49276112917817,1233.496490575,3552.17277765807
0.89,4.35154078988393,0.125714788264629,22.5187360935691,-6.08547258847264,4.2569160717726,0.911250246582243,20.4294449805934,11.2589621929276,-1.33103380059587,1265.34312450457,3552.17277765807
0.9,4.36649863709193,0.0989084970862733,21.7742369590252,-4.72578665072358,-4.29243911249025,-0.806882707762104,-20.3248497081473,-9.12967354055767,1.77925348466833,1297.32592344628,3552.17277765807
0.91,4.24648626887147,0.175402713477251,27.7782768997543,-8.6269587879911,3.9620958753629,1.53792328093485,22.0080053197551,19.0185379904647,-1.15925726639146,1329.50072211332,3552.17277765807
0.92,4.27524053453697,0.152430337237164,26.3440534842027,-7.42833583152451,-2.94051320378995,-3.10713674211406,-11.8408705143498,-24.6775832014978,2.41937842123362,1361.19002301841,3552.17277765807
0.93,4.27718468318933,0.107309343911605,26.2503720883893,-5.14121273783788,0.328853195342953,4.26587384779636,-3.77373582186691,26.4815600209156,-0.0518536090723343,1393.04042743694,3552.17277765807
0.94,4.25935941299911,0.0939854368007353,27.1452394446856,-4.51471913126374,3.14407323784316,-2.87502684274655,23.404196365437,-14.4737799427648,-2.28946340247017,1424.93848818197,3552.17277765807
0.95,4.23200653380677,0.115050158629,28.5164735011515,-5.51590088565188,-3.9141820779118,-1.61316288766443,-23.8205167937417,-16.6191878020943,1.98889710489331,1456.62380006663,3552.17277765807
0.96,4.25909302687548,0.0982108038560121,27.1657746337016,-4.7046220358565,-0.822846846196879,4.18000500493447,-10.4538936743774,25.511348200245,0.217422852077329,1488.46872636135,3552.17277765807
0.97,4.20372097420759,0.106460406795547,29.9380220820672,-5.16026074306631,4.09979086095849,0.935050128928478,27.7361464286504,12.3943389662876,-1.32123936523648,1520.35174291829,3552.17277765807
0.98,4.21858987937835,0.187294407132259,29.1982798841315,-9.11952068245173,1.91238543676431,-3.76488535105496,22.3043909645962,-20.933689339631,-2.62723451304699,1551.84249908807,3552.17277765807
