t,iq,id,vq,vd,ia,ib,va,vb,theta_e,omega,r
0,0,0,0,0,0,0,0,0,0,0,0
0.01,0.000852438405637496,0.000483324288512158,-0.0420670947616068,-0.0241943293263636,-0.000616611450895887,0.000761606146177701,0.0303039034082124,-0.0379035548657415,1.19637316588866,-0.00144923774270763,0
0.02,0.000948095514415167,0.000537421452423735,-0.0468726049906301,-0.026902329474162,-0.000685846914945001,0.000846948009762005,0.0337856145100672,-0.0421818525188397,1.19636237947722,-0.00152961827478272,0
0.03,0.000985536161781525,0.000558879702318124,-0.0487410971448981,-0.027976506976816,-0.000712835646849005,0.000880621024291162,0.0351312953045615,-0.0438653802415518,1.19635151321025,-0.00150572323966003,0
0.04,0.000962985904416935,0.000546761549729697,-0.0476615512318004,-0.0273698954534065,-0.000696271579039883,0.000861101580877558,0.03434799421526,-0.0429062925028532,1.19634154394296,-0.0013825325675583,0
0.05,0.000984486298381279,0.00055930634948288,-0.0487440658393319,-0.0279978596852022,-0.00071168518030137,0.000880648095672582,0.0351253863473285,-0.0438870292393128,1.19633187001041,-0.00134020102696325,0
0.06,0.000984713711478185,0.000559885467921657,-0.0487806980286853,-0.0280268376919472,-0.000711676919790142,0.000881276796813017,0.035148477495171,-0.043927720871313,1.19632269220769,-0.00126414242395126,0
0.07,0.00100980789394129,0.000574669906772318,-0.0500364561780029,-0.0287669153554088,-0.000729616483447647,0.000904221914961884,0.0360461201492884,-0.0450761532087813,1.19631416848552,-0.0012377898378552,0
0.08,0.000984442583301202,0.000560592763481298,-0.0488138098239443,-0.0280622556669016,-0.000711151103571649,0.000881847806695219,0.0351656033285495,-0.0439733847364729,1.19630595374929,-0.00112420651441601,0
0.09,0.000982497820586403,0.000559936560803367,-0.0487394673349826,-0.0280294103513338,-0.000709574451060231,0.000880531099952697,0.0351080932606349,-0.0439158890191677,1.19629833218052,-0.00105724772183515,0
0.1,0.00098175157146332,0.000559903561970963,-0.0487226803038864,-0.0280277520587738,-0.000708885695403612,0.000880232479309079,0.0350927621069923,-0.0439084560098036,1.19629117588715,-0.000996298136454,0
0.11,0.000981103927022899,0.000559899646665293,-0.0487095337582068,-0.0280275430713984,-0.000708278455473692,0.000879996681509354,0.0350803080214585,-0.0439036882127296,1.19628445221157,-0.000939128078203449,0
0.12,0.000980497808413467,0.000559897224849415,-0.0486972980609204,-0.0280274244969196,-0.000707709677224819,0.000879777169208221,0.0350686864725522,-0.0438993233598707,1.19627813479057,-0.000885417009888788,0
0.13,0.00102668990903243,0.000586420854809584,-0.0509826082410135,-0.0293551487665333,-0.000740991199958053,0.000921365090422546,0.0367095880017583,-0.0459712654916429,1.19627190383553,-0.000915715402081169,0
0.14,0.00107113513036877,0.000612542076581379,-0.0532648943736148,-0.0306627471025857,-0.000772793996804703,0.000961939551944592,0.0383550301345578,-0.0480233765564921,1.19626604884878,-0.000946037611492356,0
0.15,0.000983338007534706,0.000562334785350645,-0.0488857192826046,-0.0281494499388137,-0.000709445697235536,0.000883097305256711,0.03519862904465,-0.0440824408921797,1.19626048167652,-0.000743397746738672,0
0.16,0.000978559886535153,0.000560002273908477,-0.0486646666434655,-0.0280326894400326,-0.00070584783821277,0.000879181908144564,0.0350354015460803,-0.0438930757097956,1.19625559469137,-0.000694178915904904,0
0.17,0.000977908326212724,0.000559892367350251,-0.0486453615608876,-0.0280271790615171,-0.00070527763513307,0.000878844477068807,0.0350192499754215,-0.0438810448678557,1.19625101995568,-0.000654905690969085,0
0.18,0.00097748560892543,0.000559885739086928,-0.0486365229796273,-0.028026857106824,-0.000704882871918973,0.000878686686689002,0.0350109533603702,-0.0438776621030807,1.19624672246296,-0.000618349636491976,0
0.19,0.000977097816475379,0.000559883997268522,-0.04862867823266,-0.0280267766659565,-0.000704519054016823,0.000878546035154432,0.0350035047421915,-0.0438748585490866,1.19624268466544,-0.00058401929270336,0
0.2,0.000976733772761066,0.000559882568704803,-0.0486213220774312,-0.0280267078564855,-0.000704177439181413,0.000878414189172432,0.0349965173124768,-0.043872235979348,1.1962388908326,-0.000551764020090121,0
0.21,0.000976392022578906,0.000559881235900145,-0.0486144243894866,-0.0280266390366662,-0.000703856739528348,0.000878290424796561,0.0349899666438473,-0.0438697730638665,1.1962353262226,-0.000521457645183537,0
0.22,0.000976070877903385,0.000559879983875765,-0.0486079404631815,-0.0280265672960187,-0.000703555377212178,0.000878174120679744,0.0349838115840328,-0.0438674512312188,1.19623197698555,-0.000492982376628653,0
0.23,0.000975768965496518,0.000559878807345622,-0.0486018388602357,-0.028026521718311,-0.000703272064563334,0.000878064779014468,0.0349780116598127,-0.0438652865093718,1.19622883010864,-0.000466227577461161,0
0.24,0.000975485481177573,0.000559877701749259,-0.0485961143838922,-0.0280264528581887,-0.000703006043959732,0.000877962110264652,0.0349725795862989,-0.0438632314143018,1.19622587336537,-0.000441089297226831,0
0.25,0.000975218959026334,0.000559876662817395,-0.0485907266319914,-0.028026407236978,-0.000702755942480583,0.000877865582489812,0.0349674602355722,-0.0438613148675633,1.19622309526775,-0.000417469866221337,0
0.26,0.000985006066324083,0.000565554900875115,-0.0490784004837746,-0.0283106506378893,-0.000709784641266588,0.000886732800578148,0.0353172090474448,-0.0443043686185174,1.19622052329858,-0.000413460758014943,0
0.27,0.000953284859005796,0.000547521999347932,-0.0475280502254157,-0.0274079584167619,-0.000686858509086263,0.000858345938812233,0.034204519690205,-0.0428971161684205,1.19621793806712,-0.000335466152699477,0
0.28,0.000950513139930257,0.000545922114722764,-0.0473195749096517,-0.0273278682748364,-0.000684862362510978,0.000855844453706006,0.0340397041883836,-0.0427463810496782,1.19621562556725,-0.000311266950506231,0
0.29,0.000973120049938673,0.000559225409383933,-0.0485140826872386,-0.0279938000599487,-0.00070103248466924,0.000876498229052258,0.0349076430267816,-0.0438032592291417,1.19621356115874,-0.000334302242074456,0
0.3,0.000967041247873272,0.000556002834941459,-0.0482199865448043,-0.0278324876348125,-0.000696552899902707,0.000871276067149995,0.0346928924153872,-0.0435455817067296,1.19621198428626,-0.000310346301879249,0
0.31,0.000973619081246564,0.000559692148171191,-0.0485482497762384,-0.0280171589374167,-0.000701323081769681,0.000877117638101619,0.0349307414412221,-0.0438376214412574,1.1962100733859,-0.000306132512255009,0
0.32,0.000973778033961,0.000559862769731178,-0.0485610985893242,-0.0280257116164526,-0.00070140698568425,0.000877335865441138,0.0349394900886166,-0.0438503459525474,1.19620825130382,-0.000291235352559302,0
0.33,0.000973629988663487,0.000559870080983313,-0.0485585717459392,-0.0280260847635666,-0.000701265027907192,0.00087728970302828,0.0349369268018449,-0.0438498285381217,1.19620653799602,-0.000276698123493559,0
0.34,0.000973476622221645,0.000559869847610303,-0.0485554968024355,-0.0280260564019808,-0.00070112096940264,0.000877234499172912,0.0349340048689014,-0.0438487332884076,1.19620492814112,-0.000263012556076521,0
0.35,0.000973331603198924,0.00055986929856008,-0.0485525614976513,-0.028026036680499,-0.000700984880480784,0.000877181987157332,0.0349312139987022,-0.0438476937657701,1.19620341554994,-0.000250152550316012,0
0.36,0.000973195198901812,0.000559868767340346,-0.048549795340895,-0.0280260111155281,-0.000700856882703595,0.000877132579360575,0.0349285866956377,-0.0438467074948144,1.19620199434903,-0.000238069478184451,0
0.37,0.000973067060096304,0.000559868267474979,-0.0485471966391627,-0.0280259884388206,-0.000700736641236393,0.000877086164523553,0.03492611794659,-0.0438457821765711,1.19620065901704,-0.000226716459366157,0
0.38,0.000972946721117128,0.000559867797750798,-0.0485447569780759,-0.0280259657408829,-0.000700623718574441,0.00087704257482851,0.0349238007572608,-0.0438449122069681,1.19619940436535,-0.000216049387256074,0
0.39,0.000972833716302994,0.000559867356381324,-0.0485424670317308,-0.0280259430229005,-0.00070051767770517,0.000877001641697359,0.034921626233872,-0.0438440943461178,1.19619822551946,-0.000206026817259087,0
0.4,0.000972727579992618,0.000559866941657792,-0.0485403166084881,-0.0280259202859144,-0.000700418081848789,0.000876963196410663,0.0349195846899697,-0.0438433250267897,1.19619711789941,-0.000196609808709233,0
0.41,0.00097262773010939,0.000559866551972948,-0.0485382889383276,-0.0280258975315413,-0.000700324386090612,0.000876927027547121,0.0349176603288475,-0.0438425982654798,1.1961960772013,-0.000187761773720471,0
0.42,0.000972534050237989,0.000559866185815768,-0.0485363897593026,-0.0280258747597962,-0.000700236479081439,0.000876893093972026,0.0349158583131033,-0.0438419163036701,1.19619509938218,-0.000179448335036025,0
0.43,0.00097244574921243,0.00055986584176699,-0.0485345904225854,-0.028025872246587,-0.000700153621694723,0.000876861107568666,0.0349141443947731,-0.0438412876618727,1.19619418064262,-0.00017163719246679,0
0.44,0.000972363012381013,0.000559865518492652,-0.0485329103644961,-0.0280258494417809,-0.000700075983772428,0.000876831137442548,0.0349125513429871,-0.0438406818389595,1.19619331741305,-0.000164297997394582,0
0.45,0.000972285281408206,0.00055986521473887,-0.0485313313186693,-0.0280258266226813,-0.000700003043206077,0.000876802980503526,0.0349110545913699,-0.0438401111399758,1.19619250633977,-0.0001574022348563,0
0.46,0.000972212056170971,0.000559864929327735,-0.0485298372742721,-0.0280258269691709,-0.000699934332213871,0.000876776454886683,0.0349096306194353,-0.0438395913893802,1.19619174427125,-0.000150923112757219,0
0.47,0.000972143463800689,0.000559864661152033,-0.0485284430648565,-0.0280258041220936,-0.00069986996691263,0.000876751608171321,0.0349083100651314,-0.0438390849743197,1.1961910282469,-0.000144835457775233,0
0.48,0.000972078795089588,0.000559864409171842,-0.0485271211941804,-0.0280258044389561,-0.000699809285211045,0.000876728181851461,0.0349070502544789,-0.0438386250739752,1.19619035548459,-0.000139115617553259,0
0.49,0.000972018351791598,0.0005598641724086,-0.0485258942128076,-0.0280257815666079,-0.000699752565997514,0.000876706287274317,0.0349058890203751,-0.0438381768926249,1.19618972337058,-0.000133741368806468,0
0.5,0.000971961250076397,0.000559863949944907,-0.0485247249933894,-0.0280257818570984,-0.000699698984910929,0.000876685601919298,0.0349047747419121,-0.0438377700687673,1.19618912944877,-0.000128691830974216,0
0.51,4.70962627060259,0.000851536838304801,4.51985166958637,-0.0364674809542996,-0.346670848498067,4.69684997170089,-0.369884792660632,4.50483897962938,0.0738564348042296,22.7292050998575,2678.89660683009
0.52,4.68395617106254,-0.0257341791516575,5.8046654544124,1.30188187019264,-1.56170429582747,4.41601487234877,-0.675485000521417,5.91039401864678,0.334424827837634,48.3953219630387,2678.89660683009
0.53,4.58474446653962,-0.00992647763670984,10.7666246789564,0.518686935724805,-3.24757588179884,3.23623720551854,-7.24306326700046,7.98293665420396,0.784981821340007,74.7348675835579,2678.89660683009
0.54,4.62359486348501,-0.0668220767034766,8.82565626035836,3.36967056916893,-4.59018648530815,0.558822585150527,-8.28912042248046,4.53181760360491,1.4351982030642,103.123943131336,2678.89660683009
0.55,4.5888865958402,0.0374704142821667,10.5626451644781,-1.84502053401571,-3.46390672362082,-3.0100887746847,-6.69454141242486,-8.37595898503214,2.29437566926027,130.638025816816,2678.89660683009
0.56,4.64008095574512,0.0111019268011274,8.0045118628611,-0.510778730619396,0.92948767305048,-4.54604522572031,2.12237473193738,-7.73489693348082,-2.93751903348304,156.304903936604,2678.89660683009
0.57,4.60193493866418,-0.00732395404257935,9.91357388121607,0.407384944107018,4.57020748488694,-0.539501960222851,9.79494842349271,-1.58237004905052,-1.68989160515213,184.350184083516,2678.89660683009
0.58,4.5675800152281,0.0221296053429709,11.6330585557918,-1.04874947460662,1.12117761752214,4.42789314063824,1.78289689494749,11.5433619662971,-0.243150704671506,210.179146908965,2678.89660683009
0.59,4.54011778622329,0.0403338368896737,13.0080309648416,-1.96513469998361,-4.46654076360851,0.815052107661129,-13.1525413274888,0.285097527270566,1.39918639026019,237.811318233999,2678.89660683009
0.6,4.58986376054995,0.0224233817910997,10.522668485602,-1.0553271683354,0.413913001510108,-4.57121736254595,2.05065689309932,-10.3747324686901,-3.04640587929283,264.167070348335,2678.89660683009
0.61,4.54102477139773,0.071131516289886,12.966548573345,-3.47942208342306,3.88572525621578,2.35097956185593,9.13999001391171,9.83353153679397,-1.01102373381295,290.574501031377,2678.89660683009
0.62,4.56505280456999,0.015532442834882,11.767180468899,-0.69491393592343,-4.28142161827447,1.58410141464009,-11.2887585081756,3.39313614670432,1.21982391245588,317.513407877058,2678.89660683009
0.63,4.59407227204581,0.0170339568011642,10.3183008704127,-0.768063606674454,2.20436912671624,-4.03070055320967,5.65701835077944,-8.66345184872646,-2.63742881262675,344.349907415041,2678.89660683009
0.64,4.4830647331287,0.0567175900981449,15.8708054497762,-2.75255421979685,0.129025274516332,4.48156655255557,-2.49618856335809,15.9131412051087,-0.0161314200436488,371.030676451391,2678.89660683009
0.65,4.54587908059555,0.0914687361716637,12.7323366517012,-4.48289243447645,-1.60828286229062,-4.25285896544376,-0.0390258123620306,-13.4984146542218,2.80016851517741,397.538651691202,2678.89660683009
0.66,4.4974358652443,-0.00322392882104716,15.1567385678623,0.269084469302099,2.04199086209947,4.00714525252143,7.1310208954957,13.3771324077378,-0.472004941859392,423.96063363209,2678.89660683009
0.67,4.49805328498777,0.0695117363175766,15.1281999334299,-3.3561074978195,-1.84913598499062,-4.10097687692675,-2.92414901541111,-15.2175965020242,2.7334419298455,450.327851142232,2678.89660683009
0.68,4.43191228274364,0.0613220867331421,18.4377006884881,-2.95110123142302,0.723861159688674,4.37282882145522,-0.158692924155517,18.6717064488547,-0.150212892548375,476.978001468089,2678.89660683009
0.69,4.50667115041979,-0.0128008038079019,14.7022118990318,0.751060898602639,1.35263042059079,-4.29891145104159,3.65577422537685,-14.2602399001739,-2.83959534247695,503.625480079582,2678.89660683009
0.7,4.4728220927985,0.115648212509012,16.3971272495492,-5.64752731346671,-3.56516036942059,2.70354277258484,-16.6120295712354,4.98004220049001,0.947839803238003,529.705102030293,2678.89660683009
0.71,4.50173257572701,0.063035786987176,14.954155864641,-3.04055779120808,4.41033533821962,0.904716473959675,13.9529537621179,6.17955100455153,-1.35446602362143,556.447477018891,2678.89660683009
0.72,4.54891682862133,0.0834826331131775,12.5975153490433,-4.02148588896193,-1.51701704914807,-4.28932080128544,-0.166485707516683,-13.2227842844725,2.8199995497344,582.485310989225,2678.89660683009
0.73,4.41533076748419,0.00790922402411987,19.2794848520904,-0.267409557930892,-3.4656158067082,2.73582079501043,-15.319232358725,11.7085935950074,0.904332289842094,609.116217376682,2678.89660683009
0.74,4.3998397386826,0.110534347141604,20.0566806853477,-5.37320288108651,3.28792051172745,2.92581378022431,10.9720476861413,17.6282704451786,-0.818490475309291,635.264422614286,2678.89660683009
0.75,4.47626780021239,0.0808525059576048,16.2380638991496,-3.87021906208309,3.13287328363584,-3.19822068275763,14.2859592604249,-8.63508441133356,-2.34845526570131,661.396569901831,2678.89660683009
0.76,4.4189607464102,0.102350275724493,19.106239479725,-4.9573419989049,-2.37622969181241,-3.727092983681,-5.65489046745116,-18.9115266584123,2.59717284153213,687.741706016563,2678.89660683009
0.77,4.41313687336412,0.0570226572451391,19.4003377235228,-2.69381386947801,-4.37500394943345,0.581695013668752,-19.5830405280572,-0.366415920238226,1.45153326037074,714.011296663841,2678.89660683009
0.78,4.42103522553659,0.07376573450721,19.0083328230262,-3.53032511721693,-2.0464347512121,3.91957888784678,-12.1791136350519,15.0149626442652,0.497859051331482,740.212199380044,2678.89660683009
0.79,4.42267216241375,0.111689475540022,18.9293857022001,-5.42033827265204,1.26141396350416,4.24044082706181,-0.295243838721841,19.6879288176367,-0.263887775477482,766.373400635051,2678.89660683009
0.8,4.45391734070053,0.167999805901151,17.370095903821,-8.2211803928997,3.41113835475307,2.86875212197015,7.33812330812196,17.7611932334327,-0.833851415356387,792.446390547842,2678.89660683009
0.81,4.42584083541037,0.188246728286287,18.7769609327937,-9.2119601557528,4.21070669350793,1.37602800565393,14.3531242281887,15.2125703506351,-1.21243596104627,818.450626771407,2678.89660683009
0.82,4.39259415110994,0.128254793435616,20.4423840594333,-6.1948575976266,4.35030982977487,0.621399270492528,19.0893958558249,9.58448186120991,-1.39972617559801,844.560424500527,2678.89660683009
0.83,4.32083660839182,0.0882509701168956,24.0334141398005,-4.24777668879313,4.27029414526937,0.664834673451698,22.9278556677392,8.3643312041272,-1.39592631187851,870.784776221483,2678.89660683009
0.84,4.42373528068019,0.0610823442041752,18.8916022620909,-2.83438871417367,4.14724865234764,1.54061465068614,16.5930572065315,9.46556115361615,-1.20130937940753,896.65188113189,2678.89660683009
0.85,4.31725608922989,0.110723728923784,24.2187951899089,-5.36732278879944,3.85577566378556,-1.94523878089513,24.1893836712334,-5.49835538827626,-2.01239628156392,922.771077950398,2678.89660683009
0.86,4.28476938147018,0.11295466087414,25.8464174612143,-5.43015859789083,4.26130415776535,0.461837939984643,24.8864753488164,8.84235617300974,-1.43648242866869,948.620440789928,2678.89660683009
0.87,4.31437588239496,0.0458491092752999,24.3694603022497,-2.11022837881133,2.71689741119865,3.3517771185499,13.4899649111929,20.4045217030062,-0.670534800406384,974.686928055498,2678.89660683009
0.88,4.32008081116708,0.144667346494449,24.087526406072,-6.98120915877873,-1.07761708420261,4.18602057758803,-13.4812110946031,21.1471784667502,0.28543616037975,1000.42949548449,2678.89660683009
0.89,4.3911659715636,0.141735479979441,20.5366747191185,-6.85053738089522,-4.32886421191897,0.750574560500331,-21.2893946062389,-3.9302096923409,1.43138107233998,1026.37928373014,2678.89660683009
0.9,4.335322247002,0.117681429253974,23.3322573668951,-5.6735192287665,-1.69508503641355,-3.99193619982442,-3.252837399447,-23.7907987072097,2.76717586999831,1052.37655001485,2678.89660683009
0.91,4.2732915657786,0.154929242730066,26.4372828327495,-7.55194878823682,3.83890975254238,-1.88355934024985,27.2193652016281,-3.88175374017234,-1.99069625875697,1078.24885575637,2678.89660683009
0.92,4.21853993187679,0.13675848273227,29.1783964808321,-6.64526481263463,1.28087292331273,4.02170941189969,1.55538486392552,29.8850990218829,-0.27592522072791,1104.06004677794,2678.89660683009
0.93,4.22280613476358,0.122989530302105,28.9686476691708,-5.95098779328474,-4.22292359143529,-0.118888255349702,-28.5805845945769,-7.59914388129416,1.62805880072123,1129.85694785937,2678.89660683009
0.94,4.33666771477802,0.116330085118959,23.279199640183,-5.59968893827711,2.2767511067748,-3.69277997650842,17.4301963022077,-16.4154168073633,-2.5622808546057,1155.61255182182,2678.89660683009
0.95,4.29472961910778,0.115141601232889,25.3797507817871,-5.51818610328551,1.29991340742365,4.09489746181469,1.72563587476718,25.9153296032258,-0.280581928153775,1181.31518455409,2678.89660683009
0.96,4.22567640051317,0.165905718417077,28.8360671885902,-8.02261077469103,-3.53815856251889,-2.31631166636351,-18.8334811665755,-23.2632981689038,2.18968579474815,1206.96526323401,2678.89660683009
0.97,4.24947505346073,0.12836796367027,27.6498959557639,-6.11396128714927,4.22762421895468,0.449121394936576,26.5652853745102,9.80728718638142,-1.43475958106037,1232.64691642085,2678.89660683009
0.98,4.2598926039228,0.158067809634144,27.1328182131497,-7.67599326103396,-4.18151809877179,0.828599311514741,-28.0043826406674,-3.29624781324992,1.41226203491701,1258.43767290384,2678.89660683009
