t,iq,id,vq,vd,ia,ib,va,vb,theta_e,omega,r
0,0,0,0,0,0,0,0,0,0,0,0
0.01,0.00064620656803445,0.000358409891930558,-0.0316285609280173,-0.0179312960583313,0.000738898582260106,-8.33452689370941e-06,-0.0363501650854394,0.000750161962598583,-1.07567940914929,-0.00342716563366709,0
0.02,0.000783756255601808,0.000430535079724867,-0.0384478081458845,-0.021539732960438,0.000894199357540443,-6.46776954771252e-06,-0.0440649850950346,0.000686393330461849,-1.07570618936609,-0.00380225697380961,0
0.03,0.000833993233720243,0.000458271445052656,-0.0409547040675362,-0.0229273749602432,0.000951581836129035,-7.03138614302398e-06,-0.0469301322010492,0.000717634599986413,-1.07573331259735,-0.00367404645213,0
0.04,0.000816480488460319,0.000450280121181607,-0.0401581593608223,-0.0225275851980676,0.000932374915218551,-8.34224423777919e-06,-0.0460392685714449,0.000745390844966193,-1.07575761017442,-0.0032025872416879,0
0.05,0.000833151986648675,0.000461571853724674,-0.041020111098333,-0.0230925028455907,0.000952409091173091,-1.03794054893537e-05,-0.0470660978589556,0.000834047075659188,-1.07577971717447,-0.00295962008852728,0
0.06,0.00083327217542859,0.000463460422414007,-0.0410717716613007,-0.0231869963801593,0.000953411770228476,-1.20032444559102e-05,-0.0471564280690525,0.000893599630606968,-1.07579971665868,-0.00265446918532103,0
0.07,0.000844297283863381,0.000471706456778232,-0.0416483198346968,-0.0235995445396687,0.000967030395596833,-1.40391914720369e-05,-0.0478597283459995,0.000983590453458184,-1.07581721775522,-0.00244972904445055,0
0.08,0.000830303615819136,0.000465152703677441,-0.041004200288896,-0.0232716636126398,0.000951602906694733,-1.49345288141e-05,-0.047137152993714,0.00100178654361261,-1.07583331906403,-0.00212368052313584,0
0.09,0.000825552273728947,0.000464052053656253,-0.0408052024138139,-0.0232165971304322,0.000946898754662473,-1.62361812098412e-05,-0.046935866312603,0.00104851315422209,-1.07584739248241,-0.00188136327635867,0
0.1,0.000822784281986005,0.000463865427707985,-0.0406989821582494,-0.0232072426773983,0.00094437408015282,-1.73984608932349e-05,-0.0468379364193519,0.00109131726913477,-1.07585983448028,-0.00167530719643485,0
0.11,0.00082060218074695,0.000463832205500043,-0.0406180282841624,-0.0232055859941426,0.000942437850759708,-1.8416062584227e-05,-0.0467658977723357,0.00112882619211807,-1.07587086119045,-0.0014942373073934,0
0.12,0.000818718523029443,0.000463824906630016,-0.0405487335166618,-0.0232052304471488,0.000940776568710719,-1.9313511507256e-05,-0.0467047378610217,0.00116188262908873,-1.07588063871871,-0.0013339724859107,0
0.13,0.000850418509475287,0.000482459134244456,-0.0421124825644853,-0.0241374894097069,0.00097752310900526,-2.06646760141581e-05,-0.0485236226168813,0.00124001245246954,-1.07588987224735,-0.00137359623902273,0
0.14,0.000868943358168022,0.000494009889328205,-0.0430997830675546,-0.0247153914782028,0.000999311055976269,-2.20395975911325e-05,-0.0496669233894788,0.00128007711280506,-1.07589834789135,-0.00134965699793621,0
0.15,0.000823980482980194,0.000468877098303005,-0.0408628704229874,-0.0234579819903753,0.000947806175620184,-2.12843393498564e-05,-0.0471011959491757,0.0012363002968489,-1.07590602580758,-0.000975761911412494,0
0.16,0.00081462544326767,0.000464664676263908,-0.0404212981126098,-0.0232472418557435,0.000937572786902921,-2.20259720688899e-05,-0.0466125076841894,0.00126084194064637,-1.07591201458748,-0.000830816777596349,0
0.17,0.000812089835542434,0.000463957906844175,-0.04030967993852,-0.0232118803273862,0.000935005609635856,-2.26130551683652e-05,-0.0464974801902342,0.00128297351399021,-1.0759171708374,-0.000737502297429823,0
0.18,0.000810928608261951,0.000463838667973205,-0.0402635402195861,-0.0232059073563772,0.000933926964972046,-2.30638614053296e-05,-0.0464540334124519,0.00129984112944424,-1.07592171437415,-0.0006613968328854,0
0.19,0.000810103897711382,0.000463817970344695,-0.0402325850564785,-0.023204877928246,0.000933191272315207,-2.34410745609254e-05,-0.0464262978103068,0.00131382328350553,-1.07592573824179,-0.00059515865551893,0
0.2,0.000809411203290039,0.000463813865733126,-0.0402070077806634,-0.0232046731025778,0.000932579646175798,-2.37697622276337e-05,-0.0464036870303695,0.00132595567774428,-1.07592930572179,-0.000536652982195063,0
0.21,0.000808804307156121,0.000463812613309544,-0.0401846798303065,-0.023204606256247,0.000932044887330532,-2.40598325085017e-05,-0.0463840017477731,0.0013366474607315,-1.07593246930404,-0.000484812607868775,0
0.22,0.000808267388172995,0.000463811902508552,-0.0401649361671324,-0.0232045817583108,0.000931571974920256,-2.43168097367153e-05,-0.046366611254442,0.00134613248508493,-1.07593527485369,-0.000438847003022252,0
0.23,0.000807791575729834,0.000463811338992628,-0.0401474383125586,-0.0232045421659046,0.000931152914772074,-2.45445983811654e-05,-0.0463511903623357,0.0013545228622894,-1.0759377629167,-0.000398084523588759,0
0.24,0.000807369558677013,0.000463810850321613,-0.0401319126046704,-0.0232045231188039,0.000930781237945594,-2.47466410415564e-05,-0.0463375151314961,0.00136198161455134,-1.07593996942537,-0.000361935084249821,0
0.25,0.000806995388321144,0.000463810418706724,-0.0401181429281766,-0.0232045039108121,0.000930451700462662,-2.49257773929232e-05,-0.0463253855076143,0.00136859465270736,-1.07594192624237,-0.000329876422989488,0
0.26,0.00081304762104748,0.000467450426688781,-0.0404162857083139,-0.0233866123785368,0.000937506506698811,-2.52563932476997e-05,-0.0466742441800175,0.00138734250424718,-1.07594352372205,-0.000339971518181224,0
0.27,0.000797717831045275,0.000458627289859821,-0.0396745910244064,-0.0229451917520178,0.000919825525863402,-2.47735936403647e-05,-0.0458118900477885,0.00135119493046427,-1.07594542826875,-0.00022340080235361,0
0.28,0.000796979726817265,0.000458405265693767,-0.0395776857117119,-0.0229340796104299,0.000919070491681233,-2.49299798297428e-05,-0.0457213304938358,0.00138749837694359,-1.07594678856484,-0.000198388104328452,0
0.29,0.000804156833617797,0.000462903581426824,-0.0399932887043747,-0.0231591228705173,0.000927522854908325,-2.54812161148505e-05,-0.0461939492905897,0.00138822277088571,-1.07594780236218,-0.000223824836246724,0
0.3,0.00079357484157393,0.000457474361731058,-0.0394783024744662,-0.0228874985068906,0.000915631944288677,-2.57286497598518e-05,-0.0456117465129995,0.00139374825640963,-1.0759477992183,-0.000163510042315579,0
0.31,0.000803390692278403,0.000462747445757952,-0.0399578595262782,-0.0231513197724816,0.000926774449325403,-2.57084241577658e-05,-0.0461590633265806,0.00139821956151308,-1.07594863807766,-0.00020667524446109,0
0.32,0.000805095651650687,0.000463630862588359,-0.0400429196866131,-0.0231955094560688,0.000928694392180017,-2.56770517127515e-05,-0.0462549040331323,0.00139675654315594,-1.07594957016061,-0.000202146378883209,0
0.33,0.000805286060469947,0.00046377873782304,-0.0400541144036738,-0.0232029163438134,0.000928932163145876,-2.57175643688073e-05,-0.0462682721507043,0.00139799846529057,-1.07595043228138,-0.00019004967511875,0
0.34,0.0008052055612122,0.000463803378450783,-0.0400519173203061,-0.0232041578774112,0.000928873002280721,-2.57781943396826e-05,-0.0462669271447708,0.00140017013713652,-1.07595120354652,-0.000177796679364525,0
0.35,0.000805087330263807,0.000463807384697423,-0.040047687129577,-0.0232043458388653,0.000928770838890683,-2.58385037775913e-05,-0.0462632926991672,0.00140237615115835,-1.07595188879935,-0.000166642371833884,0
0.36,0.000804973359718923,0.000463807947180859,-0.0400434866855948,-0.0232043812870561,0.000928670791335091,-2.58936873841624e-05,-0.046259612109889,0.00140443023931194,-1.07595249674686,-0.000156695964117262,0
0.37,0.000804870844525822,0.000463807944910866,-0.0400396863855449,-0.0232043684009223,0.000928580558502646,-2.59428699465733e-05,-0.0462562608050821,0.00140624858070488,-1.07595303594332,-0.000147864849653211,0
0.38,0.000804779458498473,0.000463807858923683,-0.0400362875554244,-0.0232043688417612,0.000928500081594929,-2.5986636925084e-05,-0.0462532692240701,0.00140788516961218,-1.07595351413181,-0.000140031140643974,0
0.39,0.000804698317019412,0.000463807768591304,-0.0400332631421805,-0.0232043692422193,0.00092842861963943,-2.60254847013699e-05,-0.0462506072017618,0.00140934140954673,-1.07595393820951,-0.000133083539763575,0
0.4,0.000804626372350748,0.00046380768611831,-0.0400305762690644,-0.0232043696063766,0.000928365256229801,-2.60599272854277e-05,-0.0462482422787693,0.0014106351005739,-1.07595431429832,-0.000126922070200109,0
0.41,0.000804562576754585,0.000463807612579607,-0.0400281884145473,-0.023204369938358,0.000928309069689358,-2.60904682451315e-05,-0.0462461405491158,0.00141178479170653,-1.0759546478285,-0.000121457828179447,0
0.42,0.000804506162017167,0.000463807547293452,-0.0400260733888445,-0.0232043496059224,0.000928259383514396,-2.61174762837637e-05,-0.0462442691600349,0.00141278498621756,-1.0759549436158,-0.000116611925011091,0
0.43,0.000804455987013618,0.000463807489381799,-0.0400241850997141,-0.0232043498852758,0.000928215192942154,-2.61414965153595e-05,-0.0462426071442575,0.00141369409574251,-1.0759552059313,-0.00011231439059636,0
0.44,0.00080441145815316,0.000463807438020031,-0.0400225034164707,-0.0232043501421857,0.00092817597510049,-2.61628136302948e-05,-0.0462411269816683,0.00141450369663459,-1.07595543856309,-0.000108503171131632,0
0.45,0.000804371993359185,0.000463807392468579,-0.0400210078692758,-0.0232043503789743,0.000928141217300778,-2.61817065250071e-05,-0.0462398106543912,0.0014152236674419,-1.07595564486962,-0.000105123234603707,0
0.46,0.000804337010555086,0.000463807352070748,-0.0400196769154222,-0.023204350597961,0.000928110406902786,-2.61984538153695e-05,-0.0462386392008808,0.00141586437861666,-1.07595582783025,-0.000102125776444349,0
0.47,0.000804305927664257,0.000463807316243349,-0.0400184881894425,-0.023204350801451,0.000928083031309311,-2.62133338673342e-05,-0.0462375929359701,0.0014164365756632,-1.07595599008682,-9.94675148638392e-05,0
0.48,0.000804278395440731,0.000463807284470015,-0.0400174302594512,-0.0232043509908401,0.000928058782863481,-2.62265142579041e-05,-0.0462366617965014,0.00141694579716015,-1.07595613398215,-9.71100659019575e-05,0
0.49,0.000804253948223225,0.000463807256291438,-0.0400164850505671,-0.0232043511679703,0.000928037251491375,-2.62382176523451e-05,-0.0462358298737561,0.00141740072450538,-1.07595626159426,-9.50193891807933e-05,0
0.5,0.000804232294971121,0.000463807231300891,-0.0400156427392339,-0.0232043498787994,0.000928018180823851,-2.62485836171016e-05,-0.0462350878294845,0.00141780482845522,-1.07595637476554,-9.31652963771087e-05,0
0.51,4.71966844309845,-0.0275532057513568,4.01728962437172,1.38684362344796,-0.679079566039981,4.67064024892878,0.818763883474786,4.17032095468685,0.138543665138927,42.6899817724305,2094.57518044504
0.52,4.73183992444401,0.00813502764682561,3.4095567565514,-0.388743198752789,-2.7757897964895,3.8321490387173,-2.3192902553151,2.52924717303831,0.628596531664355,91.1529166294418,2094.57518044504
0.53,4.70755617724843,0.0550423775081164,4.62466640166328,-2.72464949765743,-4.68326465586435,0.480777483253336,-4.8522339527712,-2.29501195625044,1.4801878904032,141.85685085101,2094.57518044504
0.54,4.70909749322362,0.0449686316722087,4.54864071335861,-2.2174675544761,-1.96931476979006,-4.27778221932886,0.160451384490321,-5.05782068163679,2.71970682004906,195.815800822835,2094.57518044504
0.55,4.65770171185501,0.0603321340507172,7.11954666020042,-2.9715562584797,4.3085126038198,-1.77046444351253,7.71348179538474,0.142442396599691,-1.94773050721037,244.499930564381,2094.57518044504
0.56,4.60826482557973,-0.0319118738831031,9.59262416179771,1.64422725319832,-0.174950388229133,4.60505324964094,1.34565197116962,9.63904260505952,0.0310478858053488,296.552916668263,2094.57518044504
0.57,4.67161102157864,0.0250517299490047,6.42654543799673,-1.18419721721145,-3.22044437633154,-3.38427468522622,-3.54291603563905,-5.49095212875687,2.3863569376821,345.551052690172,2094.57518044504
0.58,4.63269310317018,0.0749496992652577,8.37379896157153,-3.67994233739893,4.2985354560279,1.72917777537521,6.28878160604494,6.64181530659114,-1.17215638300899,397.036096207346,2094.57518044504
0.59,4.6351304033652,-0.00901832654197099,8.25336122864978,0.524261298424935,-4.35132530159478,-1.59702326411206,-7.93319310517608,-2.33607975796894,1.92060687026144,447.840924857969,2094.57518044504
0.6,4.62997223787347,0.0824886563465057,8.51277505558375,-4.04809862202678,3.67867262462232,2.81261711271891,4.15379739717026,8.46170247550016,-0.90021862943861,498.029368060841,2094.57518044504
0.61,4.61350340983681,0.0792693600029069,9.33781171370034,-3.87970085024572,-1.04102095640535,-4.49521664798662,1.84400999158528,-9.9421543660743,2.93120056280968,548.176358737941,2094.57518044504
0.62,4.59632159909121,0.0958398911521976,10.1985560684122,-4.70026667689073,-3.38171305765434,3.11438185242249,-10.7556390755717,3.22789107475326,0.84737596903052,598.351232516131,2094.57518044504
0.63,4.62528363438741,0.0512540259479937,8.75214046787091,-2.45373680181772,3.56510523541923,2.94718515436242,5.09915099051614,7.52458943982039,-0.868919332491534,648.203638226741,2094.57518044504
0.64,4.58533881705826,0.0669945215207464,10.7512251043185,-3.21925395242953,3.61435798591184,-2.82245224632948,10.5135152662794,-3.9266313806711,-2.21917240110262,697.593844463349,2094.57518044504
0.65,4.60262152225336,0.0679111778251927,9.88900342916738,-3.28064022631709,-0.354075433297308,-4.5894844364829,2.65916406624488,-10.0739185814362,3.07934971099442,747.952378037155,2094.57518044504
0.66,4.59395415331171,0.0584242833164502,10.3243375142769,-2.78145979662009,-2.93587393782658,-3.53390327835972,-4.33405822087787,-9.77468173635133,2.46108383808436,797.572865906049,2094.57518044504
0.67,4.5771297668215,0.0769610248906103,11.1675593667071,-3.71989059844296,-3.72847008585318,-2.65604042148715,-6.77652209309478,-9.62448526390425,2.20658707373532,847.572822605048,2094.57518044504
0.68,4.43931795406584,0.0608569102614308,16.0321714663665,-2.87809351301617,-3.30065461630997,-2.96933099614198,-9.8167413546571,-12.997904960893,2.31710854797825,896.586063540359,2094.57518044504
0.69,4.43604245078075,0.0769241548362669,12.6013578108699,-3.69064745530917,-1.60910944994479,-4.13462897111997,-0.903921643314226,-13.0995428538442,2.78778864516635,945.641268898706,2094.57518044504
0.7,4.31758924481276,0.0525480956447399,14.9138309873383,-2.48003477137022,1.91245283977107,-3.87128690811341,8.97772806338995,-12.1644287167922,-2.67057874830756,993.791862529945,2094.57518044504
0.71,4.24758427731993,0.0691377216897209,14.7471214561027,-3.31040621821858,4.24121267425022,0.242625780318693,14.4645607343959,4.38324803446466,-1.49737639584437,1040.87950953403,2094.57518044504
0.72,4.20528166491793,0.0586351100042621,13.0927992300329,-2.77941349193095,-0.0168570397735549,4.20565664285973,-3.01397491393629,13.0408008287544,0.0179504640076552,1087.13491206783,2094.57518044504
0.73,4.09286858151808,0.0548551811564104,14.8695418345584,-2.58168777756603,-3.92824989671427,-1.15040647835529,-13.4541837174014,-6.83764042992379,1.86908680755106,1132.3759679551,2094.57518044504
0.74,4.00292564949206,0.0957059728339378,15.4982490989385,-4.60583362244035,3.09581739064718,-2.53938734193191,15.0493323036027,-5.90990911149154,-2.23386732009251,1176.64529693475,2094.57518044504
0.75,3.88242603576859,0.131983083676824,17.6334629884553,-6.4020097299224,-0.904677051502249,3.77785797643001,-10.8585450521836,15.2976058550658,0.269024050282785,1220.10162501025,2094.57518044504
0.76,3.84544674953353,0.0681891416386118,15.4972688019221,-3.25605815283571,-0.27376213951461,-3.83629570725508,2.42253890594947,-15.6492351334766,3.08808293351531,1263.14736107832,2094.57518044504
0.77,3.73314043939515,0.137370827486536,17.0633120914283,-6.67931032452636,0.385112027409852,3.71576331469538,-5.53079545215951,17.4694049013462,-0.0664929828187738,1304.59740922715,2094.57518044504
0.78,3.67058404781432,0.119194720002531,16.1890910965946,-5.80951307326166,0.695660037054653,-3.60602991476645,9.24650450872288,-14.5030778475606,-2.91855648979699,1345.70666634969,2094.57518044504
0.79,3.58135208195489,0.1323062549258,16.5403621927375,-6.41398135196442,-2.49978856656607,2.56800405032404,-16.3947181989627,6.77760676248557,0.808864694354846,1385.35202887574,2094.57518044504
0.8,3.49755492008144,0.09645092666196,16.6252583364813,-4.65479112996901,3.48613849487116,0.298381626138834,15.9946635260947,6.49900253157315,-1.45784386489313,1424.51546074441,2094.57518044504
0.81,3.41093784857381,0.0686284438580922,16.8938018312019,-3.28229614580941,2.33701130642287,-2.48547480852078,14.1632608688748,-9.77630041789401,-2.36685305198288,1462.60548683492,2094.57518044504
0.82,3.32042706427935,0.115654339850049,17.3001941279329,-5.57616493808288,-2.7391444742049,-1.88034554403113,-10.5994911711475,-14.7662154661794,2.20720225844557,1499.54100044421,2094.57518044504
0.83,3.20192805578941,0.151482493515307,19.0786598415616,-7.37063494707469,-2.11276404901586,2.41070908520275,-18.5461525366413,8.62332574826483,0.766901260552597,1535.68180666188,2094.57518044504
0.84,3.12860218610543,0.159499707283006,18.6097357042046,-7.77440708732206,1.39744891863805,2.80369904150292,0.317267635738046,20.1658872799355,-0.411454123592635,1570.9534400058,2094.57518044504
0.85,2.99126224246442,0.101593588769995,21.3598310199513,-4.88085651645145,2.93216209951614,0.600330311273349,19.6275195973566,9.73784452486504,-1.33489703819147,1605.24190330309,2094.57518044504
0.86,2.9644464435049,0.133663961369671,18.5909147985613,-6.48084529827927,2.62607337718718,-1.38186373735133,19.5819693166292,-2.04204468858709,-2.01013222074078,1638.70001644009,2094.57518044504
0.87,2.8421793887906,0.0934520322358441,20.6145392643486,-4.51345644601401,1.75444106207096,-2.23800212692358,16.7031605399278,-12.8970906079176,-2.44385789691881,1671.24656477795,2094.57518044504
0.88,2.7589065988737,0.124123349410686,20.6900381024717,-6.07858864906796,1.21042502148811,-2.48230608397379,15.2332855733594,-15.2634834584635,-2.64293731813182,1702.89962222346,2094.57518044504
0.89,2.72601065807765,0.0541733671234507,18.2355949249592,-2.54987186392505,1.32542479858396,-2.38271231267166,11.3827795113612,-14.4731164365305,-2.61408033146403,1733.47586488394,2094.57518044504
0.9,2.60388779708635,0.0921929732734135,20.3068845533566,-4.41994283707789,1.76114896532015,-1.92017851411996,17.3965688099166,-11.3694700223108,-2.36397550687919,1763.10268345744,2094.57518044504
0.91,2.51291790461857,0.10293494526793,20.8496994605686,-5.03224786013922,2.34564296131116,-0.907364919071314,21.3589947182698,-1.95622870514522,-1.89895846800167,1792.1408549379,2094.57518044504
0.92,2.48215442290337,0.0708878934917843,18.3584961396403,-3.3794697745221,2.35970704647857,0.773238855323406,16.1318413883124,9.39249114390996,-1.22558726836934,1820.01362238166,2094.57518044504
0.93,2.3783264383993,0.0496077211635097,19.6142003411709,-2.37012193809304,0.862955616629103,2.21680066251263,4.50646262628383,19.2360632049005,-0.350375538975446,1847.18336538432,2094.57518044504
0.94,2.29988841984493,0.132681112671512,19.5813544984925,-6.47949749593158,-2.27141878841128,-0.384379641824036,-17.6393645386857,-10.6895346234891,1.79605900695924,1873.32331989409,2094.57518044504
0.95,2.16088382686712,0.0258796120667082,22.6692579881499,-1.1971302626077,-0.211538978557791,-2.15066034698354,-0.756009131293908,-22.6882531013816,3.05552384222567,1898.73831560418,2094.57518044504
0.96,2.1286241367635,0.0857184305820445,20.4104882080091,-4.11602383723796,2.06143406906525,-0.537473668053331,20.8187737804399,-0.329149505329895,-1.78559854647671,1923.10796989342,2094.57518044504
0.97,2.09357685522519,0.0317922013896071,18.3585461201153,-1.46200584973805,0.379688443520472,2.05910453320389,1.61295649207076,18.3459000352601,-0.167162235943021,1946.79813945092,2094.57518044504
