t,iq,id,vq,vd,ia,ib,va,vb,theta_e,omega,r
0,0,0,0,0,0,0,0,0,0,0,0
0.01,0.000349845801275844,0.000193429037564695,-0.0164647689477408,-0.00967347161512279,-0.000395834735467195,-5.58725285015552e-05,0.0189720389306191,0.00217403045198331,2.21608653765876,-0.00408663081532223,0
0.02,0.000493475217561067,0.00026684211954224,-0.0233267672068053,-0.013344886439673,-0.000554739712112185,-8.35844418203956e-05,0.0266624818810934,0.00336691585113499,2.21605119299219,-0.00536745738348509,0
0.03,0.000563661104639245,0.000301994031488938,-0.026721831787794,-0.0151028455935294,-0.000631958868472604,-9.76843103927213e-05,0.0304323592025337,0.00400296795954085,2.2160107274088,-0.00566374138338514,0
0.04,0.000574920769505526,0.0003071832234891,-0.0273762535974548,-0.015362364505558,-0.000644079589264174,-0.000100284129827571,0.0311114550879295,0.00418794299692932,2.21597130780294,-0.00524334657020665,0
0.05,0.000590338235705944,0.0003166174729018,-0.0282151802546598,-0.0158341790875803,-0.000662074993392192,-0.000101992939990267,0.0320656320206186,0.00431426323939404,2.21593447175219,-0.00491128295393909,0
0.06,0.000593798066239797,0.00032003626129003,-0.0284889392782437,-0.0160051520048467,-0.000666898640425842,-0.000101319077220364,0.0323873248439434,0.00434116820114027,2.21590055292476,-0.00447222669243822,0
0.07,0.000597060685109453,0.000323919100979016,-0.0287411979017314,-0.0161993396795391,-0.00067184330212764,-0.000100157990538209,0.0327057814369357,0.00433669499492051,2.21587032735222,-0.00408320506257029,0
0.08,0.00059178598481049,0.000322680073644244,-0.0285885270722521,-0.0161373634517497,-0.000666886264981699,-9.79581100467751e-05,0.0325466443082407,0.00429352111996899,2.21584261892466,-0.00362396387035982,0
0.09,0.000587650271318316,0.000322229083463399,-0.0284782863331464,-0.01611482057278,-0.0006633127351566,-9.58156510661129e-05,0.0324451047302701,0.00424445680945991,2.21581805264404,-0.00322351859656949,0
0.1,0.000584199850809949,0.000322064042051185,-0.0283906922732745,-0.0161065617034477,-0.000660458371791262,-9.38586810026105e-05,0.0323702356816798,0.00419768740799469,2.21579624179232,-0.00287073488614053,0
0.11,0.000581224838917838,0.000322002856546979,-0.0283170670490825,-0.0161034961462902,-0.000658046040561994,-9.21062511459617e-05,0.0323096392923713,0.00415524766923406,2.21577686488491,-0.00255844069667298,0
0.12,0.000578617685526906,0.000321979477065113,-0.0282533362714989,-0.0161023349346717,-0.000655950138318011,-9.05462627402133e-05,0.0322580840999811,0.00411730628169585,2.21575964523704,-0.00228137212344363,0
0.13,0.000593036632091344,0.000331318742171153,-0.0289759365101466,-0.0165693945187694,-0.000673088566139043,-9.17406019655752e-05,0.0331163777892617,0.00417794847713181,2.2157437843733,-0.00223498420981221,0
0.14,0.000600852954175293,0.000336756419525063,-0.0294620207035633,-0.016841327557594,-0.000682605084665008,-9.20839672363984e-05,0.0336683598126806,0.00425235527246297,2.21572906324721,-0.0021228226205435,0
0.15,0.000582956327579125,0.000327326497990345,-0.0286014374009493,-0.0163697323348013,-0.000662635615422608,-8.88524469255887e-05,0.0326971912829403,0.00411145233710315,2.21571565052804,-0.00171003769469838,0
0.16,0.000574826685261054,0.000323906153150208,-0.0282605461983658,-0.0161986911950209,-0.000654083696619114,-8.66915910215693e-05,0.0323219946240865,0.00404286178123111,2.2157046207261,-0.00145237173688574,0
0.17,0.000570772488901515,0.000322665172097169,-0.0281036642476083,-0.0161366176311375,-0.000650098585539148,-8.52401105778532e-05,0.0321593454066457,0.00399785889344397,2.21569518042932,-0.00126788570940694,0
0.18,0.000568461950718387,0.00032221457688716,-0.0280237839914475,-0.016114092724813,-0.000647981927936873,-8.42059620237126e-05,0.0320820008433123,0.00396757803110273,2.21568693746231,-0.00112206430404882,0
0.19,0.000566935610369256,0.000322050666959129,-0.0279770753975747,-0.0161058983796154,-0.000646664207439755,-8.34147541499369e-05,0.0320397759074785,0.00394581679942664,2.21567967088896,-0.000999852772522466,0
0.2,0.000565793973384748,0.000321990775478453,-0.0279454627606434,-0.0161029008875717,-0.000645716377061543,-8.27722188069896e-05,0.0320127355135232,0.00392900379774269,2.21567323637929,-0.000894240741704724,0
0.21,0.000564866951339357,0.000321968654689052,-0.0279214022987784,-0.0161017881296316,-0.000644962698055221,-8.22289817219396e-05,0.0319928604994799,0.00391524767576609,2.21566752686731,-0.000801594926226096,0
0.22,0.000564078602193279,0.000321960275272517,-0.0279016543066416,-0.0161013721105348,-0.000644328045174778,-8.17585378240569e-05,0.0319768480827256,0.00390354756388729,2.21566245583881,-0.000719745188495494,0
0.23,0.000563392349732536,0.000321956918451323,-0.0278847645033955,-0.0161012030215705,-0.000643777954554056,-8.13458192288672e-05,0.0319632659913335,0.00389338635623564,2.2156579499222,-0.000647194527717608,0
0.24,0.000562788461279339,0.000321955418141532,-0.0278700297868388,-0.0161011252671209,-0.000643294759682061,-8.09814521075879e-05,0.031951459075735,0.00388446368478735,2.21565394533736,-0.000582788436238838,0
0.25,0.000562253977459991,0.000321954622343426,-0.027857034180244,-0.0161010941056745,-0.000642867416794137,-8.06585298794357e-05,0.0319410682448409,0.00387656343911562,2.21565038597751,-0.000525572516668546,0
0.26,0.000564044591146163,0.000323304825402931,-0.027950043061077,-0.0161686085343585,-0.000645110274101114,-8.06538602873255e-05,0.0320559929547675,0.00387841781365652,2.21564742601104,-0.000505738833942999,0
0.27,0.00055941675029652,0.000320685210206498,-0.0277458128310579,-0.0160376062761964,-0.00063983741482691,-7.9963661403926e-05,0.0318140440524694,0.00386025203243626,2.21564419511529,-0.000402372824262825,0
0.28,0.000558393114860122,0.000320354781632369,-0.0276342439293327,-0.0160210833672008,-0.000638820924042058,-7.961082742921e-05,0.0317149573160312,0.00380631478558659,2.21564164978101,-0.000353494185590895,0
0.29,0.000559598265723169,0.000321373415702283,-0.0277694936646302,-0.016072023743393,-0.000640396510159494,-7.95198157447025e-05,0.0318536747863099,0.00384683352981779,2.21563960015862,-0.00033932926310037,0
0.3,0.000550378706315284,0.000316708077604126,-0.0273435415008581,-0.0158387122894397,-0.000630224138271473,-7.77062566655082e-05,0.031373021753187,0.00377724434884132,2.21563890324118,-0.000214968116746401,0
0.31,0.000556196517183096,0.000320050862552911,-0.027618140533863,-0.0160058814565908,-0.00063688306014156,-7.85308095729978e-05,0.0316929655914535,0.00380865590065453,2.21563758591342,-0.00026847335065809,0
0.32,0.000558423523428063,0.000321262956967663,-0.0277265823655045,-0.0160664933645205,-0.000639391547378595,-7.88997349692937e-05,0.0318160696490907,0.00382534845308159,2.21563607707181,-0.00027467854205807,0
0.33,0.000559202268853092,0.00032170239590001,-0.0277676510989831,-0.0160884790365607,-0.000640278168270774,-7.90156709398551e-05,0.0318621122248778,0.00383241566560836,2.21563459809884,-0.000263330918634454,0
0.34,0.000559405117182725,0.000321861652887544,-0.0277816092379643,-0.0160964391132115,-0.000640536116822627,-7.90094410530166e-05,0.0318780573406826,0.00383440010437357,2.21563322727202,-0.000246367755253047,0
0.35,0.000559385623341937,0.000321919316235137,-0.0277848073251602,-0.0160993301853023,-0.000640555294998344,-7.89508443053639e-05,0.0318823557357823,0.00383397225455443,2.21563198584802,-0.000228485383816939,0
0.36,0.000559287058799558,0.000321940147689477,-0.0277839044430312,-0.0161003649509172,-0.000640489131234402,-7.88742391759421e-05,0.0318822603822844,0.00383256709901204,2.2156308730157,-0.000211446535250752,0
0.37,0.00055916610403647,0.000321947631272259,-0.0277815614436952,-0.01610074536283,-0.000640397040653364,-7.87949205695192e-05,0.0318806203157805,0.00383082311906295,2.21562988002063,-0.000195834627900185,0
0.38,0.000559045185954717,0.00032195028223185,-0.0277788579787096,-0.0161008694773824,-0.000640302065949383,-7.87195560789331e-05,0.031878537693751,0.0038290707798522,2.21562899580316,-0.000181767233076652,0
0.39,0.000558932088569042,0.000321951187665939,-0.027776192033902,-0.0161009195896021,-0.000640212284570151,-7.86503500127487e-05,0.0318764402010709,0.0038274032505848,2.21562820919693,-0.00016918533348204,0
0.4,0.000558829293875293,0.000321951466306392,-0.0277737140764432,-0.0161009376423786,-0.000640130353416225,-7.85878933755892e-05,0.0318744733423691,0.00382587711647778,2.21562750973202,-0.000157969788524775,0
0.41,0.000558737188325608,0.000321951523162556,-0.0277714745995478,-0.0161009306818862,-0.000640056825555703,-7.85320886278493e-05,0.0318726817442363,0.00382451679129012,2.21562688787853,-0.000147987504891223,0
0.42,0.000558654708073433,0.000321951504496269,-0.027769451118927,-0.0161009326310313,-0.000639990939370007,-7.84821739270728e-05,0.0318710678603253,0.00382328137573256,2.21562633507614,-0.000139109089778305,0
0.43,0.000558581308216315,0.000321951462803691,-0.0277676449809133,-0.016100934534842,-0.00063993229154519,-7.84377748779774e-05,0.031869627413821,0.00382217859152822,2.21562584367773,-0.000131215006025318,0
0.44,0.000558515999221099,0.000321951416638522,-0.0277660326591816,-0.0161009349429378,-0.000639880102946114,-7.83982775012614e-05,0.0318683407570837,0.00382119523943173,2.21562540687106,-0.000124197154595454,0
0.45,0.0005584579079758,0.0003219513722984,-0.0277645937614805,-0.0161009353147934,-0.0006398336800524,-7.83631480744161e-05,0.0318671924932764,0.00382031770245261,2.2156250185946,-0.000117958695513306,0
0.46,0.000558406431358575,0.000321951331685262,-0.0277633189241194,-0.0161009208855943,-0.000639792542422843,-7.83320191023277e-05,0.0318661662851882,0.00381955198043815,2.21562467345845,-0.000112413242084761,0
0.47,0.000558360505514348,0.000321951295148154,-0.0277621734353568,-0.0161009211974797,-0.000639755840414407,-7.83042477868722e-05,0.0318652521662332,0.00381885344634397,2.21562436666929,-0.000107483880984109,0
0.48,0.000558319701944256,0.000321951262511266,-0.0277611523243183,-0.0161009214835201,-0.000639723231803416,-7.82795739814304e-05,0.0318644373042548,0.00381823077821363,2.21562409396755,-0.000103102193702725,0
0.49,0.000558283438571691,0.000321951233442176,-0.0277602411193961,-0.0161009217466471,-0.00063969425149392,-7.82576456584482e-05,0.0318637101498428,0.00381767515452347,2.21562385156514,-9.9207342883922e-05,0
0.5,0.00055825119152771,0.00032195120758121,-0.0277594266423736,-0.0161009219894899,-0.000639668480859133,-7.82381460700357e-05,0.0318630601854473,0.00381717854488414,2.21562363609597,-9.57452422920596e-05,0
0.51,4.73561264014135,-0.03206646439936,3.21981011777767,1.6117221651195,-0.830682868453101,4.66229785702974,1.04530844503656,3.44559948148594,0.169548826394235,52.7327303587698,1244.32391082516
0.52,4.76158659298545,0.0410232854089381,1.92155310806128,-2.03487240368633,-3.30848508765389,3.42466293483262,-2.79820306169964,-0.0559613427191645,0.776760517284654,113.065638495452,1244.32391082516
0.53,4.77993094366973,0.00508839936949723,1.00479305458637,-0.227178410455723,-4.61725287322467,-1.23642291419968,-0.911320892568793,-0.480326288568318,1.83350540205841,176.05045025561,1244.32391082516
0.54,4.77174284055594,0.0251945790562815,1.41479646608995,-1.22682029904362,1.06628995790263,-4.65114934493472,1.51775639330035,-1.09688313744081,-2.91095394267908,243.502780452123,1244.32391082516
0.55,4.71303417915938,0.0556514598474434,4.35077521988756,-2.73911294798512,3.7228202466714,2.89074344587706,1.69933990642541,4.85223954872773,-0.898746800459672,304.681457594814,1244.32391082516
0.56,4.51182734589295,0.0014025879324927,3.7347363968559,-0.0228805398802991,-4.51165014269902,0.0400119517677449,-3.73479544679507,0.00907985155361625,1.56223884365861,367.901545136198,1244.32391082516
0.57,4.26780879871352,0.0261995158837682,2.96429892907783,-1.25323045690706,4.14195380069325,-1.02912441907275,3.17588504553904,0.520969189658022,-1.80818957755542,425.114130752003,1244.32391082516
0.58,3.99965914919787,0.0511914389349808,3.68218369422618,-2.50518381950855,-3.99101409417994,0.267769253723267,-3.81247811666172,-2.30204981213007,1.51660194351439,481.587131948643,1244.32391082516
0.59,3.76787461883481,0.0552009212066729,3.8446881929173,-2.70532590539321,3.29717367506371,1.82443745889754,1.99206505210182,4.2581794681934,-1.0507478565156,533.121285634977,1244.32391082516
0.6,3.57281780640041,0.0186374046837987,2.74642229181736,-0.864660420461401,-0.396133732355872,-3.55083828083947,0.569556462288981,-2.82242422112068,3.03570782075095,581.09283035474,1244.32391082516
0.61,3.32101264504613,0.00756710828602558,4.9350492223013,-0.311226650824246,-3.07552709483549,1.25312223610342,-4.69125338986694,1.5632384612662,1.18616298731269,626.968015309694,1244.32391082516
0.62,3.13738285971762,0.0674615522486519,4.32330360984278,-3.30704234165657,1.10189058397846,2.93829192055883,-1.69003940923706,5.17409411855009,-0.337280774061474,670.247216882788,1244.32391082516
0.63,2.95524305555583,0.0359973551779477,4.24577690048472,-1.73299596707979,2.95543040539778,0.013727557724804,4.21601956284672,1.804182794591,-1.55397125932906,710.858679131115,1244.32391082516
0.64,2.78381968486932,0.0431640039271179,4.15200246973063,-2.09111083293958,1.67204443404068,-2.22615870496569,4.19702861877113,-1.99920479128643,-2.48189055419601,749.185212302262,1244.32391082516
0.65,2.62189115865073,-0.00268618185903269,4.06204400002635,0.201506599598905,0.0134259272649431,-2.62185815937112,-0.184865999489865,-4.06283533139907,-3.13749645076322,785.414519160518,1244.32391082516
0.66,2.4298362887784,0.0119243932348064,5.86080232836793,-0.545709554967837,-0.945808968937371,-2.23823411994725,-1.75104906909227,-5.61966458146901,2.74669010136122,819.706453231589,1244.32391082516
0.67,2.31813722511146,0.0324706706125329,4.10648365955183,-1.57116235847885,-1.24446187155628,-1.95604938310364,-0.818251189594342,-4.31997965198847,2.58897776185465,851.528861321334,1244.32391082516
0.68,2.15101679147537,0.0542557677310188,5.68071474153859,-2.6554585039929,-1.04926833496271,-1.87852412462168,-0.294001625073165,-6.2638281334673,2.65741923425439,881.14697024773,1244.32391082516
0.69,2.02497170125074,0.0263414183318847,5.56795032348666,-1.25696223104267,-0.433728862769396,-1.97815154494968,0.109538271965284,-5.70701552670551,2.93875616262403,909.404943594703,1244.32391082516
0.7,1.90623439658886,-0.000579761948481861,5.31940599457265,0.0737313825031452,0.526364832656801,-1.83212171369824,1.3964112953977,-5.13337627161179,-2.86213359514079,936.156795407274,1244.32391082516
0.71,1.80018190082407,0.0577289454164847,4.94621990263141,-2.8328043306552,1.43027429986407,-1.09467024000007,5.67089469423466,-0.575173945747803,-2.19199618593559,960.704911634638,1244.32391082516
0.72,1.71921632496727,0.022894474580924,3.59126563081949,-1.10654031485545,1.68083175898373,0.361985534230246,3.25304626209882,1.8813054818797,-1.34535916311996,984.392764325942,1244.32391082516
0.73,1.58521598250284,0.0294927768631604,5.17653820232307,-1.42805471789425,0.544498987049977,1.48906023658249,0.336925016508115,5.35932547720897,-0.331959853442224,1006.16344494188,1244.32391082516
0.74,1.48179124203728,0.0115305890682542,5.57364938478538,-0.543991682903897,-1.09311317137933,1.00047080618061,-4.50484360599237,3.32684212146244,0.8374012868261,1026.96348803861,1244.32391082516
0.75,1.43359178270654,0.0299118094940286,3.43738131863373,-1.45162564347843,-1.21337380087773,-0.764070765789701,-2.07091082390657,-3.10389041332373,2.15363567392121,1046.20358674007,1244.32391082516
0.76,1.33272737787663,0.0218124401620163,4.2334192873811,-1.06224282460796,0.578823469486591,-1.20066708019303,2.84972989104013,-3.30593984054668,-2.67601426031,1064.5668652326,1244.32391082516
0.77,1.23829310451994,-0.00212652784442724,4.93199754208837,0.149628646465811,1.09850837399426,0.571536251769549,4.44797845498148,2.13599535370034,-1.09277086985214,1081.50320452936,1244.32391082516
0.78,1.1761055534841,-0.00234342675128418,4.2239439752611,0.144899410187458,-0.677722017087659,0.961208943019006,-2.30853846794958,3.54024698110375,0.612129709014824,1097.71380904493,1244.32391082516
0.79,1.07956322031498,0.0274547909344974,5.53447138216427,-1.33281828279532,-0.725335626215588,-0.800061711085181,-2.60198006801564,-5.06324775026841,2.43056921406438,1112.65129692713,1244.32391082516
0.8,1.02520005144443,0.0482142244802712,4.84489648442693,-2.37845532742903,0.944159652038717,-0.402395711192384,5.37001092210742,0.541344978581136,-1.92668388240015,1126.8334427716,1244.32391082516
0.81,0.985973755106795,0.0366196654549152,3.6404662858625,-1.81170621115507,-0.061535899449873,0.984732744827915,-2.16448578033539,3.4424229084709,0.0995323438404598,1140.16652164159,1244.32391082516
0.82,0.895138210300016,0.0182971253696042,5.23429129762355,-0.879920242242028,-0.724288946669745,-0.526319980684695,-3.63890143181375,-3.8639955215591,2.21963683876934,1152.47511202879,1244.32391082516
0.83,0.818461493012763,-0.00142892270816086,6.23271485440353,0.100095635312941,0.786017343915084,-0.228162206400322,5.95452445917935,-1.8440151999227,-1.85505445834182,1164.11991916501,1244.32391082516
0.84,0.77058694264291,0.00552899098794807,5.9563627491504,-0.260641889311101,-0.320633607204576,0.700734540210538,-2.75334198747603,5.28822269708186,0.436304428611625,1175.13829860466,1244.32391082516
0.85,0.70478817517397,-0.0261348855388422,6.79430157810998,1.31567934367097,-0.208241183779634,-0.673828623230892,-3.48704052257572,-5.97780013580122,2.80479652836756,1185.2846197286,1244.32391082516
0.86,0.661620117148907,0.0668030435979995,6.59414198677207,-3.31338979327893,0.603737158773044,0.278756648650291,3.99470597026191,6.20512567762081,-1.03761224458448,1194.82604762831,1244.32391082516
0.87,0.677362849553186,0.0415670428080483,3.57925714442577,-2.05647752564836,0.489652284855764,0.469881781875131,0.913777881163246,4.02556722752416,-0.744710387933314,1203.81209642698,1244.32391082516
0.88,0.638433770048747,0.0360887676696843,3.42150802272291,-1.7931388777339,-0.626616716994537,-0.127481637397554,-2.85290614326884,-2.60441753989197,1.82796851008713,1212.29865558526,1244.32391082516
0.89,0.549748003985527,-0.0145106593047407,5.88483260747643,0.72874151614409,0.53601029072246,-0.122989411573329,5.51739303964022,-2.17271559609154,-1.82273454793339,1220.19918676462,1244.32391082516
0.9,0.502150597563761,0.00754978431143671,6.43167073521265,-0.358359005585061,-0.377422351065415,0.331307396224482,-5.12914818669595,3.89700506825285,0.865407389888333,1227.43064978834,1244.32391082516
0.91,0.500497056404274,0.0186326048573855,4.77266117136975,-0.910246473002254,0.207167630030648,-0.455989090330678,2.94858246008361,-3.86169713654513,-2.6779361621081,1234.24851879419,1244.32391082516
0.92,0.486982774729564,0.0170595211026855,3.79957778371965,-0.837905628923914,-0.0366787588421857,0.485899082931173,-1.25127979384479,3.68417915620753,0.110360218724212,1240.67474767814,1244.32391082516
0.93,0.442823078533103,-0.00978645866386593,4.46051884377797,0.495791609789836,-0.0773904092830783,-0.436117848987761,-1.36233645276671,-4.27622228906536,2.94387134069608,1246.65930716287,1244.32391082516
0.94,0.416742314909545,-0.0279698764593979,4.28910407629547,1.39845596707812,0.16113496918588,0.385346587802183,3.16712180231215,3.21269860996482,-0.463074441066192,1252.30001904773,1244.32391082516
0.95,0.328454269679898,-0.0112678128959509,7.34012412005283,0.557623705305346,-0.200074968068436,-0.260728168847993,-5.09604977269904,-5.31212226974058,2.4527750013539,1257.47985563861,1244.32391082516
0.96,0.330160745726994,0.023074494659114,5.96753059069673,-1.13819670666959,0.268749023272135,0.193164470886993,3.86398965645262,4.68790966517081,-0.877819061118283,1262.30893625388,1244.32391082516
0.97,0.345153589883673,0.0390606245760031,3.99562685760038,-1.93706330127104,-0.31636920518225,-0.143412896959114,-2.43751515390632,-3.71157218612081,2.10908769319208,1266.81225567426,1244.32391082516
