t,iq,id,vq,vd,ia,ib,va,vb,theta_e,omega,r
0,0,0,0,0,0,0,0,0,0,0,0
0.01,0.000807605153075505,0.000454288372749038,-0.0397954861299137,-0.0227321742333526,0.000872379824012852,0.000312341882469169,-0.0432492010806783,-0.0151637418724638,-0.714582713861141,-0.00167117691913718,0
0.02,0.000937423090438944,0.000525134646037139,-0.0462669208438558,-0.0262772489344672,0.00101096940243766,0.000363963341961112,-0.0501680059749876,-0.0177283093505608,-0.714595544129399,-0.00182024088028504,0
0.03,0.000985973023010012,0.00055253400399835,-0.0486885033312597,-0.0276482834396759,0.00106348607850482,0.000382666942006215,-0.0527907636463594,-0.0186583280985453,-0.71460858599001,-0.0017898692375334,0
0.04,0.000963036281383897,0.000540676758617188,-0.0475992674524309,-0.0270549715885151,0.00103950322480676,0.000373099560689728,-0.0516290235379634,-0.01822376684936,-0.714620543287159,-0.00161493417150733,0
0.05,0.000985481443656249,0.00055427618339876,-0.0487347971752441,-0.0277354743050741,0.00106448876385436,0.00038112915776901,-0.052887394459352,-0.0186349268294916,-0.714631866471656,-0.00154558964074188,0
0.06,0.00098656966566054,0.000555805052520757,-0.0488202832223769,-0.0278119796665605,0.00106636076935281,0.000380937883643038,-0.0530014019053813,-0.0186487978955888,-0.714642479813109,-0.00143708652013804,0
0.07,0.00100535413226359,0.000567565707639022,-0.0497711952723424,-0.0284004705864713,0.00108755801823042,0.000387408467550695,-0.0540692668146429,-0.0189808586343615,-0.714652159363508,-0.00137692973808853,0
0.08,0.000986059852787427,0.000557295180500352,-0.0488523581594712,-0.0278865329356457,0.00106715937032607,0.000379556095739952,-0.0530790861108837,-0.018623163924143,-0.714661371766209,-0.00123861249529649,0
0.09,0.000982405348404553,0.000556133036264876,-0.048698432270376,-0.0278283933991267,0.00106388973336631,0.000377548484087584,-0.0529344510297873,-0.0185445592814714,-0.71466976899748,-0.00114291837223712,0
0.1,0.00098075859036509,0.00055599842073972,-0.0486410365467302,-0.0278216511834508,0.00106271173852521,0.00037638466658554,-0.0528918865223621,-0.0185052168595647,-0.714677511355647,-0.00105844361838241,0
0.11,0.000979448362373259,0.000555979958155875,-0.0485983586775937,-0.0278207318716575,0.00106184178838583,0.000375399553628197,-0.0528633542762371,-0.0184732066164959,-0.714684660812435,-0.000980896987375089,0
0.12,0.000978264096464212,0.000555974843848237,-0.048560208656172,-0.0278204645247867,0.00106106425518355,0.000374501422954282,-0.0528382714095361,-0.0184442182148792,-0.71469126410406,-0.000909330372328649,0
0.13,0.0010200824498614,0.000580193370421227,-0.0506313669830541,-0.0290323438613953,0.00110676598771421,0.000390207124531287,-0.0551111259813021,-0.0192139560146278,-0.714697657827368,-0.000933731526399126,0
0.14,0.00104838987785803,0.00059721578596147,-0.052104214061787,-0.0298841270027065,0.00113817765232831,0.000400424353326771,-0.0567198769036954,-0.0197677953687319,-0.714703652917738,-0.000932832947755134,0
0.15,0.000983872115284398,0.000560617111187452,-0.0488897616637272,-0.0280527725220117,0.00106825270878792,0.000375675438054757,-0.0532300501946857,-0.0185399190391712,-0.714709263637463,-0.000733521021381567,0
0.16,0.000975268218402881,0.000556487343821507,-0.0484820451526021,-0.0278461103805271,0.00105949636446091,0.000371878629870492,-0.0528068328974844,-0.0183671708447601,-0.714714043977091,-0.000664817952879204,0
0.17,0.000973542139204525,0.000556019581917136,-0.0484105411018045,-0.0278227025905729,0.00105801341744291,0.000370876907872406,-0.0527423696124411,-0.0183282764295398,-0.714718410230852,-0.000615440063791007,0
0.18,0.000972706752336101,0.000555964973527907,-0.0483817123820365,-0.027819982445401,0.00105742614746251,0.000370277491204547,-0.0527214943910263,-0.0183080732317059,-0.714722437075777,-0.000571550641759757,0
0.19,0.00097202809663103,0.000555957101594745,-0.0483596413570162,-0.0278195725542728,0.00105697678076303,0.000369766148236424,-0.0527067873075487,-0.0182914761842368,-0.714726155683878,-0.000531222386377188,0
0.2,0.000971412389527009,0.000555954630909628,-0.0483397992055161,-0.0278194476264317,0.00105657264213345,0.000369299111901949,-0.0526937509677552,-0.0182763908476916,-0.714729590234529,-0.000493999337262944,0
0.21,0.000970844962325984,0.000555952889809937,-0.048321532121628,-0.0278193748538981,0.00105620059800269,0.000368868341472296,-0.05268178145039,-0.0182624748338382,-0.71473276249746,-0.000459621916048194,0
0.22,0.000970321074458073,0.000555951342293517,-0.0483046683356098,-0.0278193048817549,0.00105585714455762,0.000368470586101616,-0.0526707292860419,-0.0182496296837439,-0.714735692511745,-0.00042787007935114,0
0.23,0.000969837498787791,0.000555949919466259,-0.0482891056734697,-0.0278192116838057,0.00105554012202334,0.000368103433573291,-0.0526605082072213,-0.0182377942967097,-0.71473839877771,-0.000398542992357911,0
0.24,0.000969390412529471,0.000555948605750989,-0.0482747076102969,-0.0278191646328654,0.00105524701987493,0.00036776398842954,-0.0526510814547387,-0.018226819178798,-0.714740898381765,-0.000371455450282786,0
0.25,0.000968977817708036,0.000555947392173401,-0.0482614245901558,-0.027819097276336,0.00105497652803022,0.000367450730547562,-0.0526423666600393,-0.0182167096142942,-0.714743207105567,-0.00034643642714661,0
0.26,0.000977459788937194,0.000560983784262841,-0.0486838451135939,-0.02807112098707,0.00106434037257253,0.00037055366211544,-0.0531096128894014,-0.0183704552815943,-0.714745279452921,-0.000343284311171931,0
0.27,0.000954007698728095,0.00054762883224187,-0.0475396028773055,-0.027402838913154,0.00103888359519211,0.000361592177426147,-0.0518549594094658,-0.017944152442365,-0.714747420379035,-0.000269774634991313,0
0.28,0.000953235779738456,0.000547354572736378,-0.0474442193386126,-0.0273891167227898,0.0010381711785054,0.000361187048756881,-0.0517821111904351,-0.0178810129513516,-0.714749238042574,-0.000249102330204775,0
0.29,0.000965828283987983,0.000554974646181519,-0.0481298179244282,-0.0277704135632329,0.00105218035499555,0.000365701562229237,-0.0525194777360842,-0.0181488209325168,-0.714750817121063,-0.000260066956642081,0
0.3,0.000955572595231451,0.000549592720207201,-0.0476297142271222,-0.0275011118142972,0.00104139411310963,0.000361482287315328,-0.0519883216722475,-0.0179475691413274,-0.714751844670483,-0.000226967222756158,0
0.31,0.000965736520911367,0.000555225943729806,-0.0481326198831829,-0.0277830067529244,0.00105231089128993,0.000365464997619807,-0.0525308693127382,-0.0181425557819189,-0.714753242432277,-0.000234530289638194,0
0.32,0.000966764594869321,0.000555860630067141,-0.0481871441602039,-0.0278147545861428,0.00105346456932945,0.000365824032998101,-0.0525906085733702,-0.0181628556368811,-0.714754599354545,-0.000222596589227942,0
0.33,0.000966694028498496,0.000555931626988296,-0.0481874733781791,-0.0278183172294694,0.00105347239988397,0.000365722875006778,-0.0525935379613085,-0.0181607028708835,-0.714755860696862,-0.000209265838244197,0
0.34,0.000966504686554911,0.000555939095202416,-0.0481816865503092,-0.0278186766650883,0.00105335436557022,0.000365573750755232,-0.0525900377180135,-0.0181560354440855,-0.714757026698939,-0.000196671433673588,0
0.35,0.000966314380085079,0.000555939439711077,-0.0481755830888245,-0.0278186983064211,0.00105323028604068,0.000365428661098354,-0.0525860731974456,-0.0181513549655336,-0.714758103779804,-0.000185004426749524,0
0.36,0.000966136821017552,0.000555939018771431,-0.0481698562949361,-0.0278186820616241,0.00105311395315462,0.000365293787504656,-0.052582325442317,-0.018146988130232,-0.714759098624783,-0.000174224168653012,0
0.37,0.000965972475071272,0.000555938546578526,-0.048164547818551,-0.0278186570278357,0.00105300621390933,0.000365169006948144,-0.0525788438428182,-0.0181429469918858,-0.714760017500978,-0.000164266624744528,0
0.38,0.000965820818400648,0.000555938101006802,-0.0481596497634082,-0.0278186348480623,0.00105290678594513,0.000365053866597592,-0.0525756321238428,-0.0181392176491246,-0.714760866208283,-0.00015506941826658,0
0.39,0.00096568068684662,0.00055593768836927,-0.0481551210299873,-0.0278186126167105,0.00105281491300041,0.00036494747740169,-0.0525726612515179,-0.0181357706829481,-0.714761650104554,-0.000146574541464895,0
0.4,0.00096555138191726,0.000555937307096291,-0.0481509425000138,-0.0278185903366287,0.00105273013791855,0.000364849307607682,-0.0525699187882259,-0.0181325913910876,-0.714762374139332,-0.000138728368184551,0
0.41,0.000965431797661029,0.000555936954902738,-0.048147073448879,-0.0278185651023672,0.00105265173579316,0.000364758518602627,-0.0525673759311713,-0.0181296506794066,-0.714763042883632,-0.000131481361518775,0
0.42,0.000965321261313539,0.000555936629583273,-0.0481434937150074,-0.027818565751111,0.00105257926557227,0.000364674599257643,-0.052565041322404,-0.0181269141971216,-0.714763660559885,-0.000124787766690038,0
0.43,0.000965219372191886,0.000555936329089767,-0.0481401957242822,-0.0278185433440875,0.00105251246453296,0.000364597244173709,-0.052562873108121,-0.0181244080945735,-0.714764231067744,-0.000118605322860383,0
0.44,0.000965125282896543,0.000555936051529058,-0.0481371486415959,-0.0278185209014567,0.0010524507771612,0.000364525810785242,-0.0525608685297043,-0.0181220938053809,-0.714764758009201,-0.000112894996394926,0
0.45,0.000965038146028625,0.00055593579515208,-0.0481343206615377,-0.0278185214339795,0.00105239364794789,0.000364459656725791,-0.0525590241803058,-0.0181199320510466,-0.714765244711062,-0.000107620734430191,0
0.46,0.000964957851942571,0.000555935558343092,-0.0481317161691671,-0.027818496015651,0.00105234100494208,0.000364398696997348,-0.0525573060390202,-0.018117958049483,-0.714765694246469,-0.000102749237251258,0
0.47,0.000964883520759988,0.000555935339608986,-0.0481293002044535,-0.0278184964834908,0.00105229227135565,0.000364342265055154,-0.0525557303932314,-0.018116111271638,-0.714766109453351,-9.82497480486048e-05,0
0.48,0.000964815101042528,0.000555935137570352,-0.0481270785784171,-0.0278184739188409,0.00105224741339839,0.000364290320186348,-0.0525542641539179,-0.0181144280314502,-0.714766492953199,-9.4093858730331e-05,0
0.49,0.000964751712900141,0.000555934950954539,-0.0481250150056343,-0.0278184743310948,0.00105220585428486,0.000364242196134997,-0.052552918330732,-0.0181128506405181,-0.714766847167429,-9.02553305673572e-05,0
0.5,0.000964693097785922,0.000555934778583717,-0.0481231036853174,-0.0278184747183353,0.00105216742448584,0.000364197696046472,-0.0525516717902457,-0.0181113896764651,-0.714767174332359,-8.67099285308397e-05,0
0.51,4.72054353248987,-0.0329288346861719,3.97370529513424,1.65553200035963,-0.337943041923727,4.70854649023465,1.39525510965631,4.07239280469979,0.0646738727909399,19.9244095356002,4200.15265744143
0.52,4.68806082016255,0.00661043779081938,5.59879241149794,-0.314014216376013,-1.34890838309163,4.48981114585637,-1.91912031431879,5.26897130513178,0.293268331964526,42.4900796285339,4200.15265744143
0.53,4.65565973039448,0.0294449531677019,7.21983373281225,-1.44674334484985,-2.94032939310379,3.60977805280792,-5.71089300468967,4.64809278353043,0.689872054643096,65.9869920271463,4200.15265744143
0.54,4.61814182835371,0.0392635487991093,9.09691445298167,-1.93498588024157,-4.39366051876527,1.42285727284846,-9.25840717627612,0.883130499914879,1.26611284829581,91.2101169290403,4200.15265744143
0.55,4.68354015394556,-0.020418122613858,5.82815866702264,1.06468575026578,-4.21000637261669,-2.05226986916398,-5.71228209338369,-1.57188500864986,2.02001372855566,114.153121742416,4200.15265744143
0.56,4.66215058765098,0.0675020660326134,6.89889145716929,-3.33062753061707,-0.992106609338233,-4.5558675470826,1.89408867703373,-7.42295164803331,2.94165328938553,137.96238739891,4200.15265744143
0.57,4.60124957681445,0.00890921788593246,9.94519569039941,-0.385486508716794,3.59650818081721,-2.86996619276489,8.02537503823223,-5.8863293030938,-2.24237226736122,161.3246592806,4200.15265744143
0.58,4.63301984101602,0.0579745277532366,8.35810865059844,-2.83996996033088,3.86134777268565,2.5609036044904,5.30793373775312,7.05331475452588,-0.972674493905163,185.407143942545,4200.15265744143
0.59,4.69863739079366,0.0633453888987767,5.0786382661295,-3.09416728751401,-2.07053017692926,4.21830662172444,-5.0580090256259,3.1277759731163,0.469776789821849,208.604414208337,4200.15265744143
0.6,4.61925471294632,0.0252231805889142,9.04932628381443,-1.17056695352389,-4.0335468842971,-2.25136621723187,-7.30149649709554,-5.4725389068072,2.08534352783685,231.809783645754,4200.15265744143
0.61,4.58234170985492,0.0379858336370837,10.8966289889297,-1.80190135420767,3.03119816580702,-3.4367333543703,8.61676067855844,-6.90903808218826,-2.41052246347934,255.249592644855,4200.15265744143
0.62,4.61189665285969,0.0969636055926084,9.42056723735406,-4.74342319840343,2.10028530252253,4.10704204087026,-0.155718964533454,10.5462269232529,-0.451693580240653,278.681258772236,4200.15265744143
0.63,4.58601730944685,0.100402263216085,10.7162251770918,-4.90618568151949,-4.57018497191485,-0.393757158015851,-10.1259443130966,-6.03103571169573,1.678631530735,302.154672253396,4200.15265744143
0.64,4.57653570702532,0.0239949907657471,11.1921167388287,-1.09790477127102,3.38837360878998,-3.07639060012137,9.05937157322303,-6.66308177051938,-2.30272991045846,325.798443916156,4200.15265744143
0.65,4.61035966183474,0.0302494162990019,9.50273961426232,-1.39666421428167,-0.752032636612396,4.54871170246359,-2.98794852017602,9.1282470795166,0.170407689158274,349.140672649516,4200.15265744143
0.66,4.58236772249601,0.0853465801986037,10.9042308356361,-4.12886209856144,-1.55439048802867,-4.31152504267931,0.403019759108362,-11.6527819605252,2.81419975895166,372.146972152729,4200.15265744143
0.67,4.52186796556269,0.0849722822925489,13.931203021804,-4.12927049322009,2.82012241577604,3.53573468274665,5.20469559092885,13.5661503841976,-0.654490145113276,395.741639970582,4200.15265744143
0.68,4.53620958095207,0.00165094652164521,13.216122521299,0.0755415843761818,-3.29003218874805,-3.12296146068879,-9.63413273604708,-9.04738014306809,2.33051242090199,418.675252398056,4200.15265744143
0.69,4.52933994876613,0.126454055692858,13.5616664949311,-6.182946611759,3.32889319156764,3.07398456710904,5.38301923282904,13.8985873693189,-0.797277101392794,442.135362090963,4200.15265744143
0.7,4.49652766835183,0.0729574845439711,15.2045006081637,-3.50936747613544,-2.64957895845171,-3.63370543794272,-5.88882217265352,-14.4504073383788,2.52778224158828,465.291875557611,4200.15265744143
0.71,4.49994913551468,0.134835377738071,15.0355977932604,-6.56297292325576,1.28920283753014,4.31343005565331,-2.46932471896969,16.2186389695427,-0.260475196545086,488.267775156855,4200.15265744143
0.72,4.59111904639014,0.0663770294385366,10.4792545209396,-3.12528975349223,1.12857598013884,-4.45074109168541,5.74027835850861,-9.30759989066753,-2.87879979901631,511.400172305139,4200.15265744143
0.73,4.48760029263347,0.0926551607255721,15.6575139097901,-4.43648016289284,-3.61110130105092,2.66591236892765,-15.3466957905668,5.41470464409752,0.955498705006401,534.488490570526,4200.15265744143
0.74,4.45542156842604,0.0945669242769887,17.2687859935599,-4.52425092552152,4.34368263760209,0.996064957398518,15.6416349728923,8.60343370423949,-1.32415812103164,557.595131101018,4200.15265744143
0.75,4.50767998676382,0.118778946204461,14.6582359326468,-5.76764433885785,-1.41599045635183,-4.28115151900199,1.28691566419091,-15.699472919495,2.84851323831037,580.797217657033,4200.15265744143
0.76,4.51599804665299,0.10552248518669,14.2447600726511,-5.0915247871297,-3.49208073459128,2.86543984326142,-14.3570064168195,4.76583475718099,0.907009792533646,603.878685207343,4200.15265744143
0.77,4.43198644626255,0.0982425600693198,18.4477855744219,-4.6955562029392,3.43887285021063,2.79755410681333,11.0058141344349,15.5319379310208,-0.865709200689703,626.738006535445,4200.15265744143
0.78,4.44338993325174,0.0783244718260612,17.880133248913,-3.72734974535707,2.70403405701713,-3.52676177821826,14.0452365004603,-11.6757711852038,-2.46985182227669,649.848493438163,4200.15265744143
0.79,4.46086961660022,0.0668711456872511,17.0086592602252,-3.11394554077478,-3.13341949292773,-3.17576947648488,-9.51396556215504,-14.4386843563908,2.37789630326767,672.744562899448,4200.15265744143
0.8,4.45351972401041,0.146669612431502,17.3787878221884,-7.13378288825572,-3.92518720881361,2.10908873287175,-18.7391556816273,1.32558243996672,1.11066043771914,695.806823323146,4200.15265744143
0.81,4.42912904990241,0.0752824089547925,18.6010174823957,-3.50396857716797,-2.88392146744543,3.36241706981672,-14.9685950103517,11.5851979088079,0.72593878406159,718.537168723428,4200.15265744143
0.82,4.44618842338358,0.0970343223539238,17.7507179969019,-4.59548682492356,1.00221483925352,4.33284809010481,-0.876861768293762,18.3149556920809,-0.205487958740348,741.460383350277,4200.15265744143
0.83,4.43522571087453,0.169849936634571,18.3015756251128,-8.24698984545544,3.75216567481721,2.37093417371734,10.4172762110284,17.1592793617888,-0.968984926461044,764.403555684135,4200.15265744143
0.84,4.40434101846786,0.106403459260901,19.8485867481933,-5.07252860177428,4.40489786597014,-0.0801017694740061,19.8179431119335,5.19096071344589,-1.56482495696873,787.283562686268,4200.15265744143
0.85,4.38887745704803,0.078979845166458,20.6246166273307,-3.68990551569489,3.97046095967638,-1.87187684333469,20.3237616398157,-5.09263453892732,-1.99335131003008,810.08751569348,4200.15265744143
0.86,4.41622538128573,0.205883951338642,19.2601175817279,-10.017336120976,3.29324454332295,-2.94957203634776,21.2583248458709,-4.40258753121642,-2.25461296654495,832.836990695153,4200.15265744143
0.87,4.33279272673718,0.143899699811728,23.4347118733095,-6.8979407908243,2.98501485809599,-3.14380123948997,21.53318057129,-11.5364397550964,-2.34889729780001,855.575756903845,4200.15265744143
0.88,4.35919614103062,0.186201500407419,22.1175158443638,-9.0704660446134,3.19791065902576,-2.96827044111881,22.7193223190476,-7.43574170849118,-2.27628111511739,878.468474754579,4200.15265744143
0.89,4.4360022373336,0.166123847031865,18.2801974052138,-8.01824196142479,3.8880379763728,-2.14216565103269,19.9335981581531,-1.0533213160346,-2.03694719154642,901.148165626422,4200.15265744143
0.9,4.30686644659648,0.131434713354102,24.7400399273064,-6.27772767626322,4.29117537775989,-0.390112227442685,25.0726909706609,4.77908023282463,-1.63094944417376,923.863865746022,4200.15265744143
0.91,4.41982037461113,0.187808575455859,19.0954569014269,-9.08720828761097,3.94441758890229,2.00291140323297,12.1891918961016,17.2811292934428,-1.05847426733391,946.543407989369,4200.15265744143
0.92,4.33591802411158,0.219508763208932,23.293663821013,-10.71405774977,1.57098576523934,4.04726734159686,-2.85103209145483,25.480530286579,-0.3196751807766,969.320953005869,4200.15265744143
0.93,4.34561856648219,0.228881766362148,22.8117223242041,-11.1045626345201,-2.21069216092079,3.74828330812536,-21.8610378542319,12.8755974865794,0.585497692851183,991.914882623727,4200.15265744143
0.94,4.36214652551579,0.232880768384558,21.9885677608466,-11.3031363973616,-3.20470313819766,-2.96857433095062,-7.19931865855158,-23.6522264373427,2.3712990785688,1014.51700428543,4200.15265744143
0.95,4.40063391523567,0.131072227795324,20.0674852687829,-6.20938010683517,1.8627934078883,-3.98908003233196,14.5738511804163,-15.1282262045177,-2.6749377718769,1037.13603041701,4200.15265744143
0.96,4.3321573854842,0.151076380165667,23.4946259345783,-7.21115024531407,4.18507971012864,1.12938899636876,20.3357696185851,13.8005293263007,-1.27235511325978,1059.72480005404,4200.15265744143
0.97,4.35964193064062,0.235017069523866,22.1237307522524,-11.3931145745163,-1.04580006344945,4.23886930839541,-17.3464411206082,17.8427436947204,0.295741464322115,1082.28387665286,4200.15265744143
0.98,4.25970530468125,0.228098504828043,27.1239396400218,-11.036321168602,-3.92082755597298,-1.68054440195947,-19.4393376118525,-21.9002429151938,2.02922585621865,1104.83329058753,4200.15265744143
