t,iq,id,vq,vd,ia,ib,va,vb,theta_e,omega,r
0,0,0,0,0,0,0,0,0,0,0,0
0.01,0.000644062349544709,0.000365980141482232,-0.0317112439783152,-0.0183219001109756,-0.000556841208845283,-0.000488554646065442,0.0277024921878878,0.0239555201343827,2.80770286139241,-0.00133150312486714,0
0.02,0.000713874607339916,0.000405681343895427,-0.0352205028886738,-0.0203094351044296,-0.000617234163814736,-0.000541494501181169,0.0307305843120368,0.0266193194096489,2.80769297057499,-0.00140779301284049,0
0.03,0.000740864213965245,0.000421142840298366,-0.0365608614820972,-0.0210834857847278,-0.000640692663147443,-0.000561919911426844,0.031901437134418,0.0276316534776096,2.80768297021047,-0.00139093544329218,0
0.04,0.000724580107285937,0.00041229870577751,-0.0357821136387658,-0.0206407248926198,-0.000627005127492919,-0.000549427997792157,0.0312281536369488,0.027040739652929,2.80767375576384,-0.00128667745000532,0
0.05,0.000740248867840408,0.000421387724073788,-0.0365665403323908,-0.021095741407971,-0.000640732576024125,-0.000561246618128414,0.031915380583689,0.0276324204446631,2.80766474746774,-0.0012528568883984,0
0.06,0.000740381805605765,0.000421728212757973,-0.0365899074483543,-0.021112795493276,-0.000641102650026209,-0.000561255107448884,0.0319393889022239,0.0276486328264622,2.80765615616522,-0.00118867053113709,0
0.07,0.000759943836469898,0.0004331638365319,-0.0375628980030428,-0.0216852944732038,-0.000658322932888414,-0.000575983037858597,0.0327994026159014,0.0283799663639082,2.80764812071585,-0.00117054459471689,0
0.08,0.000740262171606406,0.000422168182922973,-0.0366150499377868,-0.0211348208616573,-0.000641487976536148,-0.000560987730118472,0.0319688759270133,0.0276646616961819,2.80764034073753,-0.00106972628680602,0
0.09,0.000739062603582255,0.000421751817346183,-0.0365706130606114,-0.0211139684161517,-0.000640705490540928,-0.000559986251473461,0.0319348108517478,0.027629282614109,2.80763307093382,-0.00101258370161215,0
0.1,0.000738621930228152,0.000421734387817479,-0.0365625274819237,-0.0211130982183854,-0.000640548421909802,-0.000559571236636237,0.0319315281704165,0.0276217095949456,2.80762620019001,-0.000960072460987428,0
0.11,0.000738232945691499,0.000421732091972732,-0.0365562358331463,-0.0211129817844075,-0.000640422379523212,-0.000559200335577396,0.0319295352231466,0.0276155962917909,2.80761970346901,-0.000910479364992048,0
0.12,0.000737866312910149,0.000421730455479676,-0.0365503428807432,-0.0211128945059774,-0.000640304084710326,-0.000558850563129344,0.0319276906759748,0.0276098614125406,2.80761356028557,-0.000863587390527832,0
0.13,0.000772932042786313,0.000441851649250914,-0.0382781878266387,-0.0221202229433739,-0.000670811770837967,-0.000585378843841154,0.033445931590431,0.028911824335455,2.8076074727059,-0.000893505603970647,0
0.14,0.000809550298843137,0.000463281306923768,-0.0401599126790621,-0.0231930533049398,-0.00070306467246892,-0.000612944795253355,0.0350765046433102,0.0303376849809525,2.80760172948661,-0.000929355174445341,0
0.15,0.000739716972204092,0.0004232924784779,-0.0366748707195997,-0.0211910937222258,-0.000642396156164477,-0.000560075798305781,0.0320428697314582,0.0277013193695952,2.80759623737903,-0.000737578188903116,0
0.16,0.000736655849247056,0.000421783677101307,-0.0365346382767671,-0.0211155712605811,-0.000639969951501762,-0.000557675328191801,0.0319256841244561,0.0275934382935572,2.80759135811919,-0.000694362453814186,0
0.17,0.000736271026496429,0.000421725633556533,-0.036524823219294,-0.0211126572232527,-0.000639791525117576,-0.000557327855794496,0.0319198404181103,0.0275849740603397,2.80758675688591,-0.000659002563409108,0
0.18,0.000736006902029696,0.000421722346427602,-0.0365204208119008,-0.0211124975738056,-0.000639704255162597,-0.000557076622412591,0.0319183663355872,0.0275807284267388,2.80758240653635,-0.00062578618721323,0
0.19,0.000735761171274328,0.000421721183244921,-0.0365164530396927,-0.0211124412308037,-0.000639624887928433,-0.000556842222083605,0.0319171257750213,0.0275768671096935,2.80757829293951,-0.000594386085451578,0
0.2,0.000735528944698827,0.000421720156543242,-0.0365127058376972,-0.0211123892550549,-0.000639549950352981,-0.000556620678674559,0.0319159554490311,0.0275732198958088,2.80757440319298,-0.000564695029939127,0
0.21,0.000735309407390451,0.000421719188341116,-0.0365091634683932,-0.0211123358256356,-0.000639479108674817,-0.000556411239983923,0.0319148450396583,0.0275697734352474,2.80757072511461,-0.000536619685180146,0
0.22,0.00073510171771303,0.000421718272808891,-0.0365058071278727,-0.0211123013776219,-0.000639412088128874,-0.000556213105347433,0.0319138080095474,0.0275665028947584,2.80756724718627,-0.000510072115800348,0
0.23,0.000734905521675622,0.000421717406993054,-0.0365026412777223,-0.0211122493984083,-0.000639348776160067,-0.000556025934262862,0.0319128116308614,0.0275634241110176,2.80756395851611,-0.000484969184393143,0
0.24,0.000734719892700029,0.000421716588195827,-0.0364996404976422,-0.0211122149352475,-0.000639288872374501,-0.000555848845592765,0.0319118809669803,0.0275605012486799,2.80756084880549,-0.000461232278143533,0
0.25,0.00073454453500114,0.000421715813868839,-0.0364968097682776,-0.0211121614941849,-0.00063923228298891,-0.000555681554446325,0.0319109834453561,0.027557750665985,2.8075579083159,-0.00043878706212663,0
0.26,0.000741923231540095,0.000425987599883801,-0.0368632546857752,-0.0213260205022598,-0.000645688658148384,-0.000561250098879455,0.0322332400392708,0.0278337373175411,2.80755516045595,-0.000434074539354957,0
0.27,0.000717082071557641,0.000411856227289639,-0.035653031822678,-0.0206185691244913,-0.000624195445437444,-0.00054241339880372,0.031168182371626,0.026922267336526,2.80755241355378,-0.000359902530359446,0
0.28,0.000714237178140465,0.000410198443442648,-0.03544513172635,-0.0205355747624008,-0.00062169790976596,-0.000540267728661876,0.0310216796220766,0.0267529921194937,2.80754991656438,-0.000335030342229464,0
0.29,0.000733142474139248,0.000421278989849965,-0.0364482234020332,-0.0210903070041496,-0.000638365609744055,-0.000554493663599617,0.031874689519725,0.0275186883174859,2.80754766055582,-0.000358860555216094,0
0.3,0.000729155525381217,0.000419156645018067,-0.0362566565660711,-0.0209840454710079,-0.000635054384300298,-0.000551421800655115,0.0317115425773989,0.0273724930731779,2.80754585852001,-0.000336741114939957,0
0.31,0.000733513531388547,0.000421615724765417,-0.0364740184268211,-0.0211071633650293,-0.000638807555337937,-0.000554731310944978,0.0318991790191917,0.027537406258028,2.80754375485157,-0.000330350248607493,0
0.32,0.000733572321935845,0.000421707923347321,-0.0364808147539878,-0.021111771523783,-0.000638915047876058,-0.000554755338614953,0.0319058161127424,0.0275422519080603,2.80754174540389,-0.000315397031156982,0
0.33,0.000733465887065198,0.000421710918276017,-0.0364793122089701,-0.0211119290536198,-0.000638884034507504,-0.000554652590846698,0.0319055246435532,0.0275407201217435,2.80753984449715,-0.000300902461875211,0
0.34,0.000733359013055888,0.0004217105763728,-0.0364775850960913,-0.0211119003138862,-0.000638849667047516,-0.000554550588466249,0.0319049807176646,0.0275390405553915,2.80753804700007,-0.000287182494146708,0
0.35,0.000733257583831089,0.000421710133392893,-0.0364759319317006,-0.0211118832282632,-0.000638816934725418,-0.000554453825633911,0.031904469348273,0.0275374301512502,2.80753634731585,-0.000274208561535132,0
0.36,0.000733161509710923,0.000421709709981895,-0.0364743587765645,-0.0211118661305747,-0.000638785925117896,-0.000554362174652896,0.0319039816486427,0.027535898290049,2.80753474012339,-0.000261940608430551,0
0.37,0.000733070790695388,0.000421709309418462,-0.0364728758573124,-0.0211118490204206,-0.000638756644161936,-0.00055427563121604,0.0319035211108869,0.0275344544723724,2.8075332203895,-0.000250340239146913,0
0.38,0.000732984961121331,0.000421708930625489,-0.0364714695023418,-0.0211118304437215,-0.000638728940840641,-0.000554193752700196,0.0319030820104397,0.0275330861070795,2.80753178335494,-0.000239371126663742,0
0.39,0.000732903904577152,0.000421708572426609,-0.0364701430814518,-0.0211118133107896,-0.000638702778407034,-0.000554116426626805,0.0319026683261769,0.0275317952796607,2.8075304245196,-0.000228998919938774,0
0.4,0.000732827213607371,0.000421708233703258,-0.0364688848198177,-0.0211117961676052,-0.000638678024600369,-0.000554043265701547,0.0319022749414483,0.0275305712070033,2.80752913962773,-0.000219191137177383,0
0.41,0.000732754713589004,0.000421707913397553,-0.0364676941744364,-0.021111779014217,-0.000638654623425842,-0.000553974102721253,0.0319019017895395,0.0275294132475782,2.8075279246559,-0.000209917064144051,0
0.42,0.000732686171691409,0.000421707610508645,-0.0364665672134942,-0.021111761851293,-0.000638632499732231,-0.000553908715615205,0.0319015476871056,0.0275283175651788,2.80752677579936,-0.000201147657978548,0
0.43,0.000732621355083942,0.000421707324090414,-0.0364654995953398,-0.0211117446791599,-0.000638611578302041,-0.0005538468824279,0.0319012113103524,0.0275272799431402,2.80752568945997,-0.000192855456243012,0
0.44,0.000732560089141668,0.00042170705324764,-0.0364644895240056,-0.021111726042985,-0.000638591802938903,-0.000553788436301534,0.0319008907900143,0.0275262990531591,2.80752466223592,-0.000185014490924128,0
0.45,0.000732501939688547,0.000421706797133775,-0.0364635217934438,-0.0211117263179505,-0.000638573032283071,-0.000553732965279398,0.0319006004778281,0.0275253537463007,2.80752369091054,-0.000177600207107721,0
0.46,0.000732447193006058,0.000421706554948615,-0.0364626169241815,-0.0211117091192689,-0.00063855536114992,-0.000553680738129636,0.0319003128129969,0.0275244752416677,2.80752277244152,-0.000170589386083761,0
0.47,0.000732395473121766,0.000421706325934659,-0.0364617619029907,-0.021111691912914,-0.00063853866715494,-0.000553631398071457,0.0319000401084402,0.0275236454267251,2.80752190395308,-0.00016396007263253,0
0.48,0.000732346287648408,0.000421706109376552,-0.0364609376903518,-0.0211116921601678,-0.000638522789693098,-0.000553584478431663,0.0318997926923014,0.0275228405022738,2.80752108272497,-0.000157691506272095,0
0.49,0.000732300039284068,0.000421705904596312,-0.0364601696144567,-0.0211116749387348,-0.000638507861601691,-0.000553540358221221,0.0318995459488463,0.0275220957648795,2.80752030618575,-0.000151764056242134,0
0.5,0.000732256092500181,0.00042170571095473,-0.0364594308297862,-0.0211116751692025,-0.000638493675249575,-0.000553498435699468,0.0318993241327605,0.0275213743253307,2.80751957190338,-0.000146159160029756,0
0.51,2.57882935512809,0.0419879229307136,2.68043175347014,-2.09982212354226,-0.0958147271024869,2.57739080595331,-2.2399942448075,2.56444791695168,0.0534383137717596,16.3554708257935,380.436956784952
0.52,2.44540315964702,0.0162237539867475,4.83822985332368,-0.807520724609187,-0.562671215493426,2.3798447274266,-1.92903751423877,4.50991930115444,0.238802781634897,34.1349519544723,380.436956784952
0.53,2.33180796878854,-0.016834622813186,6.07045224366877,0.850137469646531,-1.23889791386319,1.97553632385143,-2.46448679153177,5.61243521248358,0.552902770227576,51.4939701536841,380.436956784952
0.54,2.29708582706248,-0.0148210263100856,3.31019589009746,0.752188139103116,-1.93318328416825,1.2408164044389,-2.36376837314182,2.43634622038002,0.993718804777248,68.8025288817135,380.436956784952
0.55,2.15779719481367,-0.000739469361232592,5.49567178410431,0.0448327262647817,-2.15774238103289,0.0153979821798314,-5.49518280582886,0.0859317314349833,1.56331759740705,86.6804602866014,380.436956784952
0.56,2.11918359695338,0.0185463232177896,2.95268676507248,-0.919287907304882,-1.646478595474,-1.33431305110424,-1.6925937164388,-2.58816071761841,2.26060054410295,103.160933646137,380.436956784952
0.57,2.00370875130376,-0.0202557868167766,4.85019782195014,1.02710092707999,-0.120458397826469,-2.00018719907511,-1.36506008427023,-4.7661269593655,3.0713329384648,117.852622336682,380.436956784952
0.58,1.96228812705083,0.000678590380647603,3.10691842705325,-0.0169616679754173,1.46897441394646,-1.30103394468407,2.33780147379151,-2.04643936623634,-2.29529465070457,132.369745452059,380.436956784952
0.59,1.85034127596236,-0.0331626478757672,4.55845359899878,1.67078925263081,1.75681303952985,0.581782212586508,4.84906645782094,-0.239980058687095,-1.26892562536498,147.40446065642,380.436956784952
0.6,1.77456038673951,0.00678898996708055,4.82664122501843,-0.323344764334824,0.254048579517032,1.75629438757152,0.352514688157659,4.8245985062286,-0.139828232562969,160.467766064681,380.436956784952
0.61,1.67456499146939,-0.00749956191047174,6.20038944309859,0.386964784739938,-1.48412032882396,0.775635870531513,-5.30149140178615,3.23863550087143,1.08473582535188,173.886363205571,380.436956784952
0.62,1.65318694202415,0.00481548043495599,3.7724535190063,-0.225511308380826,-1.11213651913651,-1.22319361383794,-2.36236713281354,-2.9498275259874,2.40662673010679,186.390693207104,380.436956784952
0.63,1.53656401302841,-0.0333344765348591,6.35952429559568,1.68787281391363,0.985600865875821,-1.17929262129662,2.65315837024754,-6.02106423853839,-2.46711708318378,198.36198714991,380.436956784952
0.64,1.49944655429684,0.0130772876358051,4.90993608693189,-0.639025726485855,1.24331819418854,0.838254646658355,3.68516078491848,3.30687408985673,-0.968870003367228,210.007342113623,380.436956784952
0.65,1.42575147404469,-0.0107952837190292,5.53661852731328,0.552451506855101,-0.826114536543522,1.1620751165061,-2.72101922389808,4.85339074952679,0.610429835957161,221.117670513696,380.436956784952
0.66,1.39975776159801,0.0289450946918723,3.83919610127254,-1.4303473488731,-1.08913130066717,-0.879745769849244,-2.01448030930661,-3.56751865108937,2.27092072383339,231.590841551848,380.436956784952
0.67,1.3107709373793,-0.0255024856971882,5.35073440691402,1.28646074473692,1.01388081431093,-0.831153729118241,3.23645469471434,-4.45092135968994,-2.27693282143451,241.967276290774,380.436956784952
0.68,1.27608696718554,0.065107396243053,4.39905629341828,-3.23712727494382,0.634118789980902,1.10929269404405,-0.902842476851324,5.38660976207124,-0.468330403765131,251.40594460639,380.436956784952
0.69,1.23104173304657,-0.025090220322724,3.86249056340117,1.27109483752461,-1.21928993293744,0.17153812140617,-3.61037060117132,1.87075908671925,1.41064828292577,260.972721166134,380.436956784952
0.7,1.16133488288418,0.00571770464303689,4.76960846733054,-0.278139488756675,0.24147652253137,-1.13596676510193,1.28646294531968,-4.60125413307681,-2.92721351000015,269.946341505413,380.436956784952
0.71,1.09135227948993,0.0498235893816483,5.84346784537076,-2.47225982513758,0.89706410988593,0.623544842622646,3.13892033993516,5.51410592956035,-0.917748451531195,278.231793708577,380.436956784952
0.72,1.04429568422708,0.0385408401699828,5.74917121695623,-1.91390837667963,-0.938794352396368,0.459025093393594,-6.03117190900363,0.583935236347257,1.15291567830011,286.455285913724,380.436956784952
0.73,1.04129120419567,0.0137340758172356,3.57430126902689,-0.67913454594531,0.131492619299187,-1.03304679847704,1.17054977774833,-3.44480282615376,-3.00179854920604,294.313715093736,380.436956784952
0.74,0.942434041447059,-0.0319490175374813,6.32467216260651,1.60995036054652,0.665643928828911,0.667922766652746,5.71498013607897,3.15157423712283,-0.817576892324817,301.718339126923,380.436956784952
0.75,0.904916764042473,0.0572388337498562,6.06968880663781,-2.84470615347851,-0.886123169817896,0.192188349922746,-6.42742079921847,-1.90308622475091,1.4203864975566,308.701317970129,380.436956784952
0.76,0.877172199410707,0.0183796036613241,5.35429366653861,-0.90466082546781,0.456070495078712,-0.749512228564967,3.64128044638411,-4.02839280451302,-2.57400389818033,315.567149191228,380.436956784952
0.77,0.827064291115268,-0.0166158680893167,5.84302792074815,0.840205826789328,0.177786144650441,0.807900684168973,2.18691420597664,5.48309468910676,-0.236694442602762,322.125817355241,380.436956784952
0.78,0.76680697518354,0.00477898994116993,6.95067485917422,-0.236122852449549,-0.645672747586681,-0.41366952868063,-5.70045004998819,-3.98403115286453,2.14682392339088,328.286188455726,380.436956784952
0.79,0.730402510916605,0.0162065266379287,6.95381888861065,-0.806583956211276,0.72124735529447,-0.116416201362523,6.99868970745247,-0.156579669224758,-1.70864079232943,334.120208445527,380.436956784952
0.8,0.681515199960917,-0.00126347006320271,7.62688358854674,0.0828505415021748,-0.471093077382822,0.492479315886822,-5.20182365472397,5.57828362048981,0.761353155857743,339.708726729898,380.436956784952
0.81,0.680109029265647,0.0412228438290261,5.96069145378273,-2.0455925674372,0.0474969502149081,-0.67969967946314,2.80275652899073,-5.6443642156006,-3.01128869843887,345.087447623491,380.436956784952
0.82,0.720819621929955,-0.0079338262283597,2.25865695158975,0.412926744565295,0.314430999009172,0.64867327663467,1.37707570883409,1.83730841544937,-0.462362885767542,350.229055244514,380.436956784952
0.83,0.605685129676103,-0.0507770519900892,6.40339851429836,2.55179123269528,-0.488942141804383,-0.361065599700808,-6.78996680687321,-1.18806640796671,2.12323416932379,355.139547268567,380.436956784952
0.84,0.571869507876458,0.0143778910789553,6.55935959806498,-0.71451269618737,0.572039729833299,0.00346486406465837,6.53388401065814,0.91874178364003,-1.5396027535219,359.783132121486,380.436956784952
0.85,0.585803346433807,0.00676359660657233,4.38840332228066,-0.335983778991764,-0.522706261292074,0.264555233057608,-4.08633685308402,1.63487612432163,1.11380526579151,364.192498664333,380.436956784952
0.86,0.561946474216285,-0.0159265113175124,4.1641441070014,0.797433618403957,0.355831627564301,-0.43522562708531,1.91192722715006,-3.78424771886271,-2.48455804031445,368.381484663283,380.436956784952
0.87,0.495425346660272,-0.0458117967997516,6.13878979549764,2.29125474942695,-0.157635610761772,0.4719067800522,0.830249801697015,6.49963643189829,0.230178758984355,372.338774218442,380.436956784952
0.88,0.460088530694467,0.0292615362354318,6.58967928868683,-1.46843034547525,-0.105910141344691,-0.448687792947166,0.343955554239452,-6.74254072171378,2.97330564244891,376.121204947673,380.436956784952
0.89,0.426977730461956,-0.0304516950607302,6.98822133219426,1.52069400044688,0.193300492512599,0.381932202932538,4.89576933985151,5.21336649408997,-0.539723902555006,379.694573679885,380.436956784952
0.9,0.415312978599116,0.0413682729288192,6.3591770331965,-2.0727938004157,-0.347749584626417,-0.230795213533855,-3.61206488227627,-5.62926229312528,2.25600991117485,383.082722913575,380.436956784952
0.91,0.394133571902734,-0.031362629230723,6.25993955645973,1.5752891349225,0.357234123390878,0.169436324612589,6.41101558439463,0.753165510218918,-1.20732515950147,386.26607501121,380.436956784952
0.92,0.344797323591191,0.0376549928842681,7.60651502018141,-1.87565375965605,-0.346508086976805,0.0153374869009846,-7.46969861052092,-2.36236120149715,1.6353401807245,389.292486425736,380.436956784952
0.93,0.416459954986454,0.0130032117907202,2.94288897490925,-0.636239992290895,0.404328513404312,-0.100630168798688,3.01087968269207,0.000618696078146463,-1.78350960588951,392.176120366006,380.436956784952
0.94,0.336172215944481,0.0108242654696879,5.92228281180386,-0.527449802198982,-0.294915648264311,0.16172100638081,-5.5203236858177,2.20854327569718,1.10139778977377,394.896774341151,380.436956784952
0.95,0.295098285162394,-0.0473544157575128,6.98001061039426,2.38449070504497,0.255167196337765,-0.155612147696269,3.75979191267981,-6.3458891273808,-2.27753601234527,397.451056284968,380.436956784952
0.96,0.309423956008878,-0.0010876366129626,5.2980886238638,0.0684960415443814,-0.1869235151876,0.246584604092585,-3.13097336860727,4.27451056135019,0.64511835500947,399.922394430848,380.436956784952
0.97,0.29923955309761,0.0512212558104156,4.88256792231116,-2.55301181906451,0.0821647497512062,-0.292261665435573,4.40144203574069,-3.31430941076416,-2.6980040742932,402.191871251677,380.436956784952
