t,iq,id,vq,vd,ia,ib,va,vb,theta_e,omega,r
0,0,0,0,0,0,0,0,0,0,0,0
0.01,0.000483912199559921,0.000268254576922709,-0.0222109426185343,-0.0134223168469707,0.000550184026701741,-5.85582759749654e-05,-0.0256850437622234,0.00370986367363612,-1.17065770903271,-0.00364257722120029,0
0.02,0.000570257219680304,0.00031399248902583,-0.0265053864111497,-0.0157108424754071,0.000647523553343518,-6.70658454619804e-05,-0.030531627446969,0.00414557662224477,-1.17068549248802,-0.0038910839773994,0
0.03,0.000601120463148786,0.000331552976172928,-0.0281144346278525,-0.0165895006918712,0.000682787366482618,-7.12362225070095e-05,-0.0323557261927542,0.00432896641115454,-1.17071290806902,-0.00369299177301239,0
0.04,0.000586235183939287,0.000324780472337662,-0.0276546618639387,-0.0162506366345196,0.00066643803763415,-7.08123442243537e-05,-0.0318001754174202,0.00419670790707227,-1.17073698586667,-0.00317644337718755,0
0.05,0.000598410850028517,0.000332958740807924,-0.0283823849730985,-0.0166598382446438,0.000680835898965192,-7.36175739379494e-05,-0.0326297155054759,0.00429088022794499,-1.17075876466442,-0.00291838993925455,0
0.06,0.00059805219247895,0.000334026820100796,-0.0285319477594841,-0.0167132823722037,0.000680920065687804,-7.47543016771917e-05,-0.0327882001169979,0.00428249736609888,-1.17077829256145,-0.0025950155416408,0
0.07,0.000607435025372577,0.00034068827352621,-0.0290938266288493,-0.0170465978211004,0.000692155057366032,-7.72475652061435e-05,-0.0334354516278435,0.00437124920657969,-1.17079520853061,-0.002393977102887,0
0.08,0.000595802478539338,0.000335034093368475,-0.0287062331057814,-0.0167636791233152,0.00067923774443206,-7.65801781905863e-05,-0.0329682145155927,0.00426211080648936,-1.17081069092015,-0.00204501166711976,0
0.09,0.000592598901468628,0.000334291419050042,-0.0286768037995222,-0.0167265182628792,0.000675996802932094,-7.7152662286559e-05,-0.0329265807950698,0.00423978377991867,-1.17082407456493,-0.00179925295687756,0
0.1,0.000590825478211491,0.000334192288859557,-0.0286972082333982,-0.0167215568853892,0.000674323839518518,-7.77598295653378e-05,-0.0329433931980069,0.00422765533881839,-1.17083581236091,-0.0015921698536351,0
0.11,0.000589420704122713,0.000334177669286369,-0.0287220319282973,-0.016720825731058,0.000673023434693966,-7.83003030065761e-05,-0.0329659294948176,0.00421765619287046,-1.17084613217037,-0.00141136345020031,0
0.12,0.000588208147554706,0.000334174313741419,-0.0287448904953846,-0.0167206584052395,0.000671904551052387,-7.87754472496224e-05,-0.0329868807180994,0.00420890099506306,-1.17085520908899,-0.00125252022648292,0
0.13,0.000612571084505093,0.000348353932793716,-0.029904572502201,-0.0174301438853762,0.000699865185746482,-8.23560431579667e-05,-0.034331255345408,0.00441115390943319,-1.17086382499562,-0.00130989486572545,0
0.14,0.000627895382818442,0.000357821030209656,-0.0308705171362414,-0.017903841469724,0.000717665609592834,-8.51150646640371e-05,-0.0354053767905004,0.00447165092048518,-1.17087164011958,-0.00130667088283746,0
0.15,0.000591307352818009,0.000337267301549082,-0.0290820354106593,-0.0168754155311508,0.000675961590306341,-8.04334919132776e-05,-0.0333575773064856,0.0042209559601685,-1.17087867579409,-0.000892719850183843,0
0.16,0.000585302106954881,0.000334574403140796,-0.0288592045522338,-0.0167406826983454,0.000669381313674754,-8.02947354806208e-05,-0.033099849905844,0.004183787853722,-1.17088398847043,-0.000756548031139404,0
0.17,0.000583910172289577,0.000334220972772426,-0.0288356172657522,-0.0167229996539175,0.000667961239934832,-8.05141595553954e-05,-0.0330712201220204,0.004176833748516,-1.17088853149381,-0.000670642168005858,0
0.18,0.000583264018116815,0.000334174047294194,-0.0288404941584042,-0.0167206470737395,0.000667347478647424,-8.0725160004059e-05,-0.0330747796798405,0.0041728995908732,-1.17089250835757,-0.000600110397680858,0
0.19,0.000582781387607276,0.0003341673432401,-0.0288485805679843,-0.016720317224794,0.000666900035548319,-8.09092183577396e-05,-0.0330820850653537,0.00416956312027149,-1.17089600368004,-0.000538816142225512,0
0.2,0.000582369712660322,0.000334165974248694,-0.0288562614899702,-0.0167202490346865,0.000666520059627869,-8.10702823684892e-05,-0.0330891206040865,0.00416661164589293,-1.17089907786917,-0.000485010599901593,0
0.21,0.000582009493344641,0.000334165362960018,-0.0288630994846538,-0.0167202170435951,0.00066618780366304,-8.12117626708154e-05,-0.0330953953731429,0.00416400947901225,-1.17090178197716,-0.000437697753968775,0
0.22,0.000581692929778752,0.000334164902784203,-0.0288691248536943,-0.0167201878108639,0.000665895843689356,-8.13361676291999e-05,-0.0331009240729583,0.00416171548342775,-1.17090416060244,-0.000396082060128765,0
0.23,0.000581414449176241,0.000334164508055321,-0.0288744208317928,-0.0167201737607033,0.000665639010291412,-8.14456145721562e-05,-0.0331057880407806,0.00415970998490116,-1.17090625292855,-0.00035947570403192,0
0.24,0.000581169437978495,0.000334164162080329,-0.0288790739417706,-0.0167201595796127,0.000665413044777428,-8.15419076249759e-05,-0.0331100608645078,0.00415794632607945,-1.17090809341655,-0.000327275438185454,0
0.25,0.000580953996274762,0.000334163857852809,-0.0288831680240443,-0.0167201467373739,0.000665214349862076,-8.16265791287577e-05,-0.033113820213481,0.00415639421779863,-1.17090971237863,-0.000298950887995763,0
0.26,0.000585883898390952,0.000337057683369389,-0.0291139655867383,-0.0168649397349048,0.000670881808368511,-8.23736821582864e-05,-0.033382773548013,0.00419995412949207,-1.17091100158871,-0.000318015095977172,0
0.27,0.000572947920065402,0.000329632874499798,-0.02855084217337,-0.0164934344404871,0.000656075701226103,-8.0571864313463e-05,-0.0327194389797227,0.00407704320599301,-1.1709126395721,-0.000185600046753496,0
0.28,0.000572536420229974,0.00032949006112601,-0.0283341550789879,-0.0164862856606073,0.000655640979281174,-8.06012354607412e-05,-0.0325170594987192,0.00415485264239751,-1.17091373154894,-0.000164323294845031,0
0.29,0.000579148512624766,0.000333550895852415,-0.0288429520014288,-0.0166894650598908,0.00066331228527599,-8.17680377737627e-05,-0.0330648124757779,0.00414394740358544,-1.17091447816558,-0.000206013970466814,0
0.3,0.000572343337558485,0.000330061383891037,-0.0285369258895791,-0.0165148769143461,0.000655685514517986,-8.12029509004219e-05,-0.0327149620600407,0.00410226231894413,-1.17091418474615,-0.000155311716918348,0
0.31,0.000579076108925961,0.000333625663113481,-0.028843047264604,-0.0166932108346446,0.000663274668959989,-8.18653561206327e-05,-0.03306635684929,0.00414737365009291,-1.17091487355323,-0.000198935539228316,0
0.32,0.000579987216596729,0.000334092377429311,-0.0288902206782497,-0.0167165705932215,0.000664295529515136,-8.19410613684958e-05,-0.0331188995748407,0.0041505510703691,-1.17091564716562,-0.000193674526026958,0
0.33,0.000580044133950031,0.000334153393239448,-0.0288987170491992,-0.0167196165594257,0.00066437165265605,-8.19755737421074e-05,-0.0331279085382493,0.00415007239277643,-1.17091635258711,-0.000182562359657143,0
0.34,0.000579983365864544,0.000334161284957609,-0.0289012747198238,-0.0167200170481866,0.000664318699820121,-8.2006915033976e-05,-0.0331304177516513,0.00414946624560898,-1.17091697680603,-0.000171824051827809,0
0.35,0.000579913618027924,0.000334162230592083,-0.0289028003312813,-0.0167200559948532,0.00066425477758469,-8.20353045001233e-05,-0.0331318358863461,0.00414892639862028,-1.17091752644267,-0.000162235031476517,0
0.36,0.000579849764234573,0.000334162277025563,-0.0289040282415203,-0.0167200621806411,0.000664195939728542,-8.20605271608552e-05,-0.0331329673266441,0.00414847008457847,-1.17091801000545,-0.00015377888941424,0
0.37,0.000579793128180731,0.000334162214997944,-0.0289050840741336,-0.0167200625139633,0.000664143712721745,-8.20828013051845e-05,-0.033133938228198,0.00414807344360352,-1.17091843537736,-0.00014633738804624,0
0.38,0.000579743520101398,0.000334162146958836,-0.0289060207487396,-0.0167200489944557,0.000664097961087709,-8.2102299838964e-05,-0.0331347941919861,0.00414770873595127,-1.17091880955212,-0.000139791095147495,0
0.39,0.000579699631525247,0.000334162085341478,-0.0289068292063466,-0.0167200492718667,0.000664057483922441,-8.21195477147119e-05,-0.0331355376122377,0.00414740516064243,-1.17091913869055,-0.000134032661236224,0
0.4,0.000579661098053878,0.000334162030907213,-0.0289075410918315,-0.0167200495251757,0.000664021945431051,-8.21346911056662e-05,-0.0331361922341579,0.00414713784689955,-1.17091942821291,-0.00012896731701942,0
0.41,0.000579627221195363,0.000334161982992899,-0.0289081652656267,-0.0167200497575309,0.000663990701580056,-8.21480045018122e-05,-0.0331367662005586,0.0041469035060645,-1.17091968288748,-0.000124511649257812,0
0.42,0.000579597360665436,0.000334161940840205,-0.0289087083224462,-0.016720049971813,0.000663963161960715,-8.2159739261767e-05,-0.0331372655695684,0.00414669971231261,-1.17091990690882,-0.000120592277021255,0
0.43,0.00057957110901047,0.000334161903759652,-0.0289091838164245,-0.0167200501698504,0.000663938950694303,-8.21700558284392e-05,-0.0331377028113988,0.00414652131280546,-1.17092010396626,-0.000117144650580835,0
0.44,0.000579548160039606,0.000334161871141484,-0.028909606302487,-0.0167200365361197,0.000663917785243163,-8.21790750001746e-05,-0.0331380859407987,0.00414635002311823,-1.17092027730524,-0.000114111989415675,0
0.45,0.000579527903773691,0.000334161842448443,-0.0289099715320941,-0.016720036707685,0.000663899103307327,-8.21870356479295e-05,-0.0331384217917659,0.00414621304853458,-1.17092042978071,-0.000111444347232561,0
0.46,0.000579509975811571,0.000334161817208782,-0.0289102843768593,-0.0167200354135377,0.00066388256884441,-8.21940808693091e-05,-0.0331387088960902,0.00414609450941723,-1.17092056390369,-0.000109097789396358,0
0.47,0.000579494259743189,0.000334161795006629,-0.0289105593232563,-0.0167200355645857,0.000663868074285277,-8.22002570684365e-05,-0.0331389617214534,0.00414599152056259,-1.17092068188327,-0.000107033669361366,0
0.48,0.000579480406319948,0.000334161775476432,-0.0289107968129791,-0.0167200357072146,0.000663855297632323,-8.22057011635617e-05,-0.033139180100741,0.0041459026354394,-1.17092078566229,-0.000105217992179609,0
0.49,0.000579468299126527,0.000334161758296768,-0.0289110067299374,-0.0167200358419444,0.000663844131389068,-8.22104593155403e-05,-0.0331393731312223,0.00414582406332123,-1.1709208769504,-0.000103620854621656,0
0.5,0.000579457588916963,0.000334161743184677,-0.0289111854249304,-0.0167200359703563,0.000663834253628372,-8.22146682249871e-05,-0.0331395374459625,0.00414575727610375,-1.17092095725052,-0.000102215952693559,0
0.51,4.72235007870659,-0.00753314539066935,3.88336330149369,0.392508527385296,-1.04610008907631,4.60503220594321,-0.471308650325683,3.87458922101251,0.221778529102523,68.8402487635796,2662.77301075514
0.52,4.72749204760329,0.0116505148460258,3.6272428102589,-0.547845402593762,-4.0151707051489,2.49554022270983,-3.37345024954188,1.44113094602253,1.01716218297824,149.013951601135,2662.77301075514
0.53,4.68788025194045,0.00426083615378525,5.60894221335997,-0.164740988605777,-3.06962445569026,-3.54311234824501,-3.54427019205356,-4.35034724497469,2.42858381348475,235.728895163041,2662.77301075514
0.54,4.66193390471024,0.0295756215506571,6.90742006856245,-1.40655362853506,4.4910105057278,-1.25113032363519,7.03452906583348,-0.454143078190565,-1.83614888401978,315.461483012909,2662.77301075514
0.55,4.63751775823756,0.0300462659168965,8.12948671162481,-1.41381267093495,-3.26736011199317,3.29117481070518,-6.7616275725176,4.72946223513312,0.78824594267714,398.164603357568,2662.77301075514
0.56,4.63641562330952,0.0633584847693799,8.18596834814813,-3.0627974927306,3.50868604514634,-3.03141656099195,8.23733962850186,-2.92182171308805,-2.26968322927042,480.443325394251,2662.77301075514
0.57,4.59995979876804,0.0407249390554528,10.0101999067264,-1.90963087894424,-4.59888798722393,0.107321721522897,-10.0367994431207,-1.76449687021982,1.55631720494413,562.352725651966,2662.77301075514
0.58,4.61192061852928,0.0403755774964381,9.41376364697027,-1.89255891567765,1.40088961938038,4.39419506316981,0.972625930364041,9.55273385214481,-0.299863822532349,645.330745958664,2662.77301075514
0.59,4.61651242483496,0.0589998780910217,9.18580516880018,-2.78903440074355,4.61688758647542,0.00411923773147571,9.14681704731751,2.91435539881271,-1.55712462783652,725.893193124512,2662.77301075514
0.6,4.62570087522377,0.0960881618988077,8.72813338805013,-4.63892815245958,3.63592634848548,-2.86118526318938,9.76210576293606,-1.54959927611237,-2.21674128962421,807.986168344903,2662.77301075514
0.61,4.5911709508651,0.0876021015186144,10.4564860968102,-4.20380467467713,3.42622140018274,-3.05737334082507,10.6718248091046,-3.62246193622535,-2.28028806351888,889.423565843119,2662.77301075514
0.62,4.55539117404106,0.129853251738824,12.2473896027066,-6.29892998678152,4.46085767947455,-0.932308628615667,13.1672976669512,4.03699680564175,-1.7483305996105,970.395445358267,2662.77301075514
0.63,4.54092444751042,0.110694271842256,12.9727390864559,-5.30887083285023,2.73693073807836,3.62511492159605,3.24842713829131,13.6353874184917,-0.622315777141606,1050.92083455211,2662.77301075514
0.64,4.53780110348494,0.0919941717007098,13.1310035359894,-4.38654362855545,-3.99566686098429,2.15284651530201,-13.685684795325,2.08974892042026,1.09686632979221,1132.41593095318,2662.77301075514
0.65,4.49154168815189,0.12657326820358,15.446226240654,-6.06859336268487,1.05993567668078,-4.36652079920952,9.91968044222447,-13.3046484509453,-2.8752842236468,1212.34149286662,2662.77301075514
0.66,4.52485965196723,0.160016179414744,13.7826410348874,-7.73316101127844,0.0429340756383525,4.52748459001514,-8.0870410841204,13.578024142955,0.0258663551849154,1292.95151735796,2662.77301075514
0.67,4.507700349563,0.141921332880274,14.6430513667775,-6.81273529818909,1.51570284057105,-4.24760509054947,11.6940368630563,-11.1392018304166,-2.76736615737713,1373.1882159465,2662.77301075514
0.68,4.4791295176157,0.187394815869392,16.0740689679901,-9.06281959091823,-4.27997945708049,1.33397672376993,-17.8651877632908,-4.62011453403453,1.31047317249953,1453.23979168968,2662.77301075514
0.69,4.46570777981292,0.154381428354025,16.7477738743934,-7.44064146505156,1.50159259907033,4.20851509044692,-2.01040344720293,18.2156348541228,-0.308161991969534,1533.63605949285,2662.77301075514
0.7,4.44725018460984,0.163941719540993,17.6732772470215,-7.86539302376005,4.36750658684975,0.85428174845445,15.414654457701,11.6874960542445,-1.34078872340454,1613.14006580899,2662.77301075514
0.71,4.44644494787877,0.182402483413651,17.7162575405976,-8.80143853122664,4.30229028378165,-1.13773531831885,19.198267609761,4.77049496884175,-1.78832780850645,1693.1979528636,2662.77301075514
0.72,4.44819069163263,0.138672417165342,17.6317519821996,-6.60780240383185,2.18155948332506,3.87897263320124,2.30244719356202,18.6879765488601,-0.481153520055749,1772.89155395149,2662.77301075514
0.73,4.42067873106353,0.134047250196161,19.0102250355246,-6.35854305027274,-0.913539979499448,4.327333337567,-10.6673886263141,16.9713448352993,0.238367816769589,1852.30438084599,2662.77301075514
0.74,4.44703656639651,0.183262729773937,17.6952685827462,-8.77634413298744,-4.43927784763049,0.320205625386328,-17.9572980317231,-8.22691886164072,1.53997768811927,1931.41214850107,2662.77301075514
0.75,4.35931408762456,0.222436164133443,22.0844793655369,-10.760310849322,0.993240395461343,-4.25047887637383,16.4542677435723,-18.2418637053263,-2.86105326393766,2010.62550811789,2662.77301075514
0.76,4.36728735144456,0.193550610870395,21.6889860261768,-9.26459982699449,1.87704335596513,3.94808420488762,-0.0987052863991735,23.5846386884446,-0.399511006541633,2089.41194074362,2662.77301075514
0.77,4.3991951603937,0.179833967833795,20.0968552947875,-8.58819059633699,-2.27278588320146,-3.77090209954307,-2.13200343488209,-21.7507510631769,2.64003401819337,2168.38587105948,2662.77301075514
0.78,4.17137044527189,0.250671632615441,20.6671255979074,-12.1483767579824,0.363794331959443,4.16303030773499,-11.5829756414384,20.9892308964242,-0.0271443038923705,2246.3713208132,2662.77301075514
0.79,3.41950416417293,0.17753702216891,22.0260677437661,-8.54242701859893,2.75435491710861,-2.03422150063267,23.084252439663,-5.0237445121121,-2.15505498916501,2313.9003279441,2662.77301075514
0.8,2.85376999485884,0.185615359805479,20.2212336034433,-8.96981789118908,-1.95749418528084,-2.08486756412584,-5.9312202042672,-21.3114182619227,2.45264438253196,2370.00192693323,2662.77301075514
0.81,2.29291161079854,0.153039528646996,23.3792897629033,-7.46792633213105,-1.77763060792415,-1.45632900610902,-11.9513283741877,-21.4365777028953,2.32381285941589,2416.85243600606,2662.77301075514
0.82,1.96820210621517,0.0848137940181979,18.8943853794487,-4.03421365623896,-1.89480674043879,0.539184872704459,-19.3147893845599,0.459988827473254,1.33663018516491,2455.50722618512,2662.77301075514
0.83,1.54951091628817,0.085801157388095,22.6126445484984,-4.18497498035195,-0.816236403080294,1.31988789394853,-16.3707818407842,16.1506411942175,0.609165447514244,2487.90475611688,2662.77301075514
0.84,1.29691674456072,0.108730526512761,20.915003257417,-5.28728651803344,-0.0180956913280026,1.30134081457283,-7.29910540757784,20.3006359563096,0.0975466309508808,2514.56579650916,2662.77301075514
0.85,1.09094961180415,0.119578475397683,19.3726413400074,-5.89609187965126,0.370234746850157,1.0331487305799,-1.2247567477693,20.2129439431926,-0.234925469517647,2536.88409952818,2662.77301075514
0.86,0.886196872478355,0.057105760814319,19.7801246204022,-2.8262398939229,0.412433532427141,0.786450599871518,5.45890781223535,19.2208555333564,-0.418645149124196,2555.33161971234,2662.77301075514
0.87,0.696154919815791,0.0734210793674258,21.1292879446825,-3.58829122882957,0.386041097650709,0.583947427602728,6.5549470366205,20.4047865056045,-0.479052919692248,2570.60252708794,2662.77301075514
0.88,0.560459833883358,0.0398246246426149,21.1452869834587,-1.93065359188877,-0.34566771251269,0.442961689822868,-15.5916003826353,14.4136248880324,0.733585276835214,2583.31265248608,2662.77301075514
0.89,0.477991041439355,0.0606270908151705,19.654966303306,-3.0068758306104,-0.323017145179103,0.357506648549831,-16.8669077495193,10.5293126847866,0.860924282105983,2593.91177749234,2662.77301075514
0.9,0.376851585882411,0.0446985094112696,20.0781060850391,-2.24775192927367,-0.306612997122751,0.223614723399604,-18.6041201493042,7.87841647591005,1.05873020989628,2602.70390428441,2662.77301075514
0.91,0.265713263210321,0.0534676606843271,21.7580688030811,-2.71723135753806,-0.243589559917982,0.118854765507722,-21.7388227776654,2.86713943352196,1.31542228044112,2609.98542918475,2662.77301075514
0.92,0.206108468485422,0.0249241964970816,21.5241739527829,-1.30121831010235,-0.207098565276604,0.0145636744265906,-21.4319163879498,-2.37827529527816,1.62093270348072,2616.10999872254,2662.77301075514
0.93,0.1400324926401,0.0623438373042736,22.1409147674437,-3.12659101384596,-0.153246051812107,0.00339126065386623,-19.2130054624744,-11.4392350795845,1.96753367903932,2621.20012027882,2662.77301075514
0.94,0.115989759079342,0.0276807737216312,21.1613394078639,-1.36892216392681,-0.102098789442987,-0.0616091441215395,-14.1254562359856,-15.8160589133627,2.34799834035084,2625.37091910805,2662.77301075514
0.95,0.0789285989803306,0.0216176146452952,21.1537352738883,-1.07413415010119,-0.0496630712179382,-0.0650432498969134,-6.9445249975069,-20.0101937214301,2.75681493458338,2628.92560006703,2662.77301075514
0.96,0.050971322399091,0.00824253850890033,21.026452930951,-0.417473061330438,0.0449932515506207,-0.0253302677262865,19.8781872833367,-6.8661253224089,-1.92322830200962,2631.86085209903,2662.77301075514
0.97,0.0403668581337774,0.0421310530795508,20.282449992157,-2.12637635787906,0.0443634046808639,-0.0378998310590738,19.9696987587907,4.13647018396707,-1.47100411756515,2634.32923838063,2662.77301075514
