t,iq,id,vq,vd,ia,ib,va,vb,theta_e,omega,r
0,0,0,0,0,0,0,0,0,0,0,0
0.01,0.00037932215597245,0.000211862931813146,-0.0174088955275995,-0.0105964292237174,-0.000415822573581385,0.000125947557293513,0.0192705582784687,-0.00663321486311644,1.7860611605154,-0.00352071984775299,0
0.02,0.0005097580624015,0.000280434825443787,-0.0235397648353865,-0.0140260916564127,-0.000557890463373012,0.00016509150305956,0.0259922649423077,-0.00867490281376512,1.78603138083166,-0.00446071812956016,0
0.03,0.000567610204966357,0.000310579788354283,-0.0263008411477177,-0.0155338061396705,-0.000620839935686895,0.000182205718824722,0.0290113272878203,-0.00955909343302589,1.78599803597731,-0.00465331851685718,0
0.04,0.000570102425843828,0.000311601963266443,-0.026564164079898,-0.0155849227206489,-0.000623487050212462,0.000182692248554453,0.0292791834205317,-0.00955374521845765,1.78596574514271,-0.00431790688337668,0
0.05,0.000583859730502457,0.000320022318414116,-0.027326489786535,-0.0160060802097938,-0.000638719230230668,0.000188000569464804,0.030113553374868,-0.00980334386191408,1.78593521578308,-0.0041119528182083,0
0.06,0.000586735826478264,0.000322572535814604,-0.0275899607886561,-0.0161336295319185,-0.000642068014304718,0.000189896382118754,0.0303978974794805,-0.00987257651374582,1.78590658345509,-0.00382103988434434,0
0.07,0.000591816822325679,0.000326698429159752,-0.0279408381776676,-0.0163399869399777,-0.000647907567626093,0.000192859530788483,0.0307844752150203,-0.0100000848498924,1.78588048407671,-0.0035798393860972,0
0.08,0.000586426164062265,0.000324592429204996,-0.0278129345794011,-0.016234656256356,-0.000642186923945572,0.000191968345586731,0.0306367944133982,-0.0099252315716692,1.78585593846482,-0.00325385139103528,0
0.09,0.000583356238019999,0.000323952419915671,-0.0277792353348373,-0.0162026358774837,-0.000639046845736738,0.000192012498968142,0.0305968168959896,-0.00990182412487129,1.78583359339651,-0.00297500194719295,0
0.1,0.000581162511596444,0.00032375691355534,-0.027775968142089,-0.0161928652123978,-0.000636858000198608,0.000192302604098323,0.0305913380562819,-0.00989360025185488,1.78581317617087,-0.00272617223790324,0
0.11,0.000579358200497961,0.000323696268490696,-0.0277821100761136,-0.0161898292450137,-0.00063507869930294,0.000192640194172252,0.0305965060470304,-0.00988989529661588,1.78579449536065,-0.0025004814352308,0
0.12,0.00057777358730922,0.000323676616821306,-0.0277907483178675,-0.0161888469190991,-0.000633523076637889,0.000192969898782983,0.0306045667560865,-0.00988761600737623,1.78577739496711,-0.0022945388950761,0
0.13,0.000594899028232193,0.000334115890840998,-0.0286374604216482,-0.016710969210763,-0.000652478072967402,0.000199526054942272,0.031543006629256,-0.010217600704238,1.78576123855007,-0.00228153262800186,0
0.14,0.0006042148832518,0.000340089076572526,-0.0292492428113837,-0.0170097260653507,-0.000662850567855523,0.000203384684380488,0.0322042785007261,-0.0103794716679235,1.78574597477265,-0.00220232769102351,0
0.15,0.000583323528004037,0.000328642138161788,-0.0282540878211282,-0.0164372009902717,-0.000639995576556179,0.000196666355249576,0.0311097637436187,-0.0100328288540593,1.7857317665346,-0.00184036317733678,0
0.16,0.000575732331730032,0.000325171479565497,-0.0279693417733459,-0.0162636151887819,-0.00063183643654446,0.000194902350875797,0.0307944253957067,-0.00992434495527353,1.78571956157818,-0.00163039003399852,0
0.17,0.000572599188030436,0.000324118653069581,-0.027879275960754,-0.0162109515732131,-0.000628548716610209,0.000194548817134449,0.0306950921342774,-0.0098924363972258,1.78570865239888,-0.00147831680332695,0
0.18,0.000570993425737558,0.000323798784290386,-0.0278532681937875,-0.0161949539473266,-0.000626909752409624,0.000194584961590426,0.0306661731458861,-0.00988265688049619,1.7856987515105,-0.00135236853867788,0
0.19,0.000569941176004915,0.000323701150543002,-0.0278481404728513,-0.0161900673852953,-0.000625859127179284,0.000194719623805907,0.0306600320335775,-0.00987925328332389,1.78568971490447,-0.00124144383768614,0
0.2,0.000569115903105287,0.000323670936972602,-0.0278496207527426,-0.0161885633547659,-0.000625044782892906,0.000194871254900326,0.0306610759056761,-0.00987772159302069,1.78568145017139,-0.00114133136523892,0
0.21,0.000568405999335101,0.000323661211546053,-0.0278530185925832,-0.0161880788992311,-0.000624347657290499,0.000195017852453202,0.0306642175842108,-0.00987675569783391,1.78567388574998,-0.00105014497002864,0
0.22,0.000567771183925067,0.000323657743957711,-0.0278568069682994,-0.0161879041438863,-0.000623725350166441,0.000195154144406975,0.0306678131804773,-0.0098759895589298,1.78566696043367,-0.000966809419710403,0
0.23,0.000567194925567089,0.000323656216776119,-0.0278604967601203,-0.0161878223532679,-0.000623160779605921,0.000195279474107821,0.0306713380652647,-0.00987531738972874,1.78566061960809,-0.000890555853072559,0
0.24,0.000566668862476598,0.000323655317679691,-0.0278639428753457,-0.0161877830425381,-0.000622645487033872,0.00019539437514733,0.0306746392257687,-0.00987472231314611,1.78565481373825,-0.000820751624750935,0
0.25,0.000566187735713975,0.000323654645550683,-0.0278671205142044,-0.0161877523212643,-0.000622174240429543,0.000195499606662974,0.030677684757953,-0.00987417788271245,1.78564949762453,-0.000756841065000006,0
0.26,0.000568602932541817,0.000325325091767209,-0.0279978315482038,-0.0162713003505405,-0.000624889128174884,0.000196619652418903,0.0308231565640953,-0.00992808168400932,1.78564479840361,-0.000728041088062727,0
0.27,0.000562479731437435,0.000321881001433747,-0.0277446371308635,-0.0160990427602179,-0.00061817149121552,0.000194563189761837,0.0305390108769443,-0.00981391267418301,1.78563997630872,-0.000614623430206444,0
0.28,0.000561504392967393,0.000321572602793211,-0.0276018685082083,-0.0160836138498763,-0.000617152028264846,0.000194472353298529,0.0303961948051802,-0.00982940084551889,1.78563586866229,-0.000559355505159236,0
0.29,0.000563489729951265,0.00032302204383184,-0.0278260048974525,-0.0161561151261362,-0.000619400031790331,0.000195467432530296,0.0306305997947033,-0.00985256112585665,1.78563229220881,-0.000538872904099306,0
0.3,0.000554580969401669,0.000318428951038081,-0.0274356890208489,-0.0159263889573235,-0.00060971643519644,0.000192880577386769,0.0302002595280887,-0.00971139648581871,1.78562997089138,-0.000426154491569001,0
0.31,0.000560910867306145,0.000322068762301397,-0.0277338677732411,-0.0161084253450957,-0.000616676223897092,0.000195089014535697,0.030530363442358,-0.00982576698480434,1.78562715421076,-0.000456492348602691,0
0.32,0.000562831798442481,0.000323171837284241,-0.0278336646917596,-0.0161635983092551,-0.000618787595679221,0.000195758987495333,0.0306396000769411,-0.00985848404174658,1.78562430482058,-0.000443480559026802,0
0.33,0.000563308645411408,0.000323505994749712,-0.0278677292262862,-0.0161803132589042,-0.000619324188019919,0.000195985481012507,0.0306764182275481,-0.0098676356901961,1.7856216063384,-0.000418069419616679,0
0.34,0.000563321032573228,0.000323607095003262,-0.0278799525027389,-0.0161853703459297,-0.000619357352370994,0.000196083165365644,0.0306894139092463,-0.00987004755291684,1.78561910587748,-0.000390335811834577,0
0.35,0.000563192026964084,0.000323637566786126,-0.0278848678489721,-0.0161868940104724,-0.000619237356865361,0.000196141861247309,0.030694518382645,-0.00987055894660346,1.78561680653535,-0.000363463826258193,0
0.36,0.000563027396325563,0.000323646644243317,-0.0278872861556811,-0.016187345548236,-0.000619078031689313,0.000196187130115073,0.0306969565457032,-0.00987054931896128,1.78561469790019,-0.000338369523545062,0
0.37,0.000562861426323029,0.000323649250032666,-0.0278888175081572,-0.016187474101831,-0.000618916052884158,0.00019622625148383,0.0306984610359467,-0.00987040778413994,1.7856127660533,-0.000315230113184158,0
0.38,0.000562704091094179,0.000323649906396667,-0.0278899753452538,-0.0161875171019714,-0.000618762126601224,0.000196261526358654,0.0306995839641113,-0.00987025729735351,1.78561099680081,-0.000293988951947374,0
0.39,0.00056255855174313,0.000323649983090066,-0.0278909675578474,-0.0161875160818882,-0.000618619630665608,0.000196293627631349,0.0307005371633075,-0.00987009453342081,1.78560937666498,-0.000274521742712427,0
0.4,0.000562424770323351,0.000323649894369719,-0.0278918500425848,-0.0161875062842396,-0.000618488613882755,0.000196322975976304,0.0307013826345266,-0.0098699423923709,1.78560789314661,-0.000256690706368765,0
0.41,0.000562301952162073,0.00032364976493928,-0.0278926399361135,-0.0161875083923631,-0.000618368324192447,0.000196349869839414,0.0307021414158592,-0.00986981778145289,1.78560653474835,-0.000240361755294043,0
0.42,0.000562189591153189,0.000323649631806536,-0.0278933653053339,-0.0161874941385106,-0.000618258272957877,0.000196374459868485,0.0307028347993169,-0.00986968742296202,1.78560529092473,-0.000225409488096911,0
0.43,0.000562086447178504,0.000323649505462044,-0.0278940134939695,-0.0161874947022799,-0.000618157248917586,0.000196397026704125,0.0307034569703447,-0.00986958477385368,1.78560415201478,-0.000211718212632826,0
0.44,0.000561992305170006,0.000323649388420268,-0.027894619052275,-0.0161874818255998,-0.00061806504075812,0.000196417624178113,0.030704035574229,-0.00986947513204976,1.78560310917004,-0.000199181707966629,0
0.45,0.000561905866793934,0.000323649280833725,-0.0278951585940531,-0.0161874823130927,-0.000617980378437053,0.000196436534250699,0.0307045533958643,-0.00986938991957365,1.78560215428789,-0.000187702617706875,0
0.46,0.0005618267043727,0.000323649182189826,-0.02789564878792,-0.0161874813111035,-0.000617902842548436,0.000196453852212156,0.0307050234813006,-0.00986931129862088,1.78560127994845,-0.000177191765895808,0
0.47,0.000561754390236822,0.000323649091821656,-0.0278961031091693,-0.016187468339493,-0.000617832013782807,0.000196469672805773,0.0307054566951513,-0.00986922636591564,1.7856004793584,-0.000167567488040133,0
0.48,0.000561688091711338,0.000323649009058342,-0.027896511816338,-0.016187468733627,-0.000617767077243285,0.000196484176739657,0.0307058488588001,-0.00986916214183169,1.78559974629749,-0.000158755004497732,0
0.49,0.000561627322910861,0.000323648933267447,-0.0278968798365174,-0.0161874676463792,-0.000617707556962441,0.000196497470509597,0.0307062015650875,-0.00986910324497019,1.78559907506908,-0.000150685842052179,0
0.5,0.000561571830788781,0.00032364886386404,-0.0278972212950554,-0.0161874546011627,-0.000617653204564305,0.000196509610725257,0.0307065263301171,-0.00986903658863533,1.7855984604578,-0.00014329730273474,0
0.51,4.75966690978387,-0.0235831776275618,2.01716026826145,1.18649053637897,-0.764923832914065,4.69785874502401,0.857694662742036,2.17739642836882,0.15645273133424,48.6670186497527,2490.63811269579
0.52,4.72659887899827,-0.0129771664029379,3.67106119429724,0.663904446983308,-3.11469826983316,3.55521589466714,-1.91096083080349,3.20401125312227,0.716702917427911,104.271043205497,2490.63811269579
0.53,4.76594093721457,-0.00546044959146097,1.7045496266063,0.296800952712587,-4.7319005418847,-0.568630016125363,-1.72767978927673,0.093288696097091,1.68924659841728,161.649464264798,2490.63811269579
0.54,4.72264394881203,-0.00423582560941416,3.87004505491901,0.240442866978069,-0.192474221094161,-4.7187220180557,-0.40142834552858,-3.85667172349293,3.09992885382215,223.885505038837,2490.63811269579
0.55,4.73757331519372,-0.00563744727937676,3.12425514248498,0.3198701470413,4.59408205332731,1.15717016248406,3.10829198906691,0.449230472045814,-1.32523636478379,281.87971271115,2490.63811269579
0.56,4.71140277646132,0.0227201362864292,4.43348128023271,-1.08772226575359,-3.80681069602219,2.77597273965205,-4.23139994739831,1.7129362144422,0.945555035568813,338.507593689004,2490.63811269579
0.57,4.72084466594912,0.0399603534659325,3.96217340032662,-1.94659922733804,2.27414300870766,-4.13717835798935,3.63579642451359,-2.50380729402705,-2.63052720622259,398.715830445666,2490.63811269579
0.58,4.69307261364081,0.0580981620401797,5.35161095804811,-2.84270784313948,-2.18814348349041,4.15214812464539,-5.05167585251753,3.34683414719621,0.497385223165971,456.040016267015,2490.63811269579
0.59,4.72935562913919,0.0306870759726539,3.53831188425287,-1.46305753096851,3.73510484830552,-2.9011615149224,3.69837796290065,-0.991054374239689,-2.22469669007322,513.909890144763,2490.63811269579
0.6,4.67422955986796,0.0254641724733067,6.29551020418379,-1.1993291423591,-4.59542443588124,-0.855069971715042,-5.95710017228183,-2.36321743817488,1.76021007415427,573.1163278253,2490.63811269579
0.61,4.69087709258048,0.0192372818403781,5.46407337478183,-0.882893504685634,0.546236859214149,4.65900453577207,-0.263294745665312,5.52867747861284,-0.112609459365601,631.561160471329,2490.63811269579
0.62,4.71425377382191,0.0615725560900533,4.29623355272546,-2.9939058077458,4.7146529868689,-0.00519971785463608,4.26012822677662,3.04506193970486,-1.55883901976124,689.523737222649,2490.63811269579
0.63,4.70660186101016,0.0645877259846355,4.67988451150193,-3.13796057469311,2.45473465715937,-4.01628564912318,5.14988997231734,-2.28620840746187,-2.57926007027523,747.46580425947,2490.63811269579
0.64,4.6734984986768,0.0382689202252002,6.33610511916344,-1.81443847412384,-0.19071706376717,-4.66976227756591,1.60676313761286,-6.39192672651044,3.10896279964536,805.464642576932,2490.63811269579
0.65,4.70734319919199,0.0286621704905811,4.6449383755345,-1.32256567737118,-0.975445649655753,-4.60525865718354,0.36069414477126,-4.81607020478326,2.93895507922018,863.180763213781,2490.63811269579
0.66,4.66156730115437,0.0511804423369542,6.93492135817384,-2.43558656616552,0.188396462032881,-4.6580399218945,2.78868288825848,-6.80062231814677,-3.0901904548165,920.410151730347,2490.63811269579
0.67,4.64141601056983,0.0446721689970895,7.9436452716431,-2.09898732728816,3.05777462348414,-3.49209858649971,6.85610058897798,-4.52781765485647,-2.41278345316153,978.3705250579,2490.63811269579
0.68,4.67250415648069,0.0821628337547367,6.39045614171595,-3.97994534062587,4.53607746268602,1.12385367201067,5.15003113900304,5.49136357208879,-1.31034550783484,1036.68902993052,2490.63811269579
0.69,4.67527687316885,0.0729239505427954,6.25307053164931,-3.49576575566685,-0.925235365462923,4.58339080396239,-4.7482126470595,5.36430293240215,0.214786626347041,1093.71971765612,2490.63811269579
0.7,4.65480886752748,0.053791581643877,7.27784018825289,-2.54611460726184,-3.89147328392922,-2.55471618931209,-4.61559027557891,-6.17624350289416,2.16327655245606,1151.94605935312,2490.63811269579
0.71,4.64474153551492,0.0920502362360058,7.78252445322078,-4.45441317169494,4.55424162749007,-0.917049822073599,8.45093305028477,2.99853533391778,-1.74968529986826,1209.44643513702,2490.63811269579
0.72,4.64135223805627,0.0816637034775127,7.95340242850028,-3.91279218123379,-3.96993259839487,2.4059207639441,-8.84203665395011,0.620435857604322,1.04354364164441,1266.58949806915,2490.63811269579
0.73,4.62474610458461,0.0509658581443272,8.78519515583662,-2.37824207169981,4.13358029616585,-2.0747019028565,8.93799530151495,-1.71695348447037,-2.02495417518807,1324.31959050459,2490.63811269579
0.74,4.62607894983984,0.0869042569118705,8.72000367507688,-4.17468156391894,-4.62586001619701,-0.097866800144314,-8.54637143795346,-4.51950943112328,1.61073314408434,1382.02778478405,2490.63811269579
0.75,4.64191214507739,0.118531048316184,7.92983422083376,-5.75129306265297,2.77619549825131,3.72211452369766,-0.119182273539466,9.79517423265663,-0.615320132898737,1439.53517845128,2490.63811269579
0.76,4.60586216884814,0.0866979113148162,9.7338997052107,-4.15193154227922,2.97565161831786,-3.51667176356497,9.54476736317594,-4.56998413407809,-2.42051352031456,1496.83279735099,2490.63811269579
0.77,4.62385530120484,0.0629658324218081,8.83584035853819,-2.95085484337001,-2.89824282527234,-3.60335830417821,-3.11919806822855,-8.77782561682401,2.47784161315638,1553.97384121339,2490.63811269579
0.78,4.64312895918019,0.118661303861536,7.87378984013254,-5.7196676798471,-4.62844814805584,0.387549709547434,-8.19203356653287,-5.25373684716514,1.51280984723267,1611.04167547205,2490.63811269579
0.79,4.57715622127508,0.123560893026598,11.1741127522789,-5.97710133398937,-3.69882057834455,2.69895400061905,-12.5925945571134,1.41883701586067,0.967416170805266,1668.53997774077,2490.63811269579
0.8,4.6365425595263,0.0810083822878835,8.20650347095852,-3.84211835685053,-3.40416980007403,3.14892318683126,-8.68008057612864,2.60091789159449,0.841798983532439,1725.8682460768,2490.63811269579
0.81,4.60566725938241,0.124720363257838,9.75200118755146,-6.00107071399964,-4.12210262450889,2.0581535477644,-11.37405400809,-1.32108754345811,1.13478440505113,1782.60414630786,2490.63811269579
0.82,4.5999977815221,0.0963013814537534,10.0372933888619,-4.59894092477754,-4.45251282801647,-1.15947533929226,-8.40642663149572,-7.15747912976098,1.84647967963993,1840.09752303659,2490.63811269579
0.83,4.58048010037419,0.146736252029163,11.0149815680518,-7.08893255685783,-4.19791310260837,1.83843821232385,-12.8605393847958,-2.48783248477789,1.19003997722022,1896.80839338793,2490.63811269579
0.84,4.56674817777415,0.162563363205989,11.7034845505959,-7.88558282716631,-1.94318878236247,-4.13589568562374,2.65506768998156,-13.8601797503407,2.73794903199792,1953.79460377362,2490.63811269579
0.85,4.20777229974561,0.100566773310905,10.7272710479605,-4.8157296162089,4.20597737439752,-0.158794610918484,10.7928954251448,4.6667980687759,-1.58463722064107,2008.86077617498,2490.63811269579
0.86,3.75370464423688,0.0954184040092616,12.1603997649348,-4.58779206954205,-2.5103065310701,2.79244773416729,-11.6896731417038,5.68108267467634,0.757656069484335,2058.28402260461,2490.63811269579
0.87,3.37129107559084,0.119198052964455,12.0443047811092,-5.79680847850649,0.889014010127557,-3.25414593741367,9.11708735151417,-9.77481377938194,-2.83956391875341,2102.60667071931,2490.63811269579
0.88,3.02898616699281,0.12683379489948,11.8700075746747,-6.18063316058142,-0.34284767422798,3.01219180724582,-7.9409815484563,10.7720990589388,0.155181175462809,2142.43222835089,2490.63811269579
0.89,2.71832245544301,0.0562100373837007,11.8546764050958,-2.66530738677,0.712403964306091,-2.62391256174998,5.89920474321539,-10.622457320843,-2.85580385181356,2178.3392205333,2490.63811269579
0.9,2.44521473702281,0.0558017338304591,11.5172869405969,-2.67754445414119,-1.46736408573998,1.95679114458659,-9.22305605937164,7.39948509706143,0.666242947630434,2210.65793777198,2490.63811269579
0.91,2.23239184613427,0.0809825298332774,9.60286960034821,-3.95069774169068,2.10875239478408,-0.73708538332907,10.3414840382994,0.936389391807866,-1.87079771049374,2239.69175921232,2490.63811269579
0.92,1.99108151622423,0.0306583897313147,10.321832486419,-1.4442338998346,-1.75595405108444,-0.939133063836456,-8.32517210505405,-6.27037055175816,2.07731309362554,2265.80403497963,2490.63811269579
0.93,1.82138631222875,0.0785801997517598,8.60841844359401,-3.84110483818924,0.217196068240371,1.81009635492374,-3.17370731854515,8.87617802515155,-0.0763041540436904,2289.19379648803,2490.63811269579
0.94,1.59328090139501,0.0318007565587632,10.8815721128782,-1.50040468137575,1.38603606604231,-0.786421860389049,10.2837918969576,-3.86049868226011,-2.06693541856692,2310.19354268744,2490.63811269579
0.95,1.42853625896258,0.0540494349897577,10.9295335922115,-2.61355847965546,-1.03262748522781,-0.988593779742517,-5.72597282942182,-9.66946883890639,2.37222974030345,2329.15085665263,2490.63811269579
0.96,1.29616119744482,0.0348728945387586,10.1879707159258,-1.70454460753034,-0.766950876140497,1.04548377420332,-7.59166642644275,7.00477126658996,0.659810523238202,2346.25424766524,2490.63811269579
0.97,1.1600049667391,0.018233391399002,10.3012417090235,-0.871151012420152,0.458149129030473,-1.06585334591111,5.01109591343943,-9.04231179403125,-2.71991039697632,2361.62457452441,2490.63811269579
