t,iq,id,vq,vd,ia,ib,va,vb,theta_e,omega,r
0,0,0,0,0,0,0,0,0,0,0,0
0.01,0.000837531249396191,0.000479847096990955,-0.0414968148674634,-0.0240243391521004,0.000921541448153685,-0.00028718145751528,-0.0457132510292522,0.014472497924555,-1.35261236635394,-0.00103149096953782,0
0.02,0.000926897139887119,0.000531047822834224,-0.0459717874668621,-0.0265877846342786,0.0010198689599012,-0.000317832349986477,-0.0506368834188147,0.0160069226363623,-1.35262011024348,-0.00111774994532408,0
0.03,0.000960794659438662,0.000550445123638202,-0.0476494089951347,-0.027558938861632,0.00105715878534796,-0.000329441215248727,-0.0524848073554539,0.0165923562409227,-1.35262814984618,-0.00113338987880339,0
0.04,0.000941106293616592,0.00053930389291498,-0.0466813666364658,-0.0270011535524726,0.00103552322754537,-0.000322833378094681,-0.0514188596739625,0.016257710602717,-1.35263579419412,-0.00108308689003078,0
0.05,0.000960969671656981,0.000550696713575355,-0.0476659580652199,-0.02757154644327,0.00105737904727579,-0.000329665179491798,-0.0525034383121285,0.0166018883550402,-1.3526434877569,-0.00108226810550174,0
0.06,0.00096146430102858,0.000551047587543141,-0.047694264740475,-0.027589108290608,0.00105793539892648,-0.000329908680679597,-0.0525347494021874,0.016613304627761,-1.35265104424141,-0.00105759451985387,0
0.07,0.000987855539894625,0.000566265011315215,-0.0490008974401599,-0.0283510046662678,0.001086992045545,-0.00033906182867174,-0.0539751798871491,0.017074758319745,-1.35265834961843,-0.00106626973709623,0
0.08,0.000962055622699539,0.00055152590440526,-0.0477309186604493,-0.0276130535061546,0.00105861141240432,-0.000330263110148805,-0.0525754745960953,0.0166295156604011,-1.35266561220654,-0.00100957238948497,0
0.09,0.00096111044351946,0.000551067408509982,-0.0476878641427102,-0.0275901059224935,0.00105758709281634,-0.000330027445028974,-0.0525283576862017,0.0166167978292585,-1.35267263251623,-0.000984886423329552,0
0.1,0.000960957245454912,0.000551051344628839,-0.0476838185659927,-0.0275893073261593,0.00105743178874335,-0.000330052153703895,-0.0525241213782694,0.0166172532391066,-1.35267947942486,-0.000961775048139345,0
0.11,0.000960832483285473,0.000551049031737189,-0.0476810899303614,-0.0275891726294268,0.00105730727726346,-0.000330083955624538,-0.0525213172427266,0.0166180630162602,-1.35268615916246,-0.00093925858184954,0
0.12,0.000960711416115178,0.00055104718902907,-0.0476784586684725,-0.0275890812339222,0.00105718652842434,-0.000330115243072737,-0.0525186202444112,0.016618885400547,-1.35269267587271,-0.000917292630235112,0
0.13,0.00100665929556582,0.000577433790625472,-0.0499502134686325,-0.0289101701747813,0.00110775310181597,-0.000345941881422699,-0.0550222969337271,0.0174174798760768,-1.3526992522353,-0.000952957569532841,0
0.14,0.00105880976362028,0.000607635593141955,-0.052591430055045,-0.0304222706876403,0.00116520067503938,-0.000364151776706325,-0.0579280048750222,0.0183226450117376,-1.35270564980261,-0.000997006854897822,0
0.15,0.000963474222620303,0.000552794893577522,-0.0478247403816032,-0.0276766031820132,0.00106025566767139,-0.000331244156461481,-0.0526800531569973,0.0166736965199176,-1.35271193998951,-0.000856276917036208,0
0.16,0.000960342486471173,0.000551094433832449,-0.0476731521602644,-0.0275914567284562,0.00105682825261198,-0.000330267786506433,-0.0525135352288222,0.0166236740543493,-1.35271783540181,-0.000832611461555493,0
0.17,0.000960139985046004,0.000551040195484166,-0.0476660981080473,-0.0275887318312152,0.00105661691577189,-0.000330264713870668,-0.0525059632308996,0.0166228414567462,-1.35272357927348,-0.000813130141862516,0
0.18,0.000960032682725379,0.000551036991949463,-0.0476636706303494,-0.0275885819459086,0.00105650961094711,-0.00033029072099288,-0.0525034676694892,0.0166235145027593,-1.35272918271762,-0.00079423875247233,0
0.19,0.000959931173304422,0.000551035406484205,-0.0476614580756568,-0.0275884877550775,0.0010564083568049,-0.000330316908973159,-0.052501196257934,0.0166241882206485,-1.35273464939663,-0.000775812058357838,0
0.2,0.000959831961900463,0.000551033907349952,-0.047659289311737,-0.0275884193728659,0.00105630940875784,-0.000330342542075192,-0.0524989753957037,0.0166248706339109,-1.35273998265592,-0.000757835200278582,0
0.21,0.000959735078800985,0.00055103244621606,-0.0476571676374872,-0.0275883510002031,0.00105621278486203,-0.000330367570076088,-0.0524968026684174,0.0166255360133503,-1.35274518575198,-0.000740297087913288,0
0.22,0.000959640756836632,0.00055103102072608,-0.0476551063647988,-0.0275882826358479,0.00105611871089289,-0.000330391943737069,-0.0524946910201009,0.0166261816464228,-1.35275026186155,-0.000723187009721611,0
0.23,0.000959548646763984,0.000551029629968915,-0.0476530897241752,-0.0275882171906933,0.00105602684467208,-0.000330415741062998,-0.0524926256332227,0.0166268139507088,-1.35275521408386,-0.000706494519020667,0
0.24,0.000959458864993357,0.000551028273098202,-0.0476511250923919,-0.0275881488432148,0.00105593729868709,-0.000330438939305495,-0.052490612400699,0.0166274258069534,-1.35276004544244,-0.000690209424196418,0
0.25,0.00095937123690423,0.000551026949289562,-0.0476492053625207,-0.0275880805035011,0.00105584990131366,-0.000330461578611556,-0.052488644964711,0.016628021749921,-1.35276475888703,-0.0006743217823748,0
0.26,0.000968969629668875,0.000556562754935769,-0.0481254010945252,-0.0278652335186339,0.00106641696679632,-0.000333794991471197,-0.053013440472387,0.0167958506434657,-1.35276933297956,-0.000671059401755936,0
0.27,0.000935761548972265,0.000537531021034969,-0.046488288809914,-0.0269123748829329,0.00102987694046295,-0.000322401554916462,-0.0512089039177428,0.0162198975908258,-1.35277390634685,-0.000614064377513452,0
0.28,0.000930908449019404,0.000534712448846167,-0.0461918731220432,-0.0267712756946444,0.00102452766483464,-0.000320703924820487,-0.0508889147326999,0.0161464764629808,-1.35277829499699,-0.000593282044771187,0
0.29,0.000958146214343073,0.000550516693752681,-0.0475977689701107,-0.0275625309868548,0.00105453765254108,-0.000330247085579103,-0.052432605129416,0.0166151330020587,-1.35278249156478,-0.000613426097896259,0
0.3,0.000953752747957286,0.000548080688019584,-0.0473828370284897,-0.0274405764045618,0.00104972003552522,-0.000328823040301364,-0.0521963196600813,0.0165427534656605,-1.35278633151412,-0.000595057367893918,0
0.31,0.000958729278537272,0.000550928667688864,-0.0476305882073704,-0.0275831535465509,0.00105519341049952,-0.000330531530787039,-0.0524689766318195,0.0166285833359995,-1.35279039020303,-0.000587718264387892,0
0.32,0.000958815607641241,0.000551015812083171,-0.0476368704559788,-0.0275875282918766,0.00105529523083278,-0.000330602133090085,-0.0524759902997875,0.0166317042467514,-1.3527943626357,-0.000574529634069457,0
0.33,0.000958748876239381,0.000551017457336071,-0.0476355462785477,-0.0275875967636186,0.00105522915324829,-0.000330622261976245,-0.0524746478082463,0.0166322608760261,-1.3527982385235,-0.000561471538361783,0
0.34,0.000958678621952001,0.000551016479684585,-0.0476339986820239,-0.0275875571514954,0.00105515910002589,-0.000330640491628497,-0.0524730653793654,0.0166327553255293,-1.35280201982973,-0.000548726064499648,0
0.35,0.000958609997471675,0.000551015445852949,-0.0476324835212862,-0.0275875117208225,0.00105509065628199,-0.000330658216059423,-0.0524715148923079,0.0166332322252299,-1.35280570884974,-0.000536291463132932,0
0.36,0.00095854332412225,0.000551014434743423,-0.0476310179383695,-0.0275874434381526,0.00105502415206466,-0.000330675445225668,-0.0524700093625136,0.016633671356507,-1.35280930783582,-0.000524160333771094,0
0.37,0.000958478017472885,0.000551013448204491,-0.0476295739240446,-0.0275873951016404,0.00105495901645544,-0.000330692309678251,-0.0524685306630886,0.0166341206781896,-1.35281281898512,-0.00051232527582074,0
0.38,0.000958414282432985,0.000551012485712312,-0.0476281628676458,-0.0275873496768913,0.0010548954486998,-0.000330708766885371,-0.0524670861943284,0.0166345612090908,-1.35281624444161,-0.000500779063570423,0
0.39,0.000958352177206723,0.000551011546683408,-0.0476267887323005,-0.0275873042531371,0.00105483350481433,-0.000330724805928459,-0.0524656791614838,0.0166349893606996,-1.35281958629649,-0.000489514647476838,0
0.4,0.000958291468963456,0.000551010630546997,-0.0476254410428193,-0.0275872588309069,0.00105477295668669,-0.000330740478784119,-0.0524642993035884,0.0166354075065808,-1.35282284659036,-0.000478525150041712,0
0.41,0.000958232390533827,0.000551009736745327,-0.0476241324250804,-0.0275872134091014,0.00105471403086605,-0.000330755736685881,-0.0524629589145829,0.0166358130203393,-1.35282602731346,-0.000467803861617674,0
0.42,0.000958174709087193,0.00055100886473448,-0.0476228523352707,-0.0275871679883218,0.00105465649927743,-0.000330770631529137,-0.0524616476681236,0.0166362082851996,-1.3528291304082,-0.000457344236313176,0
0.43,0.000958118541038874,0.000551008013983638,-0.0476216076008982,-0.0275871225682001,0.00105460047484647,-0.000330785139645435,-0.0524603721987351,0.0166365919243396,-1.35283215776878,-0.000447139887994913,0
0.44,0.00095806365355823,0.000551007183975273,-0.0476203874961483,-0.0275870771490394,0.00105454572953388,-0.000330799312852321,-0.0524591220038386,0.0166369663549804,-1.35283511124381,-0.000437184586388063,0
0.45,0.000958009899954911,0.000551006374204031,-0.0476191857154864,-0.0275870545710726,0.00105449211941951,-0.000330813184300799,-0.0524578958361113,0.0166373553355399,-1.35283799263634,-0.000427472253275369,0
0.46,0.000957957806440689,0.000551005584176784,-0.0476180295075807,-0.02758700915151,0.00105444015758199,-0.000330826641601204,-0.0524567103920388,0.0166377084646921,-1.35284080370603,-0.000417996958783136,0
0.47,0.000957906877078817,0.000551004813413036,-0.0476168949227478,-0.0275869637327505,0.00105438935915149,-0.000330839793355224,-0.0524555471995752,0.0166380533136914,-1.35284354616868,-0.00040875291776172,0
0.48,0.000957856965180035,0.00055100406144313,-0.047615775586956,-0.027586941151406,0.00105433958025804,-0.000330852672608254,-0.0524544049456567,0.0166384136454038,-1.35284622169895,-0.000399734486253301,0
0.49,0.000957808480538621,0.000551003327809164,-0.047614692836351,-0.0275868957325175,0.00105429122036633,-0.000330865192044974,-0.0524532945583106,0.016638740338017,-1.35284883193015,-0.000390936158045845,0
0.5,0.000957761276464879,0.000551002612064819,-0.0476136401831512,-0.0275868503136108,0.00105424413563755,-0.000330877384648321,-0.0524522146150214,0.0166390571756903,-1.35285137845632,-0.000382352561312316,0
0.51,4.66432963676518,0.0675989481791656,6.78477831477382,-3.38095798099033,-0.205992139355406,4.66026907127954,-3.77294082300209,6.57487727611486,0.0586647483182646,18.0926025853338,1630.28947920172
0.52,4.68176254262312,-0.0109957729453429,5.91458258435531,0.558601865282157,-1.24120031759865,4.51424890586735,-1.01567536020674,5.85343717432115,0.265972651722075,38.4700482558283,1630.28947920172
0.53,4.66876250469942,-0.0338182401885718,6.56604442726318,1.70602404610549,-2.75253208616454,3.77121387795645,-2.44721993317429,6.32728789177152,0.623255824449743,59.0539747394339,1630.28947920172
0.54,4.64680796442365,0.0797420247089404,7.66528946657786,-3.97497016600074,-4.17566246220105,2.04034949224412,-8.62737171069592,-0.354270789805216,1.13344580103882,80.3042095818978,1630.28947920172
0.55,4.64356171047074,0.0548867148691814,7.82912721606251,-2.72798326688101,-4.5300193685073,-1.02205793933992,-6.98445754467956,-4.46704359462075,1.80451916878819,103.088551724543,1630.28947920172
0.56,4.61597671099846,0.0523105304670004,9.20996561875188,-2.5966745618805,-2.24879149117921,-4.0314903221114,-2.11323038260748,-9.3327618007176,2.6441077439062,125.562922329401,1630.28947920172
0.57,4.63693662124386,-0.0460873065871994,8.16359204456611,2.33666843425519,2.25970372947904,-4.04932640376636,1.85542238979492,-8.28623329367424,-2.64253318637737,146.159202793192,1630.28947920172
0.58,4.62645914224813,0.0380622410346266,8.68913186992181,-1.86953641240126,4.61625220713066,0.309497155471871,8.52418901045031,2.51681957325177,-1.49562450714862,167.042159768797,1630.28947920172
0.59,4.63655864816175,0.0593698020885671,8.18577095117945,-2.93895840104511,0.921636284897818,4.54442377310956,-1.3634134144987,8.58984437632091,-0.187288136043869,189.771353759962,1630.28947920172
0.6,4.62307891245701,0.0893728742019819,8.86143992469096,-4.43165736903704,-4.40311839787632,1.41187623952347,-9.76031326159264,-1.70322917161082,1.27982999579809,210.341993464626,1630.28947920172
0.61,4.6380857257153,0.0146052226317002,8.11282448099135,-0.690615475341167,-1.1215360205404,-4.50046769416719,-1.26631145875416,-8.04309182364476,2.90051196577368,232.394314354761,1630.28947920172
0.62,4.57942885673376,-0.0175820148473002,11.0473899547221,0.930836237443849,4.57792535189724,-0.118647602540192,11.0148121273329,-1.25904515891716,-1.600547184065,253.388588880522,1630.28947920172
0.63,4.54461659893609,0.0182219554353038,12.7897507252977,-0.865498171856205,-1.4784101694017,4.29746151140356,-5.02634803305117,11.7924821878764,0.335346543326129,275.341205856344,1630.28947920172
0.64,4.57725617290162,0.0817970141603668,11.1596009799362,-4.03409322469814,-3.04888910054128,-3.41500220739198,-4.22544346449604,-11.0885630135422,2.43064219017688,296.067491868689,1630.28947920172
0.65,4.63747960889383,0.0183755859348447,8.15022042739443,-0.862083293209358,4.63480179185455,-0.158641530774051,8.17256736487733,0.615161187080432,-1.60104891313827,318.098421451195,1630.28947920172
0.66,4.54813861692444,-0.0049688467432023,12.6191319517942,0.309362877046073,-3.28635199080944,3.14411834394003,-8.89456856864287,8.95683239679061,0.806420757045634,339.284700520406,1630.28947920172
0.67,4.56709232068741,0.0810982880331073,11.6732550960877,-3.98589294232677,0.965215379623906,-4.46466890921839,6.54915617410238,-10.4527881683905,-2.9109244192531,360.33691400317,1630.28947920172
0.68,4.61648830720364,-0.0251598048958896,9.20542060995923,1.33331429922973,0.841203571133678,4.53927019004622,3.03631444982657,8.79194461928457,-0.188688115136078,381.968317608768,1630.28947920172
0.69,4.57946493903713,0.0754417975498651,11.0585156095812,-3.70631277277093,-2.06856732725513,-4.08634553180473,-1.49742550408999,-11.5665569084606,2.68945826215155,403.571118154576,1630.28947920172
0.7,4.56509191949585,0.0370717725716887,11.7791759618606,-1.78456514461379,2.45329741476264,3.85003510951353,4.7363621491941,10.9316299190709,-0.559213926084788,424.914374857133,1630.28947920172
0.71,4.56645797473619,-0.00316545362133702,11.7128455465271,0.233484889051494,-2.22540177035248,-3.98749738754027,-5.91898804054498,-10.1099380100029,2.63186263762069,446.132985194005,1630.28947920172
0.72,4.51933446033151,0.0154746521802528,14.0710141595791,-0.689973360252908,1.3664658283431,4.30782944987039,3.55014716006808,13.633266587975,-0.30374159368221,467.344245327452,1630.28947920172
0.73,4.51373185624327,0.0114507235902834,14.3531683208107,-0.481550143757953,0.252708253024221,-4.50666672031442,1.32065885097193,-14.3003913088358,-3.0830401406577,488.629419888248,1630.28947920172
0.74,4.53987474890673,0.081371055577862,13.0480848883325,-3.98479562352359,-2.40843542595559,3.849223659837,-10.457730452151,8.76167730543285,0.577019796434299,509.979691487472,1630.28947920172
0.75,4.50473652921313,0.0168890970799576,14.8070675025612,-0.758760983337989,4.27196870410856,-1.42941240737037,14.2974413765624,-3.92531990275976,-1.88993973739852,531.378003154934,1630.28947920172
0.76,4.51380369754921,0.0148097481068663,14.3558702671835,-0.650249709260258,-3.94318189050482,-2.19680671135235,-12.1996569102206,-7.59488032068331,2.08236685259941,552.6850561222,1630.28947920172
0.77,4.58600266776961,0.117802417136194,10.7481228037933,-5.79680392280369,0.45104984210975,4.56528771472356,-4.99969366248102,11.1412810217767,-0.0727985287675645,573.838365346995,1630.28947920172
0.78,4.58839026924891,0.0754383876769604,10.6308606711113,-3.66249752715085,3.98687646940567,-2.27240670456958,11.0823122631381,-1.90037934299076,-2.07240382120893,594.912268189574,1630.28947920172
0.79,4.47684766741691,0.052900201648387,16.2102156125408,-2.52467768086637,-3.17013218668913,-3.16152263751317,-9.53809250863495,-13.348029026566,2.36665057351711,616.030592418084,1630.28947920172
0.8,4.48600181199397,0.0555081154322634,15.754784761414,-2.67683867190449,-2.77131566568523,3.52804519376094,-11.9690650322777,10.588682184625,0.678216066990692,637.539374255548,1630.28947920172
0.81,4.48572389192142,0.0195787518907133,15.7710003716845,-0.863754245648681,3.39649655150304,2.930172919421,11.3292141401286,11.0054273468893,-0.854608065642409,658.623637380764,1630.28947920172
0.82,4.54069051410603,0.0685351682900838,13.024999616791,-3.29348502092781,3.53969470693997,-2.84484249051616,12.2986942155701,-5.40738191663812,-2.23269514638893,679.592393214478,1630.28947920172
0.83,4.54297763424767,0.0803202508666012,12.9129751938792,-3.90582224756697,-1.47825494760808,-4.29649385404495,-0.269418835645626,-13.4880609903102,2.82789692975391,701.077129389946,1630.28947920172
0.84,4.48550737198214,0.0784851637284323,15.7887994371493,-3.78864918088138,-4.41985849867611,-0.768626799371559,-14.7913131525511,-6.69754473710237,1.76047313923094,721.961087720217,1630.28947920172
0.85,4.43646937001622,0.0180433978528733,18.2430933268144,-0.785402742864942,-3.31558414822933,2.94779371586762,-14.2024641298428,11.4768168165171,0.84811863018993,743.393479530642,1630.28947920172
0.86,4.48347386537001,0.0989445152416591,15.8952538984993,-4.80315995934352,-0.307768019175223,4.47399226250172,-6.22387030893004,15.3945730850328,0.0907474012725621,764.247217599244,1630.28947920172
0.87,4.48482932807109,0.0951027636699361,15.8299044865937,-4.62915380899641,2.27799246401121,3.8643872698647,3.71101375961196,16.0699507752201,-0.511448619567404,785.611596510641,1630.28947920172
0.88,4.47820085332176,0.0749321100658034,16.1637816266456,-3.61409052705861,3.7092485805482,2.51025350741948,11.1575993219871,12.2408114184335,-0.959110715572449,806.653888026135,1630.28947920172
0.89,4.52681205795784,0.105088043157996,13.7357066745066,-5.10071859679639,4.33137557937506,1.31994564103249,11.4429635115773,9.15125970151106,-1.25178571519433,827.621271828023,1630.28947920172
0.9,4.495224421845,0.119993279591084,15.3175699275268,-5.86196609135081,4.44343998624188,0.690856047643439,14.0127095713419,8.52259147267087,-1.38986635584531,848.889690741354,1630.28947920172
0.91,4.48162397520465,0.0566890644819589,16.0001153635919,-2.70123785866602,4.40576863706352,0.82302480025113,15.1600491808867,5.78561029196019,-1.37347016998504,870.047698942678,1630.28947920172
0.92,4.4556879053244,0.086885504823625,17.2994765856117,-4.19818865549629,4.18832261393569,1.52271385433952,14.628901657418,10.1435651730966,-1.20259379675496,890.998166545647,1630.28947920172
0.93,4.44451531648187,0.0375467015349318,17.8605929949344,-1.70174243984712,3.44123160723895,2.81301460689021,12.644233556996,12.7287103517369,-0.877061180870402,911.983853655323,1630.28947920172
0.94,4.42322316903748,0.0769081700673058,18.9277832612006,-3.67176875769747,-3.56800666786175,2.61536737148477,-17.5769822082226,7.92417575807189,0.955646526728662,933.025952439165,1630.28947920172
0.95,4.42889377578486,0.132539503926724,18.6468963156961,-6.45577674473924,-4.430617513194,0.0479087577133964,-18.5201667900899,-6.81081622520285,1.58990080544735,954.065644609556,1630.28947920172
0.96,4.38609518951944,0.102091718161486,16.3622440385209,-4.93020590056314,-3.10790237849971,-3.09664278472002,-7.75877394855741,-15.2260102132255,2.37765177721502,974.863606845156,1630.28947920172
0.97,4.30197077144446,0.110534872359245,16.4854675954326,-5.3514713105748,0.63979638701618,-4.2555647168773,8.13867700084829,-15.3026410695614,-2.96667844997053,995.291439664693,1630.28947920172
0.98,4.16493091653859,0.108826042155562,19.3034232008014,-5.26558486180479,3.9348025864591,-1.36960623997738,19.9906142627777,-0.850807030374644,-1.87963196622739,1015.3274612546,1630.28947920172
