t,iq,id,vq,vd,ia,ib,va,vb,theta_e,omega,r
0,0,0,0,0,0,0,0,0,0,0,0
0.01,0.000883758393080146,0.000500761014134294,-0.0433150391577017,-0.0250780602580609,-0.00049591929276039,0.000886484374190794,0.0240288948721196,-0.0439057392007558,1.02556725125594,-0.00298085647417621,0
0.02,0.000977363348120988,0.000554695390387099,-0.0480741224293363,-0.0277790802070517,-0.000547959933605865,0.000981155442083271,0.0266961094320851,-0.0486838400877618,1.02554557089592,-0.00308734789297292,0
0.03,0.00100785412094207,0.00057233650613001,-0.0496078400555398,-0.0286625350417398,-0.000564858532085634,0.00101206415017976,0.0275481696520225,-0.0502352173163247,1.02552415615391,-0.00296997462250279,0
0.04,0.000988829028587814,0.000562386709613419,-0.0487350350019247,-0.0281642588223337,-0.000553733835659673,0.00099370040664848,0.0270594222492065,-0.0493570337357238,1.02550505996095,-0.002699327266731,0
0.05,0.00100597051991212,0.000572452958408477,-0.0496137948590175,-0.028668375170612,-0.000563149750295349,0.00101120790902028,0.0275483472489721,-0.0502443324076028,1.02548664526809,-0.00256579406017285,0
0.06,0.00100532117619252,0.000572613372711626,-0.0496267006082237,-0.0286764138114651,-0.00056249406742983,0.00101101788610071,0.0275543511656064,-0.0502583709862059,1.02546952239175,-0.00238205061902999,0
0.07,0.00103299001049236,0.000588767586959304,-0.0510086228410747,-0.0294854263796765,-0.000577754330418371,0.00103918986085975,0.0283153945280645,-0.05166728564241,1.02545386352124,-0.0023155245842,0
0.08,0.00100410459818821,0.000572872677161282,-0.0496466187125048,-0.0286894111414515,-0.000561288659567786,0.00101062564235291,0.0275631070358067,-0.0502806542495296,1.02543906139553,-0.00205495675730719,0
0.09,0.00100284285520737,0.000572609212948924,-0.0496204554426615,-0.0286761989847694,-0.000560332969248656,0.00100975346821263,0.0275469136250187,-0.0502561591875763,1.02542555476337,-0.00190732594755277,0
0.1,0.00100212683615902,0.00057260177081868,-0.0496180749575259,-0.0286758208532174,-0.000559712087221568,0.00100938266436117,0.0275444476489587,-0.0502549447100507,1.02541307901157,-0.00177257698427189,0
0.11,0.00100147305881446,0.000572598755172834,-0.0496162488022016,-0.0286756762256791,-0.000559143088154866,0.00100904738685817,0.0275423822004911,-0.0502541912174897,1.02540155275092,-0.00164811189843555,0
0.12,0.00100086922363748,0.000572596031411104,-0.049614568553242,-0.0286755345696688,-0.000558617526705139,0.00100873776417376,0.0275404840507017,-0.0502534917576248,1.02539090367096,-0.00153311945049999,0
0.13,0.00104858380504781,0.000599882976287543,-0.0519550511752533,-0.0300420785452824,-0.000585242895629521,0.0010568246470268,0.0288319331099127,-0.0526362371288984,1.02538036726163,-0.00159286058419414,0
0.14,0.00111519115367676,0.000638794488372834,-0.0553880296259872,-0.0319907674069464,-0.000621989223697839,0.0011246506627474,0.0307553592164428,-0.0560834280746296,1.0253707691419,-0.00173039728385398,0
0.15,0.00100125907225478,0.000573671820327086,-0.0497089598497474,-0.0287294255730852,-0.000558363309357504,0.00100987598346195,0.0275917570245324,-0.0503493349251249,1.02536176696654,-0.00122582528134546,0
0.16,0.000998820272503705,0.000572604348922806,-0.0496104984538351,-0.0286759723196663,-0.00055682447550629,0.00100770242663538,0.0275349295743435,-0.050252767074582,1.02535413338997,-0.00113619038339984,0
0.17,0.00099838550641786,0.000572585112422946,-0.0496076544811048,-0.0286750024995136,-0.000556455681594964,0.00100746434419007,0.0275326476151477,-0.0502506563814234,1.025347092838,-0.0010600366294014,0
0.18,0.000998016166762054,0.000572583161881606,-0.049606592326283,-0.0286748939869844,-0.000556134395329018,0.00100727467987674,0.0275314690281239,-0.0502501916468414,1.02534058830506,-0.000989796167765215,0
0.19,0.000997675308227376,0.000572581618419677,-0.0496056266230499,-0.0286748237890156,-0.000555837747043017,0.00100709986066965,0.0275303778999454,-0.050249796066081,1.02533457878849,-0.000924903277088416,0
0.2,0.000997360526718903,0.000572580196440619,-0.0496047390029249,-0.0286747506432774,-0.000555563791215586,0.00100693841693678,0.0275293780400384,-0.0502494258746415,1.02532902661264,-0.000864948946601382,0
0.21,0.000997069843183777,0.00057257888256419,-0.0496039239106469,-0.0286746803716466,-0.000555310807441859,0.00100678933053705,0.027528459928745,-0.0502490841279801,1.02532389697281,-0.000809557302538077,0
0.22,0.000996800888666641,0.000572577668522175,-0.0496031489738203,-0.0286746338312109,-0.000555076742085989,0.00100665138381274,0.0275275834534683,-0.050248772748052,1.02531915771223,-0.000758381111649425,0
0.23,0.000996552813131831,0.000572576546738647,-0.0496024513753242,-0.0286745605748953,-0.000554860842176714,0.00100652414628516,0.0275268050807019,-0.0502484687194922,1.02531477912229,-0.000711099566675023,0
0.24,0.000996323323406452,0.000572575510211865,-0.0496017900237839,-0.0286745139513062,-0.000554661123065012,0.00100640643788596,0.0275260606236543,-0.0502481970865633,1.02531073375531,-0.000667416274632728,0
0.25,0.000996111412393749,0.000572574552470391,-0.0496011824920137,-0.0286744672864638,-0.000554476701413337,0.00100629774501761,0.0275253776692517,-0.0502479448627861,1.02530699625175,-0.000627057398832113,0
0.26,0.00100554990976288,0.000577965716958626,-0.0500675655986553,-0.0289444530174293,-0.000559744831504051,0.00101580545116087,0.0277838250988868,-0.0507208196732692,1.02530359151504,-0.00062488399993185,0
0.27,0.000968396706090301,0.000556951894901245,-0.0482752106118132,-0.027892079505947,-0.000538883060327228,0.000978566625679107,0.0267974371338869,-0.0488913225617427,1.02530017269533,-0.000455223750415651,0
0.28,0.00095880869810804,0.000551240711535528,-0.0476533089777669,-0.0276060793691334,-0.000533646855637459,0.000968711244432562,0.0264140360002455,-0.0483242400544814,1.02529717064943,-0.000388982413223081,0
0.29,0.000994763581184781,0.000572222367104911,-0.049567654050244,-0.0286568217056246,-0.000553494828100176,0.00100530418040167,0.0275052521351721,-0.0502158029239127,1.02529468677444,-0.000491801004045595,0
0.3,0.000991629092217426,0.000570590458832448,-0.0494197549298621,-0.0285751168969659,-0.00055166039850666,0.00100228365893197,0.027421131967842,-0.0500692620737023,1.02529312162576,-0.000463961677941357,0
0.31,0.000995124690190006,0.000572537981181171,-0.0495953539681195,-0.0286726309653027,-0.00055363581014872,0.0010057635301808,0.0275205313346174,-0.0502437981919743,1.02529074672445,-0.000451354389239676,0
0.32,0.00099506314955423,0.000572569289024753,-0.0495980897898621,-0.0286742023689215,-0.000553564728319501,0.00100575959050643,0.0275219434212655,-0.0502466220020187,1.02528853068376,-0.000427655387705108,0
0.33,0.000994948171898017,0.000572569285551216,-0.0495977986467991,-0.0286742053614734,-0.000553464380416526,0.00100570106449679,0.0275215900870477,-0.0502465298582986,1.02528648290294,-0.000405546799861907,0
0.34,0.000994840877612677,0.000572568808975617,-0.0495974757165247,-0.0286741821374848,-0.000553371003162604,0.00100564603397007,0.0275212310124078,-0.0502463945200707,1.02528459095728,-0.000385116965437004,0
0.35,0.000994741848814943,0.000572568360902694,-0.049597180211716,-0.0286741588864683,-0.000553284821959865,0.00100559523640449,0.0275209026319175,-0.0502462694249471,1.02528284299358,-0.000366241829896572,0
0.36,0.000994650270597565,0.000572567946784444,-0.0495969007229623,-0.0286741356108983,-0.000553205126285546,0.00100554825977481,0.0275205946401735,-0.050246148956978,1.02528122805498,-0.000348803141956284,0
0.37,0.000994565793714576,0.000572567564164209,-0.0495966469179702,-0.028674112311594,-0.000553131608641079,0.00100550492643357,0.0275203147925165,-0.0502460384118441,1.02527973601778,-0.000332691585238978,0
0.38,0.00099448732978791,0.000572567210649159,-0.0495963894273732,-0.0286741127018108,-0.000553063330421717,0.00100546467484546,0.0275200252083476,-0.0502459430800111,1.0252783575288,-0.000317806161496577,0
0.39,0.000994415309344101,0.000572566884026555,-0.0495961729617372,-0.0286740893589557,-0.000553000652099618,0.00100542773132593,0.0275197882803329,-0.0502458458583551,1.02527708394667,-0.000304053558700793,0
0.4,0.000994348527584884,0.00057256658225102,-0.0495959586579863,-0.0286740630881696,-0.000552942536754275,0.00100539347345633,0.027519559589893,-0.0502457445876498,1.02527590728785,-0.000291347566121273,0
0.41,0.000994286827464513,0.000572566303433301,-0.0495957584485788,-0.0286740634150802,-0.000552888843678678,0.00100536182224728,0.0275193336471271,-0.0502456709024759,1.02527482017587,-0.000279608533894762,0
0.42,0.000994229941012026,0.000572566045827165,-0.049595577184507,-0.0286740400195206,-0.000552839337834496,0.00100533264096101,0.0275191403657987,-0.0502455844909075,1.02527381579651,-0.000268762873726132,0
0.43,0.00099417732128673,0.000572565807819772,-0.049595404426861,-0.0286740403113348,-0.000552793546158272,0.00100530564793546,0.0275189459064389,-0.050245520638545,1.02527288785313,-0.000258742597590829,0
0.44,0.000994128816737167,0.000572565587920388,-0.0495952481415837,-0.0286740168858496,-0.000552751334009083,0.00100528076649712,0.0275187813831197,-0.0502454431146081,1.025272030529,-0.000249484891535334,0
0.45,0.000994083764007768,0.000572565384751599,-0.0495950895901006,-0.0286740171483418,-0.000552712129615192,0.00100525765426374,0.0275186059100088,-0.0502453828689078,1.02527123844957,-0.000240931721916634,0
0.46,0.000994042477207914,0.00057256519704055,-0.0495949577814068,-0.0286739936968806,-0.000552676197155232,0.00100523647588702,0.0275184686313902,-0.0502453145681412,1.02527050664997,-0.000233029471609255,0
0.47,0.000994003943736517,0.000572565023611787,-0.0495948143883926,-0.0286739939339167,-0.000552642666992766,0.00100521670750462,0.0275183119570257,-0.0502452589741283,1.02526983054229,-0.000225728603897079,0
0.48,0.000993968553478798,0.000572564863379035,-0.049594690253117,-0.0286739941581635,-0.000552611868719899,0.00100519855283963,0.0275181743372411,-0.0502452119453209,1.02526920588833,-0.000218983351940257,0
0.49,0.000993935881412511,0.000572564715337934,-0.0495945745967535,-0.0286739706752014,-0.000552583435584136,0.00100518179267599,0.027518058655255,-0.0502451477414606,1.02526862877245,-0.000212751431878149,0
0.5,0.000993905613428937,0.000572564578561176,-0.0495944614471117,-0.0286739708793435,-0.000552557095908341,0.00100516626524662,0.027517935032485,-0.0502451038785514,1.02526809557678,-0.000206993777766893,0
0.51,-0.00564355420616191,-0.0515091769751357,2.01606000438607,2.57970744117931,-0.0515010413343102,-0.00571732089491314,2.57681735376388,2.01975264542527,0.00143222055738409,0.348358528364406,6.4919622081648
0.52,-0.00354882446106226,-0.0548290434499361,1.93850448823077,2.74596605050936,-0.0548149735582082,-0.00375989820385527,2.73848216459091,1.94906250173213,0.00385015959485688,0.315493249257729,6.4919622081648
0.53,-0.00335758663958931,-0.0548841833577324,1.95274002802963,2.74872734662315,-0.05486277894153,-0.00369086137647405,2.73681676989794,1.96939828657093,0.0060734931597959,0.291494071459956,6.4919622081648
0.54,-0.00321166865644985,-0.054885874100349,1.96874850047022,2.74881218965095,-0.0548579559763823,-0.00365768470640645,2.7327190469801,1.99102629875889,0.00812826732945674,0.269414302207663,6.4919622081648
0.55,-0.00307729459548951,-0.0548866417898171,1.98492482770234,2.74885048696498,-0.054853025768166,-0.00362749956141253,2.72880904162468,2.01238832874378,0.0100273742026141,0.248999428553736,6.4919622081648
0.56,-0.00295306750256335,-0.0548873476534641,2.00123064738532,2.74888590036436,-0.0548487438902882,-0.00359956021820675,2.72511604566029,2.0334798585039,0.0117825453273764,0.230123221229209,6.4919622081648
0.57,-0.00283822266687219,-0.0548880079450444,2.01765622728736,2.74891903150877,-0.0548450325716527,-0.0035736992453706,2.72162693535712,2.05432210669145,0.0134046329566722,0.21267074991722,6.4919622081648
0.58,-0.00273204974941709,-0.0548886251315257,2.03419213195638,2.74894988215465,-0.0548418132394299,-0.00354975848107106,2.71832876640107,2.07493416812866,0.0149036786505805,0.196535625435223,6.4919622081648
0.59,-0.0026339048995015,-0.0548892014576393,2.05083094614446,2.74897882183168,-0.0548390180155458,-0.00352760467847153,2.71520968245947,2.09533494048594,0.0162889732956195,0.181619322097836,6.4919622081648
0.6,-0.00254318208503394,-0.0548897391433464,2.06756472381647,2.74900568044638,-0.0548365886976959,-0.00350710398220325,2.71225800985207,2.11554073614526,0.0175691125589953,0.167830589628659,6.4919622081648
0.61,-0.00245932541223998,-0.0548902403679019,2.08438709418998,2.74903070649709,-0.0548344751815319,-0.00348813713825831,2.70946315041984,2.13556756395265,0.0187520482169609,0.155084914366455,6.4919622081648
0.62,-0.00238182087590125,-0.0548907072547847,2.1012909867309,2.749054214731,-0.0548326343660755,-0.0034705939105041,2.70681523561233,2.15542899829797,0.0198451356970173,0.143304024255995,6.4919622081648
0.63,-0.00231018847201879,-0.054891141860263,2.11827047189081,2.74907585716371,-0.0548310292590145,-0.00345436765513821,2.70430433369603,2.17513814073446,0.0208551781380234,0.132415433092823,6.4919622081648
0.64,-0.00224398704328334,-0.0548915461650191,2.13532081718951,2.74909613021349,-0.0548296279784244,-0.0034393624386545,2.70192192024525,2.19470783075467,0.0217884672407866,0.122352019964927,6.4919622081648
0.65,-0.00218280450275251,-0.0548919220683004,2.15243576317682,2.74911489577162,-0.0548284031671312,-0.00342548536591828,2.6996594272586,2.21414800805405,0.0226508211538008,0.113051640335805,6.4919622081648
0.66,-0.00212626847752193,-0.0548922713841432,2.16961196729885,2.74913251336737,-0.0548273310745812,-0.00341265916657227,2.69750924928542,2.23347028516603,0.0234476196145532,0.104456765705886,6.4919622081648
0.67,-0.00207402173611102,-0.0548925958392946,2.18684404987326,2.74914872555032,-0.0548263915224909,-0.00340079942962628,2.69546370994314,2.25268306737557,0.0241838365460558,0.0965141492391156,6.4919622081648
0.68,-0.00202574392067571,-0.0548928970725009,2.20412866103495,2.74916379068211,-0.0548255668989748,-0.00338983799765943,2.69351607437227,2.27179573454383,0.0248640702905664,0.0891745151307541,6.4919622081648
0.69,-0.00198113086453318,-0.054893176634902,2.22146158392141,2.74917773880384,-0.0548248422028196,-0.00337970383449388,2.69165984644491,2.2908158108869,0.0254925716473823,0.0823922698148436,6.4919622081648
0.7,-0.00193991265937465,-0.0548934359912947,2.23884012817809,2.74919075670063,-0.0548242042110366,-0.00337034251715309,2.68988906936042,2.30975144351162,0.026073269868641,0.0761252333683491,6.4919622081648
0.71,-0.00190181994639348,-0.0548936765220765,2.25625995440944,2.74920280957621,-0.0548236420062268,-0.00336168386258369,2.68819800378552,2.32860828876326,0.026609796755786,0.0703343896716222,6.4919622081648
0.72,-0.00186662826215209,-0.0548938995257108,2.27371934043365,2.74921403318237,-0.054823145535986,-0.00335368748514114,2.68658138581649,2.34739385206089,0.0271055089894039,0.0649836540416629,6.4919622081648
0.73,-0.00183410550102544,-0.0548941062215759,2.29121487797287,2.74922434788995,-0.0548227067430535,-0.00334629141284975,2.68503413154985,2.36611323577032,0.0275635088161858,0.0600396571760636,6.4919622081648
0.74,-0.00180406207708324,-0.0548942977530908,2.3087443532868,2.74923385174216,-0.0548223179988599,-0.00333946328245181,2.68355163262946,2.38477208458387,0.0279866632086186,0.0554715443405137,6.4919622081648
0.75,-0.00177630208479331,-0.0548944751910234,2.32630505030048,2.74924280672604,-0.054821973241253,-0.00333315249121107,2.68212976833798,2.40337494020048,0.0283776216054712,0.0512507888090231,6.4919622081648
0.76,-0.00175065119313348,-0.0548946395369078,2.34389533160139,2.74925090598255,-0.054821667047665,-0.00332731898110551,2.68076410992178,2.42192684788454,0.0287388323341179,0.0473510186294335,6.4919622081648
0.77,-0.0017269488001559,-0.0548947917265132,2.36151275602062,2.74925857724144,-0.0548213947011762,-0.00332192622938455,2.67945125854205,2.44043155496751,0.0290725578091488,0.0437478558415079,6.4919622081648
0.78,-0.00170505536718359,-0.0548949326333094,2.37915630798468,2.74926568394044,-0.054821151845145,-0.00331694935027548,2.67818746598389,2.45889374226756,0.0293808885955035,0.0404187673240596,6.4919622081648
0.79,0.0275335510038591,-0.000513066199852496,0.885613864330898,0.0256928712146569,-0.00133760382026082,0.0275058263614741,-0.000847232743990078,0.885986073549148,0.0299594939300538,0.270888111840087,6.4919622081648
0.8,-0.00422844980472166,-0.0567017408913199,2.356904960285,2.83974715565194,-0.0565252319188573,-0.00615348392187952,2.75798703704109,2.45207512188404,0.0339998257086652,0.687419832911062,6.4919622081648
0.81,0.0585188243319325,0.0542844427063942,-0.844650149944666,-2.71869746387623,0.0519078697431694,0.0606368417701774,-2.68285540426998,-0.952384720408693,0.0398849333260122,1.08283563260674,6.4919622081648
0.82,-0.0127936202787996,0.0545144974239646,2.65587805625668,-2.73022136099227,0.0550754460595812,-0.0101095197988684,-2.85696645624312,2.51903544985494,0.0489746391900393,1.24346490181454,6.4919622081648
0.83,-0.00788914782085544,-0.0605781232991136,2.27055976104598,3.03386586513453,-0.0599920607648731,-0.0115282401504171,2.89140640194923,2.4493984434707,0.0603463936146258,1.79872515259278,6.4919622081648
0.84,0.0928195244636406,0.0550189939782856,-2.79220925133283,-2.75549257676679,0.0480281871306944,0.096622187208622,-2.54220128176107,-2.98770555558239,0.0737708299671736,1.97603552413868,6.4919622081648
0.85,-0.00967133892200074,-0.00181472988470409,2.19287874677193,0.0908559438094536,-0.000931454494687712,-0.00979593964982281,-0.108100502474968,2.19209632131761,0.090682425596664,2.5141952920513,6.4919622081648
0.86,0.037028391787799,-8.48531986645292e-05,-0.207880812134116,0.0042176243309523,-0.00414515206551215,0.0367957431343606,0.0269899512680217,-0.206164407546711,0.109888512981416,2.83199778246343,6.4919622081648
0.87,-0.0143098862999487,-0.0593671006427892,2.25842450646061,2.97318787228358,-0.0569672396198869,-0.0219990703153316,2.65007824801776,2.63009746105713,0.131999136376408,3.13513823790137,6.4919622081648
0.88,0.0263796429244027,0.0456001093608181,0.172503185172756,-2.28383638586135,0.040957991703254,0.0331315325660274,-2.28296096898188,-0.18372588381688,0.155692998207204,3.41234542730337,6.4919622081648
0.89,0.00665619944196434,0.000763692314388835,1.11818710086284,-0.0383119465613817,-0.00044835402681775,0.00668484821285415,-0.239198045049817,1.09297506514545,0.181204368947226,3.56770956269085,6.4919622081648
0.9,0.0750911284350296,-0.0105834493615386,-2.3392909169556,0.529938205345718,-0.0258436202504331,0.071293718253334,1.00102833883504,-2.17969235455033,0.207743483450669,3.72931240364354,6.4919622081648
0.91,-0.0156098893554476,-0.0635550839560246,2.09956802042168,3.18286033601281,-0.0581264630968689,-0.0300704444628774,2.60213746189347,2.78705335800224,0.236569177210695,4.10881477644233,6.4919622081648
0.92,-0.02073077328155,-0.00153005986242085,2.33456167106886,0.0765054008275657,0.00398943232141501,-0.0204007468928583,-0.541673901529793,2.27214010500697,0.266788836403159,4.14127314969973,6.4919622081648
0.93,-0.00929029840368977,0.0033713190719307,1.68710232110005,-0.168985130796183,0.00595381029562433,-0.0078884459609027,-0.657552232435028,1.56284845007796,0.298426545639,4.45355445819113,6.4919622081648
0.94,0.0036322052706464,0.00580489182942438,0.972646010441263,-0.290892252942583,0.00430474669906509,0.00532530188217697,-0.591916655626794,0.824798907153076,0.3318672153713,4.74070936716396,6.4919622081648
0.95,-0.0181870775835247,-0.0571408175109686,2.03466444637645,2.86152985962217,-0.0468161804302114,-0.0374711631361618,1.94139595778109,2.92561007004845,0.366831514714348,4.81174270972571,6.4919622081648
0.96,0.0419318266908526,0.0625723489374795,-0.96119726606023,-3.1339941513163,0.0411648839106851,0.0630795471908701,-2.50764083838418,-2.11129272021535,0.402205846856322,4.8672154851731,6.4919622081648
