t,iq,id,vq,vd,ia,ib,va,vb,theta_e,omega,r
0,0,0,0,0,0,0,0,0,0,0,0
0.01,0.0013978001585178,0.000795547398022327,-0.0694511665201279,-0.0398730009974898,-5.80795727322149e-05,0.00160728582053216,0.0025919283245216,-0.0800412559066442,0.553540499363039,-0.00121311819333527,0
0.02,0.00158226535468361,0.000902062732488901,-0.0787202889427499,-0.0452115731893771,-6.44280968185132e-05,0.00182020049618654,0.00292257383904851,-0.090732732812606,0.553531706865177,-0.00129137478220569,0
0.03,0.00161266946799302,0.000919718980557414,-0.0802515826988268,-0.0460965055340693,-6.53755499400435e-05,0.00185534682840284,0.00297397438941976,-0.0925005936437718,0.553523010671803,-0.00122745165332075,0
0.04,0.00159643120509889,0.000911361662836399,-0.0794751287853693,-0.0456776355201356,-6.39345667923244e-05,0.00183714045306027,0.0029214217155889,-0.091619909284615,0.55351532639115,-0.00113090102664127,0
0.05,0.00161047956445876,0.000919729668587969,-0.0801942638776864,-0.0460970345437676,-6.41871575605843e-05,0.00185349051781349,0.00294199118221498,-0.0924521564945733,0.553507852487324,-0.00106473190429985,0
0.06,0.00160949744542252,0.000919743921430385,-0.0801689727955025,-0.0460977598424359,-6.36459296268609e-05,0.00185266297622414,0.00292743928877505,-0.0924310432743645,0.553500928251616,-0.000990419029361674,0
0.07,0.00164753453685007,0.00094166694058916,-0.0820695245850209,-0.0471965401180834,-6.49790818007606e-05,0.00189654538465091,0.00299117661808437,-0.0946254359417627,0.553494561962149,-0.000958288866216311,0
0.08,0.00160777921953474,0.000919785307235336,-0.0801254054375487,-0.0460998458976068,-6.26846877843923e-05,0.00185122382765864,0.00290162386171282,-0.0923951133300879,0.553488602403481,-0.000858162000138613,0
0.09,0.00160687896481986,0.000919731752151522,-0.0800992690102587,-0.0460971585726705,-6.22469036914144e-05,0.00185043017335891,0.00288966610469564,-0.0923714823647163,0.553483135055633,-0.0007993686561243,0
0.1,0.00160613517358589,0.000919728136567792,-0.0800794734167811,-0.0460969624275137,-6.18496551849831e-05,0.00184979584310749,0.00287896063505402,-0.0923545537232159,0.553478081629439,-0.000745108348614617,0
0.11,0.00160544752056488,0.000919724898385792,-0.0800611673255838,-0.0460968104630807,-6.14823081067743e-05,0.00184920944075801,0.00286903601999564,-0.0923389142275362,0.553473410694638,-0.000694955177193141,0
0.12,0.0016048122544329,0.000919721904988876,-0.0800442629376909,-0.0460966585394682,-6.11429485575545e-05,0.00184866770792808,0.00285988094992474,-0.0923244660894109,0.553469093300483,-0.000648598071573336,0
0.13,0.00167345787970578,0.000958889708226315,-0.0834501817173609,-0.0480597560027539,-6.38973198434639e-05,0.00192765346476189,0.0029797383236606,-0.0962538006274417,0.553464771098415,-0.000666587226717754,0
0.14,0.00184125630887455,0.00105589372814247,-0.0918956763656271,-0.0529216395596467,-6.95681631882242e-05,0.00212139025895085,0.00328255370479924,-0.105994056953927,0.553460890457246,-0.000781420633769677,0
0.15,0.00160365644192817,0.000920023479734256,-0.0800268171744707,-0.0461117665987289,-6.02570050134974e-05,0.00184784368395891,0.00283676664660655,-0.0923175998438245,0.553457269267092,-0.000522183002622239,0
0.16,0.001602617926785,0.000919712260847614,-0.0799858915729311,-0.0460961626656589,-5.99701682977171e-05,0.00184679680553125,0.00282824361226341,-0.0922745907673682,0.553454172992072,-0.000488395557357176,0
0.17,0.00160219493780933,0.000919709572439499,-0.0799745870300812,-0.046096049389174,-5.97448369343125e-05,0.00184643572074372,0.00282213398616913,-0.0922649223686083,0.553451311689189,-0.000457671586439818,0
0.18,0.00160180603251121,0.000919707735568112,-0.0799642399431151,-0.046095935724401,-5.95370982349957e-05,0.0018461040649397,0.00281654798765138,-0.0922560676455563,0.553448666958581,-0.000429274340365905,0
0.19,0.00160144614066761,0.000919706039027301,-0.0799546540961563,-0.0460958602301749,-5.93448615048696e-05,0.00184579715220699,0.00281134815405742,-0.0922478799948948,0.553446222406025,-0.000403026469179434,0
0.2,0.00160111349000785,0.000919704470749991,-0.0799457930512994,-0.0460957847081832,-5.91671771411041e-05,0.0018455134696208,0.00280654642158434,-0.0922403083887292,0.55344396288051,-0.000378765284850039,0
0.21,0.00160080621788409,0.000919703021046198,-0.0799376119404508,-0.0460957062483801,-5.90030481880719e-05,0.00184525142851655,0.00280212038229514,-0.092233313171772,0.553441874377404,-0.000356340416153928,0
0.22,0.00160052211241058,0.000919701680960037,-0.0799300447226968,-0.046095630673315,-5.88512955072248e-05,0.0018450091434172,0.00279802916955482,-0.092226841262776,0.553439943951978,-0.000335612873386832,0
0.23,0.00160025922056937,0.000919700442210911,-0.07992303495956,-0.0460955932261136,-5.87108773055456e-05,0.00184478494933861,0.00279421202683446,-0.0922208632098153,0.553438159639639,-0.000316454186894553,0
0.24,0.00160001679177888,0.000919699297141938,-0.0799165832274219,-0.0460955175955132,-5.85813849856722e-05,0.00184457820448766,0.00279073315173808,-0.0922153394269061,0.553436510380941,-0.000298745610818297,0
0.25,0.00159979231699276,0.000919698238674162,-0.0799105992719957,-0.0460954800840091,-5.84614867597055e-05,0.00184438677134035,0.00278747924602914,-0.0922102332696199,0.553434985953664,-0.000282377387105582,0
0.26,0.00160964503255713,0.000925297256977087,-0.080402074005427,-0.0463761146538953,-5.88743729965554e-05,0.00185571171058692,0.00280693171028075,-0.0927758516486872,0.553433582150301,-0.000276654789245614,0
0.27,0.00155143832859561,0.000892458092426771,-0.0775309329532328,-0.0447301798532446,-5.6214923867412e-05,0.00178893326217278,0.00269794308206739,-0.0894681823746756,0.553432220092677,-0.000208112229955683,0
0.28,0.00150263621893471,0.000863960633248487,-0.0749979861366943,-0.043301887533261,-5.48053767961305e-05,0.00173243757547906,0.00258157638917911,-0.0865626180972468,0.553430963714693,-0.000149432054191616,0
0.29,0.0015988154556208,0.000919567964002744,-0.0798791609904902,-0.0460889332522541,-5.8049601044855e-05,0.00184348754955672,0.0027760612636639,-0.0921800608197661,0.553429961282573,-0.000228205216818646,0
0.3,0.0015975849140415,0.000918958447895665,-0.0798205124836537,-0.0460584076056578,-5.79201747004847e-05,0.00184212036520268,0.00277114534388069,-0.0921141242036482,0.553429323353175,-0.000220299337126292,0
0.31,0.00159881136153336,0.000919691952469372,-0.07988438073269,-0.0460951669748708,-5.79389879870236e-05,0.00184354932965628,0.00277335254877769,-0.0921877823744924,0.553428344363047,-0.000211061427071988,0
0.32,0.00159868129965885,0.000919692993081923,-0.0798809866832109,-0.0460952136789801,-5.78680705061542e-05,0.00184343928183675,0.00277144532951138,-0.0921849220229625,0.553427438022072,-0.000201332903889808,0
0.33,0.00159855810619662,0.000919692414996822,-0.0798777017998903,-0.0460951730621555,-5.78022668186993e-05,0.00184333422228315,0.00276967610358197,-0.0921821084524731,0.553426600278177,-0.000192337801564365,0
0.34,0.00159844390276607,0.000919691877146172,-0.0798746480411613,-0.0460951734461706,-5.77412711585375e-05,0.00184323682818667,0.00276799932690672,-0.092179512878178,0.553425825942796,-0.00018402352639381,0
0.35,0.00159833863726609,0.000919691379982239,-0.0798718393264083,-0.0460951357001979,-5.76850468739989e-05,0.00184314705576045,0.00276648919108631,-0.0921771055640111,0.553425110216522,-0.000176338554123286,0
0.36,0.00159824152083827,0.000919690920435432,-0.0798692514856503,-0.0460950979371183,-5.76331737414214e-05,0.00184306423256144,0.00276510015880745,-0.0921748859929989,0.55342444866322,-0.00016923525317924,0
0.37,0.00159815129896399,0.000919690495660557,-0.079866835920184,-0.0460950982616127,-5.75849872182888e-05,0.00184298729009066,0.00276377389097451,-0.0921728328604958,0.553423837182527,-0.00016266959717961,0
0.38,0.00159806826878973,0.000919690103027,-0.0798646205421698,-0.0460950604668605,-5.75406387170553e-05,0.00184291647998884,0.00276258953982309,-0.0921709298684936,0.553423271984746,-0.000156600892074625,0
0.39,0.0015979912018468,0.000919689740104369,-0.0798625559890564,-0.0460950607575259,-5.74994781431059e-05,0.00184285075609673,0.00276145600723517,-0.0921691750861712,0.553422749566494,-0.000150991523923958,0
0.4,0.00159792039528096,0.000919689404643868,-0.0798606682634371,-0.046095022934695,-5.74616576070617e-05,0.0018427903702196,0.00276045148610935,-0.0921675505936099,0.553422266690062,-0.000145806725766115,0
0.41,0.00159785450420891,0.000919689094568691,-0.079858900445441,-0.04609502319638,-5.7426466472638e-05,0.00184273417731309,0.00275948095901923,-0.0921660480256503,0.553421820362233,-0.00014101436213237,0
0.42,0.00159779361899568,0.000919688807957579,-0.0798572665657592,-0.0460950234442709,-5.73939487613812e-05,0.00184268225340977,0.00275858395666376,-0.0921646593019073,0.553421407816874,-0.000136584729869404,0
0.43,0.00159773783000598,0.000919688543036073,-0.0798557799531624,-0.046094985586172,-5.736414875627e-05,0.00184263467460631,0.00275779965492774,-0.092163375747531,0.553421026496879,-0.000132490374037901,0
0.44,0.0015976857923572,0.000919688298162537,-0.0798543815047353,-0.0460949858108592,-5.73363566190298e-05,0.00184259029604707,0.00275703195504851,-0.0921621871333681,0.553420674038928,-0.000128705917750196,0
0.45,0.00159763771282613,0.000919688071820416,-0.0798530890875388,-0.0460949831141487,-5.73106782893715e-05,0.00184254929297619,0.00275632492998269,-0.0921610871137945,0.553420348258469,-0.000125207904879258,0
0.46,0.00159759379819884,0.000919687862607366,-0.0798519199903903,-0.0460949452276897,-5.7287219919891e-05,0.00184251184069589,0.00275571493217348,-0.092160073442397,0.553420047136212,-0.000121974654681397,0
0.47,0.0015975527035903,0.000919687669227431,-0.0798508133966355,-0.0460949454229149,-5.72652722973185e-05,0.00184247679449875,0.00275510748989677,-0.0921591328972062,0.553419768805777,-0.000118986127414352,0
0.48,0.00159751475219545,0.000919687490482204,-0.07984979141505,-0.0460949456093112,-5.72450031295139e-05,0.00184244442880871,0.00275454646923414,-0.0921582642713131,0.553419511542109,-0.000116223800134703,0
0.49,0.00159747959476831,0.000919687325264845,-0.0798488420582021,-0.0460949457878694,-5.72262268530681e-05,0.00184241444602296,0.00275402542171351,-0.0921574573716033,0.553419273750823,-0.000113670551889818,0
0.5,0.00159744755450348,0.000919687172551204,-0.0798479865689911,-0.0460949078727125,-5.72091114909473e-05,0.0018423871206418,0.00275358777754565,-0.0921567102563182,0.553419053957953,-0.000111310557601861,0
0.51,2.95850086926909,0.070896599095876,5.56527997642255,-3.55056617861471,-0.0756289299612926,2.9583836779874,-3.82168192848913,5.38271387333119,0.0495178117628232,15.0953477923958,452.723081247878
0.52,2.77217999850125,-0.022222384266484,10.1829948787599,1.12034300362762,-0.628495357768149,2.70008691780779,-1.13581700890976,10.1812805122391,0.220680218176434,31.497690645723,452.723081247878
0.53,2.69318332247127,-0.0162563074716553,9.52887036472464,0.825952300218521,-1.33002829547705,2.341906362176,-3.93498926337495,8.71765032145059,0.51046531696131,47.5478417249729,452.723081247878
0.54,2.62051149214521,0.056707506181588,8.47319544703306,-2.82608164787917,-2.04790142646082,1.63596942796073,-8.44873695184193,2.89838273571349,0.918392476750519,63.8273553765625,452.723081247878
0.55,2.51562262847442,0.0486140228760092,8.80872388969247,-2.43106297624976,-2.49063038748679,0.35704454209547,-9.04052491667463,-1.33138761835774,1.44773376064803,80.5340875768388,452.723081247878
0.56,2.40827763483624,0.0528129390658121,9.79666970849843,-2.63697005320806,-2.11264255001735,-1.15729504830938,-7.16944069943578,-7.17826361289418,2.09387131239606,95.4284779113714,452.723081247878
0.57,2.25826060917362,0.0397754644434054,13.3887938287109,-1.97195725641957,-0.701410747884344,-2.14693875768947,-2.0481613882174,-13.3773484120243,2.84343296531488,109.018364998605,452.723081247878
0.58,2.18710157705542,-0.0755113410248192,12.8066620443189,3.79277704370725,1.21265947742148,-1.82169488740611,3.4966119606608,-12.8906731871239,-2.58878791290295,123.388764461784,452.723081247878
0.59,2.11607854227381,0.0253292530141672,12.3945723543505,-1.2549419181555,2.11027130326144,-0.158697809566336,12.4490358670018,0.470966078689771,-1.63388827042969,136.768102149271,452.723081247878
0.6,2.03185186514678,0.00569983161580645,13.0240035674831,-0.253849600963852,1.12830366845906,1.68978854349375,6.99038481254898,10.9919802000462,-0.585925454303424,149.250532215475,452.723081247878
0.61,2.05709753369884,0.0243524795905141,7.95790243168984,-1.20860406069669,-1.0657469641415,1.75966664878187,-5.2291487339674,6.11922694511935,0.556403297308943,162.127798151545,452.723081247878
0.62,1.87048138126822,0.0229127528682976,13.9408060140263,-1.11330796772838,-1.83176368888684,-0.379298536763255,-13.376491325669,-4.08105461443734,1.78722717494422,173.718084956468,452.723081247878
0.63,1.89697436388257,0.00995160553948649,9.11247094806767,-0.48372521170684,-0.0788536761026265,-1.89536088105817,0.152390431713132,-9.12402838751285,3.10525910922054,185.582408972903,452.723081247878
0.64,1.79733490037639,-0.0524046937346506,10.9339326460692,2.65487660768078,1.76964929007398,-0.318591252511905,10.1535556031374,-4.84815031994519,-1.77806766053627,196.57056911544,452.723081247878
0.65,1.69740071861738,0.113579346375065,12.759147785829,-5.66462547840666,0.604987456975064,1.58998730950553,-1.68583124980516,13.857914959633,-0.29676826577894,207.2305555157,452.723081247878
0.66,1.72096782854886,0.00904859205187941,8.50521714443593,-0.447526197484552,-1.63609319719842,0.533864396639597,-8.23599276011248,2.16965933427732,1.26064290445533,217.733903028964,452.723081247878
0.67,1.59735627924377,0.104547481792302,11.8555681327077,-5.19859340144515,-0.495475406156755,-1.52216338830048,2.11237842220623,-12.7717550283515,2.89225902457612,227.491260581867,452.723081247878
0.68,1.57956755069404,-0.0662684790359694,9.88485603520505,3.35428518793218,1.57660354124387,-0.117245180099662,9.42949288369462,-4.47730632356817,-1.68695433370708,237.109150255496,452.723081247878
0.69,1.45639368460825,0.03914180500082,13.2738615268053,-1.95163489745497,-0.0859093295794311,1.45438448580722,-3.08287041415597,13.0575720796512,0.0858700164988534,246.496611971748,452.723081247878
0.7,1.35127727113208,0.000737868499924188,15.9293651642155,-0.0394228029838366,-1.26772605513198,-0.467783557927809,-14.9277488336104,-5.55954525595048,1.92483732010581,255.395994080662,452.723081247878
0.71,1.242450055439,0.0345562825530411,18.8978529809687,-1.68990993070241,0.760603547828668,-0.983035360480335,13.2827786146308,-13.5481524621957,-2.45527092188592,263.809091742182,452.723081247878
0.72,1.23599723093763,0.0127501903525236,16.7928148037872,-0.599702490401267,0.593478120977317,1.08426723742846,7.38145719823993,15.0954417537825,-0.490494197388853,271.974246311507,452.723081247878
0.73,1.18449263636361,0.103376518698048,17.0208248116171,-5.15449583004965,-1.17973338091908,0.148117048859966,-17.2036554586357,-4.50683296676422,1.53295291401715,279.915240049809,452.723081247878
0.74,1.12618130748054,-0.00577455727645546,17.6685369721147,0.302418702884924,0.51673238163801,-1.00065245145206,7.75683510637475,-15.8776624519906,-2.6700423848996,287.582816239745,452.723081247878
0.75,1.1569735433791,0.0641760003083603,13.9318154389552,-3.21340338783292,0.645038249178165,0.962617263605809,4.33801335063415,13.6236222396162,-0.534955387015277,295.023369434962,452.723081247878
0.76,1.08942801118728,0.0419912920606496,15.2119316188045,-2.10924506554181,-1.08918307963245,-0.0479257677117166,-14.9863825675491,-3.35560961089872,1.653294810721,302.102025525946,452.723081247878
0.77,1.05284414512524,0.061835418374564,15.0288450629141,-3.10773707923865,0.673069468286888,-0.811961762492583,12.5252885362154,-8.86799643455626,-2.39078700029837,308.895949205698,452.723081247878
0.78,0.948805353203134,-0.0625412616303351,18.3134083441163,3.12308983695133,0.0352367211688136,0.950211229756052,4.98745690684038,17.8958064615828,-0.102886635902886,315.400128527811,452.723081247878
0.79,0.856616030173106,-0.0144573177079258,21.0312630568229,0.711164920181012,-0.667162532258806,-0.537488783822376,-17.0346232401167,-12.354812518863,2.23208753174046,321.718600812374,452.723081247878
0.8,0.85848439765898,0.0109618743643944,19.1259098565742,-0.562966217605176,0.853126471320886,-0.0963890431794781,19.0869156336624,-1.34425086848483,-1.67053434765529,327.81618345243,452.723081247878
0.81,0.859194036647272,0.0212204413760362,17.3233975209953,-1.07753434523558,-0.57268675243063,0.640854572686257,-12.6441146561336,11.8906495406322,0.753977551289041,333.712622614286,452.723081247878
0.82,0.825597652566751,-0.00355370419846746,17.3007309413551,0.16291743413209,0.0689433685120919,-0.822721656865471,1.20809528769078,-17.259268204978,-3.06229321933271,339.393680938072,452.723081247878
0.83,0.827979061653574,-0.0515012329205156,15.5492766554165,2.56628379657527,0.392298132033302,0.730960928594852,10.3709560738026,11.8663004827327,-0.554686733005565,344.818275450366,452.723081247878
0.84,0.74279820132987,-0.0560568573697874,18.2330920034535,2.79453401616496,-0.654969701812801,-0.354832677278061,-17.7822285029071,-4.90381625311349,1.99196250069665,350.047848782489,452.723081247878
0.85,0.734064364335943,-0.0865323432034923,17.1529403598516,4.32681424513723,0.73901620200092,-0.0139064944668014,16.4068948964349,-6.6150196037416,-1.70695130601726,355.07653426655,452.723081247878
0.86,0.736311577382417,0.0464124501760535,15.5784654808666,-2.32783971371358,-0.554557540979927,0.486595096832083,-13.7551538437405,7.67483988147802,0.913532269601544,359.916226872037,452.723081247878
0.87,0.672415995318442,0.0183722477734192,17.3575632632043,-0.911247566692513,0.262015077927391,-0.61953927170684,8.02444560375844,-15.4182893771087,-2.71416980340003,364.608235394286,452.723081247878
0.88,0.556551544177191,0.0723864644901817,21.7843014838156,-3.60607832317991,0.0861630290123495,0.554585749906019,-3.06486245477627,21.8670119162171,-0.0247959612613073,369.099591722746,452.723081247878
0.89,0.576314543217392,0.0423181204226893,19.4805732344502,-2.0844248037857,-0.286025496850682,-0.502114221259765,-6.49492297323353,-18.4838723182448,2.69709146885141,373.447566696392,452.723081247878
0.9,0.557802935593563,0.101222994872048,19.1521646746564,-5.02993265577902,0.480907951311736,0.300196189204347,10.7922271138076,16.6022127492339,-0.833238550136845,377.594517608446,452.723081247878
0.91,0.573694655506354,0.00113356147507146,17.1213877617146,-0.0669365732991906,-0.533408815967115,-0.211191566514227,-15.8818142974954,-6.39643447646458,1.94976346291335,381.679489804211,452.723081247878
0.92,0.580008793489962,-0.0509575754918985,15.6116728144059,2.53235820925629,0.576785880521257,0.0795293848650458,15.7176545022832,-1.75855142401456,-1.52140813008774,385.560049904777,452.723081247878
0.93,0.555379664674618,0.0221488044572234,15.7032502655988,-1.11643573828274,-0.532259459264109,0.160115612907841,-15.484649061073,2.83974314281318,1.31844448215964,389.253516564516,452.723081247878
0.94,0.456155304539443,0.0533927087393505,19.5676835202661,-2.65941194042362,0.367319456425134,-0.27568978968678,18.247772906956,-7.54887370104464,-2.0981269459246,392.816325693511,452.723081247878
0.95,0.456728292662518,-0.0610014522583059,18.5033699782861,3.09613418629127,-0.368445819934533,0.276712103582063,-11.0234598717565,15.1803847088483,0.793863398750908,396.214418163379,452.723081247878
0.96,0.41420341547885,0.0587967649875021,19.6028949842173,-2.92451515876308,0.173664887359615,-0.380607456397943,13.0267101277046,-14.9375735621568,-2.57251636299536,399.557907906284,452.723081247878
0.97,0.376423468804935,0.0123518794940349,20.4731612397228,-0.647014442211254,-0.124035538725243,0.355615497310387,-7.97645479025236,18.8665080980869,0.36839950554073,402.82152447539,452.723081247878
