t,iq,id,vq,vd,ia,ib,va,vb,theta_e,omega,r
0,0,0,0,0,0,0,0,0,0,0,0
0.01,0.00124452252048302,0.000707141273918414,-0.0612970429126714,-0.0354164124058542,-0.0013900109603022,0.000341693745199006,0.0686226983286829,-0.0173946834300027,1.84646584190754,-0.00186817940550565,0
0.02,0.00137879131332789,0.000784502413464988,-0.0680858632536272,-0.0392909425795304,-0.0015402620345062,0.000379608202624294,0.0762095445143158,-0.0192761061602208,1.84645219674146,-0.00195716642997456,0
0.03,0.00142025729761862,0.000808382273325649,-0.0701594951945447,-0.0404869496907658,-0.00158665679607713,0.000391321993668049,0.0785301469055387,-0.0198636323015315,1.84643858126328,-0.0018993156050791,0
0.04,0.00139528117531418,0.000795074917203091,-0.0689834112491629,-0.0398204773723951,-0.00155899697918193,0.000385333752808197,0.0772168290050656,-0.0195433560101385,1.84642630151747,-0.00174826702457727,0
0.05,0.00141835131461002,0.000808512355878053,-0.0701527442970251,-0.0404934813543426,-0.00158484866057759,0.000392004342232155,0.0785249466025825,-0.0198736590908632,1.84641433001126,-0.0016761770023844,0
0.06,0.0014176890160098,0.00080868746754606,-0.0701604312306427,-0.040502237590166,-0.00158425459969003,0.000392370908251192,0.0785345026711462,-0.019880876501697,1.84640307898738,-0.00157300627445555,0
0.07,0.00145688542369566,0.000831433025261615,-0.0721117603163589,-0.0416414202366475,-0.00162815730754539,0.000403608467650409,0.0807219827923985,-0.020446890944904,1.84639265954375,-0.00154056672261082,0
0.08,0.00141644382164208,0.000808985573616933,-0.0701719712445362,-0.0405171833886366,-0.00158312952153303,0.000393028849117893,0.0785492694003425,-0.0198937169670436,1.84638272097498,-0.00138625220642642,0
0.09,0.00141505057911241,0.000808679049622048,-0.0701366104530288,-0.0405018309544711,-0.0015817018313192,0.000393127541067097,0.0785108826124842,-0.0198892872650881,1.84637353307263,-0.00130064919730459,0
0.1,0.00141427213604622,0.000808670628507819,-0.0701291327843293,-0.0405013956615691,-0.00158094709160431,0.000393344828052752,0.0785033978572949,-0.0198915771239066,1.84636494701148,-0.00122148294836472,0
0.11,0.00141355174733675,0.000808666496897353,-0.0701224916205176,-0.0405011920984945,-0.00158024960033921,0.000393549547364488,0.0784967922270483,-0.019893818198936,1.84635692202938,-0.00114750195569564,0
0.12,0.00141287873965421,0.000808662684722641,-0.0701162968789759,-0.0405009915417204,-0.00157959799285555,0.000393740843190557,0.0784906273981473,-0.0198958994400454,1.84634942144211,-0.00107835544051293,0
0.13,0.0014798597770742,0.000846985353464913,-0.0734140850112245,-0.042420363551001,-0.00165447588843654,0.000412405969123018,0.082186071834299,-0.0208462159223643,1.84634196721625,-0.0011168735944035,0
0.14,0.00157982337823984,0.00090518530899794,-0.0785196971507627,-0.04533521636068,-0.0017665001004452,0.000441225277138473,0.0878919813788174,-0.0222626209693011,1.8463350969626,-0.00121297437914021,0
0.15,0.00141342853347611,0.000809950461757858,-0.070217216258186,-0.0405654837390448,-0.00158046919852305,0.000394863371644026,0.078604871406273,-0.0199321378992534,1.84632859195051,-0.000890166410001616,0
0.16,0.00141053662260863,0.000808666683248671,-0.0700960794368992,-0.0405011949051205,-0.00157733487464954,0.000394423708124781,0.0784707008709417,-0.019903674183171,1.84632293640993,-0.000834249642327853,0
0.17,0.00141002850039838,0.000808646769070897,-0.0700900277205294,-0.0405002005115489,-0.00157683841687496,0.000394551107122741,0.0784645017906929,-0.0199047779710953,1.84631765653463,-0.000785521107523752,0
0.18,0.00140958522246625,0.000808644026979979,-0.0700859138728917,-0.0405000529029407,-0.00157640916423089,0.000394676840838805,0.0784604047149279,-0.0199061422809422,1.84631272176179,-0.000740027570226232,0
0.19,0.00140917112778224,0.000808641677222925,-0.0700820765079326,-0.0404999534361306,-0.0015760082270586,0.00039479450067165,0.078456593198991,-0.0199074523633868,1.84630810945424,-0.000697507549077981,0
0.2,0.00140878415786535,0.000808639483601343,-0.070078490471832,-0.0404998539435505,-0.00157563355215048,0.000394904453291038,0.0784530295165373,-0.0199086703708938,1.84630379853918,-0.000657766018816013,0
0.21,0.00140842245006669,0.000808637433115367,-0.0700751348047788,-0.0404997515149799,-0.00157528333597817,0.000395007224588058,0.0784496923163813,-0.0199098007561136,1.8462997693219,-0.000620621408020505,0
0.22,0.00140808460740979,0.000808635516404478,-0.0700720071886556,-0.040499651970316,-0.00157495622459509,0.000395103215153073,0.0784465805862336,-0.0199108511995667,1.84629600339481,-0.000585904020290453,0
0.23,0.00140776888366118,0.00080863372475425,-0.0700690834061479,-0.0404995523997894,-0.00157465052859565,0.000395192919228075,0.0784436698894001,-0.0199118268434571,1.84629248355321,-0.000553455248212531,0
0.24,0.00140747376541767,0.000808632050015454,-0.0700663466714736,-0.0404994498937509,-0.00157436478320071,0.000395276766416373,0.0784409429626827,-0.0199127307195351,1.84628919371659,-0.000523126848604615,0
0.25,0.00140719770228395,0.000808630484570019,-0.070063774618627,-0.0404993838221989,-0.00157409748857488,0.000395355195174463,0.0784383886946697,-0.0199136079797573,1.84628611885524,-0.000494780265264248,0
0.26,0.0014201028196659,0.000816021871082462,-0.0707041484246916,-0.0408695800495527,-0.00158852543785759,0.000398961960326203,0.0791552582964175,-0.0200958767391484,1.84628327317215,-0.00048940813861249,0
0.27,0.00136722631723186,0.000786062929175304,-0.0681317027967777,-0.0393691219637179,-0.00152949237352876,0.000384520234152133,0.0762716096727553,-0.0193519572165039,1.84628044972369,-0.000379962348266231,0
0.28,0.00135115734133305,0.000776575172886517,-0.0671733825374053,-0.0388939384053712,-0.00151144754044816,0.000379765049280629,0.075220119316903,-0.019155558361694,1.84627789933898,-0.0003313413366803,0
0.29,0.00140546791856967,0.000808194079328207,-0.0700162235914129,-0.0404775251403404,-0.00157231010304186,0.000395422153985123,0.0783864774404297,-0.0199063246725914,1.84627570406185,-0.000397507568717945,0
0.3,0.00140162016443778,0.000806188001004615,-0.0698339884933128,-0.0403770586936623,-0.00156806112882513,0.000394540840205491,0.0781837541121828,-0.019859340637628,1.84627410703211,-0.000376912958492344,0
0.31,0.00140586876029808,0.00080859053954739,-0.070048846510653,-0.0404973759410264,-0.00157280221745415,0.000395700412684803,0.0784231967071299,-0.0199168414618546,1.84627202953122,-0.000364790730198579,0
0.32,0.00140575704100693,0.000808621874180372,-0.0700503052742937,-0.040498961021932,-0.0015727024606429,0.000395764025691186,0.0784249927170562,-0.0199181231597604,1.84627007643436,-0.000346886565355955,0
0.33,0.00140559398017232,0.000808621379081642,-0.0700488026312675,-0.0404989485766643,-0.00157254469051005,0.000395810773164657,0.0784235069797968,-0.0199186630796179,1.84626825079976,-0.000330057823395389,0
0.34,0.0014054410844393,0.000808620515708095,-0.0700473719548097,-0.040498882222182,-0.00157239664911567,0.000395854213194378,0.0784220782070417,-0.0199191221872416,1.84626654445959,-0.000314327400282465,0
0.35,0.00140529793059312,0.000808619703325474,-0.070046019613939,-0.0404988493476229,-0.00157225804018678,0.000395894876707834,0.0784207361426416,-0.019919583456588,1.84626494962066,-0.000299624865810136,0
0.36,0.00140516408997234,0.000808618943922165,-0.0700447509330659,-0.0404988164438054,-0.00157212844890527,0.000395932893758896,0.0784194766508493,-0.0199200137658381,1.84626345899684,-0.000285883071620689,0
0.37,0.00140503898049582,0.000808618234112186,-0.0700435616772345,-0.0404987806018303,-0.00157200731154083,0.000395968430198185,0.0784182947297488,-0.0199204120024158,1.84626206577833,-0.000273039238195448,0
0.38,0.00140492213651133,0.000808617570658808,-0.0700424519537542,-0.0404987476437905,-0.00157189417661596,0.000396001619641312,0.0784171919395994,-0.019920784239518,1.84626076360009,-0.00026103468808186,0
0.39,0.00140481297593774,0.000808616950536688,-0.0700414144559542,-0.0404987146609644,-0.00157178848083327,0.000396032626911158,0.0784161603397134,-0.0199211301325331,1.84625954651328,-0.000249814578118155,0
0.4,0.00140471091669845,0.000808616370917146,-0.0700404404440097,-0.0404986816552813,-0.00157168966110428,0.000396061616399426,0.0784151914096678,-0.0199214524970406,1.84625840895717,-0.000239327648878653,0
0.41,0.0014046156095475,0.000808615829155818,-0.0700395315679997,-0.0404986486274694,-0.00157159737858546,0.000396088688767013,0.0784142866341415,-0.0199217512928647,1.84625734573512,-0.000229525990496633,0
0.42,0.00140452647240827,0.000808615322781431,-0.0700386764600395,-0.0404986155792847,-0.00157151107055983,0.000396114007629661,0.0784134349776455,-0.0199220299949413,1.84625635198958,-0.00022036482378804,0
0.43,0.00140444276978746,0.000808614849482533,-0.0700378550349685,-0.0404986130859327,-0.00157143002684502,0.000396137777978556,0.0784126253379931,-0.0199223238450455,1.84625542318083,-0.000211802295674988,0
0.44,0.00140436515776472,0.000808614407100759,-0.0700371156257073,-0.0404985799973095,-0.00157135487652738,0.000396159825989553,0.0784118875093536,-0.0199225611854412,1.84625455506526,-0.000203799287978636,0
0.45,0.00140429243518516,0.000808613993616145,-0.0700364127479783,-0.0404985468924291,-0.00157128446162216,0.00039618048267787,0.0784111859604336,-0.0199227841247594,1.84625374367708,-0.000196319238704225,0
0.46,0.00140422409939148,0.000808613607142318,-0.0700357348178109,-0.0404985472509321,-0.00157121829644662,0.00039619988879216,0.0784105185761803,-0.0199230283220498,1.8462529853093,-0.000189327975012366,0
0.47,0.00140416069003732,0.000808613245915283,-0.0700351215371093,-0.0404985141131311,-0.00157115689846333,0.000396217901320518,0.0784099052806615,-0.0199232188154135,1.84625227649725,-0.000182793557093156,0
0.48,0.00140410096897743,0.000808612908285716,-0.0700345228754991,-0.0404985144379972,-0.00157109907447714,0.000396234860539454,0.0784093160770365,-0.0199234339011842,1.84625161400283,-0.000176686132253447,0
0.49,0.00140404570869546,0.000808612592713293,-0.0700339885493965,-0.0404984812711898,-0.00157104556623642,0.000396250559633091,0.0784087805366254,-0.0199235958644325,1.84625099479948,-0.000170977798529194,0
0.5,0.00140399355463146,0.000808612297756738,-0.0700334612175514,-0.0404984815663183,-0.00157099506873686,0.000396265370092551,0.0784082616338928,-0.0199237849526319,1.84625041605806,-0.000165642477219005,0
0.51,4.63759097037269,-0.0226611210973178,8.12190054682222,1.14215044778694,-0.450443285323083,4.61571927023287,0.387926533455782,8.19263627549106,0.0923945673789908,28.3387867941881,959.353652456681
0.52,4.57927250173025,0.0106137694034436,11.0394448746667,-0.515490872409862,-1.84526509648097,4.19104354796187,-4.94315574395525,9.88434546499387,0.417065699860652,60.2846445572563,959.353652456681
0.53,4.61743221708816,-0.00407011283596459,9.13317997298082,0.230666629669427,-3.83463997310276,2.5722039425179,-7.45167868020647,5.28589333602725,0.979069223245224,93.369021862211,959.353652456681
0.54,4.54075192043927,0.033219153724326,12.9692067039652,-1.63866926630194,-4.43600885908047,-0.970235495798161,-12.287259962466,-4.46192807083209,1.79343924941787,128.988134590131,959.353652456681
0.55,4.55195795629768,0.0471229828013866,12.4108933332651,-2.32170731469351,-1.30486701281287,-4.36117689279885,-1.20319940192108,-12.5687274369366,2.8612212330433,161.727112660746,959.353652456681
0.56,4.51347887935992,0.0708243739953689,14.3368740688415,-3.49297737311719,3.81676655417532,-2.41014538094874,14.059326047746,-4.48131677948546,-2.11833896157775,194.641381671134,959.353652456681
0.57,4.60918272141275,0.050943684443429,9.55384017928249,-2.49719600132165,2.50719863546794,3.86796013690191,2.99727633945261,9.40894173567075,-0.564054212198398,228.393816710458,959.353652456681
0.58,4.51862228423604,-0.00183208609863028,14.0841257446752,0.141957017904992,-4.25864293627808,1.51059956488236,-13.2243718370877,4.84754982451919,1.2295228358813,261.909465689961,959.353652456681
0.59,4.52556219458096,-0.0275235220115657,13.7394183294886,1.46049101385915,0.602030512460744,-4.48542416983618,0.296190177450926,-13.8136498222965,-3.01425244255349,294.251716915406,959.353652456681
0.6,4.4691944146621,0.0698764846466038,16.5602239243803,-3.41797905041504,3.03795163090982,3.27863253924648,8.52106459287387,14.6053091517696,-0.731679703973272,327.627645170605,959.353652456681
0.61,4.44194011896751,0.0264849753793626,17.9255413101047,-1.24489184722263,-4.3391872880576,-0.95025636202726,-17.2138349304461,-5.1535108381476,1.79234936433937,360.870236898092,959.353652456681
0.62,4.50527003662989,0.00391229617292643,14.7616289682858,-0.108461949807524,4.4511336972633,-0.696334846251104,14.6028909947375,-2.16171885029134,-1.72511004157007,393.9307622144,959.353652456681
0.63,4.48659221050968,0.120916055439007,15.698134237028,-5.9590316776869,-4.26719712490064,1.39109994360895,-16.7444023300942,-1.25158606070928,1.28260557827597,426.812599834819,959.353652456681
0.64,4.44990941843923,0.000693837972395084,16.6367851879714,0.078760608679782,4.37718482242888,-0.801216165602986,16.3511889510606,-3.07041438748871,-1.75167996328351,459.479980604814,959.353652456681
0.65,4.21010679393087,0.0340064829199693,16.2598128563459,-1.57619165487399,-4.15936295249165,-0.652576038958957,-15.7855570072453,-4.20500704247867,1.73449811161098,491.031469800378,959.353652456681
0.66,3.96857702627925,0.0845423410274354,16.4174691388991,-4.15154879405925,3.00196348200262,2.59710728959366,9.401829675628,14.0845393629554,-0.83628057199571,521.449954987917,959.353652456681
0.67,3.70074438767893,0.0796355387189919,18.499172088792,-3.88927146748013,-0.270520324652336,-3.69170280438637,2.92936880469071,-18.6752402641733,3.08996093448836,549.586517548055,959.353652456681
0.68,3.42734404717009,0.0161700547917495,21.7534827380971,-0.684205067027227,-2.74548233459769,2.05165188049929,-17.8937071165716,12.3894065005871,0.933754379226071,576.078476317918,959.353652456681
0.69,3.30307282267902,0.036543756045984,17.8010069376128,-1.74220143470596,2.85394740184142,1.66331288263793,14.3856678151974,10.6284371072526,-1.03204832825125,601.529378724007,959.353652456681
0.7,3.0771150124103,0.0779918410050427,19.8069785572522,-3.78283863402815,0.901980228735522,-2.94298338320732,9.86956581425003,-17.5845937779845,-2.81885665630538,625.057753730248,959.353652456681
0.71,2.94661647589524,-0.0194921968016705,17.2723768237522,1.07795720525233,-2.82958442336174,-0.822423609110337,-16.9115314072129,-3.67383972716554,1.84703980070871,647.545452376241,959.353652456681
0.72,2.6986638844982,0.0692383631409481,21.2043772103037,-3.40487639860092,-0.959978443209725,2.52309771927248,-11.1964566288807,18.3264332351986,0.389213899077434,668.886478467495,959.353652456681
0.73,2.60699866388021,0.110541024142305,17.886189144233,-5.41873874766393,2.13793124297545,1.49596502358881,10.9153387356211,15.1701638753628,-0.91787835132138,688.63733135221,959.353652456681
0.74,2.40341897306196,0.0360548854337781,20.4508962982372,-1.69781633617135,2.07746370687201,-1.20907702875684,18.6595506888915,-8.54066202359702,-2.08287254370335,707.440372057274,959.353652456681
0.75,2.30313944003569,0.00777050803810253,18.2871543603105,-0.302240465568095,0.056282045735974,-2.30246476463178,0.8106833029565,-18.2716763456219,-3.11377939750369,725.234838489818,959.353652456681
0.76,2.20548430022637,0.0582056015322314,16.4097013478071,-2.84795104415193,-1.73286861291791,-1.36554577402542,-10.7951982546503,-12.6827764356589,2.26457855167109,742.000762315349,959.353652456681
0.77,1.91635733650413,-0.0126974017489209,24.4738320187528,0.682002665772855,-1.90942904202725,0.163301557393883,-24.3078461848353,2.92612289089804,1.47885446534008,757.819006107653,959.353652456681
0.78,1.89006570145827,0.0972576667609046,19.7659918336669,-4.83076219032777,-1.29557641475494,1.3795974641552,-17.60040394574,10.2106061257335,0.805412737095589,772.697909145456,959.353652456681
0.79,1.76773240267635,0.0402206233870183,20.1588597030174,-1.98000476311997,-0.37763859874858,1.72739243796908,-6.67645479895311,19.1239377405767,0.237980198406478,786.748385638091,959.353652456681
0.8,1.70215731303509,-0.0229344379302351,18.0313826891939,1.18202889648572,0.364755684395418,1.66277442771509,5.25159231219781,17.2901339550263,-0.229418144289318,799.96742917814,959.353652456681
0.81,1.5509907895204,0.0815346093372719,20.4790862196138,-4.05220060384651,0.946677596377659,1.2312683908123,8.27539582345939,19.165884432743,-0.602943961461044,812.367148542903,959.353652456681
0.82,1.52113470180466,-0.00548917234856366,17.1567290788004,0.314678295618024,1.17680163396671,0.963856227007279,13.5105994198576,10.5790395797176,-0.888157178368077,824.046853586238,959.353652456681
0.83,1.39831879509438,0.0780236177928494,18.7522106798649,-3.85814400511974,1.27593158553691,0.577392177533566,14.8431302605558,12.0918222205941,-1.09010342797093,835.032734581461,959.353652456681
0.84,1.25964307369394,0.0980549767467848,21.3916400441136,-4.84774768442254,0.0047337087902572,-1.26344491117382,6.57175319434276,-20.9264182635585,-3.06015920610099,845.38380041046,959.353652456681
0.85,1.15113475528129,0.0508538149799249,22.7675468944563,-2.47080011863016,-0.0145025327705261,-1.15216622579286,3.18803705557054,-22.6782376861563,-3.11003076494508,855.118613388888,959.353652456681
0.86,1.03139502457103,0.0564397776700645,24.9481795138912,-2.75522326214326,-0.00392814141081179,-1.03293064380837,4.02008627073671,-24.7758314221225,-3.09072828162078,864.283141642198,959.353652456681
0.87,0.960907365333022,-0.0149433557412737,24.8245391218512,0.744289990173111,0.144680690410563,-0.95007040078848,2.61777817408344,-24.6973469755981,-3.00601958612367,872.974782071243,959.353652456681
0.88,0.995017518983467,-0.0123308419547567,19.6665037108435,0.637317986853634,0.288396313888422,-0.952386202589526,4.85382443785066,-19.0687684644686,-2.8599477432388,881.097502189962,959.353652456681
0.89,0.871773217010156,0.0136885430558907,22.5650265943479,-0.6343427547304,0.394978252801634,-0.777282508436282,11.0978881709046,-19.6575607357628,-2.65574346390962,888.764281058702,959.353652456681
0.9,0.849693424235496,0.0651826031222638,20.6275155144494,-3.19592186144873,0.527750826017799,-0.669108924298853,16.3263364050792,-13.0061159625586,-2.397194223297,895.952673522094,959.353652456681
0.91,0.711320900623491,0.0228461571926366,24.6417131595675,-1.15979664477534,0.607231907595999,-0.371172171585652,21.9995186151322,-11.1615561817377,-2.08734195022053,902.724396074157,959.353652456681
0.92,0.728584866754325,0.000563875176852802,21.046770857043,-0.00574398229509493,0.719304361048503,-0.115920068129883,20.7821717490712,-3.3268504466409,-1.7298044013317,909.027850404523,959.353652456681
0.93,0.653783352346687,-0.0661795584323393,22.1885875654854,3.37354413497665,0.61847719753636,0.22203234423737,22.346793967013,2.08207050258155,-1.32700957491602,915.015137000684,959.353652456681
0.94,0.679843381233917,-0.0636556784726569,18.4523067859396,3.16888596620801,0.484344709898369,0.481299564099993,16.2587519966716,9.28345019375822,-0.881912297096111,920.630529666052,959.353652456681
0.95,0.664647572944431,-0.00643339068451787,16.8843567507684,0.34063437584287,0.251064552819884,0.615438360076762,6.84276991294811,15.4393663919112,-0.397015169549568,925.898476277631,959.353652456681
0.96,0.586266477516001,0.0334286899231427,18.6469860048044,-1.61648868396045,-0.0399721434698199,0.585856712614463,-3.93016472996672,18.29964283597,0.125080898146804,930.762776929274,959.353652456681
0.97,0.456041919631813,0.049284179514992,23.1130554370151,-2.49610882039158,-0.249178488028368,0.385114585436376,-16.5058947013567,16.3706851104496,0.681932098030047,935.369463172922,959.353652456681
0.98,0.395465130760928,-0.031334146917679,24.2022737058184,1.59221768320573,-0.387106176619451,0.0867369957624031,-22.6551779783888,8.66187742060514,1.27130341935375,939.639239898934,959.353652456681
