t,iq,id,vq,vd,ia,ib,va,vb,theta_e,omega,r
0,0,0,0,0,0,0,0,0,0,0,0
0.01,0.000596087515754848,0.000306201142742121,-0.027076000520177,-0.0153246793916452,-0.000419444171261507,-0.000522633766083014,0.0204397747679824,0.023455728725825,2.93982907539928,-0.0113629831751179,0
0.02,0.00065934602207149,0.000345651039389224,-0.0311029373031065,-0.017299047893164,-0.000470812456979515,-0.000576669271077678,0.0231830377745169,0.0270036391332035,2.93975659299727,-0.00863843092869839,0
0.03,0.000669186673406873,0.000361300538641483,-0.0321901429510095,-0.0180822789402218,-0.000488146454819402,-0.000583148284517096,0.024169728883011,0.0279105413885177,2.93970610814254,-0.00585697820238819,0
0.04,0.000635319025837797,0.000353187473408687,-0.0311227923643292,-0.0176762298057627,-0.000473422483925047,-0.000551582095139552,0.0235586554231884,0.0269456315448489,2.9396782098363,-0.00330481838756339,0
0.05,0.000643168233930495,0.000361864212327983,-0.0316983846243969,-0.0181104872124448,-0.000483507264640166,-0.00055752292360154,0.0241000242980214,0.0274220014532694,2.93965992693725,-0.0024081967113144,0
0.06,0.000638389129214323,0.000362519925693502,-0.0316484998198335,-0.0181433070900326,-0.000483197517167539,-0.000552703841335456,0.0241224878997878,0.0273662695765027,2.93964839262537,-0.00159122424904142,0
0.07,0.000650471129888018,0.000371204657114927,-0.0322392325125187,-0.018577954819287,-0.000494132417059348,-0.000562795471457164,0.0246669528884513,0.0278576731523406,2.93964250270442,-0.00154909344350145,0
0.08,0.00063381748487109,0.000363226027406756,-0.0315999319726699,-0.0181786451294834,-0.000482978334020131,-0.00054807816959002,0.0241476662947765,0.0273113355941662,2.93963741011143,-0.000812786393578156,0
0.09,0.000630680275046591,0.000362620917772684,-0.0314952020022023,-0.0181483499501299,-0.00048175741383498,-0.000545125062306054,0.024097037917573,0.0272147592065584,2.93963526514666,-0.000602787406334908,0
0.1,0.000629730380645334,0.00036257486172494,-0.0314697521699379,-0.0181460561667461,-0.000481522368313037,-0.000544203171138115,0.0240897163797878,0.0271902596674875,2.93963414195098,-0.000510722817975273,0
0.11,0.000629299642124089,0.000362571263676921,-0.0314597633159205,-0.018145866859522,-0.000481432783423221,-0.000543781606775326,0.024087544325765,0.0271804966903024,2.9396335145125,-0.000461867670287318,0
0.12,0.000629068441272806,0.000362570930037246,-0.0314546435962853,-0.0181458532962528,-0.000481386273794829,-0.000543555000451105,0.024086513757025,0.0271754751688192,2.93963315836484,-0.000434483334434351,0
0.13,0.000661134555537423,0.000379182639926971,-0.0328507534986746,-0.0189772268838038,-0.000504093999379254,-0.000571635910993599,0.0251811102854237,0.0283763780356722,2.93963049956758,-0.00110274417616531,0
0.14,0.000682447740646846,0.000392728382320413,-0.0341804468495843,-0.0196551635759187,-0.000521640760128922,-0.000589797777518798,0.0261120479145447,0.0295430085763434,2.93962866313807,-0.00154275233670108,0
0.15,0.000632695829442331,0.000364855688853576,-0.0316874898415572,-0.0182601961632889,-0.000484355466666772,-0.000546647480733745,0.0242454021878804,0.0273805085622694,2.93962720336339,-0.000170091429214654,0
0.16,0.000627484446855272,0.000362743388893356,-0.0314406195520164,-0.018154493452035,-0.000481239674003031,-0.000541966671850363,0.0240922744269354,0.027159906171632,2.93962913787962,-0.000151827748332641,0
0.17,0.000627570175553458,0.000362583538735534,-0.0314247478530016,-0.0181464935796255,-0.000481099473286488,-0.000542083429565638,0.024081213527782,0.0271459971614507,2.93963060662458,-0.000242355697825691,0
0.18,0.000628022855574742,0.000362571575038098,-0.0314321797591764,-0.0181458865593346,-0.00048117807600788,-0.000542529734963177,0.0240820855672976,0.0271534211134946,2.93963149262767,-0.000307318874414524,0
0.19,0.000628334382906021,0.000362570756009563,-0.0314385845199788,-0.0181458417568903,-0.000481239485414637,-0.000542835341087048,0.0240833125139873,0.0271597170095636,2.93963200437642,-0.000346133398822722,0
0.2,0.000628518902743246,0.000362570744095984,-0.0314425016228702,-0.0181458531821458,-0.00048127632770641,-0.00054301625387213,0.0240841014886857,0.0271635592567482,2.93963229712252,-0.000368505714814756,0
0.21,0.000628625189931746,0.000362570771815693,-0.0314447662669,-0.0181458528450214,-0.00048129758428074,-0.000543120455660874,0.024084550884578,0.0271657819644735,2.93963246421865,-0.000381297716364387,0
0.22,0.000628685958729552,0.00036257079024301,-0.0314460509741528,-0.0181458526865492,-0.000481309740170422,-0.000543180031534866,0.0240848058390629,0.027167042888132,2.93963255954643,-0.000388598423898915,0
0.23,0.000628720592287689,0.000362570800952,-0.0314467691356691,-0.0181458526306736,-0.000481316668267319,-0.00054321398520068,0.024084948362995,0.0271677477741174,2.93963261392435,-0.00039276334081605,0
0.24,0.000628740382892339,0.000362570807075255,-0.0314471675099677,-0.0181458526330711,-0.000481320627211725,-0.000543233387268601,0.0240850274325034,0.0271681387981705,2.93963264494259,-0.000395139113721376,0
0.25,0.000628751675178521,0.000362570810569046,-0.0314473818960682,-0.0181458526688261,-0.000481322886141088,-0.000543244457857882,0.0240850699905157,0.0271683492459123,2.93963266263597,-0.000396494283164492,0
0.26,0.000635802648431195,0.000366124540425907,-0.031743101911579,-0.0183237069844237,-0.000486218596020292,-0.000549439408614143,0.0243186206584813,0.0274223894999833,2.93963292710419,-0.000594490859757979,0
0.27,0.000617371140263781,0.000355890265923661,-0.0309775764048214,-0.0178115013378411,-0.000472495835070613,-0.000533434805811113,0.0236633028074026,0.0267751362287782,2.93963166240103,-4.2434791812266e-05,0
0.28,0.000617174890490858,0.000355488738418176,-0.0305855573771238,-0.0177914046463723,-0.000472062983180167,-0.000533323193294263,0.0235649732359796,0.0263951214383994,2.9396318864317,-5.08369033882355e-05,0
0.29,0.000627413438868119,0.000362034052017414,-0.0313878712193056,-0.0181189887583408,-0.000480528494439199,-0.000542041183052048,0.0240468095414543,0.0271154414343859,2.93963285811347,-0.000373684820496013,0
0.3,0.000621369173199617,0.000359218836049367,-0.0310833721505872,-0.0179780887193847,-0.000476556136681075,-0.000536686193382172,0.0238475966976362,0.0268454806252535,2.93963647807353,-0.000435250041292239,0
0.31,0.000629204688794655,0.000362317217175963,-0.0314301223115872,-0.0181331668939693,-0.000481163825534833,-0.000543740452109274,0.0240691054746111,0.0271540511117204,2.9396354054251,-0.000573113998789502,0
0.32,0.000629631367615894,0.000362551872034657,-0.0314627208545106,-0.0181449058893395,-0.000481479893193029,-0.000544110863200253,0.0240871744936157,0.02718360605615,2.93963431069265,-0.000518307015440286,0
0.33,0.000629341202256768,0.000362569539733462,-0.0314595039595265,-0.0181457811502782,-0.000481439372295868,-0.000543822720014427,0.0240874053991895,0.0271802623988134,2.93963362250566,-0.000469429211962487,0
0.34,0.000629105112089929,0.000362570810196585,-0.0314547711677439,-0.0181458490907345,-0.000481393477822783,-0.000543590980401603,0.0240865335095261,0.027175602512793,2.93963322154417,-0.000439223594121173,0
0.35,0.000628961106344127,0.000362570867147952,-0.0314516766291177,-0.0181458541012727,-0.000481364772498489,-0.000543449779460369,0.0240859239316781,0.0271725643288351,2.93963299172209,-0.000421687111294192,0
0.36,0.000628877752973956,0.000362570848997439,-0.0314498491049434,-0.0181458545085142,-0.000481348106213092,-0.000543368060685725,0.0240855613142563,0.0271707707057616,2.93963286048325,-0.000411643639943863,0
0.37,0.000628830080899815,0.000362570834801807,-0.0314487888029274,-0.0181458547757138,-0.0004813385704632,-0.0005433213243356,0.0240853509248176,0.0271697300969446,2.93963278560471,-0.000405909413671275,0
0.38,0.000628802839714591,0.000362570826412629,-0.0314481687229584,-0.0181458549627161,-0.000481333121148117,-0.00054329461794176,0.0240852278868261,0.0271691215536174,2.93963274289105,-0.00040263785842491,0
0.39,0.000628787298269175,0.000362570821605065,-0.0314478018750219,-0.0181458551037905,-0.000481330012219643,-0.000543279381608265,0.0240851551010324,0.0271687615466293,2.93963271852668,-0.000400771643572661,0
0.4,0.000628778450704744,0.000362570818861062,-0.0314475804558175,-0.0181458552185885,-0.000481328242350049,-0.000543270707729076,0.024085111176627,0.0271685442699569,2.93963270462946,-0.00039970712717681,0
0.41,0.00062877338663826,0.00036257081729588,-0.0314474402497497,-0.0181458553185348,-0.000481327229322918,-0.000543265743086634,0.0240850833659947,0.0271684067025628,2.93963269670246,-0.00039909991675847,0
0.42,0.000628770534462884,0.000362570816402999,-0.0314473490565958,-0.018145855409799,-0.000481326658787082,-0.000543262946883682,0.024085065285822,0.0271683172356773,2.9396326921811,-0.000398753558797205,0
0.43,0.000628768846440723,0.000362570815893726,-0.0314472809520551,-0.0181458554964937,-0.000481326321088942,-0.00054326129203103,0.024085051779733,0.0271682504358432,2.93963268960245,-0.000398555993381399,0
0.44,0.000628767915118151,0.000362570815603448,-0.0314472306421722,-0.0181458555802192,-0.000481326134789583,-0.000543260378987734,0.0240850418100563,0.0271682010962814,2.93963268813195,-0.000398443300458986,0
0.45,0.000628767391249204,0.00036257081543776,-0.0314471892847961,-0.018145855662346,-0.000481326029999967,-0.000543259865395929,0.0240850336174233,0.0271681605428133,2.9396326872935,-0.000398379019500105,0
0.46,0.00062876704200324,0.00036257081534337,-0.0314471501226181,-0.0181458557437876,-0.000481325960112025,-0.0005432595230371,0.0240850258546631,0.0271681221487434,2.93963268681542,-0.000398342353117559,0
0.47,0.000628766925587918,0.000362570815289655,-0.0314471188805601,-0.0181458558243155,-0.000481325936855684,-0.000543259408867519,0.0240850196741168,0.0271680915189553,2.93963268654296,-0.000398321438318534,0
0.48,0.000628766809172597,0.000362570815259037,-0.0314470855204897,-0.0181458559048436,-0.000481325913558105,-0.000543259294749889,0.024085013065525,0.0271680588170342,2.93963268638807,-0.000398309508352285,0
0.49,0.000628766692757275,0.000362570815241547,-0.031447050946505,-0.0181458559853717,-0.000481325890237169,-0.000543259180661716,0.024085006211623,0.027168024927477,2.93963268629984,-0.000398302703395876,0
0.5,0.000628766692757275,0.000362570815231644,-0.0314470214910862,-0.0181458560654428,-0.000481325890254614,-0.00054325918063965,0.0240850003829664,0.0271679960534655,2.93963268624987,-0.000398298821792528,0
0.51,4.63873477055179,0.0211217674931832,8.06438190715716,-0.996725020732434,-3.59933967787464,2.92627071267603,-6.90567396579168,4.28245062897692,0.89273072069308,277.777161883386,4127.71893740565
0.52,4.58369520237886,0.0573051590133831,10.8179867169104,-2.73941220543379,3.89059433370647,-2.42421560924181,10.6718043566997,-3.26279138328734,-2.11552433747994,608.883428945283,4127.71893740565
0.53,4.51929329316522,0.0566481410781101,14.0401741343326,-2.6636232769871,1.76590682083727,-4.1603838743145,8.08595862741057,-11.7829814461321,-2.72764738127551,937.57159397402,4127.71893740565
0.54,4.52096394348368,0.116722540096034,13.9591056223676,-5.58800491370766,3.78721826829906,2.47178415682031,8.3149455268212,12.5277336169808,-0.966737715390447,1257.60430073143,4127.71893740565
0.55,4.42467290261161,0.176171660218322,18.7764736085276,-8.51032803759845,-0.154956482062922,-4.42546666891032,8.60025004180868,-18.7354568585246,-3.13679834783961,1577.65291282136,4127.71893740565
0.56,4.34581462444434,0.135385887240514,22.7225286030374,-6.45476016876266,0.601310427888629,-4.30614210840871,10.2035377631394,-21.3041088071829,-2.97170654548059,1896.17510050263,4127.71893740565
0.57,4.29641266179783,0.154675052365175,25.196092166809,-7.3390723560199,2.14897057724384,3.72357510873907,5.31678085270116,25.6989666113169,-0.487444833519969,2210.60061107752,4127.71893740565
0.58,4.26635863136713,0.271488941002418,26.7026699202995,-13.1435544025784,3.79051213695183,-1.97674984662912,29.7380412608669,1.19770830045799,-1.98794603236884,2522.93717680223,4127.71893740565
0.59,4.16214661858716,0.369518791950049,31.9175379328906,-17.9924987800186,4.02560894238088,1.12003627407503,23.5356651319515,28.0808067341934,-1.21088309014228,2831.98599502279,4127.71893740565
0.6,3.95050260067137,0.368924830155498,34.3894737674264,-17.9880126549534,-3.91650963471329,-0.635239017547308,-28.7684057505732,-26.0496321633466,1.82470798903673,3138.008419245,4127.71893740565
0.61,2.73050536999295,0.182092788772484,39.0666304308294,-8.78604331106053,-1.5045335073188,2.2858688248975,-30.6034793155241,25.8229205177711,0.648700110726258,3385.97788611043,4127.71893740565
0.62,2.02685659641583,0.236977768901804,33.4402339035485,-11.6051039013351,1.8345324053683,-0.893754428823516,35.3965679846488,-0.10322302530547,-1.90774806122615,3566.72537262413,4127.71893740565
0.63,1.34344956139033,0.194789000736697,37.8818621119802,-9.48688325144587,0.690132145867002,1.16898122313786,5.60148877553292,38.6478945661368,-0.389320703796089,3697.8633197864,4127.71893740565
0.64,0.999784300308922,0.0777777249406906,33.534614947188,-3.69151207797877,-0.956186356970645,-0.3022013772046,-29.7134015759195,-15.9784676319781,1.95454896179929,3793.64618769766,4127.71893740565
0.65,0.67324064489534,0.0625169731924892,34.2517791287539,-2.97998319626967,0.673161811089856,0.0633601922856009,33.1058232632724,9.27734549297192,-1.38435530148445,3863.17574746199,4127.71893740565
0.66,0.384934799475948,0.0402359199614368,37.3055084266216,-1.90037298712184,-0.367126770559551,-0.122522093686184,-33.18164452056,-17.154907267896,1.99705436894757,3913.97294314173,4127.71893740565
0.67,0.191335467679297,0.110927049656948,38.7579461623198,-5.61254815940638,-0.174557195341985,-0.135808162832689,-9.32405081905287,-38.0360508450425,2.75738537729504,3950.94574276001,4127.71893740565
0.68,0.135919624073777,0.108341732274457,35.5209949732325,-5.46172383226004,0.045556459402607,0.167739930151665,-19.1004645501596,30.442466474916,0.407777997110433,3978.11515942145,4127.71893740565
0.69,0.0579092272749532,0.130937459176621,35.1382586119386,-6.51932166393297,0.0305896040343064,-0.139865553100954,35.732357948432,-0.630371860439972,-1.77188347712823,3997.76168271545,4127.71893740565
0.7,-0.0924945272973573,0.0290574484643865,39.4925616037919,-1.56347321744059,0.0359342725671798,0.0900461045592183,-23.746370777332,-31.5945682900784,2.45750209757083,4012.53477880188,4127.71893740565
0.71,-0.0506785108060722,-0.0329753519001318,35.0513045606786,1.59911735614818,-0.00480802610782804,-0.0602707903997048,-15.314248757937,31.5693666820259,0.497245985622517,4023.60661795147,4127.71893740565
0.72,-0.0925427824001843,-0.0382884609415226,35.5094064327553,1.94745705213626,0.100141552211455,-0.00135732690194389,-33.7129741091788,-11.3201550736004,1.94953612544606,4031.6730208921,4127.71893740565
0.73,-0.107101683708472,0.0694154860273967,35.0277676869997,-3.57600573429417,0.0808160411306844,-0.0987828317551831,-7.42150804723151,34.4187963829504,0.110634102124984,4037.72122284389,4127.71893740565
0.74,-0.143778276993941,0.120115730797335,35.9553886595822,-6.00861969098299,-0.15706805669082,-0.102125448775972,36.4152157251076,1.68093662770417,-1.69025188951054,4042.37574706392,4127.71893740565
0.75,-0.244277338807505,-0.0341917968993569,40.4010361424942,1.57080344828547,0.109219209937506,0.221159809664212,-14.1864662288553,-37.8609999973299,2.8219468944752,4045.7073785704,4127.71893740565
0.76,-0.153556875587395,-0.0650496635386577,35.3815765691458,3.23215651187119,0.103868498258943,-0.130470333164621,-29.5454988826675,19.7323666094529,1.07306400822129,4048.56588459558,4127.71893740565
0.77,-0.224705008954873,0.00726054254170418,38.6747829095177,-0.49852269687294,0.0925816188072632,0.204874840784407,-16.6086798621723,-34.9304897076106,2.6848649643445,4050.65620093351,4127.71893740565
0.78,-0.153442908179547,0.0707992589790457,34.8698535500971,-3.59157763377278,0.166528438185775,-0.0287322191622095,-30.7544253698179,16.8217548631806,0.967644648424173,4052.37655899275,4127.71893740565
0.79,-0.266718889175967,0.0405507475504329,40.3001736218169,-2.06409071749514,-0.14908442634377,-0.224849200114009,25.5363711264427,31.2451310467923,-0.736368993511883,4054.13571588779,4127.71893740565
0.8,-0.204675263737,-0.0491448341629691,37.1103538784859,2.38212286109259,-0.0962817084297774,0.187181759080738,22.4049997560894,-29.6794349717347,-2.43086073244656,4055.18921372968,4127.71893740565
0.81,-0.24834686355142,0.00255002243620675,39.1665908101557,-0.124488620196333,0.204054644561878,0.141578138435912,-32.3372369875687,-22.0984261230647,2.1670980865684,4056.43787047608,4127.71893740565
0.82,-0.198812745433406,0.0407676315091594,36.7014028139822,-2.13405796074652,-0.158008500740276,0.127364913612208,25.0108481033235,-26.9444734416259,-2.45147549773257,4057.13365939494,4127.71893740565
0.83,-0.232104134874373,0.0376884179396959,38.2324491615762,-1.88022670729753,0.171906434308862,0.160439783457194,-30.724240267145,-22.8314800521142,2.16073379071478,4058.40837211435,4127.71893740565
0.84,-0.204222053113892,-0.0374055973633945,36.8155071325121,1.76443461464299,0.0646046831386287,-0.197312089362824,-16.0214450055043,33.1934947673336,0.497576048326747,4059.10604804999,4127.71893740565
0.85,-0.179223390559846,-0.0210540606795782,35.5785799655866,1.06571464769393,-0.17277349942425,-0.05209237076161,33.0576117564782,13.1971741306958,-1.16101990481397,4059.86283952924,4127.71893740565
0.86,-0.175066311795476,0.0566423835107208,35.3580885332878,-2.94782206824037,-0.109945807339374,0.147541494447968,14.1648491937203,-32.530618300195,-2.81409804501437,4060.55782993339,4127.71893740565
0.87,-0.226629586584301,0.0699580825540453,37.8987104267795,-3.50370887860612,-0.173335679786354,-0.161894548836618,32.5649498840378,19.7005651433916,-1.11892335312074,4061.38380717028,4127.71893740565
0.88,-0.233349504279215,-0.0462578677247204,38.2488225061505,2.18484932072147,-0.0433858918984701,0.233900504184936,12.1256265074315,-36.3416451397503,-2.76249127259603,4061.95751959593,4127.71893740565
0.89,-0.178248120430307,-0.0361105508446332,35.4753462434118,1.80727532808838,0.18073133594307,0.0203112906402609,-34.3192962659724,-9.16255090080713,1.88259136316234,4062.72004220425,4127.71893740565
0.9,-0.197284436666956,0.0403923684510181,36.4251769786421,-2.15076072804446,0.0880084557335895,-0.181127590663239,-11.1076894160938,34.756848612472,0.250346894551662,4063.53166921655,4127.71893740565
0.91,-0.176986590312179,0.0640563468925317,35.3619176458458,-3.21257892586787,-0.16128899572645,-0.0970223097287462,34.0763063321332,9.97954055581358,-1.3765038936428,4064.18886989149,4127.71893740565
0.92,-0.264195668403044,-0.0767674430012226,39.7696112623551,3.69840052923903,0.0168840080735645,-0.274604300365542,-9.93818579390267,38.6850437450882,0.344191059630049,4064.64969128999,4127.71893740565
0.93,-0.174295168710447,0.00269424078989837,35.2098818071913,-0.146829567913105,-0.16585129454897,-0.0536601608800052,33.6205962701396,10.4600593802651,-1.27333874780438,4065.66901296292,4127.71893740565
0.94,-0.261355717223973,0.00886128959321712,39.6450104341543,-0.588811693265383,-0.0747990441234776,0.250580199491353,10.6155532020616,-38.2018792960311,-2.88540155088859,4065.85732513177,4127.71893740565
0.95,-0.212132635417087,0.0354181313835833,37.0902544482853,-1.79652567569702,0.199432946607018,0.0805058932460596,-35.8215703278819,-9.78414936448713,1.78902970940498,4066.83480144414,4127.71893740565
0.96,-0.304979536525462,-0.0472998607703092,41.770712692474,2.21355121394762,0.0100728531803608,-0.308461232826725,-5.57038860528337,41.4567608310165,0.186509626137291,4067.24025054542,4127.71893740565
0.97,-0.194861050498954,-0.00767480052617039,36.2413486772117,0.359460902403516,0.185125482967507,0.0613048702854815,-34.0553120891752,-12.4016242723471,1.92994902332399,4067.99074312235,4127.71893740565
