t,iq,id,vq,vd,ia,ib,va,vb,theta_e,omega,r
0,0,0,0,0,0,0,0,0,0,0,0
0.01,0.000596481118395379,0.000337436565379215,-0.0287728804356945,-0.0168838574135959,0.000477362887458566,-0.000491709094825735,-0.0228560960625638,0.0243010732789369,-1.85617133973848,-0.00229696734170551,0
0.02,0.000701425257457994,0.000395126579368353,-0.033949701867529,-0.0197704244278506,0.000561811593213886,-0.000576619579318829,-0.0270104162120967,0.0285287461168688,-1.85618928945346,-0.00257633696556618,0
0.03,0.000740977727775621,0.000417275025171472,-0.0358974941987963,-0.0208786354639173,0.000593517269840573,-0.000609018628690755,-0.0285668592324509,0.0301410361829367,-1.85620798696048,-0.00258806902264025,0
0.04,0.000725212624293713,0.000408769360950515,-0.0351993084403028,-0.0204530382262631,0.000580774239811202,-0.000596428556709508,-0.0280162268840186,0.0295365725591807,-1.85622556104359,-0.00238716426988221,0
0.05,0.000742587620217953,0.000419064582728891,-0.036082181533525,-0.0209681684432596,0.000594537090637906,-0.000611209576213034,-0.0287178221211993,0.0302799373298281,-1.85624249356086,-0.0023239555891747,0
0.06,0.000744209111902575,0.00042041643423255,-0.0362101874372163,-0.0210358040925395,0.000595702387135052,-0.000612972957293576,-0.0288211114392805,0.0303813472950529,-1.85625867943697,-0.00220353687925912,0
0.07,0.000757898789979446,0.000428787252510592,-0.0369112183038426,-0.021454647575952,0.000606471406276537,-0.000624869200022573,-0.0293753584834993,0.030981095094398,-1.85627376612425,-0.00214004782952156,0
0.08,0.000744875991380238,0.000421691053752874,-0.0363347204133729,-0.0210995842586897,0.000595965105428531,-0.000614401481493544,-0.0289217393991635,0.0304784736089982,-1.85628836618732,-0.00197343958431774,0
0.09,0.000742388732996846,0.000420755733010377,-0.0362584068246786,-0.0210527936716989,0.000593833596384089,-0.000612811616687625,-0.0288612784126956,0.0304124776240262,-1.85630197722313,-0.00185676241362345,0
0.1,0.000741409425403358,0.000420630881632249,-0.0362516179527168,-0.0210465489719621,0.000592921251379597,-0.000612423598763236,-0.0288561337078983,0.0304049432699822,-1.856314785238,-0.00175241735589653,0
0.11,0.000740676747010657,0.000420612737870646,-0.036254301493311,-0.0210456368350469,0.000592215956425015,-0.000612206974622908,-0.02885859855283,0.0304051721936774,-1.85632685438638,-0.00165485275104523,0
0.12,0.000740012754132256,0.000420608727893801,-0.0362580977148205,-0.0210454261009696,0.000591573014656049,-0.000612022831755158,-0.0288619545528557,0.0304063675742061,-1.85633822963608,-0.00156300363523921,0
0.13,0.000770817848709809,0.00043844157526939,-0.0377643132650298,-0.0219377105433926,0.000616100586076881,-0.000637817559063754,-0.0300554936269531,0.0316871236167811,-1.85634934213903,-0.00159919156121215,0
0.14,0.000790778437082349,0.000450331092615391,-0.0388630643461476,-0.0225326121967057,0.000631896799498195,-0.000654854994876356,-0.0309418292593564,0.0325677691109597,-1.85635996374403,-0.00159581567947358,0
0.15,0.000745420650485784,0.000424513117595985,-0.0366158530555265,-0.0212407901149854,0.000595642502191607,-0.000617311382338471,-0.0291492168558499,0.0306955211127521,-1.8563700778438,-0.00133493770836623,0
0.16,0.000738656513333293,0.000421115922917523,-0.0363207667324819,-0.0210708140220771,0.000590103830620243,-0.00061215156155293,-0.0289136916363781,0.0304495605148049,-1.85637905884904,-0.001237442174505,0
0.17,0.000737299658559546,0.000420667880830192,-0.0362821298602706,-0.0210483961830129,0.000588923024629973,-0.000611344357571796,-0.02888267998643,0.0304174082702009,-1.85638744683906,-0.00116624190251388,0
0.18,0.000736720535486086,0.000420607819245533,-0.0362791047528957,-0.0210453868546351,0.000588379454588287,-0.000611128220945309,-0.0288803850867744,0.030413896606197,-1.85639534212311,-0.00110201843321779,0
0.19,0.000736272382263206,0.000420598854627893,-0.0362809138013023,-0.0210449308820594,0.000587947434418435,-0.00061099773465915,-0.0288820230338196,0.0304141836576637,-1.85640278224823,-0.00104188763710348,0
0.2,0.000735863377054821,0.000420596671860847,-0.0362832558594195,-0.0210448285422168,0.000587551328830295,-0.000610884527599694,-0.0288840857692925,0.0304149478612664,-1.85640979465575,-0.000985268063952379,0
0.21,0.000735479808640914,0.000420595438557246,-0.0362855537649381,-0.0210447698381416,0.000587179609739067,-0.000610779156291629,-0.0288861060934794,0.0304157298831513,-1.85641640410217,-0.000931909670163864,0
0.22,0.000735118591972132,0.000420594384290844,-0.0362877326461796,-0.0210447154869221,0.000586829519716857,-0.000610680026813524,-0.0288880225317401,0.0304164716022714,-1.85642263376611,-0.000881618334916713,0
0.23,0.000734778213647878,0.000420593404637805,-0.0362897884315533,-0.0210446640337815,0.000586499622542646,-0.000610586626150394,-0.0288898309248525,0.0304171711017818,-1.85642850547386,-0.0008342168863841,0
0.24,0.000734457451302044,0.000420592482950189,-0.0362917270090043,-0.0210446111125638,0.00058618873730695,-0.000610498606666537,-0.0288915375281135,0.0304178264416895,-1.85643403979375,-0.000789539141088432,0
0.25,0.000734154940068596,0.000420591614290117,-0.0362935432316119,-0.0210445771366646,0.000585895543823036,-0.000610415591025163,-0.0288931310627117,0.0304184563145284,-1.85643925611214,-0.000747428577113252,0
0.26,0.000740232340335856,0.000424228194522887,-0.0365989135863382,-0.0212265403340515,0.000590699023947077,-0.000615620127850948,-0.0291347072988477,0.0306792327293861,-1.85644408525222,-0.000733893502862913,0
0.27,0.000723868818621386,0.000414904778724887,-0.0358324246844498,-0.0207600255193632,0.000577622773994751,-0.000602066419046667,-0.0285305849510011,0.0300157798613511,-1.85644895531101,-0.000630201873662351,0
0.28,0.000723298301860986,0.000414724849152885,-0.0357111627041838,-0.0207510255364364,0.000577123448888093,-0.000601735538856882,-0.028416641895318,0.0299730990371664,-1.85645332280433,-0.000593673425398062,0
0.29,0.000731708305158676,0.000419817237871279,-0.0362329439032196,-0.0210058243734046,0.000583755251326303,-0.00060899373034623,-0.0288453585978157,0.0303647191467926,-1.85645730733526,-0.000596098302640764,0
0.3,0.000723446906904962,0.000415415488490294,-0.0358481637607963,-0.0207855890479596,0.000577067113167039,-0.00060244419002016,-0.0285381369428153,0.0300450710920219,-1.85646046872615,-0.000538239104942612,0
0.31,0.000731395871720871,0.000419907112978885,-0.0362390366777069,-0.0210103246753584,0.000583426047010952,-0.000608995855790308,-0.0288497315504007,0.0303709484830812,-1.85646404959346,-0.000541983366335587,0
0.32,0.000732331827660249,0.000420497412234204,-0.0362945741598203,-0.0210398560730018,0.00058415560731479,-0.00060982801341243,-0.0288945906977705,0.0304150338718147,-1.85646752525767,-0.000518478139401846,0
0.33,0.000732299612176133,0.000420574584190709,-0.0363032821804184,-0.0210437266964092,0.000584100943726749,-0.000609894901108399,-0.0289017549733425,0.030421296648978,-1.85647081523258,-0.000492553610880923,0
0.34,0.000732141864112037,0.000420584289658943,-0.0363054092291115,-0.0210442031477716,0.00058394496153234,-0.000609861571009652,-0.0289035671530476,0.0304224428875658,-1.85647391812107,-0.000467592993339225,0
0.35,0.000731975358181267,0.000420585146539988,-0.0363065614670983,-0.0210442533073673,0.000583783178824591,-0.000609817178010027,-0.0289045695736472,0.0304229002659348,-1.85647684299049,-0.000443993300623021,0
0.36,0.000731815953501503,0.00042058486360687,-0.0363075278706682,-0.0210442452470222,0.000583628633485419,-0.000609773593615258,-0.0289054152084121,0.0304232445627593,-1.85647959983526,-0.000421739420826172,0
0.37,0.000731665480671161,0.000420584453445451,-0.0363084261633398,-0.0210442109877208,0.000583482790657804,-0.000609732311011931,-0.028906207693686,0.0304235399538564,-1.85648219827724,-0.000400762821051226,0
0.38,0.000731523421861204,0.000420584047945116,-0.03630925938656,-0.0210441941515844,0.000583345110747688,-0.000609693316253502,-0.0289069373778512,0.0304238294125356,-1.85648464741386,-0.000380991335708473,0
0.39,0.000731389628538917,0.000420583663227862,-0.0363100479113651,-0.0210441772912585,0.000583215441434558,-0.000609656588072955,-0.0289076284624204,0.0304241021867567,-1.85648695582341,-0.00036235589012591,0
0.4,0.000731263460417844,0.000420583300258855,-0.0363107860209427,-0.0210441589535435,0.000583093163151747,-0.000609621951773884,-0.0289082756260384,0.0304243555042615,-1.85648913159188,-0.000344791231435317,0
0.41,0.000731144568256381,0.000420582958075456,-0.036311481096492,-0.0210441420495069,0.000582977936411104,-0.000609589312547523,-0.0289088848986251,0.0304245944580822,-1.85649118234086,-0.000328235835662515,0
0.42,0.000731032544598728,0.000420582635523621,-0.0363121360854331,-0.0210441251249203,0.000582869366194274,-0.000609558558728176,-0.028909459299564,0.0304248186907854,-1.85649311525394,-0.00031263171113202,0
0.43,0.00073092698198903,0.000420582331483335,-0.0363127526622252,-0.021044106725781,0.000582767057727961,-0.000609529578431305,-0.0289100006393561,0.0304250274745387,-1.85649493710212,-0.00029792419796348,0
0.44,0.000730827214058517,0.000420582044893447,-0.0363133182832754,-0.0210441071879794,0.000582670368044793,-0.000609502186622683,-0.0289104909575938,0.0304252369698662,-1.85649665426688,-0.000284061776970906,0
0.45,0.00073073346760601,0.000420581774753899,-0.03631386388102,-0.0210440902058056,0.000582579511348458,-0.000609476449825287,-0.0289109699819319,0.0304254212339479,-1.85649827276385,-0.000270995889248218,0
0.46,0.000730645018048214,0.000420581520121108,-0.0363143716597336,-0.0210440717524681,0.000582493789222807,-0.000609452166279613,-0.0289114159639384,0.0304255907407633,-1.85649979826178,-0.000258680766077425,0
0.47,0.000730561748974307,0.000420581280105818,-0.036314853232271,-0.0210440547382577,0.000582413086955921,-0.000609429305483681,-0.0289118390630006,0.0304257517097495,-1.85650123610494,-0.000247073268606051,0
0.48,0.000730483052216992,0.00042058105386984,-0.0363152944871227,-0.0210440551253359,0.000582336818188594,-0.000609407698205809,-0.0289122210877864,0.0304259156242763,-1.85650259132961,-0.000236132736735143,0
0.49,0.000730409096368645,0.000420580840622697,-0.0363157194007761,-0.0210440380803624,0.00058226514199813,-0.00060938739400389,-0.0289125947157182,0.0304260559574894,-1.85650386868301,-0.000225820846692476,0
0.5,0.000730339188968104,0.000420580639619167,-0.0363161078741489,-0.0210440384347888,0.000582197391467489,-0.00060936819964083,-0.0289129307096359,0.0304262005934274,-1.85650507264008,-0.000216101476783314,0
0.51,4.69582781868029,-0.0113793430459546,5.20941163980265,0.574813958440208,-0.524831734529712,4.66642047425758,0.00168203291777258,5.24102832376379,0.109575932108642,33.889294126664,3481.45487026478
0.52,4.72120495710258,0.00644391437157343,3.94144176076342,-0.310583496319178,-2.25251049845268,4.14921850778708,-2.15795866189895,3.31279937140947,0.498722047326311,72.3202464875834,3481.45487026478
0.53,4.67154811461684,-0.0262078176442837,6.42516592538731,1.33022147759409,-4.31507891594266,1.79001189551158,-5.40430413714148,3.72098685048554,1.17196359381965,111.588804310141,3481.45487026478
0.54,4.66986783563667,-0.015356008270496,6.51020910764761,0.793965574235673,-3.92305815249827,-2.53328169405235,-5.90915185640467,-2.8451938943275,2.14088378371046,153.456656942283,3481.45487026478
0.55,4.72207674887381,0.0228759499963802,3.90087578661508,-1.11663987300867,1.29600987608512,-4.54080285108622,2.16103547289641,-3.43418726825955,-2.85872597058921,195.963488682174,3481.45487026478
0.56,4.66533619776346,-0.00430248668358191,6.73898895417688,0.252702927593149,4.46748633781667,1.34422697896414,6.52757208159978,1.69370411041932,-1.27944441347735,234.617759966831,3481.45487026478
0.57,4.72228499577017,0.00351686866934139,3.89275973064033,-0.132669198413379,-2.60781708691132,3.93691224068491,-2.26268897619397,3.17039714132361,0.5857888095511,275.335157071845,3481.45487026478
0.58,4.64863817665839,0.0597623408792822,7.57621349204545,-2.94283836642971,-1.79719288929362,-4.28759911297053,-0.110251835199131,-8.12693995676216,2.75753352777361,316.044368905978,3481.45487026478
0.59,4.63121083475244,-0.00543278661037649,8.44880062024026,0.325482450804557,4.05033378928412,2.24564901676154,7.55138246336966,3.80326092166538,-1.06572716813357,356.20535335402,3481.45487026478
0.6,4.66626756458503,0.0472837930417538,6.6972267272075,-2.30311883239656,-4.63571227490126,-0.535219997489366,-6.35758349413187,-3.12063043420783,1.69587596944859,396.166425024128,3481.45487026478
0.61,4.63854049821293,-0.000781601986310498,8.08499503478434,0.100114687412415,4.63541599286599,0.170226723945966,8.08325595958048,0.195296582227447,-1.5342582493316,437.283399645436,3481.45487026478
0.62,4.59858898761655,0.059380529331051,10.0839345628985,-2.89971543119244,-4.47820188708775,-1.04702176805238,-9.09210302052506,-5.23715080123473,1.813386685933,476.885621286047,3481.45487026478
0.63,4.64341467688674,0.0100236399470934,7.84404493833203,-0.416349590374061,3.42010577923465,3.14074462408689,5.48377507060104,5.62410872503648,-0.825793804839479,516.572271381142,3481.45487026478
0.64,4.63038076922662,0.06780523207616,8.49716803717661,-3.30462302613173,-0.20244485013613,-4.62645001055604,3.0560965822066,-8.58968402661477,3.11250491763471,556.915953172645,3481.45487026478
0.65,4.59176763043051,0.0487527753715831,10.4293133862191,-2.34840530060955,-3.98498811083455,2.28179240104861,-10.2503584485983,3.03574321034397,1.06138684148391,597.211978836276,3481.45487026478
0.66,4.64294616533814,0.0545234017208909,7.87192065966469,-2.63061997158148,3.01850019423126,3.52825430956857,3.02793772664532,7.72779977940015,-0.69594857543925,637.324177302368,3481.45487026478
0.67,4.58880792904869,0.0870744920820407,10.580355362785,-4.2529494971145,3.76789177812763,-2.62063574828508,11.1607823321144,-2.33846889288346,-2.15953462659937,677.317223352738,3481.45487026478
0.68,4.60787994319133,0.0613051030892131,9.62833385699501,-2.95311294169612,-0.921356668459264,-4.51524282580853,1.10171981541193,-10.0105895109378,2.95360499017117,717.211316902026,3481.45487026478
0.69,4.56401990605795,0.045123978056806,11.8230333093359,-2.13577143275072,-4.01479827135215,-2.17110771649788,-9.30920264453492,-7.59502352659979,2.07641699656281,757.219608417946,3481.45487026478
0.7,4.59922160446642,0.0856823197751284,10.064690070227,-4.18226424782634,-4.57827857460846,0.446705854219361,-10.3621231307183,-3.37871642376291,1.49216108282613,797.674351385211,3481.45487026478
0.71,4.58111064344201,0.0791485103821989,10.9719849810291,-3.84112798874335,-4.24256680701757,1.73016360560097,-11.6185136346654,0.385823237934554,1.20085030867222,837.372990028432,3481.45487026478
0.72,4.61095379476831,0.0781015484842613,9.48164580654994,-3.76670933350685,-4.27088067174857,1.73970487067445,-10.202088024235,-0.0842991681701339,1.20091419453735,876.792112923095,3481.45487026478
0.73,4.57622287482735,0.0932033136869719,11.2200494908279,-4.54261542615981,-4.55523992477437,0.447539814448811,-11.5383237323179,-3.65950145987687,1.49322741535613,917.180209527695,3481.45487026478
0.74,4.5842925328034,0.10091080549086,10.8184304415092,-4.89871197660435,-4.05785260185865,-2.13535788067734,-7.08446924152766,-9.53132266861994,2.07721467794478,956.408227069876,3481.45487026478
0.75,4.55432083673393,0.0734676299627073,12.3189400452003,-3.54389239860946,-0.927984931810184,-4.45938109415358,1.16584278716363,-12.7654325334389,2.95255355411348,996.65586529188,3481.45487026478
0.76,4.53205174224215,0.0556122335621505,13.4343302269936,-2.61909826922095,3.72619895395666,-2.58031530445684,12.6022610694611,-5.3407790001923,-2.1641866687725,1035.96873700132,3481.45487026478
0.77,4.53981202329712,0.0506789356015598,13.0483445468333,-2.37582858772389,2.98533502553007,3.42056082342212,6.6623515274528,11.4680830575893,-0.706398213788306,1075.65660676798,3481.45487026478
0.78,4.56587429659737,0.0413509555432423,11.7472948811693,-1.91868527947618,-3.92032350939801,2.34093604686547,-11.1088220489364,4.2748523848069,1.0415473360065,1115.56965380641,3481.45487026478
0.79,4.56621309097305,0.0829669915890001,11.7324507589316,-4.00356144083299,-0.365322264421998,-4.55233183730982,3.26999788449593,-11.9576761478421,3.07968253886181,1155.19447058561,3481.45487026478
0.8,4.53691942446796,0.0240756795159033,13.1992241718491,-1.04944819058507,3.49802418208595,2.88929824074995,9.4592757296128,9.26514775460198,-0.875106843512946,1194.6295064803,3481.45487026478
0.81,4.5314537613385,0.107271812153642,13.4746365056231,-5.1818749572834,-4.48250267304189,-0.672867162970465,-12.3839807744114,-7.41988390816195,1.74346185976947,1234.07314331915,3481.45487026478
0.82,4.53872454029403,0.0513067271179355,13.1132602176373,-2.37596602668492,4.52730669064624,-0.32580202845374,13.2329840187052,1.57827185748322,-1.63133251120847,1273.60125973539,3481.45487026478
0.83,4.51842149352848,0.120538322880977,14.1306252788446,-5.86454776163705,-4.51787432730687,0.139548712371608,-14.1551755397947,-5.80504062494317,1.56658877055247,1313.19485197417,3481.45487026478
0.84,4.5202832317214,0.087741333838963,14.0397775742037,-4.22119406996429,4.28838551385357,1.43192483085403,11.8138227568221,8.68144144597014,-1.22912080917499,1352.78008060584,3481.45487026478
0.85,4.49072184683156,0.114632662814034,15.5201258188508,-5.55448172721793,-2.6088086274098,-3.65702623706015,-4.0851963345622,-15.9699011768713,2.54747155278164,1392.15779057117,3481.45487026478
0.86,4.49576894113072,0.0903204389112799,15.2701083625338,-4.31207943033483,-1.36947227518171,4.28306453853189,-9.02178180665162,13.0528805805543,0.329555579175281,1431.29704014459,3481.45487026478
0.87,4.53239073665784,0.115556403451886,13.4413682269754,-5.55514885563239,-1.03701453104927,4.41367419895411,-8.7806462008587,11.5944086057342,0.256259414853424,1470.65573744497,3481.45487026478
0.88,4.46506491895259,0.0847629333096638,16.8101037686214,-4.05077366528177,4.40359806204188,0.74317803607572,15.7698334863792,7.0922991907444,-1.38462435949791,1510.2035109845,3481.45487026478
0.89,4.53161190133822,0.123033178737951,13.4851933765717,-5.92158129043618,1.66803686000337,-4.21524573673833,10.745393318676,-10.072342717051,-2.7376421947375,1549.17223381862,3481.45487026478
0.9,4.50155038717079,0.0779834625884086,14.9907240669931,-3.70393370780706,-2.82542437649062,-3.50528378329164,-6.28044391400931,-14.1066281303343,2.48049717883289,1588.7797835067,3481.45487026478
0.91,4.50878488290788,0.135959196009526,14.6315089848085,-6.55554640229858,-4.48730256432426,-0.460154017180267,-13.6385904575263,-8.42882519317452,1.70313008271001,1627.6832240011,3481.45487026478
0.92,4.44878622572661,0.119959113846464,17.633979179969,-5.78258008283423,-4.12574359318589,1.66863083829086,-18.5426767136877,0.751394986432769,1.2134230147036,1667.0977613492,3481.45487026478
0.93,4.43966865146109,0.146189965602253,18.0924427491095,-7.11113889365795,-3.68361491601811,2.48254111573163,-19.105873511541,3.58753095536423,1.0106903995251,1706.34608157991,3481.45487026478
0.94,4.46809777935542,0.152994147236713,16.6735541187384,-7.39275081285561,-3.90211028625684,2.18193498731243,-18.2079972768887,1.06254726779146,1.09516972295717,1745.2757196345,3481.45487026478
0.95,4.48049460365201,0.168168734536674,16.05636007737,-8.15317146967094,-4.4387589873078,0.632875397866511,-16.8167091270272,-6.44043461926121,1.46668742362672,1784.36984148321,3481.45487026478
0.96,4.49489964927289,0.163817545325796,15.3387579618734,-7.94048549342381,-3.90878172985185,-2.2253953432068,-8.8671556467209,-14.8223600152281,2.12478976350866,1823.547612292,3481.45487026478
0.97,4.44824934361223,0.16230577533181,17.6739828130036,-7.86919264542097,-0.482412489665153,-4.42499079970431,6.5751980068685,-18.1950716551369,3.06947289786634,1862.64626544105,3481.45487026478
0.98,4.50861331279372,0.13348066671515,14.6585686120781,-6.41773938346023,4.07743381082574,-1.92871579322165,16.001904989785,0.00701761442031668,-1.98303247763297,1901.63280758741,3481.45487026478
