t,iq,id,vq,vd,ia,ib,va,vb,theta_e,omega,r
0,0,0,0,0,0,0,0,0,0,0,0
0.01,0.000574504660596882,0.000323013479100748,-0.0274945876631374,-0.0161571159190463,-0.00039876999107999,0.000524762619612309,0.0188066949746396,-0.0257548630304708,1.16200772679166,-0.00234124742546656,0
0.02,0.000743247997407004,0.000413441455089412,-0.0356812666340895,-0.0206803085829711,-0.000517651327512332,0.000674824811014453,0.0245202116091597,-0.0331600237385609,1.16198828890479,-0.00288050827452797,0
0.03,0.000813117024572066,0.000450835100731649,-0.039091408555815,-0.022550747462707,-0.000566882482083532,0.0007369232220574,0.026905037361919,-0.036232490924006,1.16196689082458,-0.00298188403615656,0
0.04,0.000808786016138749,0.000448285652482771,-0.0389813497333259,-0.0224232262573192,-0.000563906771890982,0.000732873794550593,0.0268539983306927,-0.0360722812762646,1.16194624555285,-0.00277495687488433,0
0.05,0.000827750134948725,0.000459742402812157,-0.0399710623892066,-0.0229962851273729,-0.000576738356248186,0.000750936902331526,0.0275335861565611,-0.0369921152617758,1.16192653287948,-0.002675495577566,0
0.06,0.000831406339480773,0.000462670312069885,-0.040230697734806,-0.0231427415348991,-0.000578914986943408,0.000755087913353125,0.0277128957581167,-0.0372302422055004,1.16190780735466,-0.00252002629077435,0
0.07,0.000840776936330411,0.000469158948629528,-0.0407546902303592,-0.023467290570077,-0.000584920038690109,0.000764777434344841,0.0280640009368966,-0.037736856703849,1.16189048343594,-0.00240162809757853,0
0.08,0.000832194226411108,0.000465074069492315,-0.0404242593840927,-0.0232629836623347,-0.000578656544459862,0.000757626375029207,0.0278414260030755,-0.0374184734287989,1.16187392560243,-0.00221396753627909,0
0.09,0.000828588469399411,0.000464026848804096,-0.040323996880494,-0.0232105876454572,-0.000575752910459889,0.00075524059353936,0.0277696920596781,-0.0373309564058596,1.16185860721658,-0.00205876475359495,0
0.1,0.000826433005876431,0.000463756836502052,-0.04028751671409,-0.0231970946486198,-0.00057387180253409,0.000754143932456277,0.0277410538254237,-0.0373044653597937,1.16184436295122,-0.0019195322719191,0
0.11,0.000824755248770233,0.000463685782627016,-0.040269163934199,-0.0231935248821169,-0.000572350656494042,0.000753419173764058,0.0277251392364038,-0.0372942598095041,1.1618310974411,-0.00179126549896649,0
0.12,0.000823282233366679,0.000463665757066796,-0.0402563356104988,-0.0231925363230778,-0.000570997775436149,0.000752822097510774,0.0277133010721609,-0.0372885939875207,1.1618187379224,-0.00167214290479042,0
0.13,0.000850582081760991,0.000479862439009606,-0.04160490705638,-0.0240026816739592,-0.000589595954235355,0.000778546369161407,0.0286280237897864,-0.038568552897443,1.16180687541619,-0.0016797761646588,0
0.14,0.000865676655333959,0.000489164451543275,-0.0424746883443126,-0.0244679684994546,-0.000599737343984989,0.000793090821075149,0.0292405862082568,-0.0393416922695795,1.16179554600884,-0.00164043394097506,0
0.15,0.000831706917703095,0.000470178285415292,-0.0408118472602815,-0.0235182787966974,-0.000576111987035795,0.000762167301466623,0.0280921789209291,-0.0378093347975105,1.16178485431206,-0.00139850497590223,0
0.16,0.000821634665754978,0.000465320087653599,-0.0403778764419657,-0.0232752736658667,-0.000568795571740127,0.00075370943042599,0.0277902959259453,-0.0374140444556857,1.16177543878793,-0.00126973975380109,0
0.17,0.000818169847448949,0.000464076033344201,-0.0402534154706774,-0.0232130586662727,-0.000566104860140195,0.000751194882387237,0.027700523523969,-0.0373077008966893,1.1617668149711,-0.00117627082681558,0
0.18,0.000816565856921836,0.000463756594094544,-0.040214250007094,-0.0231970680513532,-0.000564754235855768,0.000750268372210659,0.0276706506625004,-0.0372776737703151,1.16175881986823,-0.00109644612617037,0
0.19,0.000815516553718284,0.000463673760270827,-0.0401988091537013,-0.0231929243066348,-0.000563818863413783,0.000749779230581259,0.0276578544530378,-0.0372679363840228,1.16175138072925,-0.00102405569737039,0
0.2,0.000814660981212815,0.000463651527761379,-0.0401901984426321,-0.0231918273071568,-0.000563037524381325,0.000749422444049174,0.0276501322202585,-0.0372636967155079,1.16174445147182,-0.000957144427350413,0
0.21,0.000813897366235491,0.000463644868138734,-0.0401837653079401,-0.0231914847441206,-0.000562334721147095,0.000749116244590165,0.0276441255107677,-0.0372610021833191,1.16173799510924,-0.000894941624633293,0
0.22,0.000813194881198625,0.000463642258003456,-0.0401781994352162,-0.0231913579090033,-0.000561686727040651,0.000748837818810288,0.0276388451342819,-0.0372588382959356,1.16173197880829,-0.00083701749962628,0
0.23,0.000812542804069125,0.000463640745144062,-0.0401731321107918,-0.0231912833642403,-0.000561084855510672,0.000748580212080727,0.0276340166717204,-0.037256909295575,1.16172637242174,-0.00078305066226762,0
0.24,0.00081193589610182,0.000463639570226855,-0.0401684440026725,-0.0231912218347276,-0.000560524580495531,0.000748340661142449,0.0276295452107722,-0.0372551324682825,1.16172114797768,-0.000732763322979524,0
0.25,0.000811370548406961,0.000463638535150471,-0.0401640842049131,-0.0231911631396039,-0.000560002649647773,0.000748117564615456,0.0276253871211379,-0.0372534789542445,1.16171627944479,-0.000685902571116006,0
0.26,0.000815662280351308,0.000466431334463884,-0.040387901181366,-0.0233308654985077,-0.000562826046824182,0.000752389517719326,0.0277750015748164,-0.0374708037579151,1.16171185008953,-0.000663684494130276,0
0.27,0.000804927933037947,0.000460369122211768,-0.0398997476521294,-0.023027641984693,-0.000555385482870376,0.000742560214048406,0.0274475754743484,-0.0369985507643036,1.16170737836463,-0.000577253094780794,0
0.28,0.000803725059400317,0.000459988005022776,-0.0397615565462409,-0.0230085626411507,-0.000554430533717901,0.000741734264514024,0.0273282307611208,-0.0369261849811025,1.161703427233,-0.000536061685484675,0
0.29,0.000807776696158439,0.000462701959198649,-0.0400693609609883,-0.0231443317193642,-0.000557065634456113,0.000745837899822018,0.0275564976537352,-0.037173286317161,1.16169986888814,-0.000520777871556146,0
0.3,0.00079570370446594,0.000456375952019231,-0.0395095523898102,-0.0228278942723015,-0.00054850328326565,0.000735232985610059,0.0271686581773718,-0.0366603532415014,1.16169717888962,-0.000444930276255063,0
0.31,0.000805113395332893,0.000461777107685435,-0.0399693933858863,-0.0230980529887979,-0.000554985754666903,0.00074393312108253,0.0274829766785179,-0.0370912179955995,1.1616941683213,-0.000457407089411909,0
0.32,0.000807445880244401,0.000463158315254777,-0.0400936146507076,-0.0231671529682574,-0.000556574119250041,0.000746129830722737,0.0275693495595294,-0.0372041110265861,1.16169119948954,-0.000440204272975261,0
0.33,0.000807854038770495,0.000463511213327908,-0.0401259063266307,-0.0231847951583781,-0.000556806117554886,0.000746617532805093,0.0275918538975873,-0.0372332201610831,1.16168838808894,-0.000416264115086916,0
0.34,0.000807749843117441,0.000463601089167345,-0.0401330877128201,-0.0231892999523116,-0.000556672803399049,0.000746660008899126,0.0275965526579052,-0.0372402825317244,1.16168575591549,-0.000391784980537738,0
0.35,0.000807519796784854,0.000463623708515328,-0.040133492754576,-0.0231904370187784,-0.000556450910012955,0.000746590617435494,0.0275963804820928,-0.0372415546680197,1.16168329968133,-0.000368378156058485,0
0.36,0.000807269248253447,0.000463629148270798,-0.0401321593204378,-0.0231906950472624,-0.000556217164981334,0.000746497214785239,0.027594969171952,-0.0372413241560386,1.16168100984834,-0.000346402566534899,0
0.37,0.000807025579481171,0.000463630216870209,-0.0401304331543454,-0.0231907511526238,-0.000555991587456148,0.000746402450833348,0.0275932836671296,-0.0372407478529047,1.16167887575243,-0.000325879221195914,0
0.38,0.000806795764036022,0.000463630189238125,-0.0401286933033494,-0.0231907519194674,-0.000555779264900387,0.000746312110277084,0.0275916130345766,-0.0372401113179693,1.16167688696847,-0.000306741700877488,0
0.39,0.000806580849723868,0.000463629901643026,-0.0401270349134125,-0.0231907366263262,-0.000555580818559174,0.000746227382831746,0.0275900285760913,-0.0372394887100282,1.16167503364762,-0.000288904518281756,0
0.4,0.000806380370906274,0.000463629566621336,-0.0401254784008486,-0.023190718369345,-0.000555395729734072,0.00074614828353457,0.0275885434698482,-0.0372389004214079,1.16167330657584,-0.000272281537231162,0
0.41,0.000806193629096434,0.000463629237247706,-0.0401240306537044,-0.0231907000606176,-0.000555223329998268,0.000746074588129232,0.0275871625564325,-0.0372383521021797,1.16167169715665,-0.000256790713713826,0
0.42,0.000806019238942431,0.000463628925891447,-0.0401226616697127,-0.0231906994659838,-0.000555062337382799,0.000746005761430658,0.0275858509434715,-0.037237848338866,1.16167019737567,-0.000242355105666729,0
0.43,0.000805857002557563,0.000463628634591611,-0.0401213982491225,-0.0231906810600397,-0.00055491256390586,0.000745941730836777,0.0275846470731814,-0.037237367406158,1.1616687997644,-0.000228902878920042,0
0.44,0.000805705825625421,0.00046362836282087,-0.0401202198683939,-0.023190661156576,-0.000554773000546222,0.00074588206448717,0.0275835253666754,-0.0372369162997336,1.16166749736326,-0.000216367056215093,0
0.45,0.000805564951451667,0.000463628109465749,-0.040119120564854,-0.0231906426686637,-0.000554642948632345,0.000745826464015946,0.0275824789527481,-0.0372364954997667,1.1616662836856,-0.000204685212943602,0
0.46,0.000805433518551222,0.000463627873329317,-0.0401180869634954,-0.0231906418911767,-0.000554521613719561,0.000745774589035803,0.0275814888527047,-0.0372361148027491,1.16166515268792,-0.000193799174302069,0
0.47,0.000805311270828703,0.000463627653255675,-0.0401171339569303,-0.0231906233280242,-0.000554408757082481,0.000745726339790518,0.027580582640848,-0.0372357477224769,1.16166409873725,-0.000183654727786824,0
0.48,0.000805197067398468,0.000463627448156726,-0.0401162302759842,-0.0231906239301032,-0.000554303328493681,0.000745681264383273,0.0275797167336144,-0.0372354158660388,1.16166311658504,-0.000174201353817838,0
0.49,0.000805090884987452,0.000463627257015525,-0.0401153988258078,-0.0231906038464784,-0.000554205303339429,0.000745639355377699,0.0275789278166991,-0.0372350919187696,1.16166220134035,-0.000165391974313947,0
0.5,0.000804991699133674,0.000463627078882689,-0.0401146107460865,-0.0231906043822675,-0.000554113738673491,0.000745600206921042,0.0275781728101293,-0.0372348024216529,1.16166134844523,-0.000157182718293335,0
0.51,4.72662853166886,-0.0409188726839011,3.6691085808308,2.05147635774222,-0.412771883774885,4.70874834775578,1.75635919433988,3.81917732041329,0.0787802492276075,24.3573084204252,4319.3282464352
0.52,4.75721409239825,-0.0195897361696582,2.14047124009679,0.98960059621432,-1.68568410320514,4.44858840340137,0.176622995196413,2.35153796211694,0.358089979379708,51.8643984597141,4319.3282464352
0.53,4.72929390062258,-0.0368999413547075,3.53707860817436,1.8611215929926,-3.54668950419843,3.1286699993682,-1.39213948183725,3.74655125781269,0.840135510324533,79.7910530397002,4319.3282464352
0.54,4.69743951809231,0.0350648710413299,5.13047310339759,-1.73324938056357,-4.69229616994736,0.222540389174246,-5.19556885037591,-1.52707956600619,1.53086961991331,108.967009054628,4319.3282464352
0.55,4.7234953479937,0.0523580155766084,3.82842248364408,-2.59697213912728,-3.07547514251083,-3.58547100282671,-0.470391120235718,-4.60215332194378,2.44369461594031,140.178003195518,4319.3282464352
0.56,4.70784193436992,0.0561932469266071,4.6118709582215,-2.78284988649732,1.94384943215645,-4.28816776084112,4.47478805153908,-2.99831271215465,-2.70405786187711,169.113697183913,4319.3282464352
0.57,4.69680088230701,0.0634785747744433,5.16469520962277,-3.13893284730025,4.60937873931907,0.904209983913384,4.40839161376987,4.13437533465508,-1.36357417493616,196.708282463064,4319.3282464352
0.58,4.70254258139689,0.0515460684036496,4.87849928328629,-2.54291829203662,-0.823297869537504,4.63019916904595,-3.40526480167437,4.32092123597236,0.186932191367674,226.924362558399,4319.3282464352
0.59,4.72150717333674,-0.00403076021247717,3.93118181623795,0.246732611500734,-4.37294725256359,-1.78044336084997,-3.73507543944636,-1.25071136380161,1.95659714365894,255.325824220325,4319.3282464352
0.6,4.73031073056518,0.00543412719887115,3.49194618359854,-0.22338962875415,3.35645696376289,-3.33317653115554,2.63780924810349,-2.29903315461152,-2.35156564016824,284.362339896219,4319.3282464352
0.61,4.72976873555889,-0.0242617160105471,3.5200568858997,1.26936710712063,0.724942368654699,4.67394474559375,1.81070989707627,3.27466379972658,-0.159006313738569,313.080390127004,4319.3282464352
0.62,4.71182814929507,0.0458088837530459,4.4180730657165,-2.23808099425615,-3.72042442241217,-2.89168896657977,-2.07121127419685,-4.49871759599333,2.24123053413045,342.555963419155,4319.3282464352
0.63,4.67308979216188,0.0570582000513173,6.35600224216384,-2.78528930672291,4.63348212907733,0.609809153196055,5.89394194958564,3.66306556308394,-1.4277297894369,370.534692717493,4319.3282464352
0.64,4.66269861840243,0.0602016286513491,6.87669593546843,-2.9440613545402,-4.58301726366353,0.860427453714856,-7.28026790919635,-1.71876217625097,1.39812466238514,399.868009507379,4319.3282464352
0.65,4.64987992235385,0.0107013132768232,7.51880542744965,-0.469059227054629,4.46756012637792,-1.28934259512875,7.35778141779611,-1.61725205897708,-1.84946143879358,428.996621188903,4319.3282464352
0.66,4.66811944335015,0.0189411155002635,6.60809010621675,-0.873860556170838,-4.59472522262198,0.82474119082385,-6.65972185535748,0.280342527606521,1.39724779155329,457.393781161867,4319.3282464352
0.67,4.68633328806394,0.0466251484478207,5.69856805545286,-2.24163664496863,4.64516621462776,0.621550021932855,5.32104711334511,3.03068809814796,-1.42783179661809,485.816926131887,4319.3282464352
0.68,4.63542433986606,0.0528400105799007,8.24521236715616,-2.54928234694107,-3.66454879358327,-2.8391958398089,-4.87566831996054,-7.121111282494,2.24136364605607,514.555183062859,4319.3282464352
0.69,4.67988735769542,0.0694494716749556,6.02341227425441,-3.37508889997206,0.825335331273954,4.60705876897444,-2.35659945295891,6.4899275440229,-0.162426545596676,543.261560402961,4319.3282464352
0.7,4.65607221035916,0.0375804670303723,7.21551752193877,-1.77605620937998,3.26614386815796,-3.31854259458504,6.35843969019129,-3.84555762854786,-2.3560808811281,571.951962756173,4319.3282464352
0.71,4.67078126465504,0.0454041577070901,6.4814056560753,-2.16101795033169,-4.36637859088416,-1.65921582708763,-5.2488211471939,-4.37361342885156,1.943662313531,600.639106514993,4319.3282464352
0.72,4.66964107269121,0.0398426238090559,6.53984431179636,-1.87706395742005,-0.752022505768624,4.60886074136051,-2.9581202495585,6.12719000129199,0.170275537585341,629.361171874454,4319.3282464352
0.73,4.60321123858261,0.0366236332478709,9.86278001522004,-1.73431485416733,4.53716506733133,0.777835554158987,9.4007565463914,3.45080483329446,-1.39305444422685,658.305925329821,4319.3282464352
0.74,4.61458461648809,0.0769023989529822,9.29559526507334,-3.74289218864672,1.70519431850405,-4.28866150422655,7.03243859852609,-7.13877725005108,-2.7464888890525,687.011717770165,4319.3282464352
0.75,4.65269083360152,0.0273352482403624,7.39173252799596,-1.24701862028862,-3.18685761813561,-3.39001736435184,-4.11756453107197,-6.26405839190841,2.39294976328199,715.351186892122,4319.3282464352
0.76,4.58831409213267,0.0330349430990542,10.6120559787149,-1.5188898995856,-4.55561894704981,0.547771416568585,-10.715476654037,-0.318305983654986,1.45832966885354,743.780565019144,4319.3282464352
0.77,4.62029265885768,0.0325326640933969,9.01469426526435,-1.51252255787778,-3.06905934353068,3.45384385483973,-7.15875752301418,5.68371603011331,0.733517822085974,772.754335985459,4319.3282464352
0.78,4.63019184881897,0.107298679187441,8.52129745315332,-5.22942363902392,-0.896968476303126,4.54374703476585,-6.94912647995357,7.1881167942033,0.218070818460349,800.937765490048,4319.3282464352
0.79,4.56787763950264,0.0477509757744543,11.6386804301885,-2.26883290608948,0.452145796308083,4.54569581736796,-1.22906393540689,11.7938919256745,-0.0886874341995539,829.713740272315,4319.3282464352
0.8,4.56477927756032,0.0240006116411422,11.7952535920611,-1.05557140712517,0.868906545111894,4.48138229769175,1.14697015865303,11.7867170048207,-0.186258420408897,857.924632474149,4319.3282464352
0.81,4.60871574735664,0.0516023032709807,9.60014108920408,-2.45156252349639,0.398975492351395,4.59170362655724,-1.72068449515395,9.75766942498942,-0.0754766173151466,886.695775359625,4319.3282464352
0.82,4.62844153051184,0.10720198867023,8.61553846975765,-5.19937352803911,-1.01456450643106,4.51714756566928,-7.12742598759279,7.10357564887816,0.244093891181433,914.795869122256,4319.3282464352
0.83,4.62190616750481,0.0830136254426133,8.94408060323095,-4.00009901621543,-3.16568345505237,3.3685837002568,-9.10639883894616,3.61536584077735,0.772315391761655,943.396199454357,4319.3282464352
0.84,4.55222878194147,0.0440534471310425,12.4297447645997,-2.06383409374931,-4.54067656547394,0.327083960316352,-12.5340382976479,-1.28679836521146,1.50856337708424,971.970774126181,4319.3282464352
0.85,4.55484205993182,0.0931300448162277,12.300905804018,-4.50113849279189,-2.96653605538077,-3.4575892220299,-4.34199327132375,-12.3579782230912,2.45292858424455,1000.18372929334,4319.3282464352
0.86,4.57757822215285,0.108548119993356,11.1659683354247,-5.24962576880475,1.95076111449097,-4.14252774866652,9.69026106328381,-7.637817758078,-2.6777774508436,1028.38054090204,4319.3282464352
0.87,4.58474400802928,0.111399293540524,10.8095425726294,-5.39139113172068,4.46614794739728,1.04202204089971,9.11188447440244,7.93012422915477,-1.31728815811265,1056.75691352782,4319.3282464352
0.88,4.64855520969859,0.0933034934280772,7.62089400507031,-4.4828648183819,-1.06325327430416,4.5262858453906,-6.2339106252261,6.26996497064345,0.250792016102475,1085.13027822388,4319.3282464352
0.89,4.56845189433132,0.12694622997674,11.6279489231247,-6.16599167655128,-4.15765703620539,-1.89756581583263,-7.72513464013643,-10.6560285428419,2.02674238325688,1113.4912229982,4319.3282464352
0.9,4.53677409052772,0.0715081415628913,13.2137806912454,-3.38753985663353,3.41765553247339,-2.98447034231326,12.2764393108439,-5.94713916801825,-2.27287416911044,1141.78678787327,4319.3282464352
0.91,4.56019983509492,0.122451782187837,12.0444638349059,-5.92608104194169,4.35823610483529,1.34766280258486,9.50520189887302,9.47832698569096,-1.24405470241547,1170.05244632312,4319.3282464352
0.92,4.59093863792634,0.112873017666804,10.5095262129659,-5.4374331353716,-4.1526173852754,1.96092497225943,-11.8109179366585,-0.719748439507542,1.1542044825345,1198.34690422481,4319.3282464352
0.93,4.55242099370518,0.0801729474955735,12.4374183739329,-3.83919762670951,2.57297283893778,-3.75643120202224,10.3367100888774,-7.91083047243938,-2.52342873941696,1226.80149098509,4319.3282464352
0.94,4.5501797328855,0.147250908421935,12.5515874245993,-7.18648981761576,-1.15676131135652,4.40314906630945,-10.4681535554099,9.98026772769213,0.289257180231441,1255.06927056762,4319.3282464352
0.95,4.51560904273804,0.105212156563744,14.2822762005606,-5.05878959431026,0.646918090574446,-4.47026750976201,7.36265830515179,-13.2425838985517,-2.97457919988401,1283.07478870833,4319.3282464352
0.96,4.5075748729747,0.0862131506796122,14.6861628267762,-4.09014975170729,-1.03662580984761,4.38760422932388,-7.61136777988663,13.209079607803,0.251131886332832,1311.21836113337,4319.3282464352
0.97,4.55613578242239,0.129316500438181,12.2602208676873,-6.27713741728327,2.23997063202933,-3.96958783664015,11.7027876235374,-7.2636238695511,-2.59947452184973,1339.61881799912,4319.3282464352
0.98,4.51411359491767,0.111616902915365,14.363517492058,-5.35518704687934,-3.8356408617878,2.38275870793093,-15.0971181101818,2.65813615507944,1.03964440799834,1367.55122004038,4319.3282464352
