t,iq,id,vq,vd,ia,ib,va,vb,theta_e,omega,r
0,0,0,0,0,0,0,0,0,0,0,0
0.01,0.000763360649134302,0.00043493366689745,-0.0376855068831061,-0.0217676515351988,-0.000142312870167259,0.000866968178327418,0.00679571778751006,-0.0429865828154204,0.680587736077753,-0.00128884341480669,0
0.02,0.000861989847367539,0.000490496636706076,-0.0426109304661512,-0.0245484907034198,-0.000161181958554141,0.000978587667928294,0.00773328623070466,-0.0485645557488283,0.68057790653917,-0.00140657244022222,0
0.03,0.000900785422951102,0.000512566494025144,-0.0445357274605704,-0.0256530415709277,-0.000168430478798824,0.00102262894678863,0.00808546660387607,-0.0507556380324349,0.680567736614298,-0.00141847002404525,0
0.04,0.000880075359338091,0.000501059889464223,-0.0435336024868831,-0.0250771648761719,-0.0001643325041505,0.00099929399028694,0.0079019986748079,-0.0496144853914257,0.680558126572414,-0.00133002126577258,0
0.05,0.000901322463029259,0.0005133435771213,-0.0445943272454138,-0.0256919277082992,-0.000168144915543328,0.00102353851803914,0.00809114707731884,-0.0508258055598996,0.680548659405688,-0.00131526099659407,0
0.06,0.000902547896463127,0.000514251127428233,-0.0446700821213959,-0.025737349214283,-0.000168201191870566,0.00102506355243202,0.00810304294032266,-0.0509133388849867,0.68053947246176,-0.00126723907551737,0
0.07,0.000923712856512987,0.000526640109257799,-0.0457255022411884,-0.026357411695866,-0.000171880160414166,0.00104931046712708,0.00828473826272481,-0.0521238699487331,0.680530746081843,-0.00125638054840771,0
0.08,0.000903496580765717,0.000515231297425219,-0.0447459056936391,-0.025786413042028,-0.000168018534124794,0.00102642054416909,0.00811173548429413,-0.0510032834369608,0.680522168774469,-0.00117442700998653,0
0.09,0.000901571125111815,0.000514383371640521,-0.0446649707362834,-0.0257439817228859,-0.000167457738694716,0.00102439184514858,0.00809337597524321,-0.050913745404799,0.68051402130711,-0.00112660429464472,0
0.1,0.000901071079075908,0.000514318183929356,-0.0446535658533256,-0.0257407193998991,-0.000167185777025484,0.00102396347582704,0.00808833787859087,-0.050902891558372,0.680506205106899,-0.00108306702031213,0
0.11,0.000900695249859922,0.000514311096164242,-0.0446477424475212,-0.0257403584308128,-0.00016694713731296,0.00102366815428678,0.00808457247410376,-0.0508981988455178,0.680498700698675,-0.00104144720335041,0
0.12,0.000900342238176615,0.000514308403525818,-0.0446425361006124,-0.0257402128778567,-0.000166719747971009,0.00102339327993623,0.00808104315509853,-0.0508941188156087,0.680491495181251,-0.00100149899066486,0
0.13,0.000941404569370625,0.000537921120778901,-0.0466737023078107,-0.0269219985112963,-0.000174194176978239,0.00107016731594587,0.00844006240490458,-0.0532164808829153,0.680484334475359,-0.00103376303067843,0
0.14,0.000974609149001917,0.000557343105441233,-0.0483803120034318,-0.0278940414187621,-0.000179981741269551,0.00110819714099554,0.00875789022847017,-0.0551546144485399,0.680477424544898,-0.00105374175395398,0
0.15,0.000905108862520872,0.000517491147656621,-0.0449119310973583,-0.0258995043234596,-0.00016722359103801,0.00102910417913695,0.00812566519917268,-0.0512039006733444,0.680470732138466,-0.000896436497648783,0
0.16,0.000899473811569731,0.000514535980090591,-0.0446451608791458,-0.0257516186648253,-0.000165968973459837,0.00102286593078284,0.00807246098601313,-0.0509035522081975,0.680464614648807,-0.000853249442674302,0
0.17,0.000898776420317754,0.000514315219051459,-0.0446207316760797,-0.0257405594232682,-0.000165695820184693,0.00102218593878045,0.00806538974399069,-0.0508776530807882,0.680458764566699,-0.000820101694297409,0
0.18,0.000898470065025557,0.000514297168338936,-0.0446151335150156,-0.0257396626515803,-0.000165511368924266,0.00102193738647008,0.0080622790445229,-0.0508727827879316,0.68045314928934,-0.000788915731103885,0
0.19,0.000898203931968394,0.000514294207121736,-0.0446111351833466,-0.0257395166516442,-0.000165340725605764,0.00102172955293395,0.00805960273249618,-0.0508696265329463,0.680447757772317,-0.000759021196325727,0
0.2,0.000897950604650245,0.000514292428602787,-0.0446074038957426,-0.0257394259595976,-0.000165177441133988,0.00102153238003028,0.00805706239354738,-0.0508667108886942,0.680442580974159,-0.000730320978415875,0
0.21,0.00089770763829876,0.000514290799631272,-0.0446038339598451,-0.0257393411066917,-0.000165020771450354,0.00102134331908288,0.00805462954396121,-0.0508639226508692,0.680437610334175,-0.000702763991984663,0
0.22,0.000897474334415758,0.000514289241192221,-0.0446004047827212,-0.025739256271327,-0.000164870329904087,0.00102116177898431,0.00805229533196958,-0.050861242219104,0.68043283764123,-0.000676304438008937,0
0.23,0.000897250156476102,0.000514287745075848,-0.0445971031862532,-0.0257391928438582,-0.00016472577707091,0.00102098733900082,0.00805003443603152,-0.0508586728733393,0.680428255012853,-0.000650898592175873,0
0.24,0.000897035188000638,0.000514286308412721,-0.0445939464246062,-0.0257391080338489,-0.000164587159801965,0.00102082006365493,0.00804789058445426,-0.0508562011679937,0.680423854880015,-0.000626504490764568,0
0.25,0.000896828588770344,0.00051428492881761,-0.0445909050644734,-0.0257390446189687,-0.000164453943748767,0.0010206592996834,0.00804581163645895,-0.0508538311976272,0.680419629974856,-0.000603081842677919,0
0.26,0.000905485485795783,0.000519339027866328,-0.0450233419488118,-0.0259919963184141,-0.000165967430472084,0.00103056867935837,0.00812103823412609,-0.0513491375862921,0.680415614399988,-0.000596204075867354,0
0.27,0.000879883481103139,0.000504712278660109,-0.0437712226736696,-0.0252599552714795,-0.000161226308307525,0.00100146667546054,0.00790213294002426,-0.0499153440303009,0.680411594824413,-0.000529772352504222,0
0.28,0.000878735609258077,0.000504112695620092,-0.0436620067216311,-0.0252299449918044,-0.000160966487627207,0.0010001978157967,0.00785656472314848,-0.0498115985087832,0.680407851803232,-0.000507344488087385,0
0.29,0.000894730068858771,0.000513526378741363,-0.0445134650811066,-0.0257010742183075,-0.000163707780792209,0.00101855338607818,0.00802583122478059,-0.050769871209736,0.680404342292539,-0.000515979716553129,0
0.3,0.000887477139213995,0.000509583567026941,-0.0441619574044182,-0.0255037514495496,-0.000162206653973617,0.0010104355921176,0.00795792445710982,-0.0503725248337324,0.680401298664696,-0.000486761453810365,0
0.31,0.000895119207198665,0.000513929902766373,-0.044543266207612,-0.0257212889282811,-0.000163632470349674,0.00101911076664938,0.00802854433583792,-0.050805804239494,0.680398009718857,-0.00048208698939815,0
0.32,0.000895565138967821,0.000514251036654366,-0.0445705676593672,-0.0257373514570219,-0.000163660127032329,0.00101965994804852,0.00803307167223017,-0.0508371568934506,0.680394816960865,-0.000465432422043633,0
0.33,0.000895461439964467,0.000514273909876743,-0.0445706325188627,-0.0257385023855729,-0.000163573981662925,0.0010195942317246,0.00803206184467702,-0.0508379560044159,0.680391748665741,-0.000448502633629206,0
0.34,0.000895320893894002,0.00051427471643139,-0.0445686794900481,-0.0257385476018128,-0.000163481933788981,0.00101948597063832,0.00803064827102495,-0.0508364899701435,0.680388802353063,-0.000432174655665147,0
0.35,0.000895183096111748,0.000514273922996389,-0.0445666637404198,-0.0257384899947456,-0.000163392978792722,0.00101937881963456,0.00802928114024774,-0.0508349095458242,0.680385973356351,-0.000416491327672949,0
0.36,0.000895050233325545,0.000514273044911417,-0.0445647000904401,-0.0257384508168206,-0.000163307309596651,0.00101927543261421,0.00802793819516475,-0.0508333803020749,0.68038325701849,-0.000401432130712157,0
0.37,0.000894922783841968,0.000514272193128434,-0.0445628200533868,-0.0257384058097922,-0.000163225136214394,0.00101917625196645,0.00802665788823443,-0.0508319115112281,0.680380648854152,-0.000386972607329058,0
0.38,0.000894800340220932,0.000514271374576679,-0.0445610106624316,-0.0257383637054799,-0.00016314619248893,0.00101908096608898,0.00802542505471259,-0.0508304986222258,0.680378144555361,-0.000373088907212407,0
0.39,0.000894682786042603,0.000514270588527256,-0.0445592732737642,-0.02573832159312,-0.000163070401475283,0.0010189894847484,0.0080242425993065,-0.0508291408920546,0.680375739986154,-0.000359758101551351,0
0.4,0.000894569759413346,0.000514269833733683,-0.0445575966282199,-0.0257383008007625,-0.000162997532379433,0.00101890152653902,0.0080230866572802,-0.0508278430182066,0.680373431174839,-0.000346958172454,0
0.41,0.000894461460251881,0.000514269108957708,-0.0445559973407939,-0.025738258669887,-0.000162927707994184,0.00101881724674833,0.00802200064634931,-0.0508265911115512,0.680371214308022,-0.00033466797868345,0
0.42,0.000894357410248852,0.000514268413007381,-0.044554457829932,-0.0257382165317456,-0.00016286062457325,0.00101873627345244,0.00802095673790491,-0.0508253849543992,0.68036908572412,-0.000322867220903392,0
0.43,0.000894257422134613,0.000514267744737699,-0.0445529748157686,-0.0257381957063049,-0.000162796161575386,0.00101865846096558,0.00801993611644952,-0.0508242354378168,0.680367041907368,-0.000311536408162826,0
0.44,0.00089416157940565,0.00051426710304932,-0.0445515583060533,-0.0257381506405057,-0.000162734368903458,0.00101858387408281,0.00801898031578982,-0.050823121712327,0.680365079482339,-0.000300656825704735,0
0.45,0.000894069274702005,0.000514266486885577,-0.0445501835152254,-0.0257381297943138,-0.000162674861965011,0.00101851204056922,0.00801803590864272,-0.0508220550225679,0.680363195207677,-0.000290210504054644,0
0.46,0.000893981057180248,0.000514265895232647,-0.0445488833237407,-0.0257380876219348,-0.000162617983805759,0.00101844338720397,0.00801715882535745,-0.0508210323015545,0.680361385970775,-0.000280180189340977,0
0.47,0.000893895970225939,0.000514265327116395,-0.0445476150502408,-0.0257380667556104,-0.000162563130327555,0.00101837717026572,0.00801628892392583,-0.0508200472143508,0.680359648783906,-0.000270549314798956,0
0.48,0.000893814375731075,0.000514264781601979,-0.0445464017336968,-0.0257380458780793,-0.000162510526963843,0.00101831367097059,0.0080154571221873,-0.0508191042833736,0.680357980777554,-0.000261301973405147,0
0.49,0.000893736040865013,0.00051426425779,-0.0445452365173461,-0.0257380249903664,-0.000162460025114831,0.00101825270823163,0.00801465896554626,-0.0508181982015992,0.680356379196699,-0.00025242289160764,0
0.5,0.000893660978272585,0.000514263754818946,-0.0445441246130882,-0.0257379827865218,-0.000162411630686869,0.00101819429178582,0.00801391416002987,-0.0508173196390885,0.68035484139604,-0.000243897404097671,0
0.51,4.70703009947333,-0.0377564326462674,4.64948178989979,1.89468312934614,-0.325085909596493,4.6959426164441,1.60726195429071,4.75649178339753,0.0610955927498618,18.8525957018982,3728.67980833237
0.52,4.71287400420743,0.0773743001873709,4.35834866374054,-3.86213757705506,-1.21593752100374,4.55397234366645,-4.90784770697333,3.1343804210699,0.277335255993192,40.1667467253969,3728.67980833237
0.53,4.63387683887972,0.0533488332047094,8.30956133461131,-2.65364447763953,-2.7632571737942,3.72022451572282,-7.14319822807625,5.00653150012885,0.650367682132445,61.7157059399145,3728.67980833237
0.54,4.64579758398576,-0.00805674664231781,7.7147508808409,0.426294406995351,-4.3077845980723,1.73968156831803,-6.98810280479165,3.296289924223,1.18524463864635,84.5299720106935,3728.67980833237
0.55,4.69082333465569,-0.00497164852780285,5.46476730448995,0.273342868077563,-4.44692221304631,-1.49289353450093,-5.26918108230603,-1.47449270517674,1.89362797929948,108.53901508401,3728.67980833237
0.56,4.59779056196104,0.0254014640854181,10.1176984383012,-1.23997374785034,-1.69103438815868,-4.27559656470305,-2.51355876450405,-9.87863244184869,2.77048898082902,130.391456888069,3728.67980833237
0.57,4.65005268153363,0.0420813330872423,7.50590194503638,-2.06522545963076,2.82910567266961,-3.69065331242331,6.24776950910701,-4.64425412404196,-2.47852797419628,152.049923037447,3728.67980833237
0.58,4.64906112135476,0.0007182715897458,7.5569612884476,0.00349636563118885,4.45039697214797,1.34452096164493,7.23471030363939,2.18326429047934,-1.27724800564724,175.523045726669,3728.67980833237
0.59,4.62780782517731,0.0510843342457461,8.62102740743738,-2.50507329976289,-0.355869572798069,4.61438746998279,-3.25311421699312,8.36748192039688,0.0880074905388935,196.936635381812,3728.67980833237
0.6,4.62848101754885,-0.0202955159179969,8.58883325829773,1.06495276937466,-4.62270970816742,-0.231955581504598,-8.62855125132146,0.671032371170614,1.61654679323206,220.152721658253,3728.67980833237
0.61,4.60548105092094,0.0274810303794226,9.74034097740125,-1.31139622076307,0.739169673083404,-4.54585955698329,2.91373148771335,-9.38638222220794,-2.97443360036643,241.720914008706,3728.67980833237
0.62,4.62132185438843,0.0567044889830037,8.94984287142793,-2.77428300832297,4.17889428366241,1.97399940397473,6.82926502737822,6.41540901418979,-1.11722349158057,264.393611177998,3728.67980833237
0.63,4.58257967246092,-0.000883750055309385,10.888525703936,0.106252779811215,-3.59566014016073,2.84099725306547,-8.47634650905092,6.83541012061404,0.901917008477867,287.025045124986,3728.67980833237
0.64,4.60830398430263,-0.0010571856349455,9.60387866361908,0.131088054202092,-0.259860053223165,-4.60097158023388,-0.674635569297516,-9.58105089810668,3.08494379827828,308.936982559073,3728.67980833237
0.65,4.57344007905266,0.0330833792424032,11.3487549916172,-1.56993940974772,3.46143318083846,2.989302427199,7.50057323799661,8.66027428615771,-0.851224432424484,330.973361462087,3728.67980833237
0.66,4.61714357936216,0.0994057140276319,9.16529832154649,-4.88551130736051,-4.60805040462428,-0.306215278633421,-8.7011374509873,-5.67107759745152,1.6586773851504,353.278851031576,3728.67980833237
0.67,4.60732306174691,0.0539218536925201,9.6580471497881,-2.60577644860268,4.25702191624624,-1.76297979744799,9.93453884301166,-1.17170116681469,-1.95172497750299,375.588864332216,3728.67980833237
0.68,4.65458733686656,0.0449441104462236,7.29655022083545,-2.15044627709547,-3.57025177562324,2.98672153175375,-7.00525245968866,2.96487812428667,0.883813748522175,397.838556674008,3728.67980833237
0.69,4.6082346197006,0.0322334605081926,9.6159136501819,-1.50827114813855,3.08602728018397,-3.42247000456451,7.60224130532532,-6.07837184776214,-2.40084672419318,420.026222587051,3728.67980833237
0.7,4.55997515493432,0.0571302272581771,12.030664083918,-2.7470152000175,-3.10164588036877,3.34311682555011,-10.2825660236501,6.8228884483391,0.760475873842223,442.182354965653,3728.67980833237
0.71,4.57548351017843,0.106544030831684,11.2571563588955,-5.21296982712575,3.63946933921136,-2.77500701104719,12.171726851941,-2.39743386746804,-2.19895255734451,464.404960855891,3728.67980833237
0.72,4.56740040855357,0.0978207926379254,11.6632051856808,-4.79455511583032,-4.35796257006916,1.37072157544988,-12.5385193921178,-1.34299866549165,1.28747460642885,486.847864394203,3728.67980833237
0.73,4.57557885277552,0.0821580308343141,11.2562519734192,-3.99773412974554,4.47962799594381,0.935737568954883,10.0877783320539,6.39701610007193,-1.34691619814179,508.876342532693,3728.67980833237
0.74,4.55090037390246,0.104135841343587,12.492120015137,-5.0786717602619,-2.93544021755271,-3.47918513675429,-3.87952366582031,-12.9149241363396,2.46363724739888,530.748468052357,3728.67980833237
0.75,4.55559541591494,0.0885887506256375,12.2593284069676,-4.31984824554417,-0.607598601383419,4.51576366740328,-6.13994144601953,11.4565850450239,0.153191011894786,553.184534581514,3728.67980833237
0.76,4.5359121149938,0.0427569749034282,13.2455174100246,-2.00362404563233,4.11640747559026,-1.90565379037092,12.896447039693,-3.6248992438265,-1.99493367931369,575.054346389665,3728.67980833237
0.77,4.51461086630817,0.0519913033491084,14.3126568519598,-2.48066696948527,-3.39692617186604,-2.9741060762359,-9.00379311765944,-11.3990159342741,2.30144136450107,597.284259598926,3728.67980833237
0.78,4.58016796186684,0.064815647222888,11.0368820928283,-3.092976120304,-2.04442364953779,4.09908179574975,-7.81325003191704,8.38644093465835,0.476798823752986,619.140440008653,3728.67980833237
0.79,4.52352928031717,0.051122637016358,13.8709889027779,-2.42577285273422,4.21281046584777,1.64838061525419,11.95006025742,7.44880976519608,-1.18653032629296,641.399502795812,3728.67980833237
0.8,4.50831061338881,0.079318347617474,14.6340599200243,-3.80447947952675,1.90231456325548,-4.08807476564325,9.82698217983214,-11.4917446495414,-2.68846953337792,663.218101108115,3728.67980833237
0.81,4.56617672290031,0.0706911152943525,11.742935292607,-3.37135301028638,-3.58483606504992,-2.829119560085,-6.97508497200868,-10.0304905183934,2.25439166986187,685.19840223518,3728.67980833237
0.82,4.5483521118857,0.0872953837409634,12.6363904422866,-4.21198838476977,-3.95975294668252,2.2395276329969,-13.1192369944172,2.30322171048772,1.07526626897634,707.329564195905,3728.67980833237
0.83,4.50474489129694,0.0749611034387732,14.8189671605942,-3.60143080671407,-0.182978857186001,4.50165130152454,-4.443651817827,14.5885588761961,0.0572636305366023,729.401855147135,3728.67980833237
0.84,4.46331786048519,0.0408597343043455,16.8926136204584,-1.89604221483783,3.22904766287896,3.08157865914038,10.7918859407281,13.1335664940205,-0.799607964197323,751.363896262089,3728.67980833237
0.85,4.46721897629002,0.0413012724555395,16.6998801298018,-1.91475411889303,4.45770158175385,0.29435995865826,16.5088816964029,3.16371693103843,-1.49561288908711,773.292005070239,3728.67980833237
0.86,4.4512088997407,0.119550435699904,17.502733876227,-5.82784783613465,3.93551332255083,-2.0830957404382,18.2707168435151,-2.54762822390871,-2.03076240695106,795.222477965581,3728.67980833237
0.87,4.48155428315829,0.0716454208218207,15.9877877676271,-3.42303355304519,2.95712521399347,-3.36821500619886,13.2746949960169,-9.54510288947598,-2.40510878241854,817.170295520559,3728.67980833237
0.88,4.49931031834084,0.064034308031014,15.1024203055818,-3.03065835732753,2.19097940343212,-3.93033115488626,10.1663566406403,-11.5720863209966,-2.61881344110867,839.029172166366,3728.67980833237
0.89,4.49129127540266,0.0703661183840982,15.5058681201922,-3.32957308303142,-1.0100696914507,-4.37680339169321,0.00597556047310377,-15.8593179982217,2.93045148597944,860.793998999252,3728.67980833237
0.9,4.54699000499259,0.130186792346632,12.7234208931292,-6.3001269766031,-0.603309060279791,-4.50866775047667,4.93994877344984,-13.3106703535446,3.03719549139774,882.566272084175,3728.67980833237
0.91,4.49638056816506,0.138037078929207,15.2563578876716,-6.73081002843773,0.592126501805282,-4.45935854745854,9.11320114024899,-13.9645918169133,-2.97889203216993,904.584268201962,3728.67980833237
0.92,4.46888037332322,0.140425115962494,16.6338926381509,-6.83489142606927,2.3705264793632,-3.79093856649042,14.9362183603309,-10.0155631991516,-2.55135511401458,926.437972502025,3728.67980833237
0.93,4.51054407426656,0.0816711955902252,14.5532337222931,-3.8571559887699,4.13510187153897,-1.80349952649986,14.9205644998893,-2.01271436176054,-1.96396323131862,948.133678014196,3728.67980833237
0.94,4.48540062498908,0.0806417670925028,15.8130094256346,-3.84360155328311,4.23480686192774,1.48045016917895,13.4974976752817,9.09076985196375,-1.21650917605245,970.128779595891,3728.67980833237
0.95,4.4700078913711,0.11437949694484,16.585277913484,-5.48768514363513,1.46926699613998,4.22318691420295,-0.180172795940115,17.4686481865878,-0.309224426238281,991.739955255802,3728.67980833237
0.96,4.47025220609905,0.135857924730714,16.5757302416163,-6.59407399032881,-2.97377047428243,3.34040436596105,-16.1823729505262,7.50782595182137,0.757780283243702,1013.67609904003,3728.67980833237
0.97,4.46066082463656,0.127873835707,17.0579886527841,-6.16324966007312,-4.13612921217751,-1.67519606329457,-13.1440743342394,-12.4977571246561,1.98427800784412,1035.35820080649,3728.67980833237
0.98,4.4613620553999,0.156981003531465,17.025616313272,-7.6140998750592,0.859029827206723,-4.38069197511089,11.2773786629375,-14.8548597518406,-2.91278285999829,1057.07815495189,3728.67980833237
