t,iq,id,vq,vd,ia,ib,va,vb,theta_e,omega,r
0,0,0,0,0,0,0,0,0,0,0,0
0.01,0.000509918975533964,0.000287816443512434,-0.0250610263038039,-0.0144024012561605,-0.000197042692231328,0.000551389013495902,0.00951578370245017,-0.0272934802081301,0.857072437044925,-0.00204582954604988,0
0.02,0.000589204663821822,0.000331414395552392,-0.0290104218623047,-0.016584055326421,-0.000228425519226798,0.000636254209899401,0.0110725247232503,-0.0315283152729684,0.857056716928754,-0.00223671109497663,0
0.03,0.000619169836132812,0.000348333043740704,-0.030500947693373,-0.0174306742661034,-0.00023998995634243,0.000668664352416932,0.0116444564206114,-0.0331442732645227,0.857040632144822,-0.00221716221833514,0
0.04,0.000604877527735823,0.000340769116157331,-0.0298253779555991,-0.0170521703975157,-0.000234128479373681,0.000653593351582326,0.0113811027647527,-0.0324160482680784,0.857025741548505,-0.00202253669922083,0
0.05,0.000619239452863832,0.000349330219090116,-0.0305500163894752,-0.0174805621219012,-0.000239370242014666,0.000669470678364995,0.0116479194591107,-0.0332144475457431,0.857011489425323,-0.00195402313221594,0
0.06,0.000620084592315042,0.000350244550123479,-0.0306124831492987,-0.0175263156675482,-0.000239401410786642,0.000670718354476062,0.0116647333584606,-0.0332900865291855,0.856997994610416,-0.00183558850293216,0
0.07,0.000632416546981412,0.00035779954389036,-0.0312350107743808,-0.0179043767549329,-0.000243768045181992,0.000684505911334732,0.0118873465018118,-0.0339835783607926,0.856985542830258,-0.00177482428160817,0
0.08,0.000620148206427802,0.000351147604851604,-0.0306538094648754,-0.0175715158774359,-0.000238841865520849,0.000671448435550459,0.0116655639284688,-0.0333515940124408,0.856973582562445,-0.00161518726511343,0
0.09,0.000618091491672335,0.000350434305623652,-0.0305705121689286,-0.017535819149085,-0.000237746897779849,0.000669565312147905,0.0116256070510494,-0.0332702033085856,0.856962550057342,-0.00150682285706838,0
0.1,0.000617247550267326,0.000350356602260055,-0.0305453534323481,-0.0175319213881968,-0.000237152991510014,0.000668956460224488,0.0116088005576344,-0.0332509042505921,0.856952262080965,-0.00141028149121969,0
0.11,0.000616582548608648,0.000350347004621292,-0.0305278765283507,-0.0175314416390833,-0.000236650211460104,0.000668516073338357,0.0115955854272623,-0.0332392101271055,0.856942655484844,-0.00132065151473349,0
0.12,0.000615975529426961,0.000350344779166257,-0.0305122396976924,-0.0175313403907027,-0.000236186862355436,0.000668119063635047,0.0115835345862186,-0.0332289992890848,0.856933683660718,-0.00123700326094197,0
0.13,0.000642593123815973,0.000365731981375234,-0.0318275426016337,-0.0183013130422237,-0.000246224471375446,0.000697179542637409,0.0120732420473879,-0.0346722850933344,0.856924941259229,-0.00126976505455938,0
0.14,0.000661055128468919,0.000376752978458566,-0.0327930766678255,-0.0188528114214198,-0.000252956564827493,0.000717599934478212,0.0124416272314735,-0.035721426170669,0.856916674079153,-0.00127257144939907,0
0.15,0.000619596595637014,0.000353167186090003,-0.0307281692866524,-0.0176725738471793,-0.000237059114298307,0.000672629154128641,0.0116534377780604,-0.033477419883349,0.856908863031284,-0.00102784843013123,0
0.16,0.000614449561365278,0.000350642340445402,-0.0304871213863882,-0.0175462227713213,-0.000234817542226892,0.000667352257984892,0.0115537541695392,-0.0332241669355164,0.856902059778155,-0.00094473482704751,0
0.17,0.000613487878191182,0.000350371311611684,-0.0304499482190839,-0.0175326650788298,-0.000234263952451844,0.000666519191973982,0.0115343263527123,-0.0331896521057458,0.856895762250505,-0.000883770685209754,0
0.18,0.000613030225962294,0.00035034152192134,-0.0304367603767345,-0.0175311760477918,-0.000233933644601292,0.000666198386255249,0.0115251388650474,-0.0331799591619821,0.856889887159529,-0.000828741725758289,0
0.19,0.00061265330895072,0.00035033759927437,-0.0304269110082941,-0.017530977521967,-0.000233647681986511,0.000665949901370911,0.0115176426111133,-0.033173423023032,0.856884400887576,-0.000777566277596856,0
0.2,0.000612307067506883,0.000350336493037002,-0.0304179933639217,-0.0175309172027753,-0.000233383303906166,0.000665723543770375,0.0115107721536543,-0.0331675971798502,0.856879277096403,-0.000729796264995984,0
0.21,0.000611984174768592,0.000350335733362685,-0.03040968660892,-0.0175308860130492,-0.000233136573410895,0.000665512655308816,0.0115043556161439,-0.0331621894016748,0.856874491767932,-0.000685184574132318,0
0.22,0.000611682818867244,0.000350335052987271,-0.0304019376013675,-0.0175308577075884,-0.000232906280784792,0.000665315853275696,0.0114983692664742,-0.033157145324846,0.856870022536279,-0.000643520042598759,0
0.23,0.000611401537185699,0.000350334420541295,-0.0303947075371598,-0.0175308133452074,-0.000232691326866368,0.00066513216152146,0.0114927954776324,-0.0331524254757219,0.856865848520287,-0.000604607704594391,0
0.24,0.000611138656546806,0.000350333830078508,-0.0303879448030795,-0.0175307849973306,-0.000232490437681458,0.000664960484848533,0.0114875735853356,-0.0331480205306311,0.856861950219399,-0.000568265730324887,0
0.25,0.000610893179997971,0.000350333278543061,-0.030381629475842,-0.017530756625764,-0.000232302849354345,0.000664800172686963,0.011482698422843,-0.0331439055394677,0.856858309421269,-0.000534324330279724,0
0.26,0.000616317552080139,0.000353550715358924,-0.0306520841659971,-0.0176917686130852,-0.000234293471970991,0.000670784616940967,0.0115815607469,-0.0334427330079972,0.856854981768119,-0.000527026232643661,0
0.27,0.000601164832758207,0.000344923207090021,-0.0299163866331141,-0.0172600429329013,-0.000228488476204583,0.000654342564087173,0.0113081213784426,-0.0326347309184245,0.856851598253563,-0.0004328033760018,0
0.28,0.000600663866658129,0.000344735489397197,-0.0298489194502953,-0.0172506423083878,-0.000228230836232014,0.000653873323933203,0.0112631898207106,-0.0325834805916249,0.856848633131832,-0.000403896149008608,0
0.29,0.000608965262394532,0.000349732540183349,-0.0303065936709587,-0.0175007009814986,-0.000231230952115402,0.000663086560902982,0.0114452605466241,-0.0330721962651456,0.856845987071359,-0.000414842049144086,0
0.3,0.00060272496438083,0.000346433571705497,-0.0300044787740631,-0.0173356211119462,-0.000228673621512726,0.000656507408272561,0.0113249624724583,-0.0327496218426651,0.856844041637022,-0.000371048478727643,0
0.31,0.000608945758311588,0.000349913674434008,-0.0303123798172223,-0.0175097692065179,-0.00023109473728446,0.000663211684548011,0.0114435527019873,-0.0330828881660279,0.856841670381551,-0.000375740103941814,0
0.32,0.000609522087251462,0.000350285776517177,-0.0303441356690837,-0.0175283923634922,-0.000231285130235377,0.000663870837294142,0.0114552822396755,-0.033117784001374,0.856839379089094,-0.000357448931820495,0
0.33,0.000609461073181575,0.000350325307027671,-0.0303445014855716,-0.0175303584567103,-0.000231211705028445,0.000663861256532951,0.0114542000948106,-0.0331195340881579,0.856837230366163,-0.00033776900316495,0
0.34,0.000609335279263659,0.0003503292675774,-0.0303414783763564,-0.0175305568344684,-0.000231112706867479,0.000663782340079205,0.0114517189061482,-0.0331177273840461,0.856835222571673,-0.000319091573032561,0
0.35,0.0006092098925658,0.000350329439516562,-0.0303382673740653,-0.0175305646038955,-0.000231016585648502,0.000663700795952009,0.0114492249253316,-0.0331156520576116,0.856833347287083,-0.000301613811300716,0
0.36,0.00060909195642506,0.000350329222646347,-0.0303352265907606,-0.0175305534402525,-0.000230926432456983,0.000663623807902031,0.0114468760984768,-0.0331136724604876,0.856831595861749,-0.000285286642751687,0
0.37,0.000608981536492525,0.000350328979689808,-0.0303323717842466,-0.0175305538669137,-0.000230842053911488,0.000663551695005916,0.0114446640752589,-0.0331118220752498,0.856829960125137,-0.000270037520406482,0
0.38,0.000608878559715015,0.000350328748440157,-0.0303297117208674,-0.0175305382987552,-0.000230763364934233,0.000663484439808884,0.0114426132905546,-0.0331100858832753,0.856828432437408,-0.000255795629595104,0
0.39,0.000608782393235513,0.000350328531985972,-0.0303272264925487,-0.0175305241689943,-0.000230689880430021,0.000663421631923611,0.0114406970451224,-0.0331084641065056,0.856827005661247,-0.000242494482845758,0
0.4,0.000608692571390905,0.000350328329765294,-0.0303249037300278,-0.0175305100234654,-0.000230621244373815,0.000663362967572117,0.0114389067212539,-0.0331069476234329,0.856825673131011,-0.000230071944382158,0
0.41,0.00060860857773638,0.00035032814088376,-0.0303227278632278,-0.0175305103731964,-0.000230557062876879,0.000663308109363181,0.0114372208422429,-0.0331055372772876,0.856824428621426,-0.000218469978215123,0
0.42,0.000608530281008479,0.00035032796446711,-0.0303207018628715,-0.0175304961967246,-0.000230497233422023,0.000663256972052854,0.0114356604644696,-0.0331042131473002,0.856823266318091,-0.000207634381405412,0
0.43,0.00060845699756166,0.000350327799693564,-0.0303188004648348,-0.017530495058592,-0.000230441236244658,0.000663209108621042,0.0114341882633611,-0.0331029795846809,0.856822180790716,-0.000197514531335321,0
0.44,0.000608388712551269,0.000350327645795644,-0.0303170312290806,-0.0175304808548922,-0.000230389057243494,0.000663164509960359,0.0114328268779883,-0.0331018218702043,0.856821166968073,-0.000188063149262587,0
0.45,0.000608324800539721,0.000350327502055685,-0.0303153706954625,-0.0175304811431728,-0.000230340221044816,0.000663122767078083,0.0114315403748609,-0.0331007455229088,0.856820220113776,-0.000179236079447391,0
0.46,0.000608265246678317,0.000350327367803844,-0.0303138253632851,-0.0175304669156176,-0.000230294713915182,0.000663083870782368,0.0114303525146478,-0.0330997329268107,0.856819335803893,-0.000170992082865681,0
0.47,0.000608209483739282,0.000350327242414397,-0.0303123736793051,-0.0175304671786736,-0.000230252104820617,0.000663047450122354,0.0114292278763786,-0.0330987919375646,0.856818509907396,-0.000163292644538232,0
0.48,0.000608157555081307,0.000350327125302602,-0.0303110241179943,-0.0175304529301303,-0.000230212424342138,0.000663013533952191,0.0114281917286657,-0.0330979062303041,0.856817738565806,-0.000156101793599064,0
0.49,0.000608108951684551,0.000350327015922239,-0.0303097571529235,-0.0175304531708129,-0.000230175285738702,0.000662981789372054,0.0114272102035295,-0.0330970849774963,0.856817018174974,-0.000149385935243049,0
0.5,0.000608063716905495,0.000350326913763101,-0.0303085804885454,-0.017530437448328,-0.000230140719871114,0.000662952245173746,0.0114263089537155,-0.0330963102483436,0.856816345369806,-0.000143113693774792,0
0.51,4.71734516847056,0.0355000729711941,4.13359829508268,-1.76984468694054,-0.555660309901924,4.68463950733386,-2.27366833587246,3.87935785658568,0.12558692942545,38.9867088443121,2807.97558027496
0.52,4.73248117724817,-0.00898924533959178,3.37776697613968,0.464919369950622,-2.5769059463379,3.96938466809005,-1.44342383114727,3.08901074930652,0.573909855800459,83.4183314449496,2807.97558027496
0.53,4.69771370004598,0.0517422195053856,5.11717199315949,-2.56529394095276,-4.57456890959623,1.0698180014538,-5.55187778364512,-1.39385626466022,1.35207694309843,129.305034386888,2807.97558027496
0.54,4.65732737922887,0.0287780973111329,7.13757103066674,-1.4130276584176,-2.88207284941092,-3.65857657933904,-3.26672929274726,-6.50154190243923,2.48054009151882,179.075845253804,2807.97558027496
0.55,4.69407924721514,0.0126870037451643,5.30115324953292,-0.59757486663487,3.43834646929723,-3.19567121216673,4.29838089535904,-3.15962706259449,-2.31692759717077,225.345839574269,2807.97558027496
0.56,4.62858211741309,-0.0103114205615061,8.57725845180776,0.565632763779471,2.21772674253486,4.0627043749793,4.62231061286728,7.2473131276869,-0.501898095391118,270.550719394373,2807.97558027496
0.57,4.62772946046721,0.00306815578845221,8.62121379631044,-0.102866574105205,-4.60901982770544,-0.415722985501366,-8.57653276645344,-0.882606684606547,1.66141360221186,318.549450095354,2807.97558027496
0.58,4.62471772086647,0.00658660866563787,8.77313769959445,-0.266555008196018,3.93443282497107,-2.43069860881605,7.60998706953672,-4.37345326600429,-2.12277824004404,364.378104807159,2807.97558027496
0.59,4.60634567093138,0.0482091794278219,9.69312290298511,-2.34083719654382,-3.00775596750689,3.48914726043715,-8.16226868188,5.72830868214157,0.721903253571726,410.488797921007,2807.97558027496
0.6,4.6442420111296,0.0352513965519554,7.79979639362641,-1.69086443648416,3.18456762243633,-3.3806442547287,6.61306923892759,-4.46801539452855,-2.37846141850853,457.65754975178,2807.97558027496
0.61,4.62230972089605,0.0236167778317535,8.89795100774428,-1.10602316033487,-4.19688337403012,1.93713057197362,-8.55621836520642,2.68103462385681,1.14347669783029,504.237680068717,2807.97558027496
0.62,4.58888412343898,0.0294570668863325,10.5708131627239,-1.39350782920844,4.40211901839456,1.29617644054687,9.71882811549752,4.38501254875024,-1.27802563636197,550.445093196234,2807.97558027496
0.63,4.59086148660406,0.0278852615242871,10.4735791323016,-1.3082695102068,-1.0225743475704,-4.47561487180093,-0.993643971761813,-10.5080969071141,2.9230453838558,596.626723318336,2807.97558027496
0.64,4.58059284975605,0.0328784930205612,10.9887100416398,-1.55055201018246,-4.22216279518607,1.77658469583808,-10.7500079177842,2.75559243776983,1.17968655176644,642.772401733856,2807.97558027496
0.65,4.60257657015803,0.0386344299551549,9.89126622595652,-1.82595268035106,1.06648005082887,4.47747964870078,0.431264798365399,10.0491423224731,-0.225436678602879,688.657170826235,2807.97558027496
0.66,4.60551644983531,0.100726493439038,9.74606113840164,-4.91514448850152,4.45677997918757,1.16534965280684,8.02581254867969,7.39801905848891,-1.29317705928894,734.248334475342,2807.97558027496
0.67,4.58599591336159,0.082384559759217,10.7239600468309,-3.98557298612833,4.08691691956025,-2.08212771598385,11.3864161440389,-1.11249202628667,-2.02402218277723,780.376988169647,2807.97558027496
0.68,4.59403562000711,0.0683812346472212,10.3238954451728,-3.29627510215427,2.99467781558877,-3.48450054555405,9.31243588709694,-5.54317459229373,-2.41676678462692,826.669100578133,2807.97558027496
0.69,4.53741255395351,0.0740948872591622,13.1570151626884,-3.55527956074854,2.75194506751029,-3.6083792875055,10.9398114794,-8.12819694283275,-2.47371370666563,872.013020129218,2807.97558027496
0.7,4.56618896785279,0.106354893897325,11.720278554533,-5.18221539856678,3.64510787291926,-2.75219578670894,12.5409660872041,-2.63523346832612,-2.1942264922605,918.255652453061,2807.97558027496
0.71,4.54467498299838,0.0357275131301213,12.7980655590902,-1.64912727789633,4.54416902562956,-0.0766486972797049,12.8123963110573,1.53381993789255,-1.57980097196367,963.946718897279,2807.97558027496
0.72,4.56600252120984,0.0936216260861273,11.7338279885747,-4.51054564942368,2.76402872982804,3.63555899597996,3.2627459373493,12.1401083302129,-0.629544263580367,1009.30082544827,2807.97558027496
0.73,4.53397479053007,0.11488112640749,13.3373733132229,-5.57960380557978,-2.67308273977774,3.66398058683028,-12.5539337202561,7.17051278995635,0.655621130715489,1055.19988168903,2807.97558027496
0.74,4.54375092919389,0.120853622433101,12.8507817085985,-5.87998895588983,-3.53990030962943,-2.85120744641476,-5.9814064654627,-12.8038914919784,2.27544221157887,1101.00836595729,2807.97558027496
0.75,4.49901293082488,0.130218890427327,15.0899625061359,-6.34702615570139,3.92441152206186,-2.20387579429099,16.311894685542,-1.38340204768185,-2.05355176284669,1146.62813553092,2807.97558027496
0.76,4.50839769108325,0.0813544064551053,14.6230940195306,-3.89214036651687,-0.967975739896911,4.40400854306454,-7.18201920277371,13.3192430531052,0.234397165699276,1192.06848349172,2807.97558027496
0.77,4.49949087219803,0.132533826787739,15.0708452956379,-6.43797288307226,-1.39615378757707,-4.27945533049132,1.92616362823162,-16.2747585679635,2.85568127796193,1237.37208125475,2807.97558027496
0.78,4.49322697326323,0.0734178863292312,15.3865209249968,-3.45906822814377,2.11434152218716,3.9653548071829,3.93809779022817,15.2709385755073,-0.473518104801627,1282.58507584126,2807.97558027496
0.79,4.4829304619736,0.102794300025822,15.9038638612324,-4.94488029349852,-1.54453960980216,-4.20970659176632,-0.454225993144126,-16.6486757906086,2.81286869801151,1328.1432791466,2807.97558027496
0.8,4.49880706842623,0.106401688057057,15.1126124920202,-5.12597401863774,-0.560875420577856,4.46497537739401,-7.30708588683959,14.1870772823744,0.148608830168818,1373.54682638222,2807.97558027496
0.81,4.46860554015151,0.126507985358495,16.6252771152521,-6.09304471342086,3.58140538517791,-2.67543925568325,17.1023464878285,-4.58636867782461,-2.18409503054627,1418.47520515507,2807.97558027496
0.82,4.44169974106288,0.101252206218545,17.9732433814912,-4.86377677804688,-3.88950921378334,-2.14724630047805,-13.0855676452782,-13.2461964955165,2.09801236994275,1464.02091007442,2807.97558027496
0.83,4.42730398162284,0.17864335005505,18.6957042813635,-8.68834441379071,2.00441200430323,3.95161568339046,-0.122408207931049,20.6155694430077,-0.429093213871428,1508.8899223058,2807.97558027496
0.84,4.45339699790352,0.143916310358379,17.3938269056339,-6.96213190045487,4.3387471881097,-1.01426306399939,18.4212467904635,3.41674724077193,-1.76813622590208,1554.06150389271,2807.97558027496
0.85,4.46429776975586,0.12218873177873,16.8515468760048,-5.89283176871932,1.47879678700895,-4.21402951175628,11.5178666704688,-13.6396057761915,-2.77673308191866,1599.36238443836,2807.97558027496
0.86,4.4193441746826,0.131007249147979,19.1020797008856,-6.33929959188378,-1.48777381635272,-4.1634474783532,0.138125184585506,-20.1260301512252,2.82802765499281,1644.353814275,2807.97558027496
0.87,4.31869165656529,0.133888599539186,19.9882120990016,-6.47562376864186,-2.76223855251808,-3.32250838382028,-7.19051695910611,-19.742309691839,2.47900553254186,1688.92995264384,2807.97558027496
0.88,4.16981139365426,0.127194798776358,20.9264776086284,-6.13117935226111,-2.74785207430388,-3.13891932888191,-8.56316077294797,-20.054453443828,2.45302283181221,1732.3198537006,2807.97558027496
0.89,4.08151369604389,0.13595693895718,19.0151425803251,-6.59244625293868,-1.71936670626107,-3.7041890434541,-1.35841113604554,-20.0796094118747,2.74031723862227,1774.44988340291,2807.97558027496
0.9,3.950537161942,0.122338323400675,19.3946134992274,-5.91458505628347,0.626023347831375,-3.90253831515172,9.4712961317391,-17.9284103801014,-2.95157573729965,1815.35378970823,2807.97558027496
0.91,3.82727364821054,0.157286423869112,19.5210099728735,-7.65173803523426,3.29385006910586,-1.95532972147197,20.8135839900682,-2.53251787935484,-2.06544608287959,1854.90522045794,2807.97558027496
0.92,3.73049295913053,0.115615256612077,18.5146347713786,-5.53703450463011,2.97957476549128,2.2476829897767,10.9583208069302,15.9174638970976,-0.893526271817561,1893.13447010475,2807.97558027496
0.93,3.58321753007546,0.15313105053359,20.2307047164946,-7.42370356477092,-1.75940289128345,3.12528373953807,-16.9757761021341,13.27463045338,0.555446804978542,1930.44791762824,2807.97558027496
0.94,3.45653481289726,0.092395808054377,21.0074452540239,-4.42067840802726,-2.69752772059365,-2.16321845747154,-13.1748209352866,-16.9493140572456,2.27343514416771,1966.62910930634,2807.97558027496
0.95,3.40464678271843,0.17664892356538,18.2200874784391,-8.58863757617295,2.97141767002305,-1.67137715299287,20.138849296296,-0.403772408542363,-2.03133603766791,2001.46494214727,2807.97558027496
0.96,3.2476601951976,0.0933745961145822,20.8387727547562,-4.4823543169468,-0.552515140432847,3.20167808785689,-8.52581860758205,19.5360274164844,0.19963080173089,2035.52547415005,2807.97558027496
0.97,3.10628725537096,0.126617181928648,22.8152250581967,-6.09944135060116,-3.04278822056579,-0.637567461862431,-20.6282252892919,-11.4984347047677,1.81808115143384,2068.25380109669,2807.97558027496
0.98,3.08623555052953,0.11594090202796,18.8331673357095,-5.59179421543479,3.01453171573125,-0.671483954362127,19.5334170536979,2.09808785538353,-1.75241777747638,2100.12358892826,2807.97558027496
