t,iq,id,vq,vd,ia,ib,va,vb,theta_e,omega,r
0,0,0,0,0,0,0,0,0,0,0,0
0.01,0.00053982725652167,0.0003066467449594,-0.0267917781186025,-0.0153438449932692,-0.000335120552761007,-0.000522627886928229,0.0167568287985329,0.0259314797601401,3.08800546188697,-0.000823931641317422,0
0.02,0.000629512472243889,0.000356466356269676,-0.0312616174932498,-0.0178366876244386,-0.000389676249008222,-0.000609513442691525,0.0194856991917308,0.0302612570907992,3.08799903144083,-0.000924890345854114,0
0.03,0.000663616144523214,0.000375659832971539,-0.0329578473393924,-0.0187970812487965,-0.00041067335912708,-0.000642537228091369,0.0205357923139792,0.0319034668767779,3.0879922975035,-0.000936413133722825,0
0.04,0.000649290818385624,0.00036776115257181,-0.0322547775774023,-0.0184018587396364,-0.00040202256473609,-0.000628653075729242,0.0201036701771923,0.0312224522907458,3.08798590727616,-0.000873819321576353,0
0.05,0.0006651491945723,0.000377022585141218,-0.0330467023988227,-0.0188652666801134,-0.000412124414886854,-0.000643989865914763,0.0206090439386054,0.0319882812024151,3.08797967619715,-0.000859758075114842,0
0.06,0.000666694027642227,0.000378141387753285,-0.0331293855284569,-0.0189212508667246,-0.000413328281021963,-0.000645470036278389,0.020669571592665,0.0320677209983864,3.08797365327265,-0.000824458910482645,0
0.07,0.000679738463936449,0.000385931273748474,-0.0337813495118169,-0.0193110482712652,-0.000421809807729078,-0.000658075841765492,0.0210939356076523,0.032697737547954,3.08796796785837,-0.000809384822148952,0
0.08,0.000667675687989997,0.000379215835389751,-0.0331894985174044,-0.0189750168513593,-0.00041446106377917,-0.00064638804193325,0.0207268432131435,0.0321246330214669,3.08796240799562,-0.000755555964369843,0
0.09,0.000665742858627603,0.000378401519607829,-0.0330991216523552,-0.0189342729729608,-0.000413547694078559,-0.000644499471355465,0.0206814815006507,0.0320364615728742,3.08795715784754,-0.000719621081407679,0
0.1,0.000665112502277557,0.000378301378701191,-0.0330730094446732,-0.0189292607550601,-0.000413417124841947,-0.000643873321935731,0.0206752367512479,0.0320105521936181,3.08795215542609,-0.000687289339231468,0
0.11,0.000664664920450424,0.000378287733467313,-0.0330557149205084,-0.0189285713611568,-0.000413382572735368,-0.000643425142753913,0.0206737737823026,0.0319932208487752,3.08794738331369,-0.000656688238124627,0
0.12,0.000664257263493501,0.000378284624744046,-0.0330401735331002,-0.0189284216759126,-0.00041336053784818,-0.000643016356845984,0.0206729365888768,0.0319776157183554,3.08794283017951,-0.000627522023126822,0
0.13,0.00069247637686661,0.00039457025318517,-0.0344425979349965,-0.0197433186091452,-0.000431138966001911,-0.000670319632124645,0.0215620143253048,0.0333342274614156,3.08793834382336,-0.000643858099322762,0
0.14,0.000711410356450788,0.000405738116789528,-0.0354064694941582,-0.0203021317159257,-0.000443309141558475,-0.000688625529364137,0.0221718626537018,0.0342666476434001,3.08793401523516,-0.000646559443847368,0
0.15,0.000669178841905372,0.000381602249491084,-0.033297226734502,-0.0190944307211381,-0.000416945713230119,-0.000647747536845566,0.0208529093614971,0.0322251262826752,3.08792984849418,-0.000553945743020101,0
0.16,0.000663537604639779,0.000378680347358149,-0.0330216423900677,-0.0189482172522741,-0.0004137278641062,-0.000642269579466835,0.0206922455600248,0.0319577029346687,3.08792607085308,-0.000521395270618809,0
0.17,0.000662547091956406,0.000378325619414583,-0.0329762305265832,-0.0189304717563921,-0.000413322810342341,-0.000641298041331819,0.0206722039094206,0.0319132343423422,3.08792249156353,-0.000497411915846367,0
0.18,0.000662158635566565,0.00037828159975958,-0.0329604702047616,-0.0189282692570533,-0.000413260202319828,-0.000640911095668203,0.0206692679613749,0.031897544343215,3.08791907961427,-0.000475425135755868,0
0.19,0.000661858598433084,0.000378275229131711,-0.0329489289259585,-0.0189279479830845,-0.000413239829760577,-0.000640610487265002,0.020668431776665,0.031885969643584,3.08791582455303,-0.00045456039051289,0
0.2,0.000661581081986146,0.000378273462118932,-0.0329383500243239,-0.0189278694660251,-0.000413225164936987,-0.000640332181955743,0.0206678847994599,0.0318753460022635,3.0879127188322,-0.000434666983653992,0
0.21,0.000661317657724514,0.000378272297697859,-0.0329283232526412,-0.0189278028290283,-0.00041321176508495,-0.000640067975155167,0.0206673747060986,0.0318652760057514,3.08790975555785,-0.000415687788557521,0
0.22,0.000661066392963192,0.000378271249630204,-0.0329187594205715,-0.0189277563328509,-0.000413199045380267,-0.000639815960334687,0.0206669051769832,0.0318556700132147,3.08790692819124,-0.000397579281960401,0
0.23,0.000660826595108023,0.000378270257098905,-0.0329096306287227,-0.018927708383515,-0.00041318691211982,-0.000639575446574228,0.0206664533584517,0.0318465011948454,3.08790423049847,-0.000380301328794492,0
0.24,0.000660597914916431,0.000378269310855936,-0.0329009257428102,-0.0189276618901918,-0.000413175341315407,-0.000639346083163304,0.0206660217543952,0.0318377581530201,3.08790165653213,-0.000363815811166797,0
0.25,0.00066037965389481,0.000378268407980262,-0.0328926159116985,-0.0189276153973948,-0.000413164296361447,-0.00063912717041783,0.0206656075501908,0.0318294120386745,3.08789920061742,-0.000348086381773063,0
0.26,0.000666041685225615,0.000381626998210644,-0.0331754422043532,-0.0190956657869517,-0.000416823405002697,-0.000644599830331502,0.0208486686185613,0.0321027636526009,3.08789688805622,-0.000342515739637706,0
0.27,0.000650672745918536,0.000372855804036795,-0.0324164964646247,-0.0186567728150834,-0.000407241462683874,-0.00062972284693839,0.0203697483771698,0.0313684198831476,3.08789456856136,-0.000303780160306922,0
0.28,0.000650192120698108,0.000372684489183792,-0.0323742091470146,-0.0186482095576229,-0.000407045941010301,-0.000629251240922992,0.02035899464082,0.0313266096923163,3.08789243507554,-0.000289657597262622,0
0.29,0.000658386753999399,0.000377589773685891,-0.0328028064145394,-0.0188936625608983,-0.000412385263092245,-0.000637169953637464,0.0206271616182971,0.0317413735872833,3.08789044743362,-0.000290111249514871,0
0.3,0.000651351297776264,0.0003737923882112,-0.0324560189617005,-0.0187036511867336,-0.00040821677576635,-0.000630347782245945,0.0204188627636234,0.0314052508029721,3.08788876309529,-0.000268479101284245,0
0.31,0.000658263216289281,0.00037772271362639,-0.0328002604347679,-0.0189003011928204,-0.00041251361671043,-0.000637038010119705,0.0206337654416573,0.0317384025033806,3.08788693683796,-0.000267923424552313,0
0.32,0.000659001974286333,0.000378197754642652,-0.0328386598339349,-0.0189240719814446,-0.000413028761884557,-0.000637749469295066,0.0206596196653226,0.0317754338338912,3.08788516088016,-0.000257960960938122,0
0.33,0.00065896467899585,0.000378254693842946,-0.0328385379173853,-0.0189269217779819,-0.000413084700216074,-0.000637708469463689,0.0206625127859616,0.0317751240109519,3.08788346213367,-0.000247259941237751,0
0.34,0.000658835004617567,0.00037826106304302,-0.0328337606155452,-0.0189272386612831,-0.000413085132626025,-0.000637577970390449,0.0206626242621807,0.0317703030847998,3.08788184076072,-0.000236898193123838,0
0.35,0.000658699212104272,0.000378261336556685,-0.0328286040043046,-0.0189272657221228,-0.000413079101898361,-0.000637441719951936,0.0206624235945336,0.0317651204906789,3.0878802936819,-0.00022699247001294,0
0.36,0.000658568314878462,0.000378260895184205,-0.0328236172280328,-0.0189272392392647,-0.000413072574498827,-0.000637310425447696,0.0206621763092792,0.0317601118278421,3.0878788175493,-0.000217538626684313,0
0.37,0.000658443238411833,0.000378260389022765,-0.0328188493861645,-0.0189272083821311,-0.000413066251393278,-0.000637184974770922,0.0206619342459603,0.0317553234180976,3.08787740911659,-0.000208518063683931,0
0.38,0.000658323743982256,0.000378259895748716,-0.0328142917473399,-0.0189271932109678,-0.000413060199356337,-0.000637065124088854,0.0206617170675451,0.0317507454014163,3.08787606527978,-0.000199911178534065,0
0.39,0.000658209843385624,0.000378259423814679,-0.0328099480818805,-0.0189271623322112,-0.000413054429394433,-0.000636950883500432,0.0206614937239687,0.0317463831669054,3.08787478307641,-0.000191699032556342,0
0.4,0.000658101117372856,0.000378258973339278,-0.032805800424116,-0.0189271471341206,-0.000413048920957947,-0.000636841833185102,0.0206612946849346,0.0317422170310436,3.08787355967973,-0.000183863525856945,0
0.41,0.000657997461321402,0.000378258543473891,-0.0328018464129351,-0.0189271147794722,-0.000413043669337449,-0.000636737867600676,0.020661087120866,0.0317382463434432,3.08787239239256,-0.000176387384891157,0
0.42,0.000657898397779874,0.000378258133291976,-0.0327980649302464,-0.0189270995568487,-0.000413038649644168,-0.000636638508969554,0.020660904219941,0.0317344481221581,3.08787127864164,-0.000169254127865332,0
0.43,0.000657803932643402,0.000378257741895408,-0.0327944588755437,-0.0189270843209471,-0.000413033862892044,-0.000636543762210749,0.0206607290963781,0.0317308261322967,3.08787021597163,-0.000162448028841341,0
0.44,0.000657713774871398,0.000378257368425567,-0.0327910161979326,-0.0189270676174742,-0.000413029294115817,-0.000636453335780408,0.020660559726326,0.0317273683699804,3.08786920203962,-0.000155954083125082,0
0.45,0.000657627988572527,0.000378257012062005,-0.0327877425114073,-0.0189270366777374,-0.000413024947387519,-0.000636367292814111,0.0206603837328921,0.0317240810805358,3.08786823461034,-0.000149757974191755,0
0.46,0.000657545979874863,0.000378256672022475,-0.032784610369885,-0.0189270214075416,-0.000413020791417048,-0.000636285039456648,0.0206602295734908,0.0317209352074835,3.08786731155114,-0.000143846042126584,0
0.47,0.000657467696467343,0.000378256347560128,-0.0327816193420135,-0.0189270061262747,-0.000413016823965745,-0.000636206522670784,0.0206600816323337,0.0317179311200151,3.08786643082677,-0.000138205253510434,0
0.48,0.000657393021934643,0.000378256037962232,-0.0327787656756635,-0.0189269908340226,-0.000413013039325037,-0.000636131625444564,0.0206599397703377,0.0317150650312631,3.08786559049585,-0.000132823172684924,0
0.49,0.000657321781651415,0.000378255742548297,-0.0327760426162646,-0.0189269740761913,-0.000413009428634306,-0.000636060172674974,0.0206598022317221,0.0317123302362053,3.08786478870561,-0.000127687934337062,0
0.5,0.000657253800999397,0.000378255460668975,-0.0327734433173275,-0.018926958763591,-0.000413005983008222,-0.00063599198929976,0.0206596716120954,0.03170971970537,3.08786402368865,-0.00012278821734288,0
0.51,2.48654424428675,0.0234816393126325,2.05159573996316,-1.17353010051744,-0.0359529505091581,2.48639519214667,-1.22222759757611,2.02296259895698,0.0239020647364345,7.37153422105223,534.168790725645
0.52,2.44883443761355,-0.0291124477279281,3.77806914845191,1.46017596396693,-0.293520806403083,2.43135418515346,1.04343552708118,3.91371468518794,0.108254050482074,15.637178150126,534.168790725645
0.53,2.47404988594322,0.0133431789314797,2.3246074935908,-0.662413813729874,-0.60690478031953,2.39849274882893,-1.22367146224079,2.0845191801411,0.253227138425166,23.9370672123998,534.168790725645
0.54,2.45140553632441,-0.0275730437979154,3.19978966963007,1.38718896650405,-1.11206339239375,2.18482593987804,-0.176047155432252,3.48309554243436,0.459569552586337,32.3972077435995,534.168790725645
0.55,2.43460002717389,0.000637701444998973,3.67846451949887,-0.0224390275694279,-1.62136780024979,1.81616192981006,-2.4671965480173,2.72846952055944,0.729053741531966,41.2073030235008,534.168790725645
0.56,2.46365223762523,0.00161899767211637,1.70429263202613,-0.0723477843812391,-2.15460801705299,1.19467537932288,-1.52608740023246,0.76217112536172,1.06518138192432,50.5323696025374,534.168790725645
0.57,2.43862062016241,0.0297262126803317,2.51544029816084,-1.47715140064151,-2.42273878638116,0.279447579638741,-2.6535591571179,-1.21162698620673,1.46814929183693,59.2686169380883,534.168790725645
0.58,2.39698366234661,0.00813414185794903,4.27627627947758,-0.393652782594491,-2.24454908513045,-0.841187402580647,-3.85979452466839,-1.88241535241479,1.93275793357514,67.4372886247741,534.168790725645
0.59,2.45419563963006,0.0132910578819433,1.06196421533643,-0.647925510031641,-1.56206783525944,-1.89293342932252,-0.16950572243272,-1.23241359586279,2.45708318709358,75.7071234936094,534.168790725645
0.6,2.37526709811681,0.00703929749655879,4.44154711627407,-0.338680673054579,-0.236142132047557,-2.36351015072445,-0.0913630544480094,-4.45350403352968,3.04497507790588,84.7332167533324,534.168790725645
0.61,2.36235701152837,-0.0507399181477336,4.64147211593694,2.55654141283855,1.28857345792399,-1.98062708068548,0.274647012491754,-5.29185566858243,-2.58627895705767,93.001192722118,534.168790725645
0.62,2.37370290717867,0.0122567296582576,3.65717619765017,-0.591010542469786,2.26102681075751,-0.722754093731834,3.66627397070092,-0.531663778839859,-1.87502501853131,101.187983189556,534.168790725645
0.63,2.35578041693716,-0.0237044288073928,3.93758659262103,1.2042633601982,2.08935453252749,1.08851316490732,4.05585912291374,0.710524588020789,-1.10056736748572,109.975830116715,534.168790725645
0.64,2.35079094453646,0.0354333007593269,3.74523832140595,-1.74826043937975,0.65024993799872,2.25934694145233,-0.705672271676679,4.07249939140752,-0.265159152655129,117.934365878647,534.168790725645
0.65,2.3158261847819,-0.00905454251063587,4.8764622310111,0.472734299213037,-1.37309527700752,1.86487057543444,-2.49417537925476,4.21692432771203,0.630762359412283,126.573931704192,534.168790725645
0.66,2.31976918635633,-0.0175632450239157,4.1858492700442,0.906840168439305,-2.31913673713153,-0.0569415492502627,-4.20064075286103,0.83564972807252,1.58777332916339,134.481974378528,534.168790725645
0.67,2.33894653476659,0.0172848189630591,2.58002810736309,-0.842129495016496,-1.21124405915193,-2.00096413926696,-0.596083513322328,-2.6477181810581,2.60465295715329,142.985145600223,534.168790725645
0.68,2.2726241330514,0.0623185516843223,5.36948958670202,-3.0869402783024,1.11473230686758,-1.98143279876895,5.40795574960902,-3.01904509965948,-2.6017210464542,150.847721954754,534.168790725645
0.69,2.29290044024674,-0.0104858608812566,3.69347008273963,0.552358636351574,2.27895620545404,0.252707332273219,3.73115827347382,-0.158994507869621,-1.46493333337686,159.110299180752,534.168790725645
0.7,2.25090654769716,0.00434839372872564,5.18232333732218,-0.193128762672917,0.604198745011734,2.16830419257082,1.19527311111019,5.04629528281715,-0.269824906074304,167.186526456146,534.168790725645
0.71,2.29842695335175,-0.00644353152439125,2.19513992961686,0.358562245047512,-1.91831950690698,1.26604038182535,-1.63036572235482,1.5129817598181,0.984638209275796,174.972992790305,534.168790725645
0.72,2.19831195093091,-0.000781729007096721,6.50473701865951,0.0695841374478491,-1.64264910093852,-1.46091751166579,-4.90830900992381,-4.26906878571949,2.29734994962788,183.04407421642,534.168790725645
0.73,2.23199843676521,-0.0214448930190686,4.14295702036872,1.10084471672175,1.13936961613407,-1.9194045386498,1.12845382484544,-4.1355222074302,-2.61549569423197,191.015384075069,534.168790725645
0.74,2.17072790066502,-0.0169686634418483,6.56414552332615,0.888588623997808,2.00681978751625,0.827660494827312,6.4200513860315,1.63111507712243,-1.1874426407689,198.687524320198,534.168790725645
0.75,2.21401849658004,0.0175689043869226,3.69714470373846,-0.838249616734294,-0.633328814918646,2.12157516524719,-1.88692403178725,3.28801749974058,0.298031932780895,206.409765919933,534.168790725645
0.76,2.16354909204823,0.0653875841241076,5.48808072809747,-3.23432517303671,-2.10288217201813,-0.512939353597102,-4.42901428638573,-4.57861571373324,1.84025962176447,214.193654564998,534.168790725645
0.77,2.17398947981959,0.0116042765284378,4.22863490711975,-0.545356948471416,0.625335530865187,-2.08214322068333,1.75938971874809,-3.883724397601,-2.84449300130096,221.908151342745,534.168790725645
0.78,2.12832602995736,-0.00755538174007531,5.76757707518151,0.41093718594752,1.97321437862685,0.79765518212291,5.50750088411204,1.76103625756508,-1.1901887247804,229.555084608945,534.168790725645
0.79,2.14047022706428,-0.00449699935356834,4.41342246899713,0.25759104731859,-1.06679295548422,1.85569011585475,-1.96797707376777,3.95875198448095,0.519640652732749,237.11710639555,534.168790725645
0.8,2.13613658441905,0.0251102693653812,3.87275793411367,-1.22377355787734,-1.63101436859852,-1.37967465815179,-2.12590125829792,-3.46069640060602,2.28465961817195,244.601933565503,534.168790725645
0.81,2.09079993499425,-0.00996582948831315,5.36983686829616,0.531342254901499,1.72178424591937,-1.18617144478916,4.1039418461021,-3.50358871840982,-2.1788136946934,252.0224137484,534.168790725645
0.82,2.10252939240069,0.0298023098596741,3.99912788080363,-1.45765590684412,0.659519201747464,1.99663528119388,-0.190072277719942,4.25225317673123,-0.30485832438753,259.388407937342,534.168790725645
0.83,2.03322576327794,-0.0022861471915635,6.66367772948044,0.147698705734743,-2.03034326353608,-0.108251850514448,-6.66231899633383,-0.199803356174737,1.62293851666264,266.691229864939,534.168790725645
0.84,2.00528836742465,0.0385379663206077,7.25181601494106,-1.89416058241209,0.860084025299347,-1.8118835726397,4.93032583706745,-5.64522514757954,-2.67918102249715,273.927351520539,534.168790725645
0.85,2.00144347700611,0.00651411911942845,6.63269847444791,-0.288934865729791,1.20901683012775,1.59502248569293,3.75855593634782,5.47260721072895,-0.645342712985023,281.069963093467,534.168790725645
0.86,2.00663212354918,0.0271591307463557,5.55290020380006,-1.31742607555484,-1.98616787106101,0.28713635368474,-5.67685077456304,-0.586240071350924,1.4407568742096,288.152538191091,534.168790725645
0.87,1.98160068656575,0.0606814313909044,5.97688692729326,-2.98955979071087,0.784159084031081,-1.8208564051141,5.23926507399699,-4.14858368220766,-2.70432992068967,295.166432762184,534.168790725645
0.88,1.96573875186467,0.0406889820080107,5.94020656161544,-1.98366022334533,1.00331641263699,1.69089934945063,1.19834031263001,6.14694577586848,-0.514828631780987,302.122230723957,534.168790725645
0.89,1.92980733990951,-0.0150218639908016,6.88778324399709,0.804815086843726,-1.90440160469491,-0.312468484173748,-6.92949845770778,-0.267088870834776,1.72564029709248,309.080783540327,534.168790725645
0.9,1.94118880315586,-0.0210910379253973,5.44173029708997,1.09176227141453,1.50355068077463,-1.22800413342977,3.47724634518527,-4.32586769775114,-2.26652381368235,316.006326732622,534.168790725645
0.91,1.9126339696266,0.0581085350332293,5.99262602246891,-2.86453491300477,-0.0846440423801776,1.91164345255669,-3.30332607846821,5.76239218834562,0.0746213280270337,322.780952955037,534.168790725645
0.92,1.91838034322178,0.00437943577677558,4.84392767648507,-0.164684157134165,-1.20411615036937,-1.49342111178899,-2.90334115820061,-3.88089761855777,2.46531680048637,329.456267788762,534.168790725645
0.93,1.88235102525216,0.043320086896575,5.76409491753535,-2.1267574736606,1.85578131438127,0.318115899303889,5.24986045333532,3.19168494539075,-1.3780177385552,336.179930993357,534.168790725645
0.94,1.86775581500162,0.0556655368123271,5.58169903305404,-2.74446344468242,-1.64866920101897,0.879488659433665,-6.21988968465294,0.0203962139252352,1.11053992066027,342.806657380669,534.168790725645
0.95,1.80727446776826,0.0359034447064226,7.72417691089644,-1.74261956720122,0.843802505762405,-1.59860169850339,5.26526070920583,-5.91410699691099,-2.63606010674783,349.254702086048,534.168790725645
0.96,1.77980951738111,-0.00649172106212925,8.19903744572394,0.359836474397809,0.0859972852146461,1.77774253690979,0.785378513560004,8.16926422116023,-0.0519841597629851,355.763746082556,534.168790725645
0.97,1.78182693657815,0.00890615424077712,7.17822290919217,-0.398829723247166,-0.957571152412564,-1.50267895425673,-3.48988276518724,-6.28543296579048,2.57923630409435,362.130046766862,534.168790725645
