t,iq,id,vq,vd,ia,ib,va,vb,theta_e,omega,r
0,0,0,0,0,0,0,0,0,0,0,0
0.01,0.00112312192981559,0.000622563274601669,-0.0542568248556184,-0.0311655568463493,0.000724817814477002,-0.00106001275272151,-0.034526421175701,0.0521825758060522,-2.03568427538254,-0.00347351302587446,0
0.02,0.00124354905097224,0.000691181172780604,-0.0605176821038602,-0.0346005570429551,0.000801672181956554,-0.00117535840000289,-0.0385813999131555,0.0580608644066538,-2.03570901975961,-0.00337915990730263,0
0.03,0.00128740526075294,0.000718220499277334,-0.0628348440343868,-0.0359541468527466,0.000828722668771377,-0.0012192094689843,-0.0400443641208834,0.060310589475553,-2.03573191648684,-0.00305771879297527,0
0.04,0.00125286563293055,0.000702840207351738,-0.0613870001506364,-0.0351842050298943,0.000804722893726564,-0.00118999063675352,-0.0390943082284484,0.0589739530235082,-2.03575082549402,-0.00254711342687548,0
0.05,0.00127730095105125,0.000718699720543686,-0.0627202585903454,-0.0359781399898719,0.000819432556095718,-0.00121513673875677,-0.0399290259396739,0.060282089232868,-2.03576771929409,-0.00228249669914649,0
0.06,0.0012741989109608,0.000719366626012414,-0.0627220518722907,-0.0360115411486112,0.000816343058239812,-0.00121435382758809,-0.0399147703013947,0.06031333184923,-2.03578233550739,-0.00196956268274816,0
0.07,0.00130463704718894,0.000738596333899565,-0.0642928373877929,-0.0369741709962397,0.000834911478224452,-0.00124520086446999,-0.0408863719290761,0.0618786138395941,-2.03579457017795,-0.00182206873952584,0
0.08,0.00126872313485378,0.000720201143011857,-0.0626980459096348,-0.0360532929854874,0.000811046380062459,-0.00121266312251027,-0.0398731943655592,0.0603408093007577,-2.03580548394175,-0.00147200078594419,0
0.09,0.00126426481169891,0.000719416060206057,-0.0625788104412902,-0.0360139954235834,0.000807402532007313,-0.00120996947609874,-0.0397836952754563,0.0602525764830555,-2.03581455563364,-0.00126899942228806,0
0.1,0.00126176463965997,0.000719379285905807,-0.0625388303793706,-0.0360121574523401,0.000805175000553016,-0.00120882164994306,-0.0397483196214356,0.0602333120197123,-2.035822278248,-0.00110067363981081,0
0.11,0.00125969765660017,0.000719374788875671,-0.0625078014143303,-0.0360119378482375,0.000803321575145296,-0.00120789598882518,-0.039720287654175,0.0602194624179614,-2.03582886169586,-0.00095740107788983,0
0.12,0.00125793859792706,0.000719372093090913,-0.0624814928207347,-0.0360118146738563,0.000801743749933431,-0.00120710922617441,-0.0396964901549517,0.0602077769942514,-2.0358344744783,-0.000835263764610178,0
0.13,0.00131813838083484,0.000753570202261837,-0.0653977605478103,-0.0377237539914374,0.000840207213626073,-0.00126467730229397,-0.0415349836588435,0.0630459660274535,-2.03584000373538,-0.000929515314620005,0
0.14,0.00137608684413938,0.000788407031797009,-0.0685043762808655,-0.039467709172596,0.000876372476821319,-0.00132180631420436,-0.0435292760663615,0.0659981193830666,-2.03584469376418,-0.00103331953647061,0
0.15,0.00125947005941347,0.000722296748658858,-0.0627008100610657,-0.0361582023045457,0.000801783603865716,-0.00121042161094977,-0.0398259999792176,0.0604375454652623,-2.03584884243937,-0.000543513509121784,0
0.16,0.00125288726480294,0.000719488524997821,-0.0624157117161218,-0.0360176261854565,0.00079715605281089,-0.00120496160244876,-0.0396340606715816,0.0601841482430939,-2.03585155259795,-0.00046467499600143,0
0.17,0.0012518911953265,0.000719368273451224,-0.0623915239666716,-0.0360116012621419,0.000796316965198918,-0.00120440921979226,-0.0396150071993255,0.0601680055589733,-2.03585382207148,-0.000414302605307975,0
0.18,0.00125127127758048,0.000719362302376741,-0.062381769149354,-0.0360113176253716,0.000795763235836245,-0.00120412740383652,-0.0396062993030277,0.0601634538140696,-2.03585575489886,-0.000372194308860063,0
0.19,0.00125075403849223,0.000719361311034444,-0.0623739821056447,-0.0360112751936814,0.000795299391035132,-0.00120389585896662,-0.039599259183532,0.0601599888373144,-2.03585740265631,-0.000336335922381643,0
0.2,0.00125031386636749,0.000719360639783148,-0.0623673770923791,-0.0360112470572032,0.00079490457782255,-0.00120369896845382,-0.039593283770297,0.0601570571112207,-2.03585880747001,-0.000305766420171537,0
0.21,0.001249938421157,0.000719360074789886,-0.0623617323635553,-0.0360112157941712,0.000794567819243404,-0.00120353103595584,-0.0395881805222389,0.0601545450427205,-2.03586000516333,-0.000279704063615388,0
0.22,0.00124961862247416,0.000719359593338851,-0.0623569295273941,-0.0360111872542402,0.000794280972545898,-0.00120338799346445,-0.0395838391582108,0.0601524059788238,-2.03586102627369,-0.000257484239751347,0
0.23,0.00124934597199195,0.000719359182831766,-0.0623528297234608,-0.036011155644266,0.000794036416163424,-0.00120326603935424,-0.0395801365956906,0.0601505735003825,-2.0358618968353,-0.000238540416371992,0
0.24,0.00124911314134894,0.000719358832810873,-0.0623493105138149,-0.0360111565888119,0.000793827577939675,-0.00120316189548043,-0.0395769460869104,0.0601490254189195,-2.03586263904495,-0.000222389593088273,0
0.25,0.00124891499667218,0.00071935853436801,-0.062346323126531,-0.0360111247190381,0.000793649850411302,-0.00120307326660635,-0.0395742522172841,0.0601476821861883,-2.03586327182603,-0.000208619981343545,0
0.26,0.00126205371022206,0.000726658761855177,-0.0629751663167487,-0.0363765879615281,0.000802118536944804,-0.00121549100216978,-0.0399723750697354,0.0607563737860428,-2.03586373193541,-0.000244627953575255,0
0.27,0.00122019876161702,0.000703069210726825,-0.060994743242851,-0.0351956809521688,0.000775287537546976,-0.00117563623925434,-0.0387318606976963,0.058812733551863,-2.03586451679153,-8.33893349277974e-05,0
0.28,0.00121673557675449,0.000700700261002097,-0.0605471888459513,-0.0350771005402223,0.000773254138796493,-0.00117196602183791,-0.0383849984973257,0.0585060419941091,-2.03586491850569,-6.30858258848108e-05,0
0.29,0.00124680280806907,0.000718565528216504,-0.0622633644615619,-0.0359714401040649,0.000792115581535383,-0.00120141856404787,-0.0395177992150305,0.0600750747185066,-2.035864988176,-0.000165816930923818,0
0.3,0.00123917800870043,0.000714656035066733,-0.0618927831627805,-0.0357757114130337,0.000787054930952071,-0.00119450404828452,-0.0392744072436162,0.0597339021863315,-2.03586416862993,-0.000156342961483619,0
0.31,0.001248057577005,0.00071915830114911,-0.0623180557629561,-0.036001102113892,0.000792971810465161,-0.00120251074233824,-0.0395534077194445,0.060126095543193,-2.03586450809002,-0.000180089079589936,0
0.32,0.00124839333318225,0.000719349307156027,-0.062337584364521,-0.0360106725757749,0.000793185817608485,-0.00120283232363638,-0.0395665487296716,0.0601434217964522,-2.03586486193305,-0.000173937185295925,0
0.33,0.00124831987572254,0.000719357280530657,-0.0623371726950181,-0.0360110774493094,0.00079311621936465,-0.00120280674746907,-0.0395659808674967,0.0601436111042691,-2.03586516681038,-0.000167379866234381,0
0.34,0.00124823977621179,0.000719357502482676,-0.0623359893422709,-0.0360110655326536,0.000793044214800598,-0.0012027712287325,-0.0395649128998445,0.0601430800284164,-2.03586542689706,-0.000161724078438178,0
0.35,0.00124817027626486,0.000719357412495488,-0.0623349172748364,-0.0360110658759196,0.000792981870055391,-0.00120274015449172,-0.039563941205613,0.0601426083027608,-2.0358656486452,-0.00015689891260889,0
0.36,0.00124811102086622,0.000719357323917862,-0.062333998327739,-0.0360110661804714,0.00079292872049096,-0.00120271365008574,-0.0395631083526741,0.0601422039208028,-2.03586583770025,-0.000152784988255565,0
0.37,0.00124806049661669,0.000719357247894955,-0.0623332096275531,-0.0360110664519992,0.000792883402645996,-0.0012026910505706,-0.0395623936045094,0.0601418568200605,-2.0358659988815,-0.000149277596119922,0
0.38,0.00124801742294774,0.000719357183057783,-0.0623325323327638,-0.0360110666953501,0.000792844767628077,-0.00120267178367281,-0.0395617798713464,0.0601415587174387,-2.03586613629891,-0.000146287319182284,0
0.39,0.00124798063570614,0.000719357127777852,-0.062331946710942,-0.036011066914922,0.000792811771442741,-0.0012026553286142,-0.0395612493038239,0.060141300905845,-2.0358662534558,-0.000143737916468916,0
0.4,0.00124794920356934,0.000719357080647946,-0.0623314390351485,-0.0360110671142426,0.000792783578719411,-0.0012026412688248,-0.0395607894516612,0.0601410773503456,-2.03586635333958,-0.00014156438729811,0
0.41,0.00124792266087604,0.000719357040466096,-0.0623310140223202,-0.0360110672950686,0.000792759770729943,-0.0012026293964095,-0.0395604043768616,0.0601408902687666,-2.03586643849657,-0.000139711314407534,0
0.42,0.00124789984347303,0.000719357006207844,-0.0623306372717131,-0.0360110674617812,0.00079273930481236,-0.00120261919007055,-0.0395600631997902,0.0601407243227369,-2.03586651109849,-0.000138131451031457,0
0.43,0.00124788086197955,0.000719356977000679,-0.0623303347162623,-0.0360110378623518,0.000792722278001932,-0.00120261070010781,-0.0395598023310897,0.0601405646239719,-2.03586657299602,-0.000136784516270852,0
0.44,0.00124786409817325,0.000719356952099346,-0.0623300427506246,-0.036011038006562,0.000792707242382904,-0.00120260320135824,-0.0395595381367143,0.0601404358981092,-2.03586662576772,-0.000135636168080898,0
0.45,0.00124785012833467,0.000719356930869276,-0.0623298049702939,-0.0360110381401357,0.000792694711695609,-0.00120259695277526,-0.0395593228453407,0.0601403311562489,-2.03586667075877,-0.000134657127665927,0
0.46,0.00124783802114124,0.000719356912769367,-0.0623295874247311,-0.0360110382666202,0.000792683852396042,-0.00120259153710033,-0.0395591260417293,0.0601402352206221,-2.03586670911632,-0.000133822432977937,0
0.47,0.00124782777659295,0.00071935689733783,-0.0623294008969797,-0.0360110383860133,0.000792674663514706,-0.00120258695469653,-0.0395589573048245,0.0601401529659711,-2.03586674181859,-0.000133110802272896,0
0.48,0.00124781916185916,0.000719356884181738,-0.0623292428458131,-0.0360110384992087,0.000792666936123358,-0.0012025831014526,-0.0395588143127601,0.0601400832863773,-2.03586676969929,-0.000132504091497604,0
0.49,0.00124781171127858,0.000719356872964885,-0.0623290978246022,-0.0360110386079743,0.00079266025331455,-0.00120257976878921,-0.0395586832159548,0.0601400192839475,-2.03586679346917,-0.000131986831686888,0
0.5,0.00124780519202058,0.000719356863402266,-0.0623289608634975,-0.0360110387132001,0.00079265440638521,-0.00120257685251113,-0.0395585595355433,0.0601399587545575,-2.03586681373454,-0.00013154583455422,0
0.51,4.71355647959608,0.0346964196295251,4.3233320874188,-1.72479828828193,-0.664846166912081,4.6665617002478,-2.34699564510793,4.01966925445486,0.148878721884276,45.6757063721046,3858.30181766574
0.52,4.63920101004321,-0.052652117806377,8.04255186117206,2.66444037043078,-2.93256835684031,3.59513575398125,-2.92889242592776,7.95006113715904,0.67289485443517,97.5556432728949,3858.30181766574
0.53,4.63779243786339,0.0305951416753469,8.11474145800992,-1.49976808783645,-4.63751802495652,-0.0590027762089771,-8.08425488418008,-1.65624763101659,1.59011538496264,153.761026534481,3858.30181766574
0.54,4.59359778008362,-0.0581823208545607,10.3262687657636,2.96617179073787,-0.970869280787249,-4.49020473779012,-5.20096717888423,-9.40106069117326,2.91598600062993,206.743694501748,3858.30181766574
0.55,4.52762467747682,0.0488530536009232,13.6269219068578,-2.39360044655021,4.50653810679678,-0.439188038238414,13.782592091701,1.20932997445147,-1.65715571004975,261.164198618901,3858.30181766574
0.56,4.49912617771303,0.126317852381189,15.0539860308808,-6.23317269676794,-1.83260323412765,4.11091935570107,-12.1325388661951,10.8754971355774,0.447415377268045,313.255829623405,3858.30181766574
0.57,4.49955019755394,0.00730652778179097,15.035010971604,-0.260717681543141,-0.89486871193007,-4.40967293050908,-2.71062888991883,-14.7909438389462,2.94300221151356,366.388829799107,3858.30181766574
0.58,4.43095138251321,0.0875359576856897,18.4673591069494,-4.2631943279009,2.02845016166335,3.94035311104622,4.29835049754518,18.4592080345481,-0.455655636570557,419.519342659067,3858.30181766574
0.59,4.47061039791399,0.0468981666160517,16.4869336339715,-2.23729260697243,-1.4706083945795,-4.22206912754409,-3.13906544333147,-16.339238874644,2.81691001915673,472.919859321245,3858.30181766574
0.6,4.41608490161432,-0.0134265040285366,19.2160225982941,0.780218039318641,-0.862078598481567,4.33114380035072,-2.92822254356966,19.0076241919488,0.19343367662762,525.805976706321,3858.30181766574
0.61,4.34031367378685,0.0841426323493444,23.0074753277926,-4.0549911049344,3.82168878176182,-2.0591497334569,22.3160959271391,-6.9122164600659,-2.04562099996973,577.551491668756,3858.30181766574
0.62,4.36150822065451,0.1072098426281,21.9507989701258,-5.23713305898575,-3.07879981161272,-3.09115506392137,-11.3032680567531,-19.5320574784528,2.38277293556245,630.452318018282,3858.30181766574
0.63,4.35724368113524,0.117513822602865,22.1671276831888,-5.75568533460658,-3.36911546354373,2.76558185353575,-21.0374170910158,9.05188077321162,0.910426161955983,682.5877701608,3858.30181766574
0.64,4.29911746518224,0.00875016837851411,25.076671335069,-0.23693841546235,0.776121549278172,4.22848943307509,4.24375082382897,24.7161114256479,-0.179490003309253,734.320721128999,3858.30181766574
0.65,4.21702299189001,0.114619251382347,29.1846696114984,-5.52656963106449,3.34268263654231,2.57349825690148,19.1436725581392,22.711400511771,-0.887513164363118,786.347024062986,3858.30181766574
0.66,4.30201926157665,0.0441259100934841,24.9382713084149,-2.05548095021492,4.04799840185325,1.45706065814419,22.6607112406758,10.6129422807965,-1.21503192653216,838.474801910083,3858.30181766574
0.67,4.2082916939664,0.142596150631932,29.6281694389351,-6.96764983423744,3.91940686695309,1.53892899607572,24.4312296676827,18.1519030803863,-1.16277633320452,890.287678327615,3858.30181766574
0.68,4.28635034864198,0.115959993699513,25.7289190305749,-5.55783590922612,2.95221690090998,3.10976870545439,13.0703992871075,22.8480081615738,-0.732367161574512,941.42513440294,3858.30181766574
0.69,4.20409291231569,0.0484085514814621,29.8455022039852,-2.24106387136727,-0.270324767699571,4.19567218967447,-4.49636814273297,29.5898469514232,0.0758546150001563,993.346567360577,3858.30181766574
0.7,4.23130978653061,0.119480556484518,28.488574619058,-5.70251576314058,-3.99301731459269,1.40501631247846,-28.8698736716464,3.26312182391001,1.26068779596903,1044.30873366945,3858.30181766574
0.71,4.21929358195984,0.200003497023477,29.0932811295289,-9.72785711166645,-1.51728242992514,-3.9421179278948,0.0808263154306381,-30.6764352227167,2.82154614182491,1095.51302345459,3858.30181766574
0.72,4.22003013011818,0.195403400765744,29.0605207354111,-9.49282145102129,4.22454850904809,-0.00516554310746778,28.6035511486372,10.7918666690024,-1.52574832770857,1146.63615731975,3858.30181766574
0.73,4.23956349724215,0.212501317541387,28.0878896987539,-10.3243958958171,-2.84612392795352,3.14938629638146,-27.1558442540334,12.5730991085576,0.784941139481171,1197.74715925604,3858.30181766574
0.74,4.04581201931203,0.239524662671145,37.7796390344116,-11.6928334217187,1.07733327585151,-3.90708586703447,23.2461630660247,-31.994364842989,-2.81340607810366,1248.84503932594,3858.30181766574
0.75,4.11476181770004,0.151598780911062,34.3364173275893,-7.35154919995087,-3.22046092145227,-2.56571207663188,-21.2601326579822,-27.9471213168489,2.28034230344369,1299.87845779424,3858.30181766574
0.76,4.01841978785424,0.17815446444932,39.1577921659549,-8.57934284244629,2.32508756667292,3.2822864609788,13.9837146519457,37.5685178767184,-0.572018810075059,1350.4257678568,3858.30181766574
0.77,4.09911689943037,0.156391767029554,35.1273054267661,-7.55595937965783,0.210801269572024,-4.09667921184184,10.6669707298928,-34.3108706409494,-3.05204732048087,1401.37702749922,3858.30181766574
0.78,3.95117151605663,0.14579307558352,42.5289962594288,-7.06957299574948,-3.49735061615678,1.84432931925217,-41.3894214502982,12.0669042088822,1.12239050725303,1452.01381720078,3858.30181766574
0.79,4.00540931786173,0.158191681512481,39.8215480301379,-7.64316894055948,2.44335929696296,3.17778598361469,16.7697852378747,36.9181259281409,-0.616005812044923,1502.38677184177,3858.30181766574
0.8,3.94355508602782,0.188342138474685,42.9187307238589,-9.1620031699618,3.53511265719921,-1.75786176321434,42.980969116665,-8.8654409267555,-1.98452442242336,1552.83669912779,3858.30181766574
0.81,3.93354680526322,0.15171763650713,43.4235647404823,-7.34408859750855,0.469565207800637,-3.9083650323437,14.0900971315291,-41.7254212072567,-2.98347104963891,1603.27182488713,3858.30181766574
0.82,4.04155458857188,0.175073689607519,38.0275529344533,-8.43862089234227,-1.99451918373733,-3.51947546019332,-9.78491257804551,-37.703588563787,2.66930277625477,1653.43398838667,3858.30181766574
0.83,3.86733912548555,0.263284143416604,46.7426437128787,-12.7656277787773,-2.78727546443818,-2.69383108917892,-21.852204804622,-43.2471633639972,2.40712169351588,1703.46165973936,3858.30181766574
0.84,3.96356319948143,0.203248482778058,41.9357067828675,-9.85642223533896,-2.49739179053687,-3.08450602635076,-16.7168251409018,-39.7026487764788,2.51222535013521,1753.70991223108,3858.30181766574
0.85,3.80402275562971,0.139128904613298,48,-6.6954270323645,-0.73440233109343,-3.7350500925064,-0.920586020150274,-48.4559724340067,2.98400272685651,1803.69270520225,3858.30181766574
0.86,3.82903814590615,0.26150964745037,48,-12.6459686886242,1.81946079412251,3.37927253076237,8.3055205384131,48.9381124754486,-0.425716990749899,1853.4199044416,3858.30181766574
0.87,3.89975964446639,0.217421331305552,45.1381588016517,-10.4281995961578,-2.58034438526751,2.93210166490416,-39.0929929360157,24.8583714294613,0.777367931791946,1903.20227309914,3858.30181766574
0.88,3.89457007615676,0.207715264719569,45.4015181745119,-9.92396515772653,-2.92995434488049,-2.57413854448612,-25.5257778115383,-38.8357773723957,2.34492273887744,1952.8366992658,3858.30181766574
0.89,3.76626020491192,0.27415468255245,48,-13.3888562410369,3.29717703191427,-1.84078796749806,49.1595928547723,-8.16063121309718,-2.00731943006033,2002.48007789917,3858.30181766574
0.9,3.89726393397868,0.173974347728834,45.2743717103782,-8.36125463347433,-0.934069204125797,3.78767051981326,-20.8104717918737,41.0682794455151,0.286394000245939,2051.93663577301,3858.30181766574
0.91,3.71636177909815,0.259339980302751,48,-12.5004175370204,-0.990923131836799,-3.5911938746489,2.73682769140524,-49.5254501522945,2.94203109221185,2101.17991348286,3858.30181766574
0.92,3.82140543538204,0.250064734600856,48,-12.1554330739505,1.45367162927253,3.54295225303793,3.75878537157743,49.3723210487993,-0.324008893642707,2150.54504284945,3858.30181766574
0.93,3.71451381811694,0.102625287970837,48,-4.82801714990089,-0.429072277395262,-3.6910759725971,0.585706108189338,-48.2386432018415,3.05348737100952,2199.65655782099,3858.30181766574
0.94,3.62256050987205,0.28617395549551,48,-13.8160164560218,-2.27600234869798,-2.83278193463769,-15.6054961772044,-47.4484014459531,2.54358477837665,2248.67346165973,3858.30181766574
0.95,3.66475148442033,0.243529357722713,48,-11.664483422829,-1.05433526812232,3.51825057848745,-27.7243575772197,40.8830058881672,0.357513773894939,2297.60920398457,3858.30181766574
0.96,3.58155873326464,0.185330632974029,48,-8.77410963864769,3.58200024023826,0.176591852235083,46.8712530621587,13.5672634062322,-1.46983672943965,2346.57944115329,3858.30181766574
0.97,3.71119434638019,0.189403622772085,48,-9.14523443247929,0.560782046625893,-3.67346712318289,18.6111436623276,-45.1803125753376,-2.93911325330517,2395.44592670756,3858.30181766574
0.98,3.73233451178954,0.255976238017287,48,-12.3444641341261,-3.10221596581797,-2.09095692058656,-30.2901587212437,-39.2287149853342,2.23234891227832,2444.16083825228,3858.30181766574
0.99,3.69300336851173,0.289614885245662,48,-14.070308798047,-3.65017439045499,0.63117159383274,-49.0988442206702,-9.55390422114238,1.47783637965503,2492.82187100006,3858.30181766574
