t,iq,id,vq,vd,ia,ib,va,vb,theta_e,omega,r
0,0,0,0,0,0,0,0,0,0,0,0
0.01,0.000417949945563972,0.000194375132635512,-0.019036188047367,-0.00972036857493904,-0.00010868673709924,-0.000447940891594774,0.00580073449163372,0.0205721535082001,-2.94431533578602,-0.0101017578054696,0
0.02,0.000628642829349497,0.000272969535686305,-0.0294278549595907,-0.0136507396645287,-0.000144513921969976,-0.000669940221708022,0.00762060000738242,0.0315320122484901,-2.94439452849302,-0.0106907639162305,0
0.03,0.000704753601869782,0.000312087115345536,-0.033695122163856,-0.0156069453024965,-0.000168012510518913,-0.000752228557834826,0.00870528431202448,0.0360992524072053,-2.94446225623083,-0.00775444463449145,0
0.04,0.000675484630290666,0.00031965091506239,-0.0329949883877891,-0.0159851965231805,-0.000181190903289405,-0.000725000724016404,0.00921473402812653,0.0354863980052347,-2.94450167226224,-0.0036141375178674,0
0.05,0.000642311125964002,0.000330237593493223,-0.0317871414546173,-0.0165146162011792,-0.000198079589019315,-0.000694539363252565,0.00997096726367539,0.0344054461089348,-2.94451752463279,-0.00124160695396447,0
0.06,0.000609402578686058,0.000334354970993692,-0.0303982576165733,-0.0167205295228844,-0.000208562455538331,-0.00066307348889639,0.0104449222899106,0.0330837387851938,-2.94451998369258,4.40225134581815e-05,0
0.07,0.000591041751906044,0.000338446125217549,-0.0295376408097201,-0.0169251187672015,-0.000216166502168776,-0.000645870091822694,0.0108139119116149,0.0322798881512274,-2.94451540103146,0.000281982657582761,0
0.08,0.000580928824642429,0.000337548267488094,-0.0290469024074714,-0.0168802106913855,-0.000217263829533158,-0.000635777917642029,0.0108658443424489,0.031789895866146,-2.94451171059837,0.000319161172424725,0
0.09,0.000578063086805408,0.000337199456483063,-0.0288780646518544,-0.0168627663146666,-0.000217480932182324,-0.000632900031534663,0.0108816988512392,0.0316209445768256,-2.94450859507317,0.000163083401395387,0
0.1,0.000578991225033141,0.000337063966199818,-0.0288920138670862,-0.0168560004402774,-0.000217165170964127,-0.000633784067720111,0.0108722749279863,0.0316333187324507,-2.94450677359644,-1.42236329341001e-05,0
0.11,0.000581070747862968,0.00033701130469732,-0.028972003237505,-0.0168533606241428,-0.000216705891387555,-0.000635813172365707,0.0108540013023714,0.0317112502378813,-2.9445060799196,-0.000138792448380549,0
0.12,0.000582881295580125,0.000336990794962093,-0.0290500616610972,-0.0168523353102894,-0.000216331238128271,-0.000637584657936684,0.0108377103972782,0.0317875969722265,-2.94450606182954,-0.000200090993480538,0
0.13,0.000603010154917286,0.000346299883953623,-0.0299454251519176,-0.0173178686896235,-0.000221519735108582,-0.000659146314195176,0.0111189631314462,0.0327567660546899,-2.94450775504607,-0.000729089556789238,0
0.14,0.000614790051814247,0.000351792374051431,-0.0306329628617604,-0.0175925383244339,-0.000224601128662088,-0.000671773038499033,0.0112537809504123,0.0334847462691119,-2.94451053690191,-0.00089450330899477,0
0.15,0.000599035182191317,0.000342737691524414,-0.0298471976132431,-0.0171397232272304,-0.000218808208188948,-0.00065454964878427,0.0109636679279731,0.032625500812021,-2.94451289084642,-0.000184281403171962,0
0.16,0.000587757239003385,0.000339216978952142,-0.0293421392530121,-0.016963661212949,-0.000217563183953833,-0.000642800895922035,0.0108898698764939,0.0320957578468541,-2.94451171196284,9.35789541264539e-05,0
0.17,0.000582091980719971,0.000337848198373696,-0.0290661283012784,-0.0168952184167637,-0.000217328835677287,-0.000636977751845389,0.0108767288585022,0.0318117115087377,-2.94450956930337,0.000108340387909062,0
0.18,0.000580550031936229,0.00033731611823017,-0.0289737844319733,-0.0168686067116707,-0.000217107853564863,-0.000635361852112231,0.0108686576959239,0.0317159637500158,-2.94450778987401,1.60639135471471e-05,0
0.19,0.000581136122631999,0.000337109294238186,-0.0289843530916549,-0.0168582683339744,-0.000216789617134963,-0.000635896321102739,0.0108564174132127,0.0317243145916835,-2.944506763054,-8.5965955668718e-05,0
0.2,0.000582345497001485,0.000337028880480655,-0.0290311630804271,-0.0168542439118242,-0.000216473706080834,-0.00063706662032442,0.0108432927801789,0.0317694345137734,-2.94450638096653,-0.000156693604947031,0
0.21,0.000583380485010254,0.000336997591431066,-0.0290759051055234,-0.0168526789143828,-0.00021624035826007,-0.000638075445680756,0.0108329969889049,0.0318130039533374,-2.94450638011905,-0.000190971187667544,0
0.22,0.000583992130176181,0.000336985399530257,-0.0291044543973982,-0.0168520714066438,-0.000216108728405591,-0.000638672831041997,0.0108268156103611,0.0318408800161694,-2.9445065273105,-0.000199336727410943,0
0.23,0.000584229267822654,0.000336980640168812,-0.0291168924309398,-0.0168518348820561,-0.00021605772497729,-0.000638904412809001,0.0108241530435037,0.0318530292847919,-2.94450668126352,-0.000194783799771825,0
0.24,0.000584239861473349,0.000336978779842444,-0.0291188038313811,-0.0168517418085589,-0.000216053892510516,-0.000638914414714173,0.0108236907969721,0.0318548843363828,-2.94450678490171,-0.000186789885965843,0
0.25,0.000584158894563424,0.000336978053545431,-0.0291159596444322,-0.0168517072836686,-0.000216069065588953,-0.000638834862514833,0.0108242154126207,0.0318520879235858,-2.94450683340633,-0.000180211077396438,0
0.26,0.000585925479602021,0.000338261384304344,-0.029185559524326,-0.0169158798257177,-0.000216981329662014,-0.000640818643873954,0.0108735019986824,0.0319329113816881,-2.94450635915799,-0.000276774294871664,0
0.27,0.000583703026098541,0.000335835861882768,-0.0291067585456383,-0.0167945809288775,-0.000215038720563104,-0.000638164005144225,0.0107700201123643,0.0318318709533381,-2.94450757095408,-0.000105768897239556,0
0.28,0.000582340823536666,0.000335489426707416,-0.0289126376595753,-0.0167772557192815,-0.000214965729158128,-0.000636760335979988,0.0107910415353479,0.0316381154382882,-2.94450757431833,-6.0475667107835e-05,0
0.29,0.000582374261230157,0.000336398922876349,-0.0290398313821157,-0.016822746297142,-0.000215850654991887,-0.00063697135743714,0.0108107247001344,0.031771761536585,-2.94450692063138,-0.000114205178648062,0
0.3,0.000569406996806351,0.000331513351846354,-0.0284310633680158,-0.0165784234542046,-0.000213596747639298,-0.000623299173641636,0.01069023279511,0.0311269724073737,-2.94450360880803,4.77942646981202e-05,0
0.31,0.000578075070350519,0.000334853180349167,-0.0288014037926393,-0.0167454402557721,-0.000215174366715119,-0.000632453501262707,0.010781487433387,0.0315228513702363,-2.94450327815413,-0.000265318399404902,0
0.32,0.000583469084302785,0.000336151721247222,-0.029050413417579,-0.0168103737161195,-0.000215392227952686,-0.000637997131789931,0.0107964382968307,0.0317797436161871,-2.94450436411571,-0.000356181084904744,0
0.33,0.000585739556998639,0.000336656519768684,-0.029166768783544,-0.0168356166427146,-0.000215443469623786,-0.000640322225392957,0.0107984486798572,0.0318987757621144,-2.94450562567967,-0.000329669845906629,0
0.34,0.000586018677875145,0.00033685273142386,-0.0291916863227038,-0.0168454375651875,-0.00021558180109077,-0.000640634170587792,0.0108032288875707,0.0319251243181373,-2.94450652151985,-0.000266786734857589,0
0.35,0.000585430262516404,0.000336929001879444,-0.0291725959414005,-0.0168492560715539,-0.000215772099777857,-0.000640071984650913,0.0108107258450413,0.0319071463911828,-2.94450696759975,-0.000211429742657476,0
0.36,0.000584708010257573,0.00033695866356857,-0.029143004416476,-0.016850726065384,-0.000215942688812017,-0.000639369496740283,0.0108179655398327,0.0318784142787615,-2.94450708599752,-0.000178023470540775,0
0.37,0.000584182163141973,0.000336970212211547,-0.0291195019498117,-0.0168513028626203,-0.00021605694964831,-0.000638856101293396,0.0108231316691359,0.0318554802639262,-2.9445070366947,-0.00016461051811263,0
0.38,0.000583913083354159,0.000336974716883104,-0.029106419840959,-0.0168515419585741,-0.000216113994059812,-0.000638593133616487,0.0108259246734487,0.0318426992779282,-2.94450693935314,-0.000163557778063426,0
0.39,0.000583836249376568,0.000336976477489116,-0.0291018723558222,-0.016851629627659,-0.000216130712950445,-0.000638518149614092,0.0108268984726156,0.0318382578855382,-2.94450685686504,-0.000167657136086439,0
0.4,0.000583860172776724,0.000336977166061662,-0.0291021750743592,-0.0168516630778767,-0.000216126672809959,-0.000638541755174955,0.0108268704592614,0.0318385618175083,-2.94450680849648,-0.000172343628687664,0
0.41,0.00058391500441333,0.000336977434479775,-0.0291042449529073,-0.0168516760406639,-0.000216116187493126,-0.000638595581906911,0.0108264772736698,0.0318405943647575,-2.94450678998244,-0.000175646251854128,0
0.42,0.000583962909327092,0.000336977538018382,-0.0291062726812023,-0.0168516817558866,-0.000216106908279962,-0.00063864257984601,0.0108260858054139,0.0318425839643707,-2.94450678940437,-0.000177276986858683,0
0.43,0.000583991722121401,0.000336977577149837,-0.0291075773418957,-0.0168516831797726,-0.00021610130894784,-0.000638670841106062,0.0108258319422284,0.0318438635762763,-2.94450679597682,-0.000177699078065172,0
0.44,0.00058400318903281,0.000336977591511402,-0.0291081384640972,-0.0168516846707638,-0.000216099082191827,-0.000638682087315095,0.0108257237552305,0.0318444140511856,-2.94450680306065,-0.000177507634576535,0
0.45,0.000584004003940061,0.000336977596642079,-0.0291082064304955,-0.016851684747711,-0.000216098930749874,-0.000638682886404087,0.010825710676371,0.031844480664443,-2.9445068079076,-0.000177144245755435,0
0.46,0.000584000395065095,0.000336977598494689,-0.0291080464238467,-0.0168516848417366,-0.000216099640706925,-0.000638679347254765,0.0108257421735462,0.0318443237486672,-2.94450681022135,-0.000176839168690175,0
0.47,0.000583996320528843,0.000336977599241982,-0.0291078407434401,-0.0168516849375728,-0.000216100439627381,-0.000638675351626293,0.0108257825593985,0.0318441220629069,-2.9445068107581,-0.000176661588076697,0
0.48,0.000583993468353467,0.000336977599616153,-0.0291076754572752,-0.0168516850287076,-0.000216100998271301,-0.000638672554810933,0.0108258150031646,0.031843959997935,-2.94450681042244,-0.000176594477461988,0
0.49,0.000583992071369609,0.000336977599838086,-0.0291075699763533,-0.0168516851142381,-0.000216101271679177,-0.000638671185034871,0.0108258357237366,0.0318438565817711,-2.94450680986416,-0.00017659325419768,0
0.5,0.000583991663915984,0.000336977599972162,-0.0291075084693182,-0.016851685195956,-0.000216101351306468,-0.000638670785592919,0.0108258478333212,0.0318437962863225,-2.94450680941217,-0.000176617985769216,0
0.51,4.73652169196909,0.00630435836665089,3.17439097126228,-0.284581525152608,-1.9356451606135,4.32295677697819,-1.56069104701876,2.77884654823637,0.422320210179527,131.027360047288,3638.35228753832
0.52,4.69361455479811,0.0163322899739011,5.32044163041037,-0.757637062519002,-4.35664707602855,-1.74639932078557,-4.64717922565556,-2.69904396143182,1.95552230081735,291.130509921013,3638.35228753832
0.53,4.64663462842998,0.0316869901368262,7.67040067662262,-1.47908734693152,4.63606509646748,-0.314829885469196,7.74628809768771,1.00884420373381,-1.6317818465394,444.472405925399,3638.35228753832
0.54,4.68051898632067,0.066997195336624,5.97741676700685,-3.22974118984805,-3.81894555679416,-2.70691733152924,-2.92143371238914,-6.13400068666543,2.20172551392205,601.249485920383,3638.35228753832
0.55,4.61755094780277,0.0891410148034113,9.12719903385146,-4.28552467450629,-3.52010638854883,2.98974478666193,-9.78009210945356,2.45383012247089,0.885991671488434,753.874932159751,3638.35228753832
0.56,4.61159806719523,0.0840953343543651,9.42646691479846,-4.00493909469673,-2.90057586233228,3.58616346887231,-9.12810824703863,4.64493869479088,0.698332045611489,907.997131374395,3638.35228753832
0.57,4.53220191524732,0.108445239572828,13.398182957328,-5.17985028461503,-4.53028426738824,-0.170701573548863,-13.0539811781201,-5.99464185171619,1.63238176233904,1060.25849539612,3638.35228753832
0.58,4.53426483073734,0.103425131841011,13.297120693363,-4.92502758666508,2.25505784122537,-3.93509446467119,11.0889557483063,-8.83766801115432,-2.59840941985553,1213.34122571853,3638.35228753832
0.59,4.49469113053199,0.122200646717423,15.2780940777584,-5.84244501120319,-2.30775242233121,3.85894546659648,-13.1258128747525,9.76049992237846,0.566148359183563,1364.84792922633,3638.35228753832
0.6,4.50867739684037,0.175561254173652,14.5812362888639,-8.45144118062108,4.4950152053341,0.392214133556606,13.4040495118191,10.216201173914,-1.44484254352886,1515.02567879338,3638.35228753832
0.61,4.43551875793956,0.145585804976948,18.2418436548321,-6.96739914243625,3.04370460571585,-3.22968793411819,17.8508346620721,-7.91563090377039,-2.35302123725946,1665.8194824545,3638.35228753832
0.62,4.37774474035405,0.171587502499826,21.1334075903078,-8.24776560900623,3.53760719978537,-2.58445866338357,22.1406174523112,-4.9436436713823,-2.16256843731465,1815.27580937849,3638.35228753832
0.63,4.41415822850948,0.237327405224504,19.3157767754263,-11.4721253035783,3.54941847596365,2.63490903943124,7.54613019091081,21.1604539308807,-0.878496217196298,1963.81814809871,3638.35228753832
0.64,4.31731563403172,0.156732633794827,24.1612029941861,-7.45976107473791,-4.29253402595541,0.487781752801396,-24.6626777915821,-5.58248059262616,1.4939340969165,2112.09233680101,3638.35228753832
0.65,4.30828221387961,0.273097402924122,24.6163455654262,-13.2555675437267,4.25201048805233,0.745844913777862,20.81697294351,18.6635521102482,-1.33384869466749,2259.4945970087,3638.35228753832
0.66,4.1793345230239,0.229157677327156,24.2029700559481,-11.0180222536983,0.807204276668297,4.10703926839588,-7.55092556416993,25.4983155725329,-0.139291733028138,2405.35034095483,3638.35228753832
0.67,3.63540607407924,0.190756631757142,30.6565722084519,-9.16178492733366,2.87484529052571,2.23334501847648,17.1988233160694,26.9808116847765,-0.85790302714469,2539.28169226091,3638.35228753832
0.68,3.22528208071327,0.21944734139939,32.4989263709213,-10.5426539817008,2.11207059889786,2.4473985006714,11.0829711409157,32.318655896093,-0.644049919845674,2659.66926976548,3638.35228753832
0.69,2.9148057165024,0.124538588106299,31.2528759061804,-5.92199614851361,-1.04176034024049,2.72513075252998,-17.8319458309307,26.3407288941076,0.407837198696647,2768.29010617405,3638.35228753832
0.7,2.65693397772116,0.195023570365722,28.9905095387619,-9.40826315567497,-2.2424935167534,-1.43824726048283,-17.546274752745,-24.9217435430321,2.21434458334732,2865.71507763285,3638.35228753832
0.71,2.38145359871873,0.275526385596573,29.0723277713172,-13.5292952743083,2.37768806929959,-0.306325769599407,29.2449984012289,13.1518873616847,-1.58373939770253,2953.566611809,3638.35228753832
0.72,2.01009270913956,0.188127989621434,35.2948429487421,-9.12573288319999,-1.99529882770377,0.307648221153609,-35.776180947821,-7.00498509781857,1.51113435610588,3032.27986119056,3638.35228753832
0.73,1.81812336134818,0.261765621485163,33.7910795548478,-12.8087717848994,-1.82742499413813,-0.186042168528467,-29.6864936857199,-20.6061589037695,1.81524550775069,3103.0931340333,3638.35228753832
0.74,1.55682087480369,0.0815380624312466,36.8565745554275,-3.93612856212823,0.585546842501827,1.44480953315159,8.31763588103732,36.1208683362937,-0.332719577401539,3166.802372352,3638.35228753832
0.75,1.47699759910425,0.174984181246901,31.8372020794341,-8.58848340672826,1.23945192940002,-0.822131550393809,32.2897995693205,-6.68867156074189,-2.03854303877525,3223.88422155856,3638.35228753832
0.76,1.28278250034376,0.15204892692282,33.4178504469881,-7.3843286622368,-0.411140073390476,-1.22458713835278,0.395008312395794,-34.2217037378669,2.93565982310332,3275.0491834025,3638.35228753832
0.77,1.10260467645481,0.042837393491003,35.0841355957021,-2.05311342602223,-1.02737336613056,-0.402586737718314,-31.3214025259966,-15.9399369208983,1.98309756444311,3321.19881538283,3638.35228753832
0.78,0.954413520054235,0.140538999748448,35.9178030146303,-6.84924737870388,-0.900318696901918,0.346529395176572,-36.5453686765333,1.19866231638702,1.34957877520189,3362.20241132077,3638.35228753832
0.79,0.898315273500964,0.163921107343819,32.798745836326,-8.07138085137731,0.533453468706256,-0.741126073460649,29.2261042383638,-16.9333915188951,-2.33721906663732,3399.17379767749,3638.35228753832
0.8,0.768632368596475,0.185558766649398,33.9136111883125,-9.23029360685517,0.362468819562326,-0.702740441969699,29.1665630246299,-19.6123161618172,-2.42850864396171,3432.39898386294,3638.35228753832
0.81,0.650899117644913,0.144592579690494,34.9785014155049,-7.22613544640924,0.394579499121931,-0.537479017567351,31.080578058081,-17.5985869415661,-2.28973261830947,3461.95610525918,3638.35228753832
0.82,0.559249298693965,0.127182451639606,35.2157645334913,-6.37476863529497,0.473809599235785,-0.32317118956797,35.1035973524397,-6.96600314022553,-1.94577373088098,3488.46440473551,3638.35228753832
0.83,0.477917378051048,0.141107319802269,35.3700269428434,-7.08406609447985,0.493833349909722,-0.0666702217028691,33.8784033952812,12.3885665738626,-1.41789288258801,3512.18566280358,3638.35228753832
0.84,0.380117584738163,0.0940101436857123,36.7343114830435,-4.74608637807603,-0.359803141274431,-0.154495905680489,-26.4223390667789,-25.9575610233625,2.21883293333401,3533.33776016483,3638.35228753832
0.85,0.288986951087529,0.0561358846581416,38.1305543281072,-2.86720263446571,-0.0801769180639204,-0.283260228862065,-0.341108890683674,-38.2366796288658,3.0576187861648,3552.11223761209,3638.35228753832
0.86,0.285105480263414,0.103329000989751,35.4783088772653,-5.21792881645999,0.155156398249176,-0.260554235053117,30.7578457385966,-18.4361630347799,-2.25679928092044,3568.91168357243,3638.35228753832
0.87,0.278421572150397,0.0861730227950632,33.2329872416372,-4.33188720322708,0.29001855834097,0.0288720888430789,28.9331816781896,16.913535577199,-1.17141619668967,3583.95935040596,3638.35228753832
0.88,0.222197426469173,0.143906170971691,33.7238205529809,-7.18391527092924,0.139897370998226,0.224742982006206,-7.78767758134483,33.5895339235091,0.0179383756721116,3597.29972342762,3638.35228753832
0.89,0.148436052602768,0.0881935355031939,35.3173775711864,-4.3677382601387,0.0926499083447619,-0.145696108048747,33.486701175232,-12.0430536167343,-2.0390767417424,3609.2084179748,3638.35228753832
0.9,0.045119759963378,0.0948930677538272,38.6117406953606,-4.77297323517159,0.102267627721638,-0.0241209321352574,20.4175664584498,33.11752969266,-0.675467560682697,3619.73243062355,3638.35228753832
0.91,0.0396213224111025,-0.0706627257477961,37.2200015448405,3.43857991801685,-0.0785062628492928,-0.0199959169119732,-23.1618871502514,29.3373367995382,0.760430656060344,3628.95935710922,3638.35228753832
0.92,0.0529945932164324,-0.0612354003251491,35.0307055891993,3.03185539142228,-0.00191766758229437,-0.0809600130570656,-28.9531970161134,-19.9513123312172,2.26049484665387,3637.14415912992,3638.35228753832
0.93,0.0200251499980044,-0.00799911519173446,35.3136748560791,0.424630162252024,0.0187632848897357,-0.0106269288338555,21.7481016171138,-27.8254563065416,-2.46615454439294,3644.3975845066,3638.35228753832
0.94,-0.0710109822526971,0.0485851778243525,38.6671675068197,-2.55618947691566,0.0379851696902041,0.0772023703543047,-32.4243011197891,-21.2214194750396,2.08431088028468,3650.69328906869,3638.35228753832
0.95,-0.0296280065496433,0.0968396812953702,35.4954775458103,-4.91671427841039,-0.0968896014871872,-0.029464347424449,23.8905199788682,-26.7085390959511,-2.54947092954258,3656.25691847625,3638.35228753832
0.96,-0.0326047314301386,0.10834505628542,34.6674921708095,-5.41220135398089,0.0457423505400732,-0.103486023694948,22.8024833730387,26.6678399749861,-0.862289106150196,3661.06431541474,3638.35228753832
0.97,-0.161872771196467,-0.0241958062565924,40.2350398036236,1.06851869037755,0.106736598412248,-0.124078723617762,-29.7616631900158,27.0969290576426,0.858780562910589,3665.38200483458,3638.35228753832
