t,iq,id,vq,vd,ia,ib,va,vb,theta_e,omega,r
0,0,0,0,0,0,0,0,0,0,0,0
0.01,0.000826856164873811,0.000375871259433486,-0.0350021959683665,-0.0188121175580051,-3.50478323947872e-05,-0.00090760231957745,0.00416880309463252,0.0395179778124124,-2.75353421882451,-0.014786060796453,0
0.02,0.000807422209792498,0.000422957248389648,-0.0391366546145784,-0.0211687418136903,-8.604201710343e-05,-0.000907425054825089,0.00478846638016737,0.0442364550356546,-2.7535954912286,-0.00416338427885551,0
0.03,0.000782873472307673,0.000441704501285957,-0.0390865548316736,-0.0221070154027021,-0.000112694446238127,-0.000891792409637148,0.00567650244021769,0.0445449909492744,-2.75360786280748,-0.00120641767513405,0
0.04,0.000739635715101967,0.000431797608362932,-0.0374211225841703,-0.0216111949801805,-0.000119877157712832,-0.00084802100958705,0.00584737439082097,0.0428157958779753,-2.75360242343287,-0.00037897160968679,0
0.05,0.000771009944602696,0.000442326669054441,-0.0385342154615542,-0.0221381667541222,-0.000117755858285052,-0.000881046408921006,0.00591416322057613,0.0440455089864017,-2.75360472282735,-0.0012444407166004,0
0.06,0.000770989344839544,0.000443066723517671,-0.0386608604352471,-0.0221752050597843,-0.000118450637058584,-0.00088130706222361,0.00590063249924967,0.0441767403182482,-2.75360692129556,-0.000889941013758643,0
0.07,0.000792984907262928,0.000453880933599161,-0.0393205105952994,-0.0227164461426008,-0.000120139178154718,-0.000905759097610369,0.0061520620813194,0.0449921283223224,-2.7536064598125,-0.00183028214706737,0
0.08,0.000770848491460931,0.000443878965991475,-0.0387459513929788,-0.0222158508192918,-0.000119257168689606,-0.000881483783715499,0.00590613410251577,0.0442708748155625,-2.75360847823146,-0.000633908332144723,0
0.09,0.000767219704346219,0.000443175814458833,-0.0385711948706605,-0.0221806688331143,-0.000119978204911619,-0.00087785881985917,0.00593963483274209,0.0440958034475893,-2.75360741963146,-0.000661335145768964,0
0.1,0.000768015284823496,0.00044312642247688,-0.0385750212057898,-0.022178193801605,-0.000119631179146383,-0.000878576624430516,0.00593588022564082,0.0440984111649788,-2.75360705812701,-0.000750819651523773,0
0.11,0.000768434845514864,0.000443122948264923,-0.0385879852468116,-0.0221780199504969,-0.000119469232148667,-0.00087896368619543,0.00593081463565187,0.0441103458622841,-2.753607057077,-0.000767509076231421,0
0.12,0.000768466394058439,0.000443122700067358,-0.0385903448218586,-0.0221780083317483,-0.000119457088871837,-0.000878992792934295,0.0059299123025206,0.0441125255128003,-2.75360708217401,-0.000764713488402863,0
0.13,0.00081443348557598,0.000463565547724175,-0.0402821525017653,-0.0232011577076155,-0.000120994118798661,-0.00092927678475274,0.00623716572282215,0.0460656411319236,-2.753611508153,-0.00186267043406083,0
0.14,0.0008333286938497,0.000480725165293394,-0.0421435510304559,-0.0240599883340622,-0.000129730169219773,-0.000953259397925778,0.00632797207679848,0.0481136020423238,-2.75361179003132,-0.00256134494578599,0
0.15,0.000768446894177424,0.00044576614091962,-0.0388527714790106,-0.022310310204263,-0.000121915426827753,-0.000879974266818471,0.00595329993554553,0.0444054727808194,-2.75361162631701,-3.28814375710853e-05,0
0.16,0.000763895004086367,0.000443308483421936,-0.0384831038943818,-0.0221873121748419,-0.000121359073670885,-0.00087483139174341,0.0059791237285861,0.044016771648179,-2.75360770105144,-0.000485144243804214,0
0.17,0.000767492056504664,0.00044313577755592,-0.0385487471939194,-0.0221786609561943,-0.000119837646778653,-0.000878095844747259,0.00594624562279305,0.0440742677196563,-2.75360689617845,-0.000756266393094,0
0.18,0.000768558886064966,0.000443123613836287,-0.0385882168029578,-0.0221780537478725,-0.000119422873721833,-0.000879078765367911,0.00593075596181217,0.0441105733106817,-2.75360700367042,-0.000780980261467246,0
0.19,0.00076852879267305,0.000443122746655008,-0.038591756183308,-0.022178011686481,-0.000119433525262531,-0.000879050571249424,0.00592938146481692,0.0441138332399517,-2.75360708238935,-0.000767133661989273,0
0.2,0.000768447884021204,0.000443122684570644,-0.0385896621705561,-0.022178007551154,-0.00011946408528987,-0.000878975651746745,0.00593017024325732,0.0441118932518508,-2.75360709123305,-0.000762523304072753,0
0.21,0.000768433157483003,0.000443122680804606,-0.0385889094562341,-0.022178007658694,-0.000119469649984648,-0.000878962018801327,0.00593045495100899,0.0441111965469605,-2.7536070875595,-0.000762534147946668,0
0.22,0.000768435776827742,0.00044312268074186,-0.0385888313646624,-0.0221780077341018,-0.000119468657748248,-0.000878964443599705,0.00593048450373504,0.0441111242964311,-2.75360708617595,-0.000762859260686198,0
0.23,0.000768437348434586,0.000443122680737608,-0.0385887985764449,-0.0221780078114477,-0.000119468063139933,-0.000878965898395868,0.00593049697856032,0.0441110939747062,-2.75360708614519,-0.000762926114996831,0
0.24,0.000768437464849907,0.000443122680723199,-0.0385887268451307,-0.0221780078914867,-0.000119468019163134,-0.000878966006142162,0.00593052419434222,0.0441110276047076,-2.75360708623542,-0.000762917251453038,0
0.25,0.000768437406642246,0.000443122680719286,-0.0385886465651676,-0.0221780079718489,-0.000119468041199117,-0.000878965952256942,0.00593055464152095,0.0441109533219896,-2.75360708625615,-0.000762910726375646,0
0.26,0.00078010331565429,0.000447505920820647,-0.0389585626894086,-0.0223973880648911,-0.000119112075915015,-0.000891423045268389,0.00599368487435791,0.044536370985755,-2.75360718321787,-0.00120666855456986,0
0.27,0.000752656389851277,0.000434689725729429,-0.038200257552208,-0.0217559408962082,-0.000117633783003047,-0.000861167284524369,0.00568687436015567,0.0435917434997286,-2.75360889310897,0.000149176347906023,0
0.28,0.000754780947805135,0.000434112534285931,-0.0370183935522668,-0.0217270448882313,-0.000116294874498923,-0.00086291568172044,0.00610721039585267,0.0424867970309191,-2.75360790944133,-9.2727593935714e-05,0
0.29,0.000766621071310877,0.000442489213318194,-0.0384904498331683,-0.0221462981438392,-0.000119568198739893,-0.000877045048290502,0.00593832068132603,0.0440080628671747,-2.75360637605755,-0.000805643318905749,0
0.3,0.000760878111402672,0.000439196961406758,-0.0380479793193217,-0.0219815251031837,-0.000118689400700295,-0.000870483944413699,0.00595299461810504,0.043536169229989,-2.75360183128351,-0.00131066581537848,0
0.31,0.000773146396182595,0.000442846791740081,-0.0386680041742844,-0.0221641910084935,-0.000117430102605568,-0.000883220698289314,0.00588769022414722,0.0441791920898056,-2.75360592053156,-0.00113586406967286,0
0.32,0.000769946090287972,0.000443103257025758,-0.0386427716122265,-0.0221770381090661,-0.000118879399768198,-0.000880355136662087,0.0059091855790193,0.0441606877545898,-2.75360721178655,-0.0008021149524737,0
0.33,0.000768421341277209,0.000443121298590896,-0.0385940329210457,-0.0221779402516895,-0.000119472934390641,-0.000878950545220399,0.00592845891613938,0.0441159130677119,-2.75360719396378,-0.000744946296959683,0
0.34,0.000768328383690198,0.000443122581786792,-0.0385855962263667,-0.0221780045275521,-0.000119509207602749,-0.000878864993597735,0.00593170606986881,0.0441081283219885,-2.75360709983201,-0.000756428962637043,0
0.35,0.000768415811600062,0.000443122674545103,-0.0385871848672715,-0.0221780088112253,-0.000119476201239643,-0.000878945960540426,0.00593110820496818,0.0441096006133895,-2.75360708150357,-0.000762820461093398,0
0.36,0.000768440549855934,0.000443122680574735,-0.0385880392681027,-0.0221780088456733,-0.000119466850176648,-0.000878968862026124,0.00593078511872297,0.0441103915057544,-2.7536070842834,-0.000763345584268377,0
0.37,0.000768439502118038,0.00044312268071919,-0.0385880331254234,-0.0221780089278669,-0.000119467248331437,-0.00087896789199566,0.00593078760084368,0.0441103858396976,-2.75360708614487,-0.000763007205546993,0
0.38,0.000768437581265229,0.00044312268070587,-0.0385879043784567,-0.0221780090116769,-0.000119467975193651,-0.000878966113885991,0.00593083639502984,0.0441102666926684,-2.75360708633704,-0.000762900059223323,0
0.39,0.000768437290226925,0.000443122680719748,-0.0385878106629304,-0.0221780090924701,-0.000119468085233771,-0.000878965844495752,0.00593087192069879,0.044110179973835,-2.75360708624643,-0.000762901472240843,0
0.4,0.000768437348434586,0.00044312268072547,-0.0385877302591189,-0.0221780091726169,-0.000119468063189194,-0.000878965898383053,0.00593090241218875,0.0441101055767076,-2.75360708621402,-0.000762909269422685,0
0.41,0.000768437348434586,0.000443122680725673,-0.0385876493555314,-0.0221780092528714,-0.000119468063188713,-0.00087896589838322,0.00593093309425209,0.0441100307168041,-2.75360708621326,-0.000762910792049519,0
0.42,0.000768437348434586,0.000443122680725386,-0.0385875691911821,-0.0221780093331259,-0.000119468063190289,-0.000878965898382862,0.00593096349676954,0.0441099565411764,-2.75360708621535,-0.000762910562678639,0
0.43,0.000768437348434586,0.000443122680725384,-0.0385874890383659,-0.0221780094133804,-0.000119468063190287,-0.000878965898382861,0.00593099389483132,0.0441098823762371,-2.75360708621535,-0.00076291040834851,0
0.44,0.000768437348434586,0.00044312268072551,-0.0385874088061193,-0.0221780094936349,-0.000119468063190404,-0.000878965898382909,0.00593102432294356,0.0441098081377712,-2.75360708621535,-0.00076291039231615,0
0.45,0.000768437348434586,0.000443122680725758,-0.0385873285626636,-0.0221780095738894,-0.000119468063190354,-0.00087896589838304,0.00593105475528247,0.0441097338889312,-2.75360708621503,-0.000762910399805077,0
0.46,0.000768437348434586,0.000443122680725598,-0.0385872483079971,-0.0221780096541439,-0.000119468063189899,-0.000878965898383021,0.00593108519186132,0.0441096596297139,-2.75360708621469,-0.00076291040248501,0
0.47,0.000768437348434586,0.000443122680725845,-0.0385871680421206,-0.0221780097343984,-0.000119468063189793,-0.00087896589838316,0.00593111563267977,0.0441095853601199,-2.7536070862143,-0.000762910402514631,0
0.48,0.000768437348434586,0.00044312268072611,-0.038587087765035,-0.0221780098146529,-0.000119468063190038,-0.000878965898383261,0.0059311460777557,0.0441095110801478,-2.7536070862143,-0.000762910402334495,0
0.49,0.000768437348434586,0.000443122680726045,-0.0385870074767394,-0.0221780098949074,-0.000119468063189727,-0.00087896589838327,0.00593117652706004,0.0441094367898005,-2.75360708621402,-0.000762910402288797,0
0.5,0.000768437348434586,0.000443122680726002,-0.0385869271772348,-0.0221780099751619,-0.000119468063189324,-0.000878965898383303,0.00593120698059943,0.0441093624890781,-2.75360708621361,-0.000762910402306291,0
0.51,4.55251832829342,0.079540300374962,12.3754576535598,-3.91015843748476,-4.47811201309006,0.823566990019486,-12.8485473697723,-1.83197205983136,1.4063891914763,435.261307546943,4159.22819428896
0.52,4.41306949770165,0.0822562249186907,19.350485025602,-3.96843811294796,-0.87871776827146,4.32548304375437,-8.07867413098052,18.025670474847,0.219058723711461,943.299647418339,4159.22819428896
0.53,4.26815973356973,0.116764334592479,26.5993932689137,-5.67227523940378,-1.93960066109182,-3.80378373420349,-6.30881175903472,-26.4556482221651,2.6973959827847,1442.72956930241,4159.22819428896
0.54,4.09486425746367,0.160157916586604,35.2683248533299,-7.72465248070689,-2.61797303403291,-3.15274182869061,-15.3220769382155,-32.6918789947458,2.48769197135645,1926.79027894665,4159.22819428896
0.55,3.9128959019643,0.243085266990496,44.3713853399332,-11.8165444742885,1.97065275249447,3.38915513302694,9.31862331963419,44.9623600328591,-0.464630002636194,2406.40857015156,4159.22819428896
0.56,3.8194002974961,0.100262360790035,48,-4.64438060690604,-0.0919804281611741,3.81960872005756,-7.05290200081122,47.7056269698739,0.0503212445284146,2872.24343207867,4159.22819428896
0.57,3.75388858854225,0.358589307148673,48,-17.6900717700658,2.35739817644134,-2.94328722079585,46.1265553139871,-22.1196639688709,-2.37104266267763,3321.61835307808,4159.22819428896
0.58,2.25406456962143,0.0249769372906461,48,-1.12886842113282,2.25220721956595,-0.094834442867897,48.0119264137929,-0.359535740601872,-1.60179841170278,3718.19476931391,4159.22819428896
0.59,0.965340878512638,0.383962995517814,48,-19.125118725147,-0.831879615079528,0.622323790056029,-51.3258852659347,-5.95177855090994,1.30708047167484,3906.90081073387,4159.22819428896
0.6,0.24368731445724,0.0723412224800397,48,-3.73236499365638,0.251449961250079,0.0372783675155208,41.9390435403126,23.6441784667946,-1.13504040947792,3987.12931804179,4159.22819428896
0.61,0.0591469270807079,-0.302709927585763,48,15.2602640709341,0.300081873044872,-0.0712918558599063,-17.1812837704358,-47.3463741749503,3.10130250425227,4021.37664033236,4159.22819428896
0.62,-0.103858144821485,-0.205619675780831,48,10.2587799481843,0.0606752464169627,0.222226190594663,28.7581047489273,-39.777053401113,-2.30505150849518,4036.55423446563,4159.22819428896
0.63,-0.254275563637814,-0.139936413880467,48,6.84154418541154,0.288653799568057,0.0302860725082856,-43.3139715312462,-21.7877625522065,2.17843500466237,4043.24182260937,4159.22819428896
0.64,-0.305142260015572,0.137251304052877,48,-6.79645498153247,0.249063279710287,-0.22342157910905,-25.6521802380799,41.1358414202148,0.416931864838331,4047.81378341129,4159.22819428896
0.65,-0.228333879776097,0.219214353364456,48,-10.9244619808113,-0.167604961094097,-0.268514190297735,43.8554113958651,22.3617253553838,-1.32304389815182,4050.02299391043,4159.22819428896
0.66,-0.123190304722259,0.309903432860749,48,-15.5747151922414,-0.320252879814859,0.0930273177444635,20.0881310890518,-46.2929664492189,-3.04593390325767,4051.1957538175,4159.22819428896
0.67,-0.205960219035959,0.131288165026155,48,-6.73540361413445,0.211642341026069,0.121916830611201,-48.2538232512472,-4.57539107428953,1.52592226382364,4052.78771761361,4159.22819428896
0.68,-0.250791465424516,-0.0890961266080564,48,4.54371359083099,-0.131837482589541,-0.231199820698,12.9193471700341,46.4514348744539,-0.176890537338648,4054.54920943695,4159.22819428896
0.69,-0.0877277210625921,-0.296106381390253,48,14.8794842177577,-0.120263437856591,-0.284450079377348,-27.6311339262611,41.9752246990474,0.882764552026999,4055.71297449059,4159.22819428896
0.7,-0.133970290664346,-0.229126288689455,48,11.3995127196303,-0.255552242649389,0.0716934182903882,42.4409111440473,25.1538854157383,-0.802606266049281,4056.40392317421,4159.22819428896
0.71,-0.273284424111515,-0.133370745883518,48,6.50312392124948,-0.062954268336227,0.297504441005069,24.3992552873489,-41.8445571389865,-2.47903594970622,4057.31039790859,4159.22819428896
0.72,-0.330037789790489,0.0708944121302993,48,-3.47413515838771,0.240093502486141,0.237289001904911,-38.5960286738629,-28.7474552909487,2.1387281771556,4059.95196504329,4159.22819428896
0.73,-0.174574860529902,0.232615509596786,48,-11.5903713556664,0.287048399625222,-0.0467928788022949,-32.528558075343,37.1514416638344,0.482220021872211,4060.35061245351,4159.22819428896
0.74,-0.14731325355552,0.352994718462891,48,-17.7297046968291,0.00379724712119184,-0.382481433340377,37.1212581234958,35.2186686853089,-1.16551743726827,4061.63061822006,4159.22819428896
0.75,-0.129874723744146,0.181528656875982,48,-9.23697976466623,-0.214388229191124,0.0621110643855855,24.674561505296,-42.1958269227446,-2.80256517537777,4062.45092730964,4159.22819428896
0.76,-0.243040186795433,-0.0668301894566042,48,3.42015425027162,0.252046905111898,0.00267661052050193,-47.086163146752,-9.9292847281715,1.84975920874685,4064.15752741596,4159.22819428896
0.77,-0.113469985095541,-0.313195559995144,48,15.7516450140337,0.327203074421171,0.0624903545164188,-23.1473217567488,-44.903405395779,2.98271551897531,4065.69419293025,4159.22819428896
0.78,-0.168685693357173,-0.241669214109083,48,12.0568470523397,0.117271943799137,-0.270381514510634,-44.6447890968333,21.3590816128125,1.37065206175538,4066.40167218371,4159.22819428896
0.79,-0.242291078064174,-0.221450763300513,48,10.9332006130324,-0.271467964220929,-0.184527915171727,21.7344442740734,44.171810102621,-0.233307867050948,4067.35217817856,4159.22819428896
0.8,-0.354003971938,-0.0023530131903744,48,0.00354737901300929,-0.341544683601951,0.0931213075627554,46.3915902809525,-12.3215406418244,-1.83032737636586,4068.96058023245,4159.22819428896
0.81,-0.243395660683906,0.238730007077928,48,-11.8711089891316,-0.163043380836669,0.299416632611703,-1.7120899698992,-49.4165152207924,2.86451060118467,4070.37429235647,4159.22819428896
0.82,-0.19420709854783,0.213720335598653,48,-10.7026650219774,0.246557545537889,0.15034013340788,-49.0708388514923,3.25573539826827,1.28516225802282,4070.89256185095,4159.22819428896
0.83,-0.106585162722819,0.413902141338024,48,-20.8234952553197,0.367085290170427,-0.218914981801943,-6.4515223251798,51.922979636535,-0.285701644527576,4071.88486906316,4159.22819428896
0.84,-0.239032333161789,0.0297420516772705,48,-1.66074395828891,0.206567379522534,-0.123899005855316,-38.8233023346623,28.2755948889921,0.906733614678537,4073.22999220391,4159.22819428896
0.85,-0.193965604594343,-0.128276665025437,48,6.51535243331188,-0.219309761144591,-0.0773355495383567,34.1490811474325,34.3553500071872,-0.647475159440993,4074.65056895967,4159.22819428896
0.86,-0.122325631945681,-0.283071675087392,48,14.2186219317599,0.0664348608727181,0.301130441384651,30.6053778409746,-39.6166638783417,-2.19583608284865,4075.0953323015,4159.22819428896
0.87,-0.140492668997737,-0.187065899128445,48,9.30146929681001,0.233672944280918,0.011348822402709,-34.6292709930557,-34.51566197495,2.54595972332239,4076.39063433285,4159.22819428896
0.88,-0.266001511397316,-0.164586471558028,48,8.07441039841913,0.13908888572994,-0.280178144315329,-36.510811642962,32.1893885691271,1.01487463983339,4076.77639715381,4159.22819428896
0.89,-0.297299279184436,0.0142637388857747,48,-0.753394118783261,-0.132847635125299,-0.266349059491867,22.8006017744715,42.2457117518475,-0.510606222837278,4078.76078757861,4159.22819428896
0.9,-0.260881767908121,0.22122665021462,48,-10.9985460799461,-0.331590368247102,-0.0839544833692637,47.9460126411768,-11.2315576695671,-2.02614945766546,4079.86135379412,4159.22819428896
0.91,-0.137062484523379,0.32705666717169,48,-16.3661158623014,0.134831959258793,-0.32798251625294,22.3011183059489,45.5467877102474,-0.783917484787522,4079.75520733018,4159.22819428896
0.92,-0.0825446462464058,0.385223949331556,48,-19.3779019919749,-0.315936352459148,-0.235362127279124,48.8737393136773,-17.0546384045308,-2.29023547759637,4080.93460684017,4159.22819428896
0.93,-0.211439009305153,0.0611958588087874,48,-3.23156007726394,0.0781503154427226,0.205776373734918,-26.2624758526738,-40.3078818920157,2.496908016168,4082.2147391615,4159.22819428896
0.94,-0.228018479627337,-0.130944534609824,48,6.64279615590348,0.123303220982448,-0.23223956142548,-37.0953121437283,31.1779498640986,1.00937194844475,4083.72726099889,4159.22819428896
0.95,-0.0976810089023487,-0.285367970587835,48,14.3585178176888,-0.2985489330046,0.042953378672871,34.6376640886264,36.1994372940294,-0.472690593761486,4084.5463836343,4159.22819428896
0.96,-0.163529992159561,-0.220574341537672,48,11.0107934138736,-0.0705440153693365,0.265365107683837,40.5439789479301,-27.9539503947618,-1.94893130880825,4085.02680498011,4159.22819428896
0.97,-0.233950648260299,-0.245015050790753,48,12.1281434860261,0.299348244516241,0.158606145657898,-24.7096601727959,-42.9013351606052,2.86652327933768,4085.50800774399,4159.22819428896
0.98,-0.308628551623385,-0.0747424518712844,48,3.56151883777935,0.291813700915246,-0.125230910509455,-46.7312716402922,11.5270407005908,1.40302009155771,4086.49801759426,4159.22819428896
0.99,-0.287366117889286,0.196438344572265,48,-9.74819781334702,-0.0543276475951698,0.343825269047849,-11.7637222599425,-47.5462111970983,2.69868439729011,4088.08700999885,4159.22819428896
1,-0.188104106529198,0.230957458050123,48,-11.5090156894941,0.251513557940049,0.159578922463023,-49.1755425385006,4.26889425790133,1.2488755172581,4089.00434295603,4159.22819428896
