t,iq,id,vq,vd,ia,ib,va,vb,theta_e,omega,r
0,0,0,0,0,0,0,0,0,0,0,0
0.01,0.000462027026088882,0.000264083001717325,-0.0227322474034497,-0.0132155573672162,-0.000374989166663044,-0.000377613465752911,0.0186646383019261,0.0185212663064948,2.87893777687105,-0.000991006516922517,0
0.02,0.000528066555031928,0.000301390582528889,-0.0260162706600883,-0.0150825485195494,-0.000428167413922402,-0.000431698083659626,0.0213204431323296,0.0212077418303937,2.87893010356911,-0.0011055133661584,0
0.03,0.000553775888769258,0.000316003840997623,-0.0272834226473475,-0.0158138457418811,-0.000448958619113499,-0.000452727645313529,0.022355857286775,0.0222413694154644,2.87892203378319,-0.00113019933669674,0
0.04,0.000541360479044898,0.000308994851380127,-0.0266828665507361,-0.0154630948532865,-0.000438969676313299,-0.000442554640387541,0.0218613650463787,0.0217523191433718,2.87891428414423,-0.00107269629836424,0
0.05,0.000554753954961606,0.000316712005710395,-0.0273464083366989,-0.0158492868406457,-0.000449903464993823,-0.000453481330699729,0.022406782061615,0.0222926458707312,2.87890658433353,-0.00107187509480398,0
0.06,0.000555894659464618,0.000317431938080629,-0.0274096572501041,-0.0158853129893865,-0.000450898349696052,-0.000454392546127558,0.02245816551712,0.0223442001634563,2.87889902259224,-0.00104477694370201,0
0.07,0.000568196440601163,0.000324596789489002,-0.0280192923364004,-0.0162438618972041,-0.00046101534038854,-0.000464408362096159,0.0229628918093859,0.022839645183727,2.87889175140295,-0.00104324380712044,0
0.08,0.00055690568358144,0.000318166462367218,-0.0274732970130012,-0.0159220642204032,-0.000451876817248976,-0.000455171594251571,0.0225105066676627,0.0223957868218184,2.87888453063437,-0.000990271866923308,0
0.09,0.000555685664136915,0.000317564529171431,-0.0274203118492031,-0.0158919492566361,-0.000450981855974787,-0.000454146620703813,0.0224678201406938,0.0223522842503507,2.87887758407727,-0.000960414845286337,0
0.1,0.00055543760603977,0.000317507240930814,-0.0274147337138027,-0.015889086881382,-0.00045086517184816,-0.000453918912429321,0.0224637579681644,0.0223474894444666,2.87887084280831,-0.000933488515169674,0
0.11,0.000555286907290189,0.000317500874903384,-0.0274137350774862,-0.0158887590224669,-0.000450822857484124,-0.000453772086120517,0.0224633283224198,0.0223464631396513,2.87886429508201,-0.000907532333868559,0
0.12,0.000555149037410754,0.000317499296006459,-0.0274131811309216,-0.0158886830492112,-0.000450788410986372,-0.00045363649018026,0.0224632532134507,0.0223458050609818,2.87885793479505,-0.000882338138091135,0
0.13,0.000579850876413894,0.000331709087370171,-0.0286292984950744,-0.0165997889914328,-0.00047092920195391,-0.000473797049662581,0.0234659576056783,0.0233353500194163,2.8788515782579,-0.000911524344862592,0
0.14,0.00059822351126234,0.000342408647773214,-0.0295791235104558,-0.0171352293814928,-0.000486036506534656,-0.000488757164461567,0.0242298691029632,0.0241133588878954,2.87884536300907,-0.000927411131331873,0
0.15,0.000558914114499625,0.000319823828534046,-0.0276157766978306,-0.0160050126465776,-0.000454019566408528,-0.000456660160297882,0.0226286292757726,0.0225108127250261,2.87883928149057,-0.000817574376839673,0
0.16,0.000555025915531202,0.000317712592060207,-0.0274308502331347,-0.0158993557255121,-0.000450973439365998,-0.000453451226761233,0.022478692559367,0.0223595491417089,2.8788336117525,-0.000786874594774583,0
0.17,0.000554545800980595,0.000317514465968134,-0.0274126752526538,-0.0158894486866516,-0.00045065989052339,-0.000453036581919921,0.022464527234835,0.0223444480842232,2.87882812712163,-0.000764358454546699,0
0.18,0.000554396463538808,0.000317495128319702,-0.027410546493366,-0.0158884736489414,-0.000450604837940945,-0.000452894993696437,0.0224631517019454,0.0223425260338546,2.87882280164374,-0.000743188889717738,0
0.19,0.000554281725121753,0.000317492520483392,-0.0274099628621711,-0.0158883484508877,-0.000450574857780662,-0.000452782540412922,0.0224629947713417,0.0223418787595202,2.878817628779,-0.000722692646798513,0
0.2,0.000554173308309509,0.000317491498760031,-0.0274095440110816,-0.0158882886182026,-0.000450547983252398,-0.000452675846732288,0.0224629404526967,0.0223413769568782,2.87881260396871,-0.000702789443154422,0
0.21,0.000554068232424485,0.000317490647446527,-0.0274091479686336,-0.0158882478288775,-0.00045052207501942,-0.000452572400084455,0.0224629072315977,0.0223408954642136,2.87880772295788,-0.000683456442403225,0
0.22,0.000553966183337893,0.000317489833625649,-0.0274087633974145,-0.0158882085031019,-0.000450496925078829,-0.000452471929772571,0.0224628752790206,0.0223404278072882,2.87880298162937,-0.000664676762997689,0
0.23,0.000553867044633224,0.000317489044263682,-0.0274083885034061,-0.0158881691854713,-0.000450472492493621,-0.000452374324939858,0.0224628428131302,0.0223399725418902,2.87879837598568,-0.000646434516097717,0
0.24,0.000553770758102815,0.000317488277546218,-0.0274080242893209,-0.0158881298754134,-0.000450448762224867,-0.000452279528078727,0.0224628101809185,0.0223395305491864,2.87879390214396,-0.000628714316547825,0
0.25,0.000553677207331345,0.000317487532723963,-0.0274076687109131,-0.0158880905725242,-0.000450425705085681,-0.000452187425246936,0.022462776935501,0.0223390997704434,2.87878955633218,-0.000611501224185713,0
0.26,0.000558830316217631,0.000320492857404897,-0.027664146301114,-0.0160384970154821,-0.000454668472582976,-0.00045638095272537,0.0226747435758487,0.0225476025522577,2.87878536922301,-0.000606392643695202,0
0.27,0.000544360980246447,0.000312199575651028,-0.0269595004146097,-0.0156234715978933,-0.000442902786923041,-0.000444561101747957,0.0220909988376837,0.0219748787875833,2.87878117098248,-0.000558292985730943,0
0.28,0.000543909084052978,0.000311977334061242,-0.0268994238832424,-0.0156123448353944,-0.000442572545276169,-0.000444180696171145,0.0220647338025307,0.0219196678517964,2.87877718617685,-0.000541708426385976,0
0.29,0.000552415531031224,0.000316970074476448,-0.0273615984405295,-0.0158622031370973,-0.000449605543348226,-0.000451096223026375,0.0224261706390712,0.0223009737018495,2.8787733763933,-0.000545415846293677,0
0.3,0.000547391897490042,0.000314192091551602,-0.0271188904020432,-0.01572318765463,-0.000445619333612571,-0.000446965288743999,0.022228948449461,0.0221026400570598,2.87876992791093,-0.000520924420356885,0
0.31,0.00055261315720002,0.000317175929011738,-0.0273781550691054,-0.015872499901247,-0.000449858864596326,-0.000451230399462555,0.0224405731257,0.0223141279438202,2.87876630375743,-0.00051816789539372,0
0.32,0.000553046016755605,0.000317454193056587,-0.0274028070459825,-0.0158864294367092,-0.000450241638805784,-0.000451574498863622,0.0224605085106224,0.0223342345221668,2.87876275116151,-0.000505211513165067,0
0.33,0.000553020651701302,0.000317479659177575,-0.0274049181023425,-0.0158877084155976,-0.000450261199817856,-0.000451541833209534,0.0224623691988929,0.0223358631995224,2.87875929714097,-0.000491637839742974,0
0.34,0.000552953236298768,0.000317481518694365,-0.0274048730878104,-0.0158877899097946,-0.000450246994677167,-0.000451474739082865,0.0224625111458547,0.0223357231850486,2.87875594166841,-0.000478357629723264,0
0.35,0.000552883515557475,0.000317481187222096,-0.0274046210470088,-0.0158877754719908,-0.000450230031033511,-0.000451406031384947,0.0224625045202759,0.0223354103354994,2.8787526821926,-0.000465448335387377,0
0.36,0.000552815424618332,0.000317480665451013,-0.0274043575173974,-0.015887750850432,-0.000450213264551935,-0.0004513389890677,0.0224624829904891,0.0223350911332084,2.87874951599186,-0.000452907594662952,0
0.37,0.00055274919632211,0.000317480139917831,-0.0274040964601653,-0.0158877247745673,-0.000450196937099017,-0.000451273787299514,0.0224624586732289,0.0223347767319024,2.87874644039956,-0.000440725653783158,0
0.38,0.0005526848888782,0.000317479627652977,-0.027403843356442,-0.0158876986990257,-0.000450181081449141,-0.000451210476689386,0.0224624344553579,0.0223344719882558,2.87874345282302,-0.000428892321067262,0
0.39,0.000552622502286601,0.000317479129859635,-0.0274036006859964,-0.0158876726235755,-0.00045016569993383,-0.000451149055782034,0.0224624110373899,0.0223341792403212,2.87874055074344,-0.000417397627565695,0
0.4,0.00055256180371667,0.000317478646272633,-0.027403359264317,-0.0158876465486389,-0.000450150732934231,-0.000451089298703148,0.0224623860880511,0.0223338895639571,2.87873773171408,-0.000406231882988368,0
0.41,0.000552502758052866,0.000317478176500545,-0.0274031197471328,-0.0158876321910865,-0.00045013617204854,-0.000451031170567647,0.0224623711453033,0.0223336004944477,2.87873499335817,-0.000395385673720836,0
0.42,0.000552445551941813,0.000317477720150799,-0.0274028937417944,-0.0158876061147475,-0.000450122066464962,-0.000450974850666593,0.0224623466457109,0.0223333292782191,2.87873233336696,-0.000384849855480205,0
0.43,0.000552389975644768,0.000317477276840422,-0.0274026730591208,-0.0158875800384765,-0.000450108362352404,-0.000450920135548719,0.022462321827931,0.0223330649119757,2.87872974949803,-0.000374615545664304,0
0.44,0.000552335877633385,0.000317476846197626,-0.0274024522384725,-0.0158875671306475,-0.000450095020984147,-0.000450866878000494,0.0224623080378005,0.0223327986519281,2.87872723957323,-0.00036467411586725,0
0.45,0.000552283444549281,0.00031747642786082,-0.0274022427732278,-0.0158875410528426,-0.000450082091486858,-0.000450815257387437,0.022462282875531,0.0223325483930585,2.87872480147574,-0.000355017184606982,0
0.46,0.000552232524863861,0.000317476021478817,-0.0274020391117276,-0.0158875149749106,-0.000450069535095314,-0.000450765126546654,0.0224622576619937,0.0223323053061001,2.87872243315074,-0.000345636610257168,0
0.47,0.000552182967049405,0.000317475626710436,-0.0274018357250806,-0.0158875020616058,-0.000450057313025701,-0.000450716338340152,0.0224622437176768,0.0223320605862853,2.8787201326012,-0.000336524484183229,0
0.48,0.000552134806218685,0.000317475243224251,-0.0274016362572213,-0.0158874891457682,-0.000450045434975424,-0.000450668925882652,0.0224622293180012,0.0223318211302951,2.87871789788744,-0.000327673124077428,0
0.49,0.000552088193899174,0.000317474870698472,-0.0274014501954932,-0.0158874630645295,-0.000450033940876931,-0.000450623034727079,0.0224622042598112,0.0223315994777222,2.87871572712563,-0.000319075067478327,0
0.5,0.000552042710620481,0.000317474508819873,-0.02740125843197,-0.0158874501448201,-0.000450022722266563,-0.000450578259066524,0.0224621890411955,0.0223313702946628,2.87871361848567,-0.000310723065483229,0
0.51,4.69689509309805,-0.0130524572737649,5.15612384376849,0.657877178913443,-0.336933425124432,4.68481266959986,0.300729074529626,5.18921742640888,0.069017795004746,21.4915488725478,2200.53279021625
0.52,4.66100585465438,-0.00678073166635595,6.9515735708534,0.349349238672729,-1.45618149982684,4.42770335444984,-1.83016344740017,6.71542416808864,0.316282114609827,45.9767620484223,2200.53279021625
0.53,4.68639695742463,0.00527571834173335,5.6830381675089,-0.248232794730425,-3.17017517082491,3.45142487417126,-4.03170171111893,4.01296943002352,0.744074846056662,70.8473554995795,2200.53279021625
0.54,4.67441595043804,0.0263316340362201,6.2831065730818,-1.29602373722137,-4.5636627305564,1.0118499465786,-6.4151125595536,0.0586223882369448,1.3582402174979,97.0426814560469,2200.53279021625
0.55,4.70000470692131,0.00787472211233764,5.00480321230907,-0.369339361840815,-3.88125988798982,-2.65064670188467,-3.91941597885424,-3.13410994428183,2.17165242429561,124.735645885792,2200.53279021625
0.56,4.66277293036696,0.035475435707192,6.86747714727265,-1.74435265811062,0.144603459039131,-4.66066516136221,2.0082384964183,-6.79499718216816,-3.10296816660442,150.047737171333,2200.53279021625
0.57,4.67947189586501,0.0145008799493379,6.03366621394075,-0.686686720064679,4.40319878797482,-1.58414264928599,5.91417703710462,-1.37810616664598,-1.91305023056979,174.84860462424,2200.53279021625
0.58,4.6730108717648,0.00834765136427251,6.3578977523715,-0.378010268184164,2.37638957702323,4.02366410987929,2.8975984641021,5.67183204381939,-0.531695209500184,202.004665094333,2200.53279021625
0.59,4.6936210181002,0.00326956684064461,5.32855482263422,-0.113970641330106,-4.04710426264913,2.37719078722481,-4.65411218855962,2.59725346110163,1.04040402572717,226.740115937397,2200.53279021625
0.6,4.68079099564534,0.0361393712414679,5.97127778473349,-1.75891987871557,-1.60523212472209,-4.39708314963777,-0.347495778599806,-6.21523967406308,2.79927887018577,253.46999441167,2200.53279021625
0.61,4.66591981876026,0.0386553594253087,6.71605232369693,-1.87325575810774,4.66427418389459,0.129801114658365,6.6440539713739,2.11447222147499,-1.53469028805581,278.297036365506,2200.53279021625
0.62,4.65940774329933,0.00976781333718169,7.04294201146754,-0.427034819436956,-2.63744007444096,3.84110476064218,-4.35031364062727,5.55519235869275,0.603796645286157,304.679900601911,2200.53279021625
0.63,4.65353755524978,0.0295375148052306,7.33774106685643,-1.41461771008492,-1.00972814914368,-4.54276714214231,-0.163782552622084,-7.47106167190272,2.92922388787226,330.535499521319,2200.53279021625
0.64,4.61190155534301,0.0166773015846271,9.42082745856396,-0.757277104770241,3.44090929524215,3.0708398379726,6.49977163161522,6.86137211891994,-0.838552006679379,355.665436130132,2200.53279021625
0.65,4.67937491152954,0.0298364862096232,6.04853453794214,-1.41119419274744,-4.48595904403478,-1.33176996279538,-5.37707349959965,-3.10858805347802,1.8657599500447,381.423739305866,2200.53279021625
0.66,4.65146208142686,0.0587566643389612,7.44555409443459,-2.85656623469475,4.64930062685361,0.153478082131488,7.3075036667021,3.19321727846464,-1.52516610762857,407.33442929028,2200.53279021625
0.67,4.64965081448308,0.0376559019315648,7.537536358906,-1.79734693684435,-4.64849305063617,0.110376726535352,-7.56472669881231,-1.67923207017074,1.55515463680144,433.134784578775,2200.53279021625
0.68,4.63935682843834,0.0621137085372425,8.0537047348296,-3.01731984194714,4.61758585974344,0.453200532064003,7.66904581593416,3.89257180505733,-1.45957538892619,458.810555408913,2200.53279021625
0.69,4.65859843028345,0.0466411147048515,7.09308613301902,-2.23692779630376,-4.26133749489933,-1.88300756312486,-5.53431267847598,-4.96861147939373,1.99689019766094,484.41367758242,2200.53279021625
0.7,4.62427193737382,0.0446837879898543,8.81088132148975,-2.13248702372925,2.80421470021816,3.67726358951497,3.56672055555918,8.3341247318661,-0.641842442590529,509.940699165258,2200.53279021625
0.71,4.62902308797473,0.0691349938385805,8.57485098244525,-3.34736028929945,0.156199996205157,-4.62690349559634,3.7606560263349,-8.40180674195213,-3.09291238653271,535.40216302074,2200.53279021625
0.72,4.59049444095154,0.0611790483744741,10.502820828285,-2.9421401428638,-3.63449058956127,2.80479237070368,-10.1658537247943,3.95232235747456,0.926868139804281,560.997510141619,2200.53279021625
0.73,4.62728783661477,0.0838482336871431,8.66474088534238,-4.08658691947934,4.25563403762845,1.81890136812133,6.23057985983153,7.27721113276544,-1.1487675947557,586.941320019764,2200.53279021625
0.74,4.62634379223621,0.0696385521633118,8.71354620649506,-3.36488158869486,0.415611027725436,-4.60816383015436,4.25957749053589,-8.31290052874339,-3.0365943776955,612.416893849992,2200.53279021625
0.75,4.61579992550755,0.0641779702286396,9.24234224385508,-3.07668117471794,-4.61273514323406,0.180006284756012,-9.31665013950318,-2.84374530883258,1.54569543438124,637.708938943027,2200.53279021625
0.76,4.58220270303657,0.101113243477092,10.9238739191116,-4.93775053885391,-0.047027224764225,4.58307690747745,-5.28820905310915,10.7585894426367,0.0323236335390412,663.628664578474,2200.53279021625
0.77,4.61802682635302,0.0554983953707295,9.13437719653656,-2.63427623582564,4.45725791548166,1.20917480774325,8.06616130101879,5.03123244555345,-1.29387259018009,688.795885873025,2200.53279021625
0.78,4.59427427920133,0.0997489233906736,10.3237846853546,-4.86019882531551,2.91261776297174,-3.55442875397299,10.4067130146398,-4.67999861988079,-2.43340570879099,714.598389399854,2200.53279021625
0.79,4.60100470014704,0.0809917756950065,9.98900111714615,-3.89804850236882,-1.19201610971909,-4.44464863770755,1.36487294638846,-10.6354147679056,2.89716863234039,739.747704598977,2200.53279021625
0.8,4.57358568809519,0.0564059299141277,11.3617724278534,-2.67561888264436,-3.90350501203831,-2.38401264599633,-8.20001128216969,-8.30714295529953,2.13140522164263,765.412390788364,2200.53279021625
0.81,4.61456489227958,0.097602983376101,9.31456791934895,-4.73991402641478,-4.61191851464775,0.184236537289621,-9.40193013979348,-4.56417244946016,1.55201755612132,790.990845568853,2200.53279021625
0.82,4.56869712299461,0.0898401886079246,11.6097281226706,-4.32656653425392,-4.15180779359485,1.90881028554265,-12.3712826533988,0.675522440314268,1.15952239007651,816.210633706253,2200.53279021625
0.83,4.58815763733979,0.0688432132730952,10.6385702677379,-3.2730626863269,-3.70222785606118,2.7109848385592,-10.5706137382189,3.48629343108117,0.953750744202238,841.613746298039,2200.53279021625
0.84,4.57467699599461,0.089216184158559,11.3144999926266,-4.2938203712138,-3.62564799168101,2.79111192638661,-11.6508614648277,3.27295441318557,0.934227630567429,867.10241459029,2200.53279021625
0.85,4.55763466567883,0.0788921288231721,12.1685320878335,-3.77697143716817,-4.02780708057467,2.13425111818178,-12.559709985748,2.14298191399754,1.10084023107652,892.557265412877,2200.53279021625
0.86,4.58314907440182,0.124027870327353,10.8947874165854,-6.03170568455978,-4.53714041697914,0.659541649498026,-11.5258132133261,-4.71524083046201,1.45349750048049,917.937969305339,2200.53279021625
0.87,4.56131250696776,0.111481940264217,11.9886041245459,-5.39878165483583,-4.20810164862634,-1.76348533423271,-8.73275357681377,-9.82916513129763,1.99206862986914,943.272240333167,2200.53279021625
0.88,4.60678233115958,0.0970407901883514,9.71708556098853,-4.66516436756916,-1.98821698067892,-4.1567840453149,0.242715563459472,-10.7762052472688,2.71651159008025,968.579491974105,2200.53279021625
0.89,4.57823488168448,0.124591435594136,11.1464664468014,-6.03448647489192,-3.02204672205541,3.44136473908391,-12.0043909786832,4.06857941992451,0.747820445151912,993.85936734456,2200.53279021625
0.9,4.50752155273918,0.118000387006264,14.6842169461327,-5.70036122437714,-4.37252808795803,-1.10121422064916,-12.6045046355755,-9.44705288972331,1.84368648046919,1019.20135847632,2200.53279021625
0.91,4.53984423619163,0.0810307771247869,13.0701554250239,-3.87199981256806,-0.155634473543163,-4.53789924815093,3.65666218346604,-13.1320282918831,3.12515640662546,1044.70156833157,2200.53279021625
0.92,4.5551697988366,0.124023381024464,12.3060016205046,-6.00590757296174,4.50738126164571,-0.669677427900114,12.9377162402415,4.48598931628378,-1.6910706518902,1069.88362526788,2200.53279021625
0.93,4.544542945299,0.0838415123905694,12.839517958436,-3.97507992785622,0.261269964714153,4.53780100780159,-3.47058466903076,12.9849730031654,-0.0390661017267382,1095.01352475056,2200.53279021625
0.94,4.54844015083359,0.101035753075289,12.6468187457564,-4.85875408542327,-4.45414076105472,-0.926901348486184,-11.2260041764605,-7.58461244103639,1.79817655110227,1120.48988455059,2200.53279021625
0.95,4.5703081197975,0.137959567036134,11.5556073728866,-6.6760369074664,2.76254657806739,-3.64349908138206,12.4519796552635,-4.80101376909802,-2.46267933467879,1145.52399259181,2200.53279021625
0.96,4.54047404873292,0.107919013500092,13.0494978937212,-5.19579691457567,1.25081521299811,4.36612097904129,-1.73268323891661,13.9385619648989,-0.25524556699473,1170.97665655245,2200.53279021625
0.97,4.51295089164162,0.112383071307009,14.4278991517538,-5.38699521724257,-3.86868887071484,-2.32649997349934,-9.28513501641452,-12.2869955290431,2.13711721927493,1195.98870329521,2200.53279021625
0.98,4.5296751656387,0.109111082411915,13.5939947147016,-5.23589153581343,4.52986671684443,-0.100845734337817,13.5844183057063,5.26068738604837,-1.56897165488807,1221.2806670372,2200.53279021625
