t,iq,id,vq,vd,ia,ib,va,vb,theta_e,omega,r
0,0,0,0,0,0,0,0,0,0,0,0
0.01,0.000695896241282561,0.000384798379454474,-0.0338410746266203,-0.0192531240846329,-0.000406847460273918,-0.000683239720398813,0.0203250832150613,0.0332083138867903,3.10962016775433,-0.00195652528064535,0
0.02,0.000825794983710231,0.000453104423739001,-0.0403122397739184,-0.0226707731119344,-0.000479283212169231,-0.000810881357823435,0.0239484418704562,0.0395665611477682,3.10960519760273,-0.00209740157006542,0
0.03,0.000871976015638911,0.000479290124506965,-0.0426488888559993,-0.0239809572446856,-0.000506945126240768,-0.000856193806494852,0.025333304799519,0.0418597384004903,3.10959042658943,-0.00198589547917023,0
0.04,0.000850559745876577,0.000469784685564831,-0.0417130068596669,-0.0235053645968812,-0.000496770101797058,-0.000835086221930056,0.0248285398720113,0.0409392319655716,3.1095774952819,-0.0016993172793637,0
0.05,0.000867730554546299,0.000481609228571696,-0.0426275943317341,-0.0240969980182359,-0.000509148120162478,-0.000851863813102579,0.0254496320775837,0.041834116927663,3.10956587082307,-0.00155298516492464,0
0.06,0.000867004090342145,0.000483255439520612,-0.0426699829353382,-0.0241793618097745,-0.000510779048468789,-0.000851079711978607,0.0255337451105969,0.0418735816697963,3.10955550297719,-0.00137345991516927,0
0.07,0.00087974672199946,0.000492635460660027,-0.0433508829016714,-0.0246486948741695,-0.000520570130483102,-0.000863510701275507,0.0260250273408645,0.0425388664548268,3.10954657848775,-0.00125977183516851,0
0.08,0.00086323354265917,0.00048478816461837,-0.0426154721416247,-0.0242560530405939,-0.000512204657414406,-0.000847253269482591,0.0256093639627562,0.0418162056191709,3.10953845113906,-0.00107032832358508,0
0.09,0.000858287869466076,0.000483691268247755,-0.0424291568020849,-0.0242011638932312,-0.000510955702112279,-0.000842341724201458,0.0255488224586011,0.041631566769722,3.10953147053635,-0.000935838667999125,0
0.1,0.000855477467878117,0.00048353631671079,-0.0423390734663497,-0.0241934059849879,-0.000510715847342696,-0.000839534627575554,0.0255384335321302,0.0415416230769619,3.10952538801212,-0.000823231562278251,0
0.11,0.000853261723586279,0.000483513005990291,-0.0422719182588306,-0.0241922401584832,-0.000510625957507188,-0.000837318056307794,0.0255353355889438,0.0414744040768159,3.10952007392943,-0.000725583382836729,0
0.12,0.00085136327220016,0.000483508270196597,-0.0422150620819942,-0.0241920110057768,-0.000510564226858903,-0.000835418361572117,0.0255334757259075,0.0414174658863232,3.109515428952,-0.000640347122457553,0
0.13,0.000886105304385767,0.000503769542238046,-0.0439227303827749,-0.0252057736339064,-0.000531933134797856,-0.000869490369268947,0.0266016741292786,0.0430916256630142,3.10951103323466,-0.000671323605267599,0
0.14,0.000907443604027609,0.000517023756989698,-0.0450820599361296,-0.0258689348372329,-0.000545868522171232,-0.000890390372974098,0.0273018568764128,0.0442289783829296,3.10950705402729,-0.000668469537983808,0
0.15,0.000855987940120438,0.000488179128683263,-0.0425271206702461,-0.0244257210803068,-0.000515391032764167,-0.000839884693669236,0.0257775720326095,0.0417215606479222,3.10950348786173,-0.000450267143603811,0
0.16,0.00084693839282704,0.000484154511492587,-0.042110595225644,-0.0242243418113781,-0.000511080344701056,-0.000830967576685953,0.0255630421389005,0.0413116429479307,3.1095008406,-0.000377345031592035,0
0.17,0.000844756267075869,0.000483592366464741,-0.0420220950467494,-0.0241962183732651,-0.000510450328643775,-0.000828803468654896,0.0255321858475487,0.0412240335427164,3.10949860137932,-0.000332383696935116,0
0.18,0.000843762071384544,0.000483513323319987,-0.0419886704456223,-0.0241922598327286,-0.000510341034450267,-0.000827811328438616,0.0255272369368281,0.0411907035139771,3.10949665584361,-0.000296074434148117,0
0.19,0.000843038314570374,0.000483501750869474,-0.0419664404543516,-0.0241916934479133,-0.000510307647348124,-0.000827087448813925,0.0255260274114825,0.0411684597826381,3.10949495699499,-0.000264811034315834,0
0.2,0.000842429225315707,0.00048349965902964,-0.0419481405559158,-0.0241915766405535,-0.000510287236736115,-0.000826477982750914,0.0255253844803316,0.0411501351587803,3.10949347219433,-0.000237557238815289,0
0.21,0.000841900231981387,0.00048349894964596,-0.0419323058725457,-0.0241915466437618,-0.000510270622412032,-0.000825948622386585,0.0255248996957023,0.0411342764653807,3.10949217425533,-0.000213744572826518,0
0.22,0.000841438468505869,0.000483498485528478,-0.0419184927042694,-0.0241915251914936,-0.000510256274871128,-0.000825486532745674,0.0255244815777503,0.0411204421410525,3.10949103962688,-0.000192929880097206,0
0.23,0.000841034912692768,0.000483498101474387,-0.0419064194615774,-0.0241915050321262,-0.000510243756823445,-0.000825082691080212,0.0255241146989848,0.0411083504490527,3.10949004775501,-0.000174734337828597,0
0.24,0.000840682172167348,0.000483497768691456,-0.0418958639181342,-0.0241914847301058,-0.000510232817371362,-0.000824729700572806,0.0255237912401315,0.041097778864848,3.10948918067781,-0.000158828153031233,0
0.25,0.000840373844086915,0.000483497478134734,-0.0418866346835399,-0.0241914643022304,-0.000510223255160696,-0.000824421153950631,0.0255235057276582,0.0410885356951135,3.10948842269363,-0.000144923244298626,0
0.26,0.000847343659733087,0.000487592977871845,-0.0422270146134937,-0.0243963907387769,-0.000514540856039647,-0.000831255614853688,0.0257392767125082,0.0414221471988624,3.10948783394147,-0.000156150611062353,0
0.27,0.000829342619136224,0.000477233251813974,-0.0413650543509866,-0.0238780447649852,-0.000503609288320145,-0.000813595993887844,0.0251935614794702,0.0405772498235017,3.10948704645078,-8.76829474788086e-05,0
0.28,0.00082873055234485,0.000477028596434457,-0.0412422398291379,-0.0238678135017121,-0.000503385498243534,-0.000812990559824736,0.0251794133956125,0.0404548144048331,3.10948654553992,-7.72472007082415e-05,0
0.29,0.000837743667889173,0.00048259432908738,-0.041776171633042,-0.0241462772925978,-0.000509237955287808,-0.000821820202021096,0.0254748864884266,0.0409795239333766,3.10948622140527,-9.92417333022577e-05,0
0.3,0.000827551230230422,0.000477388613235108,-0.0412830903052406,-0.0238858294609515,-0.000503707550080496,-0.00081180024063456,0.0251987352612269,0.0404950630993817,3.10948645005826,-7.20110437122582e-05,0
0.31,0.000837532202732206,0.000482644528009723,-0.041766490112688,-0.0241487910017553,-0.000509281399880785,-0.000821607197367853,0.0254770910967222,0.0409697648568922,3.10948614866145,-9.73516931087241e-05,0
0.32,0.000838997104537424,0.000483377604224305,-0.041839762751772,-0.0241854766925329,-0.000510061418136332,-0.000823047628887031,0.0255161247178255,0.0410418129394158,3.1094857901778,-9.56972173024666e-05,0
0.33,0.000839120220408818,0.000483479761211416,-0.0418481252943027,-0.0241905937602926,-0.000510167745092625,-0.000823167234325503,0.0255215210833081,0.0410499985227457,3.10948546164971,-9.04552148784712e-05,0
0.34,0.000839043443334226,0.000483493918559824,-0.0418465607711726,-0.0241912885134194,-0.000510179668845762,-0.000823089894594094,0.0255221771425295,0.0410484051117736,3.10948517204095,-8.52675728965738e-05,0
0.35,0.000838946818747201,0.000483495811731304,-0.0418437699222933,-0.0241913878535758,-0.000510178667877202,-0.000822993129674121,0.0255221972471115,0.0410456060409818,3.10948491848497,-8.06361375967149e-05,0
0.36,0.000838857586420403,0.000483496004334544,-0.0418410975113758,-0.0241914013218277,-0.000510176178276274,-0.000822903824041394,0.0255221340179674,0.0410429289164296,3.1094846967692,-7.6572031976802e-05,0
0.37,0.000838778831459177,0.000483495968699757,-0.0418387219553718,-0.0241914045705546,-0.000510173773921628,-0.000822825011928723,0.025522068958767,0.0410405495335906,3.10948450293915,-7.30168071715622e-05,0
0.38,0.000838709855381143,0.000483495909086942,-0.0418366356634919,-0.0241914048769614,-0.000510171639437091,-0.000822755986870553,0.0255220092432858,0.0410384599826367,3.10948433349483,-6.99084989849191e-05,0
0.39,0.000838649782973175,0.000483495853001728,-0.0418348198620455,-0.0241913837046503,-0.000510169776750563,-0.000822695871656777,0.0255219358681559,0.0410366420163389,3.10948418536904,-6.71912064179535e-05,0
0.4,0.000838597046832502,0.000483495803417374,-0.0418332180970027,-0.0241913839590439,-0.000510168140729093,-0.000822643098228768,0.0255218900146119,0.0410350377639321,3.10948405588021,-6.48157854713056e-05,0
0.41,0.000838551062780481,0.000483495759992838,-0.0418318203753786,-0.0241913841911078,-0.000510166714212855,-0.00082259708152326,0.0255218500202773,0.0410336378662945,3.10948394268305,-6.27392312440969e-05,0
0.42,0.000838510783079217,0.000483495722019983,-0.0418305911333667,-0.0241913844043074,-0.000510165464548482,-0.000822556773319495,0.0255218148311274,0.0410324067255323,3.10948384372822,-6.09239425586761e-05,0
0.43,0.000838475509236781,0.000483495688822188,-0.0418295100936636,-0.0241913846009635,-0.000510164370113276,-0.00082252147459288,0.0255217838721503,0.0410313240289768,3.10948375722352,-5.93370479832589e-05,0
0.44,0.000838444775591885,0.000483495659800573,-0.0418285668595133,-0.0241913847826204,-0.000510163416650389,-0.000822490719142119,0.0255217568754711,0.0410303793451988,3.10948368160245,-5.79498116941981e-05,0
0.45,0.000838417767237281,0.000483495634429917,-0.0418277319086383,-0.0241913849519572,-0.000510162578601433,-0.000822463691798411,0.0255217329522284,0.041029543132112,3.10948361549605,-5.67371132930158e-05,0
0.46,0.000838394251342323,0.000483495612250554,-0.0418270033813587,-0.024191385109737,-0.000510161849018648,-0.000822440159254925,0.0255217120926591,0.0410288135004075,3.10948355770683,-5.56769929490512e-05,0
0.47,0.000838373762245726,0.000483495592861646,-0.0418263666081801,-0.0241913852575101,-0.000510161213413698,-0.000822419655569436,0.0255216938703342,0.0410281757613973,3.10948350718847,-5.47502537521971e-05,0
0.48,0.000838355717870882,0.000483495575911943,-0.0418257999485099,-0.0241913853972022,-0.00051016065350188,-0.000822401598509973,0.025521677629992,0.0410276082622361,3.10948346302627,-5.394011408778e-05,0
0.49,0.00083834000180247,0.000483495561094526,-0.0418253041672162,-0.0241913855291917,-0.000510160165897528,-0.000822385871322996,0.0255216634294017,0.0410271117469714,3.10948342442036,-5.32319037545004e-05,0
0.5,0.000838326264792601,0.000483495548141307,-0.0418248675160451,-0.0241913841994475,-0.000510159739695817,-0.000822372124592677,0.0255216494668089,0.0410266745022471,3.10948339067184,-5.26127983106576e-05,0
0.51,4.02859150474911,0.0181031822181525,5.47717837862598,-0.899898053002192,-0.273296398002458,4.01935147955264,-1.2936571541249,5.39775422418125,0.0723842943900869,22.1509020611406,445.959817544405
0.52,3.85258984447529,0.0402891629087202,4.97702413685437,-2.00333056963589,-1.18544210810218,3.66589671632198,-3.48038045879347,4.08302026594495,0.3232144842959,46.1368134810723,445.959817544405
0.53,3.65091450507881,0.0383819286698446,5.87118437027611,-1.90104912872401,-2.45434976420449,2.70311248948182,-5.38613274222856,3.01236913121387,0.747714539311822,69.7097856634537,445.959817544405
0.54,3.4865136276838,0.0530524130001828,4.42555388443112,-2.63740579911329,-3.38828929410566,0.823460681513676,-4.89955797655387,-1.59240954769404,1.34760231670141,94.0212479116074,445.959817544405
0.55,3.25667197209461,0.0274432226678256,7.26841183031925,-1.35042433152262,-2.79553302037725,-1.67082632139832,-5.50480327648253,-4.934632437935,2.11793269809945,115.546154801709,445.959817544405
0.56,3.12365228169342,-0.0109935050649482,6.19461945720075,0.583134732744314,-0.314623210114355,-3.10778645819488,-1.225581626024,-6.10010704938981,3.03717990026517,135.303473597677,445.959817544405
0.57,2.91490922735609,0.0200888387946839,8.42617800599699,-0.981291154075475,2.38197838656171,-1.68026138773784,7.47887094366353,-4.00373544653484,-2.17824949823457,155.699564415357,445.959817544405
0.58,2.86557924084533,0.0136083011305428,3.87576710824245,-0.641869129158423,2.37432738171331,1.60446223260935,2.83905370292483,2.71538960891609,-0.971779711924707,173.432459085152,445.959817544405
0.59,2.67063559778209,0.0233152835707157,6.30569061845423,-1.13799172570136,-0.937359488885948,2.50083891668063,-3.3266668127652,5.47631694300769,0.367341131753412,191.532185942899,445.959817544405
0.6,2.54586910222435,-0.00608476273496761,6.04202274431925,0.338362694032882,-2.45884971865588,-0.659958007045953,-5.92614392726388,-1.22529437644092,1.83062726808611,207.991335381294,445.959817544405
0.61,2.39421690469654,0.00320365049981186,7.25591638957448,-0.119522045689328,0.641788562752036,-2.30659755718935,2.0694602116829,-6.95556917902214,-2.86887831940634,223.608978645675,445.959817544405
0.62,2.27158053726669,0.0462265150680058,7.19867931679033,-2.28207241277341,2.11210585849761,0.837391109628137,5.7524776731823,4.89263109407051,-1.17298778522186,238.863097728352,445.959817544405
0.63,2.18835617872329,0.00191025944080725,5.59536089441083,-0.070998242330079,-1.28681053104921,1.77003533050287,-3.35155622228322,4.48109084687987,0.629488899415409,253.186069185906,445.959817544405
0.64,2.02315984944882,0.0517783998926578,8.46695952261488,-2.56075977864178,-1.19769388816898,-1.63137553290464,-2.7321827127184,-8.41320817677959,2.53389242424342,266.538758502513,445.959817544405
0.65,1.93459238067317,0.00210696861750526,7.71611967942757,-0.059314186224356,1.90375921134089,-0.344024685030243,7.60511115119607,-1.30549050471082,-1.74848594348283,279.144362323771,445.959817544405
0.66,1.77747385351925,0.00901737075248721,10.5784932015509,-0.407393703454044,-0.590300384057287,1.67661565944664,-3.9472356727688,9.82292311832349,0.343598413776236,291.263991200665,445.959817544405
0.67,1.7959335612813,-0.0285306211517902,4.9068560148769,1.47177758876715,-1.01944537993318,-1.47882469218387,-4.04713150066514,-3.1407151793588,2.52215720309671,302.794003954402,445.959817544405
0.68,1.68482965575954,0.0207752076507393,5.95718199977686,-0.997156151783466,1.682127762761,0.097615408252986,5.87243086384117,1.41311482863592,-1.5005003030539,313.678929784375,445.959817544405
0.69,1.54769089424741,0.0726361673784202,8.5572529324751,-3.59360384389727,-1.10123343821249,1.08991193750251,-8.76296549201802,3.05794083051461,0.837462598161003,323.938083298802,445.959817544405
0.7,1.46317765314606,0.0197155972547781,8.7254724453076,-0.944710509374432,0.136680242068607,-1.45691319606529,1.87128013766924,-8.57465206213694,-3.03457779495199,333.686323047141,445.959817544405
0.71,1.4405103944808,-0.00959128449449231,5.98952443684638,0.524145809067669,0.749412882989872,1.23026115932931,3.59572590822288,4.81870179630135,-0.553778030812435,342.959218675863,445.959817544405
0.72,1.2712639547781,0.00957246936453449,10.7583008199402,-0.437159324168265,-1.16349269583928,-0.512336238828008,-9.63387953519188,-4.80837913526422,1.99312054181464,351.75649596827,445.959817544405
0.73,1.2289722547062,0.0655479738273372,9.36072922325561,-3.26747725418209,1.21436762384118,-0.199951528818453,9.66264213330746,2.2210371904451,-1.68070181977373,360.086827746913,445.959817544405
0.74,1.16064992547103,0.00722029663222987,9.39985413992222,-0.35158260262131,-0.96490932882474,0.645066174377756,-8.04036590014532,4.88194473238475,0.987728997534636,367.981797481059,445.959817544405
0.75,1.11638814035526,0.0501253977421973,8.43877926123038,-2.49225809598493,0.560637432384767,-0.966706110890846,6.65444808140694,-5.75696678543778,-2.57117971891358,375.355596333779,445.959817544405
0.76,1.01205761851801,0.02694761167458,10.6648402719666,-1.32221948725232,-0.18047692272647,0.996200219503335,-3.47410578877695,10.1694479381831,0.205841717388782,382.296422568248,445.959817544405
0.77,0.983018659769838,-0.0546143228548976,9.29480486704072,2.76994919362475,-0.0526356581307017,-0.983126592667361,-3.76453823207335,-8.93835935453953,3.03260396575059,388.853836196988,445.959817544405
0.78,0.910418414252786,0.0494408304108291,10.2018473218023,-2.46264772615442,0.380854447944608,0.828405682140748,1.46255348493275,10.3924616864441,-0.376675012258453,395.164071001446,445.959817544405
0.79,0.904236553195525,-0.00310239276143226,7.88970302684381,0.161688550291395,-0.507826867400161,-0.748174606440441,-4.58673825430708,-6.42147874134609,2.54183724420196,401.098715136836,445.959817544405
0.8,0.86493362772325,-0.0207256139039692,7.39542748455907,1.06028687005873,0.594035192971931,0.629016630105277,5.95825916249983,4.50729449655527,-0.78076169822269,406.640465555768,445.959817544405
0.81,0.72850367324387,0.0489382790959347,11.8953872363802,-2.41540391629579,-0.610076938867717,-0.401146713500782,-8.01953905023694,-9.11160836537758,2.21952573463891,411.89447175169,445.959817544405
0.82,0.75825627926727,-0.00220293152976292,8.1626647221419,0.108844948209357,0.647235776070184,0.395023148853831,7.03625303663255,4.13909238762918,-1.02572589095986,416.924504543379,445.959817544405
0.83,0.712269276271492,-0.00582258983389011,8.32966484652009,0.305924155307847,-0.630135481985268,-0.33210043483242,-7.5408189892332,-3.55147223215576,2.04765901802623,421.610650908254,445.959817544405
0.84,0.680948986338332,0.0112432185900255,7.90587781068051,-0.529851736478031,0.620305577920352,0.281138616985221,6.9192977221068,3.86095400813153,-1.12875329362041,426.003017202852,445.959817544405
0.85,0.595411635423372,0.0331219410688977,10.2415931533343,-1.66322379304697,-0.553063391330453,-0.223008887149738,-8.5643799563713,-5.85729798346362,2.00965099429986,430.242802760173,445.959817544405
0.86,0.556957937898984,-0.0187568551226766,10.3412984164333,0.953510203454284,0.4893123313269,0.266697218984779,9.66946380832877,3.78854910292018,-1.10542993366638,434.138703769015,445.959817544405
0.87,0.52937562902847,-0.00585688411881494,10.0016980358858,0.322180862401381,-0.456529647825367,-0.268055106941308,-8.84040649285283,-4.68881404517871,2.0906564726257,437.848435625367,445.959817544405
0.88,0.532766317446324,-0.00477489053998242,8.16857433672592,0.236630759120668,0.436811804081453,0.30505441547385,6.87248330395406,4.42160310833661,-0.970130206123763,441.351440328075,445.959817544405
0.89,0.474269545714937,0.052315495799914,9.53944374395126,-2.59402665146171,-0.394773702609404,-0.267996710467695,-5.57404113428159,-8.16455918257938,2.27705748847761,444.603348750581,445.959817544405
0.9,0.424831492197748,0.0455536614726704,10.5295148457201,-2.29176427275461,0.318872051225742,0.284389781433194,5.36717686843985,9.34431799710384,-0.735676287770099,447.705594786507,445.959817544405
0.91,0.458390841533107,0.0143858374733754,7.42748176174488,-0.707571632218803,-0.265073993561661,-0.374252446696762,-3.51078704486029,-6.58350341850103,2.55670699966638,450.588949929001,445.959817544405
0.92,0.381557006256007,0.00217061714595297,9.92433930886777,-0.0937193158453678,0.155274731180328,0.348540124603636,3.90118729089764,9.12589895566674,-0.413416900802875,453.324120191069,445.959817544405
0.93,0.351886457144568,-0.029686507338646,10.1214910186949,1.48434338031051,-0.0487493049756079,-0.349755446997068,-3.68271358370476,-9.54387114186846,2.91893916432433,455.867767366033,445.959817544405
0.94,0.346558742279145,0.020587718877209,9.19318992781082,-1.00514166308708,-0.0143268677698593,-0.346873978382027,1.1709708377211,-9.17354228795412,-3.12353558531679,458.23752090683,445.959817544405
0.95,0.304308697810377,-0.0370365172728647,10.1472017034646,1.84360560147383,-0.109362856737353,0.286383052468186,-0.65907032029971,10.2922402973056,0.243673990473423,460.479477780187,445.959817544405
0.96,0.321956400584008,0.0797533116017682,8.19667576443307,-3.96832956583948,0.0795433584596315,-0.322008336403612,7.33204638882208,-5.40131732844141,-2.65659156662463,462.517092579068,445.959817544405
0.97,0.32232960329978,0.0286909136907202,7.13198045043148,-1.44891737720074,-0.196417671870441,0.257176281699533,-5.88335450707575,4.28376545288868,0.741018572320339,464.504000628037,445.959817544405
