t,iq,id,vq,vd,ia,ib,va,vb,theta_e,omega,r
0,0,0,0,0,0,0,0,0,0,0,0
0.01,0.000692192276176607,0.000391945335982485,-0.0341588965047541,-0.0196206006116652,0.000630251211678322,0.000485319177217408,-0.0313588031106143,-0.0238416368199566,-0.399367748426508,-0.00149867756337408,0
0.02,0.000768823122764228,0.000435322610314597,-0.0380096604089084,-0.0217920414108305,0.00070001781048434,0.00053904529879479,-0.0348569768478217,-0.0265446514063061,-0.399378852308649,-0.00157081133429044,0
0.03,0.000798632222481631,0.000452452120945807,-0.0394966301501626,-0.0226495309442576,0.000727396649649074,0.000559839675812291,-0.0362254932152956,-0.027580766605049,-0.399389964332715,-0.00153619601507434,0
0.04,0.000780349877926413,0.000442728120217434,-0.0386204112021923,-0.0221627640441311,0.000711334266567177,0.000546770227443271,-0.0354365849955214,-0.0269624315549884,-0.399400077388028,-0.00140123205789661,0
0.05,0.000797484604619485,0.000452767163239892,-0.0394822641529501,-0.0226653003208718,0.000727251741547991,0.000558645418068393,-0.0362349829458169,-0.0275606790953161,-0.399409838009312,-0.00135020965568658,0
0.06,0.00079750291954729,0.000453200886624102,-0.0395025801857055,-0.0226870255791592,0.000727663585825711,0.000558486934660598,-0.0362631521991383,-0.0275706141306219,-0.399419035601063,-0.001265386756527,0
0.07,0.000817939253974352,0.000465275421098952,-0.0405237914950984,-0.0232914698535031,0.000746739901715792,0.000572612748597528,-0.0372173906218745,-0.0282760690403327,-0.399427517280677,-0.00123368747832865,0
0.08,0.00079704810066212,0.000453739356152899,-0.0395152715733907,-0.0227139718349721,0.000727992063811257,0.000557846424313149,-0.0362933707898974,-0.0275712248684339,-0.399435642820979,-0.00111111753415773,0
0.09,0.000795440603459531,0.000453234182944234,-0.0394521432063328,-0.022688680642675,0.000726905669185805,0.000556556489789426,-0.0362457259386238,-0.0275226303986458,-0.39944312606421,-0.00103840842441253,0
0.1,0.00079477412607064,0.000453209563103156,-0.0394341489025053,-0.0226874552590648,0.00072662767069101,0.000555946982855074,-0.0362377908998263,-0.0275062763110075,-0.399450104844523,-0.0009724977713329,0
0.11,0.00079419111933673,0.000453206044309313,-0.0394192670038599,-0.022687276109783,0.000726401307782593,0.000555406511200186,-0.0362320171513896,-0.0274923997050919,-0.399456617280237,-0.000911079936726949,0
0.12,0.000793648758038982,0.00045320360707294,-0.0394054611079085,-0.0226871625336445,0.000726191500871595,0.000554903383178191,-0.0362267101640514,-0.0274795047197853,-0.399462694725641,-0.000853768551692871,0
0.13,0.000831147846774682,0.000474727776231353,-0.0412591132241257,-0.0237646382906942,0.000760608822349831,0.00058107437053045,-0.0379404570827838,-0.028767936552318,-0.399468675261913,-0.00088402095623793,0
0.14,0.000868051617969514,0.000496445485156459,-0.0431519382985185,-0.0248518341650717,0.000794972973724856,0.000606621547786412,-0.0396783977724658,-0.030088672129181,-0.399474251623175,-0.000916647058114179,0
0.15,0.000795662560752099,0.000455080243500628,-0.0395398292224518,-0.0227811006790183,0.000728712962173263,0.000556016508179251,-0.0363659753867383,-0.0275661473053338,-0.399479523695778,-0.000703077595165982,0
0.16,0.000791903901079221,0.000453277177626217,-0.0393649189843052,-0.0226908365174153,0.000725592499852497,0.000553251762273814,-0.0362149141681567,-0.0274399508070627,-0.399484088524588,-0.000652394891783777,0
0.17,0.000791369018329507,0.000453197061827698,-0.0393476035132047,-0.0226868354977352,0.000725312998967331,0.000552787077951431,-0.0362046098254354,-0.0274254012645511,-0.399488331909691,-0.000612023330017382,0
0.18,0.000791008530430572,0.000453192082663223,-0.0393382495223635,-0.0226865896087248,0.000725170388445228,0.000552454040373279,-0.0362008536392014,-0.0274167361177721,-0.399492291098258,-0.000574671030248222,0
0.19,0.00079067854355325,0.000453190474780063,-0.0393298339780269,-0.0226865066553198,0.00072504259858631,0.000552147983698283,-0.0361976052542352,-0.0274088817506222,-0.39949598580784,-0.000539828614946229,0
0.2,0.000790370908424451,0.000453189106375818,-0.0393219941430908,-0.0226864309617138,0.000724923584787922,0.000551862605400685,-0.0361945806641694,-0.027401563891771,-0.399499433737413,-0.000507314103631635,0
0.21,0.000790083778854234,0.000453187834910022,-0.0393146742548361,-0.0226863755442255,0.000724812507156061,0.000551596247983218,-0.0361917706333491,-0.0273947255054793,-0.399502651372091,-0.000476971342220488,0
0.22,0.000789816074175683,0.000453186648424739,-0.0393078539991535,-0.0226862998116944,0.000724708943181678,0.000551347909227224,-0.0361891302961435,-0.0273883631050415,-0.3995056540935,-0.000448655243593636,0
0.23,0.000789566081087151,0.000453185541029134,-0.0393014792293784,-0.0226862428870227,0.000724612229254623,0.000551116002503861,-0.0361866750348145,-0.0273824110675262,-0.399508456256284,-0.000422230440997349,0
0.24,0.000789332635439264,0.000453184507451669,-0.0392955211353437,-0.0226862062082629,0.000724521915357897,0.000550899447567185,-0.0361843953416438,-0.0273768418043735,-0.399511071256289,-0.000397570610495866,0
0.25,0.000789115005807397,0.000453183542780783,-0.0392899705476044,-0.022686149222606,0.000724437719589501,0.000550697563344631,-0.0361822506389479,-0.0273716621870562,-0.399513511594383,-0.000374557865664009,0
0.26,0.000797059166727153,0.0004577819030901,-0.0396847050752253,-0.0229163483950812,0.000731765247906227,0.000556225860615376,-0.0365479235750205,-0.0276456890495935,-0.399515750619632,-0.000371998189607561,0
0.27,0.000771018859638124,0.000442993508377441,-0.0384109877501496,-0.0221760370024808,0.000708013706447201,0.00053798691607243,-0.0353705318976162,-0.026760158264802,-0.399518012116689,-0.000291803356601512,0
0.28,0.00076856227929222,0.000441558217343957,-0.0382295481688426,-0.0221041894974297,0.000705736968327308,0.000536280680232848,-0.0352338201796735,-0.0266208839462286,-0.399520004483949,-0.00026782313829769,0
0.29,0.000787449262127152,0.000452674140830594,-0.0392255054997117,-0.0226606435896603,0.000723325033779685,0.000549355179923635,-0.0361339036600753,-0.0273218970038672,-0.399521749528891,-0.000294752280799225,0
0.3,0.000782705463940229,0.000450170111326355,-0.0389952481767204,-0.0225352993165,0.00071917365602221,0.000545958079798366,-0.035928899667413,-0.0271584842054417,-0.399523003130045,-0.0002723777555699,0
0.31,0.000787864845975035,0.000453048085777729,-0.0392519444667241,-0.0226793637475038,0.000723832759440528,0.000549590502020223,-0.0361615121723998,-0.0273388683345848,-0.399524619044244,-0.000269222362724708,0
0.32,0.000787974968851937,0.000453172835967416,-0.0392605696048438,-0.022685620423837,0.000723991363946526,0.0005496423161719,-0.0361706730714642,-0.0273443249920061,-0.399526153214529,-0.000255317985365689,0
0.33,0.00078785875388197,0.000453177728111692,-0.0392578686841969,-0.0226858555280348,0.000723951452733678,0.000549532313344468,-0.0361698782294913,-0.0273416935014693,-0.399527586134327,-0.00024183157871753,0
0.34,0.000787739877390886,0.00045317743676931,-0.0392548347261586,-0.0226858489723603,0.000723905678106213,0.000549421944259777,-0.0361687285908953,-0.0273388526659938,-0.399528923402934,-0.00022922215899595,0
0.35,0.000787628451460482,0.00045317695335515,-0.0392519777546435,-0.0226858307495509,0.000723862575337787,0.000549318578447552,-0.0361676346001323,-0.0273361826500997,-0.399530171354964,-0.00021745384181493,0
0.36,0.000787524808888267,0.000453176492989567,-0.0392493270666762,-0.0226857937234917,0.000723822475389079,0.000549222434478464,-0.0361666012435882,-0.0273337130031583,-0.399531335953427,-0.00020647150548366,0
0.37,0.0007874278184572,0.000453176062946501,-0.0392468383028402,-0.0226857754509488,0.000723784948038073,0.000549132463346941,-0.03616564601838,-0.0273313880484213,-0.399532422765808,-0.000196222701845109,0
0.38,0.000787337289073749,0.000453175661586931,-0.0392445133002279,-0.022685755699546,0.00072374992033506,0.000549048485869642,-0.0361647511431787,-0.0273292171600872,-0.399533436987435,-0.000186658438887903,0
0.39,0.000787252813289374,0.000453175287015467,-0.0392423423481816,-0.0226857373810454,0.000723717234738805,0.000548970123900747,-0.036163915656509,-0.0273271900839174,-0.399534383466828,-0.000177732994701974,0
0.4,0.000787174041855574,0.000453174937445328,-0.0392403178483653,-0.0226857190412416,0.000723686756264323,0.000548897053105079,-0.0361631353874698,-0.0273253002217069,-0.399535266728699,-0.000169403701141351,0
0.41,0.000787100509108473,0.000453174611209259,-0.0392384258335994,-0.0226856992267189,0.000723658304581713,0.000548828842075015,-0.0361624036800926,-0.0273235351186859,-0.399536090995398,-0.000161630739958383,0
0.42,0.000787031707653546,0.000453174306750474,-0.0392366495779145,-0.022685699613066,0.000723631683070861,0.000548765021121847,-0.0361617341048345,-0.0273218707918321,-0.399536860207312,-0.000154376952454938,0
0.43,0.000786967779172863,0.000453174022615928,-0.0392350042274326,-0.0226856812158701,0.000723606947544874,0.000548705718664349,-0.0361610967403575,-0.0273203362257722,-0.399537578041974,-0.000147607661846653,0
0.44,0.000786908041643576,0.000453173757449929,-0.0392334631956005,-0.0226856628029446,0.000723583833354027,0.000548650304431982,-0.0361604986286003,-0.0273188995030992,-0.399538247930561,-0.000141290507489732,0
0.45,0.000786852262235041,0.000453173509986536,-0.039232021922145,-0.0226856443749807,0.000723562250535253,0.000548598562100083,-0.0361599380841765,-0.0273175563064539,-0.399538873075918,-0.000135395290180233,0
0.46,0.000786800108168444,0.000453173279044346,-0.0392306702681927,-0.0226856432357403,0.000723542070204095,0.000548550183391139,-0.0361594271860226,-0.0273162904562402,-0.399539456466155,-0.000129893827787654,0
0.47,0.000786751662924969,0.000453173063521098,-0.0392294185540069,-0.0226856247782709,0.000723523325360656,0.000548505243617014,-0.0361589381438355,-0.0273151248208064,-0.399540000890531,-0.000124759820529931,0
0.48,0.000786706260949644,0.000453172862387621,-0.0392282392032637,-0.0226856250647551,0.000723505757597345,0.000548463128154894,-0.0361584935238593,-0.0273140198735402,-0.399540508951424,-0.000119968725246531,0
0.49,0.000786663985718026,0.000453172674683145,-0.0392271417150639,-0.0226856065825188,0.000723489399841602,0.000548423912518486,-0.0361580625295901,-0.02731299886971,-0.399540983077729,-0.000115497638070536,0
0.5,0.00078662440450877,0.000453172499511781,-0.0392261094480136,-0.0226856068434837,0.000723474084192302,0.000548387196773085,-0.036157673307183,-0.0273120318046037,-0.399541425536016,-0.000111325184935702,0
0.51,4.63397482534764,0.0134593569506688,8.30239370559255,-0.663517191660622,-0.430818611604021,4.61392448574322,-1.45633465527795,8.20055398605048,0.0960081069381627,29.6119267618419,2301.95597009613
0.52,4.65487609646061,0.0521610440275758,7.25869474238418,-2.5880986054973,-1.91973961789694,4.240895194106,-5.41298366083623,5.48511728611275,0.436279949323632,63.3836568701584,2301.95597009613
0.53,4.62997319564521,-0.0152577037435473,8.50528084096266,0.798076630206466,-3.98040501448478,2.36500750751051,-6.88770790464691,5.05333635448826,1.03138473358703,99.6929264881917,2301.95597009613
0.54,4.64877035842464,-0.0264526964413938,7.56697276426245,1.36888785266795,-4.39489150943128,-1.51548481049644,-7.6064047005576,-1.12939731698233,1.89716661174848,135.551790787161,2301.95597009613
0.55,4.64878489287116,0.0408064280571754,7.56782876960921,-1.9801967317528,-0.629458759156708,-4.60615325573073,1.00542803041413,-7.75772684864754,3.01455550910014,170.04620487766,2301.95597009613
0.56,4.58712287193276,-0.000501819927321456,10.6525813611282,0.0961446670784942,4.35686937081937,-1.43505601968978,10.087415361681,-3.42502332450232,-1.88909207839902,205.257516200834,2301.95597009613
0.57,4.62094646158717,-0.0122467053882939,8.963140400246,0.69069122499744,1.14932857920114,4.47575021640834,2.92084665511709,8.50197594798419,-0.25400936682298,240.88212526966,2301.95597009613
0.58,4.5497279007272,0.0396961074356033,12.5259067347331,-1.90261731055414,-4.54209947273049,-0.266330868324544,-12.3696183884304,-2.74058991501034,1.63809005531109,276.003299862067,2301.95597009613
0.59,4.56789215110499,0.0469756859547004,11.6195771565592,-2.25526830013279,2.71106124893248,-3.67668224405294,8.79300707399998,-7.92362511729338,-2.49594279928077,310.92069353518,2301.95597009613
0.6,4.57616970946186,0.0272340152923067,11.2076010174129,-1.2501346537918,0.439903350819654,4.55505828100177,-0.23408872065076,11.2746778086556,-0.0903249225808947,345.65287009445,2301.95597009613
0.61,4.57059806397908,0.109018886553945,11.4882206464073,-5.32252424483183,-2.56092282948687,-3.78733759275401,-1.7273089665248,-12.5429215771894,2.57088031258522,380.218191729701,2301.95597009613
0.62,4.51739618678471,0.0459638238107936,14.1504481915828,-2.17927418777873,3.2585380705236,3.12904308446284,8.5810380551415,11.4608117471844,-0.79549381897728,415.537024478139,2301.95597009613
0.63,4.57825749130065,0.0710110844299592,11.1095781760152,-3.39831822178863,-3.22232543578995,-3.25301445072467,-5.24385775948537,-10.3669305864281,2.37644308321765,449.858436456352,2301.95597009613
0.64,4.5051276759755,0.119206094244011,14.76834155332,-5.82162750436643,2.18777062288438,3.94005649342613,1.66261434144225,15.787050788122,-0.480421588937201,484.927338589199,2301.95597009613
0.65,4.52489360109865,0.0637189062883189,13.7823305736857,-3.0386548249838,0.20070728401827,-4.52088915882972,3.83854796793415,-13.5812962814901,-3.08314532675683,519.567040652102,2301.95597009613
0.66,4.48440361717309,0.080976351449447,15.8091737447547,-3.86837310787699,-3.32043038288312,3.0151575487254,-14.4422099754008,7.50445574442415,0.85160011374502,554.034943797047,2301.95597009613
0.67,4.46583845216027,0.126356088530103,16.7398957784956,-6.13357684876178,4.26898379150892,1.31736719624256,13.8759512072772,11.1938757241548,-1.24319085369045,588.600671147689,2301.95597009613
0.68,4.48793242331106,0.120734941271427,15.6377345606827,-5.86597459984285,0.13397479545397,-4.48755669785169,6.74336668060315,-15.2799020287207,-3.08485114546141,623.252211386371,2301.95597009613
0.69,4.48999988022677,0.101091299819033,15.5369088926783,-4.86270068443727,-4.49054637879832,-0.0728806915223254,-15.3369212270225,-5.46079144098355,1.60953567039382,657.711148165037,2301.95597009613
0.7,4.48635506123996,0.132752371826991,15.72174271681,-6.40942211392691,-1.08290719191146,4.35572232143482,-10.4144427878295,13.4087011789766,0.273258336714295,691.908026912925,2301.95597009613
0.71,4.4930067756372,0.0710468519558412,15.3918366081317,-3.34712294846759,3.3055340523013,3.04394516543436,8.85020423911304,13.0301861509944,-0.810761911897373,726.586347478332,2301.95597009613
0.72,4.43668960439018,0.131747496581248,18.21041475826,-6.33533974782172,4.4158018694424,-0.449739811878311,18.6180400392421,5.01241663126314,-1.64260789530214,760.670724113833,2301.95597009613
0.73,4.45899504935351,0.141296347523595,17.0979518026888,-6.81724784176238,3.45825365568102,-2.81834759406136,17.7266330729215,-4.95795359811787,-2.22291714898357,795.028807069346,2301.95597009613
0.74,4.40323413166953,0.1497680725899,19.8888317349257,-7.24866635034731,2.32361549308466,-3.74322218605358,17.0828258696644,-12.5014339955691,-2.55205327683643,829.39362596569,2301.95597009613
0.75,4.39562967321695,0.140860525602638,20.2719307318946,-6.79586402640654,2.02908036264983,-3.90182454675338,15.8500471300631,-14.3495975357818,-2.63001219069678,863.642695905379,2301.95597009613
0.76,4.39921976050923,0.14962500928778,20.095401581808,-7.21423024988413,2.66450552716017,-3.50370267579773,18.2915760200263,-11.0131071699168,-2.45741764853902,897.744012866586,2301.95597009613
0.77,4.44902261027697,0.185275380400995,17.6082461109934,-8.96400170332135,4.42794278110759,-0.470586740756273,18.1475271791397,7.81478822008937,-1.63505548844222,931.796412294089,2301.95597009613
0.78,4.38000403452446,0.155270739203576,21.0622234988179,-7.50930618769811,3.68166730834306,2.37778682298925,12.9821007082146,18.2063724925239,-0.961912422128138,966.063383679397,2301.95597009613
0.79,4.35219221544492,0.140489061049548,22.4559717772493,-6.72935438504922,0.309636987589816,4.34343633455934,-5.85096419047924,22.7006849443343,-0.0388992230262253,1000.01781327362,2301.95597009613
0.8,4.30916801485427,0.191804071219124,24.6103425437509,-9.3269773789473,-3.82222436503377,1.99907945948166,-26.2441857042498,1.97590077407809,1.13338828304361,1034.12107119329,2301.95597009613
0.81,4.34006063982588,0.205033089480571,23.0689462239795,-9.91412117957695,-2.57326198337034,-3.50092669019057,-4.51364679798654,-24.7000621705942,2.55495275733568,1067.91608932134,2301.95597009613
0.82,4.37267368629335,0.181625982595799,21.4415437230665,-8.74666663173459,3.77919395258175,-2.20702429373257,23.041878484048,-2.30560411199234,-2.05785037875113,1101.91321421535,2301.95597009613
0.83,4.32125968944057,0.153921146814729,24.0155528092783,-7.36275958320883,0.749820124393367,4.25849114171622,-3.97212373487296,24.8028070679556,-0.138685510239283,1135.85046721483,2301.95597009613
0.84,4.3129823181156,0.174190247863623,24.4328397918879,-8.36117472748298,-3.94573269517153,-1.75024347365818,-18.220259667529,-18.3001377253664,2.02866307431443,1169.65301400115,2301.95597009613
0.85,4.34641717144019,0.19910102905981,22.764517213004,-9.57642352844618,4.13800075784389,-1.34459405622895,24.4890284978603,3.19665681115755,-1.8391961478,1203.4334448018,2301.95597009613
0.86,4.2950450911396,0.167442450105727,25.3365807364557,-8.05732169001748,-3.03838563546323,3.04033913227299,-24.0674706163617,11.2968851619343,0.824042092236213,1237.35072880341,2301.95597009613
0.87,4.32257807207527,0.185643126884536,23.9634829652369,-8.92410714945975,2.262349006077,-3.68794272385674,20.7949950291286,-14.8814107523029,-2.54842499499329,1271.04781233839,2301.95597009613
0.88,4.2470331988366,0.206721571722747,27.7442907988972,-9.97041424898731,-3.48342062340514,2.43840225571408,-28.7894202536326,6.35012706092655,1.00870481876236,1304.74373259716,2301.95597009613
0.89,4.2641582730609,0.247750169752617,26.891680076042,-11.9931529163642,4.00204706776142,-1.49266379059332,29.2311514977422,3.54089766916967,-1.86975517696564,1338.34477455571,2301.95597009613
0.9,4.29147037467468,0.23027072068248,25.5297514926422,-11.1440067399579,-4.24464831801526,-0.672832250924621,-22.6326371832681,-16.2394837241473,1.7816078024704,1372.06170157314,2301.95597009613
0.91,4.26262788055362,0.241144881965862,26.9755747532276,-11.6996822501285,2.6186367562194,3.37207485699059,5.68435515037494,28.8487834153426,-0.603775690789679,1405.70258799912,2301.95597009613
0.92,4.21972074997178,0.180390209614093,29.1246761487433,-8.65432525506811,1.47173133514699,-3.95886230028445,19.281091953578,-23.4815587103445,-2.7429456400844,1439.27406911931,2301.95597009613
0.93,4.28157752006153,0.224344184104023,26.0356401978404,-10.8217138514545,-4.28623355863976,-0.102167773920402,-25.1365099949113,-12.7718407627832,1.64697775223083,1472.77254143638,2301.95597009613
0.94,4.16832143001828,0.249800527697762,25.7581748343207,-12.0579593245854,0.256400567957401,4.16792065619523,-12.0171572723659,25.7772357897431,-0.0015834566252608,1505.74681556422,2301.95597009613
0.95,3.93452297830422,0.287333627480483,31.3440958334848,-13.9827769481482,3.93028392156687,0.34044085559457,28.7291181905807,18.7778636375916,-1.41149265701503,1537.87116869636,2301.95597009613
0.96,3.92471565305249,0.226882512079879,25.8822675829211,-10.9560352436866,3.06358112200798,-2.46360291858879,27.433755871079,-6.10864324550618,-2.19032304548289,1569.00675819076,2301.95597009613
0.97,3.64775422065906,0.238601602623378,33.897407299466,-11.5985633262477,-0.2472249677578,-3.64717992350632,11.5183905547847,-33.9247339250629,3.13922844825296,1599.19244238192,2301.95597009613
