t,iq,id,vq,vd,ia,ib,va,vb,theta_e,omega,r
0,0,0,0,0,0,0,0,0,0,0,0
0.01,0.000548791439685986,0.000305838359090001,-0.0266615579600436,-0.015305272592836,-0.000427738777896805,0.000460161584714358,0.0206427204500324,-0.0227808721171863,1.25732432566012,-0.00191241899536651,0
0.02,0.000627525690072787,0.000348612700584771,-0.0306172659507202,-0.0174458564180202,-0.000489438654257518,0.000525137230092215,0.0237452115686441,-0.0260372772773122,1.25731002021002,-0.00199367824451634,0
0.03,0.000656468432089977,0.000365390236856737,-0.0320852120773297,-0.0182854620766159,-0.000511789351503161,0.000550029533033335,0.0248823195266411,-0.0272889928794875,1.25729603167961,-0.00189231855290881,0
0.04,0.000639454937734369,0.000357266696427932,-0.0313335502738186,-0.017878935983266,-0.000498103714811235,0.000537061261925157,0.0242923346021597,-0.0266707743463206,1.25728373997956,-0.00164351772531295,0
0.05,0.000653480297563219,0.000366177327987151,-0.0320693537283398,-0.0183248505659733,-0.00050869116139144,0.000549868745390526,0.0248544428170677,-0.0273221571086865,1.25727245082367,-0.00152659691987689,0
0.06,0.000653092599198638,0.000366990661792783,-0.0321061081038507,-0.0183655499586306,-0.000508065893978436,0.000550528052279836,0.0248765735867835,-0.02737246224658,1.25726223171128,-0.00137152007367479,0
0.07,0.000665898998801168,0.000375327264896249,-0.0327706290829399,-0.0187827576248909,-0.000517671739897323,0.000562412661744537,0.0253797719481071,-0.027974511440758,1.25725326900155,-0.00128498487251177,0
0.08,0.000651285111148033,0.000367824434534117,-0.0321126430342134,-0.0184072784944701,-0.000506079867543535,0.000550772437863921,0.024869447054792,-0.0274146009893394,1.25724498281982,-0.0011054260242653,0
0.09,0.000648493394081465,0.000367136309738141,-0.0320176662239952,-0.0183728501861549,-0.000503632524982606,0.000549260440843033,0.0247895216265823,-0.0273527364612622,1.25723773256895,-0.000985931585760583,0
0.1,0.000647056829695222,0.000367071995103019,-0.0319834998252159,-0.0183696312497063,-0.000502282305833419,0.000548759396904332,0.0247578377975494,-0.0273392955452405,1.25723128820664,-0.000883651039176223,0
0.11,0.000645885170347451,0.000367064913796291,-0.0319582471297172,-0.0183692669743,-0.000501166813883424,0.000548394136435622,0.0247337719436606,-0.0273313017292659,1.25722554964805,-0.000792977067448147,0
0.12,0.000644852568718071,0.000367063199918018,-0.0319362799946633,-0.0183691799709724,-0.000500182291133801,0.000548076549172186,0.0247127631430597,-0.0273245693568725,1.25722043851076,-0.000712258414074237,0
0.13,0.000673377306988473,0.000383534495956118,-0.0333348484800912,-0.019193475533211,-0.00052223248669933,0.000572546012990394,0.0257887287146039,-0.0285402014274457,1.25721553159614,-0.000745844847084732,0
0.14,0.000693941624258104,0.000396034427899689,-0.0344436400332623,-0.0198190086218485,-0.000537935546787648,0.000590782187834133,0.0266503629291029,-0.0294773743274558,1.25721108530954,-0.00075639700751243,0
0.15,0.000647383916353298,0.000369711541325896,-0.0321306235432451,-0.0185017171214137,-0.000501765902473877,0.000551383295047175,0.0248563786224613,-0.0275109241483342,1.2572070425743,-0.000520411723679593,0
0.16,0.000642053438922492,0.00036730195084853,-0.031891248894765,-0.0183811377344645,-0.000497436957807311,0.000547448458338081,0.0246657875745053,-0.0273224615254663,1.25720390181382,-0.000453138538741472,0
0.17,0.000641016343709244,0.000367080862171844,-0.0318562613384125,-0.0183700759191472,-0.000496517136963336,0.000546919596446245,0.0246358435489536,-0.0273012140456784,1.25720115160736,-0.000407893388087702,0
0.18,0.000640473673852094,0.000367060117518387,-0.0318433982242136,-0.0183690355016741,-0.00049600599545163,0.000546733673049546,0.0246238619764759,-0.027296316548045,1.25719870687569,-0.000369100714672245,0
0.19,0.000640029434035331,0.000367057763176508,-0.0318338174363088,-0.0183689130371055,-0.000495582957580756,0.000546595472077146,0.0246147268050629,-0.0272932981342508,1.25719652987496,-0.000334703166730778,0
0.2,0.000639637580623406,0.000367057141525336,-0.0318254650978165,-0.0183688886689712,-0.00049520934731826,0.000546474960102599,0.024606736417337,-0.0272907460966734,1.25719459089278,-0.000304081490078261,0
0.21,0.000639289267121243,0.000367056722732347,-0.0318180580415148,-0.0183688576968052,-0.00049487720713463,0.000546367966317623,0.0245996530397343,-0.0272884741409881,1.25719286386545,-0.000276808691104803,0
0.22,0.000638978904444344,0.000367056361976354,-0.0318114521732389,-0.0183688433468411,-0.000494581252416385,0.000546272640675378,0.0245933318056022,-0.0272864604881361,1.25719132561958,-0.000252517241371771,0
0.23,0.000638702476832046,0.000367056041706817,-0.0318055666057529,-0.0183688274670675,-0.000494317657297233,0.00054618773818994,0.0245877008071237,-0.0272846634329113,1.25718995551884,-0.000230881100182088,0
0.24,0.000638456258997109,0.000367055756486745,-0.0318003218390841,-0.018368812975183,-0.00049408286973781,0.000546112113813904,0.024582683018435,-0.0272830616830613,1.25718873518357,-0.00021161000110085,0
0.25,0.00063823699130744,0.000367055502404354,-0.0317956499538752,-0.0183687969674922,-0.000493873781288916,0.000546044766547463,0.0245782142805393,-0.0272816319307004,1.25718764824283,-0.000194445420477248,0
0.26,0.00064425043773912,0.000370544860805573,-0.0320897766780963,-0.0185434285582359,-0.000498516988212469,0.000551219496081224,0.0248040978099956,-0.0275385047120693,1.2571867429075,-0.000203467276873788,0
0.27,0.000627279064583892,0.000360876343396326,-0.0312791957624139,-0.0180595772615401,-0.000485355486380008,0.000536787492336745,0.0241822889085017,-0.026828218754787,1.25718568528648,-0.000123699082628314,0
0.28,0.00062673998639653,0.000360608242363771,-0.0311662787138197,-0.0180461539368864,-0.00048492499903676,0.000536366535419771,0.024078999842197,-0.0267806341855597,1.25718492073346,-0.000110177241340956,0
0.29,0.000636449693936938,0.000366464767960873,-0.0317274307761369,-0.0183392425540538,-0.000492354102859528,0.000544933093568768,0.0245223502047672,-0.0272325544440056,1.2571843608488,-0.000138302070496472,0
0.3,0.000630297086916321,0.000363290636152415,-0.0314315350785924,-0.0181803978422178,-0.000487480790850166,0.000540015724440801,0.0242898895159492,-0.026990174701196,1.25718435404045,-0.000115045171125676,0
0.31,0.000636717521222981,0.000366710133825844,-0.0317432285271363,-0.018351513411232,-0.000492532877160922,0.000545249382391663,0.0245335771524941,-0.0272491136353322,1.25718381917432,-0.000131166827714078,0
0.32,0.000637278369308394,0.000367022955506443,-0.0317731236463241,-0.0183671743161325,-0.00049296956971961,0.000545720233441562,0.0245571680220312,-0.0272732465493481,1.25718327711487,-0.000125129419425032,0
0.33,0.000637248393943733,0.000367051480616297,-0.0317743164123399,-0.0183686077225717,-0.000492931989308771,0.000545738361234191,0.0245578470563879,-0.0272749900291874,1.25718278756598,-0.000117657652101376,0
0.34,0.000637167427801477,0.000367053999403607,-0.0317727703482423,-0.0183687237914113,-0.000492853956918603,0.000545715994523717,0.0245563286829381,-0.0272746342036482,1.25718235083736,-0.000110787582053695,0
0.35,0.000637089604171905,0.000367054148224744,-0.0317711166490473,-0.0183687357283742,-0.000492779670927349,0.000545692319346388,0.0245547413492832,-0.027274144948211,1.25718196177631,-0.000104646397534747,0
0.36,0.000637019754978917,0.000367054089081641,-0.0317696159911029,-0.0183687360025257,-0.000492713057794362,0.000545670885446422,0.0245533043502905,-0.027273690766646,1.2571816152362,-9.91742370083129e-05,0
0.37,0.000636957414574175,0.0003670540188568,-0.0317682709254964,-0.0183687362558688,-0.000492653611307711,0.00054565173875414,0.0245520163943848,-0.0272732836344153,1.25718130657561,-9.43000039885394e-05,0
0.38,0.000636902059658231,0.000367053954699408,-0.031767079220633,-0.0183687213053521,-0.000492600826138418,0.000545634736197321,0.0245508799297843,-0.0272729085225061,1.25718103165459,-8.99585480739043e-05,0
0.39,0.000636852641354194,0.000367053897405746,-0.0317660098503988,-0.0183687215239514,-0.000492553702307727,0.000545619556782482,0.0245498559729848,-0.0272725848416649,1.25718078678501,-8.60916530004681e-05,0
0.4,0.000636808636362612,0.000367053846359402,-0.0317650556998371,-0.0183687217273605,-0.000492511740435729,0.000545606040111554,0.0245489423507752,-0.0272722960340576,1.25718056868211,-8.26474468608463e-05,0
0.41,0.000636769404399218,0.000367053800889986,-0.0317642017500379,-0.0183687219173691,-0.000492474330076762,0.000545593989466678,0.0245481246964095,-0.0272720375400203,1.25718037441999,-7.95797258764355e-05,0
0.42,0.000636734479802725,0.00036705376038968,-0.0317634398692022,-0.0183687220952921,-0.000492441027046636,0.000545583261901523,0.0245473952032164,-0.0272718069162203,1.25718020139283,-7.68473365857967e-05,0
0.43,0.000636703396911846,0.000367053724315274,-0.031762760235091,-0.0183687222624367,-0.000492411387296724,0.000545573714390011,0.0245467444643004,-0.0272716011908131,1.25718004727911,-7.44136239806789e-05,0
0.44,0.000636675807049977,0.000367053692183338,-0.0317621574290123,-0.0183687072406853,-0.000492385078177639,0.000545565239926593,0.0245461719513292,-0.0272714043051535,1.25717991001155,-7.22459397990566e-05,0
0.45,0.00063665112700179,0.00036705366356313,-0.0317616129789728,-0.0183687073904491,-0.000492361544048303,0.000545557659088511,0.0245456506768549,-0.0272712394854324,1.25717978774869,-7.03152045509063e-05,0
0.46,0.00063662918271366,0.00036705363807107,-0.0317611277047003,-0.0183687075324786,-0.000492340618567539,0.000545550918624837,0.024545186058683,-0.0272710925859719,1.25717967885029,-6.85955174157024e-05,0
0.47,0.000636609566731964,0.000367053615365013,-0.0317606897197649,-0.018368707667924,-0.000492321913463862,0.00054554489323104,0.0245447667499576,-0.0272709599767776,1.25717958185574,-6.70638087861288e-05,0
0.48,0.000636592162641379,0.000367053595140697,-0.0317603007617781,-0.0183687077971145,-0.000492305317383619,0.000545539547345518,0.0245443943679319,-0.0272708422261912,1.2571794954635,-6.56995307858424e-05,0
0.49,0.000636576621195939,0.000367053577126897,-0.0317599500904323,-0.0183687079210361,-0.000492290497566845,0.000545534773539027,0.024544058664255,-0.0272707360502187,1.25717941851481,-6.44843816209381e-05,0
0.5,0.000636562767771018,0.00036705356108196,-0.0317596349848796,-0.0183687065849893,-0.000492277287417641,0.000545530518218712,0.0245437574714154,-0.0272706392510803,1.25717934997752,-6.34020600605584e-05,0
0.51,4.71808148652654,-0.025872992491958,4.09685427494107,1.30450731774667,-0.593175594760654,4.68071629550706,0.802267333671896,4.22401721320836,0.120571839532826,37.3539070512456,4056.64944048687
0.52,4.69717691277679,0.00430919568406885,5.14318620125639,-0.193929638744666,-2.45280944717558,4.00589756920181,-2.85502799634278,4.28238113036156,0.55033166672978,80.0498298126385,4056.64944048687
0.53,4.66094570309675,0.0314771416525348,6.95598625425346,-1.54069331562915,-4.48331860616536,1.27485682853963,-7.11482077683416,0.372566739949261,1.30050652399568,125.434185526798,4056.64944048687
0.54,4.65338722032117,0.0371974003786151,7.33524902733214,-1.82272607316133,-3.19197180043305,-3.38625343028007,-3.65229620328259,-6.61732129144768,2.39371340496176,171.692305502874,4056.64944048687
0.55,4.68582127600206,0.0267053283087393,5.71494009019633,-1.27707815249906,2.87538801959536,-3.69996999203522,4.53638993577828,-3.70305754650034,-2.47524899840174,214.492145799034,4056.64944048687
0.56,4.65080139650702,0.0283701754562056,7.4674419584586,-1.3583748210432,3.12976527836803,3.44025112439905,3.98100368735582,6.46215762719013,-0.732075309367487,260.075302386688,4056.64944048687
0.57,4.58241921265144,0.0662743508348904,10.8882134339298,-3.25301576968689,-4.43824445499857,1.14234158102123,-11.3478947714303,-0.600489497980869,1.33334012608917,304.63897467562,4056.64944048687
0.58,4.55617044229767,0.0185950462082902,12.2023429142821,-0.843667743981089,2.4933323151599,-3.813440551679,7.42345766125826,-9.72117401405153,-2.55845018345063,348.267850597665,4056.64944048687
0.59,4.59701487616377,0.0488591508504174,10.1619615715148,-2.33903172780944,-0.671429256115505,4.54797930319884,-3.90109616768976,9.67046953850117,0.157201731257052,392.20647626815,4056.64944048687
0.6,4.56491428582494,0.0721205529144535,11.7689548652129,-3.50171904925624,0.174639691906876,-4.56214256562549,4.13251264870549,-11.5625548270108,-3.08753357367149,436.429013513087,4056.64944048687
0.61,4.55656611013291,0.0615101563027269,12.1884010077467,-2.97925175189413,-1.17162786729971,4.40378999906976,-6.16091295645616,10.9305174474851,0.273524894315993,480.771013255161,4056.64944048687
0.62,4.53036480587522,0.0498843694822741,13.5005712602087,-2.37702604592001,3.26274516567627,-3.14343565362608,11.4552702934227,-7.52943953289897,-2.32656184772503,524.399462770222,4056.64944048687
0.63,4.56810786400078,0.0703434994130467,11.6155997722232,-3.36868994998191,-4.54984800024635,-0.414054150697369,-11.1932974243417,-4.5804282351988,1.67694790640421,567.769664181157,4056.64944048687
0.64,4.51731537382394,0.0381310130026846,14.157549459358,-1.77681990475385,1.29175062117511,4.32885348486553,2.22676946730642,14.0937856308222,-0.281551780695689,611.973221367185,4056.64944048687
0.65,4.47323737996283,0.11611822169348,16.363837798203,-5.64095762076981,4.16226238236763,-1.64283534148535,17.3060226672158,-0.311720719607549,-1.92077080274565,655.233247971583,4056.64944048687
0.66,4.51664145549447,0.0743151441817154,14.1960721581439,-3.5420632034638,-0.517964804113924,-4.48745866163079,2.12935795037844,-14.4755141938282,3.04312836370429,698.668390930307,4056.64944048687
0.67,4.46705558302745,0.0724025740162715,16.6779119105887,-3.45099499250248,-4.01216465135351,-1.96528942525274,-13.2886327265264,-10.6524341065846,2.0424837599985,742.306997637906,4056.64944048687
0.68,4.46031886266471,0.130991230226011,17.0173807752646,-6.37865252075926,-4.3341580145944,1.06145059402965,-17.9754092131624,-2.67640057732205,1.35997975655938,785.735115066111,4056.64944048687
0.69,4.42900926462422,0.084174431720603,18.5855774483205,-4.02140081407266,-3.66921910750048,2.48194269519585,-17.7789763092081,6.74561746555198,0.995072961828291,828.946072064715,4056.64944048687
0.7,4.42139702198643,0.0925599106478603,18.9689997198422,-4.41567556842722,-3.53482738036483,2.65750152476206,-17.9763374071666,7.49482718417722,0.947072387448968,871.990378788685,4056.64944048687
0.71,4.40029631292953,0.106438857267624,20.0269470584735,-5.112559905945,-4.08807258758159,1.63144089398961,-20.5541368024098,2.17815003675155,1.21527333030369,915.24365625987,4056.64944048687
0.72,4.40812530090107,0.0895916518060982,19.6385083729585,-4.28318179737272,-4.31379507650562,-0.911464409855551,-18.1574116199514,-8.62119833246874,1.79934571077934,958.388831491285,4056.64944048687
0.73,4.40627901035464,0.155843042758728,19.7338590150446,-7.54447171243774,-2.03081797056669,-3.91348439903516,-1.64952782042524,-21.062366985101,2.69827095539942,1001.0954956056,4056.64944048687
0.74,4.3804008475614,0.104171793431584,21.0308855358456,-4.98372009043259,2.97633406099564,-3.21561796630455,18.2245983387783,-11.6189340196,-2.37104275500881,1044.15880057756,4056.64944048687
0.75,4.35195608704729,0.136682025497691,22.4563862652332,-6.63324963855895,3.34124470412467,2.79182513543398,12.3611585274085,19.8869566480412,-0.843346086065533,1087.06903212467,4056.64944048687
0.76,4.29656455258879,0.158696195445609,25.2292035120137,-7.72561826836858,-3.52447901793519,2.46245793652318,-25.388641309549,7.18434269326112,0.99788041532622,1129.72539402913,4056.64944048687
0.77,4.31048716554763,0.189707990510111,24.5363955008927,-9.21762134094839,-0.142822251441631,-4.31229527403996,9.48389807558323,-24.4347073780981,-3.13071790930931,1172.3462471604,4056.64944048687
0.78,4.27792096598634,0.1064034973534,26.1681493478351,-5.08072922325403,3.98198278388336,-1.5670809182461,26.3235645683091,-4.20188031108592,-1.92085626019365,1214.99059271447,4056.64944048687
0.79,4.32932398857667,0.169346270621508,23.6014774469405,-8.24088098310589,-3.16567247777152,2.95808081717162,-23.2480120697586,9.19085370683898,0.858380771277982,1257.65860372348,4056.64944048687
0.8,4.28931872216245,0.172099832949155,25.6052902989575,-8.34456280209143,2.9813943983354,-3.08855320406963,24.2740960787614,-11.6632276497973,-2.33374527523441,1300.05179269169,4056.64944048687
0.81,4.30433901140716,0.185987115008701,24.8579368918608,-8.98022727031085,-3.68227967596797,2.2366810054239,-26.1093576692298,4.10645229442632,1.06812300269355,1342.25184947786,4056.64944048687
0.82,4.30012631509818,0.169914602297861,25.0722981944778,-8.23980372171862,4.30171649591007,0.123257805793607,24.4531022043986,9.92775375936071,-1.50265767894772,1384.81515885587,4056.64944048687
0.83,4.26802679954823,0.199496047570588,26.681062254298,-9.63742484238222,-2.64914259939545,-3.35229696219272,-7.71513068727249,-27.2990072912661,2.51953501242698,1426.84847212599,4056.64944048687
0.84,4.25747073666603,0.151762234292236,27.2127643136485,-7.27244929843398,-2.16258331545852,3.67046621739329,-20.7706954460528,19.0263309935414,0.56806028991285,1469.05737795187,4056.64944048687
0.85,4.23056924418913,0.118046969817103,28.5618579021591,-5.61446205123367,3.77699454607469,1.90944060286881,22.4485335231381,18.5301174742206,-1.07482649449584,1511.21087060977,4056.64944048687
0.86,4.20273201299103,0.154402867810865,29.9578134490757,-7.44261741603025,2.69326239696485,-3.2300362660043,25.5542839278732,-17.3159381375846,-2.40984623547084,1553.20424249639,4056.64944048687
0.87,4.17672232419589,0.157126279369733,31.2624794919,-7.5717504529744,-1.36859211040375,-3.94925988970662,-1.87639966150495,-32.111573508844,2.84560182085521,1595.07426909551,4056.64944048687
0.88,4.20839458257968,0.182556292946485,29.6831109890983,-8.81307716573238,-3.67518420783725,-2.05838111175847,-20.6091802700159,-23.1088531891626,2.12469412475632,1636.83622774795,4056.64944048687
0.89,4.18614138376291,0.206635654523555,30.8001391981211,-9.96692649502042,-1.64457850479179,3.85510564318925,-22.4311612238916,23.3416195780961,0.452544792458848,1678.41456971436,4056.64944048687
0.9,4.12658554412833,0.260334602829781,33.7823293648304,-12.6764674261277,-1.14358241781666,3.97349991973072,-23.3059384245922,27.5458134363223,0.343232694825659,1720.15683495228,4056.64944048687
0.91,4.17823816459151,0.230093283265106,31.2042831801023,-11.1703811924883,-1.94624536471046,3.70442250012006,-25.5981361467704,21.0527938901448,0.538762089575262,1761.68868931043,4056.64944048687
0.92,4.08434903312281,0.215630084467898,35.9033473694044,-10.4174495187677,-3.40933786839008,2.25938457480355,-36.2209237667989,9.2530150915221,1.03828683815316,1803.11129235567,4056.64944048687
0.93,4.12931948736938,0.202712436838102,33.6594981468444,-9.7453940710927,-4.0330333748992,-0.909402857795431,-29.8253651047857,-18.3951656003566,1.84162735678912,1844.4682258536,4056.64944048687
0.94,4.13607637182268,0.300172796797157,33.3264581367374,-14.6681053527801,-1.08979472035654,-4.00119718696416,7.98693602612561,-35.5248501685024,2.94812308752981,1885.86271250798,4056.64944048687
0.95,4.08579746804812,0.164883233038549,35.8452695835635,-7.92097780216721,3.77295195717819,-1.57662962019333,36.3609836335081,-5.05015940981334,-1.92628491328674,1927.12310688633,4056.64944048687
0.96,4.05906768292549,0.280891209312223,37.1866992366467,-13.7276517687976,1.14245437167406,3.90509005461869,-5.45741071431739,39.2621406891861,-0.21552200686656,1968.27450858458,4056.64944048687
0.97,4.04020295483523,0.170243649787161,38.1349450224059,-8.17383020513874,-3.97578742859282,-0.73846945718522,-35.3375327774523,-16.5028576097245,1.79655762668405,2009.33140886572,4056.64944048687
0.98,4.10009693186326,0.298478196776945,35.1453385795546,-14.5371128552533,-1.45661008386986,-3.84423869552794,3.89828907321055,-37.8328668797328,2.85207046661567,2050.23542688323,4056.64944048687
