t,iq,id,vq,vd,ia,ib,va,vb,theta_e,omega,r
0,0,0,0,0,0,0,0,0,0,0,0
0.01,0.00093341215593491,0.000504939406642118,-0.0454536537241039,-0.0252710076011021,-0.000117916029611523,0.0010546648127191,0.0051816846975524,-0.0517475468572265,0.607218739631824,-0.00353482965916973,0
0.02,0.00105215791209666,0.000570182415382376,-0.0515568536167938,-0.028536246486024,-0.000132060930296113,0.00118941337199823,0.00598108157125621,-0.0586229748615046,0.607193794615336,-0.00330351394898665,0
0.03,0.00108986139309553,0.000596057350103923,-0.0535753822802051,-0.0298312398036003,-0.000132296431718634,0.00123514366570353,0.00606793645744762,-0.0610197066679151,0.607171985207283,-0.00280853387508766,0
0.04,0.00105277537219406,0.000582675576150573,-0.0519478366856252,-0.0291615038359185,-0.000122107127629147,0.00119705332409334,0.00568838671690191,-0.0593010396101759,0.607155311762815,-0.00213828512366994,0
0.05,0.00107075978156836,0.000596999906480714,-0.05294183756439,-0.0298784051351752,-0.00012058688688411,0.00121999762330666,0.00566589418167096,-0.0605264809916951,0.60714158710581,-0.00180136871031118,0
0.06,0.00106554221254507,0.000598089136802324,-0.0527943692312883,-0.0299329176801787,-0.000116702165283132,0.00121633524445139,0.00553632338022231,-0.06043652957283,0.607130556379654,-0.00144348204590898,0
0.07,0.00108497678621595,0.000612390410464898,-0.0538078996595101,-0.0306486557488927,-0.000116033976318978,0.00124045667308313,0.00552621140919094,-0.0616773147311308,0.60712217373007,-0.00127511699150487,0
0.08,0.00105715436141874,0.000599258101701335,-0.0525360808747245,-0.0299914355474688,-0.000110937991967295,0.00121011502687125,0.00533997344028282,-0.060257868229225,0.607115073213924,-0.000936426128482293,0
0.09,0.00105112181903006,0.000598253906352876,-0.0522957071619583,-0.0299411593768497,-0.000108314769297709,0.00120458819754285,0.00524381298944088,-0.0600317952232896,0.607109762346975,-0.00074852879425836,0
0.1,0.00104793626801209,0.00059817575357577,-0.0521812055669428,-0.0299372568656779,-0.000106556647974934,0.00120192775770984,0.00518144788407024,-0.0599355500590908,0.607105632469838,-0.000609081770492086,0
0.11,0.00104559449875834,0.000598168604603598,-0.0520988250373093,-0.0299368913355309,-0.000105222684098207,0.00120000071754907,0.00513455737723159,-0.0598676987501897,0.607102404905143,-0.000500755154003536,0
0.12,0.00104377747735482,0.000598167131582769,-0.052035082594082,-0.029936817337244,-0.000104184276270557,0.00119850781228874,0.0050981027508193,-0.0598153174462741,0.607099880937867,-0.000416107078009366,0
0.13,0.00109275035071525,0.000625554322464183,-0.0544160948828386,-0.0313074864035261,-0.000109626089484463,0.00125435388142512,0.00533053544591173,-0.0625528215116228,0.607097202770469,-0.000551661941192828,0
0.14,0.00112890473337885,0.000647827603682518,-0.0563406366282849,-0.0324222032389489,-0.000111955596772345,0.00129675458182709,0.00551279194727123,-0.0647694042237093,0.607095011642994,-0.000645242002100381,0
0.15,0.00104757705124587,0.000601954635304945,-0.0522809457621024,-0.0301263839735188,-0.000103233089989857,0.00120378984477908,0.00508226804885067,-0.0601254260074672,0.607093153720889,-0.000228757979179268,0
0.16,0.00103935018593526,0.00059845338341809,-0.0518907820961523,-0.029951144350525,-0.000101414703159759,0.00119503569783971,0.00500357672068083,-0.0597050126409551,0.607092553751247,-0.000174122025485192,0
0.17,0.00103831279386741,0.000598186025073601,-0.0518444740977002,-0.0299377693741758,-0.000101042012819325,0.00119403119312165,0.00498812081297087,-0.0596593511557379,0.607092167665832,-0.000157811198535617,0
0.18,0.00103802734234299,0.000598165511862411,-0.0518334736290574,-0.0299367487966568,-0.000100895664889552,0.00119378507606678,0.00498266593064638,-0.059649735600352,0.607091873820656,-0.000147629542246848,0
0.19,0.00103785528040871,0.00059816386178463,-0.0518273192678409,-0.0299366707890784,-0.000100798588615966,0.0011936428415361,0.00497920539074676,-0.0596446375971984,0.607091644802005,-0.00013991764989431,0
0.2,0.00103772611208482,0.000598163669778412,-0.0518227599327697,-0.0299366406735,-0.000100724844528794,0.00119353666271301,0.00497661843233622,-0.0596408766773483,0.607091465769532,-0.000133910838632161,0
0.21,0.00103762529641628,0.000598163603449908,-0.051819197541175,-0.029936641041122,-0.000100667218480968,0.0011934538379755,0.0049745775036098,-0.0596379517530313,0.6070913257607,-0.000129215456310003,0
0.22,0.00103754659965886,0.00059816355797229,-0.0518164129828207,-0.0299366413456209,-0.000100622230159503,0.00119338918854976,0.00497298218613824,-0.059635665483324,0.607091216264393,-0.00012554355650638,0
0.23,0.00103748501595371,0.000598163522892446,-0.0518142275601326,-0.029936641601314,-0.000100587024455407,0.00119333859778303,0.00497173012762822,-0.0596338711434765,0.60709113063035,-0.000122671885212475,0
0.24,0.00103743682001055,0.000598163495493519,-0.0518125109304123,-0.0299366418188013,-0.000100559472180988,0.00119329900503156,0.00497074665101443,-0.0596324617136734,0.60709106365829,-0.00012042603065118,0
0.25,0.00103739921786166,0.00059816347406796,-0.0518111670838603,-0.029936642006073,-0.000100537975976543,0.00119326811501673,0.00496997673531862,-0.0596313583648893,0.607091011281188,-0.000118669608509444,0
0.26,0.00104817402322615,0.000604020877386183,-0.0523289358919832,-0.0302297892712317,-0.000101874114926319,0.00120545911087537,0.00502459228218974,-0.0602238421504982,0.607091069657873,-0.000168149048490123,0
0.27,0.00101853604863414,0.000587175908938626,-0.0509068898043132,-0.0293867461936072,-9.88007077023419e-05,0.00117150742659305,0.00490571935973603,-0.0585749622190189,0.607090667564728,-2.47171523225957e-05,0
0.28,0.00101780387541048,0.000586523346959808,-0.0507152124669341,-0.0293540876732935,-9.89189712367227e-05,0.00117053381089954,0.00482319388009049,-0.0583989044374355,0.607090665470022,-2.14119892316652e-05,0
0.29,0.00103543815103156,0.000597275055913006,-0.0517177054642732,-0.029892180724742,-0.000100148767646323,0.00119115065435337,0.00495316896975092,-0.0595292335254457,0.60709090618889,-0.000106797187372247,0
0.3,0.00102599713410426,0.000592611225059368,-0.0512531483722301,-0.0296587706911209,-9.85946137291922e-05,0.00118073590840633,0.00487991573977738,-0.0590145263417999,0.607092013316276,-9.85964874413858e-05,0
0.31,0.0010368446549942,0.000597740045761511,-0.0517761841038247,-0.0299154566543698,-0.000100570414800734,0.00119257100105772,0.00496747134523862,-0.0595905362924925,0.607091883264398,-0.000142679607551578,0
0.32,0.00103775388082621,0.000598131397605323,-0.0518219477795383,-0.0299350482480814,-0.000100767429191994,0.001193541038752,0.00497747486485953,-0.05963930020758,0.607091664873889,-0.000140077189556957,0
0.33,0.00103772704326793,0.000598161198366307,-0.0518223406478538,-0.0299365194838695,-0.000100727425762351,0.00119353601590396,0.004976479782656,-0.0596404630934663,0.607091482705666,-0.000134428425377903,0
0.34,0.00103763391114012,0.000598163419766363,-0.0518191814797611,-0.0299366333257004,-0.000100672299832061,0.00119346080720778,0.00497457547486709,-0.0596379340936178,0.607091339128511,-0.000129658528592481,0
0.35,0.00103755405023944,0.000598163547817787,-0.0518163679801552,-0.0299366423639928,-0.000100626501406039,0.00119339530094643,0.00497295630086692,-0.0596356290510474,0.607091226732765,-0.000125893802124573,0
0.36,0.00103749095313511,0.000598163525140549,-0.0518141311816436,-0.0299366426239433,-0.000100590419430865,0.00119334347451373,0.00497167479407702,-0.0596337925294393,0.607091138820707,-0.000122946166449828,0
0.37,0.00103744147662342,0.000598163498030382,-0.0518123696349816,-0.0299366428450793,-0.000100562134251673,0.00119330283036171,0.00497066558390474,-0.0596323462198058,0.60709107006597,-0.000120640574052539,0
0.38,0.00103740271032131,0.000598163476111979,-0.0518109825575353,-0.0299366430356705,-0.000100539972660988,0.00119327098407432,0.00496987091995197,-0.0596312073738357,0.607091016294651,-0.000118837400579777,0
0.39,0.00103737244233769,0.000598163458915682,-0.051809894426125,-0.0299366432020299,-0.000100522669304578,0.00119324611906325,0.00496924751772283,-0.059630313983405,0.607090974241693,-0.00011742718408241,0
0.4,0.00103734892644271,0.000598163445462259,-0.0518090453748878,-0.0299366433491352,-0.000100509225747262,0.00119322680082992,0.00496876106846393,-0.0596296168955916,0.607090941353212,-0.000116324291444626,0
0.41,0.00103733029999125,0.000598163434940297,-0.0518083637427303,-0.0299366434822901,-0.000100498577668449,0.00119321149930183,0.00496837056742905,-0.0596290572673214,0.607090915632077,-0.000115461748791292,0
0.42,0.00103731586449137,0.000598163426711237,-0.0518078314177115,-0.0299366436034809,-0.000100490325251981,0.00119319964059296,0.00496806558730847,-0.0596286202319662,0.607090895516207,-0.00011478717741343,0
0.43,0.00103730457220517,0.000598163420275398,-0.0518074091173943,-0.0299366437157064,-0.000100483869736407,0.00119319036402248,0.00496782364292964,-0.0596282735342133,0.60709087978425,-0.000114259613308972,0
0.44,0.00103729584105605,0.000598163415242213,-0.0518070780125551,-0.029936643820616,-0.00010047887823878,0.00119318319139782,0.00496763393424818,-0.0596280017151062,0.607090867480706,-0.000113847019634049,0
0.45,0.00103728885613675,0.000598163411305875,-0.0518068054106814,-0.0299366439205395,-0.000100474885229976,0.00119317745332729,0.00496747776435627,-0.0596277779289654,0.607090857858511,-0.000113524341235242,0
0.46,0.00103728338461663,0.00059816340822715,-0.0518065859351234,-0.0299366440161493,-0.000100471757383686,0.00119317295850681,0.00496735203057474,-0.0596275977631777,0.607090850333214,-0.000113271983151193,0
0.47,0.00103727907724973,0.000598163405819617,-0.0518064070386849,-0.0299366441084413,-0.000100469295069898,0.00119316942003637,0.00496724954691445,-0.0596274509154303,0.607090844448016,-0.000113074620691321,0
0.48,0.00103727581762073,0.000598163403936813,-0.0518062667279645,-0.029936644197747,-0.000100467431569534,0.00119316674225518,0.00496716915458317,-0.0596273357504866,0.607090839845333,-0.000112920268828136,0
0.49,0.00103727325648365,0.000598163402464034,-0.051806150564987,-0.0299366442850592,-0.000100465967405302,0.00119316463828629,0.00496710259951739,-0.0596272404122322,0.607090836245706,-0.000112799554394119,0
0.5,0.00103727116100786,0.00059816340131262,-0.0518060492482583,-0.0299366443710413,-0.000100464769563898,0.0011931629168747,0.00496704456181889,-0.059627157262711,0.607090833430589,-0.000112705146885709,0
0.51,4.61507674495997,-0.0553092706905902,9.24721345719663,2.78131879142042,-0.766350833247715,4.55134033858985,1.32201052846554,9.56550987167402,0.154830515621889,47.5591962701792,1635.5698786448
0.52,4.59857400865562,-0.0566899435640513,10.0737607320059,2.86857602546909,-3.00819826552554,3.47862614520064,-4.30215582733463,9.54991303295118,0.700677279703337,101.707070861584,1635.5698786448
0.53,4.56250696220715,-0.0222248554617583,11.8786234907018,1.14509599973959,-4.54243358746152,-0.42808974279985,-11.9333961914325,0.0836434144249572,1.65989001842368,160.794878570139,1635.5698786448
0.54,4.62071082769091,0.0294234099014097,8.97013856420642,-1.41134299196113,-0.489211355352387,-4.59483476743011,0.511468703771281,-9.06607272566703,3.04189003772723,215.301779437367,1635.5698786448
0.55,4.60094349858668,0.0982538022675488,9.96051658667118,-4.85869240020123,4.58200832611424,0.42840936762263,9.3397185284246,5.96560477428124,-1.45621729626832,272.286020630587,1635.5698786448
0.56,4.46084564141135,0.0364304159828437,16.9675946238848,-1.75925954381209,-2.97059025027255,3.32807220124398,-12.7046367371941,11.3836051775752,0.736870293217996,327.402986321139,1635.5698786448
0.57,4.49141619889146,0.0771289387414402,15.4414059268337,-3.78423044048667,0.793357442201683,-4.42146495109474,6.70042472313206,-14.4174105009742,-2.94687798400642,382.449466268349,1635.5698786448
0.58,4.4980878525652,0.00456574114215225,15.1103052823222,-0.141998613680025,-0.253794669713391,4.49092456416403,-1.00964204456057,15.0772050550862,0.0574677820075151,437.764685557436,1635.5698786448
0.59,4.41507177298576,0.0717203233807768,19.2638000965295,-3.47710211507149,1.33405129431718,-4.20931226087257,9.41457024398939,-17.1624619562193,-2.81843532174557,492.307816049993,1635.5698786448
0.6,4.39608351276465,0.0820466955798287,20.2160415537934,-3.94499456036719,-3.62767268765039,2.48440592148951,-19.0577010712588,7.81379216927148,0.988973172601034,546.395984640303,1635.5698786448
0.61,4.35326357787416,0.0314928913181975,22.3600553587666,-1.44609362898642,3.86662249791366,2.00028149001015,19.1113925141022,11.6969200477228,-1.08615465950124,601.42276289556,1635.5698786448
0.62,4.30410412748015,0.0973191086938143,24.8212070950661,-4.7502039503286,1.49825426926996,-4.03608938128517,13.5765981310744,-21.3150825101191,-2.7635381208544,655.643586766392,1635.5698786448
0.63,4.314843076281,0.0759766319325308,24.2875003592105,-3.59730633275933,-3.43177547829344,-2.61659325996872,-16.8204661506257,-17.8856144715806,2.2398309617149,709.430485758159,1635.5698786448
0.64,4.31483665244733,0.0822197381456107,24.2912020621393,-3.8942351251129,-4.19834053136332,0.999255825780159,-24.5632892598444,1.36835140609261,1.35618464599677,763.424567021788,1635.5698786448
0.65,4.29230297706311,0.132248205511836,25.4214282869513,-6.4695874659654,-3.18895557728387,2.87609401113316,-23.5761360306045,11.5008864003962,0.867737623512822,817.514314985803,1635.5698786448
0.66,4.2673276735598,0.132962490484692,26.6738684818889,-6.47748753775977,-2.8856376561464,3.14656317509042,-23.2673234289327,14.5631303312296,0.773317846892197,871.186844880651,1635.5698786448
0.67,4.19975109803657,0.101346808849615,27.5487723910067,-4.81562046763778,-3.63759028182034,2.1014560196991,-26.4874037756723,8.97454745178407,1.07105808707071,924.195571769669,1635.5698786448
0.68,3.88285342798302,0.110445747100895,29.5632968623617,-5.35069291983696,-3.83853420319698,-0.595318550978485,-28.1033641432957,-10.6216458199208,1.75309739824955,975.45647518588,1635.5698786448
0.69,3.63146479697603,0.139177460166193,29.3267416267725,-6.81851621943839,-1.3623135220187,-3.36912582205228,-3.52975570700399,-29.9013505134315,2.79564668305495,1022.97703809014,1635.5698786448
0.7,3.37693822584561,0.0989093008955111,29.9458857469736,-4.69981435857555,2.85124756187933,-1.81214849608361,28.1365334283402,-11.2774028398282,-2.10767446580919,1067.24133893576,1635.5698786448
0.71,3.06605925937986,0.142409054771227,34.150347465158,-6.88803685738505,1.35963633817867,2.75179736696108,7.38045904752292,34.0473215978519,-0.412495090214859,1108.84136343972,1635.5698786448
0.72,2.85861543358552,0.121361735742565,33.9185077279783,-5.83912218087955,-2.85937854865506,0.101809545363096,-33.8777822712866,-6.0709457842629,1.57763512873724,1147.77593565077,1635.5698786448
0.73,2.58841189415394,0.0577634177577022,37.5048109534658,-2.79115755446453,1.62739025278235,-2.01365680079244,26.3502963295682,-26.8339950155209,-2.43957338572732,1184.24430864936,1635.5698786448
0.74,2.49674959219563,0.0535735327846107,32.7618898308235,-2.5680709727916,-0.155955592840596,2.49244989971831,-5.3059556365184,32.4312079422215,0.0839437562346593,1218.28838998571,1635.5698786448
0.75,2.26767883299573,0.0412851093203408,35.4772993011087,-1.88234764484203,-1.80286939976709,-1.37612996379408,-26.6351394507294,-23.5106644907516,2.24095902873814,1249.84582383698,1635.5698786448
0.76,2.06721020087156,-0.0334631935291769,37.3863094106322,1.74275261195098,1.77978451524063,1.05206695567264,33.350018207482,16.9867478810573,-1.05311771651146,1279.60652604944,1635.5698786448
0.77,2.01568600583969,0.0411058510197265,32.2938668379478,-1.90240125435877,-1.7138233427515,-1.06183299768188,-26.0647355388487,-19.1609636284182,2.1458713236648,1307.20087856518,1635.5698786448
0.78,1.79152906040309,0.0619188933007974,36.4025736121297,-3.05054119287334,1.25679924496252,1.27822767200449,22.3623935713908,28.8855763472734,-0.742397141250742,1333.08252039181,1635.5698786448
0.79,1.70855723915919,0.0534326024655504,33.83516907071,-2.49175792119317,-0.565688847844464,-1.61307749656175,-7.81756904805944,-33.0138325215383,2.83556731700442,1357.11649000631,1635.5698786448
0.8,1.5017144358739,0.0415385237894047,37.8975459184457,-1.97860419982978,-0.405929159030785,1.44640700140701,-13.1346601661396,35.6036453687022,0.301261846345081,1379.69742741141,1635.5698786448
0.81,1.42003264741681,0.0888003171789824,36.1587290931724,-4.41022086095971,1.20152169367708,-0.762052383818876,33.8093077767923,-13.5585561668642,-2.07355944985404,1400.72507367396,1635.5698786448
0.82,1.21208708072946,-0.00272740382981988,41.0806621443528,0.140889527022394,-1.10920888961496,-0.488690258959674,-37.6874554471343,-16.3492004085078,1.98353508452736,1420.25890341799,1635.5698786448
0.83,1.17523312601205,0.0565886097309517,37.7611866364752,-2.68203564269815,0.178116392501758,1.16303470367375,1.24699698107437,37.8357705077167,-0.103853402194472,1438.58018581462,1635.5698786448
0.84,1.06711727445472,0.0598434083696961,38.3437556220208,-2.84782113577607,0.913189565611186,-0.555342532338219,35.1666380125693,-15.5454575781976,-2.06115515256002,1455.68308628082,1635.5698786448
0.85,1.01843996860274,0.106118125162438,36.2757885660053,-5.16810776914924,-0.775932320893791,-0.668139251599482,-21.1280396629158,-29.9374032608261,2.3855095187253,1471.57860804737,1635.5698786448
0.86,0.886474130904051,0.107880520845037,38.6386292013354,-5.26582795818105,0.0592862929556932,0.891044177921309,-7.36900942627984,38.2932149436274,0.0546628712214504,1486.49913587592,1635.5698786448
0.87,0.751633143178434,0.0643984865489145,41.421181335909,-3.09861587149827,0.752074663668588,-0.0590190415193557,41.3979510926575,3.39489748170643,-1.56364144995484,1500.3566881237,1635.5698786448
0.88,0.655036813579874,0.0675323056580589,42.5577030537156,-3.28075236479204,-0.0295773937535942,-0.657844219577183,5.73387358957024,-42.2970935047097,-3.08378948266384,1513.26469642365,1635.5698786448
0.89,0.584798853301231,0.0084697547332086,42.620562030051,-0.474523720060906,-0.574849564216385,-0.107746991085173,-41.678791241909,-8.92277093349918,1.77056377007655,1525.25113159113,1635.5698786448
0.9,0.587938053959049,-0.00817903643583034,39.2629826570037,0.365977278175106,-0.250396638979796,0.532014638067219,-15.8910326949843,35.9053035968122,0.42598873154769,1536.36729359218,1635.5698786448
0.91,0.546200744127969,0.0654261251866403,38.3036225876696,-3.28006342675686,0.450263069047759,0.316036389351888,26.3215874177709,28.0196423109008,-0.839585166957719,1546.78996616352,1635.5698786448
0.92,0.535539305396577,0.0441890840627143,36.0058050240743,-2.15323938803043,0.460078591461715,-0.277637736004229,33.210143445806,-14.0762497705465,-2.03142726418991,1556.45998500287,1635.5698786448
0.93,0.36703528899054,0.103473652535551,41.8021090796758,-5.08633874306874,-0.10842219582757,-0.365604058491348,4.52120363071577,-41.8670023174332,3.12808404787008,1565.38080011964,1635.5698786448
0.94,0.249448287758245,-0.039884280501654,45.2311894696966,1.91371730358342,-0.200314491116911,-0.153913315685252,-40.6793854592944,-19.8673202374094,2.06739565233944,1573.69380021674,1635.5698786448
0.95,0.303970321974847,-0.0160538190303482,40.193714656332,0.760897048270096,-0.273760053440158,0.133083112705532,-34.8032492460039,20.120822650012,1.06554100250323,1581.46155368103,1635.5698786448
0.96,0.255558777905672,0.0380341799480372,40.4624245788785,-1.85748631154808,0.153588883688697,0.207767520599877,17.3610231925142,36.5958048402819,-0.488832326524329,1588.61737491348,1635.5698786448
0.97,0.165158793974762,0.103028313548791,42.9619831126133,-5.08308572319757,0.181335571563449,-0.0707790301266072,41.285981032822,12.9242997332664,-1.38518497568902,1595.3211821021,1635.5698786448
0.98,0.183405735891146,-0.0414573883416174,40.1479119432305,2.00277354606192,0.17004032496954,-0.0802662250895966,30.4009792836444,-26.2991709731243,-2.23413463019333,1601.52366075913,1635.5698786448
