t,iq,id,vq,vd,ia,ib,va,vb,theta_e,omega,r
0,0,0,0,0,0,0,0,0,0,0,0
0.01,0.0011717122116854,0.000670506334708817,-0.0582525121444847,-0.0336000538998736,-0.00134220510422701,0.000144823030227642,0.0668350139032616,-0.00744309812971589,1.98307410997382,-0.000921122207651695,0
0.02,0.00132028401320495,0.000756068023710393,-0.0657015509467539,-0.0378876915612098,-0.00151261137292743,0.000163693513898682,0.0753778892449975,-0.00838717959836035,1.98306731059649,-0.00100503680502873,0
0.03,0.00134923851820206,0.000772651066358439,-0.0671436534205163,-0.0387186823433586,-0.00154578338662877,0.00016729605783583,0.0770320735627875,-0.00857124259822436,1.98306035463122,-0.00099073603403359,0
0.04,0.00133440525497289,0.000764441583517173,-0.0664174948830161,-0.0383072942825514,-0.00152890243429473,0.000165727684824142,0.0762018640562192,-0.0084857725719555,1.9830539283885,-0.000943678008002763,0
0.05,0.00134870037805036,0.000772671344005833,-0.067133270680699,-0.0387197052100884,-0.00154529630266901,0.000167550149383589,0.077022860191588,-0.00857733127209361,1.98304748440829,-0.00092023254506152,0
0.06,0.00134846827025169,0.000772695785476683,-0.067129607472744,-0.038720923939178,-0.00154509239321318,0.00016767512995009,0.0770199389538495,-0.00858039356286109,1.98304127930002,-0.000886262883861602,0
0.07,0.00138248135619054,0.000792217447293789,-0.0688207845854613,-0.0396991676207937,-0.00158407665764927,0.000171942800668826,0.0789613334332243,-0.00879955244256899,1.98303535105004,-0.000881674351968744,0
0.08,0.00134805572381566,0.000772755968119609,-0.0671238900183372,-0.0387239350127353,-0.00154473655871552,0.000167913623462664,0.07701580655103,-0.00858634353835784,1.98302958869256,-0.000822283285788246,0
0.09,0.00134767854015303,0.000772684039169772,-0.0671121532939296,-0.0387203348719325,-0.00154436122945833,0.000168007335919227,0.0770035633739228,-0.00858817093802601,1.98302408822503,-0.000792031731282808,0
0.1,0.00134743523590014,0.000772680085715807,-0.0671067697316788,-0.038720130919893,-0.00154413583449529,0.000168109352608947,0.0769985036872422,-0.00859054784050233,1.98301880452041,-0.000763069108135567,0
0.11,0.0013472020597761,0.000772676515559786,-0.0671016242211343,-0.0387199386610349,-0.00154391990681018,0.000168207339072451,0.0769936685617833,-0.00859282400767517,1.98301372891493,-0.000735247531079611,0
0.12,0.00134697782759333,0.000772673086555798,-0.067096668373605,-0.0387197785662029,-0.00154371226313237,0.0001683015608081,0.0769890217957045,-0.00859503821945266,1.98300885321216,-0.00070852170692539,0
0.13,0.00140636705049129,0.000806687416579915,-0.0700427776281607,-0.0404243009478357,-0.00161175339678961,0.000175681122244557,0.0803712064500286,-0.00897685795565671,1.98300392945797,-0.00073005693120039,0
0.14,0.00153751474380498,0.000882393800135755,-0.0766367957540354,-0.0442180639689443,-0.00176224555742323,0.000192512340585761,0.0879327614901168,-0.00981147804001076,1.98299927683347,-0.000811476367220003,0
0.15,0.00134702506052715,0.00077304700786514,-0.0671167449729505,-0.0387385339479937,-0.00154390297248177,0.000168646973347803,0.0770148096819576,-0.00860526338096566,1.98299477499473,-0.000631918137039558,0
0.16,0.00134614318104617,0.000772661621472048,-0.0670782900570101,-0.0387192055141744,-0.00154293986542794,0.000168653540864494,0.076971796685598,-0.00860327772492655,1.98299064508302,-0.000608716992241277,0
0.17,0.00134595816070558,0.00077265749301099,-0.0670741246557521,-0.038719010736349,-0.00154276801845127,0.00016873000065167,0.0769678679980609,-0.00860507330415963,1.98298667853567,-0.000586972586958045,0
0.18,0.00134578328857507,0.000772654807530342,-0.0670702641488806,-0.0387188508196894,-0.00154260607360945,0.000168803474700391,0.0769642339665437,-0.00860676662522621,1.98298286821354,-0.000566086559285929,0
0.19,0.00134561503209282,0.000772652232152935,-0.067066541063143,-0.0387187230075849,-0.00154245025925981,0.000168874166628352,0.0769607399884343,-0.0086084227327048,1.98297920796096,-0.000546023134464082,0
0.2,0.00134545304201654,0.000772649758089393,-0.0670629455835318,-0.0387186272876225,-0.00154230025094933,0.00016894221754434,0.0769573770158967,-0.00861004600514458,1.98297569186735,-0.000526749907179916,0
0.21,0.00134529782404181,0.000772647381344605,-0.0670595102320231,-0.0387184994986098,-0.00154215650951718,0.000169007430085489,0.0769541490960407,-0.00861156506606101,1.98297231425526,-0.00050823575552808,0
0.22,0.0013451488924896,0.000772645098094702,-0.0670562178469077,-0.0387183717208205,-0.00154201858755837,0.000169070003845328,0.0769510533103983,-0.00861301660649857,1.98296906967039,-0.000490450783359295,0
0.23,0.00134500541243945,0.00077264290466618,-0.0670530333937848,-0.0387182760214938,-0.00154188571776481,0.000169130278115131,0.0769480703606491,-0.00861444444855202,1.98296595287369,-0.00047336627197915,0
0.24,0.00134486800599557,0.000772640797529718,-0.0670499944615097,-0.0387181482612857,-0.00154175846791998,0.000169188008307062,0.0769452089511526,-0.00861577515577354,1.9829629588319,-0.000456954633774768,0
0.25,0.00134473581822524,0.000772638773293984,-0.0670470645357747,-0.0387180525706071,-0.00154163605255216,0.000169243541343637,0.0769424612752507,-0.00861708248951923,1.98296008271069,-0.00044118936766789,0
0.26,0.00135394059833325,0.000777922689586025,-0.0675061865043714,-0.0389828378552656,-0.00155218621866521,0.000170401870217249,0.0774691817969681,-0.00867598612961141,1.9829573274295,-0.000433681900248484,0
0.27,0.00130432514397275,0.000749653759394067,-0.0650534852384158,-0.0375662418899092,-0.00149540099344775,0.000164379770557886,0.0746543791838223,-0.00836074997078776,1.98295462303328,-0.000378574305850382,0
0.28,0.00126972017238559,0.000729573682955821,-0.063257976270607,-0.0365599954723825,-0.00145564965137735,0.000159847325500384,0.0726061179179071,-0.00815821498149471,1.98295203789906,-0.000336333782139689,0
0.29,0.00134398526558009,0.000772480821705092,-0.0670229853539047,-0.0387101535389285,-0.00154088331548963,0.000169415530705548,0.0769171445090633,-0.00862029195149521,1.98294966824733,-0.00038388215385701,0
0.3,0.00134261225371358,0.000771769221330847,-0.0669576163143045,-0.0386745015781149,-0.00153933987557603,0.000169316692257556,0.0768429501473774,-0.00861396932063888,1.98294761076081,-0.000371563752461705,0
0.31,0.00134405231455231,0.000772625385425884,-0.0670317500176625,-0.0387173911849683,-0.00154100192599004,0.000169527798761497,0.0769280371840865,-0.00862374545102454,1.98294534070881,-0.000360377454838003,0
0.32,0.00134395735987236,0.000772626849598802,-0.0670297849127906,-0.0387174759435047,-0.00154091513909661,0.000169570539832026,0.076926251764484,-0.00862477816283177,1.98294315848372,-0.00034842030181175,0
0.33,0.00134386137724787,0.000772625384285472,-0.0670276604623388,-0.0387173802519002,-0.00154082625125226,0.000169610875691171,0.0769242487955793,-0.00862570274589983,1.98294106219974,-0.000336929675075289,0
0.34,0.00134376863424561,0.000772623966594495,-0.0670255916436303,-0.0387173165984993,-0.00154074036467978,0.00016964982989951,0.0769223103424233,-0.00862662804060934,1.98293904847791,-0.00032589159054061,0
0.35,0.00134367961653243,0.000772622604663717,-0.0670236068836751,-0.0387172529399813,-0.00154065792710418,0.000169687220417856,0.0769204495881852,-0.00862751355069178,1.9829371140667,-0.000315288240809789,0
0.36,0.001343594207693,0.000772621296335858,-0.0670217044252471,-0.0387171892762108,-0.00154057883048095,0.000169723096754143,0.0769186648961764,-0.00862836022108695,1.98293525584226,-0.00030510250391996,0
0.37,0.00134351217489669,0.00077262003950203,-0.0670198764619117,-0.0387171256078347,-0.00154050286013701,0.000169757554899467,0.0769169490883651,-0.00862917141101076,1.98293347080418,-0.000295317932197784,0
0.38,0.00134343340172818,0.000772618832137103,-0.0670181209169405,-0.0387170619345515,-0.00154042990811867,0.000169790644104302,0.0769153002372523,-0.00862994817451969,1.98293175606977,-0.000285918725760137,0
0.39,0.0013433576553568,0.000772617672295161,-0.0670164296760673,-0.0387169982566525,-0.0015403597598544,0.000169822460145291,0.0769137108845275,-0.00863069397581849,1.98293010887028,-0.000276889707002469,0
0.4,0.00134328468295125,0.000772616558106589,-0.0670147935563282,-0.0387169665998669,-0.0015402921824943,0.000169853106709499,0.076912185421798,-0.00863144204264053,1.98292852654582,-0.000268216296089241,0
0.41,0.00134321499017478,0.000772615487775677,-0.0670132411393268,-0.0387169029103639,-0.00154022763821983,0.000169882383562431,0.076910724358006,-0.00863212243280488,1.98292700654136,-0.000259884487409784,0
0.42,0.00134314797494949,0.000772614459577034,-0.0670117454601875,-0.0387168392165585,-0.00154016557426814,0.000169910534098699,0.076909315794607,-0.00863277548342434,1.9829255464022,-0.00025188082696541,0
0.43,0.00134308315161016,0.000772613471852759,-0.067010285272253,-0.0387168046297067,-0.00154010554458335,0.00016993775499008,0.0769079519045787,-0.00863343656064063,1.9829241437708,-0.000244192390642469,0
0.44,0.0013430214914878,0.000772612523010564,-0.0670089120639752,-0.0387167409248175,-0.00154004843815345,0.000169963659209768,0.0769066565232833,-0.00863403186505185,1.98292279638205,-0.000236806763342834,0
0.45,0.00134296179042644,0.000772611611520476,-0.0670075684580881,-0.0387167092347774,-0.00153999315067106,0.000169988731061433,0.0769054015463541,-0.00863464056169653,1.98292150206023,-0.000229712018936068,0
0.46,0.00134290490333044,0.000772610735913105,-0.0670062998482601,-0.0387166455200524,-0.00153994046452424,0.000170012629995528,0.0769042028972862,-0.0086351859512907,1.98292025871543,-0.000222896701002474,0
0.47,0.00134284985888104,0.000772609894776115,-0.0670050602938976,-0.0387166138173293,-0.00153988948882084,0.000170035746894252,0.0769030441151684,-0.00863574526543726,1.98291906433987,-0.000216349804334018,0
0.48,0.00134279702632244,0.000772609086753242,-0.0670038707112087,-0.0387165821077042,-0.00153984056102405,0.000170057935596137,0.0769019315230147,-0.00863628093663796,1.98291791700481,-0.000210060757161243,0
0.49,0.00134274628923933,0.00077260831054117,-0.0670027276879387,-0.0387165503916633,-0.00153979357363453,0.000170079244404133,0.0769008619786046,-0.00863679447491262,1.9829168148576,-0.000204019404084155,0
0.5,0.00134269790045876,0.000772607564888373,-0.0670016461597391,-0.0387164866572902,-0.00153974875751268,0.000170099573653963,0.0768998363294031,-0.0086372507032052,1.98291575611864,-0.000198215989672748,0
0.51,4.60670780152637,-0.0113403012469928,9.66647343951948,0.575157591396501,-0.294839557535851,4.59727691208484,-0.020857779917448,9.68354686903996,0.0615841202287875,18.9123949915655,1824.25977125029
0.52,4.51618508026316,-0.0627276712709799,14.1947022854437,3.15846412761493,-1.30078920402653,4.32525258067349,-0.861919401780024,14.5162861491032,0.278249623834264,40.2327136654972,1824.25977125029
0.53,4.49544419823272,-0.000389021298750736,15.233871613658,0.0440549639289794,-2.73260987600379,3.56957447832768,-9.22406157304162,12.1239215305114,0.653278765800862,62.2976887309214,1824.25977125029
0.54,4.52122146233994,0.0862292825795792,13.9473288779783,-4.29587687397335,-4.17679054754047,1.73300309367124,-14.5524134203649,1.09991117350925,1.19657052177032,86.140434165425,1824.25977125029
0.55,4.44032033723254,-0.000434797086048544,17.9946803574909,0.0574633194353045,-4.1863059969573,-1.48029962714607,-16.9850099922821,-5.94316908420298,1.91058138037752,108.241130222627,1824.25977125029
0.56,4.50223377617002,0.0216242907000837,14.9013716955891,-1.03265623115295,-1.60241663694138,-4.20747400549165,-4.26983719414973,-14.3138306416311,2.7825060492603,130.0361692556,1824.25977125029
0.57,4.50332585678516,0.111524923956135,14.8492113322762,-5.53915347534379,2.74592877397958,-3.57103020839705,13.6464044249968,-8.05958712859664,-2.46131611610889,152.941370708259,1824.25977125029
0.58,4.48732810961044,-0.0334519457316942,15.6516251397285,1.731586744598,4.26381607730751,1.39896570896761,15.4351143592579,3.11913559905311,-1.26121614313401,175.076571706801,1824.25977125029
0.59,4.4350671339611,0.065692415312075,18.2672303623013,-3.21868351419855,-0.396859055951488,4.41776401201793,-5.1048492416684,17.8323341964476,0.104403040467961,196.997220679213,1824.25977125029
0.6,4.42112795423082,0.071146139980734,18.9668979091208,-3.49335212517526,-4.41716198180915,-0.200285264997854,-18.7167886672597,-4.65065020729528,1.63219872954788,219.528369686988,1824.25977125029
0.61,4.48339668443214,0.0997832808291563,15.8561578762264,-4.92698365142691,0.707708568840528,-4.42831244546947,7.69679937578403,-14.7123142253751,-2.96086575417383,241.898520152304,1824.25977125029
0.62,4.39355587961613,-0.0131353138366508,20.3509955577164,0.733969768147569,3.92588808718395,1.9725386005567,18.5394676159979,8.42554878486343,-1.10818516186963,264.061170756338,1824.25977125029
0.63,4.46925811469858,0.0988502952947008,16.5687227263561,-4.86985087231276,-3.45920063143453,2.83160210272593,-16.0505413959918,6.37323632050372,0.906947826415201,286.16401222097,1824.25977125029
0.64,4.44496728784883,0.0755487418906107,17.786087055615,-3.69221044662147,-0.329648888942047,-4.43337043483473,2.6689158102811,-17.9681440090424,3.08436779692792,308.22574559513,1824.25977125029
0.65,4.45953686607052,-0.016420754176231,17.0605952273299,0.934669148937031,3.36769795238498,2.9234139635898,13.5347230674105,10.4282686682533,-0.859584160344878,330.102562545317,1824.25977125029
0.66,4.38591496795556,0.0391792299520282,20.7446658098927,-1.83220577477118,-4.37781649673711,-0.26927279679297,-20.5645182811861,-3.28614141935478,1.64116013327197,352.0069508207,1824.25977125029
0.67,4.37815558053788,0.104820977141252,21.1357362748264,-5.1505089300994,3.97558350119953,-1.83683683261032,21.4412141324344,-3.67714925521692,-1.97967159007789,374.328401564793,1824.25977125029
0.68,4.36278629048261,0.0537862778060008,21.9073004737326,-2.56408443741447,-3.22535970833538,2.93834169761618,-18.0785224745674,12.6361136503735,0.844258201320247,396.153665549725,1824.25977125029
0.69,4.26791283945869,0.0644107188761633,26.6540521774213,-3.11459268553949,2.65820146331519,-3.33963975996686,19.3193096955155,-18.6253445058682,-2.45423261271993,418.239834061301,1824.25977125029
0.7,4.39259938859452,0.00608198976610641,20.4229041947265,-0.1517524762292,-2.79853007403534,3.3857341602672,-13.150060246909,15.6267066288352,0.692115255134097,440.066896249415,1824.25977125029
0.71,4.37831767216409,0.0976437544686629,21.140264118448,-4.7623044768078,3.24660523506908,-2.93917580093351,19.1010915768514,-10.2341883654886,-2.28423801275315,462.194114436462,1824.25977125029
0.72,4.36304725006144,0.0234044008762894,21.9071125111273,-1.02801571924109,-4.03044136453628,1.67100912004812,-20.6701184530625,7.3297065446415,1.18313413934177,483.969282006514,1824.25977125029
0.73,4.31008096436992,0.0584968744760159,24.5587434958875,-2.74589238331456,4.29489410087442,0.366202766266859,24.1689984586556,5.15085629609707,-1.47216610540286,505.723040272203,1824.25977125029
0.74,4.2678547564937,0.00718152319368981,26.6734179596558,-0.172386772566248,-3.14119860561699,-2.88920527427028,-19.4846411878026,-18.2167423166831,2.31611434647743,527.592241891625,1824.25977125029
0.75,4.25697984006791,0.0965668339594135,27.2206059009055,-4.64607849033116,0.176450998648239,4.2544174169023,-4.13434419085005,27.3030150178019,-0.0187705535937655,549.428623055985,1824.25977125029
0.76,4.30170351462507,0.168088146956933,24.9879067204991,-8.217013548911,3.39596992649907,-2.64580706235338,25.0893655721055,-7.90180543449408,-2.19360915920606,571.235100055265,1824.25977125029
0.77,4.23221348019874,-0.00411573290035938,28.4658947491562,0.418876441632908,-3.70439467782463,-2.04673104049795,-25.1313611369169,-13.3752498574515,2.07459537709178,593.091832209052,1824.25977125029
0.78,4.22217258454558,0.0427182514402088,28.9714713933265,-1.98292594822067,-0.877645079142336,4.1301701293956,-8.24361443173463,27.8445860287302,0.219498923737944,615.032176887748,1824.25977125029
0.79,4.24652048709044,0.0914563252119014,27.7576909263787,-4.39237076319262,4.23610916981009,0.3109334464977,27.2172619191696,7.00021286169456,-1.47599356691388,636.704828343855,1824.25977125029
0.8,4.25335588812594,0.100035078815843,27.4196253719209,-4.77675296362251,0.448501663551831,-4.23082611151067,8.26780456079223,-26.5762418742099,-3.0124642750679,658.29013063376,1824.25977125029
0.81,4.29027974207022,0.180827095099623,25.5771431613014,-8.87492171197008,-4.12626238156919,-1.18876299655869,-21.4436829275449,-16.5264318650525,1.89342045868681,680.16106573284,1824.25977125029
0.82,4.24175937266206,0.0630074383033881,28.0068979505586,-2.90682891180186,-2.60137929882165,3.35101749570338,-19.7702520814736,20.0492673125598,0.674971827262783,701.678289056677,1824.25977125029
0.83,4.17529049994591,0.0962781448633931,31.3341179812215,-4.61179590046739,2.84981310229333,-3.05301253225632,25.2013958567848,-19.1829418483794,-2.36755005368451,723.443435109776,1824.25977125029
0.84,4.25032985969942,0.0569852043508489,27.5859999891062,-2.66446334202612,-0.593872836776391,-4.20902201033762,-0.844455637129179,-27.7015099764776,3.01482915882113,745.136523801549,1824.25977125029
0.85,4.21678384561057,0.195211926290506,29.2671704267774,-9.5128649513821,-3.34639276071733,-2.57313606087726,-16.2102245580569,-26.1589465413009,2.27256289437736,766.638782788948,1824.25977125029
0.86,4.20705125366509,0.123756743733178,29.757663143493,-5.92536333098,-4.19237981934876,-0.372219603059356,-28.8535287024049,-9.38628402432097,1.68875695891787,788.217129873464,1824.25977125029
0.87,4.2380258429022,0.175625698985549,28.2129147339547,-8.51992707514163,-3.98603234005941,1.45025984404574,-29.468310391523,0.419997404741011,1.26326625742902,809.784668767441,1824.25977125029
0.88,4.23455953839367,0.057035168865326,28.390182381751,-2.56833988350168,-3.52280328599952,2.3504477239112,-25.2227687269197,13.2819713587476,0.995886187179403,831.365884726189,1824.25977125029
0.89,4.14808174746366,0.220377303220894,32.7181407825509,-10.7477436643983,-3.07481815325815,2.79296288264098,-32.1457297990394,12.3548689118737,0.886473280591777,852.898451310304,1824.25977125029
0.9,4.06057118499387,0.17292841432097,37.0977787135513,-8.45593690031666,-3.16395875179222,2.55098169374841,-34.8672339614404,15.2323356784157,0.934809854145283,874.490379190411,1824.25977125029
0.91,4.1461257309679,0.170448139727561,32.8241870486345,-8.30938821493756,-3.69743713310708,1.88371170619381,-33.299370543395,6.13393098461055,1.14069317030864,896.011312094305,1824.25977125029
0.92,4.16941022659236,0.0887442128887119,31.6640941851926,-4.14996626660078,-4.15423096556022,0.366363559479881,-31.8702452589636,-2.03089825352768,1.50411481931603,917.392742169875,1824.25977125029
0.93,4.13604633787088,0.184826981821828,33.3365200066551,-9.03306898683265,-3.79802867434544,-1.64803474207138,-25.996646860221,-22.7397065394423,2.02485383539886,938.913516098025,1824.25977125029
0.94,4.07664504188179,0.14751340605718,36.3107489078589,-7.10512967049942,-1.8649440017819,-3.62805441975223,-8.98909315689558,-35.8908004661479,2.70295005487331,960.339491472526,1824.25977125029
0.95,4.11121372916987,0.121035682395794,34.5865691022933,-5.83046101055353,1.47656511534055,-3.83881276223355,18.7389871822315,-29.649205676501,-2.74496455354749,981.840593340317,1824.25977125029
0.96,4.15970579236568,0.215021964352399,32.1662619607214,-10.4343647666614,-2.50674286170919,-3.3265037125283,-9.36014086005074,-32.4951094734193,2.54745833959146,1003.13332695105,1824.25977125029
0.97,4.12660358570727,0.092536674263201,33.8256216546875,-4.3371393786711,2.09644442308188,-3.55560697639442,21.5148256313473,-26.4593222960983,-2.58642243206918,1024.62247756758,1824.25977125029
0.98,4.01568197629541,0.1410595725716,39.3759966251642,-6.8092727331386,3.88764795710915,1.01577207056651,35.7725584619915,17.808968708564,-1.28011516681945,1046.07219616011,1824.25977125029
