t,iq,id,vq,vd,ia,ib,va,vb,theta_e,omega,r
0,0,0,0,0,0,0,0,0,0,0,0
0.01,0.000845496379760995,0.000481508042708777,-0.0419431830053537,-0.0241057156252818,-0.000606215711561662,-0.000761062832122272,0.0302895584469264,0.0377208003032515,2.98665520169595,-0.00116784708821897,0
0.02,0.000937010361324737,0.00053362959421316,-0.0465276214578473,-0.0267150720628649,-0.000671842531401562,-0.000843431428184863,0.0335754848480863,0.0418473589496963,2.98664649843597,-0.00124292886965459,0
0.03,0.000972413220436308,0.000553881785173193,-0.0482877306954094,-0.0277289553640968,-0.000697323467886702,-0.0008752785181646,0.0348492387305476,0.0434296035118645,2.98663763673278,-0.00123664213921807,0
0.04,0.000951337346596903,0.000542288065687109,-0.0472539347116736,-0.0271485465090198,-0.000682622950992387,-0.000856238868537949,0.0341165824362364,0.0424974908219181,2.98662940197488,-0.00115351083362129,0
0.05,0.000971957765660388,0.000554194731632866,-0.0482821656203714,-0.0277446116397207,-0.000697576669595904,-0.000874768820222031,0.0348645582309768,0.0434211189559957,2.98662129225025,-0.00113089118574202,0
0.06,0.000972274648011285,0.000554631619108355,-0.0483059151089761,-0.0277665055964133,-0.000698064052975666,-0.000875009029681071,0.0348901941844365,0.0434409325098296,2.98661349781499,-0.00108122522029536,0
0.07,0.000998173646068435,0.000569701320424734,-0.049594387210702,-0.0285209250654636,-0.000716957501702327,-0.000898266198268641,0.0358347875907251,0.044597246638357,2.98660614472387,-0.00107102968363371,0
0.08,0.000972392550086024,0.000555198648011522,-0.0483267563422668,-0.0277948874295964,-0.000698655192234005,-0.000875027846746084,0.0349220839679389,0.04345663582383,2.98659897603756,-0.000988015663322001,0
0.09,0.000970975575880875,0.000554659260614016,-0.0482636762304466,-0.0277678780497074,-0.000697909431624467,-0.000873706409265548,0.0348859537354445,0.043398245663036,2.98659221789049,-0.000942530106008461,0
0.1,0.000970522594299109,0.00055463643929201,-0.0482479410371976,-0.0277667274531862,-0.000697822575878104,-0.0008732578877001,0.0348826670966484,0.0433826521090265,2.98658577820804,-0.000900472567769121,0
0.11,0.00097012534429399,0.000554632856530296,-0.0482346491089274,-0.027766551661485,-0.000697763064312732,-0.000872861670177695,0.0348807075542986,0.0433693325558829,2.98657963929568,-0.000860429171209564,0
0.12,0.000969748001329046,0.000554630112694185,-0.0482220434911905,-0.0277664137743919,-0.000697707200331902,-0.000872485192191743,0.0348788788386553,0.0433566952536215,2.98657378700175,-0.000822257281384801,0
0.13,0.00101588176750622,0.000581104114986609,-0.0505096912725243,-0.0290917776978452,-0.000730992060505857,-0.000913973941359016,0.0365418242021985,0.0454120636620071,2.98656796365146,-0.00085087426956277,0
0.14,0.00106454926715153,0.00060950086895136,-0.0529751189931899,-0.0305134172920717,-0.000766568057967383,-0.00095766897409775,0.0383273520354035,0.047628205436873,2.98656242444601,-0.000884947086155911,0
0.15,0.000972374570615191,0.000556651927871552,-0.0483692201954589,-0.027867629976392,-0.000700124916315207,-0.000874756409485988,0.0350023313185137,0.0434858950130601,2.98655708969159,-0.000718650728763045,0
0.16,0.000968505102306863,0.00055469518623835,-0.0481828204764621,-0.0277696658423702,-0.000697598330045223,-0.000871232146301169,0.0348769675848264,0.0433166903416091,2.9865522791038,-0.000682176501236821,0
0.17,0.000968072044974239,0.000554620773860051,-0.0481661306493493,-0.0277659573697278,-0.000697461921772762,-0.000870812583013574,0.034870924466147,0.0433006138208686,2.98654770377606,-0.00065213618789206,0
0.18,0.000967785648414378,0.000554616073891581,-0.0481564716767377,-0.0277657090052988,-0.000697416848172485,-0.000870527306051285,0.0348693763040805,0.043290956989697,2.98654334247466,-0.000623681772904667,0
0.19,0.000967517439008775,0.000554614042916859,-0.0481475002335612,-0.0277656117704024,-0.000697377040553854,-0.00087025972829669,0.0348680747384359,0.0432819632151816,2.98653918481004,-0.000596562946551066,0
0.2,0.000967261918876464,0.000554612197145192,-0.0481389543967639,-0.0277655203682326,-0.000697339204517122,-0.000870004794684618,0.0348668361907775,0.0432733958198099,2.9865352212593,-0.000570710520693937,0
0.21,0.000967018389518819,0.000554610440696101,-0.0481308090559078,-0.0277654289770318,-0.000697303145635755,-0.000869761823537441,0.0348656514332306,0.0432652305759639,2.98653144275917,-0.000546065104796018,0
0.22,0.000966786004048404,0.000554608766190277,-0.0481230311764313,-0.0277653577348119,-0.000697268733603704,-0.000869529973202574,0.0348645356429376,0.0432574314326706,2.98652784066992,-0.00052257033569218,0
0.23,0.000966564710011022,0.000554607169700027,-0.0481156270098271,-0.0277652663559043,-0.00069723596384036,-0.000869309186681568,0.0348634503473797,0.0432500104998704,2.98652440675533,-0.000500172491562587,0
0.24,0.000966353686751272,0.000554605647593608,-0.0481085639395321,-0.0277651980226794,-0.000697204713054907,-0.000869098648218098,0.0348624335202241,0.0432429286081621,2.98652113316354,-0.000478820359131606,0
0.25,0.000966152442376596,0.000554604196412463,-0.0481018254422539,-0.0277651296856156,-0.000697174908560266,-0.000868897867106693,0.0348614601667691,0.0432361727304452,2.98651801240937,-0.000458465116181127,0
0.26,0.000975851439128563,0.000560218779455429,-0.0485845423612495,-0.028046213349031,-0.00070422274976841,-0.000877611207091407,0.0352138569798112,0.0436695788424484,2.98651506601574,-0.000453407894991064,0
0.27,0.000943133005786325,0.000541573786802888,-0.0469694100748587,-0.027112787015486,-0.000680750414880068,-0.000848163254212409,0.0340422881566013,0.0422179028326878,2.98651212726627,-0.000387658827265078,0
0.28,0.000939275263179175,0.000539333176091887,-0.046732042836292,-0.0270006123402501,-0.00067794312033451,-0.000844696052106779,0.0338949100015141,0.0420006186905712,2.98650941336805,-0.000364683410304417,0
0.29,0.000964417205727,0.000554034389796504,-0.0480274183063254,-0.0277365874666414,-0.000696353546910861,-0.00086726373698208,0.0348222468691756,0.0431666806280909,2.9865069186445,-0.000384644530337658,0
0.3,0.000959284831406189,0.000551277691620107,-0.0477757454698203,-0.0275985823886187,-0.000692838963953277,-0.000862617325974933,0.0346471131586483,0.0429392728726308,2.98650483042772,-0.000363867334727268,0
0.31,0.000964918592800102,0.000554474172613691,-0.04805677841283,-0.027758614204604,-0.000696869341930677,-0.000867688088603314,0.0348487356846162,0.0431921316348666,2.98650248884515,-0.000356878021761975,0
0.32,0.000964997711869735,0.000554591387286594,-0.0480629994117653,-0.027764490237806,-0.000696999323279086,-0.00086774658404098,0.034855599320176,0.0431972918902554,2.98650023925716,-0.000342526072438872,0
0.33,0.000964868089482418,0.000554594762987845,-0.0480587881104716,-0.0277646630830213,-0.000696984496749469,-0.000867616500837717,0.0348552122242374,0.0431930296641051,2.98649809402653,-0.000328546162131934,0
0.34,0.000964736752502476,0.000554593973120373,-0.0480543879327174,-0.0277646005023791,-0.000696965202372739,-0.00086748543695672,0.0348545590089187,0.0431886206880772,2.98649604892633,-0.000315207395160294,0
0.35,0.00096461108789342,0.000554593071844449,-0.0480501688587533,-0.0277645550938569,-0.000696946590829386,-0.000867360061194938,0.0348539465948887,0.0431843913199569,2.98649409930709,-0.000302490941594768,0
0.36,0.000964491095665745,0.000554592207115814,-0.0480461354874544,-0.0277645326681387,-0.000696928812234806,-0.00086724034759061,0.0348533816282088,0.0431803450500039,2.9864922407118,-0.000290368177220705,0
0.37,0.000964376839756906,0.000554591382512197,-0.0480422956129578,-0.0277644872331888,-0.000696911883749869,-0.000867126355789348,0.0348528200585867,0.0431764965351348,2.98649046889073,-0.000278811400527776,0
0.38,0.000964268171782637,0.000554590596359183,-0.0480386461843603,-0.0277644417857035,-0.000696895784369755,-0.00086701793661419,0.0348522843122846,0.0431728390670981,2.98648877979259,-0.000267794187299999,0
0.39,0.000964164393251008,0.000554589846872958,-0.0480351564050811,-0.0277643963278848,-0.000696880407829129,-0.000866914397533899,0.0348517698024826,0.0431693420837894,2.98648716955512,-0.000257291346394448,0
0.4,0.000964065355779702,0.00055458913234525,-0.0480318228457561,-0.0277643738436441,-0.000696865732756288,-0.000866815589638386,0.0348512988678891,0.0431659985177779,2.98648563449677,-0.000247278862767653,0
0.41,0.00096397112330314,0.000554588451146563,-0.0480286524297173,-0.0277643283618855,-0.000696851770504713,-0.000866721573893201,0.0348508273118347,0.0431628221885671,2.98648417110714,-0.000237733842592457,0
0.42,0.000963881049805902,0.000554587801724157,-0.0480256164905749,-0.0277643029401352,-0.000696838422678755,-0.000866631709940702,0.0348503933920943,0.0431597780053101,2.98648277604057,-0.000228634460908602,0
0.43,0.000963795225472697,0.000554587182596392,-0.0480227229770087,-0.0277642804145385,-0.000696825704547299,-0.000866546084883159,0.0348499815177161,0.0431568763614617,2.9864814461068,-0.000219959911720773,0
0.44,0.000963713682264395,0.000554586592351905,-0.0480199766867695,-0.0277642348987548,-0.000696813622321568,-0.000866464728391867,0.0348495669866949,0.0431541258902435,2.98648017826529,-0.000211690360424034,0
0.45,0.000963635715964742,0.000554586029643713,-0.048017345618411,-0.027764212348411,-0.000696802068417792,-0.000866386942888422,0.0348491903851191,0.0431514877735092,2.98647896961678,-0.000203806898453951,0
0.46,0.00096356135853984,0.000554585493188491,-0.0480148342831248,-0.0277641897857127,-0.000696791048927244,-0.000866312758223688,0.0348488298281295,0.0431489699216921,2.98647781739782,-0.000196291500049604,0
0.47,0.000963490609989686,0.000554584981762144,-0.0480124455469719,-0.027764167210577,-0.000696780564947573,-0.000866242172747181,0.0348484858729429,0.0431465750745192,2.98647671897383,-0.000189126981036487,0
0.48,0.000963423062860657,0.000554584494197471,-0.0480101617089591,-0.027764144624384,-0.000696770554574474,-0.000866174782324015,0.0348481558953476,0.0431442856556655,2.9864756718331,-0.000182296959536338,0
0.49,0.000963358717152752,0.000554584029382012,-0.0480079853602614,-0.0277641220269417,-0.000696761018802816,-0.000866110585454679,0.0348478403994521,0.0431421041416885,2.98647467358139,-0.000175785818510188,0
0.5,0.000963297281822376,0.000554583586254975,-0.0480059044251247,-0.0277640965089771,-0.000696751913614772,-0.000866049293160592,0.0348475347443513,0.0431400189716606,2.98647372193605,-0.000169578670046605,0
0.51,4.66861238423145,-0.0293359394243028,6.57059933009618,1.47531002778496,-0.326287070933327,4.65728879702375,1.05430917697724,6.65114632180685,0.0636615869559808,19.615687128547,2982.08037675044
0.52,4.59583841818821,0.0224151640480836,10.2107106868414,-1.10799565507637,-1.28618736616889,4.41225058952702,-3.96750007466418,9.47339486454486,0.288521146801929,41.7649976207347,2982.08037675044
0.53,4.61201900571992,-0.0141006342166206,9.4031142659675,0.729033426034772,-2.90276965078229,3.58397077157506,-5.3279281157699,7.78223808607178,0.677709910421852,64.6238563021198,2982.08037675044
0.54,4.56161418505395,0.0459953872127157,11.9249205885354,-2.27732134139044,-4.30095763292574,1.52059297272744,-12.019858847636,1.7067269312147,1.24104741832254,89.3753400618963,2982.08037675044
0.55,4.62954454190884,0.0333611638052798,8.52998532173183,-1.63513813353611,-4.25471305029309,-1.82516094973404,-7.1592799615765,-4.91721839422183,1.98323412126915,112.628974418291,2982.08037675044
0.56,4.58648468244944,0.071664462542953,10.6845541164061,-3.54019406810456,-1.21076934341161,-4.42436607149426,0.769943538906819,-11.229419292784,2.89009708693808,135.067996363053,2982.08037675044
0.57,4.63356355507427,0.0476725775384199,8.33235032059871,-2.33884781478951,3.38227315509185,-3.16739833268673,7.72120743022728,-3.9091209734837,-2.3131111195009,159.186151175642,2982.08037675044
0.58,4.56096727273849,0.00495145794871998,11.9639224065631,-0.184107485883182,3.99190181255085,2.20616565535787,10.3756771957431,5.95941755932215,-1.06482733797703,181.735062901111,2982.08037675044
0.59,4.65793158038462,0.0302211023031896,7.11751662855097,-1.44505071056516,-1.59304297058301,4.3771513586401,-3.83220771603729,6.16939207174813,0.355531696648792,205.085391582689,2982.08037675044
0.6,4.59508575228837,0.0130862743045852,10.2616787388196,-0.588256234029438,-4.28319086397583,-1.66410947482813,-9.33990189714321,-4.29119196580127,1.94421586763991,228.63530449301,2982.08037675044
0.61,4.5878209607039,0.0749585192136724,10.6267916906088,-3.68182673896337,2.37694695131239,-3.92477300461103,8.77047550954396,-7.04012138445265,-2.58070907648406,251.718441433268,2982.08037675044
0.62,4.56150911016068,0.0333463853386515,11.9443637765081,-1.58359636885984,2.79608398742963,3.60421859474889,5.99390964760251,10.4522079304519,-0.652487508890116,274.588741647026,2982.08037675044
0.63,4.54211994216792,0.0128545939717426,12.9158514663174,-0.543735703848193,-4.50463510397493,0.582478660263623,-12.8820471433315,1.08061510844435,1.44503342368182,297.59387882026,2982.08037675044
0.64,4.57818411357315,0.0435473480890768,11.1146824628532,-2.08361820141533,2.43394490793843,-3.87783165369769,7.75219317875639,-8.23292973239591,-2.57157393445714,320.750792711427,2982.08037675044
0.65,4.53011891596199,0.0116823065385006,13.5200729679029,-0.489904139272337,0.625470836583794,4.4867471626587,1.34677946225705,13.4617444710237,-0.135932621814085,343.927436363588,2982.08037675044
0.66,4.55571580019432,0.0444454887199117,12.2423358312385,-2.11814315762038,-2.87479761718102,-3.53441091468692,-5.97572745676573,-10.8927498090912,2.46850559703603,366.918521282903,2982.08037675044
0.67,4.50464161349474,0.0535593591815342,14.7981904947661,-2.55527871976731,3.91571861936535,2.2275125959105,11.4849155234606,9.67536080330112,-1.04169614588142,389.661454888362,2982.08037675044
0.68,4.44119967687459,0.0373747922963557,17.9725259055937,-1.74097745859113,-4.21550388078794,-1.39827696685312,-16.4483626763553,-7.44943321371768,1.89949022331583,412.712770763903,2982.08037675044
0.69,4.51667780024487,0.0658014242268194,14.2009836145106,-3.1653790838548,4.33836669869703,1.2582855662733,12.6539036614079,7.18096668227283,-1.2739375364497,435.713281913324,2982.08037675044
0.7,4.50758981148177,0.0969606476106029,14.6577240374015,-4.69867384509369,-4.13313230292202,-1.80138409072075,-11.3383964591233,-10.4099556000458,2.00331976221338,458.46698470845,2982.08037675044
0.71,4.54063208031521,0.0135224759688777,13.0079918522546,-0.527298697497912,3.37277724197042,3.04004872036459,9.28210109039946,9.12844429748631,-0.834258435611129,481.42751447533,2982.08037675044
0.72,4.45473934303889,0.090451246832246,17.3050505437681,-4.39325255009,-1.66563810431677,-4.13261826786846,-2.03466896123755,-17.7376876877855,2.778764292539,504.455996226562,2982.08037675044
0.73,4.44403687160105,0.134583288802558,17.8426587056155,-6.56243666389613,-1.08206325166792,4.31239092582809,-11.1781839528413,15.3777192121968,0.276118712047941,527.082625631181,2982.08037675044
0.74,4.42901538290485,0.140819284134543,18.5962536392159,-6.86986167938327,3.84535774722035,-2.20209698439565,19.6457849159095,-2.6568372072323,-2.05908907137297,549.840748882431,2982.08037675044
0.75,4.4612993447452,0.138022191752186,16.9846369698218,-6.72676398017707,-4.01054105044962,-1.95903099809535,-11.8855182881902,-13.8730566805857,2.05610566942673,572.666535056995,2982.08037675044
0.76,4.4801353713394,0.0827534952028457,16.0454805875016,-3.95348573610255,-0.163423906899404,4.47791845762609,-4.82874901831402,15.804134891464,0.0549484213431004,595.438136209728,2982.08037675044
0.77,4.45173353623214,0.0947735017220832,17.4682227848955,-4.54598381783232,4.33568433663207,-1.01427551844946,18.0309049943257,0.831409177441686,-1.77931445248436,618.17681139547,2982.08037675044
0.78,4.45099217673849,0.100741285339598,17.5080513116829,-4.83188110801956,-1.43461548497157,-4.21465995950313,-0.656946195173727,-18.1506847659036,2.8361368648815,640.867988976887,2982.08037675044
0.79,4.45718888460902,0.0815705265311066,17.2009230634617,-3.90394786494379,-4.31471639056867,1.12089650407109,-17.6369637877285,0.223766659003465,1.33492896755203,663.732761060486,2982.08037675044
0.8,4.4352736322987,0.14211946719768,18.2994289892105,-6.92887822539342,0.14033481212446,4.43533045858216,-6.93624089862513,18.2966394999117,0.00040237508761686,686.503541755131,2982.08037675044
0.81,4.46779420636711,0.0675150306993946,16.6761718813371,-3.15383760436418,4.13645285389157,1.68982281241264,14.1039182125285,9.44038618409797,-1.1678566157943,709.025854612537,2982.08037675044
0.82,4.38688742626304,0.111800033104416,20.7243969065551,-5.4104190486022,3.55971130882904,-2.56626887443649,20.1656826503685,-7.21931469507549,-2.16994581680037,731.828222620519,2982.08037675044
0.83,4.38553950935023,0.0521003544616829,20.7947316715437,-2.37666266724844,-1.20578300626056,4.21684225183017,-8.23126624625761,19.2435871580279,0.290391994330168,754.299122139424,2982.08037675044
0.84,4.4424499479764,0.129928177515209,17.952143584046,-6.3013358804871,1.76876925699389,4.07721696590962,0.808453330280156,19.008753150948,-0.380076995677082,777.068686417137,2982.08037675044
0.85,4.40270045953704,0.122478417894314,19.942537410416,-5.87267481028554,3.48416673094443,2.69431892882739,11.7101764558345,17.1774525226072,-0.884735162405692,799.528914978717,2982.08037675044
0.86,4.42037575090505,0.212735775023833,19.0617821575884,-10.3970861554686,4.22910663057058,1.30370065445574,14.3879650511616,16.2615313311552,-1.22368198623355,822.115632066327,2982.08037675044
0.87,4.39448023404762,0.164931912911887,20.3595394988878,-8.01872319926545,4.35687763966501,0.596888847541217,18.6677036668859,11.4161118669425,-1.39713068215933,844.781417768263,2982.08037675044
0.88,4.31449092087868,0.137686738437873,24.3620909261047,-6.66507665384714,4.27811442280552,0.575783405170404,22.929198651089,10.591816195174,-1.4051103224202,867.357366968623,2982.08037675044
0.89,4.31750572051177,0.149721980925713,24.214507080849,-7.26456913607986,4.1421200546772,1.22723826980141,20.6607166968284,14.5688401554402,-1.24808943529511,889.863953505439,2982.08037675044
0.9,4.37459630399388,0.155543274382251,21.3631310207754,-7.54153205545108,3.59009298950367,2.50449972246736,12.5436554161707,18.8657038446643,-0.926132332497167,912.353018966057,2982.08037675044
0.91,4.30176579212162,0.158322965434099,25.007851511512,-7.66427744813431,1.97264212391996,3.82608653098543,3.6979841386213,25.8932172457252,-0.439243815589828,934.785817217918,2982.08037675044
0.92,4.3908293808434,0.166601961587872,20.5579357418952,-8.04329945948512,-0.762287055500034,4.32736147210972,-12.1942956712539,18.4016994118718,0.212291252813662,957.170130739914,2982.08037675044
0.93,4.28415082471732,0.14147413156547,25.8951406492196,-6.80383122550313,-3.59619734881531,2.33266539546546,-25.69045976043,7.53994070836927,1.02838297554297,979.670155997098,2982.08037675044
0.94,4.3273681729737,0.186489971943556,23.737601225948,-9.07675942487089,-3.99766556797804,-1.66720239344359,-17.6437771266926,-18.2909377103174,2.0089777304534,1002.14560677803,2982.08037675044
0.95,4.31823731189806,0.166756911046442,24.1975388292037,-8.0317764838954,-0.114520003508936,-4.31993825396228,8.32383383321352,-24.0986329320799,-3.12949837039169,1024.40575029901,2982.08037675044
0.96,4.32459487304595,0.191536965796789,23.8829832807257,-9.32594299118798,4.14310819300968,-1.2543770271565,25.446942423983,3.13420234394714,-1.8205241981438,1046.95628977765,2982.08037675044
0.97,4.28607192967422,0.216001025727307,25.8125029128921,-10.4831222399899,-1.03180123471762,-4.16562783281125,5.35247778512511,-27.3410339981204,2.94913890382513,1069.22655563485,2982.08037675044
0.98,4.35511123523444,0.122545665111019,22.3640092735949,-5.82719193531563,4.30514236620554,-0.669149099980638,22.9191978152727,2.96908203740552,-1.69686176563399,1091.62045342079,2982.08037675044
