t,iq,id,vq,vd,ia,ib,va,vb,theta_e,omega,r
0,0,0,0,0,0,0,0,0,0,0,0
0.01,0.000759213198689206,0.000430641729190596,-0.0369164818358901,-0.0215631684427941,0.000430856324031539,-0.000759091435879889,-0.0206305098952094,0.0374456796692967,-2.10937285026835,-0.0022365730025499,0
0.02,0.000838925199665219,0.000476321240238458,-0.0409775392310433,-0.0238504432934751,0.000475840819062254,-0.000839197789230759,-0.0229428256335167,0.0414925188278202,-2.10938925107898,-0.002333295328362,0
0.03,0.000867460650633727,0.000492753454104184,-0.0424045980669895,-0.0246732424123322,0.000491893789832601,-0.000867948412322768,-0.0237451179798965,0.042931203110109,-2.10940561105945,-0.00227138318903008,0
0.04,0.00084977559228976,0.000483341453544645,-0.0416088612669254,-0.0242019691522466,0.000481527755167599,-0.000850804642070855,-0.023303152072469,0.0421188289279738,-2.10942041217667,-0.00208020817670867,0
0.05,0.000866184022250719,0.000492914475125023,-0.0424470605651652,-0.0246812945769375,0.000490690010409981,-0.000867446110069129,-0.0237761855739148,0.0429605895230865,-2.10943477492392,-0.00199899784134837,0
0.06,0.000865881711762066,0.000493139193006398,-0.0424805720290464,-0.0246925587841565,0.000490303513997687,-0.000867490557069371,-0.0237985932450283,0.0429877705723584,-2.10944828253806,-0.00187373782998725,0
0.07,0.000889547544299592,0.000506967512943699,-0.0436601537067593,-0.0253849770699901,0.00050351352269768,-0.000891507164979804,-0.0244553997411892,0.0441875492196661,-2.10946075956502,-0.00183243366185396,0
0.08,0.000865176334000679,0.000493468176684065,-0.0425334041018776,-0.0247090343197681,0.000489508089115561,-0.000867423057685915,-0.0238344427684262,0.0430295965519979,-2.10947268383898,-0.00164696178413759,0
0.09,0.000863971733974774,0.000493145399914724,-0.0425146986890511,-0.0246928625046857,0.000488630130201286,-0.000866533402947575,-0.0238262094893552,0.0430063809761467,-2.10948368023049,-0.00154200978976083,0
0.1,0.000863394792752561,0.000493135719182205,-0.0425234929811549,-0.0246923792704261,0.00048813097018731,-0.000866234126336283,-0.0238335648568793,0.043010722332528,-2.10949394294699,-0.00144576108698249,0
0.11,0.00086287000580582,0.000493133607955203,-0.0425323644124108,-0.0246922656837278,0.000487673291019811,-0.000865967761201396,-0.0238408260312582,0.0430154044646007,-2.10950352407909,-0.00135594786692602,0
0.12,0.000862380373623953,0.000493131800964154,-0.0425406588759339,-0.0246921843592562,0.000487246187436649,-0.000865719374140598,-0.0238476026868014,0.0430198032552746,-2.10951246897346,-0.00127209981952734,0
0.13,0.000903637010486289,0.000516763628370316,-0.0445512294699559,-0.025875491086715,0.000510527597453485,-0.000907174771786244,-0.0249659363437964,0.0450672287670414,-2.10952131930846,-0.00131883112673006,0
0.14,0.00095445290115893,0.000546485565843685,-0.0472107278017835,-0.0273637336045445,0.00053888964620529,-0.000958762099490238,-0.0264848308593017,0.0477093331614345,-2.10952951288627,-0.00140130897601282,0
0.15,0.000863387858615058,0.000494394078276096,-0.0426770885961717,-0.0247553961889076,0.000487441882050633,-0.000867331834225692,-0.0239312099285602,0.0431446488323923,-2.10953726547062,-0.0010470077398604,0
0.16,0.000860715969493603,0.000493155544798563,-0.0425727744257481,-0.0246933668505732,0.000485778078143671,-0.000864901167938812,-0.0238732066857118,0.0430380470196303,-2.10954398332534,-0.000976875727945403,0
0.17,0.000860314867201453,0.000493124898048203,-0.0425757597818873,-0.0246918336992243,0.000485444103328538,-0.000864672110309137,-0.0238762864155786,0.0430384121388833,-2.10955024186267,-0.000918027162048174,0
0.18,0.000859993627072689,0.000493123021123714,-0.0425810967011246,-0.0246917380719584,0.000485164279306836,-0.000864508516240584,-0.0238806649440378,0.0430412077794679,-2.10955608446514,-0.000863254900736057,0
0.19,0.000859694852467821,0.000493121903632686,-0.0425861306564125,-0.0246916949452932,0.000484903686042951,-0.000864356909189689,-0.0238847731573897,0.0430438838254228,-2.10956153908048,-0.000812124077853732,0
0.2,0.000859416278583038,0.000493120875272137,-0.0425908458856841,-0.0246916342191176,0.000484660700835129,-0.000864215564884525,-0.0238886323889343,0.043046372625985,-2.10956663148155,-0.000764388709541954,0
0.21,0.000859156095658124,0.000493119915420821,-0.0425952401490758,-0.024691593969718,0.000484433759781571,-0.000864083549244539,-0.0238922201497404,0.0430487062806676,-2.10957138572101,-0.000719823214329332,0
0.22,0.000858913142200062,0.000493119019197053,-0.0425993378029665,-0.024691553701449,0.000484221848765626,-0.000863960273459288,-0.0238955668995438,0.0430508802231989,-2.1095758242551,-0.000678217093907898,0
0.23,0.000858686370470954,0.000493118182382825,-0.0426031633479638,-0.024691513414362,0.000484024052298179,-0.000863845206866353,-0.0238986927695309,0.0430529075191499,-2.10957996804786,-0.00063937383074594,0
0.24,0.000858474616317583,0.000493117401046581,-0.0426067303288599,-0.0246914731092834,0.00048383935605623,-0.000863737758586279,-0.0239016085460439,0.0430547955811468,-2.10958383667164,-0.000603109957132139,0
0.25,0.000858277006621907,0.000493116671515641,-0.0426100621616393,-0.0246914298759514,0.00048366699654149,-0.000863637486610592,-0.0239043350373046,0.0430565543577523,-2.10958744839916,-0.000569254188541565,0
0.26,0.000866720880994644,0.00049797051286566,-0.0430269313963478,-0.0249344659726355,0.00048842122159654,-0.000872137848926397,-0.0241373000321789,0.0434791348336546,-2.10959077605974,-0.000564862515188089,0
0.27,0.000835721832976347,0.000480393484751925,-0.0415516649711646,-0.0240543587903413,0.00047082987367715,-0.000841146902959645,-0.0233224823335923,0.0419668304317785,-2.10959410756039,-0.000437883461441343,0
0.28,0.000829933463548814,0.000476961161347414,-0.0411057532388334,-0.0238824848773253,0.000467620225227299,-0.000835232200235584,-0.0230278104073028,0.0415905756282941,-2.10959707677734,-0.000392569894277936,0
0.29,0.000856902077670108,0.000492730545016724,-0.0425873619067265,-0.0246720979914327,0.000482674450456385,-0.000862606477824305,-0.0238942448980502,0.0430286053018845,-2.10959964973607,-0.000452683394826186,0
0.3,0.000853433148786843,0.000490909698224998,-0.0424275313504342,-0.024580921755337,0.000480629690673936,-0.00085926455280214,-0.0238037626221317,0.0428683801404168,-2.10960150074266,-0.000424868843865199,0
0.31,0.000857272186012331,0.000493060994107023,-0.0426202526272273,-0.0246886474343872,0.000482818884373577,-0.000863082075884108,-0.0239138003896653,0.0430597886324514,-2.10960391611225,-0.000414566488058982,0
0.32,0.000857248442885351,0.000493111640535333,-0.042627179607496,-0.0246911852350027,0.000482770551848467,-0.000863114463514969,-0.0239183456922277,0.0430655756834392,-2.1096061938678,-0.000393528851601104,0
0.33,0.000857134591427608,0.000493112424448602,-0.0426292479939153,-0.024691226325245,0.000482670592839864,-0.000863057744171829,-0.0239200083392506,0.0430667231516561,-2.10960832094802,-0.000373597904235259,0
0.34,0.000857025978588253,0.000493112051882105,-0.042631065306562,-0.0246912062906144,0.000482575845770533,-0.000863002651656058,-0.0239214929273416,0.0430676859534521,-2.10961030679423,-0.00035498309209197,0
0.35,0.000856924467083329,0.00049311167780456,-0.0426327540717356,-0.0246911862401858,0.000482487308689691,-0.000862951137681998,-0.0239228728648111,0.0430685796327522,-2.10961216077025,-0.000337604210223295,0
0.36,0.00085682982408219,0.000493111327926412,-0.0426343346158986,-0.0246911661740972,0.000482404760965815,-0.000862903109140059,-0.0239241652216987,0.0430694148279513,-2.1096138916326,-0.000321379369463687,0
0.37,0.00085674146750823,0.000493111001251276,-0.0426358078723336,-0.0246911460934726,0.000482327696414223,-0.000862858270502717,-0.0239253704469393,0.0430701922135538,-2.10961550755715,-0.000306231940283346,0
0.38,0.000856659048115482,0.000493110696255071,-0.0426371843706748,-0.0246911259990377,0.000482255809437898,-0.000862816444988552,-0.0239264972497149,0.0430709173749371,-2.10961701617589,-0.000292090377208875,0
0.39,0.000856581748341932,0.000493110411499912,-0.0426384493392398,-0.0246911263145231,0.00048218839287482,-0.000862777215333676,-0.0239275221649006,0.0430716004321043,-2.10961842461446,-0.000278887885634153,0
0.4,0.000856509922743262,0.0004931101456434,-0.0426396449306287,-0.0246911061932823,0.00048212574597089,-0.000862740765564104,-0.0239285020459357,0.0430722281138982,-2.10961973952574,-0.000266562106450799,0
0.41,0.000856442753757266,0.000493109897431973,-0.0426407530216266,-0.0246910860611013,0.000482067162266685,-0.00086270667812,-0.0239294105893054,0.0430728088006402,-2.10962096711986,-0.000255054821509715,0
0.42,0.000856379889480002,0.000493109665695109,-0.042641777317975,-0.0246910834252685,0.000482012335299225,-0.000862674774249897,-0.0239302417427446,0.0430733595588171,-2.10962211319566,-0.000244311678643103,0
0.43,0.00085632145164291,0.000493109449340027,-0.0426427437869409,-0.0246910632706044,0.000481961365427672,-0.000862645118114825,-0.0239310355286363,0.0430738637881352,-2.10962318316626,-0.000234281934943384,0
0.44,0.000856266678234096,0.000493109247345658,-0.0426436328339812,-0.0246910635214421,0.000481913594759844,-0.000862617320286058,-0.0239317554512434,0.0430743441055249,-2.10962418208492,-0.000224918217088225,0
0.45,0.000856215749185057,0.000493109058759639,-0.0426444707462139,-0.0246910433473135,0.000481869174139431,-0.000862591474568076,-0.0239324448213557,0.043074779067064,-2.1096251146705,-0.000216176297584035,0
0.46,0.000856167960695541,0.000493108882691994,-0.0426452385337076,-0.0246910435775229,0.000481827496134492,-0.000862567221195006,-0.0239330661993937,0.0430751940777914,-2.10962598532759,-0.000208014885867278,0
0.47,0.000856123667319643,0.000493108718312154,-0.0426459689880904,-0.0246910233858913,0.000481788861932571,-0.00086254474338321,-0.023933668502947,0.0430755710207867,-2.10962679816846,-0.000200395433277241,0
0.48,0.000856082048842173,0.000493108564844456,-0.0426466351740378,-0.0246910235977064,0.000481752564613737,-0.000862523621450949,-0.023934207499144,0.0430759312070893,-2.10962755703252,-0.000193281950979337,0
0.49,0.000856043224332422,0.000493108421564768,-0.042647256211877,-0.0246910238006802,0.000481718703649775,-0.000862503917612857,-0.0239347099190588,0.043076267013493,-2.109628265504,-0.000186640839980885,0
0.5,0.000856007138236506,0.000493108287796993,-0.0426478416045415,-0.0246910035869162,0.000481687228812858,-0.000862485604404227,-0.0239351942470728,0.0430765658799545,-2.10962892692945,-0.000180440732431373,0
0.51,4.641429233848,-0.0297006820417521,7.92986485576991,1.4951911169917,-0.750246913236868,4.58048873293136,0.245379386904148,8.06586276002686,0.155951350899976,48.0467325471461,3046.83686412975
0.52,4.66604258014455,0.0497889613088367,6.7007852718679,-2.47523541533231,-2.99389333669641,3.57925061833829,-6.23536010390334,3.48534044185753,0.707249681371825,102.488501880578,3046.83686412975
0.53,4.5786221386193,0.0250973877796621,11.073456179585,-1.22790739775164,-4.56093681878971,-0.402822420101696,-10.9102813128458,-2.25719959534167,1.66436922882965,159.366276381153,3046.83686412975
0.54,4.61438649420507,0.0273122188164101,9.28705385405144,-1.33760870954126,-0.419449660109903,-4.59536403975055,0.543340878033059,-9.36714188203374,3.05648704192591,220.054115152676,3046.83686412975
0.55,4.54559662268719,-0.0238490587078091,12.7283924703326,1.23948544861372,4.48331878945435,0.750246670043907,12.7628374372186,0.811344321035494,-1.41023740833519,274.91209613388,3046.83686412975
0.56,4.55187483645743,0.0358933789213651,12.4164631549724,-1.75325614060461,-3.28064551369981,3.15566441100223,-10.2215950263855,7.26370838414685,0.81269909538323,333.097710035968,3046.83686412975
0.57,4.54751307613407,0.0658090882304725,12.6365795860543,-3.22890231109832,1.36150475921692,-4.33941364752587,7.02351910855977,-10.9899560099664,-2.82309608534718,388.332267247836,3046.83686412975
0.58,4.51288217460999,0.0116276229280609,14.3703136603415,-0.518357815917797,-1.04864121873515,4.38937265653045,-3.87902253911057,13.8465805765536,0.237085495335268,446.234170835261,3046.83686412975
0.59,4.52541874997662,0.058661117795725,13.7456870609921,-2.87166545610116,2.38892883524518,-3.84394003719037,9.82549791169162,-10.0324456668269,-2.57256728875642,503.009871246935,3046.83686412975
0.6,4.4939406058988,0.0657120628196874,15.3218529415835,-3.21772625814728,-4.33298830231133,1.19374730013487,-15.638638763971,0.7388622645025,1.31658472195448,559.046642547516,3046.83686412975
0.61,4.45340367312866,0.0147828967037875,17.3510676544947,-0.652320371434812,2.75385216662025,3.49990300640914,10.170013183365,14.0732335469864,-0.663343401940031,615.252205087759,3046.83686412975
0.62,4.49218674122444,0.024975795110235,15.4143508114049,-1.16430673187133,3.53480138223371,-2.7722814966256,12.8951383905099,-8.52485935324075,-2.23031966755392,671.800498371137,3046.83686412975
0.63,4.49484413953781,0.0390274319557238,15.2840003192991,-1.85910111606451,-1.11983415240733,-4.35328823422992,-1.87457467938529,-15.2821102106841,2.89849528959242,728.175184618016,3046.83686412975
0.64,4.48090027699505,0.0926023987358432,15.9838118188254,-4.5205678145541,-3.78752752054639,-2.39617983000643,-10.8328572429201,-12.5923380505813,2.1555410483034,783.791418995952,3046.83686412975
0.65,4.46421369558353,0.102144436104733,16.8207364964322,-4.97074416565394,-4.34887222994099,-1.01338429695295,-15.0517311527023,-9.00504653788969,1.82261001637163,839.400013767565,3046.83686412975
0.66,4.41239928544426,0.116725096681888,19.4141849246036,-5.73024540730393,-4.21206672824327,-1.31961588320634,-16.5091399644208,-11.7130092781401,1.90085224666256,896.150249277748,3046.83686412975
0.67,4.47787395742397,0.0405660473408919,16.1432130599842,-1.86941904080634,-3.09146713271236,-3.23972711044185,-9.67425637017696,-13.0578259727362,2.38866656315854,951.255843324101,3046.83686412975
0.68,4.40151374853097,0.0477754148708585,19.9641270607801,-2.25389466437861,0.584760667184762,-4.36275838557292,5.09731026606141,-19.4335750315939,-2.99749825815283,1007.53256059408,3046.83686412975
0.69,4.34932162228878,0.0909157910584867,22.5767021310177,-4.42368204896193,4.3059158977936,-0.619639037102096,22.9472830619413,1.64275441200051,-1.69281887014266,1063.23177374803,3046.83686412975
0.7,4.37522407102786,0.111139917491103,21.284576358904,-5.37765117398351,0.0239115694344249,4.3765701170904,-5.80082364082583,21.173161502598,0.0199331606646277,1118.34861520584,3046.83686412975
0.71,4.38176309073634,0.115661603677755,20.9606876159148,-5.59603239987552,-3.75326989309491,-2.2641092066179,-14.6400646574473,-16.010450049208,2.13998217780696,1173.77473854233,3046.83686412975
0.72,4.32119680139101,0.138922998250594,23.9920844990362,-6.75514948518835,4.31030851037174,-0.336573827282771,24.2761440712666,5.64986656543694,-1.61658585862179,1229.27539709561,3046.83686412975
0.73,4.28911193617042,0.149110984251845,25.5995042991922,-7.2557261594948,-4.11341437081523,1.22414766290462,-26.6016399812379,-0.577003270825892,1.31629481990922,1284.69164260517,3046.83686412975
0.74,4.30424709338969,0.0821205442916595,24.84602544805,-3.9464255112149,4.29233387095008,-0.330388808895016,25.0323691118255,2.50594324158355,-1.62854004551894,1340.25227937533,3046.83686412975
0.75,4.28076398008115,0.0481226810557438,26.023490490321,-2.23759042542078,-3.68740042647614,-2.17493313469995,-21.1065084398547,-15.3864930926481,2.11494420184978,1395.62056348539,3046.83686412975
0.76,4.36712948635553,0.0955174423172851,21.7085476288212,-4.55731648207316,0.184282140693889,4.36428500730693,-4.1150363403452,21.7967118985459,-0.0203315604088302,1450.39237607618,3046.83686412975
0.77,4.29333818764765,0.0900772938354724,25.4014967065373,-4.33385774546951,4.20708621943639,-0.860983306810752,25.7667295547631,-0.306603884333693,-1.75168209134505,1505.8312358678,3046.83686412975
0.78,4.25606329257211,0.123049701879294,27.2686870173881,-5.92885659404333,0.143914924520462,-4.25540884921914,7.6261009862258,-26.8435321057585,-3.07888267140221,1560.58165004209,3046.83686412975
0.79,4.2924112067693,0.147227839634396,25.4548692032848,-7.17888744125195,-3.35412051789593,-2.68260052117187,-14.6487804233064,-22.0204455713379,2.27969687197908,1615.80785066238,3046.83686412975
0.8,4.21842296766999,0.143471699538054,29.157927977679,-6.91936749434165,-4.17207657627581,-0.639885540096594,-27.3731549596001,-12.1972455099906,1.75698143075228,1670.29493901988,3046.83686412975
0.81,4.22649145693397,0.123301969645916,28.7581723376797,-5.90365361447388,2.29762547005529,-3.54955639631315,21.18469647645,-20.324719860408,-2.53795298835984,1724.93522509463,3046.83686412975
0.82,4.25697343854765,0.101771760938441,27.2378121568221,-4.82728290453057,3.22627059422447,-2.77909308960085,24.1182354374052,-13.546652380444,-2.25796612546252,1779.67066855871,3046.83686412975
0.83,4.28488146441418,0.0989270534097946,25.8461972516307,-4.67738547986473,4.28412033255714,-0.12770552903862,25.8770312932431,4.50367613688747,-1.57751318089595,1834.30429387696,3046.83686412975
0.84,4.23134162573725,0.150538212519101,28.5270287832594,-7.24752604767234,2.14934365891822,3.64790837919392,7.22723364661127,28.5321765526202,-0.496877721942261,1888.81441772269,3046.83686412975
0.85,4.16818481585172,0.153977467582698,31.6887357189066,-7.40516871926132,-3.38436257384036,2.43794251130101,-30.4819139887864,11.3958507713845,0.983463854981202,1943.35138317264,3046.83686412975
0.86,4.21100829928288,0.165090213906095,29.5514819180029,-8.04274336716585,-1.31583987185094,-4.00354981322877,-0.38702864305412,-30.6239450961106,2.86323086832991,1998.10506889549,3046.83686412975
0.87,4.23524336804542,0.168981243621772,28.3437302132679,-8.18651604005646,3.92083160559302,1.61025481457176,22.3590905156879,19.2472636649445,-1.14122900917287,2052.31646007113,3046.83686412975
0.88,4.1463904402685,0.218793232228612,32.790385819795,-10.6289228607609,-4.13609390096728,0.364899169634961,-33.1448638328634,-9.46580186206959,1.53551928212167,2106.52428327068,3046.83686412975
0.89,4.20570435535792,0.150834959678271,29.8287505545503,-7.27446965352462,4.16855060214788,-0.577828856211169,30.413961718101,4.2027611156858,-1.67268585190477,2160.96038353606,3046.83686412975
0.9,4.10276254333992,0.106864205569883,34.9799783742068,-5.11111347563519,-4.0199225289213,-0.827226273117636,-32.9066794470451,-12.9179261412278,1.79978593211888,2215.15557786706,3046.83686412975
0.91,4.11996077228145,0.14679953804177,34.124310184798,-7.00872887435214,2.49434062054421,3.2823606959337,13.9383990630283,31.9266637402385,-0.614205263701611,2268.98334170888,3046.83686412975
0.92,4.19892632648399,0.17089534194455,30.1802978548214,-8.23681332848714,1.89841933745928,-3.74915877661901,21.9085503339171,-22.3318359003531,-2.6321936759936,2323.11969174,3046.83686412975
0.93,4.17006738071357,0.150439539269666,31.6274955318731,-7.23327586146373,3.42016800596036,-2.39051141508928,30.4868436439849,-11.0982484173811,-2.14475389002987,2377.25257677228,3046.83686412975
0.94,4.13231973277005,0.131898202903996,33.5191892088259,-6.30780446651612,-1.06739211394851,-3.99426308408079,-1.47340092637197,-34.075702958487,2.91237103911915,2431.23833911234,3046.83686412975
0.95,4.12177685144149,0.218843239657661,34.0506897216151,-10.6431996692233,-3.70234782568303,-1.82470747087935,-24.4969755877204,-25.9350218193717,2.08175333997411,2485.10145834483,3046.83686412975
0.96,3.93079955915646,0.222811591462103,34.742577996287,-10.8186522199375,-3.93646509410729,-0.0712231874418748,-33.8380984544614,-13.3818180629622,1.64551047433081,2538.30090381961,3046.83686412975
0.97,3.49629450133431,0.240402814675335,36.3845709325551,-11.6994762645909,-3.49935835239138,0.190682654987299,-36.2146004566156,-12.2154599004522,1.58501067492542,2587.0938570269,3046.83686412975
0.98,3.13864223024882,0.085506515467727,36.1329173359686,-4.09024112075786,-3.0284728652691,-0.828696879454406,-33.3924611763977,-14.3965733498167,1.86512970062726,2631.47206969342,3046.83686412975
