t,iq,id,vq,vd,ia,ib,va,vb,theta_e,omega,r
0,0,0,0,0,0,0,0,0,0,0,0
0.01,0.000815891306746485,0.000464688832211772,-0.0400592606855712,-0.0232710563630368,0.0007422957705797,-0.000574988107865125,-0.0363816582035611,0.0286820741454561,-1.7121344245845,-0.00172152784312093,0
0.02,0.000902696784686828,0.000514565563134235,-0.0444462827109653,-0.0257688333009782,0.000821201556764264,-0.000636606006110168,-0.0403726751321562,0.0317734467628244,-1.71214709511785,-0.00182010281105096,0
0.03,0.000931567113418124,0.000531123376769378,-0.0458800373970653,-0.0265980207104143,0.000847442870072675,-0.00065707679164316,-0.0416748944498351,0.0327968856732288,-1.71215988892297,-0.0017901242644279,0
0.04,0.000914377840273323,0.000521758447923637,-0.0450707788833458,-0.0261290306346213,0.000831736949550496,-0.000645393182110738,-0.0409394081274478,0.0322190349518834,-1.71217161621839,-0.00166646310883821,0
0.05,0.000930782872965022,0.000531239176853442,-0.0458952846758886,-0.0266038247926417,0.00084663484479175,-0.000657100646182449,-0.0416884084081013,0.0328057503111541,-1.71218316171612,-0.0016181516607056,0
0.06,0.00093061036339415,0.000531398815509496,-0.0459121117017928,-0.0266118235338821,0.000846434331880787,-0.000657243692548671,-0.041703579423594,0.0328164991426015,-1.71219416082405,-0.00153731061235747,0
0.07,0.000956505347667141,0.00054639207384056,-0.0471953916368214,-0.0273626574191007,0.00086995095173269,-0.000675745603057107,-0.0428678910563458,0.0337411311186997,-1.71220448248777,-0.00151886083465599,0
0.08,0.000930209154558828,0.000531652994307329,-0.0459390595010769,-0.0266245462173845,0.000845987963916022,-0.000657455962396131,-0.0417277989784945,0.0328337393778942,-1.71221445524749,-0.00138796876201881,0
0.09,0.000929330843248948,0.00053139539018146,-0.0459177589735035,-0.0266116412211178,0.000845148587335789,-0.000657085034256775,-0.04170822325361,0.0328183508217168,-1.71222380256022,-0.00131765559410513,0
0.1,0.0009289357598317,0.000531387790242013,-0.0459188256544986,-0.0266112687831441,0.00084475270428123,-0.000657029297765279,-0.0417090412992997,0.0328185016359719,-1.71223265380288,-0.001252036633324,0
0.11,0.000928569605778311,0.000531384669612844,-0.0459202248300544,-0.0266111088581187,0.000844385138792023,-0.000656981671937669,-0.0417101739228807,0.0328188902070809,-1.7122410369598,-0.00118990535211051,0
0.12,0.000928223067701368,0.0005313817838565,-0.0459215601855328,-0.026610954827582,0.000844037252324787,-0.00065693666385389,-0.0417112570780451,0.032819257146961,-1.71224897681501,-0.00113105989085582,0
0.13,0.000972479631210464,0.000556734963164085,-0.0480925515196044,-0.0278806244085646,0.000884272016821937,-0.00068828297421498,-0.0436812931075064,0.0343826607686689,-1.71225689284889,-0.00117066526452159,0
0.14,0.00103357590467358,0.000592266529570922,-0.0512282806819737,-0.0296599823761203,0.000939743003722056,-0.000732080514511376,-0.0465345579155817,0.0365866945184205,-1.71226431711198,-0.00125097107608299,0
0.15,0.000929171417801591,0.00053242408297133,-0.0460191284003407,-0.0266631652925747,0.000844814410322773,-0.000658121219759906,-0.0417997517880375,0.0328856399147813,-1.71227142804846,-0.000968913779898467,0
0.16,0.00092700132741313,0.000531389442371996,-0.0459280821518346,-0.0266113357462618,0.00084280772508924,-0.000656796269036317,-0.0417167152377115,0.0328217548300153,-1.71227776813569,-0.000917752752597161,0
0.17,0.00092670509591956,0.000531369452358227,-0.045927404161177,-0.0266103357271315,0.000842513333401459,-0.000656739760288294,-0.0417159881866549,0.0328209193976284,-1.71228376577731,-0.000873225918376555,0
0.18,0.000926456225561102,0.000531367079696239,-0.0459283009742248,-0.0266102307828569,0.000842263554186804,-0.000656707101038541,-0.0417167044016657,0.0328211789331207,-1.71228944613289,-0.000831125127741443,0
0.19,0.000926221520638846,0.00053136511796856,-0.0459291976423882,-0.0266101212180744,0.000842027938532832,-0.000656676590582021,-0.0417174309821384,0.0328214213519874,-1.71229482610897,-0.000791251925026808,0
0.2,0.000925999076573017,0.000531363264700646,-0.0459300371051988,-0.0266100337429371,0.000841804633056434,-0.00065664767467199,-0.0417181071498143,0.0328216657121755,-1.71229992159192,-0.000753487239249937,0
0.21,0.000925788390451353,0.000531361509334591,-0.0459308297012333,-0.0266099462686196,0.000841593131430361,-0.000656620284963906,-0.0417187457614864,0.032821892229897,-1.71230474762577,-0.00071771954901877,0
0.22,0.000925588880197244,0.000531359846628902,-0.0459315799470518,-0.0266098587936471,0.000841392848732944,-0.000656594346499678,-0.0417193508213923,0.032822102133956,-1.71230931845886,-0.000683843252960836,0
0.23,0.000925399768154237,0.000531358271698895,-0.0459322806705439,-0.0266097904698594,0.000841203006867642,-0.000656569756415562,-0.0417199120851437,0.0328223139351161,-1.71231364758628,-0.00065175833429293,0
0.24,0.000925220921613792,0.000531356779918423,-0.0459329553790447,-0.0266097029861012,0.000841023466675658,-0.000656546502433765,-0.0417204578093142,0.0328224935530966,-1.71231774778934,-0.000621370065109227,0
0.25,0.000925051250929405,0.000531355366904205,-0.0459335781637232,-0.0266096375545644,0.000840853142040506,-0.000656524436943948,-0.0417209561340495,0.0328226786379306,-1.71232163117385,-0.000592588726698519,0
0.26,0.000933811618685537,0.000536394554391401,-0.0463680668702004,-0.026861994132848,0.000848812711870913,-0.000662752017981989,-0.0421153842203707,0.0331339518627508,-1.7123252789555,-0.00058520654089687,0
0.27,0.00089961590699821,0.000516955387971448,-0.0447128593404989,-0.0258885061870194,0.000817698626512424,-0.000638686628540647,-0.0406139280626041,0.0319368656934928,-1.71232889488866,-0.000483409847748585,0
0.28,0.000891001380467503,0.000511896956496346,-0.044166208326158,-0.0256351788585331,0.00080988167526187,-0.000632466304351658,-0.0401083722295689,0.0316090941045914,-1.7123322256447,-0.000440063523647626,0
0.29,0.000923847195085258,0.00053101479880722,-0.0459060374264415,-0.0265925878420319,0.000839700250624477,-0.000656028845036833,-0.0416956500542857,0.0328024811086689,-1.71233521604346,-0.000490559476431827,0
0.3,0.00092087601044669,0.000529442459667927,-0.0457670323733388,-0.026513848954877,0.000836979004904291,-0.000654055112406332,-0.0415690636009361,0.0327050208684477,-1.71233762793124,-0.000466369391444312,0
0.31,0.000924166768643314,0.000531315618484124,-0.0459335454561942,-0.0266076388565916,0.000839970759434334,-0.000656376131501672,-0.0417205881250696,0.0328214803169718,-1.71234044686558,-0.000452998594814236,0
0.32,0.000924111690655328,0.000531346974738282,-0.0459369855080321,-0.026609213203194,0.000839910047771769,-0.000656401657540105,-0.0417236836183229,0.0328236361510464,-1.71234312968231,-0.000433251963668082,0
0.33,0.00092400183653665,0.000531346607413598,-0.0459374356669446,-0.026609198804098,0.000839799676127618,-0.000656387930349873,-0.0417240478953367,0.0328237914305817,-1.71234567086729,-0.00041442069307546,0
0.34,0.000923896755394913,0.000531345740787923,-0.0459378094139929,-0.0266091552918825,0.000839694188438226,-0.000656374268832792,-0.0417243450421622,0.0328239015034235,-1.71234807767842,-0.00039658287603438,0
0.35,0.000923797262187779,0.000531344911000068,-0.0459381627696022,-0.0266091117648567,0.000839594311202376,-0.000656361324780729,-0.0417246261808814,0.0328240033759871,-1.71235035721761,-0.00037968827979576,0
0.36,0.00092370306587168,0.00053134412490038,-0.0459384970257978,-0.0266090653129546,0.00083949975089357,-0.000656349069639415,-0.0417248927803239,0.0328240946301461,-1.71235251621451,-0.000363687068728464,0
0.37,0.000923613621642786,0.000531343380333805,-0.0459387998998461,-0.0266090437781975,0.000839409964268004,-0.000656337429830301,-0.0417251285433237,0.0328242013622761,-1.71235456104381,-0.000348532001411318,0
0.38,0.000923529204217655,0.00053134267511045,-0.0459390994032331,-0.0266090002072203,0.000839325219632843,-0.000656326447070895,-0.0417253676274812,0.0328242812923532,-1.71235649774221,-0.000334178333798614,0
0.39,0.000923449015006196,0.000531342007152621,-0.0459393690636179,-0.0266089786401684,0.00083924472291859,-0.000656316011486988,-0.0417255774241067,0.0328243745235322,-1.71235833202811,-0.000320583687893688,0
0.4,0.000923373270521269,0.000531341374492728,-0.0459396324590276,-0.0266089350426862,0.000839168685189006,-0.000656306156270928,-0.0417257873104092,0.0328244410143255,-1.71236006931689,-0.000307707926647021,0
0.41,0.000923301346797011,0.000531340775266394,-0.0459398704620776,-0.02660891344636,0.000839096485610686,-0.000656296795888615,-0.0417259719695761,0.0328245218710417,-1.71236171473765,-0.000295513035454743,0
0.42,0.000923233264778153,0.000531340207707923,-0.0459400955538306,-0.0266088918355145,0.000839028141974315,-0.000656287935661744,-0.0417261467045738,0.0328245972617728,-1.71236327314838,-0.000283963009921996,0
0.43,0.000923169045408388,0.000531339670144883,-0.0459403196474069,-0.0266088482007184,0.000838963672225293,-0.000656279580785628,-0.0417263262637772,0.0328246472700562,-1.71236474915042,-0.000273023749565957,0
0.44,0.000923107890094964,0.000531339160992753,-0.0459405131107666,-0.0266088236542102,0.000838902283119398,-0.000656271620700697,-0.0417264753678362,0.032824708597621,-1.71236614710137,-0.000262662957136293,0
0.45,0.000923050052623533,0.000531338678750872,-0.0459406982712782,-0.0266088020050981,0.000838844223402581,-0.000656264093219453,-0.0417266182697321,0.0328247685379683,-1.71236747112861,-0.00025285004326002,0
0.46,0.000922995358365572,0.000531338221997478,-0.0459408756721143,-0.0266087803436561,0.00083878931782514,-0.00065625697559894,-0.0417267557894628,0.0328248244501648,-1.71236872514107,-0.000243556036129078,0
0.47,0.000922943458075117,0.000531337789386142,-0.0459410365573537,-0.0266087586711554,0.000838737218392032,-0.00065625022035608,-0.041726879137002,0.0328248752544457,-1.71236991284151,-0.000234753495963841,0
0.48,0.000922894468167489,0.000531337379641133,-0.0459411950220513,-0.0266087369869261,0.000838688038230164,-0.000656243845615101,-0.0417270021514094,0.0328249230852082,-1.71237103773603,-0.000226416434000129,0
0.49,0.000922847922981402,0.000531336991554756,-0.0459413355802428,-0.0266087152930005,0.000838641314325352,-0.000656237787278508,-0.0417271093923577,0.0328249658979055,-1.71237210314606,-0.000218520235758793,0
0.5,0.000922803938932178,0.000531336623982295,-0.0459414714631693,-0.0266086935886379,0.000838597160023154,-0.00065623206329373,-0.0417272138555703,0.0328250056899724,-1.71237311221724,-0.000211041588372645,0
0.51,4.6020596287102,0.00374395797048407,9.89847706587196,-0.177330951907408,-0.546762449550817,4.56946579669733,-1.36007304999649,9.80619680552918,0.119903000599072,36.9165778790841,4216.08985220403
0.52,4.58898347448234,0.00743061250636357,10.5539639509702,-0.349592287887353,-2.36849181532372,3.9305306338736,-5.76093168938978,8.84986078513744,0.543939723967706,78.9431800679885,4216.08985220403
0.53,4.57179369278373,-0.0376357587128962,11.4152392959652,1.91873172355188,-4.3963060040416,1.25507272241043,-10.4086344800334,5.06453826840834,1.28447809155819,123.998064948135,4216.08985220403
0.54,4.61009829376002,-0.0091381624306166,9.50179317633699,0.500758831940154,-3.23219741539346,-3.28724651525642,-7.03159997986096,-6.41026011148296,2.36265592019123,168.937221452481,4216.08985220403
0.55,4.58753272335898,0.0379615386658727,10.6319607850584,-1.84000010370231,2.60883426320521,-3.77370923011218,7.6229513880183,-7.63641294408271,-2.52844237957899,211.634691782742,4216.08985220403
0.56,4.52205702370429,0.0805659089115673,13.9077447617258,-3.96699276504896,3.33193869755396,3.05837785550682,7.3425313108463,12.4599209429476,-0.810366371334417,255.743665866253,4216.08985220403
0.57,4.56827224953916,0.0142711251092399,11.5990483947746,-0.641149099631088,-4.29361807979906,1.56017909092003,-11.1310415873026,3.32398992387488,1.22538309565727,300.089212007725,4216.08985220403
0.58,4.56347616402048,0.0115030759941526,11.8409647670989,-0.494554731921903,1.93301695983111,-4.13387136390886,5.49011904694872,-10.5029340590558,-2.70167495313232,343.77506344128,4216.08985220403
0.59,4.51082433496468,0.00584223381290427,14.4758359941622,-0.202078708438653,0.121160493110326,4.50920064396282,0.168065118410346,14.4762708475028,-0.0255679950601476,387.20539488527,4216.08985220403
0.6,4.51536600805377,0.0134547472922806,14.2510070190966,-0.569438484600448,-0.786278101429951,-4.4464005627163,-1.87871338758691,-14.1381009068894,2.96954707976181,430.553159158892,4216.08985220403
0.61,4.50969990927588,0.0379546938550279,14.5366342530413,-1.77495966474884,0.0383255985434505,4.50969677240109,-1.77376407860212,14.536780187223,-8.2246008531145e-05,473.531936840077,4216.08985220403
0.62,4.44974761319489,0.0506915393347542,17.5366754869931,-2.4018669335487,2.0468926458105,-3.95133571717471,10.3632107589477,-14.3494883068425,-2.65223734483062,516.994712134497,4216.08985220403
0.63,4.48003608947266,0.0756435467480188,16.0247188487572,-3.64867556404494,-4.29321083551853,1.28249211729677,-16.4146992206685,0.813693460927994,1.2973920675381,560.427056617846,4216.08985220403
0.64,4.47328582625075,0.0946741706256065,16.3647210485818,-4.60456001922203,3.01930960725782,3.30197195285486,7.32201981666409,15.3425582538536,-0.71955075677626,603.817009563736,4216.08985220403
0.65,4.49002306235103,0.112710165574665,15.530390849852,-5.46617570705549,2.8855493109124,-3.44189131963242,14.3725117472025,-8.03137739656759,-2.41879715204136,646.64722206597,4216.08985220403
0.66,4.46336782159879,0.0500019061478355,16.8657894016315,-2.32169662886489,-2.77622037479366,-3.49524719184245,-8.50722389664766,-14.7469410031021,2.48154881499339,689.875574357786,4216.08985220403
0.67,4.44235238158773,0.0590995852597183,17.9192083912737,-2.76927960186152,-4.37931608221728,0.748049527243437,-18.1318725657494,0.0462184227693467,1.41491779564274,733.0528224358,4216.08985220403
0.68,4.4421288577883,0.133432279908668,17.9331388437581,-6.47573616004004,-2.63296944859176,3.58019340892355,-16.1529424092312,10.12991012438,0.664137585515516,776.027623800639,4216.08985220403
0.69,4.41273410315337,0.0760433648783601,19.4056811841017,-3.58652763593617,-0.926204924848647,4.31510710129667,-7.89200676030817,18.0875612506933,0.228665334237036,819.064326994954,4216.08985220403
0.7,4.40526000979606,0.122134402741492,19.7822635294989,-5.9250311239701,-0.353982406618697,4.39271317320467,-8.02527564126524,19.0273197022668,0.108127821583014,862.315595142084,4216.08985220403
0.71,4.36086160433393,0.119443048057528,22.0051344962201,-5.74839122900127,-1.18302915823719,4.1990263853236,-12.033298659888,19.2994732902308,0.302003409507013,904.819297094305,4216.08985220403
0.72,4.32976074376277,0.0678382020940348,23.5631777695828,-3.19168674681667,-3.08830524890579,3.03542432115733,-19.2629885907414,13.9408565534451,0.809699965877098,947.941814154606,4216.08985220403
0.73,4.37194759152099,0.190866846450364,21.4568867665805,-9.29494344060725,-4.3755179871978,-0.0720988196060008,-20.8597965477834,-10.5670644581658,1.63090207762984,990.406683403778,4216.08985220403
0.74,4.39529967586186,0.159638694657544,20.2923501231087,-7.72488989644458,-1.7628575106859,-4.02945122200054,-0.268352151153311,-21.711319272536,2.76549228195432,1033.10498968179,4216.08985220403
0.75,4.38963527580396,0.183765745120601,20.5787269039272,-8.9302657923203,3.76556011410129,-2.26345415918938,22.34217470298,-2.01516194123988,-2.07018044497871,1075.80443391783,4216.08985220403
0.76,4.37963609315835,0.182303045022637,21.0818747266574,-8.84423119248,1.5103020473041,4.11502544762835,-1.98789206832267,22.7752969794295,-0.310156233422536,1118.40967849373,4216.08985220403
0.77,4.3783041367463,0.167078862153754,21.1517105461531,-8.06093115713355,1.27144854141801,-4.19295612504524,14.5246015061252,-17.3611468871315,-2.80902903941877,1160.95023088401,4216.08985220403
0.78,4.31514057898194,0.0743989699521521,24.3132137893303,-3.47251900979254,1.8465625454173,3.90079225144951,6.85858427622745,23.5828449251768,-0.424887216114959,1203.66398700353,4216.08985220403
0.79,4.33564339124112,0.164022840790455,23.2913858320435,-7.9242833333373,-3.42172284476487,-2.66768061842643,-12.7090613858072,-21.0656753752618,2.2708062774595,1246.10907341085,4216.08985220403
0.8,4.26536980770236,0.171967747668644,26.8084422790305,-8.28900573740884,3.69395336731865,2.13954691997449,18.1980133407604,21.3595998088076,-1.0055141418723,1288.48310762324,4216.08985220403
0.81,4.34124698701604,0.160855445898349,23.0180369327096,-7.730268288905,-3.31021885447816,-2.8133167280291,-11.7545528522589,-21.2465893568235,2.31226149717482,1330.83508658203,4216.08985220403
0.82,4.26864755418734,0.110665414616441,26.6514699982144,-5.24709963159896,1.53818387552809,3.98341425675603,4.01073757047677,26.8653474154051,-0.342588116266587,1373.34583083487,4216.08985220403
0.83,4.26258119188423,0.170635836257533,26.9582950955235,-8.25411843897348,1.71733783886109,-3.90505643406551,19.2476330790738,-20.6011836192796,-2.68726635005326,1415.67540006799,4216.08985220403
0.84,4.25012424684596,0.140250303645215,27.5846818681619,-6.7263240394415,-4.24864630239342,0.179529547593749,-27.6456769702168,-6.47106279599354,1.5615528805698,1457.9492948013,4216.08985220403
0.85,4.27113115285726,0.147932593141582,26.5379984164493,-7.09654388134013,0.84034937844372,4.19025754568507,-2.68768048631183,27.3386661820717,-0.163301175863371,1500.12384716037,4216.08985220403
0.86,4.2836056048777,0.133676649951871,25.9179870700901,-6.34796551912436,4.28231644185075,-0.170036221837352,25.9709422984587,6.12771377656303,-1.57928562971468,1542.17280207557,4216.08985220403
0.87,4.23692857317686,0.256883829477121,28.2555286708874,-12.4695309529294,1.63226131345253,-3.91832566801887,23.6234127091632,-19.8946845823187,-2.68632734776843,1584.17716047831,4216.08985220403
0.88,4.2423966754008,0.19348844762695,27.9858304031786,-9.35925535254652,4.1178168786747,-1.03872589479543,29.2928315537249,3.56824658267148,-1.77231631378993,1626.50335725732,4216.08985220403
0.89,4.22509570004773,0.252543518933471,28.8546600411555,-12.234353831912,3.09421269784858,-2.88808927908916,30.0304299479062,-8.96906332450447,-2.26205135089214,1668.36055571528,4216.08985220403
0.9,4.26323145091385,0.186441237373546,26.9517027999554,-8.96032863914704,2.59664956414149,-3.38634224202135,24.1843585648097,-14.8929034760639,-2.44372099847506,1710.50535228355,4216.08985220403
0.91,4.23446438608343,0.200740672374337,28.3939418109082,-9.69893276274625,2.9711990697224,-3.02373304751511,27.425905117494,-12.1698379933231,-2.31758640538395,1752.51567846636,4216.08985220403
0.92,4.17025624450084,0.220890881662331,31.6082717492597,-10.7106871084556,3.89929051674229,-1.4951131704468,33.3706306620219,0.450189437028664,-1.88402023046389,1794.41139329752,4216.08985220403
0.93,4.20219080569904,0.21282948516376,30.0154951294546,-10.2960828055088,3.91197225502366,1.54925047464306,23.0415661590995,21.8180085695292,-1.1431147578041,1836.31070089126,4216.08985220403
0.94,4.17751762848534,0.191097824492271,31.2531948577955,-9.19375349847275,0.588400196759466,4.14028466693836,-6.17305691006164,31.9871952599029,-0.0954580595739758,1878.12619727097,4216.08985220403
0.95,4.18898122720711,0.248141387794463,30.6840677973768,-11.999350016038,-3.91038485084713,1.52250720474335,-32.8862891129678,-1.99709934147095,1.25867236657109,1919.83417535792,4216.08985220403
0.96,4.11154599666228,0.257501478110437,34.5599605958322,-12.4210235327886,-1.15970556830895,-3.95299892344178,4.47689031958536,-36.4503793540474,2.91877332440547,1961.48625005747,4216.08985220403
0.97,4.10936265423602,0.183770616509287,34.6733065883911,-8.79776716137304,-1.09300231005433,3.96559945200443,-19.0659073952947,30.2676406743629,0.31363362101689,2003.2871139775,4216.08985220403
0.98,4.06869626094205,0.314301939545701,36.7108209666242,-15.2548592110058,-2.4166711126845,-3.28827853232086,-6.44586782366675,-39.2281263074208,2.58489874107416,2044.85450010158,4216.08985220403
