t,iq,id,vq,vd,ia,ib,va,vb,theta_e,omega,r
0,0,0,0,0,0,0,0,0,0,0,0
0.01,0.000647563885809286,0.000337823002054179,-0.0306248778677756,-0.0169059472601946,-0.000722801758482301,0.000104980878526581,0.0344900553949388,-0.00584211229220252,1.90740637107557,-0.00429710081249366,0
0.02,0.000732069365825131,0.000384914892432146,-0.0352489003678404,-0.0192626031617324,-0.00081811519775648,0.000121542395877058,0.0396327654306697,-0.00654039463838643,1.90737741419568,-0.0036223914772149,0
0.03,0.000750635326784738,0.000403393858466178,-0.0365091885878105,-0.0201873649863019,-0.000841739333574407,0.000132871717002435,0.041127594936308,-0.00699796335982496,1.9073550165177,-0.00270632158486742,0
0.04,0.00071626814558688,0.000394419117382501,-0.0351978023554048,-0.0197382408040491,-0.000806334485016036,0.000135761536574915,0.0397413618172968,-0.00700768161344924,1.9073406275412,-0.00172785409362632,0
0.05,0.000724555503895613,0.000404252607874806,-0.0357644614167221,-0.020230335771242,-0.000817402766256705,0.000142315027017156,0.0404386608218406,-0.00728545789786273,1.90733040524165,-0.00130819063027687,0
0.06,0.000718753197963301,0.000405144887129065,-0.0356284498541801,-0.0202749919845187,-0.000812219558009915,0.000145079043060926,0.0403249727782015,-0.00737280878779825,1.90732330630159,-0.000919399841089669,0
0.07,0.000729947815559131,0.000414368722175025,-0.0362209291071143,-0.0207365896001238,-0.000825831395054104,0.000150092499144704,0.041036609603412,-0.00761304970978876,1.90731895135671,-0.000805170594821378,0
0.08,0.000711808183695002,0.000406062679050361,-0.0354541907483452,-0.0203209168587012,-0.000805966006706425,0.000148245019229762,0.0401755943972202,-0.00747401621809453,1.90731543190768,-0.000483852434258427,0
0.09,0.000707418092392095,0.000405307289633699,-0.0352898674617014,-0.0202831221108773,-0.000801572424375172,0.000148983237161754,0.0400079929952098,-0.00749268206481883,1.90731341823282,-0.00035045394654822,0
0.1,0.0007055888162539,0.000405238355210457,-0.0352293603042879,-0.0202796707291254,-0.000799822798628358,0.000149523218767377,0.0399497304314481,-0.00750945475954885,1.90731214330564,-0.00027399827939437,0
0.11,0.000704539001417949,0.000405231910686406,-0.0351963669731009,-0.0202793418601638,-0.000798829615118022,0.000149864445309581,0.0399184728581276,-0.00752007174576867,1.90731131662357,-0.00022557078063682,0
0.12,0.000703873629621367,0.000405231208160971,-0.0351757214909625,-0.0202793127579018,-0.000798201250421612,0.000150083917757143,0.0398989716922302,-0.00752688290364427,1.90731077779709,-0.000194166679114427,0
0.13,0.000738054355663592,0.000423431594665492,-0.0367639604315373,-0.021190127633079,-0.000836474385508633,0.000155978042246067,0.0416988690622067,-0.00786222707957232,1.9073095619129,-0.000423863601890225,0
0.14,0.00076022242533149,0.000437279455476117,-0.0380308424220546,-0.0218831218959951,-0.000861971463953204,0.000161730187314405,0.0431235112163707,-0.00809807258659016,1.90730859073535,-0.000564090466407823,0
0.15,0.000708420041586843,0.000408143441724341,-0.0354386554871939,-0.0204250547578867,-0.0008034538245277,0.000151333988899742,0.0401952592861876,-0.00757775003011063,1.9073077883959,-8.93224043325187e-05,0
0.16,0.000701987342733543,0.000405495307240098,-0.0351344358917777,-0.0202925260945506,-0.000796507595103933,0.000150958022289614,0.0398643461144821,-0.00755308609749867,1.90730830666881,-5.99529625314989e-05,0
0.17,0.000701596216473801,0.000405254717058028,-0.0351076616360496,-0.0202804972023918,-0.0007960590370853,0.000150859690252099,0.0398351053171566,-0.0075505534034673,1.90730878986616,-7.97961578494561e-05,0
0.18,0.000701870606472558,0.000405232922306073,-0.0351140804987628,-0.0202794024963953,-0.000796310891109021,0.000150748247923595,0.039840805222212,-0.00754738723865148,1.9073091254104,-9.81738684567851e-05,0
0.19,0.000702123344053324,0.000405230989568404,-0.0351215873691033,-0.0202793031035342,-0.000796548848345557,0.000150662793584139,0.0398478599005189,-0.00754480583177483,1.9073093472288,-0.000110923884220302,0
0.2,0.000702298549105224,0.000405230845447902,-0.0351269438159765,-0.0202792940870106,-0.000796714200736143,0.000150604689578686,0.0398529140317158,-0.00754302284889171,1.90730949240301,-0.000119350972948122,0
0.21,0.000702414382350341,0.000405230852947818,-0.0351305014188795,-0.0202792939249993,-0.000796823553848766,0.000150566373222079,0.0398562727564453,-0.00754184420432038,1.90730958721481,-0.000124866067782783,0
0.22,0.000702490168724784,0.00040523086707463,-0.0351328261658106,-0.0202792938465974,-0.00079689510347752,0.000150541312730374,0.0398584675531585,-0.0075410740367349,1.90730964910763,-0.000128467891018626,0
0.23,0.000702539645236517,0.000405230877134149,-0.0351343385165237,-0.0202792938231837,-0.000796941814338344,0.000150524952984784,0.0398598953755884,-0.00754057302914347,1.90730968950727,-0.000130819142802232,0
0.24,0.000702571950488296,0.000405230883775822,-0.0351353207976084,-0.0202792938356584,-0.000796972313804951,0.000150514271107576,0.0398608227651318,-0.00754024764252318,1.90730971587697,-0.000132353882921845,0
0.25,0.000702593021661528,0.000405230888117868,-0.0351359558037449,-0.0202792938716123,-0.000796992207155579,0.000150507303827926,0.0398614222964868,-0.00754003731257815,1.90730973308891,-0.000133355638598348,0
0.26,0.000709965590725506,0.000409088449689251,-0.0354713538909255,-0.020472340160017,-0.000805225040175867,0.000151713988666653,0.0402417529632299,-0.00761150293497279,1.90730986282106,-0.000201669237684253,0
0.27,0.000691127514153317,0.000398385442422054,-0.0346168981150403,-0.0199367260941501,-0.000783909377106284,0.000147831965550067,0.0392583599311552,-0.00738808892583954,1.90730938950733,-2.03255806667826e-05,0
0.28,0.000690852121152958,0.000398085250242999,-0.0343804361177126,-0.0199217031507107,-0.000783550317781043,0.000147639490881672,0.0390302006366587,-0.00745198512688557,1.9073094582737,-2.12985858795036e-05,0
0.29,0.000701087453344376,0.000404581416608464,-0.0350657122579055,-0.0202467910704057,-0.000795356639295701,0.000150391343600825,0.0397843867266157,-0.00753254920926284,1.90730979877464,-0.000123818605159335,0
0.3,0.000693620120726396,0.000401090772141069,-0.0346985490820225,-0.0200721071998796,-0.000787155737639209,0.000149561104819709,0.0393801470983927,-0.00748884572881135,1.90731116838352,-0.000126498617351294,0
0.31,0.000702531520018926,0.000404854837336088,-0.0351117109669818,-0.0202604782561839,-0.000796810159212234,0.000150171722074122,0.0398323332284424,-0.00753023610363557,1.90731090119307,-0.000188769343533344,0
0.32,0.000703370655806356,0.000405196883134464,-0.0351567963753318,-0.0202775998681677,-0.000797715117534743,0.0001502177912495,0.0398805406559386,-0.00753152473142625,1.9073105373668,-0.000178417095044486,0
0.33,0.000703226069262006,0.000405227915090368,-0.0351549815086244,-0.0202791557167747,-0.00079758884771175,0.000150295035393793,0.0398793393344365,-0.00753360310248605,1.90731027354699,-0.000164567575678961,0
0.34,0.000703035497496959,0.000405230697456745,-0.0351494513820997,-0.0202792973322695,-0.000797409857123841,0.000150360728462627,0.0398741648204825,-0.00753556982730401,1.90731009768368,-0.000154541388660478,0
0.35,0.000702897913389127,0.000405230925317466,-0.035145241981794,-0.0202792940337229,-0.000797280047793446,0.000150406465522326,0.0398701895607548,-0.00753696124804418,1.90730998238516,-0.00014785995094727,0
0.36,0.000702806119907946,0.000405230929672559,-0.0351423986229782,-0.0202792943054073,-0.000797193392969121,0.000150436839735916,0.0398675052033248,-0.00753790337988615,1.90730990705726,-0.000143479788008976,0
0.37,0.000702745933186615,0.000405230919390029,-0.0351405250064532,-0.020279294511147,-0.000797136571229732,0.000150456742780513,0.0398657363721428,-0.00753852419945772,1.90730985787958,-0.000140618130042476,0
0.38,0.000702706584807871,0.000405230911484698,-0.03513929366546,-0.0202792946733417,-0.000797099422397092,0.000150469753669244,0.0398645739066165,-0.00753893221879398,1.90730982577902,-0.0001387499096331,0
0.39,0.000702680915229431,0.000405230906216157,-0.0351384852651702,-0.0202792948069555,-0.000797075187690741,0.00015047824144443,0.0398638107343299,-0.0075392001124467,1.9073098048265,-0.000137530440009197,0
0.4,0.000702664209630763,0.000405230902767195,-0.0351379546799607,-0.0202792949218395,-0.000797059415884754,0.000150483765247271,0.0398633098435969,-0.00753937596431607,1.90730979115023,-0.00013673446491334,0
0.41,0.00070265320838286,0.000405230900515205,-0.0351375981053588,-0.0202792950248057,-0.000797049029591799,0.000150487402827819,0.0398629732353753,-0.00753949415760599,1.90730978222379,-0.000136214917833644,0
0.42,0.000702646048840574,0.000405230899045221,-0.0351373610239244,-0.0202792951197456,-0.0007970422702542,0.000150489770151658,0.0398627494388665,-0.00753957276332584,1.90730977639725,-0.000135875800737479,0
0.43,0.000702641392227705,0.000405230898085514,-0.0351372016977519,-0.0202792952094564,-0.000797037873933832,0.000150491309881722,0.0398625990499845,-0.00753962560880533,1.9073097725942,-0.000135654453390557,0
0.44,0.00070263836542934,0.000405230897459164,-0.0351370929404436,-0.0202792952957636,-0.000797035016323193,0.00015049231071208,0.0398624964024765,-0.00753966170068005,1.90730977011189,-0.000135509976322132,0
0.45,0.000702636386368871,0.000405230897050369,-0.0351370163765813,-0.0202792953798826,-0.000797033147886135,0.000150492965099603,0.0398624241485145,-0.00753968712590929,1.90730976849167,-0.000135415673753441,0
0.46,0.000702635105800332,0.000405230896783543,-0.0351369615693455,-0.020279295462543,-0.000797031938895294,0.00015049338853201,0.0398623724346459,-0.00753970534333837,1.90730976743404,-0.000135354120909259,0
0.47,0.00070263429089308,0.000405230896609339,-0.0351369214370158,-0.0202792955442308,-0.000797031169533462,0.000150493657998443,0.039862334575042,-0.00753971869957285,1.90730976674393,-0.000135313944351297,0
0.48,0.000702633708816471,0.000405230896495812,-0.0351368873416559,-0.0202792956254271,-0.000797030619999276,0.00015049385045097,0.0398623024154483,-0.00753973005239773,1.90730976629339,-0.000135287720446799,0
0.49,0.000702633359570506,0.000405230896421613,-0.0351368612117226,-0.0202792957061367,-0.000797030290273194,0.000150493965935611,0.0398622777755332,-0.00753973876835418,1.90730976599939,-0.000135270603672295,0
0.5,0.000702633126739863,0.000405230896373219,-0.035136838514924,-0.0202792957866032,-0.000797030070456784,0.000150494042923077,0.0398622563768838,-0.00753974634639477,1.90730976580754,-0.000135259431271059,0
0.51,4.692049346779,-0.00483049157537885,5.39861610037221,0.262866514434463,-1.26238497650531,4.51904133388397,-1.19388412751114,5.27150787665976,0.271374458677543,83.7671774261474,3439.130573836
0.52,4.59810923513887,0.0521224489885515,10.0970175245464,-2.55842500801846,-4.33307595130595,1.5394083565357,-10.3812236860945,0.851760642388067,1.24077023198916,182.343347796418,3439.130573836
0.53,4.58618595585898,-0.00201783736192906,10.6949598811952,0.164951049185153,-0.826343008621606,-4.51112656943783,-2.09389373620704,-10.4892795143649,2.95998235480905,283.694122778269,3439.130573836
0.54,4.56371945361519,0.0547772748178819,11.8203063400283,-2.66734878597772,3.56940410836785,2.84427321337261,7.46804437850474,9.54267806639487,-0.885977981493392,383.095975744575,3439.130573836
0.55,4.45705025379261,0.0566880043403014,17.156168599019,-2.74450933424754,-3.43684754043883,-2.8384131972721,-11.3136717245824,-13.1858744341103,2.27383599358664,480.606077175272,3439.130573836
0.56,4.4363923759115,0.0423858747440491,18.1916488939992,-1.98456210399889,0.635380296888056,4.3908616186063,0.46643440948431,18.2936331866805,-0.134153792422006,576.91765903036,3439.130573836
0.57,4.37690638097211,0.0625247535364615,21.1688452969133,-3.01268043536973,4.21313811732194,-1.18772303883023,21.2306082661266,-2.54116651571417,-1.83129051678306,674.47713672418,3439.130573836
0.58,4.33549649923973,0.0698282906792981,23.2424112693893,-3.29555838642373,1.30509544386659,-4.13498872640517,10.478043983647,-21.0066889578182,-2.81976084138304,769.879607967463,3439.130573836
0.59,4.32295636035467,0.109510647613434,23.8727746673829,-5.25855971187369,0.0514493094290289,-4.32403714646751,6.14337119197624,-23.660532770007,-3.10436783786377,865.688194327829,3439.130573836
0.6,4.27594851955123,0.104890728078605,26.226704805895,-5.07256890010073,1.77806416381557,-3.8901446806056,16.0446249241658,-21.3574579775932,-2.6883503165276,961.637468372591,3439.130573836
0.61,4.27078668660669,0.118722097815317,26.4885306279709,-5.7267968581468,4.27037466009343,-0.13271820311672,26.5071569300309,5.63995466029175,-1.57407365459746,1056.58378657093,3439.130573836
0.62,4.16897333165655,0.134933131793388,31.5831777775959,-6.56905095735483,-0.833558432303174,4.08701919864042,-13.7000266023079,29.2054587381812,0.233548027442005,1151.22644638845,3439.130573836
0.63,4.11350692841496,0.0820751005656492,34.3605814734926,-3.87856379586429,-1.71035451909048,-3.74197314144256,-10.0986740252754,-33.0712805806842,2.73282243033636,1245.1720940172,3439.130573836
0.64,4.11557421484394,0.108784179855766,34.261594158944,-5.23487316412802,1.56202958652669,3.80917952930686,7.26274998098434,33.8897210680526,-0.362730838901662,1338.97241442425,3439.130573836
0.65,4.0938641225428,0.147175025362771,35.3516991472313,-7.08545431568727,1.33478890023301,-3.87294752530271,19.3236824808687,-30.4391456981731,-2.77376241981161,1431.82896677519,3439.130573836
0.66,3.92443903949397,0.142180962562203,43.8277680700105,-6.88984328822888,-3.86965138557196,-0.668756573769915,-41.4706684689028,-15.7647344182305,1.77814063825816,1524.39168349184,3439.130573836
0.67,3.96831853337844,0.213866765493951,41.638711784258,-10.3221887392133,-2.46596035129267,3.11646121772599,-35.2953031044358,24.3838364123953,0.72323613896057,1616.0869097729,3439.130573836
0.68,3.90532671116086,0.194965160980339,44.793301112903,-9.36022545420031,-1.12104043292398,3.7460454458872,-23.7881487254572,39.0919125313688,0.340658949849079,1707.50264016278,3439.130573836
0.69,3.84956885601759,0.119202734997457,47.5861414194337,-5.71163785102143,-2.15738708805157,3.19046558068878,-32.4930450342483,35.2316006808359,0.625527687854564,1798.43131628035,3439.130573836
0.7,3.91566637769678,0.125842096168407,44.28615463244,-5.93383838959672,1.41216726155104,3.65432114625911,9.02742799295885,43.7604784479578,-0.3366332508765,1887.95043063971,3439.130573836
0.71,3.86958719681271,0.405350490609344,46.5949306278484,-20.0043955357669,-3.56336382487021,1.5621947207632,-50.4705758174341,-4.89738477373938,1.26199920258707,1976.71387323686,3439.130573836
0.72,3.65733969248326,0.110831334803506,48,-5.27684209001489,1.20143816789953,-3.45614865706064,22.0563703888204,-42.9576720471922,-2.77674209307916,2064.25555939291,3439.130573836
0.73,3.79674273604484,0.411092124289369,48,-20.2802565925478,0.000598019639195979,3.81893333022907,-25.3222812537291,45.5419683321507,0.107698187536468,2151.26193279333,3439.130573836
0.74,3.75604562509603,0.00267984118041076,48,0.245234946201616,1.74788331363734,-3.32457363300318,22.1502146292682,-42.5843648779243,-2.65684706921223,2237.23090349512,3439.130573836
0.75,3.63175699665144,0.212631915627349,48,-10.1448360011882,-3.60244722777612,0.507193439782275,-48.6658857461967,-6.20880520141647,1.48940550959181,2322.40595271526,3439.130573836
0.76,3.69818237034405,0.362204330938513,48,-17.6436326425167,0.454563851489856,3.68796916020089,-16.4378795866666,48.4261694491556,-0.0250075311422722,2406.91788450545,3439.130573836
0.77,3.71920563166054,0.396825586415095,48,-19.3932221032364,3.20260267045336,1.93217421880485,26.5134591720381,44.4649698783,-0.921649618147265,2491.00730780598,3439.130573836
0.78,3.61032577604631,0.364560749879301,48,-17.7328101957419,-0.257940452568898,-3.61950597077357,19.1405290456123,-47.4562188263275,-3.11210024692833,2574.30429841988,3439.130573836
0.79,3.50725620297398,0.0999897725207353,48,-4.5527653718266,1.12304381051314,-3.32409636255875,20.9233032820964,-43.438957771755,-2.78728152097723,2656.96244395855,3439.130573836
0.8,3.70417995258873,-0.143054275790628,48,7.63834423439485,3.59242867954679,-0.914259169684345,43.8575653432433,-20.9489442408504,-1.85860264303701,2739.08644575001,3439.130573836
0.81,3.86645689231143,0.704681409604804,46.7955701445618,-34.8712072850903,1.91969267228299,3.42940881685578,-17.8236595780685,55.5710683892209,-0.330039603925505,2820.67272718078,3439.130573836
0.82,3.08060927074938,-0.0944727740053761,48,5.00862947028435,-2.99131614649393,-0.74236533848234,-47.97613258468,-5.23231032984588,1.78339787109245,2897.03399736963,3439.130573836
0.83,2.84669230209906,0.528132599325895,48,-26.1749115460585,2.56538744924841,-1.34215064003246,53.575916022862,10.897119654075,-1.86937347721989,2961.34546623755,3439.130573836
0.84,2.27844279800473,-0.188355580898518,48,9.67983382816974,1.34877176080823,1.84596699479744,38.7335718778467,29.9567954314988,-0.713488306334911,3015.77655392215,3439.130573836
0.85,1.85665407784167,0.345159339725542,48,-16.9204058308537,-1.07450173039344,-1.55297951240426,-4.19678809576245,-50.7216630559375,2.72013139778845,3062.46495643569,3439.130573836
0.86,1.80106193090503,0.40599484114563,48,-20.2169665238954,0.0698081270986986,1.84493433904386,-28.6533447587725,43.4938107040902,0.18389419546328,3101.56782142807,3439.130573836
0.87,1.53944295002219,-0.384574657770547,48,19.5467139445352,1.52843588804437,-0.426222946250407,32.0751344984916,-40.7094555715642,-2.08755336128425,3134.65300759452,3439.130573836
0.88,1.09428660266548,-0.242524003525783,48,12.1665879632283,-0.784121885199902,-0.800895704951577,-46.8519015183427,-16.0288860119002,2.14867469046767,3163.13548292466,3439.130573836
0.89,0.857054346239148,0.0996999475605864,48,-4.80120400120741,-0.153297316860847,0.849106686226332,-18.5236439162715,44.5412861952188,0.294423585517443,3187.37706275884,3439.130573836
0.9,0.79878927460257,0.303803193308774,48,-15.0267466434753,-0.429820842832657,-0.738657382384643,7.01000394251251,-49.8062542198583,2.97802721100198,3207.42710036613,3439.130573836
0.91,0.809128386484482,0.546290203211449,48,-27.286632692516,-0.719413707588093,0.659973976209775,-51.5084016895227,-19.8857959128383,1.42232170797215,3224.62208649296,3439.130573836
0.92,0.724256567201122,0.412930062039337,48,-20.719339849644,0.425488007879884,0.716951020935302,-19.8797624652094,48.3537598138128,-0.0174265361051455,3238.87229958511,3439.130573836
0.93,0.365107009426475,0.131115045501518,48,-6.69504020934218,0.384487641057386,-0.0516094697060135,45.5276235517107,16.6150250417633,-1.35945694952322,3251.42740468111,3439.130573836
0.94,0.39138367070868,-0.0755490978515744,48,3.93547054390587,0.261177527168736,-0.301123136250956,20.6002038924299,-43.5329705854341,-2.61780043899983,3262.07530931729,3439.130573836
0.95,0.502269565420505,-0.308449868749474,48,15.6123008872008,-0.531236569892727,0.255350239255577,-12.8559370399573,48.8105400688944,0.571999248820083,3271.08931278008,3439.130573836
0.96,0.487164733318272,-0.485609773014254,48,24.4517773975806,-0.157585806393954,0.669561828854651,46.0091322579401,28.0187288571806,-0.552649798719322,3278.8731017295,3439.130573836
0.97,0.431337840817987,-0.485873248148608,48,24.4224660159927,0.456859493410782,0.461957302646516,46.6161828349448,-26.97013800857,-1.62463609227278,3285.58143186118,3439.130573836
0.98,0.392030569745956,-0.497303864699674,48,24.9552616349638,0.623325597965219,-0.1116436311747,0.589746477394055,-54.0963703252066,-2.65124972583892,3291.04963747865,3439.130573836
0.99,0.321946925205339,-0.412962763598933,48,20.6936758098706,0.208517551303609,-0.480321244134368,-41.1421021157776,-32.2421409341711,2.64254642049373,3295.83959648501,3439.130573836
1,0.251489853601487,-0.439242122311519,48,21.9740414309731,-0.373631414982445,0.341438653663349,31.9368369491581,42.0344732629423,-0.220413977381585,3300.13672914863,3439.130573836
