t,iq,id,vq,vd,ia,ib,va,vb,theta_e,omega,r
0,0,0,0,0,0,0,0,0,0,0,0
0.01,0.000531177726950949,0.000296617624556015,-0.0257676559255366,-0.0148437123313337,0.000251407157736306,-0.000554009236245193,-0.0119259833762331,0.0272411234750339,-2.2063055663031,-0.00288943716524314,0
0.02,0.000608092078785464,0.000338459058078884,-0.0296266216584374,-0.0169376046433137,0.000288455194795729,-0.000633343596219801,-0.0137879759864682,0.0312171568234836,-2.20632726225583,-0.00303301633784943,0
0.03,0.000636529021584796,0.000354849792093601,-0.0310649180990295,-0.017757843147413,0.00030159622336984,-0.000663420898312391,-0.0144578578971912,0.0327313378090808,-2.20634862212625,-0.00289791953067713,0
0.04,0.000620320308437448,0.000346974420746651,-0.0303513448415486,-0.0173637311295166,0.00029321510306854,-0.000647466938958979,-0.0141169624305596,0.0319908528201877,-2.20636754270211,-0.00253622305657755,0
0.05,0.000634116265288068,0.000355636659275532,-0.031073466728604,-0.0177972157481305,0.00029916334387451,-0.000662632752741192,-0.0144401717926535,0.0327686231251455,-2.20638503280385,-0.00237012556318911,0
0.06,0.000633933473176363,0.000356440845153481,-0.0311191479985539,-0.0178374722341697,0.000298528267606907,-0.000663176143981969,-0.014452510815686,0.0328283675954677,-2.20640097632982,-0.00214412368149076,0
0.07,0.000646427445892545,0.000364492156426199,-0.0317671256876724,-0.0182403805937899,0.000303793009388917,-0.000677076644365913,-0.0147342818123645,0.0335374819886125,-2.20641507203571,-0.00201830259034704,0
0.08,0.000632459664838386,0.0003572610238056,-0.0311412654378433,-0.017878509569334,0.00029683732928664,-0.00066296928037435,-0.0144450522958357,0.0328749141696454,-2.20642817996415,-0.00175171235693985,0
0.09,0.000629845085811769,0.000356585258105032,-0.0310552321028823,-0.0178446886868415,0.000295126935182717,-0.000660876668183045,-0.0143955212171144,0.0327967883211419,-2.20643974582887,-0.00157325341305567,0
0.1,0.000628527928605004,0.000356520445591661,-0.0310273649035182,-0.017841445571956,0.000294098674141191,-0.000660045570419018,-0.0143746826681995,0.0327777828893552,-2.20645010403589,-0.00141941709864596,0
0.11,0.000627452631406479,0.000356512742428924,-0.0310074692723407,-0.0178410647590886,0.000293231845703764,-0.000659403688826709,-0.0143585945827661,0.0327657977778797,-2.20645939682332,-0.00128202644163159,0
0.12,0.000626498872069992,0.000356510529601617,-0.0309901487814327,-0.017840948726635,0.000292460196338713,-0.000658838089350729,-0.0143444529151707,0.0327555406538528,-2.2064677354551,-0.00115880722434063,0
0.13,0.000654124231539871,0.00037247186244497,-0.0323438617325303,-0.0186397129379948,0.000305207539716797,-0.000688085864046684,-0.0149592347557118,0.0342021283797864,-2.206475750753,-0.00120723452204978,0
0.14,0.000673965078841701,0.000384503533310373,-0.0334178724568046,-0.019241817516839,0.000314024161255482,-0.000709549660541144,-0.0154657149561416,0.03532440235568,-2.20648306106357,-0.00122009647278264,0
0.15,0.000629090204391996,0.000359114387910004,-0.0311897105680964,-0.0179712536805776,0.000292984833439991,-0.00066247831378852,-0.0144269446777004,0.0329791945238187,-2.20648974591527,-0.000863428999623381,0
0.16,0.000623908683272085,0.000356748010528016,-0.030959033513596,-0.0178528414912484,0.000290216985150221,-0.000657499269663716,-0.0143114598949958,0.0327470276678896,-2.20649504951941,-0.000758311979260823,0
0.17,0.000622898694196331,0.000356526699687793,-0.0309265357615217,-0.017841769481702,0.00028953261330459,-0.000656722876603807,-0.0142917308882185,0.0327188902725263,-2.20649973659477,-0.000686281258691782,0
0.18,0.000622369979224968,0.00035650532531071,-0.0309154756734072,-0.0178406981002729,0.000289117115624266,-0.000656392970307031,-0.0142833301295925,0.0327115212918505,-2.20650393504745,-0.000623957491345564,0
0.19,0.000621934747008009,0.000356502655802569,-0.0309074286983162,-0.0178405577093406,0.000288766018818335,-0.000656133492138612,-0.0142768152777677,0.0327066842349742,-2.20650770173854,-0.000568271375827623,0
0.2,0.000621548122774721,0.000356501798383605,-0.0309003937268075,-0.0178405193286094,0.000288453213986846,-0.000655904219010812,-0.0142710668471544,0.0327025245727338,-2.20651108168557,-0.000518326515788825,0
0.21,0.00062120172004464,0.000356501172110759,-0.0308941045375032,-0.0178404881147146,0.000288172865025088,-0.000655698911518081,-0.0142659256253372,0.0326988085011946,-2.20651411466089,-0.000473511247685511,0
0.22,0.000620890882196785,0.000356500623326978,-0.0308884589402342,-0.0178404582585686,0.000287921292459543,-0.000655514691960487,-0.0142613116620383,0.032695471188782,-2.20651683629017,-0.000433296687793673,0
0.23,0.000620612000356267,0.000356500131998812,-0.0308833930530299,-0.0178404297686888,0.000287695583039814,-0.000655349411078365,-0.014257172498905,0.0326924751760389,-2.20651927853462,-0.00039721031772454,0
0.24,0.000620361644736076,0.000356499691124064,-0.0308788399190682,-0.0178404145328443,0.000287492962105931,-0.000655201035385903,-0.0142534462586265,0.032689790687669,-2.2065214700743,-0.000364828339808416,0
0.25,0.000620137016901785,0.00035649929543762,-0.0308747533826772,-0.017840399212281,0.000287311163969483,-0.000655067906737817,-0.0142501028772267,0.0326873799574568,-2.20652343664488,-0.00033577048295895,0
0.26,0.000625932769275022,0.000359876354540408,-0.0311587036299433,-0.0180093859242379,0.00028996838387951,-0.000661227009853573,-0.0143781875851256,0.0329919765251147,-2.20652510546938,-0.000346109798109168,0
0.27,0.000609563067830709,0.000350553273926065,-0.03037914906995,-0.0175428324783912,0.000282331181325212,-0.000644006083492213,-0.0140278897189837,0.0321537241950473,-2.206526983757,-0.000223907203988464,0
0.28,0.000609035738006895,0.000350302625683707,-0.0302666858880094,-0.0175302890052188,0.00028205478653071,-0.000643491691574661,-0.0139448000100498,0.0320768742231789,-2.20652840015862,-0.000200841009822449,0
0.29,0.000618353059557562,0.000355920840838398,-0.0308096980531076,-0.0178114392248811,0.000286215229288861,-0.000653544943925385,-0.0142147546340608,0.0326255361960343,-2.20652948934841,-0.000239947550937964,0
0.3,0.000612336474017672,0.000352807170280824,-0.0305216245029906,-0.0176556233040382,0.000283222709341688,-0.00064746718351366,-0.0140754709822378,0.0323291155645161,-2.20652972381877,-0.000201464396793215,0
0.31,0.000618569144508831,0.000356153958037329,-0.0308242927579578,-0.0178231169296766,0.000286249869497961,-0.000653861178367735,-0.014219523675774,0.0326436160305705,-2.20653073152003,-0.000223686791726859,0
0.32,0.000619112998406171,0.000356465587272786,-0.0308538150432574,-0.0178387072094955,0.000286501780951053,-0.000654435137517147,-0.0142339885327787,0.0326737042295233,-2.20653173579476,-0.000212697392777601,0
0.33,0.000619077198491719,0.00035649445632441,-0.0308551896872491,-0.017840146283815,0.000286455236961018,-0.000654437370800292,-0.0142342103557179,0.0326756913563159,-2.20653264735218,-0.000199627633635559,0
0.34,0.00061899070212035,0.000356496998125433,-0.0308538141117001,-0.0178402820249024,0.000286383593750293,-0.000654388291623984,-0.0142329961581366,0.0326749954602884,-2.20653346641117,-0.000187566713411842,0
0.35,0.000618907577130968,0.000356497102241496,-0.0308523137385319,-0.0178402807717889,0.000286316165718806,-0.000654339228676372,-0.0142317656321392,0.0326741140358683,-2.20653420150271,-0.00017670936453623,0
0.36,0.00061883219821032,0.000356496992857799,-0.0308509270529229,-0.0178402811494913,0.000286255146640412,-0.000654294571642121,-0.0142306280810582,0.0326733003526773,-2.20653486114598,-0.000166962978529001,0
0.37,0.000618764731060981,0.000356496875800481,-0.0308496893511203,-0.017840266744218,0.000286200542551592,-0.000654254586765463,-0.0142296213984405,0.0326725622720735,-2.2065354530758,-0.000158216720917899,0
0.38,0.00061870402047084,0.000356496768993364,-0.0308485680637705,-0.0178402670655242,0.000286151408725019,-0.000654218604546047,-0.0142287016285954,0.0326719042989342,-2.206535984242,-0.000150368258044226,0
0.39,0.000618649538100397,0.000356496672981716,-0.0308475594954509,-0.0178402673620858,0.000286107315624402,-0.000654186313510965,-0.0142278743529725,0.0326713124586711,-2.20653646088204,-0.000143325462741909,0
0.4,0.000618600813817681,0.000356496586806895,-0.0308466605341533,-0.0178402528877794,0.000286067881863437,-0.000654157435352553,-0.0142271456403421,0.0326707731181511,-2.20653688859338,-0.000137005634061962,0
0.41,0.000618556925239166,0.00035649650947375,-0.030845843354997,-0.0178402516880877,0.00028603236255969,-0.000654131423031198,-0.0142264762850048,0.0326702923936644,-2.20653727239859,-0.000131334557376977,0
0.42,0.000618517576860514,0.000356496440076594,-0.0308451096225256,-0.0178402519254406,0.00028600051752382,-0.000654108101653537,-0.0142258745077671,0.0326698618129626,-2.20653761680488,-0.00012624563611462,0
0.43,0.000618482186602791,0.000356496377801346,-0.0308444449592412,-0.0178402521469598,0.000285971876229318,-0.000654087126105027,-0.0142253294704974,0.0326694717276935,-2.20653792585642,-0.000121679110033008,0
0.44,0.000618450521635356,0.000356496321917249,-0.0308438509539226,-0.0178402523535803,0.000285946249388818,-0.000654068358592616,-0.0142248423323662,0.0326691231337259,-2.20653820318282,-0.000117581353479364,0
0.45,0.000618422228241409,0.000356496271768483,-0.0308433217909899,-0.0178402378029745,0.000285923350646469,-0.000654051589496573,-0.0142244170611391,0.0326688007621952,-2.20653845204078,-0.000113904245656019,0
0.46,0.000618396733286011,0.000356496226766767,-0.0308428394772459,-0.0178402379855419,0.00028590271727525,-0.00065403647886978,-0.0142240215727585,0.0326685176997309,-2.20653867535241,-0.00011060460553295,0
0.47,0.000618373799467685,0.000356496186384057,-0.0308424016676977,-0.0178402381578146,0.000285884156931054,-0.000654022886136485,-0.0142236626489512,0.0326682607282355,-2.20653887574033,-0.000107643684759602,0
0.48,0.000618353193955789,0.000356496150145847,-0.0308420053247873,-0.017840238320724,0.00028586748101207,-0.000654010673341001,-0.014223337768145,0.0326680280783475,-2.20653905555768,-0.000104986712635564,0
0.49,0.000618334800335,0.000356496117627055,-0.0308416522982197,-0.0178402384747443,0.000285852594716931,-0.000653999771622349,-0.0142230483493826,0.0326678208788274,-2.20653921691594,-0.000102602487791541,0
0.5,0.000618318211151693,0.000356496088446131,-0.0308413291293856,-0.017840238621509,0.00028583916918173,-0.000653989939280964,-0.0142227835005441,0.0326676311665863,-2.20653936171043,-0.000100463011786509,0
0.51,4.70966225114101,0.0119217383515455,4.51783188298872,-0.583549550441419,-0.857694934277726,4.63092000010605,-1.40751988640624,4.33246151398264,0.185666607834309,57.5576946963332,4293.93466817486
0.52,4.65440610324546,0.0373060406408332,7.28169059245257,-1.83776479190459,-3.47081790695191,3.1013401895598,-6.68202113772869,3.42797182449381,0.849572715434065,124.043184834356,4293.93466817486
0.53,4.64796394432273,0.00743778053409638,7.60496941328265,-0.332944347614643,-4.18730026640047,-2.01745895306595,-6.70093976888138,-3.61162261724521,2.02138186295479,196.577619452273,4293.93466817486
0.54,4.65779955557768,0.0561947717031464,7.11449402167816,-2.75206684558106,2.46402915696685,-3.95307663294347,6.15371596022984,-4.50795707475719,-2.57213873311311,263.371542206883,4293.93466817486
0.55,4.65499003439931,0.0155114335850748,7.25636425207906,-0.707594994331275,1.76181939703591,4.30873127929287,2.06812933273757,6.99130559322964,-0.384818822976855,333.697746708398,4293.93466817486
0.56,4.62131536410004,0.0663510327181456,8.94155736235902,-3.24129350554204,-3.47287506043744,-3.04960603498247,-4.45995750177214,-8.40036967852083,2.3057481081613,402.198339187893,4293.93466817486
0.57,4.6094181868998,0.00914556501622465,9.53798790750046,-0.365368764472429,3.25902972559861,3.25968478702262,6.47140928778918,7.01623613396763,-0.783313572655257,470.494644639097,4293.93466817486
0.58,4.58774427116116,0.0866503481641565,10.6233839998929,-4.22951010908563,-1.12794384603561,-4.44776893066618,1.70215600559217,-11.3069760902137,2.91211593126191,538.703304518325,4293.93466817486
0.59,4.61827966316487,0.047197098665736,9.09837645019149,-2.22880193017243,-3.3577476347999,3.17116152762996,-8.19187539009841,4.54325760511546,0.824188109330562,606.087396200504,4293.93466817486
0.6,4.56357421419204,0.0589028973096211,11.8355281140384,-2.81216593557927,3.20626818725586,3.24800299740333,6.17864439258198,10.4791391086024,-0.766025553791169,674.346599674248,4293.93466817486
0.61,4.56443102402655,0.0930466016268044,11.7946117355037,-4.49346826364226,4.35266138633962,-1.37732606852496,12.5832787452604,0.98245562073844,-1.85687801324793,741.901612873116,4293.93466817486
0.62,4.58370697379792,0.102539927622556,10.8328636047267,-4.96733363681458,2.83966440442682,-3.59960971893229,10.7280679876049,-5.18978752853794,-2.45130154607363,810.127550599318,4293.93466817486
0.63,4.54666167393248,0.0839422055142185,12.687257415959,-4.02963384515913,2.46692459618433,-3.82013896446371,10.4224608212907,-8.28110862708116,-2.54973774468075,877.831193168419,4293.93466817486
0.64,4.51406627821927,0.0858526172340723,14.3191974765541,-4.11043095047449,3.72420980296579,-2.55233743449721,14.2221280897766,-4.43465123421877,-2.15259655347472,945.282217923832,4293.93466817486
0.65,4.54058651437865,0.147740213505455,12.9954720330891,-7.17807765854219,4.36946573322049,1.24359248608853,10.1884021246255,10.7983125710358,-1.26099193503333,1012.30066054661,4293.93466817486
0.66,4.52303759952384,0.139116679714577,13.8752903019575,-6.71956584911227,-0.41996493730519,4.5056466826323,-8.3800615799766,12.940278748155,0.123687716072012,1079.51266706866,4293.93466817486
0.67,4.50707253943313,0.154091258044381,14.6760060570042,-7.47956041769079,-4.15994929803709,-1.74134110078371,-10.2140956227748,-12.9228955128456,2.00140631181279,1146.8375435165,4293.93466817486
0.68,4.48435546776787,0.124390810473917,15.8144089807227,-6.00052197222215,4.18251495094678,-1.62218547649046,16.9110258316594,0.344964736796513,-1.91305254673045,1213.97708642181,4293.93466817486
0.69,4.42673161266499,0.131943544176263,18.6982465381903,-6.32328987562708,-3.51435451472755,2.69493491836658,-18.8668564292528,5.80087466957487,0.946403983790685,1280.4972063994,4293.93466817486
0.7,4.41411949956043,0.200576268183045,19.3315572184573,-9.744166647092,3.95480344552807,-1.97084030377836,21.6214794748605,1.08144045373603,-1.98770730912653,1347.21299720159,4293.93466817486
0.71,4.38873601892933,0.13109935054614,20.6035047041977,-6.30621725961486,-4.25443830821406,-1.08533200688173,-18.0625673333565,-11.7480399875606,1.85043757013385,1414.09337420211,4293.93466817486
0.72,4.42549037441773,0.150278159660718,18.7686466185064,-7.24303989995486,0.619536623014964,4.38448662354878,-5.20831138364316,19.4318608325019,-0.106428300458701,1480.69789645612,4293.93466817486
0.73,4.39416462748887,0.180888149391929,20.3378583557561,-8.72220311272559,4.39312384814411,-0.20461219644084,20.3846581867571,8.61225988039816,-1.57619594226751,1546.75707124065,4293.93466817486
0.74,4.40283687363733,0.201599479043686,19.9072596633312,-9.78941344387151,1.71196458648002,4.06137810853035,-2.29992093958717,22.0644956105956,-0.353165396278228,1613.41360224464,4293.93466817486
0.75,4.37038760183346,0.197785303825503,21.5327833007689,-9.60028214275428,3.41568415217637,2.73358895762332,9.85494019051208,21.4174304653894,-0.850644540082458,1679.57146337039,4293.93466817486
0.76,4.33658611038341,0.220734727307552,23.2259979999937,-10.6770267285453,3.43881405920375,2.65127531177592,10.7085552001393,23.2114783756518,-0.863142620907063,1745.49718719072,4293.93466817486
0.77,4.31035401739285,0.226478051150938,24.5408007740763,-10.9555821759302,1.85326278576263,3.89818690031855,-0.768036252708908,26.8642104622672,-0.39129367129924,1811.55477005105,4293.93466817486
0.78,4.31138669246631,0.155973348207244,24.4924636687926,-7.48123227793193,-2.1729404305569,3.72702465548295,-19.4155932226096,16.6998309206307,0.56400404201055,1877.63587816128,4293.93466817486
0.79,4.36268423615796,0.158037328859531,21.9309530694676,-7.53848586753953,-4.02947146633227,-1.67968724581343,-16.7733980672862,-16.0140122700916,2.00195304524151,1943.30496441047,4293.93466817486
0.8,4.3399884285498,0.280526096682515,23.069158741666,-13.6162898897106,2.85306888812549,-3.28240649074372,25.9046392210549,-6.8219573610367,-2.36150913660105,2008.88371011544,4293.93466817486
0.81,4.30553710010886,0.208412497326258,24.7952359548973,-10.0272641037632,0.0386237417229105,4.31040528210874,-10.9963468695933,24.3809373689617,0.0394075945719526,2074.48500861902,4293.93466817486
0.82,4.30139661975177,0.156423260785502,25.0059022403518,-7.44852118728428,-1.09745258483075,-4.16198017066096,1.77377470944445,-26.0313145655687,2.92012551982614,2140.00350972276,4293.93466817486
0.83,4.28105820131932,0.236167329047193,26.0265361527628,-11.4399562359222,0.251063068145388,4.28021046984913,-11.349320181207,26.0661871821586,-0.00347979362389581,2205.28051094915,4293.93466817486
0.84,4.27196137112141,0.150771587119048,26.4852099856378,-7.14966585993227,1.17458938457524,4.11007613134831,-0.56454293796809,27.4274563378232,-0.24308442251288,2270.34154884414,4293.93466817486
0.85,4.29574973127412,0.284383253337636,25.299666858607,-13.7896105740576,3.27194184090511,-2.79798788029095,28.5222777262543,-4.08731895587754,-2.21216569724351,2335.23289376261,4293.93466817486
0.86,4.26465495749997,0.337388392089794,26.8584032802357,-16.3926627079581,-2.5645641522453,-3.42405075059707,-0.500850940195502,-31.4617603728139,2.57768945246202,2399.96977227737,4293.93466817486
0.87,4.23714951539569,0.192423545310886,28.2377813963553,-9.19560177193768,-4.2346462289063,0.241317534832409,-28.3420394906603,-8.86905787816639,1.55925368621665,2464.8317183442,4293.93466817486
0.88,4.12527277459026,0.242598653310604,33.8357817975601,-11.7250218539497,-3.37532439207145,2.38409622701166,-34.925830549696,7.90712512495008,1.01457425302088,2529.37820351286,4293.93466817486
0.89,4.17550767906652,0.316899515139051,31.328275930677,-15.3425727766631,-3.19268874863376,2.709617728571,-34.365238960955,5.99047271526207,0.942810227171408,2593.71339513195,4293.93466817486
0.9,4.17987935448538,0.277284658734845,31.1139946674757,-13.3514445994855,-4.00970458614833,1.21266126013981,-33.323281410762,-5.99171537040928,1.34335113009422,2658.09694469194,4293.93466817486
0.91,4.12226676621412,0.265057300815705,33.9990319403933,-12.7302443206907,3.8733347508239,-1.43548478661709,36.2213382775393,2.45111132599593,-1.86149947865434,2722.34288371708,4293.93466817486
0.92,4.06728148919518,0.231634978392196,36.7527809261036,-11.1580127882941,2.21870882354194,3.41668913304995,8.54285410277645,37.4471333878119,-0.519045610758009,2786.63703823627,4293.93466817486
0.93,4.13090050265045,0.26777549741623,33.5764218853894,-12.8998037578665,-3.89903754015027,1.39052110387192,-35.8269130595111,-3.19583232403688,1.29295761297758,2850.53050958457,4293.93466817486
0.94,4.08420308715629,0.40344296155782,35.9159589166706,-19.6868569997528,1.34249726835821,-3.87829629667697,32.9087006121016,-24.3833112487979,-2.70988413844259,2914.36419178299,4293.93466817486
0.95,4.12382021364691,0.314413451981009,33.939851106011,-15.1747232619129,0.157257675946938,4.13279796223155,-16.4552805729359,33.3378082728873,0.0380632356149266,2978.01105063056,4293.93466817486
0.96,4.12907855585577,0.215299808540897,33.6818198173758,-10.2423430283248,0.242865698671136,-4.12754890708695,13.9060362723406,-32.3418108972332,-3.03072508363381,3041.62435002302,4293.93466817486
0.97,4.12091999329619,0.366745726696354,34.0947208748026,-17.8232567581434,-2.19821882768038,3.50489914331779,-34.8049626527239,16.3930792635154,0.648930965817188,3105.03637673498,4293.93466817486
0.98,4.10391886766449,0.260211537995871,34.949836945931,-12.4609878726398,-2.49707585804039,3.26718109018625,-32.3394134374771,18.1914721732235,0.715905405037784,3168.24699316647,4293.93466817486
