t,iq,id,vq,vd,ia,ib,va,vb,theta_e,omega,r
0,0,0,0,0,0,0,0,0,0,0,0
0.01,0.000822267292887606,0.000465976356434237,-0.0407584083413152,-0.0233209223969869,-0.000776462745064696,0.000538853478447561,0.0384676419762101,-0.026932393000879,1.47969063023836,-0.00108217643327079,0
0.02,0.000930458142257157,0.000526376562293727,-0.046167452721453,-0.0263437870791043,-0.000878704710146119,0.000608853572044893,0.043578984577546,-0.0304351919929346,1.47968242495194,-0.00116611955579959,0
0.03,0.000972538147030493,0.000550323501805125,-0.0482658878724345,-0.0275422831511372,-0.000918425960442209,0.000636537633808376,0.0455594005921016,-0.0318200300279596,1.47967405907158,-0.00115813685076249,0
0.04,0.000949654561903147,0.000537972093171094,-0.0471518137185329,-0.0269241253604167,-0.000896756415702781,0.000622162109799566,0.0445059570426139,-0.0311034057796195,1.47966629637004,-0.00106579891849782,0
0.05,0.000972250513196808,0.000551208807643056,-0.0482852770334582,-0.0275865834818137,-0.000918049219973181,0.000637407122443239,0.0455741911829815,-0.0318666073565094,1.47965877749799,-0.00103774638903732,0
0.06,0.000973222729591314,0.000552223836747031,-0.04834910369924,-0.0276373713347914,-0.000918920442710218,0.000638513012580039,0.045632901721895,-0.031923320680294,1.47965160524291,-0.000982760560112879,0
0.07,0.000995346813070046,0.000565401766645042,-0.0494573904680162,-0.0282969135209094,-0.000939748888812193,0.000653656226154299,0.046676339217504,-0.0326813118458874,1.47964492255024,-0.000960627257910997,0
0.08,0.000973511055639413,0.000553309839648434,-0.0483922559678772,-0.0276917338170096,-0.000919100313995971,0.000639632837584537,0.0456705062966248,-0.0319819857742231,1.47963845454841,-0.000879892308707897,0
0.09,0.000971001532671507,0.00055237717573833,-0.0482814514362412,-0.0276450622608496,-0.000916682266390513,0.00063848112204843,0.0455642180986749,-0.0319256957520545,1.47963243063121,-0.000829149045190686,0
0.1,0.000970109508198725,0.000552302991425338,-0.048249829535933,-0.027641345473004,-0.000915797078202328,0.000638331233601355,0.0455328847886925,-0.0319193739384751,1.47962675728451,-0.000783376656169949,0
0.11,0.00096938884910992,0.000552294977554161,-0.0482259634053183,-0.0276409345608836,-0.00091507672801147,0.000638262536000688,0.0455089844827606,-0.031917035280834,1.47962140890488,-0.000740390774585165,0
0.12,0.00096871891647124,0.000552292184552319,-0.0482039314336719,-0.0276408000331596,-0.000914406614175712,0.000638203368996511,0.045486895340792,-0.0319151246964679,1.47961636645369,-0.000699877122365149,0
0.13,0.0010126016024368,0.000577558222510542,-0.0503839679770856,-0.0289053031047693,-0.000955803137029823,0.000667364869386351,0.0475425728954882,-0.0333731110202774,1.47961140912523,-0.000721131679721778,0
0.14,0.00104729530348197,0.000598044596137892,-0.0521545610773206,-0.0299305895435699,-0.000988483992891302,0.00069092994396161,0.0492122863923548,-0.0345555972257819,1.47960670420176,-0.000731766321168347,0
0.15,0.000973353105006047,0.000555804974152646,-0.0484640921848608,-0.0278165947998167,-0.000918692616259836,0.000642136522203336,0.0457295143339195,-0.0321145246943454,1.47960222043947,-0.000595152929100356,0
0.16,0.000966846799559742,0.000552554336312524,-0.0481512009080644,-0.0276539128548246,-0.000912506841952575,0.000638310497944714,0.0454326116191731,-0.0319242047126062,1.47959825241669,-0.000555071839830915,0
0.17,0.000965865673292442,0.000552302700592059,-0.0481108765800348,-0.027641338380268,-0.000911550336591998,0.000637973946007953,0.0453934813481517,-0.0319081789490849,1.47959453247642,-0.000524516244522497,0
0.18,0.0009653609022356,0.000552281829957429,-0.0480936269247524,-0.027640284397322,-0.000911047328000444,0.00063791038352539,0.0453762875303598,-0.0319057173920949,1.4795910270132,-0.000496297915744854,0
0.19,0.000964919198372955,0.000552278795397836,-0.0480790532725572,-0.0276401409437526,-0.000910605628334215,0.000637870141079546,0.0453616820779952,-0.031904397095554,1.47958772217759,-0.000469741547954445,0
0.2,0.000964505814289617,0.000552277214196335,-0.0480654637239489,-0.0276400443252353,-0.000910192119186139,0.000637833750510575,0.0453480584120742,-0.0319032044088729,1.47958460636593,-0.00044470793065535,0
0.21,0.000964116148149514,0.000552275821619527,-0.0480526543935863,-0.0276399765238142,-0.000909802326093026,0.00063779954351183,0.0453352147888953,-0.0319021033248778,1.47958166875698,-0.0004211063734562,0
0.22,0.000963748833749255,0.000552274516020351,-0.0480405802822229,-0.0276399087133239,-0.000909434891250933,0.000637767304096067,0.0453231086954696,-0.031901061513878,1.47957889915799,-0.000398854679453976,0
0.23,0.000963402210486821,0.000552273285460862,-0.0480291802284879,-0.0276398609519786,-0.000909088155887541,0.000637736878210456,0.0453116770899259,-0.0319000938268772,1.47957628795981,-0.000377875622393583,0
0.24,0.00096307575786119,0.000552272125135292,-0.0480184488289878,-0.0276397931129488,-0.000908761596296917,0.00063770822221235,0.0453009179566567,-0.0318991602327239,1.47957382610331,-0.000358096414774576,0
0.25,0.000962767784486804,0.000552271031006154,-0.0480083209799324,-0.0276397482169937,-0.0009084535230206,0.000637681186052788,0.0452907622702809,-0.0318982980390478,1.47957150504701,-0.000339448433799921,0
0.26,0.000971980942249571,0.000557672260035278,-0.0484684601269459,-0.0279100708437986,-0.000917134941709518,0.000643901234976838,0.0457242927968116,-0.0322095130328703,1.4795693512684,-0.000335171540594089,0
0.27,0.000944740846612803,0.000542159869455934,-0.047126727231968,-0.0271336993067503,-0.000891419947099096,0.000625973696908262,0.0444587991312359,-0.031314233783918,1.47956718226802,-0.000280781949516849,0
0.28,0.000943559593907776,0.000541566712081787,-0.0470295562030716,-0.0271040124003926,-0.000890296427631635,0.000625277124031284,0.0443646758596604,-0.0312759041552082,1.4795652356041,-0.000263876011350738,0
0.29,0.000960203696764136,0.000551444126425051,-0.0478992081895886,-0.0275983712757648,-0.000905970311861917,0.000636631414456608,0.0451856166842004,-0.0318475161846732,1.4795634708282,-0.000272844684301157,0
0.3,0.000952085772660577,0.000547117552128715,-0.0475009858584816,-0.0273818222437959,-0.000898279449914731,0.00063158448699354,0.0448087355960412,-0.0315956494030836,1.4795620817841,-0.000250804239710439,0
0.31,0.000960534524703361,0.000551869776848558,-0.0479221569402812,-0.0276196509443357,-0.000906259070000507,0.000637088158568189,0.0452064355079869,-0.0318709339800092,1.47956046576204,-0.000249701305088603,0
0.32,0.000961034467404286,0.000552234628848592,-0.0479502775680284,-0.0276379254977624,-0.000906722701148614,0.000637498451810154,0.0452327246297271,-0.0318917648812686,1.47955891153859,-0.000238182872272548,0
0.33,0.000960897451823637,0.000552262055982353,-0.0479467230481321,-0.0276392887391625,-0.000906582820777022,0.000637514611966654,0.0452290138745698,-0.0318928649856837,1.47955744370868,-0.000226468905660626,0
0.34,0.000960718494193873,0.000552263565746701,-0.0479409109477753,-0.0276393742036461,-0.000906403587587569,0.000637501064740905,0.0452231740202368,-0.0318924831332883,1.47955605962438,-0.000215355242394457,0
0.35,0.000960545590021202,0.000552263116283896,-0.047935223869038,-0.027639357800296,-0.000906230611681937,0.000637486045782464,0.0452174704743455,-0.0318920076334067,1.47955475468291,-0.000204871521274159,0
0.36,0.000960382670129319,0.000552262548427585,-0.0479298663401303,-0.0276393126537561,-0.000906067636929164,0.000637471750581978,0.0452121001078619,-0.0318915301481681,1.47955352437346,-0.000194986929728825,0
0.37,0.000960228741645402,0.000552262001925912,-0.0479247982841235,-0.0276392903833867,-0.000905913659126673,0.000637458231777463,0.0452070181709423,-0.0318910986258421,1.47955236442854,-0.000185667627124511,0
0.38,0.000960083602518054,0.000552261485790567,-0.0479200187077626,-0.0276392680891251,-0.000905768473671533,0.000637445483641064,0.0452022256324893,-0.0318906903550923,1.47955127082405,-0.000176881317716883,0
0.39,0.000959946845293647,0.000552260999075506,-0.0479155158783887,-0.0276392457716233,-0.000905631672467524,0.00063743347159745,0.0451977106874269,-0.0318903044408793,1.47955023976579,-0.000168597521002185,0
0.4,0.000959817887895573,0.000552260540162708,-0.0479112688513268,-0.0276392234324522,-0.000905502673722163,0.000637422144286766,0.0451934523638463,-0.0318899391396392,1.47954926767666,-0.000160787497143473,0
0.41,0.00095969632286597,0.000552260107469176,-0.0479072649153964,-0.0276391981620428,-0.000905381069662922,0.00063741146610361,0.045189438160882,-0.0318895905495581,1.47954835118386,-0.000153424149801411,0
0.42,0.000959581684551995,0.000552259699499082,-0.0479034880260091,-0.0276391757824438,-0.000905266394680167,0.000637401396045877,0.0451856514686737,-0.0318892631514492,1.47954748710787,-0.000146481932333018,0
0.43,0.000959473681911137,0.000552259314841417,-0.0478999304459786,-0.027639153383846,-0.000905158357156654,0.000637391908937266,0.0451820847516612,-0.0318889534792075,1.47954667245073,-0.000139936759174777,0
0.44,0.000959371849282108,0.00055225895216462,-0.0478965753290152,-0.0276391309675255,-0.000905056491685371,0.000637382963609087,0.045178721143303,-0.0318886601277588,1.47954590438609,-0.000133765922282801,0
0.45,0.000959275573811222,0.000552258610213874,-0.0478933981090814,-0.0276391314052103,-0.000904960186375656,0.000637374505405689,0.0451755340105315,-0.0318884037564246,1.4795451802491,-0.00012794801234811,0
0.46,0.000959185149883493,0.000552258287805783,-0.0478904192158196,-0.0276391089533617,-0.000904869732892081,0.000637366562272455,0.0451725477861523,-0.031888140787925,1.47954449752753,-0.000122462844517055,0
0.47,0.000959099848229698,0.000552257983824099,-0.0478876075814999,-0.0276390864866469,-0.000904784403589522,0.000637359068808817,0.0451697293716664,-0.0318878912784538,1.47954385385269,-0.000117291388363894,0
0.48,0.000959019114199864,0.000552257697216325,-0.0478849405375288,-0.0276390839600749,-0.000904703644796531,0.000637351975463513,0.0451670543030994,-0.0318876731357999,1.47954324699144,-0.000112415701863664,0
0.49,0.000958943358602194,0.000552257426990198,-0.0478824434248368,-0.0276390614632066,-0.000904627864358909,0.000637345320606129,0.0451645513856394,-0.0318874490204774,1.4795426748382,-0.000107818869144914,0
0.5,0.000958871646764154,0.000552257172209935,-0.0478800740244638,-0.0276390618147919,-0.000904556130311843,0.000637339019942118,0.0451621746107135,-0.0318872578159591,1.47954213540811,-0.000103484941801355,0
0.51,4.70817526210437,-0.0203076241961642,4.59218758253207,1.02145771960139,-0.2449614424843,4.70184225490265,0.801152043962207,4.63570038597731,0.047738731837561,14.7019976483011,2615.9750357214
0.52,4.74179453759133,0.025949759165009,2.91233380481858,-1.28764399921064,-0.991916057035186,4.63695927980045,-1.88244973810385,2.56828702502368,0.216211561731876,31.2698220740999,2615.9750357214
0.53,4.64516721186817,-0.0722619319794964,7.74483714711945,3.63449989574617,-2.31841396570108,4.02588585241444,-0.582729219056268,8.53536868476332,0.506937799773259,48.1412533280064,2615.9750357214
0.54,4.66557084230625,0.0175843032721914,6.72590870354838,-0.855291055797177,-3.71360215834071,2.82436178664615,-5.88400367775464,3.36866017858204,0.92434939900546,65.9964858491504,2615.9750357214
0.55,4.68461173961109,0.0774871221333848,5.77512595743522,-3.85370653384537,-4.65686104228198,0.515011298783769,-6.11004382914763,-3.29704386976266,1.47719124377393,84.5915579309958,2615.9750357214
0.56,4.67143759498452,-0.0400168402064089,6.43520355170674,2.03675190910172,-3.8623592063695,-2.62794823242537,-6.48254482922152,-1.88064234458916,2.15968021504578,101.412051134246,2615.9750357214
0.57,4.71071771397235,0.0516019681724692,4.47258422428533,-2.53801839587192,-0.880821384416015,-4.62792370643765,1.71024198505474,-4.84980611712121,2.9644683124143,118.464899143478,2615.9750357214
0.58,4.66209466693864,0.0479866751730722,6.9053169245519,-2.36067276737132,3.17264818302923,-3.41639179708844,6.463975407662,-3.38721119392523,-2.38287733095983,136.498847296104,2615.9750357214
0.59,4.62587986935749,0.0255340337598815,8.71758420311956,-1.2215400529382,4.48929891341826,1.11606980901222,8.14707589613008,3.33370496326659,-1.32160966376328,153.198520345452,2615.9750357214
0.6,4.60649951503322,-0.0215871015741651,9.68825912975068,1.13246469772741,0.584380943423368,4.56933285041912,2.39669023730819,9.4551952472272,-0.131887636534859,171.047055758254,2615.9750357214
0.61,4.56763657771879,0.0263761640409437,11.6330306022281,-1.26112588881109,-4.21878825744302,1.75094981281733,-11.246657976302,3.22963215612659,1.18316980284732,188.197708428134,2615.9750357214
0.62,4.56534678513263,-0.00336080669097316,11.7491984816014,0.239863416482702,-2.24466836842537,-3.97540771234009,-5.99310050807996,-10.1086075064117,2.62684400051313,205.283433514745,2615.9750357214
0.63,4.63254098624412,0.0133968723734201,8.39129815742937,-0.601613508148762,4.02312942467585,-2.29674663333342,7.59614938151514,-3.61584542725096,-2.08664112644189,222.866319733228,2615.9750357214
0.64,4.52723565731028,0.0449589860571769,13.6583799369379,-2.18437255050341,1.76586851261975,4.16888383184121,3.18236581671811,13.4608830969489,-0.390739408276885,240.247656728444,2615.9750357214
0.65,4.61063535591896,0.0657778102733144,9.4902209574941,-3.22114946300771,-4.5570258132693,0.70413126813938,-9.84505805225138,-1.87481455960191,1.43175873446885,257.394680681262,2615.9750357214
0.66,4.58144035224086,0.0333656846865019,10.9518283589564,-1.57968377067543,1.05384182573316,-4.45871353378874,4.13131013245621,-10.2649998445612,-2.90221378021367,274.500291505594,2615.9750357214
0.67,4.50745352002745,0.0549769204189321,14.6531098742253,-2.64985725243963,3.35349696082164,3.01234424174041,8.98602570387462,11.8737826531283,-0.826741805377058,291.67544394884,2615.9750357214
0.68,4.56181722910504,0.062186880538599,11.9369388179145,-3.01415717959361,-4.46238585845572,0.949292415499633,-12.2953716630901,-0.63205024516246,1.37482013330349,308.912193863301,2615.9750357214
0.69,4.47227701683842,0.0756319759677613,16.4160717024137,-3.69939818693067,2.31395874277521,-3.82786844704257,11.8618919405273,-11.936015946517,-2.58095887220246,326.16977969348,2615.9750357214
0.7,4.56800537546035,0.0125944530751414,11.6317281337074,-0.535540952279277,0.594693616900035,4.52914685481728,0.951314700343124,11.6051240333294,-0.127799702443055,343.38049805312,2615.9750357214
0.71,4.56050602565701,0.0425511298840786,12.0088256001485,-2.01979626713355,-2.93731902676083,-3.48886553821398,-6.0910489962052,-10.5446949401742,2.45114274083918,360.406690648215,2615.9750357214
0.72,4.55268383241711,0.0733100094919426,12.402084303249,-3.53848086535623,4.14446311389865,1.88566432139375,9.68734830075587,8.51397820053762,-1.12770425817701,377.369236470051,2615.9750357214
0.73,4.44671525884663,0.0766134469526947,17.7027453111225,-3.73148131239207,-4.41847802993101,-0.506160164898822,-17.0619188866433,-6.01681545676814,1.7020819737082,394.658197588256,2615.9750357214
0.74,4.49237625665771,0.0841748361375994,15.4220194473536,-4.0911977831597,4.48097099690896,-0.33080018029235,15.6234549274412,3.23793750182065,-1.62575090874964,411.714251979429,2615.9750357214
0.75,4.51417927943383,0.0673233206714152,14.3342490947704,-3.21867820098315,-4.4757601210873,0.591538954643398,-14.6111993758743,-1.53082960216359,1.45430550940786,428.619218486768,2615.9750357214
0.76,4.50115890264277,0.10821424028544,14.9875904127072,-5.28828681224686,4.48921800502759,-0.345055780964353,15.2452369466592,4.49183639816435,-1.6234719323917,445.856871393165,2615.9750357214
0.77,4.46098336309739,0.130334421254358,16.9987273522768,-6.36405896823126,-4.43751379637705,-0.475216723357591,-15.9798453925538,-8.60828202246215,1.70668870665719,462.801805971057,2615.9750357214
0.78,4.51348757344322,0.0343545322814598,14.3759627487641,-1.5665035057282,4.0797579971117,1.93088710040689,12.2660294921461,7.65942286893169,-1.12113705919844,479.825927033201,2615.9750357214
0.79,4.46319073145427,0.0598193784944185,16.8934241827444,-2.8626335862172,-2.86312266988607,-3.42435080571007,-8.44089532067359,-14.9108597288185,2.45862188987156,496.929573937507,2615.9750357214
0.8,4.43025513082234,0.11907775180067,18.5427495699757,-5.80514049375789,0.650467184130615,4.38386045370068,-3.53536304656354,19.1058741201782,-0.12043114575908,513.806631422679,2615.9750357214
0.81,4.50056052200678,0.0862701706218104,15.0300498412737,-4.13529249819781,2.34334244068517,-3.8433362798835,11.5577383862938,-10.4604840074833,-2.57489345823096,530.687563456195,2615.9750357214
0.82,4.43942434361351,0.0767492441346442,18.0894633923201,-3.66455032107901,-4.3426805429168,0.924934944369239,-18.4564193411281,-0.134907309811362,1.37823130845992,547.681117701378,2615.9750357214
0.83,4.47335174073752,0.0677402628706254,16.395762824052,-3.21490156752801,3.33969151812219,2.97689857122407,9.89738915028881,13.4609924849249,-0.827628159931208,564.6595320366,2615.9750357214
0.84,4.44085147456263,0.123066431509971,18.0234934366183,-5.98322888657042,0.902311713598476,-4.34995870522844,9.97076348758167,-16.1625870158097,-2.90935796666258,581.595799756272,2615.9750357214
0.85,4.47389235585668,0.104979317254468,16.3741892884485,-5.06846933321691,-4.40427211022521,0.793171260155374,-16.9596656873327,-2.48459171889695,1.41607548593651,598.494778013316,2615.9750357214
0.86,4.38030341463404,0.0959564176882886,21.0564796396872,-4.60732578678968,1.86534530711061,3.96443596537901,4.33442590223023,21.1143443616006,-0.417883652244493,615.335291702288,2615.9750357214
0.87,4.39439338575411,0.0542978114065652,20.3548494382984,-2.50660883490063,3.70054133902818,-2.37057699289151,18.5998817088949,-8.63987175380031,-2.12818148358138,632.181733151119,2615.9750357214
0.88,4.3789864374127,0.0769982886320828,21.1280646345757,-3.67293883093251,-3.84409593739392,2.09866085387997,-20.4226055406332,6.54238318889063,1.08865428669566,649.13696614203,2615.9750357214
0.89,4.43267126822744,0.0279782321872755,18.4467075189822,-1.22824985852635,1.64691811438273,4.11546085853862,5.60214626790006,17.6183306019299,-0.374348333050397,666.062458028382,2615.9750357214
0.9,4.45200368877362,0.124786584663817,17.4830047012885,-6.0335133434144,4.38878399472317,-0.757946953439194,18.1643813176332,3.48051547878393,-1.71378837355855,682.795911352906,2615.9750357214
0.91,4.35125596348402,0.127104895303489,22.5233485302155,-6.1441626768018,0.789749276897846,-4.28087376522652,10.7383000113106,-20.7301923985199,-2.92995785664423,699.647989076679,2615.9750357214
0.92,4.4017601461486,0.0696788185562278,20.0011229911248,-3.29097405605225,-3.43992326482048,-2.74723050618697,-13.3350161241578,-15.2660661636245,2.26053059996014,716.519632793433,2615.9750357214
0.93,4.33911372940793,0.164692301508125,23.1365123512858,-8.00217163989224,-4.12483674084769,1.35674366490705,-24.4467043542113,-1.30061560550522,1.29095957545496,733.224794640652,2615.9750357214
0.94,4.36166895627242,0.115897630854096,22.0118605733515,-5.59192819599693,-1.77086038177998,3.98768627818065,-14.5135599988818,17.4684928659776,0.444487375226578,750.063642838472,2615.9750357214
0.95,4.33317734463068,0.0716498441311166,23.4396103837144,-3.40274053046685,1.26320046902641,4.14558610756502,3.18957222250952,23.4695676801983,-0.279238369352023,766.837851659493,2615.9750357214
0.96,4.30316490154959,0.130498417821287,24.9434471982086,-6.28354336600132,3.40013029482939,2.64071429449791,15.2241958337645,20.7336040421685,-0.880138808619356,783.471010310092,2615.9750357214
0.97,4.37837705908744,0.167593924817968,21.1860575076115,-8.1651426275579,4.31531125475074,0.759185201252388,18.9886301271967,12.4479119830076,-1.35839116731757,800.281931238388,2615.9750357214
0.98,4.37420146474076,0.0892300700048582,21.3980938151619,-4.2647952232894,4.31666850908891,-0.712722556240088,21.7877477333266,1.16659587175053,-1.71403310718945,817.051436095513,2615.9750357214
