t,iq,id,vq,vd,ia,ib,va,vb,theta_e,omega,r
0,0,0,0,0,0,0,0,0,0,0,0
0.01,0.000539917331082812,0.000298307662557915,-0.025196246343712,-0.0149286725903797,3.77738822546687e-05,-0.000615687680373551,-0.000912350776204895,0.029272576094101,-2.57555180975842,-0.0032727707092,0
0.02,0.000615592732484683,0.000339234105167682,-0.0290914402002703,-0.0169768249815835,4.3798093009022e-05,-0.000701509741518712,-0.00127180666312165,0.0336586836818207,-2.57557592729571,-0.00331675223905718,0
0.03,0.000642537328983072,0.000355331370337906,-0.0305446748701139,-0.0177824059637946,4.46442024874128e-05,-0.000732885732612648,-0.00137038441071811,0.0353173211236218,-2.57559883289865,-0.00305812522564926,0
0.04,0.000624572494641906,0.000347402752373435,-0.0299236645618787,-0.0173856118591225,4.16888125329298e-05,-0.000713471454460125,-0.00137160941878864,0.0345803974547747,-2.57561825527113,-0.00256594944428035,0
0.05,0.000637402233580257,0.000356044127899777,-0.0306799297806858,-0.017818070789597,4.12620923881031e-05,-0.000728935160433882,-0.00141150987900556,0.0354506611768014,-2.57563557498177,-0.00231995230497982,0
0.06,0.000636204307295719,0.00035680111213783,-0.0307778801453874,-0.0178559580081042,3.99697176281019e-05,-0.000728330540288644,-0.00143151333341884,0.0355536764935394,-2.57565076861931,-0.00202089086233194,0
0.07,0.000648245708830041,0.000365007821899993,-0.0314534689618111,-0.0182666612689354,3.94897544886474e-05,-0.000742895529906571,-0.00144663659417354,0.0363441723830663,-2.57566361607208,-0.0018552944428725,0
0.08,0.000633285399491036,0.000357585228058181,-0.0308902190238989,-0.0178951943904584,3.77249670395112e-05,-0.000726288110460174,-0.00145776062464981,0.0356695745359818,-2.57567519451602,-0.00153346683752836,0
0.09,0.000630162283319967,0.000356932115694072,-0.0308461276047025,-0.0178625045871821,3.6594622145508e-05,-0.000723302061494994,-0.00146136545595332,0.0356148433849826,-2.57568494145723,-0.00132587052002832,0
0.1,0.000628467664557259,0.000356873690848281,-0.0308530980971396,-0.0178595811768427,3.57292722572089e-05,-0.000721840602707897,-0.00146727242783272,0.0356191719952398,-2.57569331165893,-0.00115419843199646,0
0.11,0.000627109666775975,0.000356867640312905,-0.030863670390574,-0.0178592857026867,3.50010621840243e-05,-0.000720691315690959,-0.00147293373679312,0.0356279483270536,-2.57570051679086,-0.00100709647872214,0
0.12,0.000625950797568086,0.000356866316291231,-0.0308732463975556,-0.0178592199317829,3.43763648659397e-05,-0.000719712605293252,-0.00147790252830902,0.035636005441306,-2.57570672078004,-0.000880502906907393,0
0.13,0.000653954682567054,0.000372960302285507,-0.032204631369227,-0.0186646341891607,3.58013966287175e-05,-0.000751980301558296,-0.00151165999032375,0.0371916890597435,-2.57571268030977,-0.00095358106732348,0
0.14,0.000674203683755895,0.000385365351851167,-0.0334045143618156,-0.0192854311294568,3.6182688178829e-05,-0.000775724097004564,-0.00163076010602674,0.0385373851613515,-2.57571793266601,-0.000988354299205808,0
0.15,0.000628120038213509,0.000359367039089694,-0.0311308934311055,-0.0179843617757911,3.34170633563173e-05,-0.000722885019256917,-0.00150983938190577,0.0359206093954742,-2.57572259467239,-0.00059092287927812,0
0.16,0.000622909825730633,0.000357083375445199,-0.0309266386124174,-0.0178700841976685,3.25489830967486e-05,-0.000717262679713975,-0.00149667719483274,0.0356869281736226,-2.5757258210885,-0.000494281114362932,0
0.17,0.00062193692555025,0.000356882471155563,-0.0309095007251666,-0.0178600196624748,3.21950204355046e-05,-0.000716333803641958,-0.00149588824637825,0.035667069627002,-2.5757285189966,-0.000436093596833473,0
0.18,0.000621457114723336,0.00035686453007023,-0.0309109128380595,-0.0178591242240624,3.19512592605593e-05,-0.000715919237969035,-0.00149731863796441,0.0356677850087303,-2.57573083393782,-0.000388540180698204,0
0.19,0.000621080506794776,0.000356862698641609,-0.0309137784550249,-0.0178590317726737,3.17494634739926e-05,-0.000715600414457217,-0.00149886198689707,0.0356701573723465,-2.57573282646281,-0.000347852671253427,0
0.2,0.000620759952907705,0.000356862317485664,-0.0309164129990998,-0.0178590105085401,3.15766956213004e-05,-0.000715329675792117,-0.00150023122459693,0.0356723724378937,-2.57573454210989,-0.000312843795530775,0
0.21,0.000620484106801588,0.000356862094252005,-0.0309186867008017,-0.0178590097689775,3.14279354079137e-05,-0.000715096752882634,-0.00150139817024458,0.0356742935566376,-2.57573601941768,-0.000282700904842622,0
0.22,0.00062024684808234,0.000356861911210456,-0.0309206558195279,-0.0178589941530143,3.12999768276589e-05,-0.000714896417447622,-0.00150242169086892,0.0356759492870184,-2.57573729150328,-0.000256745611847826,0
0.23,0.000620042364569772,0.000356861754374355,-0.030922340260047,-0.0178589947090249,3.11896949373607e-05,-0.000714723756794281,-0.00150328523415631,0.0356773731191055,-2.57573838687601,-0.000234395946059189,0
0.24,0.000619866456726274,0.000356861619373168,-0.0309237972521181,-0.0178589804201098,3.10948241775111e-05,-0.00071457522449732,-0.00150404479106923,0.0356785967689654,-2.57573933008413,-0.000215151003855318,0
0.25,0.000619714883976055,0.000356861503114296,-0.0309250448445794,-0.0178589794013357,3.10130783966295e-05,-0.00071444724003583,-0.00150468555233551,0.0356796505768368,-2.5757401422657,-0.000198579487644981,0
0.26,0.000625720212886436,0.000360280055207119,-0.0312037040607941,-0.0180300643451394,3.13466109841278e-05,-0.000721349355703948,-0.00150964499719165,0.0360066013306719,-2.57574073781683,-0.000227324235344542,0
0.27,0.000608976613293964,0.000350727034014541,-0.0304527866504843,-0.017551978869621,3.04331317785797e-05,-0.000702093862968315,-0.00151058612500612,0.0351164107872441,-2.57574167722691,-9.73765014410531e-05,0
0.28,0.000608497026818962,0.000350441878434173,-0.0302191736073733,-0.0175377131096657,3.04163614025003e-05,-0.000701536162123536,-0.00139736258996205,0.0349115627324484,-2.57574218573308,-8.4429254566323e-05,0
0.29,0.000618186843565454,0.000356297408919398,-0.0308783655471905,-0.0178307518233922,3.06683930916968e-05,-0.000712855011082386,-0.00150340604216835,0.0356251166977134,-2.57574241236433,-0.000144876384006893,0
0.3,0.000612270531700867,0.000353281834833164,-0.0306032001833894,-0.0176798342665612,3.00424629408024e-05,-0.000706244086157753,-0.00148329802890163,0.0353119275615922,-2.57574176331542,-0.000117751601932582,0
0.31,0.00061861928013999,0.000356546861683009,-0.0308949887611176,-0.0178432340173314,3.06898791397133e-05,-0.000713353775945226,-0.00150179234571752,0.0356458405777894,-2.57574211301611,-0.000153501899944882,0
0.32,0.000619195898865821,0.000356833553617407,-0.0309252993890708,-0.0178575841010964,3.07567231272193e-05,-0.000713994236770826,-0.00150591479344896,0.0356791209654367,-2.57574252591836,-0.000149447988525091,0
0.33,0.000619194207747211,0.000356858684610141,-0.0309288889902802,-0.0178588295150028,3.07343405637581e-05,-0.000714006294089546,-0.00150677491094113,0.035682819327889,-2.57574289285421,-0.000142406598746301,0
0.34,0.000619141820958589,0.000356860850903976,-0.0309296762827707,-0.0178589403061627,3.07041992052767e-05,-0.000713963243815107,-0.00150709216606865,0.035683543784482,-2.57574320997799,-0.000135981493919012,0
0.35,0.000619091529549393,0.000356861006015749,-0.030930118121431,-0.0178589506923013,3.06769103482811e-05,-0.000713920882693498,-0.00150731053464291,0.0356839227354264,-2.5757434831668,-0.000130412055617052,0
0.36,0.000619047699180776,0.000356860989377963,-0.0309304729236615,-0.0178589508773121,3.06532575521315e-05,-0.000713883882296185,-0.0015074922048649,0.0356842226897529,-2.57574371841714,-0.000125612541115322,0
0.37,0.000619009864201226,0.000356860961859162,-0.0309307720947895,-0.0178589510480002,3.06328516087253e-05,-0.000713851935964164,-0.00150764522752372,0.0356844756271211,-2.57574392098869,-0.000121479371695349,0
0.38,0.000618977267911152,0.000356860937003883,-0.0309310269401835,-0.0178589512061189,3.06152721475448e-05,-0.000713824412346184,-0.0015077755004051,0.0356846910985267,-2.57574409542011,-0.000117920325586762,0
0.39,0.000618949270026285,0.000356860915498953,-0.030931247959768,-0.0178589513532029,3.06001725170723e-05,-0.000713800771447291,-0.00150788851211381,0.0356848779740068,-2.57574424562021,-0.000114855683080758,0
0.4,0.000618925113847033,0.000356860896972053,-0.0309314339644735,-0.0178589514910755,3.05871449345213e-05,-0.0007137803744171,-0.00150798350351805,0.0356850352558645,-2.57574437495512,-0.000112216767303358,0
0.41,0.000618904333712111,0.000356860881017722,-0.0309315932080234,-0.0178589516208429,3.05759380149616e-05,-0.000713762828047862,-0.00150806479536143,0.0356851699163005,-2.57574448632322,-0.000109944438465203,0
0.42,0.000618886463960231,0.000356860867279411,-0.0309317295791367,-0.0178589517436259,3.05663006201249e-05,-0.000713747739145289,-0.00150813438251041,0.0356852852422716,-2.57574458222046,-0.000107987771902015,0
0.43,0.000618871038930107,0.00035686085544945,-0.0309318431903122,-0.0178589518605347,3.05579818186375e-05,-0.000713734714530346,-0.00150819224766358,0.0356853813325716,-2.57574466479586,-0.000106302917154115,0
0.44,0.000618857767583434,0.000356860845262573,-0.0309319396310712,-0.017858951972272,3.05508244774054e-05,-0.000713723508442605,-0.00150824132090255,0.0356854629086702,-2.57574473590044,-0.000104852115278717,0
0.45,0.000618846300674247,0.000356860836490829,-0.0309320187848739,-0.0178589520796781,3.05446404091208e-05,-0.000713713825998497,-0.0015082814821876,0.0356855298750421,-2.57574479712744,-0.000103602852644109,0
0.46,0.000618836521787225,0.000356860828937428,-0.0309320897493296,-0.0178589521830344,3.05393663859664e-05,-0.000713705568864614,-0.00150831755983052,0.0356855899135099,-2.57574484984916,-0.000102527132272266,0
0.47,0.000618828023468741,0.000356860822433489,-0.0309321450218207,-0.0178589522833165,3.05347832583184e-05,-0.000713698393041138,-0.00150834548847055,0.035685636693159,-2.57574489524673,-0.000101600846410067,0
0.48,0.000618820689303475,0.000356860816832914,-0.0309321898640861,-0.0178589523808047,3.05308280090136e-05,-0.000713692200210824,-0.00150836805254466,0.0356856746572877,-2.57574493433776,-0.000100803236249228,0
0.49,0.000618814573206251,0.000356860812010284,-0.0309322364972754,-0.0178589377213398,3.05275290237557e-05,-0.000713687035844689,-0.00150840422742266,0.0356857062133393,-2.57574496799849,-0.000100116426707629,0
0.5,0.000618809218101454,0.000356860807857726,-0.0309322702963215,-0.017858937814205,3.05246408024391e-05,-0.00071368251407477,-0.00150842123542612,0.0356857348377871,-2.57574499698322,-9.95250258330162e-05,0
0.51,4.6545826279309,0.00333408862864404,7.27181504701972,-0.156042613365874,-1.00168758632434,4.54552225115958,-1.72237629001325,7.06661611316539,0.217617578359597,67.4528503489347,4928.37736322668
0.52,4.65764140914783,-0.0090640679780094,7.11997998105283,0.478740640053296,-3.91005461440734,2.53084542512749,-5.70870080235168,4.28182702596228,0.99439941207465,144.842946735763,4928.37736322668
0.53,4.61739165097404,0.0472274009165563,9.13377440028184,-2.33017509141117,-3.30037188630027,-3.22956366990974,-4.81585893643011,-8.10327424293928,2.3555790825349,228.17109616473,4928.37736322668
0.54,4.61900371464739,0.00945184964357892,9.05466028240138,-0.426963113389263,4.28756865359521,-1.71815007903729,8.56981066716498,-2.95423686572987,-1.94988409394718,309.181373108623,4928.37736322668
0.55,4.5810289157422,0.0158448207395346,10.954911138765,-0.734749250857036,-2.57719502116917,3.78736620992363,-6.80028251571014,8.62009815642487,0.600957825706335,388.850666296407,4928.37736322668
0.56,4.57672885151126,0.0276946965530267,11.1716179186027,-1.3078555970293,2.58703694353176,-3.77550709564617,7.44477472911236,-8.43153974163057,-2.53480694264576,467.892704902254,4928.37736322668
0.57,4.58131596425633,0.0324872104668316,10.9441205873285,-1.54249806445388,-4.24935015056583,1.71246450505696,-10.7459991794978,2.58390737896408,1.19480232115156,548.564970917725,4928.37736322668
0.58,4.59936294234729,0.0306906968352689,10.0437216621767,-1.44355389729669,3.24242673331381,3.26216956539688,6.00209681924107,8.18138291819508,-0.775690244500755,628.369675294501,4928.37736322668
0.59,4.52726169732294,0.032817352203931,13.6508617609141,-1.53592947631875,3.73651663568897,-2.55648565141146,12.1799290837853,-6.35251396580691,-2.16358355187301,707.394380338884,4928.37736322668
0.6,4.52508829073474,0.0691820385881406,13.76178108105,-3.33234564880599,0.698147026515959,-4.47144282338204,5.61478850803862,-12.9986651643874,-2.97142118480424,785.872424873428,4928.37736322668
0.61,4.47668405516751,0.0968812561739505,16.1842750216718,-4.73885517361161,-0.359793961516495,-4.46325379211682,3.77956807674738,-16.4347914950816,3.08279203249871,865.659192272102,4928.37736322668
0.62,4.49300221788887,0.0763878722843376,15.3708487684518,-3.68551842916745,1.21829235972825,-4.32535175022959,7.94814343521456,-13.6628347676317,-2.8500424611112,944.154586164917,4928.37736322668
0.63,4.41826076127019,0.0900435009973993,19.1104567145422,-4.38159432289197,4.11254316038168,-1.61744389103596,19.443530791152,-2.52131612899149,-1.92513242862311,1022.90032015314,4928.37736322668
0.64,4.45380019570898,0.099588621725935,17.3361350500908,-4.80329575985427,1.92365969561987,4.01818210790928,2.75673410714654,17.7767726456215,-0.424137796667006,1100.51455943721,4928.37736322668
0.65,4.43599907374554,0.12741854538588,18.2289782933109,-6.19824397553408,-4.43215884927915,-0.224257001531795,-17.68091154672,-7.62228606622105,1.65006676282447,1178.89350780537,4928.37736322668
0.66,4.43034772705729,0.10315914690594,18.5144746464151,-4.97814665583375,4.00927583547468,-1.88794334324705,18.9447329183217,-2.94360496894438,-1.98760863317973,1256.86590779558,4928.37736322668
0.67,4.38766667876705,0.0890204513859857,20.6515438529143,-4.2528712307498,-4.10266275487225,1.55810841872819,-20.8798635171687,2.93333883460257,1.22812775843387,1334.43656584581,4928.37736322668
0.68,4.36809671646921,0.092883079532228,21.6331645321561,-4.41960848931786,4.20025294752327,1.20281809419154,19.359119125666,10.6184393181136,-1.27063161561702,1411.82249864393,4928.37736322668
0.69,4.37327296105253,0.133872767702193,21.3775588959828,-6.52413150277129,-0.395740883813834,-4.35738768790243,5.23115558483211,-21.7301478932829,3.08162247731616,1489.8672948787,4928.37736322668
0.7,4.38002973872901,0.117661418249183,21.0429880878291,-5.65651933946246,-4.34985679543696,-0.526545896086789,-19.9847467510163,-8.68409212295524,1.71811594744703,1566.68213129443,4928.37736322668
0.71,4.31420178618161,0.142220295165557,24.3377775518564,-6.92741655046085,-3.34541634588698,2.72777439259953,-23.5572017791136,9.23984634966255,0.919703124163612,1644.1791115013,4928.37736322668
0.72,4.27303397724737,0.146342775188563,26.3996457054932,-7.05140003588729,-2.59283835788591,3.39962127720661,-22.1759325692702,15.9653233767706,0.685804465196317,1720.5187608852,4928.37736322668
0.73,4.32557066775545,0.170468638678378,23.7764093474177,-8.2582708749639,-3.58423939834839,2.42751912327099,-24.5541280996026,5.53276355617648,1.01487388925633,1797.25871177323,4928.37736322668
0.74,4.30943648425303,0.117340992551248,24.5868388753952,-5.59762725598692,-4.10893673383449,-1.30447331812098,-21.38467662695,-13.3619490472906,1.90542674616002,1873.81410124794,4928.37736322668
0.75,4.24629762470733,0.165807267221845,27.7476225668694,-8.00758585162916,0.740360042276082,-4.18454329351002,13.721327220844,-25.4121460837761,-2.92744988504952,1950.03105269332,4928.37736322668
0.76,4.23735681983647,0.241770824599581,28.1986721460812,-11.7836429247326,-4.24254489269671,-0.120244682606948,-27.0917930080617,-14.1440483238752,1.65612651872655,2026.00625853768,4928.37736322668
0.77,4.17722698211647,0.0776458534803166,31.2092479701461,-3.65547360046042,3.64633861937475,-2.03947758299541,29.2413866780985,-11.5030844232169,-2.06218264302135,2102.31526507401,4928.37736322668
0.78,4.25073858863947,0.164588151442544,27.5378584709184,-7.92772510535484,-3.62374903709955,2.22807332120467,-27.8867975761864,6.5961348875846,1.05822751933571,2177.64423167299,4928.37736322668
0.79,4.12840755766895,0.19155025667343,33.658723336262,-9.34558831028276,4.13140388028558,-0.109281476065156,33.4658977802153,10.0141581401786,-1.5508767291334,2253.41094308161,4928.37736322668
0.8,4.15459354379139,0.226799823477761,32.3538501839823,-10.9983739644171,-2.06870651704438,-3.61006080563483,-4.70549348307441,-33.846627345564,2.67576918632093,2328.25892751822,4928.37736322668
0.81,4.20512278747262,0.106268609746268,29.8319261678252,-4.98093316697116,-3.83046535742146,1.73835721896652,-29.4113142013674,7.05181615223018,1.1700327391461,2403.43334473231,4928.37736322668
0.82,4.16484470814965,0.148160772060437,31.8504862130643,-7.09037533906313,-0.740030840353726,4.10124827494082,-13.6950658990949,29.6170907497148,0.21407862071405,2478.39206933178,4928.37736322668
0.83,4.14666379084552,0.119843513471865,32.764299345948,-5.6589143736691,0.915950980958682,4.0460124644533,0.755006115119973,33.2408271450266,-0.193737862524842,2553.03260943585,4928.37736322668
0.84,4.09212411472632,0.187044463604111,35.4962144226517,-8.98709289763108,0.413150639377878,4.07550879656409,-7.00953647035265,35.9390522351427,-0.0553522532782897,2627.30512692891,4928.37736322668
0.85,4.05303514410138,0.313439734579574,37.4556657903918,-15.2976226364921,-2.12649034061811,3.46458903447322,-34.3781004022204,21.3328472282744,0.627670165437133,2701.65383404002,4928.37736322668
0.86,4.0801384002222,0.277029418532304,36.1056187105765,-13.5511341894074,-3.99494412931836,-0.874469020220227,-30.8787714075319,-23.1030391216014,1.85408439585914,2775.83901400749,4928.37736322668
0.87,4.00454067237936,0.250212006574662,39.8906415225218,-12.1091914529977,0.590324947312724,3.96868599180571,-8.66816449374163,40.7769386177179,-0.0852620624295944,2849.41169699268,4928.37736322668
0.88,4.02418134708995,0.110627372726325,38.9138657560394,-5.18212973669061,-3.26451059391835,-2.3556834490351,-27.7715401996769,-27.7468011061578,2.22335859112657,2923.11090830322,4928.37736322668
0.89,4.02158576081138,0.315081501971955,39.0489554606984,-15.4623776556901,3.87751046415544,1.11235829875576,31.1675861337457,28.1511566358175,-1.21323662614336,2996.52166645902,4928.37736322668
0.9,3.86562402968213,0.134152440375911,46.8524124774682,-6.42197962479443,-3.26808973908483,-2.06896966468896,-35.0720352618217,-31.7229052870892,2.16987654257298,3069.54747873572,4928.37736322668
0.91,3.973733103609,0.396861000505108,41.452300819824,-19.5508666924357,1.15967606160554,3.82141398759399,-11.1440755074862,44.4560368540204,-0.195094206602271,3142.42484643937,4928.37736322668
0.92,3.86255767854389,0.0965718584774734,47.0164725882146,-4.53018923418601,3.42565873835902,-1.78704788750404,44.2100830650647,-16.6294878007696,-2.02662886652502,3215.10867971321,4928.37736322668
0.93,3.94789744331214,0.368120511395219,42.7548970137048,-18.0730558643209,-1.0882689238799,-3.81275198290391,9.89733622552497,-45.3504057596653,2.95653288645441,3287.46703046967,4928.37736322668
0.94,3.97805946213514,0.191919372266599,41.2521970414704,-9.15386975475059,-3.36010407126924,-2.13810447826433,-28.4152391500853,-31.2747706031347,2.18570222470169,3359.28474277321,4928.37736322668
0.95,3.8143194156758,0.132501441146827,48,-6.31719932267644,-3.60231755671874,-1.26091135979628,-42.4341794705325,-23.3076686939098,1.94221986528499,3431.30223545641,4928.37736322668
0.96,3.89237945908016,0.323209098007774,45.5469093441044,-15.7195657771369,3.90575216924352,0.0134895127309856,44.0224885366626,19.5868885242453,-1.48449626631022,3502.43319804039,4928.37736322668
0.97,3.93352104082503,0.457354612576993,43.4951204808631,-22.5189041425466,2.83261599883936,2.76731776696822,9.90203841826311,47.967449219124,-0.681306868750698,3573.7554920807,4928.37736322668
