t,iq,id,vq,vd,ia,ib,va,vb,theta_e,omega,r
0,0,0,0,0,0,0,0,0,0,0,0
0.01,0.000686040959860144,0.000380693911607512,-0.0330804964206192,-0.0190475074490561,-0.00067067575371565,0.000407153639697352,0.0323126654698425,-0.0203228549591462,1.53179573976212,-0.00390870162539799,0
0.02,0.000816451272075422,0.000449568032497688,-0.0395577161661279,-0.02249354200354,-0.000798286960802482,0.000481084216879076,0.0386498731221698,-0.0240199843419002,1.53176562488931,-0.00424386985046065,0
0.03,0.000863445413015116,0.000475963374074194,-0.0419338331818501,-0.023814187500354,-0.000844200020589043,0.000509318603581682,0.0409718826627071,-0.0254335747133314,1.53173553843888,-0.00406715541306687,0
0.04,0.000843251692562854,0.000466670598335377,-0.0410908421372771,-0.0233492394576815,-0.000824371253121344,0.000499266363164956,0.0401470248924972,-0.0249371346205612,1.53170881635592,-0.0035298275850274,0
0.05,0.000860820541136069,0.000478412189219413,-0.0420378200599984,-0.0239367170614801,-0.000841455408125779,0.000511705992706149,0.0410697007949745,-0.0255621676641366,1.53168450221822,-0.00326167044953345,0
0.06,0.000860665486380543,0.000480095189108179,-0.0421290213157327,-0.0240209265318397,-0.00084122338920221,0.00051340011639132,0.0411569762615826,-0.0256507827068303,1.5316625416916,-0.00292105984411002,0
0.07,0.000873514879460602,0.000489294142048965,-0.0428278623245856,-0.0244811825786163,-0.000853693012033663,0.000523111119445377,0.0418367738533862,-0.0261388302202264,1.53164335920962,-0.00270328755088812,0
0.08,0.000857698062598704,0.000481652694450267,-0.0421528424067266,-0.0240988605928333,-0.000838178337809027,0.000514871205918984,0.0411767822946407,-0.025731105780726,1.53162570801025,-0.00233313767445211,0
0.09,0.000853048834602674,0.000480553296338278,-0.0420002428650198,-0.0240438428600221,-0.000833567822549853,0.000513603417091497,0.0410260591474356,-0.0256707859449064,1.53161031336824,-0.00206647734763666,0
0.1,0.00085044588007198,0.000480393544470433,-0.0419371738407123,-0.0240358634619747,-0.000830966142148126,0.000513353117360488,0.0409630021058196,-0.0256608990603882,1.53159671141675,-0.0018401136124364,0
0.11,0.000848385135301391,0.000480368933502069,-0.0418929782211164,-0.0240346319308564,-0.000828901761852796,0.000513257751302019,0.0409185795996501,-0.0256584294108929,1.53158466453399,-0.00164113113624365,0
0.12,0.000846599015092168,0.000480363916545125,-0.0418557153803705,-0.0240343692898797,-0.00082711173336091,0.000513191548264692,0.0408810818285662,-0.0256571425862463,1.53157399024438,-0.00146506364553649,0
0.13,0.000880849387528497,0.000500371565561809,-0.0435344433520071,-0.0250354303563632,-0.000860545807691746,0.000534535555408865,0.0425189943043768,-0.0267236908835924,1.53156386793932,-0.00151886215404415,0
0.14,0.000901792792752423,0.000513341454741633,-0.0447026148959064,-0.0256843600222184,-0.00088095931476438,0.000548325064123778,0.0436605607417165,-0.0274183435677929,1.53155461751461,-0.00150441713929213,0
0.15,0.000851440126114528,0.00048509474049406,-0.042211106280232,-0.0242710823156986,-0.000831749238780767,0.000518131642925364,0.0412261984842407,-0.025908753129289,1.53154624393553,-0.00106565181176031,0
0.16,0.000842430693074106,0.000481037751262912,-0.0418105528256669,-0.0240680896552924,-0.000822902611310088,0.000513729581659881,0.0408337524551761,-0.0256904637496577,1.53153976258022,-0.000910071937015552,0
0.17,0.000840215208766893,0.000480454407646453,-0.0417299887547502,-0.024038889759277,-0.000820708859366935,0.000513064326402374,0.040754252982594,-0.0256583523664513,1.53153417121268,-0.000809983986899694,0
0.18,0.000839186260059431,0.000480369953884737,-0.041703038097857,-0.02403466510186,-0.000819681489732716,0.00051294359052172,0.0407273624479408,-0.0256532738882182,1.53152924105919,-0.000727410584946219,0
0.19,0.000838425539852434,0.000480357216796921,-0.0416863393978071,-0.0240340449760442,-0.00081891961719866,0.000512904574139214,0.0407105889965678,-0.025652176396014,1.53152487619643,-0.000655229445684663,0
0.2,0.000837776167883179,0.000480354847138604,-0.0416727166453627,-0.0240339182197195,-0.000818268855505962,0.000512879875557172,0.0406968825224744,-0.0256516722758726,1.53152100892216,-0.00059142672772798,0
0.21,0.000837204623242691,0.00048035402756481,-0.0416608274399273,-0.0240338854610772,-0.000817696026305783,0.000512859416936458,0.0406849158682985,-0.0256513121326191,1.5315175820438,-0.000534913989867829,0
0.22,0.00083669896608531,0.000480353484992997,-0.0416503285180727,-0.0240338442265041,-0.00081718922312626,0.000512841499880269,0.040674348769202,-0.0256509821677175,1.5315145453341,-0.000484839469041135,0
0.23,0.000836250879908136,0.000480353030450381,-0.0416410221497289,-0.0240338242571327,-0.000816740120468332,0.000512825646421249,0.0406649813390147,-0.0256507061656114,1.53151185435817,-0.000440466640550988,0
0.24,0.000835853783641636,0.000480352631333719,-0.0416327714469716,-0.0240338041537877,-0.000816342123399247,0.000512811598563523,0.0406566766253785,-0.0256504589868837,1.53150946975164,-0.000401145791946858,0
0.25,0.000835501972935046,0.000480352278110626,-0.0416254612758066,-0.0240337839305124,-0.00081598951443052,0.000512799151914146,0.040649318687385,-0.025650237556281,1.53150735663413,-0.000366301660095584,0
0.26,0.000842284576686109,0.000484377244975493,-0.0419566198286664,-0.0242351816970467,-0.000822607896982699,0.000517088842845258,0.040972266445504,-0.0258645580216392,1.53150563379859,-0.000381313356461906,0
0.27,0.00082466623654904,0.000474262573143489,-0.0411257365184212,-0.0237291046917414,-0.000805399414611237,0.000506291588842355,0.0401618508736826,-0.0253263173014614,1.53150356001239,-0.000241030714768159,0
0.28,0.000824013884046144,0.000474058017272695,-0.040978129598646,-0.0237188625660072,-0.000804754861313308,0.000506062741203034,0.0400147232224306,-0.0253103431873382,1.53150209809941,-0.000214412119336779,0
0.29,0.000832728954627177,0.000479447513571721,-0.04152155301277,-0.023988527448639,-0.000813250935174403,0.000511791311554363,0.0405471062090568,-0.0256011912187274,1.53150102776679,-0.000251384347170438,0
0.3,0.000822512892203285,0.000474204009826215,-0.041034038604121,-0.023726176074121,-0.000803248788586791,0.000506150456297064,0.0400702765367085,-0.0253198873128692,1.53150110167758,-0.000189782676052575,0
0.31,0.000832370101680715,0.000479468357718324,-0.0415082633444602,-0.0239895579666815,-0.000812891101577921,0.000511798738959471,0.0405337643654296,-0.0256017336068801,1.53150017038958,-0.000235918581458688,0
0.32,0.000833822430310254,0.000480224151146586,-0.0415820665626391,-0.0240273816584455,-0.000814312095421371,0.000512611833538217,0.0406059985795039,-0.0256424688425604,1.53149915312286,-0.000229104985555441,0
0.33,0.000833929655640812,0.000480332548794275,-0.0415913445472854,-0.0240328130721103,-0.000814414501202912,0.000512725119551227,0.0406150320985971,-0.0256482984433651,1.53149822057094,-0.000215341144646413,0
0.34,0.00083383395962069,0.000480347997611948,-0.0415904924461372,-0.0240335734754395,-0.000814317845814828,0.000512737473775834,0.0406141294555271,-0.0256490585496082,1.53149738915256,-0.00020189286532167,0
0.35,0.000833718010102112,0.000480350112568484,-0.0415882525926775,-0.0240336859603723,-0.000814201524545589,0.000512735632115439,0.040611867993892,-0.0256491129008555,1.53149665157596,-0.000189772967400474,0
0.36,0.000833610209532723,0.000480350324595986,-0.0415860247433014,-0.0240337009314839,-0.000814093463691138,0.000512732140744097,0.04060962450881,-0.0256490668771389,1.53149599784061,-0.000179000090654847,0
0.37,0.0008335140468769,0.000480350273800412,-0.0415840181588977,-0.024033684353759,-0.000813997080245536,0.000512728783308467,0.0406076052659577,-0.0256489949982415,1.5314954185119,-0.000169448392768915,0
0.38,0.000833428598030852,0.000480350194509262,-0.0415822260484256,-0.0240336847058998,-0.000813911437276108,0.000512725764568057,0.0406058013579462,-0.0256489457827019,1.5314949051363,-0.00016098329907902,0
0.39,0.000833352811656497,0.000480350119319653,-0.0415806321483608,-0.0240336850272712,-0.000813835479126611,0.000512723081927226,0.0406041970076775,-0.0256489019493836,1.53149445020871,-0.000153481821113232,0
0.4,0.000833285640014084,0.000480350051980274,-0.0415792164537652,-0.0240336838659852,-0.000813768155306209,0.000512720703405533,0.0406027721120111,-0.0256488615322253,1.53149404707465,-0.000146834367671304,0
0.41,0.00083322603536943,0.000480349992203746,-0.0415779553179242,-0.024033684135775,-0.000813708415877055,0.000512718592366662,0.040601502776753,-0.0256488267534174,1.53149368983755,-0.000140943726568289,0
0.42,0.000833173528455332,0.000480349939216098,-0.0415768507735614,-0.0240336645191745,-0.000813655789285041,0.000512716733866327,0.0406003917366452,-0.0256487766043173,1.53149337327211,-0.000135723737394447,0
0.43,0.000833126845911375,0.000480349892257414,-0.0415758617177672,-0.0240336647489177,-0.000813609000808329,0.00051271508089154,0.0405993962405364,-0.0256487493601967,1.53149309274776,-0.000131098046580064,0
0.44,0.00083308540205689,0.000480349850643431,-0.0415749788479204,-0.0240336649618515,-0.000813567463141458,0.000512713613093146,0.0405985076682221,-0.0256487249744869,1.53149284416159,-0.000126998993029546,0
0.45,0.00083304873123059,0.000480349813766176,-0.0415741966711367,-0.0240336651594597,-0.000813530709141604,0.000512712314532872,0.0405977204377111,-0.0256487033806553,1.53149262387658,-0.000123366618835661,0
0.46,0.000833016134940546,0.000480349781086771,-0.0415734959418637,-0.0240336653439793,-0.000813498039225813,0.00051271115985236,0.0405970152356092,-0.0256486839556002,1.53149242867178,-0.000120147792314532,0
0.47,0.000832987380356114,0.000480349752127033,-0.0415728789333593,-0.0240336655161586,-0.000813469219297292,0.000512710141753504,0.0405963942601199,-0.0256486669054601,1.53149225569067,-0.000117295430850583,0
0.48,0.000832961885400687,0.000480349726464142,-0.041572328874371,-0.0240336656778629,-0.000813443666448545,0.000512709239003153,0.0405958406879888,-0.0256486516758597,1.53149210240374,-0.000114767812208463,0
0.49,0.000832939184411109,0.000480349703722617,-0.0415718334255193,-0.0240336643753951,-0.000813420914240943,0.000512708434755346,0.0405953421889688,-0.0256486364204569,1.5314919665685,-0.000112527964249871,0
0.5,0.000832919160975796,0.000480349683569617,-0.0415713964582086,-0.0240336645195183,-0.000813400845347408,0.000512707725721172,0.0405949024661508,-0.0256486242805733,1.53149184619863,-0.00011054312413446,0
0.51,4.71557476885051,-0.0308062054796784,4.22203454864241,1.54850097412047,-0.790262225753641,4.64898699045959,0.847934485089326,4.4163829210994,0.161843680276866,49.8881656934715,3721.09864869414
0.52,4.75159119808323,0.0474226268586333,2.42214512985589,-2.35711600031902,-3.14820979686771,3.55930370917493,-3.37265913571517,0.21898224430659,0.734166196158686,106.362686467471,3721.09864869414
0.53,4.64364656251905,0.0524307531488779,7.8204015944496,-2.5981693432165,-4.59609966395809,-0.664883644283038,-7.3257061879405,-3.77401561767704,1.7257526408258,164.720010280373,3721.09864869414
0.54,4.69395569924153,-0.0555648107863913,5.30603922338205,2.80691113769859,0.156641056247263,-4.69167039913691,-2.69198916259814,-5.36525830910865,-3.12005496666976,227.963002325316,3721.09864869414
0.55,4.6797892676965,0.0577899060994373,6.01551694342423,-2.85394510796483,4.43047458818354,1.50819832474189,4.71724975765273,4.69882980111279,-1.23033801126877,286.495591817292,3721.09864869414
0.56,4.69464404131805,0.0450502754905574,5.27405464182269,-2.20100564475745,-4.11309886575889,2.26365410840477,-5.68738673142858,0.56009854521835,1.07727835381456,344.133000141239,3721.09864869414
0.57,4.66495022573398,-0.0124410794660894,6.76017258446568,0.674178974831285,2.96490773962441,-3.60156042355936,3.76098416724278,-5.65768934774746,-2.45551442647034,404.641858402548,3721.09864869414
0.58,4.59268627499836,-0.00622431743855989,10.3748324079521,0.368256387598641,-3.0308156781637,3.45064664775792,-6.55899268402631,8.04688605803448,0.719359147720212,463.146859005559,3721.09864869414
0.59,4.62015630760458,0.0538339813334543,9.00282137840555,-2.61748608864611,4.26949083131701,-1.76640608172202,9.33090425273685,-0.914468163464071,-1.95142906436899,521.119882471066,3721.09864869414
0.6,4.60182394132159,0.0538152472066442,9.92109545339697,-2.61797782782551,-4.02235230996228,-2.23614882382493,-7.31552622207261,-7.19479110166292,2.08987519018059,580.690535168152,3721.09864869414
0.61,4.56789574084402,0.00522321183779306,11.6192272317704,-0.186590505827682,-1.24203277755148,4.39579951324564,-3.35160751684185,11.1269036363864,0.276515130157053,639.726010598989,3721.09864869414
0.62,4.55035896141349,0.0181069397700837,12.497797330475,-0.827703714749918,4.07815948232414,2.01859103726179,10.8085136224658,6.32898608198893,-1.10719678304115,698.337726677073,3721.09864869414
0.63,4.56259607897938,0.0739389946614004,11.8878004211064,-3.6144921871671,3.98904407325477,-2.21591455983315,12.1880163208662,-2.41590785947019,-2.06164844051902,756.687241963662,3721.09864869414
0.64,4.5730038656961,0.0389083632705871,11.369371702754,-1.85073695561417,2.37031009429926,-3.91094723478429,7.54986633718315,-8.69984818746443,-2.58821336972949,814.782558051912,3721.09864869414
0.65,4.57544725490995,0.0242769175601715,11.249238724739,-1.10068820583105,1.98204532458041,-4.12393056227892,5.91624614366369,-9.63093546755494,-2.6882626795216,872.499034172775,3721.09864869414
0.66,4.52697456177322,0.0776978961672403,13.6748909803709,-3.75289975869377,3.12572038090588,-3.27557746762311,12.2792580862106,-7.0927230860978,-2.36243900609629,930.270250390716,3721.09864869414
0.67,4.53663750483877,0.042709254794894,13.1939409148665,-2.03073492104734,4.53133611011125,-0.223376337056344,13.2643575318519,1.50358918982351,-1.61063834448507,989.079977540697,3721.09864869414
0.68,4.52217751969926,0.0652599483790191,13.919180036621,-3.13080833473686,1.9569299259948,4.07734885008405,2.99926502199932,13.9481161110932,-0.433050514254079,1046.59681328725,3721.09864869414
0.69,4.51980712015401,0.0819643842836959,14.0399637089289,-3.97267831615996,-4.12521238117122,1.84878267352266,-14.4728437546571,1.85460173757391,1.16760054912281,1104.61286839406,3721.09864869414
0.7,4.53238740069313,0.107717122850147,13.4133153102184,-5.2344692711179,0.126972506629968,-4.53188884584309,5.92157786413367,-13.1244661514524,-3.08982079660319,1162.11342803065,3721.09864869414
0.71,4.53896938358199,0.109018485543132,13.0867538464271,-5.32118837074047,2.80623092568608,3.56920104323192,3.57838073115663,13.666505158846,-0.642277418958176,1220.19601024384,3721.09864869414
0.72,4.47526997816108,0.0768958155533054,16.2742347297518,-3.6832539897465,-3.59175591753964,-2.67081331670681,-10.6423930237809,-12.8513247067928,2.22736659493094,1277.37641331541,3721.09864869414
0.73,4.47856964811467,0.136559699591441,16.1118530516747,-6.6427527683217,3.19818690109382,3.13812606347138,6.35626287782076,16.2270112875983,-0.764394343774879,1334.5363792309,3721.09864869414
0.74,4.46397452960995,0.0969231051873924,16.8442904879244,-4.65829058101554,-0.954924818413315,-4.36171769839634,1.32664545163857,-17.4261242112067,2.94776900361278,1391.94129951033,3721.09864869414
0.75,4.45687736269722,0.094886550133092,17.2018792578407,-4.55122338617641,-3.12123494346328,3.18286847218399,-15.4837088509078,8.76772744401464,0.796908444492206,1449.27295223701,3721.09864869414
0.76,4.40636605188555,0.122942832242321,19.7302149066994,-5.94542836584409,3.61653503993613,2.52028788596132,12.3324258829192,16.5088088776941,-0.934274013242104,1506.48517561146,3721.09864869414
0.77,4.39154565863799,0.0756448373781144,20.4740842029392,-3.56590207372102,3.38000972687212,-2.80480474535644,18.2081888872904,-10.0182652686563,-2.24623506125127,1563.66247279762,3721.09864869414
0.78,4.35510790852207,0.0711204048818768,22.2988387477244,-3.39709688141243,-0.0616276270424433,-4.35525258078647,3.44569246516825,-22.2913812975823,-3.1394130023359,1621.19570512144,3721.09864869414
0.79,4.44207230982014,0.0660691133413147,17.9535769714549,-3.11796026485693,-2.08032222365162,-3.92538290860774,-5.39389188902921,-17.4057040240447,2.66913246462191,1678.20773307122,3721.09864869414
0.8,4.38171569195948,0.0981033488577027,20.9744263964293,-4.67284020371272,-2.29807573128186,-3.73201079922264,-6.56234485360073,-20.4621022441753,2.61204070600338,1734.72495841266,3721.09864869414
0.81,4.37956801986397,0.134964416999648,21.0848373261077,-6.5730049673621,-0.871361353844209,-4.29413097442289,2.92434315315661,-21.8911620635355,2.97219889625577,1792.13979803737,3721.09864869414
0.82,4.38896705740163,0.104123647867217,20.6179630873191,-4.96059015507357,2.42119844847827,-3.66219492082116,15.8474800102453,-14.0913176772629,-2.53371123552913,1848.52525276518,3721.09864869414
0.83,4.31980588274218,0.120823277781628,24.0792212004246,-5.84517293383723,1.03329130116287,-4.19614468482308,12.043239968568,-21.6549142530033,-2.87218628222395,1905.62793394008,3721.09864869414
0.84,4.33408790226705,0.0490543574213936,23.3683411794662,-2.24825745552559,4.14550256714627,1.26551678785518,21.5907296109541,9.21815740443463,-1.26318968691805,1962.17056018745,3721.09864869414
0.85,4.33697416160262,0.142137120244668,23.2273081147547,-6.83871509930414,-2.8882776569774,3.23842554578075,-20.9717082997188,12.1022030002271,0.761070766711855,2018.50682110607,3721.09864869414
0.86,4.31191335056758,0.144527623105368,24.48367412689,-6.96896200881391,0.106768164102739,-4.31301350980698,8.38264213514891,-24.0363899341407,-3.08333715330722,2075.12295639094,3721.09864869414
0.87,4.32815087438881,0.168109789457856,23.6751621734964,-8.15287807519463,1.1518869462225,4.1754409774186,-2.53193150863791,24.9112835415181,-0.230355148862399,2131.68855502659,3721.09864869414
0.88,4.32325815410467,0.118840506509295,23.9232409275766,-5.68091299630569,-0.572270046225288,-4.28686262052019,3.13674863810898,-24.3876000650288,3.03636507823314,2188.08063422447,3721.09864869414
0.89,4.31313342708551,0.193925961293687,24.4329792585144,-9.4194320894162,-1.6335517160088,3.9965279968281,-18.8012215374057,18.2266355928764,0.432951882270328,2244.32647540316,3721.09864869414
0.9,4.25269366665021,0.201135392104601,27.4585127617027,-9.75987717352728,4.14114476437211,-0.988321257910279,28.7943613243167,4.48440424712408,-1.75781212911928,2300.53855013933,3721.09864869414
0.91,4.24852831271524,0.107018517967811,27.6704179646843,-5.13205751588605,-1.733486589609,-3.88026674737405,-5.90980010205203,-27.5148016064167,2.74663379029306,2356.94006389415,3721.09864869414
0.92,4.25920522045878,0.146053019700951,27.1402231484534,-7.05917372167216,-4.15382156459863,0.952852036794001,-27.9871721680557,-1.77252368565233,1.37958350100503,2413.12106143529,3721.09864869414
0.93,4.26183960149213,0.176641383113884,27.0122032729544,-8.51716371271075,-1.59041364967294,3.95791149345321,-18.8656561826938,21.1255347900335,0.423507794454131,2468.88957450899,3721.09864869414
0.94,4.258267423794,0.134987073255987,27.1945774333435,-6.51348790455262,0.651816975064396,4.21024911299905,-3.15811836189771,27.7848313810452,-0.121907931992409,2525.21517438754,3721.09864869414
0.95,4.24597019327123,0.180924177404524,27.813224245868,-8.71687357501315,1.25431617644671,4.06050333944221,-1.36034963096567,29.115438804099,-0.257022764930269,2580.83201140198,3721.09864869414
0.96,4.18971764137876,0.107964784364392,30.6296866518733,-5.12963820903516,4.18908137251407,0.130336347957546,30.2886268031211,6.86221385041258,-1.51392972572782,2636.97834057741,3721.09864869414
0.97,4.2138781995469,0.171574614886894,29.4255477180651,-8.33919843272937,3.224233991214,2.71855154429532,16.0754824428969,26.018915297081,-0.829591420639381,2692.84393025199,3721.09864869414
0.98,4.19670573222542,0.209427568250801,30.2880903006249,-10.121499367186,-0.892318487497933,4.10608896958,-17.6703409675397,26.600229577762,0.263850182057549,2748.39159784615,3721.09864869414
