t,iq,id,vq,vd,ia,ib,va,vb,theta_e,omega,r
0,0,0,0,0,0,0,0,0,0,0,0
0.01,0.000642542992092493,0.000360316381787001,-0.0310058065553,-0.0180282293749896,-0.000320077290161098,0.000663505779925373,0.0150778088232663,-0.0325428452294964,0.960542705014461,-0.00234648162373095,0
0.02,0.000760720622356034,0.000424031793432867,-0.0368516579147755,-0.0212161949687595,-0.000380396160742801,0.000783452352100485,0.0180408532231456,-0.0385058337788051,0.960524469727079,-0.00259677141859941,0
0.03,0.000804473934347707,0.000448460644081971,-0.0390309151907836,-0.0224384854540844,-0.000402236267967355,0.000828553706809033,0.0191254945905679,-0.0407567592770752,0.960505815058577,-0.00255509456624246,0
0.04,0.000786865992911234,0.00043954034704775,-0.0382715667988738,-0.0219921705553067,-0.000392905282843915,0.000811159199045651,0.0187583247468944,-0.0399561465066941,0.960488711563703,-0.0022941066758216,0
0.05,0.000804739850746032,0.000450604903150499,-0.0392021783253299,-0.0225457764259168,-0.000401197750835289,0.000830476592594109,0.0192029945704752,-0.0409434710256067,0.960472648371337,-0.00218179750578257,0
0.06,0.000805775538854245,0.000452136384575027,-0.039323220018186,-0.022622405434147,-0.000401156254134958,0.000832331177501381,0.0192576500972654,-0.0410759269275434,0.960457675689411,-0.00201681138467734,0
0.07,0.000819301745646165,0.000460935459142384,-0.0400341471481311,-0.0230626663864843,-0.000407185721218562,0.000847299614274298,0.0195873212934908,-0.0418444304929348,0.960444113568081,-0.00191595095275939,0
0.08,0.000805045450995634,0.000453563886849775,-0.0394144447373646,-0.0226938302891118,-0.000399717828836407,0.000833093052985888,0.0192903807862538,-0.0411872504091631,0.96043128457929,-0.0017161401335458,0
0.09,0.000801606737138721,0.000452539416078025,-0.0393056906316808,-0.0226425724576706,-0.000397477561597949,0.000830287222686568,0.0192301655352451,-0.0410831368936372,0.960419669296736,-0.00157177712621532,0
0.1,0.000799909277642917,0.000452395304002489,-0.0392754049896411,-0.0226353519161761,-0.000396160395751796,0.000829200400615254,0.0192090506737703,-0.0410600653394754,0.960409039141249,-0.00144525199032891,0
0.11,0.000798572377965186,0.000452373442332794,-0.0392581147666186,-0.0226342569787977,-0.000395069362294109,0.000828420046325244,0.0191951101487104,-0.0410494447025794,0.960399293147861,-0.00133009770750918,0
0.12,0.000797379327064026,0.000452368687709681,-0.0392438318772882,-0.0226340264699199,-0.000394087078943649,0.000827735824438522,0.0191831717561793,-0.0410412404299239,0.960390355139748,-0.00122461827230926,0
0.13,0.000829981195037111,0.000471347766017435,-0.0408422624700059,-0.0235836389772196,-0.000409915331267361,0.000861978492676486,0.0199482649986246,-0.0427357596705772,0.960381759854005,-0.00125343530797521,0
0.14,0.000850451461738448,0.000483786456437471,-0.0419764699015652,-0.0242060010690609,-0.000419551824685243,0.000883907965010312,0.0205205508909486,-0.0438960306210524,0.960373715885164,-0.00124165310550106,0
0.15,0.000802530223424762,0.000456720180895829,-0.0396051419188486,-0.0228517454762258,-0.000395793401878961,0.000834263547194049,0.0193534388815027,-0.0414272125683383,0.960366232941279,-0.000972250814598134,0
0.16,0.000794602708291119,0.00045296559038098,-0.0392565371305058,-0.022663883075949,-0.00039144458257394,0.000826645286000159,0.0191752193178881,-0.0410735714014494,0.960359933740035,-0.000870561550659902,0
0.17,0.00079277548959469,0.000452443827541745,-0.0391964382728949,-0.0226377863325923,-0.0003902417539135,0.000825172568306315,0.0191407002677578,-0.041017846561964,0.960354241626935,-0.000799267975114623,0
0.18,0.000791922284858862,0.000452370465247555,-0.0391805509508935,-0.0226341179169314,-0.000389580401591923,0.0008246254020947,0.0191295715821718,-0.0410058332164545,0.960349033984524,-0.000737201172278541,0
0.19,0.000791264195782487,0.00045235936764738,-0.0391719120592425,-0.022633561369302,-0.000389043595270921,0.000824240927159237,0.0191226162320973,-0.0410005163757107,0.960344259745975,-0.000680778360740549,0
0.2,0.000790679390657448,0.00045235698079393,-0.0391648808462296,-0.0226334353806119,-0.000388562173263438,0.00082390544020065,0.0191167476567528,-0.0409964662849828,0.960339881351312,-0.000629106045713347,0
0.21,0.000790145708889107,0.000452355871864824,-0.0391585564704858,-0.0226333878073391,-0.000388122210096031,0.000823600161556946,0.0191114282092659,-0.0409928786533918,0.96033586575557,-0.000581726287679675,0
0.22,0.000789656946484561,0.000452355004365461,-0.039152787449509,-0.0226333300450852,-0.000387719191019624,0.000823320698161345,0.0191065833166712,-0.0409895946303362,0.960332182862353,-0.000538273719181787,0
0.23,0.000789208597157822,0.000452354229278524,-0.0391474894761455,-0.0226332924896051,-0.000387349485839773,0.000823064356167638,0.0191021253382721,-0.0409865913289442,0.96032880510156,-0.000498421499259293,0
0.24,0.000788797226656132,0.000452353521088361,-0.0391426192832503,-0.0226332736594303,-0.000387010273958434,0.000822829156430459,0.019098018629371,-0.0409838432230109,0.960325707191536,-0.000461871113526934,0
0.25,0.000788420181714726,0.000452352871802117,-0.0391381619816547,-0.0226332373930325,-0.000386699366466311,0.000822613580934121,0.0190942707650114,-0.0409813125966463,0.96032286594652,-0.000428348968313881,0
0.26,0.000794814055084824,0.000456192497651125,-0.0394555935062343,-0.0228253414552661,-0.000389735184023092,0.000829425984285542,0.0192441380951907,-0.0413207359621282,0.960320350026611,-0.000424630389076478,0
0.27,0.000777756665953582,0.000446465725466652,-0.0386533334855978,-0.022338678909284,-0.000381332588304871,0.000811678835838661,0.0188656624488066,-0.0404621248246878,0.960317715288102,-0.000329063109732531,0
0.28,0.000777109285723523,0.00044627401942059,-0.0385195095937494,-0.0223290743268736,-0.000380910263256907,0.000811151473963456,0.0187614281779594,-0.0403775803183062,0.96031552576528,-0.000301852611718683,0
0.29,0.000785635308257005,0.000451508015391232,-0.039049057376543,-0.0225909573046577,-0.000384894266364325,0.000820328427681546,0.01904512101926,-0.0408957650533543,0.960313652242732,-0.000313613519249683,0
0.3,0.000776330764830088,0.000446651122647445,-0.0386098675540302,-0.0223479582504983,-0.000380053767857542,0.000811015299067273,0.018824518992072,-0.0404449081495173,0.960312544261406,-0.000265199290829205,0
0.31,0.00078521503527141,0.000451559779940535,-0.0390419893206272,-0.0225935607487861,-0.00038451799312794,0.000820130964808114,0.0190377255623627,-0.040893898357007,0.960310922354672,-0.000281182134819741,0
0.32,0.000786378113491166,0.000452240172535838,-0.0391051521851047,-0.0226276020262745,-0.00038507962734034,0.000821355825230816,0.0190698992238303,-0.0409580302806741,0.960309325507522,-0.000267648760851096,0
0.33,0.000786389279089418,0.000452334237550743,-0.0391127347955337,-0.0226323078472942,-0.000385033635150926,0.00082143987030692,0.0190733538157071,-0.0409662611901708,0.960307844441735,-0.000250976483596928,0
0.34,0.00078624013503077,0.000452347017567464,-0.0391120848835478,-0.0226329430296934,-0.00038490298713914,0.000821365366159756,0.0190724014196277,-0.0409664350195593,0.96030648358724,-0.000235041759341845,0
0.35,0.000786079174014905,0.000452348547282658,-0.0391103329575538,-0.0226330151598276,-0.000384769198659604,0.000821274825994035,0.0190708734540352,-0.0409655136056645,0.960305235103776,-0.000220329962209004,0
0.36,0.000785927991775334,0.000452348536936029,-0.0391085539488567,-0.022633010144918,-0.000384644390570381,0.000821188589744716,0.0190693717600983,-0.040964511480863,0.960304090001411,-0.000206822351419222,0
0.37,0.000785788526220155,0.000452348331435046,-0.0391068804191793,-0.022633010732678,-0.000384529372693645,0.000821108873674585,0.019067957168443,-0.0409635726025933,0.960303039763029,-0.000194431637798282,0
0.38,0.000785660801648767,0.000452348115761773,-0.0391053522405531,-0.0226329925470038,-0.000384424052404471,0.00082103584636332,0.0190666760008586,-0.0409627000058437,0.960302076536939,-0.000183067171045421,0
0.39,0.000785543455004681,0.000452347914171636,-0.0391039377683223,-0.0226329930572146,-0.000384327293001752,0.00082096874910685,0.0190654805529951,-0.0409619063887426,0.960301193114776,-0.000172644210571445,0
0.4,0.00078543598669907,0.000452347728747373,-0.0391026455054514,-0.022632974805781,-0.000384238678487148,0.000820907299796572,0.0190643989940759,-0.0409611660610241,0.960300382884963,-0.000163084794736097,0
0.41,0.000785337266504283,0.00045234755860119,-0.0391014497946049,-0.0226329737949019,-0.000384157278297582,0.000820850852142989,0.0190633894136003,-0.0409604939289818,0.960299639783565,-0.000154317384541817,0
0.42,0.000785246969458414,0.000452347402532264,-0.0391003625797548,-0.022632955487183,-0.000384082822271981,0.00082079922103819,0.0190624811693418,-0.0409598686475138,0.960298958248764,-0.000146276362543768,0
0.43,0.000785163907126519,0.000452347259384256,-0.0390993503785233,-0.022632955875728,-0.000384014333108229,0.000820751726220586,0.0190616259839899,-0.0409593006109926,0.96029833317987,-0.000138901546928074,0
0.44,0.000785087771506254,0.00045234712808871,-0.039098421523148,-0.0226329562385749,-0.000383951555197902,0.000820708192063338,0.0190608412256916,-0.0409587793454344,0.960297759898498,-0.000132137741878712,0
0.45,0.00078501807996995,0.000452347007665574,-0.0390975736576121,-0.022632936406782,-0.000383894090121306,0.00082066834275098,0.0190601363504975,-0.0409582870565443,0.960297234114058,-0.000125934324585674,0
0.46,0.000784954051543124,0.0004523468972147,-0.0390967877451076,-0.0226329367261846,-0.000383841295253071,0.000820631731358334,0.0190594724697508,-0.0409578459640187,0.960296751891431,-0.000120244866384462,0
0.47,0.000784895261805765,0.000452346795910679,-0.039096060904394,-0.0226329370260234,-0.000383792820341735,0.000820598115297576,0.0190588586381518,-0.0409574379578969,0.960296309621358,-0.000115026785270395,0
0.48,0.000784841635585819,0.000452346702996351,-0.0390954061351713,-0.0226329185952311,-0.000383748601504182,0.00082056745213558,0.0190583160981236,-0.0409570552227128,0.960295903993827,-0.000110241027197858,0
0.49,0.000784792159074182,0.000452346617777048,-0.0390947881966108,-0.0226329188614684,-0.000383707805965051,0.000820539161283688,0.0190577943938476,-0.0409567082804453,0.960295531973093,-0.000105851773787228,0
0.5,0.000784746815306459,0.000452346539616065,-0.0390942203934964,-0.0226329191121732,-0.000383670417899107,0.000820513233571149,0.0190573150401243,-0.0409563894792363,0.960295190774595,-0.000101826174245935,0
0.51,4.67944183711295,-0.0216993169097951,6.02869552585617,1.09232476202576,-0.504064535863853,4.652264578779,0.464905328237107,6.10919030355002,0.103290066113142,31.8714487758047,1401.46513728242
0.52,4.67858497302756,-0.0504141969297189,6.07239179996568,2.53702619137884,-2.16100578998408,4.14990998899333,-0.483727829745695,6.56326530431021,0.469323027741489,68.0322882029646,1401.46513728242
0.53,4.71716103198733,0.039402318486083,4.14455502869905,-1.94838338143558,-4.19305038585906,2.16136281222035,-4.57787397114922,0.128856863392828,1.10320766825156,105.221318038556,1401.46513728242
0.54,4.69893684697941,0.00826763524068275,5.05681208654785,-0.388135031672532,-4.23601955405497,-2.03376846847354,-4.38616799307428,-2.54627720761087,2.02016768456675,145.512353832231,1401.46513728242
0.55,4.65992639332304,-0.00262300067979826,7.00844136716236,0.165540249286872,0.412825470018386,-4.64160489514406,0.45205449368301,-6.99580593683298,-3.0534487043515,183.659772323321,1401.46513728242
0.56,4.71675149455742,0.0398923268684865,4.16835978315695,-1.94792514853749,4.71653300538539,-0.0604356539048601,4.17680439001797,1.92975147458726,-1.57515181815326,220.01362265978,1401.46513728242
0.57,4.62627974525134,0.0252502990706049,8.6932033695151,-1.21768256003969,-0.820090802292979,4.5530816964909,-2.78487763217374,8.32460162497833,0.183664944152912,259.488904102787,1401.46513728242
0.58,4.65343655132559,0.0499259214184433,7.33664310146133,-2.43400123533063,-3.74127825540886,-2.76763461288649,-4.38258894995521,-6.36738628540327,2.21843766301158,295.980657630362,1401.46513728242
0.59,4.60483873673238,-0.020986119916,9.76793340700582,1.11417747914539,4.53444773751644,-0.802349004032675,9.41153081150184,-2.84200673519375,-1.75048619253511,334.378626135833,1401.46513728242
0.6,4.62137910296125,0.0470408232682828,8.94235783624017,-2.29008942217169,-3.40186372134215,3.12836712579532,-8.17644764645451,4.28438760124445,0.837433919886057,372.575333591269,1401.46513728242
0.61,4.61766855764053,0.0789801882060711,9.12940642476752,-3.87408907856411,2.38844335953446,-3.95277612528799,8.13537041839592,-5.67189351211082,-2.58095577485805,409.672917116251,1401.46513728242
0.62,4.63060386093024,0.0493999867387429,8.48418675638546,-2.37601157117498,-2.41944358545413,3.94857255376632,-6.52214903959793,5.92354858246774,0.560401391351904,446.908263840743,1401.46513728242
0.63,4.6319966976388,0.0347026493816702,8.41614109689126,-1.63304904856456,3.41216074304498,-3.13269161336279,7.33742691055478,-4.43401020410036,-2.30602801176567,484.459728298591,1401.46513728242
0.64,4.56964946141446,0.0268752185717073,11.5351504588558,-1.23464938725593,-4.48665972622398,0.867354009997335,-11.5653528456242,0.909213272068306,1.38571470646089,522.032772026255,1401.46513728242
0.65,4.61986859916962,0.0753592118149973,9.02595154648957,-3.65211703642448,3.75110172630084,2.69779553030649,5.0602547699822,8.31862860273205,-0.930989252223242,559.655130640104,1401.46513728242
0.66,4.56020561902619,0.0691314735909034,12.0108903797842,-3.36099196508519,0.696546223883213,-4.50722506720409,5.32750051961336,-11.2772112207797,-2.97310709961256,597.508750948761,1401.46513728242
0.67,4.56183449322751,0.0836896843973416,11.9313193746002,-4.07664954402969,-4.55764066310836,0.2127192818153,-12.041879586222,-3.73745763246596,1.54250062201754,634.819708849488,1401.46513728242
0.68,4.59150338858406,0.0930692298338641,10.4498108675281,-4.52053202092743,-0.127137604141987,4.59068636246627,-5.01626081242677,10.2210999594491,0.0479547119716758,671.654947038718,1401.46513728242
0.69,4.56168932630392,0.0557088080327164,11.9424522385929,-2.67163570033456,4.22780852274149,1.71398601979187,9.97800309644266,7.08514339966069,-1.17342515941469,709.376903284791,1401.46513728242
0.7,4.61063061595274,0.0366390973998254,9.49734841814602,-1.6888916239534,3.91145474874734,-2.44126582917979,8.97938326194301,-3.52457914200525,-2.12082505239832,746.389196971521,1401.46513728242
0.71,4.53706495366152,0.0665550735180547,13.1777626320211,-3.20372529547584,1.47301541300778,-4.2918077268904,7.4748618518294,-11.3156406822959,-2.79630643227826,783.808374640808,1401.46513728242
0.72,4.52874148536734,0.0988546249872833,13.5960967174117,-4.78035239729391,-0.358948784930595,-4.51557609258945,3.99111221914529,-13.8483442420282,3.08409301510531,820.495918417658,1401.46513728242
0.73,4.58483710496837,0.132845114276685,10.7934725318011,-6.49236682045255,-0.988257950994224,-4.47903173976013,4.35842811366761,-11.8175285319753,2.95339782001274,857.919152630409,1401.46513728242
0.74,4.53188743815688,0.0640773401885029,13.443198221645,-3.0610494655429,-0.278413738372786,-4.52378110079777,2.42161050002805,-13.5729659560132,3.09426398067093,895.117902983171,1401.46513728242
0.75,4.24372923577175,0.0766393320621328,14.3729019165383,-3.69732604347378,1.43326029379639,-3.99510654976679,8.55398030168174,-12.1276523025943,-2.77908312456048,930.931974304468,1401.46513728242
0.76,3.95006216154934,0.123711225880893,14.9241464763547,-6.03789053359103,3.31638752608014,-2.14938812790358,15.895432723499,-2.55372055558849,-2.11453407560966,964.36608117689,1401.46513728242
0.77,3.62864958696688,0.0769258678965625,17.7894266842842,-3.69986253583121,3.42514732568864,1.20057536684479,15.3619040510854,9.7038440045591,-1.21246381143456,995.679179052194,1401.46513728242
0.78,3.39237253404936,0.03925330241129,17.2424788494787,-1.84724919497334,0.337850139733681,3.37573540352389,-0.321612926592893,17.3381651736422,-0.0881792473480397,1025.01395983974,1401.46513728242
0.79,3.19640694788426,0.0360693972645259,15.4482553778964,-1.69759297149181,-3.01529218275655,1.061287628548,-15.1744469399786,3.35657208820794,1.24365285845633,1052.4620598668,1401.46513728242
0.8,2.9910408449007,0.105957066274712,14.8595819515343,-5.19455074703411,-1.18675588355583,-2.74757396781296,-0.566845127184967,-15.7311544344229,2.76927806155944,1077.97617289339,1401.46513728242
0.81,2.78064420386676,0.0804802455108246,15.2981115336899,-3.90812309104635,2.68419547520667,-0.730447745766462,15.7880075363849,0.210856878096557,-1.8075566030298,1101.67985707536,1401.46513728242
0.82,2.55205926303042,0.117741239533661,17.360201226566,-5.76019013493613,-0.0548267197679639,2.55418548901715,-6.91910112659421,16.9316985744916,0.0675652320183363,1123.83830351278,1401.46513728242
0.83,2.40972841329762,0.0579673766251583,15.7045784009144,-2.82303945628509,-2.1091656985111,-1.16686387330779,-12.129370149261,-10.3673388246178,2.10017060593874,1144.75846764359,1401.46513728242
0.84,2.23097573380651,0.00271349044006119,16.3527247963005,-0.0480223824194327,0.391955147210048,-2.19627667893629,2.9398147250069,-16.0863732331246,-2.96377214720652,1164.10333184357,1401.46513728242
0.85,2.10635819902834,0.0417491043930097,14.9422780734594,-1.97262291877537,1.30271173228656,1.65572642453229,7.4307913286665,13.1128278961511,-0.646817101796192,1182.10606951826,1401.46513728242
0.86,1.99084130440136,0.0707800561933204,13.520499504307,-3.48055021532129,-1.95545030860995,-0.380359049087153,-12.3861341985927,-6.4421903310746,1.79844755195583,1199.15213051899,1401.46513728242
0.87,1.83604519506058,0.100941660829937,14.529459044988,-4.95493952449338,1.6908983005755,-0.722574642723533,15.3479596062243,-0.311033369718482,-1.91971791105109,1214.78319560267,1401.46513728242
0.88,1.65698266954561,0.0701046951019772,17.2572903042407,-3.46531494132002,-1.08651140053644,1.25299609414961,-14.3666039324226,10.1697181738864,0.756639070437798,1229.55700970298,1401.46513728242
0.89,1.57087027391619,0.0885378552844363,15.6546019896589,-4.34754666531645,0.52374205659357,-1.4836329153288,10.0452123273999,-12.769551079,-2.74593323570435,1243.23057725425,1401.46513728242
0.9,1.44699108823227,0.0473236004330542,16.4082327556978,-2.33491038850333,-0.143286178345373,1.44065672652327,-4.47142530018802,15.9589556197244,0.131826091267172,1256.07426924894,1401.46513728242
0.91,1.38897453530954,0.0692631833677636,14.1843279553359,-3.38368637413995,-0.126952432955945,-1.38489376057341,2.79102132071811,-14.3127458235784,3.10000384827259,1267.92268895226,1401.46513728242
0.92,1.31191990782601,0.0125970003160177,13.2568032619461,-0.59450487520993,0.183242274687692,1.29912077873247,1.13598625616649,13.2214145989903,-0.130524917744215,1279.11031045155,1401.46513728242
0.93,1.13780028440624,0.0254389108031857,17.5156620408672,-1.19965164353783,-0.18477212754182,-1.12298525647554,-1.26890443583736,-17.5107813169039,3.00087147971379,1289.4441884791,1401.46513728242
0.94,1.14137073894591,0.0872142681897169,13.1330128717878,-4.31166768919406,0.175031978745832,1.13123706565605,-3.28535674300756,13.4265757519838,-0.077245215801309,1299.14983337264,1401.46513728242
0.95,1.06123536080178,0.0366830663228161,13.2312497759395,-1.82238005231759,0.0217276667639245,-1.06164685600624,2.54718305554412,-13.1110220108858,-3.08657688393094,1308.26995837952,1401.46513728242
0.96,0.903078772525009,0.0509209643081767,17.499019432039,-2.48573433147906,-0.175298384801268,0.887363899579771,-6.76007719317658,16.3308270639262,0.251364618237383,1316.62523485923,1401.46513728242
0.97,0.882358172357033,0.0176107547999441,15.1225660832599,-0.844069861724194,0.413049719774699,-0.779907694540777,8.08092123534434,-12.8102759869643,-2.63457969965927,1324.45781508898,1401.46513728242
