t,iq,id,vq,vd,ia,ib,va,vb,theta_e,omega,r
0,0,0,0,0,0,0,0,0,0,0,0
0.01,0.000773512099962749,0.000433523020679049,-0.037514427723075,-0.0216947629222701,-0.000830480947264594,-0.000310748410258157,0.0407885165019923,0.0146387139875752,2.43968575329379,-0.00232588600913423,0
0.02,0.000886326525973309,0.00049512939842682,-0.0431615144958769,-0.024777728845117,-0.000950372065608405,-0.000357100502298208,0.046789188019473,0.0169594830339354,2.4396681831547,-0.00246957297690955,0
0.03,0.000928484540316659,0.000519238246224178,-0.0452819034807659,-0.0259842061487082,-0.000996009088613382,-0.000373708166018002,0.0490798774401302,0.0177987466548003,2.43965067889924,-0.00238773050720043,0
0.04,0.000905524221111123,0.000507735332699119,-0.0442660502533851,-0.0254085624899756,-0.000972405782674639,-0.000363588059362396,0.0479846572461031,0.0173939909686136,2.43963494952686,-0.00211927594683009,0
0.05,0.000926150642100681,0.000520422547908225,-0.0453373248886129,-0.0260434691521266,-0.000995417707527942,-0.00037113101160454,0.0491614577931506,0.0178013027946181,2.43962023111198,-0.00200297686407328,0
0.06,0.00092635978352725,0.00052161897500721,-0.0454221062261403,-0.0261033499540618,-0.000996471346627783,-0.000370504600476215,0.0492621686854738,0.017826703263557,2.4396066407868,-0.0018352499285262,0
0.07,0.000944918423748986,0.000533345906678167,-0.0463801639259231,-0.026690209675879,-0.00101741414619626,-0.000377090358972975,0.0503291454595166,0.0181786692486744,2.43959444790034,-0.0017436206562318,0
0.08,0.000924946107012095,0.000522835075427349,-0.0454842762412438,-0.0261642111985564,-0.000996495772966684,-0.000368616320085646,0.049349207235679,0.0178337062340516,2.4395829851064,-0.00153760493345695,0
0.09,0.000921414957414195,0.000521838194495545,-0.0453712097718819,-0.0261143269893343,-0.000993458121037423,-0.00036655366145459,0.0492382878790219,0.017779082007026,2.43957271503408,-0.00139903675953624,0
0.1,0.000919723668695228,0.000521741434620405,-0.0453412896165586,-0.0261094713416095,-0.000992295479473459,-0.000365315524956859,0.0492154247559953,0.0177589133653481,2.43956338836483,-0.0012780519996129,0
0.11,0.000918343079696078,0.000521730033983647,-0.0453216460646952,-0.0261088978547337,-0.000991398324026774,-0.000364260351264254,0.0492024522194978,0.0177438678080755,2.43955490522742,-0.00116851478840422,0
0.12,0.000917103395603697,0.000521726908537616,-0.0453045539263736,-0.0261087478748312,-0.000990598184563096,-0.000363308191567914,0.0491914368645058,0.0177305347145689,2.4395471879549,-0.00106891920804564,0
0.13,0.000957436249833342,0.000545040076348954,-0.0472819544866195,-0.0272754085426708,-0.00103444732650607,-0.000379040348783415,0.0513593139293368,0.0184865357477323,2.4395397414239,-0.00110585522085482,0
0.14,0.000986398905209429,0.000562514460338761,-0.0488506757452392,-0.0281498719902739,-0.00106649570449877,-0.000389861809586731,0.0530401729232903,0.0191192016073572,2.43953286984158,-0.00111349053534734,0
0.15,0.0009212274440942,0.000525579013409533,-0.0456161929063742,-0.026301520886452,-0.0009962101092682,-0.000363948789365637,0.0495402427700508,0.0178429650702018,2.4395265173787,-0.000826002128291089,0
0.16,0.000913724404080107,0.000522084086144204,-0.0452846408321095,-0.0261266168049014,-0.000988698143085943,-0.000360471998184302,0.0491926790488817,0.0177025175881012,2.43952129756266,-0.000737287471457372,0
0.17,0.00091227954471581,0.000521752270566144,-0.0452410456703621,-0.02611001752298,-0.000987513395496529,-0.000359578493882391,0.0491519345434618,0.0176797216899295,2.43951660700075,-0.000674538387021638,0
0.18,0.000911524288787397,0.000521719751746368,-0.0452281977404113,-0.0261083889997834,-0.000987002349709097,-0.000359018648652661,0.0491424692127428,0.017670754558999,2.43951234584743,-0.000619319060543311,0
0.19,0.000910895037937898,0.000521715644060501,-0.0452192797353646,-0.0261081962348311,-0.000986594228301118,-0.000358537044223147,0.0491366311870383,0.0176638796987122,2.43950846993319,-0.00056927772586825,0
0.2,0.000910329016950211,0.000521714316486438,-0.0452114732654421,-0.0261081184047596,-0.000986228935162258,-0.000358102268321728,0.0491315925266666,0.0176577965007623,2.43950494392387,-0.00052377326733545,0
0.21,0.000909814551786089,0.000521713336372336,-0.0452043908000511,-0.0261080738201651,-0.000985897085970129,-0.000357706946907778,0.049127041162147,0.0176522602761132,2.43950173617894,-0.000482378132436395,0
0.22,0.000909346536334401,0.000521712466041141,-0.045197945474088,-0.0261080291332827,-0.000985595212665019,-0.00035734730604539,0.0491228960511722,0.0176472248200305,2.43949881796553,-0.000444719537838037,0
0.23,0.000908920896062735,0.000521711676106401,-0.0451920858206182,-0.0261079872613439,-0.000985320671349685,-0.00035702022757295,0.0491191266523556,0.0176426476631617,2.43949616315006,-0.000410460028686475,0
0.24,0.000908533672842508,0.000521710957499324,-0.045186752311831,-0.0261079423908002,-0.00098507090785198,-0.000356722671507202,0.0491156905092858,0.017638485937522,2.43949374795802,-0.000379292783459499,0
0.25,0.000908181183423927,0.000521710303635812,-0.0451818866704428,-0.0261079220012407,-0.000984843546552155,-0.000356451808327056,0.0491125713527681,0.0176346763350754,2.43949155076122,-0.000350938692475816,0
0.26,0.00091658171545091,0.000526637319942673,-0.0455957553069295,-0.0263544913495461,-0.000994031209079676,-0.000359681613695962,0.0495681439989336,0.0177913242003982,2.43948963005002,-0.000354050368186752,0
0.27,0.00089275886556087,0.000513077763191326,-0.0444632337006295,-0.02567591813811,-0.000968294015279477,-0.000350248316331275,0.0483186882662165,0.0173648002460124,2.43948757532232,-0.000252273741762952,0
0.28,0.000891963619888921,0.00051272249224793,-0.0443002130558141,-0.0256581420446412,-0.00096750975880572,-0.000349869003882843,0.0481998619715963,0.0172517371847756,2.43948592351991,-0.000229258581214453,0
0.29,0.00090546977554055,0.000520858263214691,-0.0450900138408449,-0.0260652773514141,-0.000982444413567293,-0.000354925089317304,0.049020801982027,0.017591731143143,2.43948456607378,-0.000255705531313693,0
0.3,0.000896642029342931,0.000516263316326889,-0.0446696719750988,-0.025835343515201,-0.000973235265253185,-0.000351152187856789,0.0485737938447933,0.0174192743946149,2.43948392843432,-0.00021952534303169,0
0.31,0.000905691062233866,0.000521192677438959,-0.0451108270761981,-0.0260820204400776,-0.000982843305795943,-0.000354876236846598,0.0490470595238301,0.0175967173586762,2.43948270748805,-0.000233384977748738,0
0.32,0.00090646067472635,0.000521658604718418,-0.045154302891663,-0.0261053325823898,-0.000983696494500237,-0.000355161739789159,0.0490929568790424,0.0176147961595278,2.43948151614962,-0.000221088489029904,0
0.33,0.000906385489726945,0.000521702383050844,-0.0451566724573806,-0.0261075172032248,-0.000983681749409982,-0.000355074989750336,0.0490961743721755,0.0176151407589258,2.43948042396685,-0.000207313997645303,0
0.34,0.000906236187376109,0.000521706258353881,-0.0451549452253205,-0.0261077273459962,-0.000983588636919652,-0.000354957519483859,0.0490952368268873,0.0176136375114972,2.43947942949433,-0.00019451388543756,0
0.35,0.000906092256029175,0.000521706383335716,-0.0451529831158703,-0.0261077237982502,-0.000983496097860981,-0.000354846660321748,0.0490939828596246,0.0176120973528616,2.43947852469247,-0.000182841168866341,0
0.36,0.000905960490062434,0.000521706175376811,-0.0451511558867457,-0.0261077056629768,-0.000983411132256914,-0.000354745384654459,0.0490928034245974,0.0176106736045979,2.43947770154852,-0.000172219127701053,0
0.37,0.000905840291242962,0.000521705955749375,-0.0451494748008531,-0.0261077061776431,-0.000983333601691319,-0.000354653020977237,0.0490917313021003,0.0176093530379,2.43947695270064,-0.000162555529764032,0
0.38,0.000905731168047646,0.000521705753054812,-0.045147954091708,-0.0261076821485184,-0.000983263212975827,-0.00035456916892462,0.0490907428257969,0.0176081740861031,2.43947627144361,-0.000153764136360717,0
0.39,0.000905631749363069,0.000521705568372739,-0.045146560737221,-0.026107682590422,-0.000983199083617991,-0.000354492774959207,0.0490898541984592,0.0176070795822541,2.43947565167681,-0.000145766250442932,0
0.4,0.000905541178242928,0.000521705400325284,-0.0451452841576546,-0.0261076830001397,-0.000983140661114084,-0.00035442318023278,0.0490890399777564,0.0176060770012344,2.43947508785028,-0.000138490252983072,0
0.41,0.000905459121613881,0.000521705247435773,-0.0451441370773355,-0.026107661791966,-0.000983087731038267,-0.000354360126422025,0.0490882919905674,0.0176051897504608,2.4394745749146,-0.000131870986669121,0
0.42,0.000905384150146825,0.000521705108339796,-0.0451430748133132,-0.0261076621466471,-0.00098303937088278,-0.000354302518618362,0.0490876144276249,0.0176043556021997,2.43947410827665,-0.000125849175009114,0
0.43,0.000905316047183739,0.000521704981793555,-0.045142110813276,-0.0261076624761642,-0.00098299544126825,-0.000354250188090907,0.049086999565774,0.0176035985604394,2.43947368375741,-0.000120370891779274,0
0.44,0.00090525424682044,0.000521704866665016,-0.0451412389122013,-0.0261076412004838,-0.000982955577208253,-0.000354202699768924,0.049086427014706,0.0176029276687594,2.43947329755523,-0.00011538707812885,0
0.45,0.000905197901804829,0.000521704761924915,-0.0451404369089849,-0.0261076414882595,-0.000982919231965658,-0.000354159404052805,0.0490859154553504,0.0176022979273654,2.43947294621172,-0.000110853103259559,0
0.46,0.000905146562648043,0.000521704666635495,-0.0451397005907712,-0.0261076417575761,-0.00098288611565079,-0.000354119955274653,0.0490854457451303,0.0176017199036989,2.43947262658041,-0.000106728364744877,0
0.47,0.000905099996519439,0.000521704579944353,-0.0451390349963382,-0.0261076420092986,-0.000982856078262851,-0.000354084173405378,0.0490850211894207,0.0176011973036058,2.43947233579914,-0.000102975924929189,0
0.48,0.000905057388507474,0.000521704501076182,-0.0451384145693881,-0.0261076393360509,-0.000982828593837265,-0.000354051434216812,0.0490846231092114,0.0176007123652972,2.43947207126366,-9.95621801494468e-05,0
0.49,0.000905018987623575,0.000521704429324929,-0.0451378655166168,-0.0261076179811065,-0.000982803823499617,-0.000354021925946662,0.0490842564416926,0.0176002951568925,2.43947183060535,-9.64565598083061e-05,0
0.5,0.00090498383019648,0.000521704364048672,-0.0451373522040299,-0.0261076181915848,-0.000982781145151245,-0.000353994911149479,0.049083928938703,0.0175998923737779,2.43947161166882,-9.3631252609807e-05,0
0.51,4.71202918514754,0.0231570140406545,4.39949270018538,-1.15168796036949,-0.458462464686925,4.68972999835328,-1.59522111000853,4.25877808616834,0.102363578914686,31.5303301710473,3676.02141217626
0.52,4.71398511639346,0.0328906810665722,4.30278097515051,-1.62983185040445,-2.08044729921271,4.23018634455725,-3.38328682197616,3.11827616816606,0.46405118844932,67.2319984108816,3676.02141217626
0.53,4.63557101895127,0.0266395860141497,8.22459918071329,-1.30709470635245,-4.10043004820765,2.16233710578156,-7.89999018898254,2.63489720269007,1.09126029468075,104.280589710879,3676.02141217626
0.54,4.67850393568245,-0.000956347738673369,6.07928775744539,0.0755994508927008,-4.25101204286594,-1.95379031684722,-5.55587693646983,-2.46894438608958,2.00140535294274,144.215055406175,3676.02141217626
0.55,4.66100815521497,0.0232032987690989,6.95538954726232,-1.12125950710814,0.226702721342193,-4.65554951559859,1.4925196056885,-6.88527790746908,-3.08795779887302,180.858116011556,3676.02141217626
0.56,4.59229717301933,0.00234260931596167,10.3923508973413,-0.063592475571277,4.58417155023821,-0.273075101622862,10.3780242429155,-0.549193945595189,-1.62978502735297,217.821369755329,3676.02141217626
0.57,4.58431156993837,-0.0426126206358091,10.7931174514358,2.18802576139094,-0.542962886776228,4.55224337105255,0.996336657509626,10.9675044708403,0.109417822388263,255.527046797634,3676.02141217626
0.58,4.56928220706705,0.0485712001449685,11.5461942360396,-2.37639457164515,-3.93006750490486,-2.33136622095155,-8.63312864801137,-8.02688870256614,2.11683980873442,293.203918819057,3676.02141217626
0.59,4.65181947845698,0.00791905485238842,7.42098044834417,-0.314240117832985,4.42336266198028,-1.43991316827795,7.15717674656426,-1.98608123821811,-1.88380024121362,329.408265353825,3676.02141217626
0.6,4.57747928880407,0.0816915382498757,11.139741605575,-4.00369661034879,-2.78438668501953,3.63416853422317,-10.0658720768388,6.22909695858188,0.671613619693941,366.715636900955,3676.02141217626
0.61,4.56115062255117,0.0249884322278118,11.9580280044969,-1.16321600595958,1.56773412475116,-4.2833315465225,5.26168746856873,-10.8010254242808,-2.78525000283243,404.016355258548,3676.02141217626
0.62,4.60006731040054,0.079875417669618,10.0141250437051,-3.90320666000046,-1.33669592360396,4.40229977970425,-6.78998920853615,8.33149261354749,0.312151288789338,441.054461697804,3676.02141217626
0.63,4.58747557065026,0.0234027961697072,10.6456911731226,-1.06661960673998,2.33381127840757,-3.94953221520715,6.37795557018198,-8.59011645344621,-2.60278365493957,477.87965716564,3676.02141217626
0.64,4.50364556357936,0.0392258825832941,14.8391982312743,-1.84515458760853,-3.85490601761608,2.32896149121445,-13.7078690247613,5.97500848528414,1.03603672375455,514.586434565098,3676.02141217626
0.65,4.48495376272436,0.0764529336808457,15.7758996340228,-3.69479777209668,4.38198715853988,0.958563428905683,14.5008003775409,7.22892303529108,-1.33839292612248,551.452537347706,3676.02141217626
0.66,4.53680515966813,0.0362926790014684,13.1855445419338,-1.70915042599078,-1.37944032484429,-4.3221594840466,-2.27605802569156,-13.0995931200045,2.8406555292581,588.71558823884,3676.02141217626
0.67,4.51711101164308,0.0987846231275611,14.17253302611,-4.80629350677407,-3.76197575655423,2.50231666668546,-14.542995506768,3.5302168969575,1.00570286238245,624.977446728241,3676.02141217626
0.68,4.5202427473278,0.032220490853746,14.0182026668567,-1.4940857553146,2.43147406727886,3.81071732288697,6.19065538276743,12.6656260873719,-0.560809227513377,661.955819831888,3676.02141217626
0.69,4.48190465033572,0.0579551262712772,15.9374873818409,-2.74608491296707,4.28193229860261,-1.32509768754829,16.0626065262132,-1.88073336217994,-1.85798139892634,698.268897844517,3676.02141217626
0.7,4.50933971464726,0.00554343070190733,14.5681894897568,-0.142828579036393,1.12871540387445,-4.3657962536948,3.80207843743695,-14.0640230577181,-2.8873670826527,735.193487900224,3676.02141217626
0.71,4.43586590908929,0.0605685765734056,18.244402396871,-2.87263501499628,-2.20896297519131,-3.84721425061337,-6.35710599130934,-17.3406301547433,2.63403424309291,771.454453674666,3676.02141217626
0.72,4.48029594842722,0.12312467234616,16.0254923302363,-5.9733624678394,-3.84082500521711,-2.3100378243078,-10.2827545932621,-13.6661048427635,2.13975073397854,807.687937451262,3676.02141217626
0.73,4.45608457008953,0.0994854745562184,17.238654758005,-4.78908994892193,-4.23189096833013,-1.39917328719625,-14.6379313646465,-10.2877386129533,1.91243037928295,844.155164276239,3676.02141217626
0.74,4.42489162442589,0.139970518570423,18.8009595003407,-6.81059280711871,-4.1593279138414,-1.51632745115393,-14.9175075964173,-13.3164642314941,1.9520054490983,880.559412940468,3676.02141217626
0.75,4.41526464109557,0.0377514118544844,19.2850389834637,-1.68296354932293,-3.43683026686485,-2.77203620769417,-13.8390717199563,-13.536069918258,2.25807913575912,916.863511987956,3676.02141217626
0.76,4.4795398812553,0.147951244991196,16.0740945261791,-7.18186984944761,-1.51373706821703,-4.21862148182992,1.90980138415938,-17.5016692930705,2.83009593014632,953.146542126832,3676.02141217626
0.77,4.42374619174743,0.10126987367385,18.8666083427587,-4.89997889987913,2.1353941186873,-3.87554872426983,13.7169425305058,-13.8493390164698,-2.61510025372973,989.662902860642,3676.02141217626
0.78,4.41720829588488,0.0563003392358731,19.1964023058748,-2.62373749412977,4.41280268457801,0.2051129552549,19.0075660137591,3.75476952151385,-1.51160343058925,1025.80436270155,3676.02141217626
0.79,4.41780217859129,0.171185830969419,19.1696418773205,-8.32568735837799,0.799602743913815,4.34820838159996,-5.50614059788809,20.1612166153351,-0.143130949977406,1061.7276902815,3676.02141217626
0.8,4.38027828754073,0.09039945022364,21.0488671891002,-4.33383153041118,-4.35880779540042,0.442498067405949,-21.3292960395048,-2.6264112658775,1.49025969411148,1098.11692030928,3676.02141217626
0.81,4.37709968217658,0.2127263019267,21.2108943536319,-10.3899459214911,0.860674698762394,-4.29691670505166,15.2470010003819,-18.038347375156,-2.8953465169704,1133.85614768473,3676.02141217626
0.82,4.33796610902933,0.132861136280224,23.1707299729449,-6.42582472437215,-0.270771604383731,-4.33154531118863,5.68558201648505,-23.3633924762929,3.10978028713282,1170.00406242321,3676.02141217626
0.83,4.37509554783444,0.119598502656749,21.3173991641428,-5.78406206898161,3.06384310772635,3.12548080553316,10.2616895597764,19.5597701550914,-0.748110382544768,1206.11089570947,3676.02141217626
0.84,4.25265908381833,0.168247192832159,27.4424676984839,-8.18306615372507,-4.02577912775318,-1.38076747340937,-22.6271043066232,-17.5518020657642,1.94074708883276,1241.87620511483,3676.02141217626
0.85,4.33661560721997,0.141630299485401,23.2479397535115,-6.80281421805792,4.29170816748775,0.638384736373865,21.6510326820698,10.8617571261862,-1.39048308563118,1277.64257342846,3676.02141217626
0.86,4.29992984948646,0.201682532351828,25.0855725124549,-9.80336787766407,-4.21312755163159,-0.882965904235982,-21.8259498804296,-15.7803638056739,1.82425069804048,1313.46068179932,3676.02141217626
0.87,4.29514793228432,0.228308300997832,25.3280664180494,-11.1286912726257,3.69788323796939,2.19683408541833,14.8741671316675,23.3263342610398,-0.981637060165009,1349.27769024149,3676.02141217626
0.88,4.3327035170095,0.0993714148032576,23.4537797286637,-4.7407445389621,-1.71522098151838,-3.97997631009855,-4.39055301529835,-23.5218512571657,2.75761365899583,1385.10982665711,3676.02141217626
0.89,4.31841309293674,0.12488322789476,24.1717987773674,-6.01532784200026,-1.86617481208807,3.8963674149886,-16.4149302223353,18.7352633014897,0.475578976931144,1420.89865952969,3676.02141217626
0.9,4.28559111884364,0.157862743655547,25.816420766463,-7.61763862668754,4.2882444396274,-0.0465994608402065,25.610051029782,8.28500366263198,-1.54484363923857,1456.4394900349,3676.02141217626
0.91,4.2564221378682,0.196495302252193,27.2783801419864,-9.51059103380528,-0.881255992198305,-4.16882809621076,4.98077608242605,-28.4561633851043,2.97939951563251,1492.09309672985,3676.02141217626
0.92,4.28750458462558,0.1389401661514,25.7279095089759,-6.68668118247414,-4.2582517379351,0.518933588552782,-26.2198547823368,-4.37678513652167,1.48192337899731,1527.81171207214,3676.02141217626
0.93,4.20965541404423,0.193722190370946,29.6240880158393,-9.36082355845723,-0.83274709338091,4.13101189425783,-16.2642675582305,26.4704591810768,0.244904544279642,1563.2084821418,3676.02141217626
0.94,4.2718878431243,0.125837106022943,26.5161675644438,-5.99029955511196,2.94707706361254,3.09509248692415,13.2536160762614,23.7346264341511,-0.731457487310046,1598.79384082781,3676.02141217626
0.95,4.2711110339149,0.153972828936861,26.5587980879485,-7.4429212637425,-3.01113639107726,-3.03301083585447,-12.5532116776191,-24.5597986431399,2.39584781225266,1634.38732092661,3676.02141217626
0.96,4.21528538999129,0.180253683691715,29.3539064589894,-8.75304591903218,-3.99677910216451,-1.35162092247032,-24.2239790378593,-18.7474392074529,1.93963619341345,1669.75646832976,3676.02141217626
0.97,4.19152405931506,0.199163238267412,30.5458223810025,-9.60566050348981,-4.16348119690415,-0.523415951533551,-28.4431263948789,-14.7072954524276,1.74333618260284,1705.08617714357,3676.02141217626
0.98,4.15297278229338,0.183665427392385,32.47726755222,-8.82668629549462,-4.08104402237657,-0.791198841703733,-29.5181912904055,-16.1666224537033,1.80648863324219,1740.46598971106,3676.02141217626
