t,iq,id,vq,vd,ia,ib,va,vb,theta_e,omega,r
0,0,0,0,0,0,0,0,0,0,0,0
0.01,0.000545793496639448,0.000290083550783936,-0.0229473264625067,-0.014518378379261,-0.000240824427936241,-0.000569247399922489,0.0124382831603562,0.024138189960373,-3.05329613334683,-0.0133641952691656,0
0.02,0.000610044993680977,0.000326668629005092,-0.0270664220412934,-0.0163494159591063,-0.000271659015231627,-0.000636450050620371,0.0139015396624652,0.0284014400926115,-3.05338701850136,-0.011624293498802,0
0.03,0.000627561961996801,0.000341218575243811,-0.0286211667062743,-0.017077633758362,-0.000284657561887576,-0.00065515967877832,0.0144921776588304,0.0300132228379091,-3.05346067460832,-0.00917220174109484,0
0.04,0.000602713657317791,0.000333556888931222,-0.0282980390081763,-0.0166941675411554,-0.000279244769248436,-0.000629719230862652,0.014140150694531,0.029656877447506,-3.05351158786046,-0.00636278297743601,0
0.05,0.000611601146176403,0.000341702986902448,-0.029105696357275,-0.0171018806918503,-0.00028660236599635,-0.000639277699491887,0.014476423101315,0.0304967056881868,-3.05355051558621,-0.00505566709571046,0
0.06,0.000607584254043707,0.00034228368776995,-0.0293031177782719,-0.0171309376780868,-0.000287552343331199,-0.00063531913124034,0.0144888940369072,0.0306954994558656,-3.05357936165964,-0.00376733450696574,0
0.07,0.000618679557733197,0.000350598089654086,-0.0299604708951868,-0.017547064187781,-0.000294871999687618,-0.000647096530222705,0.0148462452294592,0.0313865939607694,-3.0535990042512,-0.00330712678620976,0
0.08,0.00060223392962898,0.000342917333907319,-0.0295323148874621,-0.0171626564774579,-0.00028867629320704,-0.000630034920961299,0.0145014464007514,0.0309260804542311,-3.05361501722014,-0.00216326292308576,0
0.09,0.000598836076174645,0.00034236590284854,-0.0295306748038331,-0.0171350460648311,-0.000288432110965249,-0.000626598735177203,0.0144744109257433,0.0309218690632754,-3.05362549679116,-0.0016367590094174,0
0.1,0.000597251696334686,0.00034232562150539,-0.0295599142140683,-0.0171330449381125,-0.000288535783065269,-0.000625014817268058,0.0144700767338265,0.0309507130210539,-3.05363286297469,-0.00129092705863331,0
0.11,0.000596208057297162,0.000342322186953317,-0.029583773300134,-0.0171328595341614,-0.000288627307129075,-0.000623973400751968,0.0144679582075192,0.0309743878679871,-3.0536380961942,-0.00104770051980884,0
0.12,0.000595473581794001,0.000342321550256062,-0.0296010373514085,-0.0171328352751292,-0.000288693510751435,-0.000623240633491031,0.0144665329449389,0.0309915291877827,-3.05364181971269,-0.000874888994390304,0
0.13,0.000624490788077477,0.000358087740759241,-0.030764101024012,-0.0179219198317177,-0.000301853504710706,-0.000653528909972275,0.0151505815361925,0.0322193265197353,-3.05364723828824,-0.001530679284027,0
0.14,0.000645726490073099,0.000371225742253458,-0.0322371521179273,-0.0185794581274583,-0.000313078367758735,-0.000675835177639697,0.0156763378934039,0.0337443724380257,-3.05365139934855,-0.00200269331033286,0
0.15,0.000598137164499456,0.000344391173140622,-0.0298598597571321,-0.0172364206940922,-0.000290529350408367,-0.000626071916191675,0.0145473920178125,0.0312582598450299,-3.053654883123,-0.000426626998335794,0
0.16,0.000593576026517795,0.000342468503143072,-0.0296781257717288,-0.0171401890615535,-0.000289014219910589,-0.000621359763415031,0.0144674694532076,0.0310687875207395,-3.0536541278135,-0.000319642440739097,0
0.17,0.000593272869535728,0.000342330831021405,-0.0296561557936345,-0.017133294774605,-0.000288903169031463,-0.000621045935916612,0.0144625045516086,0.0310463094164915,-3.05365326544917,-0.000345393752543047,0
0.18,0.000593352508010994,0.000342321034627235,-0.0296512802686685,-0.0171328139411385,-0.00028888601468906,-0.000621124592999077,0.0144624337106483,0.03104141984958,-3.05365261909323,-0.000373952351041531,0
0.19,0.000593439004536983,0.000342320381458464,-0.0296488839121802,-0.0171327787412444,-0.000288877479540614,-0.000621210831748752,0.0144625947310715,0.0310390363619613,-3.05365215581006,-0.000395304730139925,0
0.2,0.000593503556830305,0.000342320369387582,-0.0296472714038384,-0.0171327770991407,-0.000288871593020982,-0.000621275228874767,0.014462724473651,0.0310374347139217,-3.05365182576523,-0.000410604245156094,0
0.21,0.000593549715505252,0.00034232039324083,-0.029646114151514,-0.0171327769882002,-0.000288867416816642,-0.000621321279135523,0.0144628187105701,0.031036285321494,-3.05365159084107,-0.000421503167878949,0
0.22,0.000593582661041216,0.000342320412541187,-0.0296452784295983,-0.0171327769319588,-0.000288864438621045,-0.000621354147351805,0.014462886865075,0.0310354552422984,-3.05365142364353,-0.000429260898837568,0
0.23,0.000593606118728483,0.000342320426443125,-0.0296446676893711,-0.0171327769149997,-0.000288862318288963,-0.000621377549984567,0.0144629367952581,0.0310348485816954,-3.05365130464927,-0.000434782128717994,0
0.24,0.000593622766119448,0.000342320436348814,-0.029644214209474,-0.0171327769262373,-0.000288860813423908,-0.000621394158377294,0.0144629740064572,0.0310343980800326,-3.05365121996111,-0.000438711561709476,0
0.25,0.000593634640482233,0.000342320443399421,-0.0296438763496931,-0.0171327769572337,-0.0002888597400909,-0.000621406004882688,0.014463001840442,0.0310340624002979,-3.05365115968917,-0.000441508114036882,0
0.26,0.00060003793787382,0.000345699342204426,-0.0298813972674439,-0.0173018847878477,-0.000291662951482217,-0.000628081431679938,0.0146105831845559,0.0312855234713107,-3.05365077735699,-0.000650075512114054,0
0.27,0.000582568479188222,0.000335857293579871,-0.029237411470441,-0.0168093089325644,-0.000283394103015325,-0.00060981467428278,0.014176513793577,0.030600744320078,-3.05365216971534,-6.69292701936853e-05,0
0.28,0.000582191374451158,0.000335428882272054,-0.0286334964945033,-0.0167878670439927,-0.000283000371020392,-0.000609401445313291,0.0142081901743237,0.029997282099513,-3.05365201180508,-6.19452245404097e-05,0
0.29,0.000592544544687379,0.000341826671468488,-0.0295998219398896,-0.0171080643272292,-0.000288463484625206,-0.000620276816271479,0.0144422472941956,0.0309880108588964,-3.05365094561743,-0.000417295494656128,0
0.3,0.000587209159051107,0.000339254831477477,-0.0293463735799035,-0.0169793500030038,-0.000286367558474877,-0.000614737389954001,0.0143361592331221,0.0307242983200322,-3.05364667858055,-0.000429059819800421,0
0.31,0.000593636274738299,0.000342101180163221,-0.0295984512551908,-0.0171218111424384,-0.000288638859090319,-0.000621389453706186,0.0144559522327368,0.0309879037456241,-3.05364742363428,-0.000592729401403826,0
0.32,0.000594102872830954,0.000342305022837474,-0.0296279598776982,-0.0171320039981182,-0.000288801543456016,-0.00062187186836452,0.0144635444074464,0.0310181793579162,-3.05364840724579,-0.000566996425759743,0
0.33,0.000594022372841255,0.000342319550082057,-0.0296338888621567,-0.0171327363153495,-0.000288823548527486,-0.000621792740083324,0.0144637762765364,0.0310241389657836,-3.05364915279986,-0.000534401688857596,0
0.34,0.00059392353631721,0.000342320534697215,-0.0296365743848004,-0.0171327877300772,-0.000288833542884292,-0.000621694217418688,0.0144636082274628,0.0310268108852999,-3.05364968797701,-0.000509770212566825,0
0.35,0.000593849146934002,0.000342320565140314,-0.0296383229733403,-0.0171327924817419,-0.000288840343852242,-0.000621620008039915,0.0144634712152852,0.0310285476182673,-3.0536500693175,-0.000492096156231897,0
0.36,0.000593795933912481,0.00034232053877188,-0.0296395430840006,-0.0171327786239074,-0.000288845159966641,-0.000621566919936954,0.0144633586723849,0.0310297578707616,-3.05365034076052,-0.000479503188321157,0
0.37,0.000593757866102374,0.000342320516562376,-0.0296403857187164,-0.0171327788616787,-0.000288848601373026,-0.000621528941484484,0.0144632908962298,0.0310305944759121,-3.05365053394914,-0.000470539404999209,0
0.38,0.000593730799540142,0.000342320500508723,-0.0296409703225384,-0.0171327790539031,-0.000288851048056352,-0.000621501938394295,0.0144632440091664,0.0310311748488963,-3.05365067144029,-0.000464159794356428,0
0.39,0.000593711474594376,0.000342320489065432,-0.0296413668164344,-0.017132777758868,-0.000288852794754123,-0.000621482658858441,0.0144632109320646,0.031031568281603,-3.053650769291,-0.000459619453336096,0
0.4,0.000593697795794108,0.000342320480919889,-0.0296416363002911,-0.0171327778956437,-0.000288854031308477,-0.000621469012087367,0.0144631895609754,0.0310318357288686,-3.05365083893067,-0.000456388121428466,0
0.41,0.000593688016907108,0.000342320475122698,-0.0296418094028846,-0.0171327780162776,-0.000288854915199242,-0.000621459256164523,0.0144631760157977,0.0310320074563029,-3.05365088849229,-0.000454088403894279,0
0.42,0.000593681090195483,0.000342320470996875,-0.0296419178051323,-0.0171327781251109,-0.000288855541371541,-0.00062145234566954,0.0144631676979695,0.031032114939058,-3.05365092376417,-0.000452451710235455,0
0.43,0.000593676142544322,0.000342320468060568,-0.0296419775945672,-0.0171327782257563,-0.000288855988590934,-0.000621447409629059,0.0144631633260037,0.0310321741432197,-3.0536509488668,-0.000451286886273334,0
0.44,0.000593672591877019,0.000342320465970675,-0.0296420021780483,-0.0171327783206181,-0.000288856309460543,-0.000621443867338951,0.0144631618157574,0.03103219838165,-3.05365096673167,-0.000450457888820476,0
0.45,0.000593670147155269,0.000342320464483579,-0.0296420073185359,-0.0171327784108971,-0.000288856530596041,-0.00062144142826145,0.0144631618487451,0.0310322033263196,-3.0536509794455,-0.000449867896862129,0
0.46,0.000593668284510126,0.000342320463425176,-0.0296419883854203,-0.0171327784987674,-0.000288856698757509,-0.000621439570107775,0.0144631638799155,0.0310321843432254,-3.05365098849337,-0.000449448003520627,0
0.47,0.000593667120356912,0.000342320462672121,-0.0296419665104648,-0.0171327785837474,-0.000288856804254389,-0.000621438408527237,0.0144631660856206,0.0310321624671402,-3.05365099493224,-0.000449149168220281,0
0.48,0.00059366618903434,0.00034232046213601,-0.0296419293111678,-0.0171327786677644,-0.00028885688836438,-0.000621437479432981,0.0144631695786589,0.0310321253527023,-3.05365099951437,-0.000448936489128077,0
0.49,0.000593665548750072,0.000342320461754646,-0.0296418875181374,-0.0171327787505772,-0.000288856946245921,-0.000621436840647639,0.014463173432951,0.031032083681289,-3.05365100277508,-0.000448785126845524,0
0.5,0.000593665024881126,0.000342320461483371,-0.0296418378561913,-0.0171327788329073,-0.000288856993428067,-0.000621436318109099,0.0144631779486886,0.0310320341849293,-3.05365100509524,-0.000448677403313351,0
0.51,4.64019498843186,0.00942502479264617,7.99138531548404,-0.426509252750296,-4.0432081739261,2.27683245410321,-7.17970725808067,3.5349615403112,1.05996322319442,329.631290269798,5239.36147929578
0.52,4.59911478038719,0.076865056219642,10.046846342982,-3.7561136709408,4.48541504087387,1.01922368062464,8.8651516263545,6.03792994247725,-1.33064830148129,731.004455581839,5239.36147929578
0.53,4.59168609059502,0.0911645043583196,10.4200287008543,-4.41357360598423,3.48276700978971,2.99369772638106,4.82270931476641,10.2370945569206,-0.840918318341042,1117.33627832423,5239.36147929578
0.54,4.5208626129712,0.125135408331898,13.963288064523,-6.07942587396638,-2.79567176592025,-3.55500731546583,-3.44358935089014,-14.8349089957552,2.50286962378188,1507.93604205769,5239.36147929578
0.55,4.49555611287076,0.14577074092898,15.2309820263557,-7.04682002011577,-3.15597607412521,-3.20485395805017,-5.15093543470032,-15.972111633426,2.39629270009706,1890.8241026661,5239.36147929578
0.56,4.45564949975879,0.175799126632327,17.2289641280595,-8.51993341912502,4.18351625554584,1.54334362253166,12.6547762205929,14.466620517557,-1.17794006286607,2275.20309068136,5239.36147929578
0.57,4.40271898386716,0.212914716527929,19.8783925823657,-10.3084763308345,4.00471059913573,-1.84161889233043,22.2898510953196,2.13955931689345,-1.95349994662511,2654.69896952009,5239.36147929578
0.58,4.37478347869509,0.211275233140869,21.2783166083849,-10.1954857582841,-0.0292213878325858,4.37978467736661,-11.3483003143025,20.6864875585597,0.0549281579017769,3033.96047470756,5239.36147929578
0.59,4.33657780285796,0.305928842463645,23.1920132643892,-14.8718899707584,4.34247276395496,0.205984929547924,21.2829186126227,17.495141207959,-1.45296745554177,3410.45568994507,5239.36147929578
0.6,4.24822264510636,0.282308340577536,27.6135162738634,-13.6551191524442,1.16813648524657,4.09420942226823,-7.55181622349734,29.8653416488225,-0.211574098526791,3783.7223724015,5239.36147929578
0.61,4.24907879111786,0.332056209402326,27.5747254012317,-16.1811101770846,2.19250890685433,-3.65483742356547,29.169518479986,-13.0894231791184,-2.52326302528648,4156.30461388073,5239.36147929578
0.62,4.10396457869114,0.402734513618151,28.5431736266637,-19.6058836475287,3.28563193531868,-2.49185536041417,34.583352133191,1.75931506957033,-2.12183816189414,4523.51954137927,5239.36147929578
0.63,2.3215552372244,0.195781568678671,30.5444414670385,-9.5523698023116,1.18513698840743,-2.00584133490834,25.4791672387314,-19.3655030968526,-2.52380056645416,4795.82803192811,5239.36147929578
0.64,1.32528485318835,0.133229974607555,28.8248088826622,-6.46014697824653,-1.31004746796726,-0.240636239783138,-25.8906342268782,-14.2224528627291,1.85264913342957,4955.79236613106,5239.36147929578
0.65,0.744636144670782,0.0232868350128531,27.4640936941105,-1.08754258327304,-0.549564034293706,0.502995662849997,-21.5379600942638,17.0755809941335,0.860874885079958,5051.06970962185,5239.36147929578
0.66,0.356216234624506,0.0516098154533365,28.9145987246456,-2.59334709604988,-0.0954079468947552,0.347060373034024,-13.9590111209145,25.4543803125131,0.412158263627187,5107.17668238557,5239.36147929578
0.67,0.142037824150816,0.0240749126372729,29.0435473221767,-1.25794839297439,-0.0166398105626611,0.143099481523971,-9.33619451573868,27.5308108703539,0.283662283346886,5140.69785747641,5239.36147929578
0.68,0.0265610651953886,0.0606850762355723,28.5859308783503,-3.10713654392473,0.0480376063914769,0.0456131234866507,-12.64205115392,25.8261163225539,0.346948044728045,5160.53698308696,5239.36147929578
0.69,-0.0452705412909722,0.035276924994698,28.4777574696939,-1.79904220112028,0.0532113821291774,-0.0215042358097614,-15.8249090916465,23.7442935372953,0.524778137250525,5172.58996064113,5239.36147929578
0.7,-0.0940818397697307,0.0139070805874038,28.7359867937204,-0.679338331070765,-0.0701724573076721,0.0641920999837578,18.6655361977647,-21.8590072058836,-2.45847163293297,5179.83304924914,5239.36147929578
0.71,-0.134768076508172,0.0455837754597374,29.4349508502006,-2.26824201014041,-0.137043519416575,0.0382019478141491,25.6036797614023,-14.6973751413594,-2.16881159732739,5184.43094632855,5239.36147929578
0.72,-0.129417636378694,0.0172728051702383,28.392327721059,-0.850259901438539,-0.129103025071495,0.0194854643692659,27.5040547989599,-7.09747736423442,-1.8532767741806,5187.38290608507,5239.36147929578
0.73,-0.103221695457539,0.0325559957722334,26.6857317415747,-1.61279521171645,-0.101447474299024,-0.0377229536515833,26.5703586237219,2.95726724951108,-1.52031622158196,5189.10586795066,5239.36147929578
0.74,-0.108063533358471,0.00986532991121387,26.5944510235682,-0.480311599873074,-0.0959622337054024,-0.050658678214539,24.3651761365576,10.6692884632699,-1.17611647924704,5190.54705627164,5239.36147929578
0.75,-0.131929506990319,0.0334538557720492,27.6948939658254,-1.66798327995515,-0.0740774269220185,-0.114180077515032,19.1884568416467,20.039771556502,-0.823854426899532,5191.34554788889,5239.36147929578
0.76,-0.0991766919414737,-0.00257293422565946,25.9785726738681,0.135790978742007,0.0544355924312843,0.0829421635336253,-13.801555132003,-22.0095832150369,2.58673298500044,5192.05739058731,5239.36147929578
0.77,-0.126411213610947,0.0198139698263417,27.2935431376275,-0.993541484217022,0.00474833705922884,0.127866499217127,-4.24899730630325,-26.9790778859734,2.94899743426253,5192.57603541681,5239.36147929578
0.78,-0.087953469584654,-0.00649994247462728,25.3769053825539,0.323763775948627,-0.00872647661110917,0.0877605302519754,4.04633247533985,-25.0543278352607,-2.96871538595173,5193.05928374164,5239.36147929578
0.79,-0.110733300357685,0.0509016768255158,26.4912097299383,-2.55840798531452,-0.100740721101254,0.068586818148634,15.8611364615895,-21.3718037264461,-2.59941007710747,5193.62585881331,5239.36147929578
0.8,-0.12929906662594,-0.042341181677977,27.381654625036,2.10004630139731,-0.0767476677586165,0.112342422040117,20.435674591244,-18.3452557483822,-2.2257978128054,5194.09207843639,5239.36147929578
0.81,-0.101418338563593,0.0492318631529229,26.005384246973,-2.48544955733849,-0.11103594225335,-0.0195057754118753,25.6888854134745,-4.74748728783566,-1.84882652660826,5194.46377498901,5239.36147929578
0.82,-0.138553627283305,0.0196135200224099,27.8085618494924,-1.01451689041912,0.138262025397733,0.021573366310036,-27.7914093507462,-1.40816297254463,1.58495602855479,5195.02483921795,5239.36147929578
0.83,-0.106161506715662,0.0381399547689672,26.1692851462091,-1.94317125685144,0.0830113589452231,0.0763808611105278,-23.3597257721006,-11.9553591100106,1.96971640158813,5195.52800668913,5239.36147929578
0.84,-0.121122105781496,-0.0413771551679683,26.930807346048,2.02877427813457,0.114833978532655,0.0565313262987864,-20.4555599851708,-17.6338984650206,2.35744052475551,5195.93259829969,5239.36147929578
0.85,-0.134248399443889,0.0479627327011754,27.6159291767032,-2.45076310736258,0.00721932333955208,0.142376043813309,-8.33301339613496,-26.4425163674135,2.74779459635756,5196.27675785563,5239.36147929578
0.86,-0.104558258066348,-0.00864963044971131,26.0918118382354,0.381563657426439,0.00863894391144905,0.104559141565338,-0.378896912777916,-26.0918507000948,-3.14149044747713,5196.81958706424,5239.36147929578
0.87,-0.122327934903924,0.00206806675953296,27.0044746052448,-0.162877238032053,-0.0492044188769739,0.112014845984628,10.5912895174738,-24.8413518967272,-2.74460441549455,5197.11960156442,5239.36147929578
0.88,-0.136514649863499,-0.0219555463635444,27.7064093265161,1.03239938572845,0.0721570619536616,-0.117947675066917,-17.2443645151588,21.7104320253753,0.708493996318878,5197.61091732995,5239.36147929578
0.89,-0.129117228314303,0.0115024182209898,27.326319707544,-0.645944298251121,0.120846809023849,-0.0469000322094955,-24.7835240073494,11.5291773588789,1.11174436503589,5198.01058249614,5239.36147929578
0.9,-0.113999031977489,-0.0799591064405014,26.6304080201855,3.92977942205476,0.109592798301309,-0.0858991068350339,-26.3841929434978,5.33817949752981,1.51767628604322,5198.33294726002,5239.36147929578
0.91,-0.111121006708616,0.0444242367421227,26.4265949705543,-2.29960957959359,0.0886898182655866,0.0803461702763341,-23.9708651164644,-11.3600506831859,1.92655544691595,5198.90780638383,5239.36147929578
0.92,-0.131779436101852,-0.0324887324364798,27.452158342017,1.54349599344472,0.117337760797095,0.0682142756743403,-20.8130463636646,-17.9672056419717,2.33910784053048,5199.33293079599,5239.36147929578
0.93,-0.146699811484791,0.0227335944891028,28.2239364854253,-1.2259612659692,0.0343848035215135,0.144413767677653,-9.52980910521936,-26.5946669499179,2.75410187713916,5199.54808498866,5239.36147929578
0.94,-0.160016477258846,0.00426073171663716,28.8957523174537,-0.306075973462764,-0.00504031621557754,-0.15999381876041,1.37272377382522,28.8647503701996,-0.0581133189043945,5199.96838365252,5239.36147929578
0.95,-0.115820773833603,0.0702941240607871,26.7186262156745,-3.60720850781133,0.106770188079165,-0.0834016934266182,-12.8397998464624,23.7073085771991,0.362172791114541,5200.27572768773,5239.36147929578
0.96,-0.145702542679696,-0.0713675917417926,28.1818410968999,3.4771155400602,0.0525153224301496,-0.153507996548744,-17.4619616556336,22.3916590548139,0.78508920252567,5200.85516579358,5239.36147929578
0.97,-0.165953688614387,0.0232769503409757,29.1268236854814,-1.26461319392438,0.163586630008335,-0.0363573605259401,-27.7228455235539,9.02302280904447,1.2127469346819,5201.36859716993,5239.36147929578
