t,iq,id,vq,vd,ia,ib,va,vb,theta_e,omega,r
0,0,0,0,0,0,0,0,0,0,0,0
0.01,0.0012348408656752,0.00069679651300684,-0.0598851304263192,-0.0349067091737599,0.000804750606110399,0.00116736190020272,-0.0401375826667681,-0.0565126680416619,-0.0898188187578811,-0.00398497586480963,0
0.02,0.00137424092415425,0.000777987049244269,-0.0670991519648399,-0.0389740313140315,0.000898154705516324,0.0012988918705462,-0.0448373936959233,-0.0633315043072921,-0.0898472440838465,-0.00404587032997836,0
0.03,0.00140909982711965,0.000798627381292917,-0.0689185370941249,-0.0400080100812822,0.00092187580586894,0.0013317330871811,-0.0460322197993041,-0.0650495224133644,-0.0898744698993713,-0.00375435986556722,0
0.04,0.00138652079941413,0.00078763823220731,-0.067989026690362,-0.0394575202539853,0.000908934889214012,0.0013102103950176,-0.0454020152094557,-0.0641721175419416,-0.0898976932107155,-0.00332020956002642,0
0.05,0.00140465212950308,0.000798685999312596,-0.0689822211139569,-0.0400109706427406,0.000921594825242291,0.00132725653454866,-0.0460438195505492,-0.0651106080664706,-0.0899195505173188,-0.00305124015378471,0
0.06,0.00140282609964986,0.000798762681577713,-0.0690149416418548,-0.0400148135305534,0.000921533193863074,0.00132541293940741,-0.0460518615867208,-0.0651419489738455,-0.0899391448507078,-0.00274600781602367,0
0.07,0.00144006828101897,0.000820555585958959,-0.0708868182719111,-0.0411065476387946,0.000946606586380436,0.00136053081342047,-0.0473084695854768,-0.0669073835161371,-0.08995645759398,-0.00261409507032793,0
0.08,0.00139978108292123,0.000798916172123529,-0.0690719809690701,-0.0400224740504323,0.000921456349330415,0.00132233593555621,-0.0460667729515633,-0.0651965444938474,-0.0899722543833447,-0.00223038296796565,0
0.09,0.00139804086173152,0.000798750289257512,-0.0690740682261003,-0.0400141783082835,0.000921153131992287,0.00132060485501181,-0.0460596045004861,-0.0651987285171257,-0.0899861532781308,-0.00201229481078525,0
0.1,0.00139677550495316,0.000798745324846738,-0.0690895166876084,-0.0400139172321678,0.000921050829468245,0.00131933364799718,-0.0460615410574301,-0.0652135670225512,-0.0899985479526727,-0.00181882378978351,0
0.11,0.00139564911574156,0.000798741964312858,-0.0691033914952639,-0.0400137534849869,0.000920960818260627,0.00131820193864722,-0.0460633460641173,-0.0652268911836398,-0.0900096026084451,-0.00164627788356257,0
0.12,0.00139464423174612,0.000798738974001959,-0.0691157470952077,-0.0400136200425572,0.000920880499859187,0.00131719231196949,-0.0460649670085699,-0.0652387545860451,-0.0900194621297051,-0.00149238622170813,0
0.13,0.00145953015575664,0.000835638074920025,-0.0722533154310558,-0.0418621009132086,0.000963476838764313,0.00137848890056604,-0.0481886937464837,-0.0681969711838796,-0.0900292791009706,-0.00157278404196166,0
0.14,0.00157422144074069,0.000902518933650303,-0.0782175346155695,-0.0452125580560635,0.00104041105434913,0.00148669378423168,-0.0520624362770108,-0.0738353631819667,-0.0900377453880064,-0.00185038345907067,0
0.15,0.0013935150851347,0.000799506664452771,-0.0692204067093666,-0.0400520764242977,0.000921577778969548,0.00131597477039338,-0.0461143746457993,-0.0653383347043278,-0.0900454540302769,-0.00109207913240053,0
0.16,0.00139139835990927,0.000798735062910478,-0.0691564513113173,-0.0400134130936105,0.000920626831260525,0.00131393049064401,-0.0460705079228786,-0.0652778391577302,-0.0900514450645894,-0.000993227114125755,0
0.17,0.00139084195907429,0.000798727689895002,-0.069162518502393,-0.0400130603134497,0.00092057645918908,0.00131337209522416,-0.0460710505432095,-0.0652836676595812,-0.0900567809966302,-0.000909896841131685,0
0.18,0.00139035730276191,0.000798726201363594,-0.0691684747045194,-0.0400129594347295,0.000920537637100068,0.0013128851559715,-0.0460717964573244,-0.065289389542788,-0.0900615399916551,-0.000835615995099851,0
0.19,0.00138992488456386,0.000798724911579577,-0.0691737731567237,-0.0400128916049491,0.000920503031615474,0.00131245069922431,-0.0460724825867344,-0.0652944770682968,-0.09006578448436,-0.000769366091707727,0
0.2,0.00138953888371953,0.000798723761361866,-0.0691784765419635,-0.0400128597136032,0.000920472134544371,0.00131206288182384,-0.0460731210633611,-0.0652989898437055,-0.0900695700985539,-0.000710278558764666,0
0.21,0.00138919505757927,0.000798722735371915,-0.0691826879891903,-0.0400127916820667,0.000920444615112951,0.00131171743394385,-0.0460736526040804,-0.065303034778796,-0.0900729464447796,-0.000657579059829223,0
0.22,0.00138888810273739,0.000798721820203136,-0.0691864234953675,-0.0400127595914363,0.000920420041780193,0.0013114090340864,-0.0460741533164444,-0.0653066192845349,-0.0900759577694197,-0.000610576975805237,0
0.23,0.00138861432626186,0.000798721003894737,-0.0691897491459749,-0.0400127274120452,0.000920398122839111,0.00131113396898888,-0.0460745958307447,-0.0653098106019845,-0.0900786435348164,-0.000568656351387347,0
0.24,0.00138837061729558,0.000798720275775388,-0.0691927330812702,-0.0400126591408367,0.000920378614486316,0.00131088910892595,-0.046074952712189,-0.0653126782129338,-0.0900810389385629,-0.000531267823035745,0
0.25,0.00138815295300412,0.000798719626323569,-0.0691953736365953,-0.0400126268144704,0.000920361186910677,0.00131067041930338,-0.0460752976009681,-0.0653152125334085,-0.0900831753714586,-0.000497921419649954,0
0.26,0.00139984857026769,0.000805259668497538,-0.0697615007484671,-0.0403402853660183,0.000927929336421399,0.00132172852734508,-0.0464526802972123,-0.0658494806607854,-0.0900850453375725,-0.000510882399017424,0
0.27,0.0013466415072087,0.000775405315154456,-0.0672494913164632,-0.0388446984628141,0.000893411850890455,0.00127142125843309,-0.0447372937280923,-0.0634821174101526,-0.0900870047834452,-0.000292338218637153,0
0.28,0.00132324090620831,0.000761367370838763,-0.0657211385677931,-0.0381414447836176,0.000877327627380642,0.00124937704616164,-0.0438994942898705,-0.0620231591095007,-0.0900886339576243,-0.00018452103230703,0
0.29,0.00138695616593486,0.000798438545003759,-0.0691777425983335,-0.0399985450195421,0.000919982036955046,0.00130949783048789,-0.0460601084670071,-0.0652986223644049,-0.0900896330049529,-0.000395216893370091,0
0.3,0.00138446755594656,0.000797144834218584,-0.0690592633041859,-0.0399337659014315,0.00091846957847166,0.00130713577474266,-0.0459849277733781,-0.0651864550720808,-0.0900895570331852,-0.00038755196774432,0
0.31,0.00138735478945208,0.000798705567216132,-0.0692034841175714,-0.0400119398265731,0.000920285312725588,0.00130986977906173,-0.0460758383269292,-0.0653230025731131,-0.0900907576446241,-0.00037948333670231,0
0.32,0.00138726960655375,0.000798716903063821,-0.0692060066702386,-0.0400124891631603,0.000920290360688378,0.00130978292267525,-0.0460766833044534,-0.0653254154516773,-0.0900918432453358,-0.000362628111146459,0
0.33,0.00138717100278402,0.000798716695769262,-0.0692071772651724,-0.0400124953874946,0.000920282551094998,0.00130968384628332,-0.0460768580815101,-0.065326536120352,-0.09009281160364,-0.000347514260620527,0
0.34,0.00138708287638558,0.000798716433775037,-0.0692082069837311,-0.0400124957568639,0.000920275492401169,0.00130959530605076,-0.0460770075155213,-0.0653275218342975,-0.0900936752722502,-0.000334033712135589,0
0.35,0.00138700456123252,0.000798716199522465,-0.0692091339018957,-0.0400124630263748,0.00092026922165523,0.00130951662071678,-0.0460771086365277,-0.0653284124450087,-0.0900944455680187,-0.000322010558536879,0
0.36,0.00138693447920508,0.000798715990586326,-0.0692099433589792,-0.0400124604277654,0.000920263607716599,0.00130944620948651,-0.0460772237597568,-0.0653291871970707,-0.0900951325859056,-0.000311287244490124,0
0.37,0.0013868719641774,0.000798715804233743,-0.0692106591574255,-0.0400124607144976,0.000920258599752673,0.00130938340089345,-0.0460773284785156,-0.06532987183301,-0.0900957453291113,-0.000301723242608146,0
0.38,0.00138681658284234,0.00079871563802553,-0.0692113106712992,-0.0400124279144819,0.000920254166888942,0.0013093277562156,-0.0460773901337894,-0.065330498474367,-0.0900962918273355,-0.000293193218066,0
0.39,0.00138676675708471,0.000798715489783144,-0.0692118645341165,-0.0400124281604534,0.000920250174364499,0.00130927769734189,-0.0460774720556028,-0.0653310276097773,-0.0900967792424637,-0.000285585386156269,0
0.4,0.00138672251926252,0.000798715357565967,-0.0692123629594792,-0.0400124283878336,0.00092024663153838,0.00130923325079368,-0.0460775455287697,-0.0653315039622567,-0.090097213962508,-0.000278800047371603,0
0.41,0.00138668293805318,0.000798715239641158,-0.0692127955211122,-0.0400124285997103,0.000920243460360083,0.00130919348393862,-0.0460776099902522,-0.0653319168850908,-0.0900976016837058,-0.000272748280854742,0
0.42,0.00138664754779543,0.000798715134463956,-0.0692131713029375,-0.0400124287976308,0.000920240624056276,0.00130915792846599,-0.0460776665907816,-0.0653322751910877,-0.090097947487602,-0.00026735077910159,0
0.43,0.0013866161156586,0.000798715040657089,-0.0692135073945715,-0.0400124289823823,0.000920238106247433,0.0013091263484424,-0.046077717164771,-0.0653325956916757,-0.0900982559059409,-0.000262536808654273,0
0.44,0.00138658832475446,0.000798714956990775,-0.069213813703945,-0.0400123960969121,0.000920235882494496,0.00130909842465558,-0.0460777299447231,-0.0653328910427341,-0.09009853098051,-0.000258243283145384,0
0.45,0.00138656341187564,0.000798714882369333,-0.0692140748689419,-0.0400123962605581,0.000920233887759726,0.00130907339377481,-0.046077769635002,-0.0653331398291794,-0.0900987763159673,-0.000254413936558025,0
0.46,0.0013865410601339,0.000798714815814811,-0.0692142955694052,-0.0400123964156254,0.000920232096769369,0.00130905093732627,-0.0460778039430681,-0.0653333495381518,-0.0900989951273039,-0.000250998585874826,0
0.47,0.00138652103669859,0.000798714756455199,-0.0692144823932283,-0.0400123965628706,0.000920230491463556,0.00130903082086243,-0.0460778336497854,-0.0653335265985974,-0.0900991902827662,-0.000247952473428694,0
0.48,0.00138650334156971,0.000798714703512621,-0.0692146515130946,-0.040012396702303,0.000920229074416991,0.00130901304210037,-0.0460778603773417,-0.0653336869997997,-0.0900993643389687,-0.000245235680373053,0
0.49,0.00138648750908598,0.00079871465629405,-0.0692147942156573,-0.0400123968354858,0.000920227806029688,0.00130899713522993,-0.0460778834923534,-0.0653338219584717,-0.090099519577816,-0.000242812603532967,0
0.5,0.00138647330641675,0.000798714614180052,-0.0692149117695235,-0.0400123969631997,0.000920226667399021,0.00130898286654894,-0.0460779032425967,-0.0653339326442967,-0.0900996580330435,-0.000240651488849824,0
0.51,4.60558730264467,-0.059387978613886,9.72229464058785,2.98629173476756,-1.12558886613478,4.46631963015625,0.650774763105545,10.149750913754,0.233982142660816,71.7043346878051,2233.47804302881
0.52,4.58974593440551,-0.045192013686741,10.5162301502277,2.29058086797278,-4.01808478143339,2.21873945061298,-8.02854142015785,7.16801087820679,1.05642860149481,153.142411911262,2233.47804302881
0.53,4.57863460834599,0.0695570891814232,11.0740381798201,-3.4532892979403,-2.8198561824835,-3.60792796151872,-3.93324983529167,-10.9127940655251,2.49338011146632,240.601644151576,2233.47804302881
0.54,4.48269393896003,-0.00162564561496081,15.873453890027,0.126027474912339,4.44131547297138,-0.607671344278861,15.7090186707634,-2.28235705463754,-1.70713702933405,325.325151142696,2233.47804302881
0.55,4.43889888112288,0.0453788943482856,18.0656665418788,-2.22111691367789,-3.65184237278773,2.52387198668995,-16.2099802595771,8.27878058235069,0.976275660122827,409.002791008897,2233.47804302881
0.56,4.48181520882766,-0.0376880762609093,15.9225835228496,1.97014078692915,4.09209962382745,-1.82833493262105,13.6636137033503,-8.40926758570934,-1.99939176551571,491.432559532152,2233.47804302881
0.57,4.37689910154697,0.0526081723249969,21.1712101503051,-2.55371517486676,-4.13428186799636,-1.43795924868356,-19.0433352860152,-9.59650882389708,1.91754090810361,575.822471080824,2233.47804302881
0.58,4.39773007729006,0.110408396186496,20.1326534350314,-5.4420977329752,-0.594291589310651,4.35878851901818,-8.59164573870847,19.0032572358232,0.160608240448746,659.208222841264,2233.47804302881
0.59,4.36293116933713,0.0308288454957979,21.8757155676718,-1.43805896913429,3.65888505445061,2.37669496663034,17.4686544672023,13.2461713827761,-0.987658827324099,741.773380440432,2233.47804302881
0.6,4.28443626912942,0.0761120318922994,25.8036459759229,-3.67890808235793,4.28388298437563,0.102634116195848,25.627769874909,4.75183349538981,-1.52907980810176,824.037982536576,2233.47804302881
0.61,4.26466678089363,0.0517233810448866,26.7955652535703,-2.4997343169301,4.24647919166846,0.396828092416782,26.3843795832813,5.30240538990658,-1.46549044037021,907.361645733185,2233.47804302881
0.62,4.29032046814729,0.12020034504469,25.5163157396258,-5.88559684898031,3.1535078535105,2.91147489431045,14.1437333173491,22.0380903673778,-0.797274310271373,989.246389847149,2233.47804302881
0.63,4.22346520096352,0.0348235409120412,28.8626037268649,-1.63926171122062,-1.89056632447222,3.7768545054745,-14.591570611038,24.9564248231793,0.472345663560941,1071.84992466197,2233.47804302881
0.64,4.21789849627573,0.0992949226691378,29.1445933438478,-4.78619854751153,-3.08831891574411,-2.87451099862395,-17.5178918052189,-23.7789504481401,2.34389003774489,1152.85994312237,2233.47804302881
0.65,4.16486621986711,0.105149003339558,31.8000498594188,-5.0863560586186,4.15397793047977,0.318801341559996,31.118210704327,8.29283736592471,-1.46895912889736,1234.58756006703,2233.47804302881
0.66,4.1496260428878,0.111688468932387,32.565935157927,-5.41022920999891,-4.1511264235559,-0.0044749928628717,-32.4017867421123,-6.31940889116263,1.59878315809885,1316.1836871847,2233.47804302881
0.67,4.09289935754865,0.109308603003751,35.4061957894762,-5.26963795139429,3.5441493366249,2.05006804799598,27.4046358114569,23.0294099026204,-1.01968214761979,1397.45687560633,2233.47804302881
0.68,4.12057006551005,0.138441301925244,34.0267562812821,-6.69769659528908,0.26813911785189,-4.1141663885086,10.0170119875697,-33.2014872189365,-3.04292513200786,1478.53432550863,2233.47804302881
0.69,4.06219754435937,0.108026790475136,36.9495637643089,-5.26564813394474,-3.97075950070658,-0.863821546621788,-34.6277963392691,-13.9252660056943,1.81159133150418,1560.13833432279,2233.47804302881
0.7,4.1361001546717,0.220274248170306,33.2586794219411,-10.7947890198986,-3.30026000484502,2.50282423160369,-33.5875671341827,9.72329989676039,0.975164982961364,1640.2813568926,2233.47804302881
0.71,3.87564444921976,0.000460474662095312,37.8514768069741,0.129990877036745,-2.58344068479095,2.88902307657307,-25.1376334717382,28.2993034814915,0.729734903010686,1720.86900423887,2233.47804302881
0.72,3.2119346772402,0.154886034720314,41.209698041678,-7.52552352524754,-2.69788535862991,1.74983674847108,-39.4003813559881,14.2296404036798,1.04359368167395,1791.72856533608,2233.47804302881
0.73,2.73962755174172,0.118319950713083,39.1492963908112,-5.72849877763418,-2.67098642273994,-0.620798085159701,-36.1785198379466,-16.0186706213794,1.84232605845084,1852.79377065115,2233.47804302881
0.74,2.33491233335419,0.0869122140098316,37.4381749936393,-4.19963116255686,-0.286085027356751,-2.31894904957308,0.985626379534066,-37.6600901405698,3.05605020697909,1905.27343177123,2233.47804302881
0.75,2.12218414905211,0.0693900797121569,29.3238251478807,-3.3431055462971,2.10815729958756,-0.253285107825544,29.5033133519289,0.78586083695306,-1.65768261104377,1950.21625155815,2233.47804302881
0.76,1.66945536133856,0.0397860794025878,35.7574425568138,-1.88170593291696,-0.467621011253288,1.60312030910058,-12.621310955429,33.5087753459923,0.307646811636733,1989.0456518565,2233.47804302881
0.77,1.43021462770092,0.16206464083699,33.8968494470663,-8.00321438649827,-1.0405580356675,-0.994493742316712,-15.5662613095439,-31.1566903216039,2.44639652832598,2022.08938800534,2233.47804302881
0.78,1.18307843234986,-0.00939209237671418,34.3580889762507,0.595133576403005,1.17646896912552,0.125233993689235,34.2511551598894,2.77323498587966,-1.47268516890525,2050.63050334321,2233.47804302881
0.79,0.933389981247158,0.113377099238114,36.7743461220991,-5.56202692738521,-0.772030412518471,0.536693828798859,-35.1067743685991,12.2801901321265,1.0841939948729,2074.88164273625,2233.47804302881
0.8,0.775846484532248,0.0240955472992377,35.9540737398564,-1.23864818632276,0.459703091095028,-0.625452980645527,23.1570305820217,-27.5314656791792,-2.47671877149562,2095.87857544632,2233.47804302881
0.81,0.614457694134479,0.0626061015553873,36.5069863947792,-3.15072401642008,-0.174564914978774,0.592456641697498,-16.7309602565134,32.600031999236,0.388075546361665,2113.87457808197,2233.47804302881
0.82,0.55330531664291,0.0309613134452627,33.0979590869643,-1.50213777399667,0.0980167975757271,-0.545433849104147,9.12624614738665,-31.8503209539832,-2.9078874490267,2129.3584765729,2233.47804302881
0.83,0.403769488255357,0.0324547669938107,35.089908996421,-1.54016445058182,-0.0421788831549637,0.402869772212331,-7.95223395030047,34.2116324531822,0.184523040972045,2142.61319281571,2233.47804302881
0.84,0.282713469060517,-0.0382906163003094,36.3766900924493,1.85224466745372,0.100648146488417,-0.266951357916261,6.3435652065303,-35.8671656652809,-2.91566565869448,2154.10759756364,2233.47804302881
0.85,0.288990018604856,0.0329205415395048,32.0139343192538,-1.65447052697137,-0.0668205676251257,0.283079502350038,-12.3908619640322,29.5651112480642,0.345232497579572,2163.89444824704,2233.47804302881
0.86,0.257048406070591,0.104204200565886,30.0617781856949,-5.15025397794399,0.0405037511999959,-0.274393594345305,19.6804444986808,-23.3005520976992,-2.60989700668938,2172.50307642031,2233.47804302881
0.87,0.0163760943591073,-0.046632498340699,39.1157341681398,2.2496976378138,-0.04475041916754,-0.0209801418556489,-25.7956731972744,29.490422907676,0.776118342363273,2179.65636002413,2233.47804302881
0.88,0.125818132796682,0.0842273273323254,31.1022918203345,-4.23680447596703,0.069800595674596,-0.134358929935683,29.3064744146157,-11.2442708091854,-2.0725422350727,2185.88340528351,2233.47804302881
0.89,-0.01931451114245,0.0341640009873858,36.1685176470201,-1.65706429129062,0.0218653303152702,0.0325904377746303,-36.1895031097913,1.10787883573956,1.49440953436701,2191.2427759843,2233.47804302881
0.9,-0.0749592140217061,-0.111211711690987,37.0361683685674,5.47980005196001,-0.104133733816132,0.0845168271144991,37.0243093215394,5.55936105117337,-1.27486307444241,2195.88911705801,2233.47804302881
0.91,-0.0244754045204172,0.0626724982771953,32.8952431213709,-3.14433114894652,-0.0216423766661943,0.0637063183599686,-23.1386779605078,-23.5920626615869,2.27059958464209,2199.89333662268,2233.47804302881
0.92,-0.11088110601255,0.0931738028425306,35.797992063533,-4.61703243690715,0.0370920519402651,-0.140000560318757,11.065224601677,34.3565718432248,-0.439846162101121,2203.37836064815,2233.47804302881
0.93,-0.128272593078939,-0.0339091442637802,35.4940593459098,1.61975244849111,0.0320309508233885,0.128754442211702,-1.10087022910288,-35.5139399614297,-3.12697815975727,2206.2868181748,2233.47804302881
0.94,-0.13489997491384,-0.000475705671528798,34.8165512273505,0.0465854480130667,0.062950476927835,-0.119312476221888,-16.3142500267243,30.7577576496762,0.48901734294033,2208.85680636483,2233.47804302881
0.95,-0.196144888132902,-0.0736331769008446,36.9844052994416,3.58835537109821,-0.122053399042595,0.170286903968945,28.7403031607186,-23.5524415688192,-2.16058926741872,2211.01994982089,2233.47804302881
0.96,-0.171148324146105,0.0178833650109982,34.99168063544,-0.938590131277155,0.172041388481459,0.00365023992477247,-34.94923367205,1.96207310353201,1.48789772825257,2212.9255377861,2233.47804302881
0.97,-0.132942106815754,-0.00892321276891989,32.4353152459227,0.495697410841853,-0.124222478538755,-0.0481871696244904,29.5961947753137,13.2800845572306,-1.13373490302178,2214.66649839087,2233.47804302881
