t,iq,id,vq,vd,ia,ib,va,vb,theta_e,omega,r
0,0,0,0,0,0,0,0,0,0,0,0
0.01,0.000532820285590467,0.000293876698464815,-0.0256542902298558,-0.0147073331556852,0.000531720040425911,0.000295862754071469,-0.0260741467881832,-0.0139494489145007,-0.559001086274386,-0.00322551472905868,0
0.02,0.000605017433143796,0.000333073052621475,-0.0293255015190673,-0.0166689456022359,0.000603247079259167,0.000336268812344796,-0.0296845399771339,-0.0160208262327839,-0.559024697350549,-0.00323359178108036,0
0.03,0.000630606871397517,0.000348552354904612,-0.0306572197214167,-0.0174436348502675,0.000629949384862588,0.000349739249834161,-0.031047961847335,-0.0167382670238922,-0.55904691323012,-0.00295677397626516,0
0.04,0.000612619946384955,0.000340744991751371,-0.0299024214601476,-0.0170528958914463,0.000613797041921792,0.000338620051740007,-0.0303166838194447,-0.0163050528872685,-0.559065554425458,-0.00245944147706887,0
0.05,0.0006250213631796,0.000349180126707944,-0.0305782177206557,-0.0174750405689206,0.000627531269134534,0.000344649055674119,-0.0310332709299116,-0.0166535442848645,-0.559082069639541,-0.00220917581039085,0
0.06,0.000623631210601652,0.000349873431112769,-0.0305882720478737,-0.0175097392091529,0.000627386594683029,0.000343093814352775,-0.0310682585069363,-0.0166432168583318,-0.559096439999077,-0.00190958971551346,0
0.07,0.000635641043451111,0.00035806922804762,-0.0312217252370898,-0.0179199038876874,0.000640708917845994,0.000348920034946191,-0.0317521700773097,-0.0169622751276438,-0.559108479141286,-0.00174709967021771,0
0.08,0.000620551440911083,0.000350603060476367,-0.0305627748215097,-0.017546257329295,0.000626379315623293,0.000340081681058407,-0.031086070826789,-0.0166015225689695,-0.559119262193586,-0.00142794619440088,0
0.09,0.000617486990550814,0.000349986617208926,-0.0304648925608593,-0.0175154125516856,0.000624234271975596,0.000337805253683164,-0.0310081509520403,-0.0165346282128123,-0.55912824846571,-0.00122586004361204,0
0.1,0.000615817911995916,0.000349934831362518,-0.0304261552401833,-0.0175128176095973,0.000623307587883025,0.000336413046452079,-0.0309855293349147,-0.0165029292903381,-0.559135899940266,-0.00106010612600412,0
0.11,0.000614484176922403,0.000349929722117468,-0.0303973998653152,-0.0175125651269585,0.000622597961491243,0.000335281064863736,-0.0309701695234379,-0.016478484626547,-0.559142430955547,-0.000919235653718565,0
0.12,0.000613354227004116,0.000349928581712299,-0.0303732608401114,-0.0175125045133092,0.000621999466418816,0.000334320331206024,-0.0309574051399491,-0.01645788125462,-0.559148007142706,-0.000799019261656951,0
0.13,0.00064108910118936,0.000365823693822932,-0.0317176319234548,-0.0183079850697052,0.00065018810575115,0.000349396104394091,-0.0323449729101705,-0.0171753666506611,-0.559153385500927,-0.000876690523235537,0
0.14,0.000661584531669909,0.000378375652400495,-0.03284168775724,-0.0189361645945076,0.000671702333934858,0.000360108596760557,-0.0334738435712565,-0.0177948470311318,-0.559158083079838,-0.000919484293869289,0
0.15,0.000615324601207937,0.00035227098837135,-0.0305419220133651,-0.0176297326028045,0.000625035115946737,0.000334739178963687,-0.0311464841977242,-0.0165382282617511,-0.559162230749748,-0.000524970066925434,0
0.16,0.000610382789716679,0.000350119330502223,-0.0303220377568764,-0.0175220558251227,0.000620590559641907,0.000331689693624908,-0.0309386086156912,-0.0164088668406209,-0.559164995711396,-0.000435929374495526,0
0.17,0.000609497428510972,0.000349941715108763,-0.0302920919813934,-0.0175131542122095,0.000619971086943113,0.000331031978348505,-0.0309152146031959,-0.0163881333015135,-0.559167281613533,-0.0003838111780654,0
0.18,0.000609062849482329,0.000349926825782446,-0.0302817279731789,-0.0175124233288048,0.000619728572613436,0.000330670280352235,-0.030909128982395,-0.0163796753764701,-0.559169226161325,-0.000341617533725669,0
0.19,0.000608722967298978,0.000349925383642237,-0.0302743497740122,-0.0175123485174993,0.000619547596998607,0.000330381900363339,-0.0309051787359397,-0.0163734093009737,-0.559170885780169,-0.000305813800441979,0
0.2,0.000608435763096264,0.000349925081088131,-0.0302681869077494,-0.0175123288988499,0.000619395451216486,0.000330137721566915,-0.0309019159993301,-0.0163681516890055,-0.559172302747255,-0.000275264919055793,0
0.21,0.000608190934074313,0.000349924899262222,-0.0302629388570031,-0.0175123135645155,0.000619265818186091,0.000329929528596901,-0.0308991387871542,-0.0163636736968446,-0.55917351259146,-0.000249183397961476,0
0.22,0.000607981735741198,0.000349924750290202,-0.0302584450420729,-0.0175123141116299,0.00061915505579899,0.000329751631897538,-0.0308967722458255,-0.0163598321109395,-0.559174545593917,-0.000226914377742092,0
0.23,0.00060780326345247,0.000349924623589607,-0.0302546104856017,-0.0175122986441295,0.000619060561940329,0.000329599863331169,-0.0308947393797854,-0.0163565625389872,-0.559175427603672,-0.000207900409704899,0
0.24,0.000607650701173371,0.000349924515434773,-0.0302513225535252,-0.0175122990684175,0.000618979786012353,0.000329470128610853,-0.0308930078487459,-0.016353751892347,-0.559176180691136,-0.000191665689808577,0
0.25,0.000607520490636041,0.000349924423079972,-0.0302485127919899,-0.0175122994422659,0.000618910844373552,0.000329359401152182,-0.0308915281348695,-0.0163513500169047,-0.559176823700904,-0.00017780397738863,0
0.26,0.000613512132848118,0.000353312597449086,-0.0305351538278008,-0.0176818662498416,0.000624961620326238,0.000332640799943829,-0.0311873357936167,-0.0165043660726772,-0.559177273453988,-0.000208967937488584,0
0.27,0.000596681875143596,0.000343719852103128,-0.0297407798796389,-0.0172017808468365,0.000607901921147465,0.000323462287013331,-0.030358977569377,-0.0160856374786264,-0.559178073276859,-7.97591195141952e-05,0
0.28,0.000596180983522122,0.000343397806833033,-0.0295984863642505,-0.0171856656595108,0.000607363334429652,0.000323208290180863,-0.0302698378605667,-0.0159735536155928,-0.559178463456128,-6.85139208169289e-05,0
0.29,0.00060610205420286,0.00034938632361269,-0.0301903921352646,-0.0174853681719047,0.00061770281575007,0.000328441371710315,-0.0308378950974919,-0.0163163140244415,-0.559178584624825,-0.000132709168599305,0
0.3,0.000600491927850641,0.000346534209255359,-0.0299203535901048,-0.0173426265573009,0.000612308750650527,0.000325199181233297,-0.0305736297638551,-0.0161631500000962,-0.559177856832224,-0.000109723751172307,0
0.31,0.000606596481872766,0.000349644854956916,-0.0302114614129039,-0.0174983028199681,0.000618184112722694,0.000328723621292288,-0.0308600294388857,-0.0163273263369663,-0.559178138264233,-0.000145045672035807,0
0.32,0.000607120944600115,0.000349901160590634,-0.0302381412781347,-0.0175111325544844,0.000618679716593445,0.000329032022500339,-0.0308850641364253,-0.0163431259123233,-0.559178483890153,-0.000141587860531046,0
0.33,0.000607116521782749,0.000349922243277829,-0.0302395127768788,-0.0175121904840663,0.000618695342379996,0.000329016900294606,-0.0308866934895909,-0.0163437178699738,-0.559178789158266,-0.000135392259660794,0
0.34,0.000607069024411124,0.00034992394674907,-0.0302386092750822,-0.0175122779769541,0.000618671675574183,0.000328975571661716,-0.0308862926333948,-0.0163428974847639,-0.559179050785925,-0.000129789369155816,0
0.35,0.000607024262726564,0.000349924058118072,-0.0302376337382355,-0.0175122854344142,0.000618648097844839,0.000328937430253098,-0.0308857850941489,-0.0163420596725787,-0.559179274266218,-0.000124975259052437,0
0.36,0.000606985896278544,0.000349924042520013,-0.0302367894949727,-0.0175122711304282,0.000618627794343227,0.000328904797594454,-0.0308853282239479,-0.0163413457098223,-0.559179465089977,-0.000120861908701838,0
0.37,0.000606952892534841,0.000349924020079078,-0.0302360514662349,-0.0175122712864645,0.000618610320721852,0.000328876731741729,-0.0308849395011762,-0.0163407149748175,-0.55917962802197,-0.000117349520305828,0
0.38,0.000606924720026989,0.000349924000166017,-0.0302354167138844,-0.0175122714313719,0.0006185954043301,0.000328852774678436,-0.0308846051668252,-0.0163401725277794,-0.55917976713878,-0.000114350505918521,0
0.39,0.000606900622055396,0.000349923983101381,-0.0302348675673935,-0.0175122715668924,0.000618582645165052,0.000328832282632605,-0.0308843159052527,-0.0163397032811176,-0.559179885920553,-0.000111789850837253,0
0.4,0.000606880132958776,0.000349923968525516,-0.0302343980178394,-0.0175122716940967,0.000618571796872706,0.000328814859217736,-0.0308840685783198,-0.0163393020486994,-0.559179987340492,-0.000109603483034428,0
0.41,0.000606862554245199,0.000349923956079636,-0.030233987865682,-0.0175122718145869,0.000618562489441032,0.000328799910948807,-0.0308838525131979,-0.0163389516283396,-0.559180073935655,-0.000107736693665225,0
0.42,0.00060684759487636,0.00034992394545259,-0.0302336351448553,-0.0175122719290391,0.000618554568926952,0.000328787189938906,-0.0308836667029242,-0.0163386502861018,-0.559180147873687,-0.000106142770398801,0
0.43,0.000606834789190973,0.00034992393637908,-0.0302333273371085,-0.0175122720385268,0.000618547788685234,0.000328776300447722,-0.0308835045378207,-0.0163383873526897,-0.559180211003904,-0.000104781828764587,0
0.44,0.000606823904358393,0.000349923928631573,-0.0302330619731174,-0.0175122721435884,0.000618542025528557,0.000328767044249797,-0.0308833647342225,-0.0163381606857822,-0.559180264906562,-0.000103619814149229,0
0.45,0.000606814591132657,0.000349923922016555,-0.0302328294193993,-0.0175122722450284,0.000618537094464676,0.000328759124561034,-0.030883242204373,-0.0163379620770928,-0.559180310930066,-0.000102627649657307,0
0.46,0.00060680661668312,0.0003499239163683,-0.0302326247370346,-0.0175122723433854,0.000618532872217565,0.0003287523433882,-0.030883134347506,-0.0163377873040738,-0.559180350226592,-0.000101780508523124,0
0.47,0.000606799806386801,0.00034992391154562,-0.0302324448960975,-0.0175122724390571,0.00061852926635489,0.000328746552171924,-0.0308830395726719,-0.0163376337677189,-0.559180383778974,-0.000101057192874478,0
0.48,0.000606794043828376,0.000349923907427824,-0.0302322889463429,-0.0175122725323167,0.000618526215293321,0.000328741651772436,-0.0308829573897332,-0.0163375006364262,-0.559180412427183,-0.000100439603307124,0
0.49,0.000606789096177204,0.000349923903911878,-0.0302321494107112,-0.0175122726236986,0.000618523595666542,0.000328737444432802,-0.0308828838443367,-0.0163373815495481,-0.559180436887853,-9.99122859808098e-05,0
0.5,0.000606784847017962,0.000349923900910034,-0.0302320240532886,-0.0175122727134702,0.000618521345844077,0.000328733831136892,-0.0308828177605754,-0.016337274592681,-0.559180457772913,-9.94620459227295e-05,0
0.51,4.64847185352642,-0.023156740250009,7.57741790646623,1.17041617437263,-1.05434378378801,4.52738180334219,-0.540645498942688,7.64819185134245,0.223821913419367,69.4005438466102,3923.32232931662
0.52,4.64061607114694,0.0034052443857695,7.9713508255243,-0.143932828925422,-3.96144197517662,2.4170863850482,-6.88263024642118,4.02399695997371,1.02367847906509,149.226664276379,3923.32232931662
0.53,4.63035813156238,-0.0193917659411373,8.48561423970956,1.00256231713906,-3.01666348666634,-3.51288113595184,-6.31307214222859,-5.7581160418948,2.42785650762947,235.573632778806,3923.32232931662
0.54,4.64158484590237,0.0228587765544446,7.92579203404034,-1.09386070762622,4.4943059154293,-1.16019254605144,7.9520688931328,-0.88278589330343,-1.81850339576462,318.030152396138,3923.32232931662
0.55,4.59783225897496,0.036115116926161,10.1150747818592,-1.754279572953,-3.30263762910797,3.19905462193778,-8.53113011340582,5.7106964243273,0.809183167582056,401.224000385368,3923.32232931662
0.56,4.59922372031043,0.0469941880398732,10.0472310714579,-2.26620211790463,3.59365622549785,-2.87066233056349,9.31000955660826,-4.40525212653344,-2.2345960857708,481.711363814887,3923.32232931662
0.57,4.54919416474873,0.0271566001905839,12.5506053349859,-1.26414548220387,-4.54718951088213,-0.137740994773975,-12.4965419957116,-1.71819563035448,1.60704799375228,564.210531937445,3923.32232931662
0.58,4.56077070845679,0.038855079318546,11.9738447926926,-1.83618070528478,1.09967722417435,4.42638104719177,1.00216815337034,12.0722896624593,-0.234987943701511,646.134803508042,3923.32232931662
0.59,4.54853817605542,0.0720433839083383,12.5876671015727,-3.47863760696502,4.53591277418256,0.346244268120026,12.214740730893,4.62064838931398,-1.47877261983591,727.592029595522,3923.32232931662
0.6,4.50035726874397,0.0832821177563023,14.9990667452837,-4.06395442119979,3.78188630412002,-2.44079647660022,14.8908547023847,-4.44411689759965,-2.12542129835748,809.857404916294,3923.32232931662
0.61,4.53830285725476,0.0928662859579159,13.1042794986069,-4.51751868434367,3.68111843373899,-2.65597139442829,13.3493404432143,-3.73165190929773,-2.17535457639073,890.867086800031,3923.32232931662
0.62,4.43625021491897,0.10139762177132,18.2095192591937,-4.91235730478871,4.42101624445406,-0.381067990446279,18.4831545860781,3.75377709620553,-1.63392584470825,971.338331582462,3923.32232931662
0.63,4.4771461910672,0.109478570788804,16.1674367803775,-5.31077049516902,2.23925419125077,3.87847447337421,3.07628355990598,16.7369882224644,-0.499153966527644,1051.85948355233,3923.32232931662
0.64,4.41312356763651,0.108890506854515,19.3713778260009,-5.29285861753263,-4.11591522789586,1.59585669860637,-20.0196196237578,1.5746305417213,1.22558282571156,1132.85867850638,3923.32232931662
0.65,4.42453438308874,0.0750985847899922,18.8038090812087,-3.59820606166087,1.64440752117277,-4.10829261480756,10.6001832001121,-15.9425982496199,-2.74388588819339,1213.17754277485,3923.32232931662
0.66,4.38499387956785,0.0821443934445767,20.7839598789811,-3.93706809122772,-0.603598285726493,4.34402902093091,-7.13427246030974,19.9142072367475,0.156795829165109,1292.99172244676,3923.32232931662
0.67,4.38729685661173,0.147756774450098,20.6719691018419,-7.18756256471456,1.97944710955595,-3.9181621856301,16.2398290824222,-14.671718152381,-2.64012982392386,1372.47813009601,3923.32232931662
0.68,4.31161256867332,0.143487204449826,24.4594783673072,-6.94101109027769,-4.24892586515261,0.746472044097939,-25.1909571179031,-3.44374744139197,1.43015317181534,1451.92816882785,3923.32232931662
0.69,4.35790893469951,0.0572371031593519,22.1480714944344,-2.66827122254233,0.918941093647863,4.26030440643825,1.76972298582293,22.2379140836787,-0.199310343021832,1531.90799250323,3923.32232931662
0.7,4.33033260246767,0.175647878953226,23.5304099815176,-8.52444186351118,4.16223308004908,1.20766237530213,19.6088568813757,15.5511747076679,-1.24786267302061,1610.60007130555,3923.32232931662
0.71,4.29415503718925,0.124009706201301,25.3429303086048,-5.95317515997882,4.23096113490728,-0.744388182035457,25.9378026975709,2.22144149913348,-1.71608158590696,1689.66912350651,3923.32232931662
0.72,4.32062141924323,0.127162929158788,24.0234364348429,-6.12520013171427,4.31326893058232,-0.282225072325004,24.2278865207879,5.25862049669997,-1.60671188010611,1768.5915542008,3923.32232931662
0.73,4.25431834377672,0.154414904643837,27.3425087044677,-7.48966414788252,3.48102043814301,2.45062547979121,17.2414172849621,22.5042525160864,-0.921113207080432,1847.13698545169,3923.32232931662
0.74,4.27073238724562,0.104155720391397,26.525868381462,-4.94789748172585,-1.32102158594894,4.06262298361734,-13.4818147640799,23.3740037979665,0.338764281661782,1925.25669521281,3923.32232931662
0.75,4.22503438097812,0.206891791203435,28.8149552906111,-10.0459829413187,-3.60284780628872,-2.21657560629795,-18.0980516440694,-24.5699806338096,2.17126724905625,2003.02604929571,3923.32232931662
0.76,4.15889187259342,0.253708781600184,32.1263866817939,-12.4656079117422,3.89850713292987,1.47050735743811,24.2114674501611,24.5214384926175,-1.14917199511626,2081.16185031668,3923.32232931662
0.77,4.22360999552352,0.103921558478551,28.8949498727471,-4.90230048984068,-4.11501570807036,-0.957249605346988,-26.7461101330176,-11.9831661506361,1.82395497946097,2158.55312645123,3923.32232931662
0.78,4.08214012098792,0.11764084729793,35.9729972655857,-5.64774094794142,3.31554221260086,2.38430014318542,25.1601799377062,26.3233519063804,-0.918537169877103,2236.12781690134,3923.32232931662
0.79,4.09298900753291,0.185790100322635,35.4352755152541,-8.94151635831608,0.00542573626741411,-4.09719996321257,10.5854829731449,-34.9793798666194,-3.09490725816892,2312.81105439045,3923.32232931662
0.8,4.14883453782146,0.242474816251508,32.647862492664,-11.7778915599649,-4.15002049765518,0.22125082548611,-32.5871928402736,-11.944727612173,1.57591123587628,2389.64512240479,3923.32232931662
0.81,4.10901110955906,0.239827224606482,34.644016341225,-11.6418507569249,-1.8547381920388,3.67442997417761,-27.4562365350381,24.1225129833029,0.525755517949227,2466.26281879606,3923.32232931662
0.82,4.09035147075306,0.232201147845587,35.5820979342259,-11.2363483694318,0.0839366315852339,4.0960770463006,-12.5174126289501,35.1518932513837,0.0362180671222366,2542.61104485766,3923.32232931662
0.83,3.9585310587778,0.137090717092304,42.1782991427412,-6.54914784053127,-0.282114036596691,3.95084467910047,-10.9709154633,41.2497184221762,0.105902892408537,2618.99516686891,3923.32232931662
0.84,4.05492769322177,0.0978182859149122,37.3637471282135,-4.58305480641477,-2.64120682019333,3.07831667430113,-28.4121040836776,24.6942570724035,0.733240894263104,2695.01842747397,3923.32232931662
0.85,3.99637250466547,0.289862242470029,40.2968342057568,-14.0945450465799,-3.85879754288652,-1.07921028473088,-33.152618034992,-26.8960027606751,1.91590843862465,2770.40412623036,3923.32232931662
0.86,4.00553372035951,0.275814955359172,39.8441370641487,-13.4616482858114,3.38124297295995,-2.16507972886586,41.4146019405418,-7.3213372456149,-2.07158701115838,2846.05011958011,3923.32232931662
0.87,3.91123523824755,0.141285161412186,44.5644644460939,-6.78167519929754,-0.70361962693441,3.8500184423373,-16.2119242255703,42.0613376247154,0.216869780437199,2921.31404474837,3923.32232931662
0.88,3.9782022773048,0.370445057365442,41.2215741104953,-18.1875618566307,-0.713306683005211,-3.93122327980232,14.5522550689065,-42.640795616936,3.05494992362829,2995.96087743501,3923.32232931662
0.89,3.81714835790526,0.175493424387699,48,-8.38881077160242,-0.42390015453032,3.79759505308969,-15.7955914905711,46.0963277889329,0.157105807707229,3070.4580138287,3923.32232931662
0.9,3.86440544611541,0.41041129710129,41.1407329028903,-20.2373187322598,2.89368350130765,-2.59396659173065,45.2041918768541,-7.66094054399266,-2.19582572765151,3144.33097007548,3923.32232931662
0.91,3.45768544278797,0.0201200430712895,44.6825992295927,-0.726346628021264,-2.6835948839305,-2.18043847341379,-34.0528333794101,-28.9390185073815,2.25893570712615,3213.03939105409,3923.32232931662
0.92,3.18074687679099,0.267408795201919,43.1083919987738,-13.0412778347762,-2.35122001636553,2.15880119339625,-42.0690711672591,16.0810957154001,0.911910867682963,3275.66526815816,3923.32232931662
0.93,2.84642145120289,0.338286185502691,45.766968091196,-16.6679197427495,0.32379626752305,2.84810614238797,-16.9006135933178,45.6815518232541,0.00508905663173094,3333.07887294069,3923.32232931662
0.94,2.6149488671791,-0.0120501892446309,44.4812864444911,0.864642583268451,-0.167932756658449,2.60957877333933,-1.78888258918365,44.4537101897669,0.0596556649106147,3385.55386451565,3923.32232931662
0.95,2.27549281019139,0.0521252101971272,48,-2.46981328551721,0.226692266273623,2.26477265595965,1.22309966948057,48.047934449504,-0.0768594316199843,3433.63274654621,3923.32232931662
0.96,2.15766615869446,0.260258167683238,44.7946638674381,-12.7465007757719,-0.00626737562976337,2.17329664018142,-18.1428071147001,42.8937494633228,0.12292409961521,3477.28729165346,3923.32232931662
0.97,1.96089726485245,0.267440130464777,44.810621451149,-13.2020631575737,-0.937996180788578,1.74264324275363,-37.0486825821265,28.4549009027193,0.629335843186837,3517.36114260474,3923.32232931662
