t,iq,id,vq,vd,ia,ib,va,vb,theta_e,omega,r
0,0,0,0,0,0,0,0,0,0,0,0
0.01,0.000843784755964358,0.000456306865317642,-0.0412150476971418,-0.0228377776956212,0.000441251028003171,-0.000851754776928189,-0.0212442974037644,0.0420585790840905,-2.16786852753168,-0.0033405276220006,0
0.02,0.000947102414735347,0.000513656745824489,-0.0465275289683133,-0.0257080802218063,0.000494427313281116,-0.000957281499043069,-0.024022777734065,0.0474196424546598,-2.16789196328598,-0.00309492620884926,0
0.03,0.000979908483599981,0.000536475834402261,-0.0482798306951489,-0.0268501649667828,0.000508706900598717,-0.000994607584131583,-0.024828748783215,0.049349839356939,-2.16791231483125,-0.00261704156372874,0
0.04,0.000946444237515174,0.00052443381379781,-0.0467905557271511,-0.0262474589913618,0.000487789118305661,-0.000965841237389863,-0.0239353130245936,0.0480144353207822,-2.16792775577939,-0.00198316528398397,0
0.05,0.000962605776351077,0.000537229239975606,-0.0476756493061417,-0.026887875219915,0.000493946921312143,-0.000985515893263768,-0.0243065325754924,0.0490420008233805,-2.16794043445173,-0.00166557127475503,0
0.06,0.000957845717164674,0.000538133054182273,-0.0475292207860217,-0.0269331139702472,0.000489492442427254,-0.000983591760183487,-0.0241595104740372,0.0489973214606228,-2.16795057406109,-0.00132935894157184,0
0.07,0.000975919485784164,0.000551235652407115,-0.0484653123320884,-0.027588881840442,0.000497063171339926,-0.00100459334604377,-0.0245644848566989,0.0500661460907244,-2.16795823652155,-0.00117603531560081,0
0.08,0.000950379370341756,0.000539121153498197,-0.0472849049623549,-0.0269825472300054,0.00048274877345773,-0.000980217418456475,-0.0239289890660332,0.0489011612806493,-2.16796470871335,-0.000856812853688009,0
0.09,0.00094512745848396,0.000538259574771183,-0.0470707956194115,-0.0269394448993741,0.000478885577713601,-0.000976554087632178,-0.0237759376206567,0.048745238557109,-2.16796951608947,-0.000683484212568856,0
0.1,0.000942372233456915,0.000538196914084263,-0.0469683348579976,-0.0269363043890429,0.000476638811004197,-0.000974954762317156,-0.0236927947014932,0.0486851153095591,-2.16797323656668,-0.000555430147667553,0
0.11,0.000940349414569471,0.000538191279502148,-0.0468944418335229,-0.0269360190928317,0.0004749664393009,-0.000973814025546526,-0.0236317102822608,0.048643396967958,-2.16797613016621,-0.000456393644034957,0
0.12,0.000938786063123871,0.000538189953738085,-0.0468374564011078,-0.0269359587589045,0.000473672219959517,-0.000972934903608069,-0.0235845120820766,0.0486113565562355,-2.16797838197053,-0.000379374074031332,0
0.13,0.000983264866509968,0.000562998534204456,-0.0490059409233735,-0.0281775942975419,0.000496500089056996,-0.00101846198200798,-0.0246793696792163,0.0508575243048521,-2.16798081022472,-0.000510945408639085,0
0.14,0.00101699841654281,0.000583749458966526,-0.0507872755822457,-0.0292161586567717,0.000512724447897923,-0.0010545913192427,-0.0255682892329732,0.052718060220608,-2.16798277499347,-0.000606918333703858,0
0.15,0.000941985100906657,0.000541420161536238,-0.0470418345488169,-0.0270976311423866,0.000474495265621292,-0.000977407778028715,-0.0236623104518402,0.0488601153838981,-2.16798443996361,-0.000206595382937142,0
0.16,0.000934918463797507,0.000538416369399222,-0.0467045032673593,-0.0269472809573193,0.000470340336806011,-0.000970950404685913,-0.0234678855036512,0.0485461113420117,-2.16798492989823,-0.000158564507950769,0
0.17,0.000934092075836293,0.000538203100150466,-0.0466671042603812,-0.0269366150523952,0.000469776607033633,-0.000970309498374459,-0.0234429422371986,0.0485162685064874,-2.1679852377994,-0.000145185630113281,0
0.18,0.00093387466924068,0.000538187870913989,-0.0466585045363995,-0.0269358562828298,0.000469605166967189,-0.000970174762301123,-0.0234362463279488,0.0485108107262513,-2.16798547074233,-0.000136959422910674,0
0.19,0.000933744424496583,0.00053818671568775,-0.0466536849625955,-0.0269357821396912,0.000469497939379007,-0.000970100652582034,-0.0234322938561713,0.0485080435052173,-2.16798565142379,-0.000130756385920229,0
0.2,0.000933646460995889,0.000538186575677208,-0.0466500939850927,-0.0269357767184851,0.000469416873841037,-0.000970045515902535,-0.0234293206376334,0.048506023035341,-2.16798579198582,-0.000125946934123103,0
0.21,0.000933570499998558,0.000538186520572271,-0.0466473089754544,-0.0269357770460439,0.00046935398510527,-0.000970002807242869,-0.0234270121693642,0.0485044598005395,-2.16798590137482,-0.000122205573618958,0
0.22,0.000933511419222856,0.000538186481506733,-0.0466451395815524,-0.0269357773186008,0.00046930506946648,-0.00096996959254872,-0.0234252139733364,0.0485032421250699,-2.16798598650746,-0.000119293966434112,0
0.23,0.000933465435170832,0.000538186451373482,-0.0466434473310973,-0.0269357775485091,0.000469266997051881,-0.000969943740934783,-0.0234238112761361,0.048502292279557,-2.1679860527629,-0.000117027987753498,0
0.24,0.000933429695667107,0.000538186427940343,-0.04664212901608,-0.026935777745054,0.000469237406535514,-0.000969923648685915,-0.0234227185247427,0.0485015523338611,-2.16798610432689,-0.000115264464562331,0
0.25,0.00093340187240525,0.000538186409704589,-0.0466410988744957,-0.0269357779158173,0.000469214370279964,-0.000969908006835246,-0.0234218646385904,0.0485009741448794,-2.16798614445704,-0.000113891982105926,0
0.26,0.000943225402340423,0.000543504558819035,-0.0471151161701946,-0.0272019444199937,0.000474347186315721,-0.000979829634126099,-0.0236641705006539,0.0489876207472392,-2.16798608537009,-0.000161393799390961,0
0.27,0.000915836987037094,0.000527983360494914,-0.0457951735726786,-0.0264251307988895,0.000460426721809876,-0.000951593952076249,-0.023009485534297,0.0476030359928561,-2.16798645664806,-2.25598744164895e-05,0
0.28,0.000915080009752841,0.000527295573011055,-0.0456298824887076,-0.0263907061171325,0.000460187522224275,-0.000950599542370707,-0.0228921610255384,0.047481622854268,-2.16798645475344,-1.90994278611886e-05,0
0.29,0.000931700528484152,0.00053741358682874,-0.046559468464829,-0.0268970989814908,0.00046824199816397,-0.000968312278782621,-0.0233761092269508,0.0484230890666548,-2.16798621962477,-0.000103653917678916,0
0.3,0.000923562405993856,0.000533393140422998,-0.0461577219816745,-0.0266958807206367,0.00046377421939117,-0.000960410971117875,-0.0231570970863092,0.048030763064137,-2.16798516953068,-9.83453141915023e-05,0
0.31,0.000933028191339357,0.000537846636651447,-0.04661603803829,-0.0269187774035069,0.000469097244251858,-0.000969416518234849,-0.0234107419241823,0.0484728041467191,-2.16798530220496,-0.000138244276992477,0
0.32,0.000933754759821856,0.000538162561017685,-0.0466528273434971,-0.0269345918696335,0.000469520205967427,-0.000970086423860983,-0.0234322608599673,0.0485065736711667,-2.16798550974403,-0.000135193572069745,0
0.33,0.000933715611586929,0.000538184907648556,-0.0466523285764831,-0.0269356931384221,0.000469475101662606,-0.00097008296916332,-0.0234312208583306,0.0485072078720628,-2.16798568076203,-0.000129713287260057,0
0.34,0.00093362993001264,0.000538186437994838,-0.0466492765151772,-0.026935772072031,0.000469403259416969,-0.000970036117010962,-0.0234286461658644,0.0485055600456339,-2.16798581472373,-0.00012516529544968,0
0.35,0.000933558218182131,0.000538186503499901,-0.046646655202619,-0.0269357782061185,0.000469343821480864,-0.000969995895106048,-0.0234264700419058,0.0485040935441218,-2.1679859190597,-0.000121600001585161,0
0.36,0.000933501873166487,0.000538186474612881,-0.0466445855363737,-0.0269357784697523,0.000469297166179116,-0.000969964225359797,-0.0234247545080286,0.0485029318481909,-2.16798600026746,-0.000118822923142176,0
0.37,0.000933458042797912,0.000538186446462849,-0.046642972198365,-0.0269357786926442,0.000469260876534098,-0.000969939585012833,-0.0234234172171353,0.048502026299409,-2.16798606346911,-0.000116661415587723,0
0.38,0.000933423933108689,0.000538186424151961,-0.046641712993762,-0.0269357788838835,0.000469232635416987,-0.000969920409054886,-0.0234223734635474,0.0485013195326482,-2.16798611265649,-0.000114979177558296,0
0.39,0.000933397390415369,0.000538186406759619,-0.0466407294678289,-0.0269357790504744,0.00046921065940793,-0.000969905487123888,-0.023421558216834,0.0485007675098306,-2.16798615093706,-0.000113669954345627,0
0.4,0.000933376668488127,0.000538186393221523,-0.0466399570728139,-0.0269357791981093,0.000469193502767962,-0.000969893837534354,-0.0234209179806918,0.048500333995808,-2.16798618072931,-0.000112651035888469,0
0.41,0.000933360603173749,0.000538186382684991,-0.0466393553144638,-0.0269357793305677,0.000469180201490067,-0.000969884805837353,-0.0234204191762222,0.0484999962670502,-2.16798620391536,-0.000111858050654397,0
0.42,0.00093334808852668,0.000538186374484549,-0.0466388826873021,-0.0269357794514532,0.000469169839999767,-0.000969877770274081,-0.0234200274086639,0.0484997310214674,-2.16798622196019,-0.000111240900610432,0
0.43,0.000933338367847328,0.000538186368102724,-0.0466385121083498,-0.0269357795632305,0.000469161791752913,-0.000969872305443718,-0.0234197202259044,0.0484995230584797,-2.16798623600376,-0.000110760596361705,0
0.44,0.000933330742643764,0.000538186363135893,-0.0466382169959752,-0.0269357796681819,0.000469155478519567,-0.000969868018652268,-0.0234194756027679,0.0484993574533505,-2.16798624693329,-0.000110386793958763,0
0.45,0.000933324863670024,0.000538186359270185,-0.0466379863736785,-0.0269357797674449,0.000469150611008436,-0.000969864713575856,-0.0234192844284525,0.0484992280508768,-2.16798625543917,-0.000110095877861792,0
0.46,0.000933320265264822,0.000538186356261874,-0.0466378020276986,-0.0269357798625356,0.000469146803770965,-0.000969862128414095,-0.0234191316147258,0.0484991246229242,-2.16798626205897,-0.000109869469002492,0
0.47,0.000933316656389853,0.000538186353920494,-0.0466376533231496,-0.0269357799544022,0.000469143815843635,-0.000969860099548715,-0.0234190083465875,0.0484990411998498,-2.16798626721077,-0.000109693263656604,0
0.48,0.000933313862422135,0.00053818635209861,-0.0466375346248433,-0.0269357800436092,0.000469141502594417,-0.000969858528816438,-0.0234189099480808,0.0484989746209633,-2.16798627122024,-0.000109556129782134,0
0.49,0.000933311708738686,0.000538186350680596,-0.0466374395654045,-0.0269357801307274,0.00046913971944353,-0.000969857318046355,-0.0234188311412927,0.0484989213121618,-2.16798627434074,-0.000109449403740587,0
0.5,0.000933310078924184,0.000538186349576785,-0.0466373641871297,-0.0269357802161403,0.000469138369984475,-0.000969856401793874,-0.0234187686437624,0.0484988790528721,-2.16798627676906,-0.000109366342949206,0
0.51,4.63766420694029,-0.0265671505216556,8.11784092219271,1.34716879261076,-0.796016500783459,4.56891593710175,-0.0190219615465199,8.22884215177262,0.166764485197601,51.2727343629201,935.362171669822
0.52,4.48127491050648,0.0194718652250239,9.88374826454343,-0.934639126316281,-3.062882203508,3.27123166169934,-7.46608851229362,6.54366505712996,0.75686192435858,110.094499347295,935.362171669822
0.53,4.20411068189595,-0.00130790997403363,9.34015636135076,0.108971784984005,-4.10518262588509,-0.906655361419844,-9.14446407309389,-1.90503871884506,1.78785213107369,169.671014651708,935.362171669822
0.54,3.90747494494038,0.0511780770186654,11.8857742867625,-2.49367072517164,0.259090059925728,-3.89921171286605,3.42908920550176,-11.6503807363602,-3.0621466757938,221.839380431125,935.362171669822
0.55,3.71170276253262,0.0738614698647524,9.68742624968714,-3.61427893068468,3.54357554447793,1.10691701346616,8.04141697484784,6.4996040316736,-1.24813025074595,271.471240878129,935.362171669822
0.56,3.42696137487074,0.0346437361491205,12.6748379904747,-1.64384019598613,-2.70417489512408,2.10539843969995,-11.0759549420185,6.3778484457611,0.919366487799991,318.383366950635,935.362171669822
0.57,3.21653619821217,0.0558333690641952,12.6831712947941,-2.69620175774997,0.825906829458882,-3.10919610004957,6.06183814090869,-11.4623931342895,-2.86459854312127,362.431547003103,935.362171669822
0.58,3.03003903121507,0.0306521789371051,12.0187910141991,-1.4702640235207,0.195460167681487,3.02388349802208,-0.814187734978696,12.0809814201522,-0.0544332347878319,403.878857973019,935.362171669822
0.59,2.78666164475952,0.0088682610012879,14.9826565728148,-0.349472042068829,-0.273295707238007,-2.77324200617838,-1.07403088300702,-14.9481967591227,3.04654483940712,441.815009218207,935.362171669822
0.6,2.63803694282141,0.0153916276214516,13.7493981741696,-0.709588181307868,-0.343304643829033,2.61564862613784,-2.57177707638457,13.5253624058024,0.136338753573623,478.183167354397,935.362171669822
0.61,2.41216946896008,-0.00887709659637353,16.9690378568405,0.552965525714694,1.41468560937755,-1.95379245992178,9.45218629225629,-14.1035524232726,-2.518573388219,511.36102629305,935.362171669822
0.62,2.3183887263353,0.120487728379554,13.9704416225028,-5.93765738836512,-2.23457140643282,0.629391935634323,-14.9366464115156,-2.70658610923842,1.34817165803579,543.006686393252,935.362171669822
0.63,2.09656571562886,0.0378755245432398,17.9180237477464,-1.82246817396633,1.59323004205185,1.36331962078349,12.1917598414719,13.256619374403,-0.844941524190085,572.541728219613,935.362171669822
0.64,1.99215435947542,0.00851721993846266,16.4370387990675,-0.35861606153245,0.604071321736395,-1.8983807240035,5.39226238099109,-15.531527818479,-2.82924486165346,600.190463694239,935.362171669822
0.65,1.84673465623502,0.0816952661942163,17.4326448391607,-4.01878446552177,-1.84618079095439,-0.093378231773029,-16.9742703210509,-5.64994528615334,1.66554126049579,625.964019701615,935.362171669822
0.66,1.73945995977138,0.00774006165561125,16.9232126316718,-0.301735644702309,-0.0968537208440253,1.7367786896899,-1.31864690754182,16.8744582286155,0.0601582614176291,650.041054244898,935.362171669822
0.67,1.57471327648266,0.0314837186459727,19.6577944398616,-1.47431423801549,1.55039563046371,0.277464442243637,18.9885906864358,5.29489456507609,-1.37371676838342,672.597305642444,935.362171669822
0.68,1.45454175627396,0.0170237922856206,20.5113814152183,-0.823262079119853,0.67473774479495,-1.28868557297634,10.4510654688037,-17.6683264226768,-2.64755140824997,693.844539250498,935.362171669822
0.69,1.410848290196,0.0126909480193752,17.7914681238139,-0.579869390796523,-0.841203734247178,-1.13270924583461,-10.0100188363352,-14.7197863234248,2.51180876811967,713.621257892098,935.362171669822
0.7,1.30864846886719,0.0239617050313705,18.3595588061348,-1.1009012463267,-1.30645909727404,0.079370054342624,-18.3897125620583,-0.322265410743284,1.5284270866835,732.087435031365,935.362171669822
0.71,1.17233176267231,0.085496592733726,20.8930231769092,-4.24880880936114,-0.667028893065716,0.967855301661859,-16.3898357398899,13.6361313497927,0.676228697403295,749.46461769913,935.362171669822
0.72,1.05284625958081,0.0793545931675331,22.8810107323298,-3.88279698658135,0.135515325783072,1.04709980147453,-2.65426684213598,23.0558372674413,-0.0534750392029789,765.508831606023,935.362171669822
0.73,1.0043735991093,0.038986315130641,21.5073004654893,-1.91152290120784,0.653033877534249,0.764089663683404,11.8284416814077,18.0639381227964,-0.668393886734554,780.762124979356,935.362171669822
0.74,0.921287826817844,-0.0319521717845021,22.1593576003395,1.60175909375353,0.83808356537035,0.383937675385752,21.069996271115,7.04684458387916,-1.17588363415965,794.898720186728,935.362171669822
0.75,0.884476053621701,0.0731199055209986,20.6833287498498,-3.58058890546314,-0.427005443420918,0.778017198590445,-14.3978495078053,15.2749021153943,0.584433422957898,808.053855555873,935.362171669822
0.76,0.814096100341934,0.0495082721904304,21.0771517580127,-2.44107912649248,-0.170163649994877,0.797651466385944,-7.99264998935089,19.6550944968429,0.270919182955386,820.47208464242,935.362171669822
0.77,0.713993506895257,-0.0204879426655237,23.1706923172942,1.02235411434557,-0.0526880093309931,0.712341531399083,-0.0243292578817746,23.1932231154932,0.0451431076690771,832.088207804356,935.362171669822
0.78,0.647302594317925,0.0292922963671282,23.7861999562115,-1.47860669416191,0.093132124857411,0.641237159369854,0.879805447688094,23.8158671579918,-0.0990076875902584,842.82421545379,935.362171669822
0.79,0.577997142167248,0.0525427308707557,24.6672413656725,-2.55963767690525,0.147576328946872,0.561304429035998,1.56248248398283,24.7504179786246,-0.166442503512265,852.916017372427,935.362171669822
0.8,0.55926002352252,0.0610966298841955,23.2025844908172,-2.99466822361278,0.150840175347215,0.541988757812224,0.801570668726742,23.3813055513601,-0.1626256874811,862.276824212564,935.362171669822
0.81,0.490745384662932,0.0333567924718071,24.3423663180907,-1.62266360406547,0.0782920028200451,0.485606909409661,0.620104795522405,24.3885076455827,-0.0919822160561575,871.14478986775,935.362171669822
0.82,0.50511124885935,0.0319948866689446,21.5015445781814,-1.56533382010935,0.0111623201783176,0.506000443779892,-2.44964895965102,21.4188213772462,0.0412014212071751,879.366661250115,935.362171669822
0.83,0.486390768482469,0.0472871122826188,20.4499898936555,-2.34007548161958,-0.0660609645201095,0.484198306089218,-6.98925287091511,19.3604851234853,0.232512331373186,886.989178427154,935.362171669822
0.84,0.452027894948385,0.0244136087395087,20.3043709469831,-1.20133687486065,-0.186140168254478,0.412646434451273,-10.4018141019065,17.4789288352854,0.477715623319201,894.121762139626,935.362171669822
0.85,0.428399518567902,-0.000514333406867407,19.7406319257764,0.0451698779687876,-0.299605714741758,0.306207164746588,-13.7565346087003,14.158119391589,0.77330115579543,900.736518361196,935.362171669822
0.86,0.305183341064025,0.00364464246774265,24.2627339497524,-0.166634711044807,-0.27253141944138,0.137392796386802,-21.8674062534132,10.5130666121535,1.11578759792188,906.91548693539,935.362171669822
0.87,0.291861802604915,-0.0311819573057677,23.4042562841905,1.58348222680085,-0.293317910397192,-0.0109649314377191,-23.2391694787598,3.19493820224164,1.50172698776701,912.577713221029,935.362171669822
0.88,0.299052162149451,0.0875638712163214,21.6110516602336,-4.34904864720299,-0.31079466697362,-0.0225011601791309,-18.7272820324334,-11.6293028885965,1.92791160265737,917.942740539596,935.362171669822
0.89,0.246301070399586,0.010662354060715,22.8847308240085,-0.491552168829808,-0.175585151153413,-0.173054204712081,-15.2291139255851,-17.0887863075046,2.39219803055422,922.939594419376,935.362171669822
0.9,0.260502762318307,-0.0183016839388083,20.9149025460743,0.968601482863984,0.238731524740265,0.105848476161221,19.9965117137031,6.20571161335481,-1.22360228188363,927.532416836273,935.362171669822
0.91,0.187988593004825,-0.00485033011793451,23.3568340359426,0.292562361978818,0.116169871555455,0.147877644507125,15.1231010890763,17.8022218379558,-0.691682308219517,931.815525580986,935.362171669822
0.92,0.147231394073297,-0.0401137702041248,24.2583907957356,1.96406700602286,-0.0208117592188789,0.151172314393116,5.07289417194791,23.8032104541172,-0.12918846271982,935.84860860069,935.362171669822
0.93,0.134901282282428,-0.0492242864247723,23.8639644258804,2.4144396895661,-0.104093456677869,0.0989239031393523,-8.45284199695012,22.4469993386384,0.460977451130267,939.414663144869,935.362171669822
0.94,0.16223092169577,-0.0730814495237638,21.5370180098906,3.62571124019269,-0.177483247890532,0.0126280218950348,-17.2392050426206,13.4089051101907,1.07651422632345,942.792214636701,935.362171669822
0.95,0.112196525774996,0.0461487384254319,23.1420100640614,-2.31742609615651,-0.117689338432243,0.0294446272453784,-22.5639087774306,-5.63853830350181,1.71586662571672,945.90443012593,935.362171669822
0.96,0.0977427745301954,-0.00769834078451067,23.0008777828734,0.408200612142669,-0.0620738490144454,-0.0758930279553195,-16.209837215026,-16.323240609168,2.37742557602886,948.853064453838,935.362171669822
0.97,0.0348106339352398,0.0403374629345327,25.3483703835551,-1.97950796652109,-0.0430510461053867,-0.0313926516911193,-0.10163784730142,-25.4253417408579,3.05966122054924,951.510077616303,935.362171669822
