t,iq,id,vq,vd,ia,ib,va,vb,theta_e,omega,r
0,0,0,0,0,0,0,0,0,0,0,0
0.01,0.000978278613183698,0.000550385311285647,-0.0474582789379769,-0.027561880734676,-0.000795413830193379,-0.000792003708721567,0.0394163196236632,0.0381876846209946,2.86651617038544,-0.00387319290043089,0
0.02,0.00107992452856057,0.000609233224243353,-0.0527162536030617,-0.0305088386064336,-0.000879682715119676,-0.000873819449101698,0.043681837996777,0.0424463149905744,2.866488391525,-0.0039002824598,0
0.03,0.00111362136517802,0.000629119540599327,-0.054456863729151,-0.0315047062050775,-0.000907998919335756,-0.000900822903699703,0.0451142591727216,0.0438497450343793,2.86646172583802,-0.00365037831902318,0
0.04,0.00109070415656206,0.000617830418794848,-0.0534794027901197,-0.0309393737246189,-0.000890928648667371,-0.000881814111087879,0.0443056281656243,0.0430616149500798,2.86643876359466,-0.00321085533453286,0
0.05,0.00110960870149841,0.000629263187447213,-0.0544888980954963,-0.0315118741621141,-0.000907086937503421,-0.000896881774442919,0.0451318126687959,0.0438766192191127,2.86641723259092,-0.00297320349165359,0
0.06,0.00110815014079595,0.000629467398462478,-0.054516764244786,-0.031522118352078,-0.000906904529490524,-0.000895405000356137,0.0451500951166061,0.0438997772213642,2.86639782500058,-0.00267908637176424,0
0.07,0.00113808575378315,0.000647221109750121,-0.0560301622733479,-0.0324111863680545,-0.000932140507499214,-0.00091937392944843,0.0464177253091017,0.0451138433664351,2.86638068144305,-0.00255414981481868,0
0.08,0.00110560285347615,0.000629787341175805,-0.0545604747357014,-0.0315381296879155,-0.000906549640416568,-0.000892836779137423,0.0451788280230612,0.0439360048941589,2.86636490506317,-0.00217987403953177,0
0.09,0.00110361379183732,0.000629461484422974,-0.0545352983119567,-0.0315218135225063,-0.000905707856243426,-0.000890998563996855,0.0451568934385702,0.0439155833924518,2.86635102412669,-0.00196542581597578,0
0.1,0.00110239185655973,0.000629451346398307,-0.0545393056997517,-0.031521307193774,-0.000905377043849084,-0.000889814144281233,0.0451580402486584,0.043919017228483,2.86633861603625,-0.0017761340843875,0
0.11,0.00110131071635836,0.000629447461215021,-0.0545434373026068,-0.0315211210533605,-0.000905089321719211,-0.000888764715830718,0.0451594713991212,0.0439225428247952,2.86632752043884,-0.00160691454298694,0
0.12,0.0011003443616555,0.000629444080938191,-0.0545471505161637,-0.0315209377859607,-0.000904832220542103,-0.000887826682367691,0.0451607401244817,0.0439257179764708,2.86631759841856,-0.00145559429761222,0
0.13,0.00115309682437278,0.000659515819405887,-0.0571115803874417,-0.0330268645144711,-0.000948119606435923,-0.000930409917357398,0.0473074611005604,0.0459838071306347,2.86630781733603,-0.00153840162000138,0
0.14,0.00122321434363438,0.000700750515104608,-0.0607923344346719,-0.0350917790993138,-0.0010068696092252,-0.000986670261491119,0.0502955536915512,0.0489642539535968,2.86629923778901,-0.00171403483217618,0
0.15,0.00110035690842672,0.000630749174688623,-0.0546792430975695,-0.0315862953902288,-0.000906114844466827,-0.000887460272874029,0.0452606952600802,0.0440338863464951,2.86629139367389,-0.00106702709573689,0
0.16,0.00109724820825863,0.000629457277553103,-0.0545617131596382,-0.0315216014421046,-0.000904031951364493,-0.000884814288821923,0.0451667573886191,0.0439380919861929,2.86628527396907,-0.000962842841737719,0
0.17,0.00109666505254484,0.000629431651031213,-0.0545612653784839,-0.0315203322064741,-0.000903853585992172,-0.000884255130537645,0.0451656538620246,0.0439377597667839,2.86627981995522,-0.000879440585311799,0
0.18,0.00109618918498255,0.000629429549444657,-0.0545630362387732,-0.0315202063940994,-0.000903726509969184,-0.000883793348111271,0.0451662284746881,0.0439392778740454,2.86627494318869,-0.000805060641401053,0
0.19,0.00109576405538196,0.000629428053387197,-0.0545646353519201,-0.0315201559873918,-0.000903613350010596,-0.0008833806954765,0.0451668063127093,0.0439406334964316,2.86627058224323,-0.000738551957117341,0
0.2,0.00109538439553426,0.000629426722399409,-0.054566088019094,-0.0315200764033821,-0.000903512299485441,-0.000883012172922293,0.0451672960036589,0.0439418769501306,2.86626668255286,-0.000679077944577411,0
0.21,0.00109504459835684,0.00062942553213204,-0.0545673698568849,-0.0315200228076702,-0.000903421854682504,-0.000882682346811252,0.0451677461469525,0.0439429675704609,2.86626319533077,-0.000625894467239329,0
0.22,0.00109474077351775,0.000629424467610992,-0.0545685152195005,-0.0315199719979103,-0.000903340982843206,-0.000882387437776339,0.0451681456679009,0.0439439427558929,2.86626007695082,-0.000578336177036294,0
0.23,0.0010944691957166,0.000629423515563671,-0.054569542522663,-0.031519918164958,-0.000903268693462693,-0.000882123829021341,0.0451684956949352,0.0439448200464514,2.86625728840025,-0.000535808101050856,0
0.24,0.00109422648891928,0.000629422664118233,-0.0545704660249478,-0.0315198671397605,-0.000903204088552319,-0.000881888243248929,0.0451688072471338,0.0439456100032689,2.86625479479352,-0.000497778196332955,0
0.25,0.00109400909288014,0.000629421902652828,-0.0545712713134158,-0.0315198421057163,-0.000903146217872424,-0.000881677228914453,0.0451691000856387,0.0439462910446977,2.86625256493448,-0.000463770693807709,0
0.26,0.00110470163569304,0.000635443873219043,-0.055090796485434,-0.0318214141038341,-0.000911850104609737,-0.000890328033164018,0.0456006439278009,0.0443641693975793,2.86625063291458,-0.000481305008846771,0
0.27,0.00106397551461182,0.000612518861654479,-0.0531593349921398,-0.0306733707200237,-0.000878717959392324,-0.000857366898951304,0.043970816015286,0.0428174953387563,2.86624854314518,-0.00027439728490927,0
0.28,0.00105476625674971,0.000606876863321108,-0.0524567722313635,-0.0303908354885553,-0.000870786097078971,-0.000850037032573425,0.0435079818603792,0.0422181400474072,2.86624688784344,-0.000210069412874678,0
0.29,0.00109255187373059,0.000629004198622619,-0.054535768911349,-0.0314989105133451,-0.000902354042514648,-0.000880382337757056,0.0451396028132186,0.0439175103135942,2.86624577783453,-0.000356821391045732,0
0.3,0.00108879520476166,0.000627054807604183,-0.0543568381233211,-0.0314012893873694,-0.000899456750198064,-0.000877297147022969,0.0449970127906285,0.04377185929195,2.8662457402057,-0.000340037079373103,0
0.31,0.00109312979359356,0.000629375574599474,-0.0545697185909058,-0.0315175277167285,-0.000902869678745799,-0.000880836365476457,0.0451668050825736,0.043945061828358,2.86624450138635,-0.000340389013691996,0
0.32,0.00109311054036462,0.000629417955948252,-0.0545745030772113,-0.0315196437595257,-0.000902906233515102,-0.000880805285069226,0.04517019235227,0.0439490392581099,2.8662433609457,-0.000323392218184707,0
0.33,0.00109301305218,0.000629418395415677,-0.0545749545939224,-0.0315196589750867,-0.000902881049794566,-0.000880710428373224,0.0451703746043296,0.0439494235336368,2.86624234045716,-0.000307836910735363,0
0.34,0.00109292441148432,0.000629418098152442,-0.054575286565497,-0.0315196334106971,-0.00090285746736406,-0.00088062438367623,0.0451704803677485,0.043949708729384,2.86624142789147,-0.000293919548327599,0
0.35,0.00109284478340454,0.000629417819602038,-0.0545755628695947,-0.0315196338623881,-0.00090283626819591,-0.000880547094184736,0.0451705917904528,0.0439499376410521,2.86624061184735,-0.000281474066886303,0
0.36,0.00109277372141668,0.000629417570271159,-0.0545758146522145,-0.0315196053112011,-0.000902817350029466,-0.000880478118110088,0.0451706648427236,0.0439501547391258,2.86623988211597,-0.00027034493413371,0
0.37,0.00109271004223593,0.000629417347300973,-0.054576030656772,-0.0315196056899872,-0.000902800396467131,-0.000880416309268197,0.0451707526156533,0.0439503330275965,2.86623922956815,-0.000260392923627173,0
0.38,0.0010926531151438,0.000629417147909162,-0.0545762221513123,-0.0315196060371293,-0.000902785240561786,-0.00088036105407915,0.0451708306609406,0.0439504908555736,2.86623864604051,-0.000251493531850512,0
0.39,0.00109260242584237,0.000629416969602811,-0.0545764017232235,-0.0315195803066812,-0.000902771746532785,-0.000880311851699591,0.0451708776569849,0.0439506470880885,2.86623812423218,-0.000243535423897247,0
0.4,0.00109255690745174,0.00062941681015253,-0.0545765502840367,-0.0315195806013356,-0.000902759627926668,-0.000880267670148575,0.0451709388406188,0.0439507688948345,2.86623765761569,-0.000236419040689292,0
0.41,0.0010925162785046,0.000629416667564547,-0.0545766843842203,-0.0315195808729444,-0.000902748811449868,-0.000880228233829983,0.0451709939013625,0.0439508790212886,2.86623724035317,-0.000230055353458758,0
0.42,0.00109247984050903,0.000629416540055812,-0.0545767964917222,-0.0315195811248047,-0.000902739110080328,-0.00088019286633433,0.0451710410238943,0.0439509699824665,2.86623686722461,-0.000224364749962095,0
0.43,0.00109244754482813,0.000629416426032035,-0.0545769086743838,-0.0315195553123054,-0.000902730513177793,-0.000880161517073831,0.0451710613498929,0.0439510698852909,2.86623653356195,-0.000219276038499223,0
0.44,0.0010924184409978,0.000629416324067271,-0.054576995282235,-0.0315195555303058,-0.000902722764630132,-0.000880133268007153,0.0451710982212144,0.0439511396934657,2.86623623519079,-0.000214725557277125,0
0.45,0.00109239236396583,0.000629416232886228,-0.0545770676631418,-0.031519555733986,-0.000902715821624844,-0.000880107957275543,0.0451711298235822,0.0439511972400763,2.86623596837853,-0.000210656377977158,0
0.46,0.00109236908090157,0.000629416151348859,-0.0545771316870503,-0.0315195559244445,-0.000902709622703005,-0.000880085358114739,0.0451711579007359,0.043951248022856,2.86623572978701,-0.000207017593555944,0
0.47,0.00109234824255905,0.000629416078434751,-0.05457718553318,-0.0315195561033233,-0.00090270407455647,-0.00088006513201761,0.0451711820903721,0.0439512901543532,2.86623551643155,-0.000203763681382857,0
0.48,0.00109232961610764,0.00062941601323231,-0.0545772315985179,-0.0315195562717297,-0.000902699115355719,-0.000880047052762023,0.0451712031625901,0.0439513258203777,2.86623532564275,-0.000200853933729536,0
0.49,0.00109231326932552,0.000629415954925899,-0.0545772857763923,-0.0315195303875169,-0.000902694764846737,-0.000880031183639637,0.0451712004824364,0.0439513772883528,2.86623515503412,-0.000198251948500665,0
0.5,0.00109229836816439,0.00062941590278652,-0.0545773175496424,-0.0315195305386268,-0.000902690797438497,-0.000880016720292865,0.0451712159720884,0.043951400932085,2.86623500247075,-0.000195925173833817,0
0.51,4.66965386450218,-0.00390283548102149,6.51874160005511,0.21123023856708,-1.08036086759382,4.54296190190462,-1.29732016436159,6.39183625049289,0.232637253224344,71.4677946923184,3978.33913720296
0.52,4.61025049164147,0.0323815584897915,9.49055583755131,-1.58545285197629,-3.99533196349363,2.30060441243095,-9.03903844826309,3.29849886802171,1.05536739216536,153.8284353932,3978.33913720296
0.53,4.58833549875674,-0.0505139667422152,10.5882192589576,2.57484153275848,-2.66921891204144,-3.73237788944094,-8.33141666814088,-7.02336758944048,2.5097607637682,242.584899671766,3978.33913720296
0.54,4.51507352543772,0.080816484817113,14.2533176088658,-3.97226184434129,4.46836569846106,-0.652784979256886,14.642004223811,2.13251947918773,-1.69796310082274,324.144212431197,3978.33913720296
0.55,4.50484551655758,0.0189250677538371,14.7668856248548,-0.857750013667161,-3.77164465180125,2.46347070345427,-12.8631932433977,7.30307508700938,0.996407000913179,408.592493888943,3978.33913720296
0.56,4.46966262965541,0.0760800161021623,16.5283581859719,-3.70315493154576,4.07178647773239,-1.84505476112334,16.6395880230977,-3.16608452072896,-1.97923158750248,492.52866328384,3978.33913720296
0.57,4.40895105650524,0.0410034026615168,19.566377203304,-1.92418103366758,-4.12479510611193,-1.55775352038875,-17.5429330338897,-8.87643453649947,1.94119325571604,575.988637593438,3978.33913720296
0.58,4.45402767745042,-0.0187845833581741,17.3151676432681,1.0557135115701,-0.862129003784888,4.36983397772721,-2.24324813510183,17.2016685044606,0.190572007339921,660.515566531996,3978.33913720296
0.59,4.47031702649784,0.0838624758072268,16.5033622334155,-4.03693027437425,3.68397995180951,2.53358618304383,11.0706538149396,12.8879166337018,-0.949594679063288,742.605898151483,3978.33913720296
0.6,4.39027904241293,0.0134664405966742,20.5080853226514,-0.519859549857131,4.37411952675462,0.376576394555596,20.3808330750866,2.33954284384479,-1.48184883289044,826.187077760569,3978.33913720296
0.61,4.39752674351963,0.0707898131762563,20.1486863328491,-3.38395815056234,4.35084502681388,0.642962059742856,19.3337025667935,6.60520088741123,-1.40798328875068,908.915778297728,3978.33913720296
0.62,4.33654408127098,0.119278548751137,23.2008924922298,-5.79460678469561,2.97813633112069,3.15444859432795,11.1361527825157,21.1623482021659,-0.729157502177822,991.181198779457,3978.33913720296
0.63,4.39169478924497,0.120718722104078,20.4465704886775,-5.82217297771506,-2.20209360986001,3.80162331973613,-15.6866863138642,14.348791427201,0.552504089990024,1072.8314198145,3978.33913720296
0.64,4.31123698426087,0.121135431743086,24.4727874151472,-5.8752302699934,-2.88973284582196,-3.20169989334729,-11.410100382119,-22.4331287131867,2.43545406579492,1155.15898205751,3978.33913720296
0.65,4.29023510231722,0.157173304082244,25.5262391698125,-7.61588786033576,4.23099223953438,0.727684924724153,23.4167896796826,12.6982122817816,-1.36385474133299,1236.62306518316,3978.33913720296
0.66,4.25982064346556,0.155197946438997,27.050436004821,-7.53032937953972,-4.23583835600017,-0.477317230897889,-25.637097334576,-11.4529991213111,1.71942525927337,1318.62272705702,3978.33913720296
0.67,4.25756212403321,0.201031960178373,27.166878360432,-9.81618703205016,3.41572768216595,2.54952024708582,14.7442462400287,24.839565425186,-0.882416655486432,1400.25831532576,3978.33913720296
0.68,4.30392070766955,0.152001919450381,24.8525972129754,-7.3212696012464,0.935811383491509,-4.2037001672278,13.3389693516127,-22.2109088837279,-2.88724597700041,1481.39128592169,3978.33913720296
0.69,4.22682745861214,0.196289520745616,28.710956451234,-9.49838397538645,-3.94521486629447,-1.52966649947015,-22.4181021715819,-20.296970550135,1.98708363528839,1562.52749428235,3978.33913720296
0.7,4.18792807528625,0.200451734254895,30.659713792071,-9.75618462550438,-3.78401242537662,1.80559475689644,-32.046317722907,2.86961820825214,1.17341146380656,1643.95775658221,3978.33913720296
0.71,4.1235468363036,0.127726343173995,33.8827256161395,-6.13016852234961,-3.28738189962149,2.4926036138887,-31.1707448551258,14.6288320267768,0.953011440408997,1724.70694331373,3978.33913720296
0.72,4.19736129492169,0.251856355972509,30.1959456257852,-12.2343576697283,4.20287162589994,-0.130933419552273,29.8312749280682,13.0984608253116,-1.54200793818961,1805.25244807701,3978.33913720296
0.73,4.20155342150082,0.196007434827828,29.9904346073582,-9.4221127561193,2.46391595172163,3.40889839260203,8.53124977548762,30.2559110587584,-0.579240369131486,1885.8166574812,3978.33913720296
0.74,4.08847910426396,0.17914710930462,35.6483466370553,-8.67466914191881,-3.27995328637388,2.44737849789942,-34.3554574248365,12.8746669008427,0.973545208489291,1966.43969091499,3978.33913720296
0.75,4.12330880969999,0.193186784134483,33.9111002729862,-9.3043158853879,-0.303819420923256,-4.11663581498092,8.39051936627368,-34.1486778746087,3.11474150477365,2046.50400832128,3978.33913720296
0.76,4.1095038857824,0.164574147275645,34.6056981861169,-7.91907478432475,1.89818907331889,3.64855931555798,7.56458813430334,34.6849116871688,-0.43969587043652,2126.67429962765,3978.33913720296
0.77,4.06699887889579,0.290319217242443,36.7353386644018,-14.0961120083054,-1.34885797272232,-3.84777173156923,3.94724172670314,-39.1484963094364,2.87568620176872,2206.37562857885,3978.33913720296
0.78,4.06752890426878,0.250041419618679,36.7132769142485,-12.0766091920305,-1.70725026838233,3.70035249938372,-28.0316001293272,26.6071153180654,0.493668344874626,2286.27197878248,3978.33913720296
0.79,4.09593032573186,0.215457895265958,35.2976645778933,-10.3154864622517,4.00687711907362,0.876357855288934,31.308415714993,19.2903470944289,-1.302919041506,2366.0972666653,3978.33913720296
0.8,3.95082360852706,0.243139500973725,42.5574962458921,-11.8027982529838,2.12070766568339,-3.34226315530962,34.5235967364146,-27.5421096087642,-2.51471817743246,2446.01217462944,3978.33913720296
0.81,4.10262874546712,0.219399784085293,34.9717661780325,-10.5550510561937,-0.898356425329504,4.00907154107519,-19.6200062900459,30.8137775287029,0.273866435403086,2525.56150252643,3978.33913720296
0.82,3.91422558047862,0.137775216035641,44.3964505953653,-6.5301690935626,-0.751243211657832,3.84392735909055,-16.4039288174144,41.7683977812225,0.228187691468496,2604.95606979835,3978.33913720296
0.83,4.01394143799757,0.317243133423593,39.4151130726911,-15.3579011570627,-2.54771722304371,3.11793297310652,-38.3568652716267,17.8372406222883,0.763962933450471,2684.03156354696,3978.33913720296
0.84,3.9810362817206,0.229514342037901,41.0648150394275,-10.960464940337,-3.86183031392852,-0.993777307046011,-35.776289091818,-22.9457613678303,1.88025302825624,2763.14424617359,3978.33913720296
0.85,3.92867884775675,0.286923802166028,43.6870447084597,-13.818232638735,1.39342817463851,-3.68445391872178,30.9235747864484,-33.8117427980885,-2.70712341099103,2842.22600558124,3978.33913720296
0.86,3.8501234177983,0.201477129253163,47.6191016708543,-9.68929402366017,1.79696482830323,3.41100582991764,11.166091720653,47.2946049597844,-0.432585449617524,2921.27334024286,3978.33913720296
0.87,3.90592624415504,0.296083169453321,44.8331418551742,-14.2923129694885,-2.8039325381363,-2.73530389346287,-18.9089902378587,-43.0898004962723,2.41946445336808,2999.80501346704,3978.33913720296
0.88,3.846031702339,0.302786829539309,47.8319773726535,-14.7309145946724,-0.910822964171623,-3.74887199667803,6.93335374995151,-49.5663848787825,2.98181654793228,3078.60610432929,3978.33913720296
0.89,3.78052910412766,0.217776585905671,48,-10.4849600561845,-2.2783467669173,3.02472526987204,-39.0348663000195,29.8364475150676,0.703113256352548,3157.01601398476,3978.33913720296
0.9,3.74600435462822,0.348685373409072,48,-17.0205210375579,3.34296725917724,1.72589107958527,31.2506687922105,40.2131052821032,-1.00139898974702,3235.24011635155,3978.33913720296
0.91,3.767148965209,0.191119686888945,48,-9.13252665956386,3.08716702218425,-2.16733427000309,45.4942629757466,-17.8234418528313,-2.13220456126992,3313.48392235254,3978.33913720296
0.92,3.40995750682298,0.310680952185749,46.2649299705576,-15.0820537068825,1.17029972642417,-3.21787684704075,33.3400449692199,-35.4450771003292,-2.7019179313084,3386.8578455142,3978.33913720296
0.93,2.86352418950852,0.348966230939726,48,-16.9873141692535,0.725442674356086,-2.79200306956489,33.4061889654633,-38.4264932239293,-2.76611697967728,3451.44207469027,3978.33913720296
0.94,2.50423623187562,0.220802318845007,48,-10.689185769747,-2.0360687359277,1.47457684493678,-46.6834015588291,15.4569955462655,1.03193880397383,3508.5425075156,3978.33913720296
0.95,2.10116857036978,0.184104326336004,48,-9.0085119255704,-2.08621871179757,-0.310636846866386,-44.5789272595909,-19.9467423780739,1.80600655148338,3558.84780906436,3978.33913720296
0.96,1.76164979400171,0.117205617954869,48,-5.72756298554285,-0.491187271682832,-1.69584262764067,-4.66872039321657,-48.1145303171851,2.92609930780353,3603.1283987802,3978.33913720296
0.97,1.51606393426337,0.159407632566813,48,-7.74050162786398,1.3617320509388,-0.685234607664197,47.6357625505514,-9.73393505620672,-1.9322463411056,3642.09175371875,3978.33913720296
0.98,1.26652889690767,0.0935381878898872,48,-4.4491407847479,0.390713499370339,1.20838230734551,7.04070742823265,47.6888172702211,-0.239005999113782,3676.46354480865,3978.33913720296
0.99,1.04580475864132,0.155539797104931,48,-7.71458238362227,1.02491419175329,0.259713536849695,41.3141647542586,25.6252721353681,-1.174974879832,3706.83927022039,3978.33913720296
