t,iq,id,vq,vd,ia,ib,va,vb,theta_e,omega,r
0,0,0,0,0,0,0,0,0,0,0,0
0.01,0.000741193742381919,0.0004227248567753,-0.0361727042842584,-0.021163246602823,0.000845024554666023,0.000118313018274838,-0.0415656213316109,-0.00535225796514281,-0.913371870484912,-0.00181002683729523,0
0.02,0.000821064829942424,0.000468282476705103,-0.0402001569304436,-0.0234440368975871,0.000936089137495842,0.000131046020999253,-0.0461474537330707,-0.0060073286277523,-0.913385381493001,-0.00193448616608061,0
0.03,0.000851854519613768,0.000485887605237196,-0.0417211983776632,-0.0243254002346035,0.000971221381853716,0.000135911423139111,-0.0478901355676299,-0.00623846182612369,-0.913399201943853,-0.00193341861805225,0
0.04,0.000833648295276019,0.00047579595095871,-0.0408724657502365,-0.0238201868307893,0.000950644723178606,0.000132762485130356,-0.0469096552574247,-0.00611915033215659,-0.913412115075737,-0.00181397095255309,0
0.05,0.000851621273806526,0.000486147819758311,-0.04177167897796,-0.0243384319923078,0.000971199237402574,0.000135537957503676,-0.0479382192624338,-0.00625776081587995,-0.913424898854391,-0.00178648870444411,0
0.06,0.000851949276835131,0.000486511594713084,-0.0418172011817789,-0.0243566501025662,0.000971682838168728,0.000135438414412365,-0.0479854640996226,-0.00627056249789795,-0.91343724940119,-0.00171698040263268,0
0.07,0.000874834931932608,0.000499789284497402,-0.0429512263134988,-0.025021381029229,0.000997913994778734,0.000138899769807961,-0.0492894131467866,-0.00643669962703198,-0.913448969527031,-0.00170794389035531,0
0.08,0.000852176234547197,0.000486989388608329,-0.0418838791782052,-0.0243805639670967,0.000972157581772846,0.000135176312813029,-0.0480530049964563,-0.00629125942707285,-0.913460448783887,-0.00158543379819058,0
0.09,0.000851044428966675,0.000486533617609862,-0.0418553419923114,-0.0243577559022015,0.000970984606025891,0.000134834995459261,-0.0480165468509734,-0.00629135552904536,-0.913471336206185,-0.00152057660825464,0
0.1,0.000850719393705324,0.000486515095441183,-0.0418646960060929,-0.0243568315718766,0.000970717386151826,0.000134640934121328,-0.0480234526964129,-0.00629730156644292,-0.913481768730488,-0.00146034459754591,0
0.11,0.000850435919181856,0.000486512155932595,-0.0418750199509452,-0.0243566828296425,0.000970492526264264,0.0001344603546406,-0.0480315976596739,-0.00630324683120276,-0.913491769334513,-0.00140267700134662,0
0.12,0.000850165250354355,0.000486509862447183,-0.041884967566021,-0.0243565603352353,0.000970278139591874,0.000134287493827951,-0.0480394582515043,-0.00630896110881689,-0.913501356046727,-0.00134739868521515,0
0.13,0.00089067166168584,0.000509755191441586,-0.043865311999239,-0.0255203057266074,0.00101654867506373,0.000140624163492739,-0.0503182792127349,-0.00659714925095285,-0.913510925955194,-0.00139503976042371,0
0.14,0.000934182491862654,0.000535092209200806,-0.0461346028217756,-0.0267887817935069,0.00106647569056792,0.000147140075702684,-0.0528898364534614,-0.00697894027981443,-0.913520077456264,-0.00145264065181963,0
0.15,0.0008525074244695,0.000488223941984971,-0.0420643860505243,-0.0244423816728657,0.000973183286093265,0.000134334723626021,-0.0482341045498152,-0.00634931129549341,-0.913528934562912,-0.00119624669331071,0
0.16,0.000849274141025268,0.000486562339552868,-0.0419275138869828,-0.0243591900189632,0.000969609522119416,0.000133666942438006,-0.0480749723272574,-0.00633116062476091,-0.913536999462657,-0.00114216432726872,0
0.17,0.000848945494972935,0.000486501733544782,-0.0419301607021386,-0.0243561460364017,0.000969313345906712,0.000133506657601991,-0.0480752568881033,-0.00633481660323114,-0.913544714875686,-0.00109739649133144,0
0.18,0.000848732510875716,0.000486497897015178,-0.041937627113779,-0.024355962417359,0.000969143374347388,0.000133372406352091,-0.0480811025564677,-0.00633916793945507,-0.913552110397675,-0.00105474262850756,0
0.19,0.000848532157940036,0.000486496140664133,-0.041944967912441,-0.0243558777508962,0.000968984630797527,0.000133244524156342,-0.0480869073577146,-0.00634337882858014,-0.913559199826566,-0.00101386368412242,0
0.2,0.000848340245116819,0.000486494524884759,-0.0419520111480875,-0.024355797463898,0.000968832614235128,0.000133121973475604,-0.0480924774573304,-0.00634741849005147,-0.913565995850758,-0.000974676915216787,0
0.21,0.00084815636494775,0.000486492978233227,-0.0419587664476247,-0.0243557171896676,0.00096868696025835,0.000133004549911096,-0.0480978178789396,-0.00635129568779043,-0.913572510613998,-0.000937111946539918,0
0.22,0.000847980109979203,0.000486491495536113,-0.0419652419851896,-0.0243556369270946,0.000968547344868421,0.000132891997116593,-0.0481029351605503,-0.00635501486543258,-0.913578755756292,-0.000901101645513689,0
0.23,0.000847810956886188,0.000486490074075669,-0.0419714388702546,-0.0243555768883031,0.000968413353748396,0.000132783986505179,-0.0481078425930962,-0.00635856017030926,-0.913584742436581,-0.000866581670094766,0
0.24,0.000847649020994993,0.000486488711325696,-0.0419773891921754,-0.0243554951867806,0.000968285078239131,0.000132680579967633,-0.0481125400549821,-0.00636198386058925,-0.91359048135144,-0.000833490341547553,0
0.25,0.000847493721321222,0.000486487404865162,-0.0419830889535886,-0.0243554351543851,0.000968162058404469,0.000132581414373793,-0.0481170509134507,-0.00636524870187963,-0.913595982754944,-0.000801768533790835,0
0.26,0.000855994699178923,0.000491405486532734,-0.0424064282841147,-0.0246016543385566,0.000977897500347339,0.000133875897873045,-0.0486026606498661,-0.00642868056163462,-0.913601212520881,-0.00079342173239282,0
0.27,0.000827125012011374,0.000474933934453134,-0.0410238843103519,-0.0237770283589901,0.000944979339417511,0.000129275193536863,-0.0470043580100302,-0.00623670502415072,-0.913606425522118,-0.000690935435926507,0
0.28,0.00082352930130865,0.000472846247982001,-0.040726400356962,-0.0236725068996202,0.000940857841907621,0.000128726864583521,-0.0467050146521346,-0.0061374974779639,-0.913611288779867,-0.000654172549670949,0
0.29,0.000846065438651307,0.000485999744539837,-0.0419616405178089,-0.0243310157661606,0.000966735984278748,0.000132075792155926,-0.0480852784884914,-0.00637052555470937,-0.9136158060306,-0.000685274501994597,0
0.3,0.000841716978976666,0.000483649522652663,-0.041760834532769,-0.0242133606926286,0.000961858020984917,0.00013127635326567,-0.0478544474761597,-0.0063408196359869,-0.913619687673937,-0.000652203911572622,0
0.31,0.000846515292595597,0.000486380460904441,-0.0420029344285197,-0.0243500929440627,0.000967325792186287,0.000132041300807728,-0.0481296775973552,-0.00638025558780097,-0.913623953642298,-0.000640009363707608,0
0.32,0.000846580839914751,0.000486476231058338,-0.0420159731503108,-0.024354876275764,0.000967436734830015,0.000132001537858198,-0.0481429489667643,-0.00638423550309184,-0.913628068772377,-0.000616738841108414,0
0.33,0.000846476065283121,0.000486478719691394,-0.0420203738858381,-0.0243550066358215,0.000967355822937919,0.000131931746133647,-0.0481465379747568,-0.00638663062826035,-0.913632014542194,-0.000594003916055039,0
0.34,0.000846369427758617,0.000486477942220687,-0.0420242920062604,-0.0243549725862823,0.000967271418904761,0.000131863560856265,-0.0481496434253611,-0.00638886893875472,-0.913635797047147,-0.00057219412126212,0
0.35,0.000846267329871923,0.000486477084864296,-0.042028053726312,-0.0243549125331669,0.000967190539115808,0.000131798363993983,-0.0481526081811394,-0.00639103981161483,-0.913639423009929,-0.000551286366311591,0
0.36,0.000846169190655134,0.000486476258979998,-0.0420316454719385,-0.0243548726521535,0.000967112792538312,0.000131735706146382,-0.0481554497417593,-0.00639309808701858,-0.913642898908365,-0.000531243880273517,0
0.37,0.000846075067766181,0.000486475467095467,-0.0420350853070818,-0.0243548327644112,0.000967038227237152,0.000131675614459651,-0.0481581701201399,-0.00639507047934149,-0.913646230952936,-0.000512030873757769,0
0.38,0.000845984612507998,0.000486474707942212,-0.0420383704333201,-0.0243548115843473,0.000966966567194397,0.00013161787111199,-0.0481607785688591,-0.00639694017788332,-0.913649425097001,-0.000493613018611874,0
0.39,0.000845898231236763,0.000486473980173273,-0.0420415351694938,-0.0243547716803957,0.000966898134111716,0.000131562719819836,-0.0481632794288469,-0.00639875750992334,-0.91365248704775,-0.000475957406656824,0
0.4,0.000845815458839738,0.000486473282492761,-0.0420445696255822,-0.0243547317697829,0.000966832559712255,0.000131509872145809,-0.0481656763370412,-0.00640050135332341,-0.913655422276331,-0.000459032491625246,0
0.41,0.000845736062486276,0.000486472613658092,-0.0420474750719796,-0.0243546918529418,0.000966769659623485,0.000131459181728077,-0.0481679703317438,-0.00640217223298014,-0.913658236026996,-0.000442808032823484,0
0.42,0.000845659809898338,0.000486471972477633,-0.0420502521938455,-0.0243546720915911,0.000966709249908857,0.000131410502716589,-0.0481701743021628,-0.00640375436397991,-0.913660933327666,-0.000427255041105612,0
0.43,0.000845586932799265,0.000486471357809026,-0.0420529243772301,-0.024354630705004,0.000966651514002199,0.000131363972864262,-0.0481722812719542,-0.00640529488079069,-0.913663518997243,-0.000412345727071502,0
0.44,0.000845516850222786,0.000486470768557004,-0.0420554739653666,-0.0243546109260984,0.000966595991893513,0.000131319233650287,-0.0481743036988346,-0.00640674854709533,-0.913665997656172,-0.000398053451412427,0
0.45,0.000845449910306422,0.000486470203671549,-0.0420579291438125,-0.0243545709809448,0.000966542959187487,0.000131276494249626,-0.0481762384085282,-0.00640816544234657,-0.913668373732827,-0.000384352677317879,0
0.46,0.000845385532080128,0.000486469662145798,-0.042060271302502,-0.0243545511855607,0.000966491955869204,0.000131235396440014,-0.0481780953197539,-0.0064095020751128,-0.913670651472911,-0.000371218924848907,0
0.47,0.000845323831406039,0.000486469143014308,-0.0420625162417022,-0.0243545313815243,0.00096644307363972,0.000131196007797006,-0.0481798746539214,-0.00641078386233216,-0.913672834946274,-0.000358628727191495,0
0.48,0.000845264633658611,0.000486468645352234,-0.042064664760904,-0.0243545101141696,0.000966396174207037,0.000131158218586813,-0.0481815761797239,-0.00641201225715346,-0.913674928053936,-0.000346559588732858,0
0.49,0.000845208171119255,0.000486468168271598,-0.0420667376416114,-0.0243544701425276,0.00096635144144888,0.000131122167759507,-0.0481832058428633,-0.00641321342508593,-0.913676934535959,-0.000334989944866277,0
0.5,0.000845153862817308,0.000486467710922393,-0.0420687146401008,-0.0243544503154924,0.00096630841534816,0.000131087497620552,-0.0481847713680864,-0.00641434406975979,-0.913678857977475,-0.000323899123458961,0
0.51,4.63068053805233,-0.0231259710992371,8.46719654494381,1.16460604913082,-0.545884247679162,4.59845054819247,0.201023389563632,8.54454879892606,0.113163478462068,34.9000069924485,4482.84919122267
0.52,4.67403589365732,0.00427026336749647,6.30083009822015,-0.198812976241071,-2.29322816580951,4.07280423662667,-3.26954769584435,5.38980930931306,0.513727442750032,74.4435689306101,4482.84919122267
0.53,4.65545882905739,-0.0177019226429156,7.23114284078107,0.910251375061711,-4.35826050744647,1.63681874877644,-6.43647931800551,3.41902300935054,1.20772628548639,115.316532874896,4482.84919122267
0.54,4.66751505661833,0.0119275658669826,6.62985673508528,-0.569484828270496,-3.74198163412268,-2.78987679306361,-4.96348607637614,-4.43205587363315,2.21400606412718,159.620561684747,4482.84919122267
0.55,4.64364210366772,-0.0189433799726912,7.82506033044895,0.985788650343233,1.80915933702911,-4.27676435308759,2.10973085035417,-7.59949894252083,-2.74547918693681,200.742062472947,4482.84919122267
0.56,4.62938043083482,0.00566355263701046,8.53976790816087,-0.233996453540153,4.18621461372416,1.97656329447532,7.61762651402082,3.86706045445512,-1.12844429241614,241.122611188748,4482.84919122267
0.57,4.62359171917751,0.0487141811989946,8.83085107322988,-2.38751247742614,-3.28096840197326,3.25810064337334,-7.99573259602901,4.44436798209037,0.799430860363686,283.814580513369,4482.84919122267
0.58,4.59915448210977,0.053666661657773,10.0544128729267,-2.62690209462834,-0.581820320197965,-4.56251982745156,1.45410286240363,-10.2896752961202,3.02642380305951,324.845808259032,4482.84919122267
0.59,4.59361778278403,0.0441820353135267,10.3330374530696,-2.1398802330139,3.06920852194709,3.41807481418436,5.22352621982797,9.16872533392469,-0.722055128590101,365.71122753729,4482.84919122267
0.6,4.60890180767461,0.0531008086036562,9.57063521533046,-2.58419953304628,-3.97197660889324,-2.33841771013342,-6.85436571941191,-7.16190032296394,2.11440793258947,407.753524739946,4482.84919122267
0.61,4.60683127680573,0.0186420042305961,9.67600863652794,-0.855790040075678,3.95921740664087,2.3553852050629,7.85511254748435,5.71443143219078,-1.03007996226231,449.373395635634,4482.84919122267
0.62,4.60995316691786,0.0570480922139469,9.52184162286253,-2.77313146167885,-3.11684827575781,-3.3970839718657,-4.28362301083801,-8.94462407793919,2.41156330177249,490.626493148936,4482.84919122267
0.63,4.56350597006949,0.0872462347515168,11.8461483702701,-4.27915982778782,0.666185306651349,4.51546185694664,-2.73983087233162,12.2937287603568,-0.127361676027631,531.824291925098,4482.84919122267
0.64,4.59466156805174,0.0215056491034629,10.290339047182,-0.978152299516736,3.20851985521632,-3.28888700878545,7.91716879735344,-6.64577293181323,-2.36388243263275,572.944920541089,4482.84919122267
0.65,4.55650681200014,0.050479933495945,12.2001491477704,-2.41635250887875,-4.19244821522356,-1.78540766049612,-10.199713885995,-7.11675735984083,1.98447572579402,613.76650960664,4482.84919122267
0.66,4.56087155208581,0.0900931958021547,11.9839826578103,-4.38241245938806,-1.48165336627285,4.31443732145547,-8.23136036964149,9.75018388400923,0.350549637615361,654.522967526642,4482.84919122267
0.67,4.49847379134171,0.0316531603515517,15.1060203702379,-1.47201953393047,3.75876379644717,2.47163166682792,11.7456299506242,9.61243309455594,-0.982085039982063,696.063003016648,4482.84919122267
0.68,4.51879407446803,0.0331112617319707,14.0921665335602,-1.52662205904019,4.06976515684766,-1.96407938006834,13.3894686371259,-4.6520814842568,-2.0131021029178,736.982411563441,4482.84919122267
0.69,4.50752019296013,0.118760999972074,14.6581169936888,-5.79797417812024,1.63328016182683,-4.20288453065756,11.0145314995802,-11.276391010229,-2.74460300863367,777.822705576135,4482.84919122267
0.7,4.5648096216427,0.0661805685755812,11.7958910560397,-3.16305603208385,-0.219051429073944,-4.56003105481963,2.76615252740992,-11.8952246495458,3.1080892607867,818.801322200023,4482.84919122267
0.71,4.57724283907038,0.0881999174201034,11.1764816876512,-4.27445624754515,-0.835987595323425,-4.50111719173355,2.38803073179622,-11.7252730608109,2.97722302915062,860.08187021502,4482.84919122267
0.72,4.55923654613667,0.109241329864315,12.0791190086052,-5.29227655544009,-0.0870245303577742,-4.55971471507755,5.35107088574659,-12.0531882727776,-3.13671999775191,900.587871720647,4482.84919122267
0.73,4.50441816456095,0.0579208898997674,14.8224124908278,-2.71933270870752,2.00493141099853,-4.03402873910249,9.18647189058062,-11.9460209539606,-2.66748614568364,941.335646383443,4482.84919122267
0.74,4.46598181497788,0.103278285524158,16.7466477489021,-4.98927799790287,4.19426091625402,-1.53747694043128,17.4609982844263,-0.675754894490405,-1.89903168679554,982.220736103683,4482.84919122267
0.75,4.47276195790822,0.0741664905664674,16.4100801400941,-3.52576773926224,3.35504085210688,2.95885131108811,9.750350823246,13.6620798994574,-0.831484571255703,1023.03942459711,4482.84919122267
0.76,4.46902054999564,0.0725542867156231,16.5996799301924,-3.43461580644073,-2.21486453662068,3.88223954505956,-11.4139864276491,12.5326323393023,0.534688459064192,1063.71546573865,4482.84919122267
0.77,4.48924098781925,0.095812401368347,15.5912536314716,-4.58521152677214,-3.68830383280238,-2.56103094473839,-9.91904480460304,-12.8733796926214,2.19907016394227,1104.34178805034,4482.84919122267
0.78,4.4085153377507,0.0961458353118391,19.6301327460008,-4.63366247206384,3.70572571810316,-2.38994736490572,19.1508075896494,-6.32925810777626,-2.1217960832606,1145.2408675314,4482.84919122267
0.79,4.5153103157471,0.0907798774373028,14.2930078828301,-4.34965914135228,-0.53459722808448,4.48447031848401,-6.28469639626063,13.5540473730698,0.1387530372895,1185.95631266214,4482.84919122267
0.8,4.47260709733167,0.114622952482419,16.4307824088617,-5.51018334680459,-2.02760828514002,-3.98825241307129,-2.09437567153535,-17.2030904673911,2.69687364504941,1226.27966766963,4482.84919122267
0.81,4.43356135263786,0.0648327418673269,18.3857846594546,-3.05036894683394,3.00724842278085,3.2583932352778,9.9991065171397,15.7276729720114,-0.730714620447279,1267.15369382116,4482.84919122267
0.82,4.46912124437772,0.163054664574473,16.6105059921727,-7.92131898737317,-3.06776817718219,-3.25398677496637,-4.98823335556555,-17.7136594696338,2.42211131342227,1307.3775135778,4482.84919122267
0.83,4.47009362017633,0.0927911029222486,16.5646494946021,-4.42876085975944,-2.06988346503897,3.96307072900307,-11.8538846664128,12.3889851863396,0.502077635371411,1348.16198750611,4482.84919122267
0.84,4.40418135217937,0.164431964093266,19.8630315679605,-8.01003103599398,3.86555341212971,-2.11691947689856,21.3481247766863,-1.71993859960558,-2.03450531779948,1388.55089179299,4482.84919122267
0.85,4.41412173319664,0.111943651548805,19.3689006213368,-5.33958714784258,-4.04520584476882,-1.77011630410241,-15.2779804052799,-13.0479430150698,2.00863196385726,1428.75834923199,4482.84919122267
0.86,4.41018538393623,0.16189381395226,19.568582635902,-7.84265062041485,-0.12367878743194,4.41142247865925,-9.09185037965768,19.0203799069823,0.0647212875299425,1469.20981453909,4482.84919122267
0.87,4.43291967983284,0.175289947427445,18.4347803411929,-8.51109004316347,4.43040504595502,-0.230248957206529,18.5389085427944,8.28182648893177,-1.58319761121661,1509.61843227665,4482.84919122267
0.88,4.39973787143976,0.190025903638148,20.0968387661902,-9.2427917994837,0.714919882666636,-4.34542204426713,13.1621057653466,-17.7783885789652,-2.93536742096263,1549.92772666261,4482.84919122267
0.89,4.38596745369784,0.133132674517836,20.7883682197549,-6.38016474054257,-3.38456187822732,-2.79270043262276,-11.4177277244894,-18.5067082152933,2.29101808686049,1590.16175896637,4482.84919122267
0.9,4.42382123266157,0.129686463745141,18.8987246157993,-6.19064241671723,-4.41463688675096,0.313039990358859,-19.1392042049754,-5.4015468188038,1.52931234200067,1630.4194432128,4482.84919122267
0.91,4.40876464793056,0.153894150982505,19.6545877368248,-7.45503103145364,-3.77699238086023,2.27930201716943,-20.7987173127048,3.04855128391722,1.06272142304582,1670.89751871271,4482.84919122267
0.92,4.34703172397457,0.124117137266878,22.7443180528378,-5.93712367561832,-3.30297806741302,2.82885590993836,-21.4216244080652,9.67819450868882,0.891110453233877,1711.01928448811,4482.84919122267
0.93,4.38882702591603,0.193485739298891,20.6577144105937,-9.36676554324314,-3.62323647484286,2.48422962748842,-22.4869657837102,2.96880973691185,1.013831722527,1751.03429083274,4482.84919122267
0.94,4.41590004120332,0.201201309281528,19.3072135983688,-9.79072855307509,-4.34482747964229,0.814327521886187,-20.4827453364886,-7.00599785994777,1.43105265584372,1791.36949446649,4482.84919122267
0.95,4.40139620873349,0.20912462822294,20.0356080449817,-10.1365971141716,-3.81523138941943,-2.20454783154541,-11.3701999373203,-19.362198846529,2.14223092913351,1831.3390282899,4482.84919122267
0.96,4.37188554487306,0.151627263147149,21.5143702593967,-7.27300799665676,3.38417950948248,-2.77194933070545,21.5171338831462,-7.26482776345094,-2.2224014589486,1871.42244554075,4482.84919122267
0.97,4.37184835951798,0.185715767875599,21.5195939293281,-9.00723790115616,3.60045807054473,2.48681525395575,11.7427364468773,20.1576635111904,-0.923888860133324,1911.52905346413,4482.84919122267
