t,iq,id,vq,vd,ia,ib,va,vb,theta_e,omega,r
0,0,0,0,0,0,0,0,0,0,0,0
0.01,0.00058018529078149,0.000325967108380071,-0.027559957654782,-0.0163082137140113,0.000304963827901965,-0.000591495216427189,-0.0140327657945012,0.0287852494279956,-2.15367544761676,-0.00267696137896921,0
0.02,0.000701583235069397,0.000391367946577069,-0.0334916778907966,-0.0195802266349835,0.000370303026642278,-0.000712926064748625,-0.017183297746163,0.0347823524446651,-2.15369663151664,-0.00304840325050376,0
0.03,0.000747197880603923,0.000416513229509541,-0.0357393958675711,-0.020838254060819,0.000394527368293712,-0.000759036296103618,-0.0183665515351196,0.0370702985419594,-2.15371874179077,-0.00304311199355711,0
0.04,0.000733104830808055,0.000409222277978049,-0.0351815236351885,-0.0204734909282334,0.000386759755681641,-0.000745199608918797,-0.0181008466562713,0.0364590563016644,-2.1537393343052,-0.00276401183243669,0
0.05,0.000749803334440953,0.000419485679903159,-0.0360609813873231,-0.0209869635641605,0.000395035755743602,-0.00076296790736352,-0.0185516730712119,0.0373722148730729,-2.15375879915789,-0.00264567226524914,0
0.06,0.000751407409031831,0.000421195165131387,-0.0362272571331921,-0.021072487410016,0.000395419821194204,-0.000765285323578552,-0.0186427183542655,0.0375354890390845,-2.15377709584047,-0.00246614303232553,0
0.07,0.000762882721811251,0.000428705090331647,-0.0368482733987224,-0.0214482095632759,0.000400852365993219,-0.000777878835289948,-0.0189536790133728,0.0381913471586854,-2.15379382454601,-0.00235050170658365,0
0.08,0.000751261116348327,0.000422728020128831,-0.0363829229679554,-0.0211491854639689,0.000394428807784503,-0.000766497331716603,-0.0187292183373469,0.0376858263801329,-2.15380974488862,-0.00213120659283104,0
0.09,0.000748055003428769,0.000421728205904849,-0.0363051483589795,-0.0210991577057079,0.000392291641178735,-0.000763903289737538,-0.0186912865670323,0.0376015167210968,-2.15382430110517,-0.00196665769616528,0
0.1,0.000746449666143877,0.000421559098560191,-0.0362967740795578,-0.0210906978050689,0.00039103436464155,-0.000762883545067375,-0.0186884485644965,0.0375900948753706,-2.1538377300298,-0.0018214065307758,0
0.11,0.00074521031827521,0.000421528775865613,-0.0363004790462026,-0.0210891870588168,0.000390007002312687,-0.000762180730203588,-0.0186919066714803,0.0375911055273749,-2.15385014082988,-0.00168835181790671,0
0.12,0.000744108690849144,0.000421521768502898,-0.0363059704243629,-0.0210888345400706,0.000389082500017591,-0.000761572815493764,-0.018696253534973,0.0375940491895885,-2.15386161464517,-0.00156555594688945,0
0.13,0.000773128914841071,0.000438474056685256,-0.0377208849687233,-0.0219369534046544,0.000403965544498893,-0.000791706799394239,-0.0194100008549182,0.0390812864976795,-2.15387265881536,-0.0015931299890519,0
0.14,0.000790433989701078,0.000448993809482347,-0.0387259702735436,-0.0224632631614204,0.000412610781402439,-0.000810020787448509,-0.0199588173796305,0.0400742382871237,-2.15388309055033,-0.00157020268783773,0
0.15,0.000749854824710357,0.000426099362229228,-0.0367307789182001,-0.0213178452600715,0.000391334880232105,-0.000768570059361721,-0.0189235967716657,0.0380197071489701,-2.15389286103826,-0.00127353224736886,0
0.16,0.000741909246084787,0.00042227769145077,-0.0364001965645916,-0.0211266460071592,0.000386800084607176,-0.00076100819487767,-0.0187525995737371,0.0376782363000154,-2.15390125362617,-0.00114911263108208,0
0.17,0.000739893868736861,0.000421638693070989,-0.0363437888766705,-0.0210946866932568,0.000385463773813047,-0.000759368029065495,-0.0187228226724777,0.0376206420436124,-2.15390889769048,-0.00106109425201441,0
0.18,0.000738991574018107,0.000421530867040801,-0.0363365676436605,-0.0210892955050269,0.000384764605500501,-0.000758783906452933,-0.0187194982071093,0.0376122974556819,-2.15391594440641,-0.000984584571013488,0
0.19,0.000738330556183279,0.000421511764855088,-0.0363379869554049,-0.021088337072325,0.000384218401450317,-0.000758406486056207,-0.0187209658060258,0.0376124008238877,-2.15392245590136,-0.000914723229846193,0
0.2,0.000737750680877639,0.000421507550817626,-0.0363407591296418,-0.0210881190690192,0.000383732110166802,-0.000758085978078098,-0.0187231734816438,0.0376138580148866,-2.15392847561982,-0.000850289121974139,0
0.21,0.0007372200811279,0.000421505898143497,-0.0363435779619498,-0.0210880422381681,0.000383285888704993,-0.000757794561677245,-0.0187253594339845,0.0376154502642621,-2.15393404120676,-0.000790743188916433,0
0.22,0.000736730576015735,0.000421504744169122,-0.0363462315691487,-0.0210879856922465,0.000382874017054923,-0.000757526024673595,-0.0187274120708175,0.0376169606290085,-2.15393918701297,-0.000735693376110372,0
0.23,0.000736278207396363,0.000421503739376845,-0.0363486922658392,-0.0210879334332529,0.000382493359000815,-0.000757277908905138,-0.0187293159029525,0.0376183610983971,-2.1539439447163,-0.000684796368726323,0
0.24,0.000735859948462319,0.000421502820507705,-0.0363509637441407,-0.0210878796450334,0.000382141400061708,-0.000757048506904145,-0.0187310761168334,0.0376196493943875,-2.15394834359102,-0.000637738200688139,0
0.25,0.000735473153364805,0.000421501972436906,-0.0363530567408118,-0.0210878447756545,0.000381815919021437,-0.000756836360166706,-0.018732689399415,0.0376208490008908,-2.15395241070062,-0.000594229208303863,0
0.26,0.000740903791727621,0.000424815988231342,-0.0366256987499206,-0.0212536488372439,0.000384521345316769,-0.000762594510502875,-0.0188688312756907,0.0379094527012239,-2.15395606221485,-0.000583166304795966,0
0.27,0.000726789873807976,0.000416773493655443,-0.0359829625780122,-0.0208512688986329,0.000377165981771574,-0.000748110612060718,-0.0185537585047077,0.0372197132702915,-2.15395981953104,-0.000476304407483522,0
0.28,0.000726085277224645,0.000416572264398483,-0.0358287283601342,-0.0208412164079526,0.000376686244778814,-0.000747555853607545,-0.0184304316080949,0.0371264497091593,-2.15396303418412,-0.000439982393643944,0
0.29,0.000732684332683423,0.000420676941598825,-0.0362891890318028,-0.0210465686155618,0.000379932174854453,-0.000754617096985656,-0.0187016013962336,0.037551476619327,-2.15396585788396,-0.000443055713235456,0
0.3,0.000723290554212828,0.000415751546021605,-0.0358584674933248,-0.0208001536534316,0.00037480184210912,-0.00074533358503724,-0.0184776919222332,0.0371086375956223,-2.15396776766662,-0.000377982410147039,0
0.31,0.000731849293729857,0.000420539251481407,-0.0362716097035095,-0.0210396741179628,0.000379307700579242,-0.000754043976867875,-0.0186905613096199,0.0375361222744857,-2.15397019646087,-0.000394594444149907,0
0.32,0.000733206618205233,0.000421337738716541,-0.0363470703482229,-0.0210796291512536,0.000379999173652799,-0.000755458842737255,-0.0187314576678056,0.0376110725942807,-2.15397258417026,-0.000376729637930562,0
0.33,0.000733279823476886,0.000421470595360145,-0.0363615845609643,-0.0210862827354303,0.000379985430703314,-0.000755610901671452,-0.01873982493179,0.0376246609673566,-2.15397481741246,-0.000354223073137029,0
0.34,0.000733134708548084,0.000421492410234919,-0.0363650524355257,-0.0210873601434047,0.000379850724304826,-0.000755549985115892,-0.0187420484497999,0.0376275087716625,-2.15397688684034,-0.00033233432969545,0
0.35,0.000732961916840116,0.000421495722769143,-0.0363664492101577,-0.0210875283111431,0.000379703222168996,-0.000755458323751285,-0.0187430497245051,0.0376284541996209,-2.15397880102334,-0.000311901823627512,0
0.36,0.000732795236660932,0.000421495972575537,-0.0363674139816489,-0.021087542226417,0.000379562617295286,-0.000755367416111061,-0.0187437807681808,0.0376290302742168,-2.15398057098789,-0.00029297526202717,0
0.37,0.000732640023343712,0.000421495734134949,-0.036368251734965,-0.0210875299069056,0.00037943195395039,-0.000755282364430961,-0.0187444252555558,0.0376295120041611,-2.15398220748825,-0.000275469824978685,0
0.38,0.000732496218719935,0.000421495435322643,-0.0363690090419805,-0.0210875131775671,0.000379310940307179,-0.000755203497740914,-0.0187450096647076,0.0376299434410915,-2.15398372056763,-0.000259283514956832,0
0.39,0.000732363240720888,0.000421495145949168,-0.0363697052851215,-0.0210874964053887,0.000379199044978736,-0.000755130557390658,-0.0187455474197359,0.0376303390777748,-2.15398511953101,-0.000244317777415348,0
0.4,0.000732240073308242,0.000421494876195037,-0.0363703350121876,-0.0210874955960743,0.0003790954077135,-0.000755062995694839,-0.0187460248319048,0.0376307094327867,-2.15398641298394,-0.000230480724757149,0
0.41,0.000732126478460033,0.00042149462640098,-0.0363709283077973,-0.0210874787437618,0.000378999823593898,-0.000755000684942063,-0.0187464843391941,0.0376310445066289,-2.15398760888445,-0.000217687261486459,0
0.42,0.000732021323719763,0.000421494395367739,-0.0363714673980625,-0.0210874604023963,0.000378911342417733,-0.000754943003341339,-0.0187469028142231,0.0376313467973846,-2.15398871458927,-0.00020585868514897,0
0.43,0.000731924000511135,0.000421494181733397,-0.0363719577249662,-0.0210874609341685,0.000378829451784554,-0.000754889617242113,-0.018747273330328,0.0376316364256829,-2.1539897369016,-0.000194922224572088,0
0.44,0.000731834212595814,0.00042149398419678,-0.0363724177333111,-0.021087443983636,0.000378753900364576,-0.000754840364844403,-0.0187476310676567,0.0376318933204337,-2.15399068211052,-0.000184810596206535,0
0.45,0.000731751033846016,0.000421493801547161,-0.0363728318274633,-0.0210874429965502,0.000378683911366273,-0.000754794737362239,-0.0187479443713535,0.0376321369195309,-2.15399155603143,-0.000175461590909376,0
0.46,0.000731674342654174,0.000421493632663037,-0.0363732222737074,-0.021087425990846,0.000378619379823287,-0.00075475266895595,-0.018748249237338,0.0376323528898551,-2.15399236404087,-0.000166817691346046,0
0.47,0.00073160321289285,0.000421493476508479,-0.0363735690209735,-0.0210874264044231,0.000378559529492752,-0.000754713650654717,-0.018748510327795,0.0376325581933258,-2.15399311110996,-0.000158825718160459,0
0.48,0.000731537639364037,0.000421493332123805,-0.0363738960870139,-0.0210874093516526,0.000378504353081978,-0.000754677680555831,-0.0187487667289599,0.0376327370231836,-2.1539938018345,-0.000151436502805997,0
0.49,0.00073147687056357,0.000421493198622785,-0.0363741883557197,-0.0210874082628763,0.000378453220574478,-0.000754644345696399,-0.0187489872535092,0.0376329090391687,-2.15399444046453,-0.000144604585043994,0
0.5,0.000731420641963378,0.000421493075185404,-0.0363744533434468,-0.0210874086078811,0.00037840590864399,-0.000754613501219456,-0.0187491860293215,0.0376330663256161,-2.15399503092859,-0.000138287933264942,0
0.51,4.69571372868217,-0.0377592711052331,5.21502653159985,1.89652501283673,-0.587436364139292,4.65897753829909,1.27271780346473,5.40124969264981,0.117384051474308,36.2950787429698,5102.3189454523
0.52,4.72290293612406,-0.0316422023618668,3.8563684291017,1.59921109031467,-2.43232361051868,4.04853247816205,-0.587497200723741,4.13326754656646,0.534301594080801,77.5352277957052,5102.3189454523
0.53,4.66631931268119,0.0394649673306244,6.68642162104279,-1.94940124920169,-4.42740357178614,1.47451382634521,-6.96179785694194,0.2043769160552,1.25776469645776,120.29153707437,5102.3189454523
0.54,4.69297633169605,0.0194300595671582,5.3544465170099,-0.942553600841521,-3.48585359949638,-3.14216948300887,-3.32829821101927,-4.29894589550795,2.30852792115109,166.590782574166,5102.3189454523
0.55,4.69060859884612,0.0316489709193948,5.4738551583267,-1.54314290548138,2.40810599830104,-4.02539888531261,4.1606755515296,-3.87726182711217,-2.59572996932275,208.920507155132,5102.3189454523
0.56,4.64044578455914,-0.00259811977458102,7.98302229279284,0.181951112245422,3.66480789636314,2.84656405380476,6.41889169370911,4.74969268046965,-0.910966593040332,251.734710055063,5102.3189454523
0.57,4.65530607688817,0.0640810633762028,7.24113711434465,-3.14987559291766,-4.11739086187131,2.17326333949063,-7.88159681660262,0.486019114971186,1.09890131080259,295.329156482806,5102.3189454523
0.58,4.68164439052869,0.0542984975852836,5.92537027646329,-2.65740274045324,1.2323901466631,-4.51685256042485,4.18127897167324,-4.9687733294251,-2.86363554446479,339.046336871235,5102.3189454523
0.59,4.69563968443087,0.0451069425524908,5.22674165509529,-2.17761379235019,1.08587078676222,4.56858307538835,-0.963601112312735,5.57963287807466,-0.223746408344836,381.077915368506,5102.3189454523
0.6,4.67783139429735,0.0126751982803555,6.11841330337492,-0.54934004251833,-1.87176152379171,-4.28704747025016,-1.92893612236646,-5.83232040178342,2.73264032592874,424.337550108386,5102.3189454523
0.61,4.66625807124233,0.0590748567232029,6.6983538626153,-2.86596665332034,1.34319715510542,4.4691470806685,-0.908278490407103,7.22888231406635,-0.279300949095852,467.691746083352,5102.3189454523
0.62,4.64502121468352,0.056625419097312,7.76161132682279,-2.73669896161753,0.70818966125248,-4.59106697039403,3.97610440165309,-7.20574252817413,-2.97635514190473,510.686454640628,5102.3189454523
0.63,4.61141213188401,0.0625735987171616,9.44345340869028,-3.02516675575895,-3.64387300518718,2.82687580686022,-9.36095629071365,3.27153534378001,0.924562108772154,553.508320639244,5102.3189454523
0.64,4.63229300977745,0.0874870710712319,8.40091009069682,-4.25856238843067,4.25207027975189,1.84002468790186,5.88083525219432,7.35706603916782,-1.14350725104043,596.137436269463,5102.3189454523
0.65,4.61844353822899,0.0602445316975888,9.09489448917827,-2.88516388221193,1.05674830953312,-4.49632440218758,4.99592123694898,-8.12908650407336,-2.89771347515147,639.126848591349,5102.3189454523
0.66,4.57712394774735,0.0269364296501182,11.162449165834,-1.23161021496857,-4.26882352286482,-1.65164612884255,-9.9353497404598,-5.23507026086455,1.9458515914677,682.430361232129,5102.3189454523
0.67,4.62028326808268,0.0484422398835093,9.00606357250569,-2.2828621886781,-3.3439060090143,3.18867632895027,-8.14055296565653,4.47795022949684,0.819640375075891,724.640348504935,5102.3189454523
0.68,4.65151555692607,0.0881579053623391,7.44611576089766,-4.28051663730834,0.0599327461243366,4.65196483848977,-4.32561789432017,7.42000622906067,0.00606763736645124,767.807388409831,5102.3189454523
0.69,4.61637258915016,0.1039538633669,9.204973277608,-5.04252441280737,2.2806974897587,4.01498707940315,-0.0742891810774839,10.4953831093872,-0.494077774973184,809.960131317079,5102.3189454523
0.7,4.5919834713524,0.0748283977934519,10.426202325716,-3.5958429217167,2.9527347034445,3.5175658147879,3.78092259702599,10.3605214912052,-0.682028941941865,852.99629189847,5102.3189454523
0.71,4.59677054385463,0.0773269371453851,10.1886225802155,-3.71984792125415,2.50011107961682,3.85820210430131,2.24073261861433,10.6124651222614,-0.558146823852292,895.552808535714,5102.3189454523
0.72,4.55300638987587,0.13204008524939,12.378667232174,-6.42209634613831,0.684625745662142,4.50317547501091,-4.86942558560213,13.0676477757194,-0.121883904853122,937.751723166518,5102.3189454523
0.73,4.53695249976083,0.0967252552019838,13.1832150813332,-4.64838711748972,-2.58036808885497,3.73296052565506,-11.4921984901443,7.95826843841425,0.626138104251286,980.209296048396,5102.3189454523
0.74,4.5575478173833,0.0821463846392716,12.1554086060527,-3.91034010412848,-4.53704542840631,-0.439555362635946,-11.628519614242,-5.27468005581797,1.68539862274022,1022.63666546841,5102.3189454523
0.75,4.57632302933507,0.115431371462534,11.2186446765451,-5.5660534162304,-0.508790335222262,-4.54941636532915,4.58005757928345,-11.6559860836118,3.05543730775815,1065.07034886627,5102.3189454523
0.76,4.53304343076389,0.114772693365684,13.3846259713112,-5.56064113978126,4.53449107177291,-0.00679973130352195,13.2484213623769,5.87777795448602,-1.54698216667595,1107.6904780082,5102.3189454523
0.77,4.59542891485841,0.0630302741989559,10.2674247179954,-2.96068224521357,-1.91785671107167,4.17657339966386,-7.08554583955715,7.99879302472317,0.444188159043087,1150.12971787225,5102.3189454523
0.78,4.58558209468785,0.0856449387451111,10.761860027189,-4.06298575339605,-1.8481940353031,-4.1975084288807,-0.403655944938559,-11.4961970388135,2.74550309902239,1192.1368728583,5102.3189454523
0.79,4.53171012577237,0.122988263503391,13.4576077010647,-5.94399216314632,3.69759334462925,2.62284697127776,7.19201780749479,12.834061232828,-0.926697251263619,1234.50904504608,5102.3189454523
0.8,4.53500254927996,0.10724029221547,13.2952147573422,-5.13884953192214,-4.17896053854241,-1.76466354287595,-10.0118622189741,-10.1455963286475,1.99399802052521,1276.64269825673,5102.3189454523
0.81,4.47362620622625,0.104148981835928,16.3662831853433,-5.00326726914864,3.95275009560446,2.09760461602054,11.8267896670261,12.3699213757125,-1.05963861680416,1318.91920278549,5102.3189454523
0.82,4.47097647064594,0.120693595103703,16.501086211676,-5.78383450537796,4.44702533660251,-0.477664317888617,16.9105842695082,4.4464286134633,-1.65080982343734,1360.72851614445,5102.3189454523
0.83,4.50657919766927,0.110364509863113,14.723238942341,-5.27694453428026,-3.71838430889479,-2.54853968406768,-8.84812941985235,-12.8969187925132,2.19613353979965,1403.00635036196,5102.3189454523
0.84,4.47847278889856,0.114727401660517,16.1309312555225,-5.50499372821561,-0.191285065135334,4.47585644558142,-6.59340669702286,15.7174707649081,0.068323022254758,1445.17302229714,5102.3189454523
0.85,4.47433705197934,0.102264623063358,16.3401063678701,-4.88104251721086,4.38316503487235,-0.904441476778859,16.9511528614296,1.8660302346364,-1.75143290687216,1487.22186739485,5102.3189454523
0.86,4.47685969870367,0.0984192374091877,16.2164102332155,-4.68252348627591,-0.640933425469395,-4.43183522395468,2.68015272854149,-16.6647762782209,3.0199485632608,1529.19832123014,5102.3189454523
0.87,4.4992012937249,0.169569691026221,15.1017854128967,-8.22962966272922,-4.40593439147904,-0.926988834642997,-12.6541679529244,-11.6474357891354,1.81583831334491,1571.13043156461,5102.3189454523
0.88,4.4880430682365,0.177841417061092,15.6622080044442,-8.62224904480595,-3.46009175384825,2.86389999946216,-17.6817724206846,2.64629216607883,0.918999826105092,1612.93227604093,5102.3189454523
0.89,4.46982736826182,0.168263512585003,16.5755253359281,-8.11443382577007,-1.28622529067056,4.28407444068952,-13.0386171302647,13.0608782172243,0.32929809448955,1654.68073494159,5102.3189454523
0.9,4.43494920928852,0.107974353632059,18.3220422741051,-5.14240234935219,-0.0975217546833794,4.43519136648855,-5.98536983116238,18.0642432169446,0.0463260652759799,1696.69532828447,5102.3189454523
0.91,4.48716929155102,0.148770298627535,15.713710135216,-7.14907556105505,-0.16461291726316,4.48661603441417,-8.22783339872709,15.1767165472,0.0698157805211911,1738.41106510032,5102.3189454523
0.92,4.4075656047375,0.153965656922195,19.696596581989,-7.38740246325355,-1.57125259922264,4.12086219777034,-14.4621499411232,15.2766439753035,0.399193605062278,1780.09673144689,5102.3189454523
0.93,4.47783644948703,0.128329746899065,16.1857708021305,-6.105313981711,-3.78408549084758,2.39753723438253,-17.0335478420982,3.01865585738552,1.03469884997919,1821.81787951114,5102.3189454523
0.94,4.42142673313217,0.202290699634621,19.009014429701,-9.83786744867586,-4.14356690507031,-1.55588855218507,-13.5961658424793,-16.5308965246927,1.97572135137014,1863.65313896055,5102.3189454523
0.95,4.38227281862826,0.179587514911064,20.96948317186,-8.6414613897522,3.56298352170044,2.55767768815602,11.197332913054,19.7234331463804,-0.907235007462793,1905.1556875045,5102.3189454523
0.96,4.47400377731694,0.199392978902108,16.3857441717628,-9.61883448149254,-2.5290540466942,3.69599147569111,-17.5347704565656,7.31754151886844,0.644627885967184,1946.72063983135,5102.3189454523
0.97,4.37945234368995,0.192053023413026,21.116201089601,-9.25929035980821,-2.76995482059477,-3.39762232838161,-5.1871058905301,-22.4660263265254,2.50143934127044,1988.30532096312,5102.3189454523
0.98,4.42584528412761,0.232123912608757,18.7994815806052,-11.2544113385619,4.40888494023463,-0.451355263192603,19.3345498932836,10.3081260518676,-1.62041558237323,2029.83364852181,5102.3189454523
