t,iq,id,vq,vd,ia,ib,va,vb,theta_e,omega,r
0,0,0,0,0,0,0,0,0,0,0,0
0.01,0.0010211200562186,0.000569425361854104,-0.049993519812414,-0.02850085390965,-0.00108931539718229,-0.000424645001614467,0.0538119474876851,0.0203942394905048,2.45119846999479,-0.00186449308631427,0
0.02,0.00114447641984186,0.000637909077549357,-0.0562397365353801,-0.0319286038667955,-0.00122068091507827,-0.000476122222079154,0.060432888105121,0.0230262838019,2.45118480838541,-0.00189210399573663,0
0.03,0.00119077225101469,0.000665255784012588,-0.0585989788508741,-0.0332973537299556,-0.00127125492398576,-0.000494383181541167,0.062990977875787,0.0239727093595006,2.45117167316728,-0.00177495353244657,0
0.04,0.00115959571824763,0.000650404001096802,-0.0571822423810307,-0.0325539983067968,-0.00123995483728938,-0.0004797912003191,0.0615158673252431,0.0233531521792018,2.45116030632528,-0.00153200066800478,0
0.05,0.00118448163244422,0.000666022958901596,-0.0584791263676211,-0.0333357692298974,-0.00126785080486897,-0.000489017030352591,0.0629447859423089,0.0238544682092494,2.45114987364597,-0.00141533554642787,0
0.06,0.0011830673987516,0.000666990095765371,-0.0584901968017577,-0.0333841578692847,-0.00126770030271605,-0.000487298881931414,0.0629893656340678,0.0238315953214926,2.45114050529431,-0.00126335108872146,0
0.07,0.00120957421918457,0.00068371635880151,-0.0598464099314159,-0.0342213486235143,-0.00129748142608445,-0.000497071222235429,0.0644987562426749,0.0243434575695233,2.45113234459945,-0.00118608446664583,0
0.08,0.00117954532672391,0.000668083363999547,-0.0584524791147434,-0.0334388794524857,-0.00126630758767371,-0.000483867391388542,0.0630079040752477,0.0237666783068599,2.45112484283046,-0.00100695572423792,0
0.09,0.00117524440644479,0.000667108079380901,-0.0582991028760396,-0.0333900890934041,-0.00126281958006048,-0.000481164538043823,0.0628727584331774,0.0236790982264914,2.4511183307757,-0.00089471646849396,0
0.1,0.00117300275859035,0.000667044777768392,-0.0582392509453544,-0.0333868961982554,-0.00126134582526194,-0.000479469411227579,0.0628323130341393,0.0236346277146262,2.45111257594324,-0.000798626087077958,0
0.11,0.0011711282320441,0.000667038499023542,-0.0581915873025016,-0.0333865963948738,-0.00126014951951931,-0.000478021844192884,0.0628018447615427,0.0235977529897648,2.45110748298493,-0.000713805138458536,0
0.12,0.00116947699022913,0.000667036034279734,-0.0581497824104358,-0.0333864768763722,-0.00125909807384235,-0.000476744734789489,0.0627752328389501,0.0235653171973807,2.45110297526359,-0.000638746359300442,0
0.13,0.00122362961564476,0.000698110430946391,-0.0608157422066779,-0.0349418072405964,-0.00131754717114981,-0.000498695359788161,0.0656723868099045,0.024629697604282,2.4510986148062,-0.000676932137305723,0
0.14,0.00126902262281439,0.000725461167101007,-0.0632020590039154,-0.0363107521064097,-0.00136754635026699,-0.000516264759651188,0.0682477374121014,0.0255972131099539,2.45109472674094,-0.000705231599332124,0
0.15,0.00117237033721718,0.000670664230758819,-0.0583903929769684,-0.0335680606093592,-0.00126374360072398,-0.0004766495878895,0.0630687485760087,0.023634416390819,2.45109120449915,-0.000457068331826315,0
0.16,0.00116469449250104,0.00066725488237047,-0.0580404876218402,-0.0333974272124452,-0.0012562275775416,-0.000472900213928324,0.0627144023636963,0.0234731779688215,2.45108853348997,-0.000399283414447444,0
0.17,0.00116336996284763,0.000667041760063713,-0.0579960316484009,-0.0333867618175866,-0.00125522075006366,-0.000472011915882018,0.0626779196755363,0.0234455526011566,2.45108620074667,-0.000359506388306454,0
0.18,0.00116258165235665,0.000667027552663232,-0.0579753065126597,-0.0333860479148817,-0.00125470867274448,-0.000471410650015472,0.0626642172224576,0.0234299005654797,2.45108413824391,-0.000325098269814525,0
0.19,0.00116191103839833,0.000667025826062393,-0.0579582768871593,-0.0333859507249314,-0.00125428106754818,-0.00047089246901634,0.0626533383733705,0.0234167195868276,2.45108231288208,-0.000294699802132062,0
0.2,0.00116131915206994,0.00066702497236361,-0.0579432836022952,-0.0333859218116008,-0.0012539041788836,-0.000470434689302731,0.0626438042137069,0.0234050781554152,2.45108069726956,-0.000267798128611222,0
0.21,0.00116079536870442,0.000667024258545044,-0.0579300163649826,-0.0333858927385547,-0.00125357068636119,-0.000470029556293153,0.0626353649274642,0.0233947791269936,2.45107926729549,-0.0002439877974988,0
0.22,0.00116033232330901,0.000667023629216511,-0.0579183000544267,-0.0333858387683732,-0.00125327586673426,-0.000469671400353831,0.0626278904140049,0.0233857019085124,2.45107800162899,-0.000222913349073679,0
0.23,0.00115992204488125,0.000667023072252451,-0.0579079068946062,-0.0333858094351838,-0.00125301464286093,-0.000469354060272932,0.0626212742320036,0.0233776381637878,2.45107688139052,-0.000204260405895344,0
0.24,0.00115955871266241,0.000667022579209193,-0.057898696954555,-0.0333858105431541,-0.00125278330889637,-0.000469073032945677,0.0626154321263864,0.0233704752686947,2.45107588987009,-0.000187750730028728,0
0.25,0.00115923749195874,0.000667022142751607,-0.0578905622456835,-0.0333857838945304,-0.00125257878694367,-0.000468824577195428,0.0626102508006684,0.0233641661107569,2.45107501227788,-0.00017313805491123,0
0.26,0.00117092571106455,0.000673697640439479,-0.0584641272179015,-0.0337198950199478,-0.00126517003201474,-0.000473582433856628,0.063233164005314,0.0235934834516722,2.4510742880074,-0.000184833591265147,0
0.27,0.00113564870021216,0.000653692064117542,-0.0567589781378052,-0.0327185700937444,-0.00122727858406683,-0.000459128045402073,0.0613751742370332,0.0229166842191652,2.45107341821198,-0.000100876879838622,0
0.28,0.00113384699166603,0.000652571921646142,-0.0565351582303216,-0.0326625196391614,-0.00122526775244994,-0.000458451794889396,0.0611894186518825,0.0227798013676757,2.45107280899196,-8.75960765363563e-05,0
0.29,0.00115655467216967,0.000666122167890944,-0.0577825111481772,-0.0333407178658489,-0.00125017741672525,-0.000467326308892834,0.062506747869425,0.0233094086837802,2.45107240050884,-0.000126218498324466,0
0.3,0.00114762316896747,0.000661517372517856,-0.0573479671271052,-0.0331102653166862,-0.00124093864297113,-0.000463373992013843,0.0620523082451607,0.0231212033510468,2.4510725132976,-0.000110265268982077,0
0.31,0.00115741012452696,0.000666678384246133,-0.0578268109975381,-0.0333685658837242,-0.0012511512353106,-0.000467631105423185,0.062556440210887,0.0233258021817718,2.45107207377894,-0.0001227160807426,0
0.32,0.00115794914626165,0.000666999174666509,-0.0578566749469742,-0.0333846343654406,-0.0012517420648447,-0.000467841776065608,0.0625878593051643,0.0233385628355935,2.45107163818359,-0.000116851496239005,0
0.33,0.00115785610075419,0.000667018946493576,-0.0578554572765053,-0.033385605302562,-0.00125169822479387,-0.00046775696583052,0.0625878413065076,0.0233369813532814,2.45107124936795,-0.000110474890221992,0
0.34,0.00115773316624662,0.000667020016864822,-0.0578524095463034,-0.0333856668586384,-0.00125162090919621,-0.000467661081113905,0.0625859555777519,0.023334571055172,2.45107090499839,-0.000104747683085431,0
0.35,0.00115762187320601,0.00066701994238386,-0.0578495908482519,-0.0333856730872592,-0.00125155010736987,-0.000467574949719536,0.0625841721514823,0.0233323750379836,2.45107060018145,-9.96726959549211e-05,0
0.36,0.00115752292018262,0.000667019812899583,-0.0578470727445637,-0.0333856734589834,-0.00125148710656515,-0.000467498410318039,0.0625825748521757,0.023330416676445,2.45107033038774,-9.51804259901339e-05,0
0.37,0.00115743569427068,0.00066701969433559,-0.0578448606583754,-0.0333856432912718,-0.00125143156911558,-0.000467430943374866,0.0625811482002052,0.023328715620515,2.45107009159384,-9.12042996002923e-05,0
0.38,0.00115735827808181,0.000667019589144782,-0.0578428909110125,-0.0333856436013607,-0.00125138227732767,-0.000467371064720082,0.0625798987584754,0.0233271836919792,2.45106988023797,-8.76850374962078e-05,0
0.39,0.00115728970945737,0.000667019496022777,-0.0578411439215277,-0.0333856438851346,-0.00125133861884121,-0.000467318029490607,0.0625787906128435,0.0233258250274197,2.45106969316732,-8.45701467782079e-05,0
0.4,0.00115722905707481,0.000667019413596952,-0.0578395983452392,-0.0333856441454087,-0.00125130000071246,-0.000467271117094212,0.0625778102354657,0.0233246229953776,2.45106952759154,-8.18131643499444e-05,0
0.41,0.00115717527319622,0.000667019340640432,-0.0578382241385797,-0.0333856443852766,-0.00125126575580864,-0.000467229517502668,0.0625769385505109,0.0233235542782465,2.45106938104105,-7.93729657132782e-05,0
0.42,0.00115712777574499,0.000667019276065038,-0.0578370119614067,-0.033385644606454,-0.00125123551356871,-0.000467192779939212,0.0625761696612961,0.0233226115375839,2.45106925132946,-7.72131516641128e-05,0
0.43,0.00115708574981389,0.000667019218908651,-0.0578359385747065,-0.0333856448113696,-0.00125120875511079,-0.000467160274370562,0.0625754888130327,0.0233217767354499,2.45106913652207,-7.53015053492558e-05,0
0.44,0.00115704881532407,0.000667019168318739,-0.0578350004564591,-0.0333856174156546,-0.00125118523849283,-0.000467131706186925,0.0625748725372793,0.0233210646190591,2.45106903490625,-7.36095117102098e-05,0
0.45,0.00115701586978805,0.000667019123540682,-0.0578341561873655,-0.0333856175943717,-0.00125116426162383,-0.000467106224049382,0.0625743370229431,0.0233204080196154,2.45106894496644,-7.21119321366544e-05,0
0.46,0.00115698676595765,0.000667019083907578,-0.0578334105451343,-0.0333856177615618,-0.00125114573082968,-0.000467083713187176,0.0625738640781079,0.0233198281069489,2.45106886536095,-7.07864279934449e-05,0
0.47,0.00115696092175625,0.00066701904882799,-0.057832745167087,-0.0333856179189629,-0.00125112927546193,-0.000467063723760016,0.0625734420358967,0.0233193106495986,2.45106879490227,-6.96132274069899e-05,0
0.48,0.00115693810435321,0.000667019017778775,-0.0578321579097667,-0.0333856180672889,-0.00125111474730969,-0.000467046075293609,0.0625730695561328,0.0233188539289228,2.45106873253967,-6.85748303388962e-05,0
0.49,0.00115691784808725,0.000667018990296725,-0.0578316338968549,-0.0333856182079386,-0.00125110184985246,-0.000467030407934065,0.062572737186275,0.0233184464174493,2.45106867734264,-6.76557475459649e-05,0
0.5,0.00115689992012772,0.000667018965972323,-0.0578311689518854,-0.0333856183416189,-0.00125109043486027,-0.000467016541419523,0.0625724422859211,0.0233180848435035,2.4510686284878,-6.68422695368885e-05,0
0.51,4.6890758795357,-0.0850323043036187,5.54723513402957,4.2633525105902,-0.43687622600084,4.66945417152518,3.83479761873807,5.85169372789525,0.0751567366436311,23.0775725699875,2137.20875287879
0.52,4.64594082731044,-0.0535707294100786,7.70521925334311,2.69738066055822,-1.59791855470981,4.36283076527541,-0.0229798384221658,8.16368410076412,0.339553740125218,49.0736772022716,2137.20875287879
0.53,4.70665758058308,0.0482866009875615,4.67077513468159,-2.39011045150157,-3.33162965329554,3.32493624449807,-5.01064871744718,1.55633150693603,0.796662550619301,75.8855918328949,2137.20875287879
0.54,4.62889268187143,0.0806079301187812,8.56048915817748,-4.01122524000926,-4.59072170344095,0.598681334465275,-8.95598089891579,-3.02693057264566,1.45852934381957,104.943829867751,2137.20875287879
0.55,4.63787134089858,-0.00586334733683413,8.11321363389319,0.329847540680009,-3.36575955541874,-3.19085373664758,-6.12153704151114,-5.33477451432486,2.32826033911664,131.825921849906,2137.20875287879
0.56,4.6407474510362,0.0398662200613823,7.9711489792372,-1.94011812568215,1.10094467833311,-4.50844175242965,3.83812311431385,-7.25066102849695,-2.89349347291483,158.190364304991,2137.20875287879
0.57,4.57270988285101,0.070822198936586,11.3748660460464,-3.49706738416598,4.56077771172253,-0.337636077516203,11.5596117680703,2.82708924980926,-1.6292051255348,186.065659142349,2137.20875287879
0.58,4.54698472046086,0.00109963066638485,12.6631392378053,0.00658883244344644,0.770458200033383,4.48123480965832,2.14916552479007,12.4794321311433,-0.170023400784287,212.701163124425,2137.20875287879
0.59,4.56647339916748,0.0496165193707225,11.6907537645672,-2.40701187032203,-4.54743937827722,0.419447499923882,-11.8473421129368,-1.45186589830053,1.48968337390249,239.37962106922,2137.20875287879
0.6,4.58913348215944,0.0203287562023409,10.5599015593632,-0.947262155406784,0.909222913185568,-4.49820776193629,3.06563571447546,-10.1494189095061,-2.93772008997006,266.726745172713,2137.20875287879
0.61,4.53073054280755,-0.000941516731665093,13.4823304423164,0.113570592961567,3.50751695006848,2.86789905383108,10.5111441330282,8.44405006203214,-0.885597060040095,293.709316377916,2137.20875287879
0.62,4.45199661061293,0.112030650750886,17.4214029909446,-5.53999821188483,-4.33321305626608,1.02766205370338,-18.1893780779361,-1.82849323172913,1.36309782549214,320.44050142214,2137.20875287879
0.63,4.50188655481596,0.059638100031187,14.9293780437827,-2.9110567592012,2.73578543727228,-3.57575408782776,11.5163700380192,-9.93648838256689,-2.47525503363511,347.113746085186,2137.20875287879
0.64,4.44028079400879,-0.00113374545943445,18.0122703120613,0.138129842729015,-0.731251729742718,4.3796536076236,-2.82558118126858,17.7898019279664,0.165184238163379,373.716282191067,2137.20875287879
0.65,4.38443654107453,0.00784088606457606,20.8071452140866,-0.294630370383709,-0.623942829032666,-4.33982034286013,-2.63248746476819,-20.6420471068903,3.00058790851382,400.161640383221,2137.20875287879
0.66,4.4157107857072,0.0420288704079013,19.246223730675,-1.97484794826596,1.14550270958251,4.26474990020491,2.90336783715533,19.1281888194397,-0.252886764308988,426.402554952601,2137.20875287879
0.67,4.46215970488495,0.101504015260545,16.9266285611459,-4.93400504093218,-0.858328500167505,-4.38000507794376,1.98571977344908,-17.5189062778553,2.97082352785587,452.963672475008,2137.20875287879
0.68,4.42974776733147,0.146055783467903,18.5502123007444,-7.19902974916955,-0.322437211943236,4.42041082009544,-9.1172599894591,17.6864913427374,0.105773499172647,479.565625582142,2137.20875287879
0.69,4.38872864726571,0.0692586394722032,20.6041865024177,-3.30224262362228,2.32935137730761,-3.72019597057835,13.9795274871108,-15.4922599709917,-2.56639660896643,505.621836614718,2137.20875287879
0.7,4.31824578823368,0.0333483268155779,24.131480166715,-1.54652963867729,-4.07038195712345,1.44234167991609,-23.3125084540409,6.42238573585702,1.23797359975444,532.20769753224,2137.20875287879
0.71,4.39066334532308,0.0491701930978063,20.5137866816563,-2.32221335227927,3.82963861941839,2.1480713127157,16.6193312319912,12.2476915488335,-1.04841942321839,558.390817570094,2137.20875287879
0.72,4.42165544578779,0.0901118811409536,18.9674473880517,-4.3275405632694,-0.0921501231629362,-4.42161343710513,4.31879667460433,-18.9694402402569,3.14113168332803,584.459021832307,2137.20875287879
0.73,4.30148031670733,0.0330943824750642,24.9795965858233,-1.49868472964728,-4.05660080583578,1.43101993531345,-24.1077491874818,6.71138812935333,1.23935545139971,610.760454829918,2137.20875287879
0.74,4.25185929523067,0.0545790464243805,27.4640788541654,-2.59025817545912,1.97726725783687,3.76453191377551,10.1491365327887,25.6511226335644,-0.470796094307654,636.9941386455,2137.20875287879
0.75,4.29996352775326,0.0602243567332548,25.0624004018805,-2.8730165830883,3.90387457165591,-1.80362874282114,24.0648655558089,-7.56705913626432,-1.98958782339408,663.09422511597,2137.20875287879
0.76,4.28261598312543,0.0251193301923857,25.9333705541511,-1.10845445241121,-0.773338699802967,-4.21228891400599,-3.44179405326849,-25.7278532580328,2.96588886886481,689.121251180355,2137.20875287879
0.77,4.30292245577679,0.154876113640833,24.9217077983489,-7.58146182316102,-4.19988238206104,-0.948744564072948,-22.1604578470874,-13.6924866612969,1.82894293549077,715.060344667236,2137.20875287879
0.78,4.31951841762551,0.056686878253327,24.0955808557743,-2.6282167965599,-3.30003323681128,2.78769320376418,-20.2789935989941,13.2765567418226,0.882482483393286,740.938093638864,2137.20875287879
0.79,4.21934480808904,0.178273391402761,29.1080218372594,-8.68450495269064,-0.354705040463784,4.20818682402526,-12.2823754021472,27.7820232530391,0.126316835213861,766.839988745861,2137.20875287879
0.8,4.21889878652017,0.0570704654802729,29.1341565366237,-2.7065405907554,1.84783355399344,3.79313526856972,9.95486207053647,27.5140902125892,-0.439789994934342,792.961569616805,2137.20875287879
0.81,4.19265368480315,0.106489533693832,30.4502350254662,-5.10767429999088,3.12682584763964,2.79511092087817,18.6798488525146,24.5839052371288,-0.815960672895755,818.690023286154,2137.20875287879
0.82,4.15605528900629,0.0528018781714785,32.2841927637655,-2.48976583672953,3.5318308470806,2.19129059488364,25.8751709516939,19.4664728328049,-1.00277841256262,844.600669494063,2137.20875287879
0.83,4.1991399387142,0.17038187181172,30.1339929742176,-8.28267128477627,-1.44413385085158,-3.94668007671908,-1.31180644436016,-31.2240186400532,2.83136726566997,870.228146016923,2137.20875287879
0.84,4.13699673185272,0.132631866878197,33.2453437035773,-6.46325391016367,-0.624689297596463,-4.09171070005445,2.45537566344498,-33.7786568623975,3.02213958108637,896.084971529368,2137.20875287879
0.85,4.13188552248532,0.129865056041282,33.5050340765013,-6.29420459258458,0.935868497016727,-4.02659819947261,14.689589011553,-30.7639447176803,-2.88180589713511,921.722722427356,2137.20875287879
0.86,4.20216767938369,0.152386937036847,29.9951079990659,-7.33912454285526,2.99070244693685,-2.95586431659545,27.0502447559982,-14.8947477847648,-2.3140880250337,947.310363606193,2137.20875287879
0.87,4.09825685156287,0.183343812473199,35.1948839527972,-8.90569464255564,4.10025126241398,-0.131391628449995,35.0791951618637,9.35100637969986,-1.5581229262346,972.989993963306,2137.20875287879
0.88,4.11152209707897,0.117111137421888,34.535834509123,-5.59364815531246,2.4649089045812,3.29280322299909,15.3290893837019,31.4488757127093,-0.6141122919691,998.682043772724,2137.20875287879
0.89,4.11075559620099,0.177909269533245,34.5785227376998,-8.62520916825269,-1.88006255705963,3.65996284973304,-24.6095033631769,25.7767494485925,0.517786374586538,1024.25143265387,2137.20875287879
0.9,4.01255724093132,0.177531416223539,39.4928698313043,-8.58746796291417,-3.91789632362037,-0.884432819867434,-35.8420892954094,-18.6755457340962,1.83703179955652,1049.76142279194,2137.20875287879
0.91,4.0578707383584,0.212892829915878,37.2316571272587,-10.3385308044987,0.60415885300151,-4.01828699405541,17.5860534590909,-34.4065725606507,-2.93994202081983,1075.28338657936,2137.20875287879
0.92,4.04881678145201,0.0952369691886021,37.6888259004581,-4.57711370619326,3.8684602327118,1.1987505320103,34.2704867927732,16.3380323974713,-1.24678417231603,1100.90172195996,2137.20875287879
0.93,4.09763897131034,0.0938418557826486,35.2522392530948,-4.42905423103745,-2.34825108021143,3.35934045571208,-24.4241184483557,25.8030876400403,0.632966369274868,1126.25260002607,2137.20875287879
0.94,3.92185241978758,0.188977718232837,44.0460670129844,-9.12919956870547,-1.8503243513516,-3.46308226517613,-10.6132777391071,-43.7122024120284,2.69903173639329,1151.61639254372,2137.20875287879
0.95,4.02251002805879,0.0702606736367686,39.017627485827,-3.27551548672935,3.92479917701123,0.884010694632924,37.1330767372394,12.419294197049,-1.33179104811516,1177.09922079908,2137.20875287879
0.96,3.85798175686074,0.20276981473911,47.2484960392094,-9.81403121582522,-3.35879077143807,1.90883822985136,-46.6414536571289,12.3818571879292,1.10651363317106,1202.41069192934,2137.20875287879
0.97,3.99274107782495,0.212430610059103,40.5149173191813,-10.3281246701522,-3.76369206164116,1.34971483794917,-41.7745097329626,1.73753306527375,1.27962184666732,1227.75761058786,2137.20875287879
0.98,4.04336909195364,0.0999621828758039,37.9878946108234,-4.77258703812294,3.22587905967828,-2.43978079837113,33.6392733807986,-18.2826970223591,-2.193609352475,1253.16097062542,2137.20875287879
