t,iq,id,vq,vd,ia,ib,va,vb,theta_e,omega,r
0,0,0,0,0,0,0,0,0,0,0,0
0.01,0.000736603139728624,0.000422149339857719,-0.036332229123922,-0.0211332187198517,8.76858886216414e-05,0.000844455703715125,-0.00460948360523891,-0.0417779423555935,0.41694096568083,-0.00087573352366202,0
0.02,0.000817407349004067,0.000468371100886798,-0.0403779851201223,-0.023447133859302,9.72312124122161e-05,0.000937055149756202,-0.00508708604340119,-0.0464141284973,0.416934354613849,-0.000952989353160236,0
0.03,0.000849115104363766,0.000486513005812808,-0.0419421309614334,-0.0243553269694394,0.000100985336986157,0.000973392688999406,-0.00528439505242456,-0.0482120261999456,0.416927468449426,-0.000970004771535961,0
0.04,0.00083088344935315,0.0004761725405554,-0.0410550174500766,-0.0238376812734146,9.89198911196862e-05,0.000952534749984924,-0.00517064188808502,-0.0471912488580688,0.416920891216124,-0.000927570179112331,0
0.05,0.000849449389707919,0.000486826034991083,-0.0419738800413592,-0.0243710139667291,0.000101149030996397,0.000973823766165514,-0.00528651799735897,-0.0482473383199169,0.416914273499835,-0.000929521082303536,0
0.06,0.000850108594774543,0.000487256449493692,-0.0420138045650897,-0.0243925482743451,0.000101281989844648,0.00097460013801346,-0.00529035538929671,-0.0482925286685709,0.416907756392419,-0.000910123230497531,0
0.07,0.000872814773031763,0.000500358988116122,-0.0431354821632335,-0.0250484790075691,0.000104074024367229,0.00100066644915431,-0.00543620902771279,-0.0495837045152365,0.416901446254735,-0.000918035299572448,0
0.08,0.000850863089760351,0.000487802090130421,-0.0420654503265238,-0.0244198710821803,0.000101487663008388,0.000975509677506704,-0.00529503387430199,-0.0483507479891836,0.416895157285504,-0.000871994196688279,0
0.09,0.000849849103435982,0.000487291245509034,-0.0420227590297653,-0.0243942990200378,0.000101437092222439,0.000974375067867679,-0.00528923288182809,-0.0483013262413624,0.416889067847537,-0.000851897915258204,0
0.1,0.000849705911481984,0.000487269001323548,-0.0420226409111465,-0.0243931836188334,0.000101480530247924,0.000974234529073404,-0.00528854819830847,-0.0483007351306733,0.416883118486389,-0.000833288877029218,0
0.11,0.000849601020519378,0.000487266608263006,-0.0420242452119896,-0.0243930620372155,0.000101526478147176,0.000974137062137938,-0.00528806829198443,-0.0483021220540897,0.41687730375542,-0.000815143474082036,0
0.12,0.000849500087690121,0.00048726505396291,-0.0420258904493543,-0.0243929797587988,0.000101571461111358,0.000974043566831949,-0.00528760141245998,-0.0483035630246595,0.416871620516119,-0.000797410165856384,0
0.13,0.000889881721963684,0.000510464775241069,-0.0440143732830403,-0.0255543769270158,0.000106439607687949,0.00102035992461592,-0.00554468610293897,-0.0505919726008651,0.416865886721014,-0.000828488605614468,0
0.14,0.000931388366956133,0.000534508129099598,-0.046135092660504,-0.0267580271705448,0.000111624022596743,0.00106804649138232,-0.00578688318746687,-0.0530184003514583,0.416860287218915,-0.000861344341872312,0
0.15,0.000852605170565317,0.000489176759418831,-0.0421978379461975,-0.0244886860557671,0.000102078664877425,0.000977655064430735,-0.00530630663122479,-0.0484994472340344,0.416854773321477,-0.000748960361159927,0
0.16,0.000849249794480051,0.00048733687663461,-0.0420391782012485,-0.024396589307341,0.000101759930760125,0.000973841548325024,-0.00528658602350305,-0.0483170578769392,0.416849590624184,-0.000728841673454655,0
0.17,0.000849024644229281,0.000487260957523537,-0.0420339958382731,-0.0243927749730448,0.000101786595380244,0.000973604424926422,-0.00528544086348209,-0.0483107482026122,0.416844533687098,-0.000712898970909577,0
0.18,0.000848931162057596,0.000487256610773048,-0.042035141425649,-0.0243925631545712,0.000101825280982946,0.000973516684401065,-0.00528502212812216,-0.0483116838148839,0.416839591456631,-0.000697471097231021,0
0.19,0.000848845014142982,0.000487255195473699,-0.0420365165209922,-0.0243924968468505,0.000101863567956025,0.00097343684801572,-0.00528463813302229,-0.0483128887921874,0.416834760998645,-0.00068239849097148,0
0.2,0.000848761194536994,0.000487253927032936,-0.042037878476302,-0.0243924363677683,0.000101900939475316,0.000973359210823492,-0.00528425952178964,-0.048314084696394,0.416830039771638,-0.000667666983997184,0
0.21,0.000848679353797344,0.000487252691882705,-0.0420392129969906,-0.0243923556633386,0.000101937435633012,0.000973283407094452,-0.00528386837736738,-0.048315247895295,0.416825425304729,-0.000653268608689614,0
0.22,0.00084859925947762,0.000487251484801415,-0.0420405113197452,-0.0243922952026285,0.000101973148160453,0.000973209221946337,-0.00528350536755498,-0.0483163867472394,0.416820915184134,-0.000639195821460847,0
0.23,0.000848520678748909,0.000487250304974911,-0.0420417645483557,-0.0243922549800775,0.000102008172915976,0.00097313644193453,-0.00528317420225108,-0.0483174931024072,0.416816507049803,-0.000625441259419159,0
0.24,0.000848444193302511,0.000487249151781798,-0.0420430045808394,-0.0243921959879008,0.000102042276119517,0.000973065598479968,-0.00528282641015931,-0.048318580322861,0.416812198595862,-0.00061199772658644,0
0.25,0.000848369454083023,0.000487248024621598,-0.0420442165735805,-0.0243921355479062,0.000102075600774217,0.000972996371958991,-0.00528248394777848,-0.0483196418365765,0.416807987568234,-0.000598858189722609,0
0.26,0.000856930452162851,0.00049219004845596,-0.0424691124999309,-0.0246395318796947,0.000103132673223778,0.000982824753125818,-0.00533688294772054,-0.0488082956902268,0.416803894646525,-0.000596530635917554,0
0.27,0.000828831530670018,0.000476072675267817,-0.0410948333584087,-0.0238326754817477,9.97746144730963e-05,0.000950606082810439,-0.00515566038002846,-0.0472250030748489,0.416799794685031,-0.000549836624549875,0
0.28,0.000825856560631345,0.000474351224002605,-0.0408810197870237,-0.0237465098792058,9.94086451269461e-05,0.000947188504852455,-0.00516361610328291,-0.0469945909547914,0.416795855441438,-0.000534031410165163,0
0.29,0.000847162083001644,0.000486720825175834,-0.0420033969576299,-0.0243657347092314,0.000102097798061985,0.000971677310719162,-0.00527563720774884,-0.0482715447852365,0.416792072499593,-0.000548080335756072,0
0.3,0.00084254527124415,0.000484148870278159,-0.0417808524679015,-0.0242369862521571,0.000101618405929734,0.000966414177391762,-0.00524817022725414,-0.0480159124124239,0.416788592360298,-0.000531711783993286,0
0.31,0.000847732420112135,0.000487116366435995,-0.0420396655707574,-0.0243855511322546,0.000102235534349714,0.000972358219009441,-0.00527941969435398,-0.0483126930838656,0.416784929517456,-0.000526636013321137,0
0.32,0.000847886559528381,0.000487235800282099,-0.0420513899188472,-0.0243915186591486,0.00010228584009079,0.000972547145295452,-0.00528030376334017,-0.0483258105857871,0.41678133571676,-0.000515685873468534,0
0.33,0.000847833124754639,0.000487239742715202,-0.0420528325647424,-0.0243917229095252,0.000102314492967477,0.000972499521254998,-0.005280076296737,-0.0483271938717111,0.416777822610298,-0.000504734964372199,0
0.34,0.000847772355568722,0.000487239021385095,-0.0420538224743165,-0.02439169145867,0.000102341772804187,0.000972443310618229,-0.00527981275027063,-0.0483280681823551,0.416774388921573,-0.000494021385100394,0
0.35,0.000847712866743576,0.000487238130801547,-0.0420547848535894,-0.0243916325242982,0.000102368303687735,0.000972388210001383,-0.00527953147100947,-0.0483289066059715,0.416771032876843,-0.000483549642713821,0
0.36,0.000847654658683554,0.000487237252804835,-0.0420557214224433,-0.0243915923486696,0.00010239425345907,0.000972334293217767,-0.00527927413096886,-0.0483297294252297,0.416767752722021,-0.000473314678088524,0
0.37,0.000847597614775984,0.000487236394331467,-0.0420566284151248,-0.024391552175172,0.00010241967735892,0.000972281456279385,-0.00527902518604015,-0.0483305255945678,0.416764546740702,-0.00046331115399927,0
0.38,0.000847541967851509,0.000487235555233851,-0.0420575194243824,-0.024391512002971,0.000102444482655078,0.000972229911866108,-0.00527877921373247,-0.0483313075338962,0.416761413255497,-0.000453533837632035,0
0.39,0.000847487485079486,0.000487234735086608,-0.0420583847598104,-0.0243914718327132,0.000102468764824823,0.00097217944674661,-0.0052785402162107,-0.0483320663737455,0.416758350627323,-0.000443977613825976,0
0.4,0.000847434282875235,0.000487233933462991,-0.0420592321251223,-0.024391431663892,0.000102492477931822,0.000972130167044248,-0.00527830515165252,-0.0483328091496374,0.416755357253796,-0.000434637483059811,0
0.41,0.000847382361236973,0.000487233149945223,-0.0420600633584384,-0.024391390041006,0.000102515623137974,0.00097208207243716,-0.00527807202047022,-0.0483335369448075,0.416752431568818,-0.000425508558865063,0
0.42,0.00084733160375292,0.000487232384124671,-0.0420608745222695,-0.0243913498746516,0.000102538248699834,0.000972035056164065,-0.00527784515169363,-0.0483342473287886,0.41674957204185,-0.000416586065269806,0
0.43,0.000847282010421318,0.000487231635601956,-0.0420616673635388,-0.0243913097095015,0.000102560355725568,0.000971989117916653,-0.00527762257943992,-0.0483349413018656,0.416746777176861,-0.000407865334299296,0
0.44,0.000847233464826845,0.000487230903986935,-0.0420624377175955,-0.0243912695456691,0.000102581992420683,0.000971944150943576,-0.00527740606000222,-0.0483356150480568,0.41674404551168,-0.000399341803535923,0
0.45,0.000847185850757345,0.00048723018889817,-0.0420631815892601,-0.0243912495811657,0.000102603206882583,0.000971900048685359,-0.00527721574866903,-0.0483362730822701,0.416741375617071,-0.000391011013729688,0
0.46,0.000847139517052837,0.000487229489962478,-0.0420639179632227,-0.0243912094182255,0.000102623858938717,0.000971857129838608,-0.00527700708778623,-0.048336916404503,0.416738766096453,-0.000382868606467878,0
0.47,0.000847094231085459,0.00048722880681555,-0.0420646368869916,-0.0243911692562678,0.000102644043762591,0.000971815181405,-0.00527680264232392,-0.0483375440832105,0.416736215584373,-0.000374910321892638,0
0.48,0.000847050109270532,0.000487228139101307,-0.0420653457469733,-0.0243911290946774,0.000102663715217971,0.000971774309562146,-0.00527659948614673,-0.0483381628652602,0.416733722746489,-0.000367131996474442,0
0.49,0.000847006686151276,0.000487227486471349,-0.0420660227904776,-0.0243911091282898,0.00010268306267308,0.000971734088420403,-0.00527642495352483,-0.0483387610270158,0.416731286278857,-0.000359529560831687,0
0.5,0.000846964426980348,0.000487226848584766,-0.0420666928001842,-0.0243910689677468,0.000102701898745567,0.000971694943151423,-0.00527623214176179,-0.0483393448747569,0.416728904906521,-0.000352099037603925,0
0.51,4.68408420769382,0.0215001941175874,5.79694934891867,-1.07283147129795,-0.222258362681016,4.67885758955454,-1.37301387955081,5.73327323666828,0.0520570376488578,16.0856178880815,3026.31192188404
0.52,4.66453242079466,0.00237614967296884,6.77584699636323,-0.11132674934955,-1.09076870499666,4.53520583688675,-1.69606746955833,6.56108613736715,0.236537880060772,34.2480336938156,3026.31192188404
0.53,4.62834040532872,0.0315941614136339,8.58678946113704,-1.56978720458774,-2.41037346945062,3.95128242933892,-5.85621499527698,6.47317009251839,0.554582966750277,52.5704128696191,3026.31192188404
0.54,4.62876747028829,0.0403884925909026,8.5668320659102,-2.0053390248363,-3.89491343778446,2.50135340096094,-8.3173382328356,2.86947398849506,1.00864201637075,71.4414628954278,3026.31192188404
0.55,4.63025940259937,0.00154543396491791,8.49363775949852,-0.0571894208586877,-4.62756032007783,-0.158082281635839,-8.4866173060766,-0.349971026855667,1.60527785785553,91.6126167516022,3026.31192188404
0.56,4.61112506994228,-0.0201206924572368,9.45176413873691,1.02910223259093,-3.25936346336241,-3.26181376945609,-7.43478254448229,-5.92612059071516,2.3522067533867,111.860804613641,3026.31192188404
0.57,4.62899567592345,0.0251443157205702,8.55969113934871,-1.23129558123662,0.432958213645956,-4.60877211300012,2.07212503512424,-8.39587392998662,-3.0424934830474,130.359632296206,3026.31192188404
0.58,4.61738868442239,-0.0160935401104568,9.1415664387675,0.839893657944528,4.16601675638769,-1.99119101307791,7.86926379440019,-4.72740368967978,-2.02014271295596,148.763568362401,3026.31192188404
0.59,4.6134319637955,-0.0520276751925369,9.34094524639446,2.63710576421689,3.45025618809108,3.063036663198,8.78328949151611,4.13054604332502,-0.856055882041069,169.006748260488,3026.31192188404
0.6,4.56612953092549,0.0118465321272381,11.7076028426392,-0.553374046183569,-1.98386382103698,4.11265894198556,-5.61176113154179,10.2899137099628,0.452046820961033,187.589455036997,3026.31192188404
0.61,4.58205851874286,0.0532757419866443,10.9126748752909,-2.62201405853948,-4.35963996785732,-1.41125402551394,-9.50602120593327,-5.96632143697697,1.89548648721874,206.728403482545,3026.31192188404
0.62,4.61278903709095,-0.00390417089339598,9.37773183639324,0.242160053082818,1.55121472480433,-4.34414212714168,2.91799394051023,-8.91548132462617,-2.79946911435762,226.052847548161,3026.31192188404
0.63,4.63216689103551,0.00460276497427725,8.41043442754832,-0.176916114021354,4.07611693208714,2.20051404171924,7.31266139035386,4.1583277842804,-1.07478131400143,245.004676092504,3026.31192188404
0.64,4.67183693082656,0.0620429441411814,6.42852446101967,-3.04930790656294,-3.28582840116909,3.32163233263756,-6.72041532026998,2.33671208710786,0.793258926369437,264.115072069092,3026.31192188404
0.65,4.60502255083634,-0.00744735552501818,9.77091953705252,0.426327150781544,-1.54060512486577,-4.33968017324467,-3.68526322299378,-9.05932990989387,2.79884941170219,283.581682390466,3026.31192188404
0.66,4.60400170564394,0.027227129073208,9.82368782484012,-1.29488169676909,4.48576785026348,1.03704378676717,9.25886826810057,3.52915279953986,-1.33768871276384,302.044909904894,3026.31192188404
0.67,4.6129172769945,0.0458528179253772,9.37967912093403,-2.22888403451754,-3.72292310149132,2.72414240921584,-8.92256568483635,3.65159226239648,0.94903630063441,321.407297145607,3026.31192188404
0.68,4.62655447799652,0.0137702693484836,8.69957739305842,-0.624483844677622,1.05370935145809,-4.50498530084587,2.6141913432127,-8.3209753341269,-2.90884844585102,340.7235470577,3026.31192188404
0.69,4.55036291991267,0.0360563819004435,12.5109441193045,-1.73335667039473,1.56757003752794,4.27198161782522,2.58466030497092,12.3631621849375,-0.34376390922235,359.508310740034,3026.31192188404
0.7,4.57147609039497,0.0850628077473798,11.4570666617133,-4.17399162800315,-3.27585442956311,-3.18973464141243,-5.09141234299509,-11.0798963422579,2.36148071396801,378.300400273309,3026.31192188404
0.71,4.61763575656648,0.0627481858949933,9.15093804560343,-3.05413629658403,4.09571523825735,2.13345119519077,6.61006516298704,7.02669582191014,-1.07698220130578,397.351337463524,3026.31192188404
0.72,4.54674484228666,0.0923494596019068,12.6973440961703,-4.53607137921719,-4.32273310851974,-1.4125847075685,-10.4904503198321,-8.47047476479554,1.9069460691444,416.4544059348,3026.31192188404
0.73,4.62153477917535,0.0743963075413823,8.95969802907637,-3.63380666342547,4.41341538311212,1.37327461995498,7.37581486356293,6.25124745453533,-1.25303711432919,435.53155064455,3026.31192188404
0.74,4.58102260162627,0.0962336719259042,10.9871734854667,-4.72451889297365,-4.18803310452535,-1.85887269914398,-7.93962895549105,-8.944347489836,2.00953092796869,454.553089313094,3026.31192188404
0.75,4.52341440671889,0.056605107370413,13.8695337659817,-2.7370239462926,3.49936975454011,2.86686123732948,8.85708274982028,11.0185004483878,-0.871913712739066,473.497314829068,3026.31192188404
0.76,4.58395201838609,0.0973489769729938,10.84456945397,-4.76917987659147,-2.17350790917027,-4.03707273887379,-0.69064996725787,-11.8267817245433,2.66894270689708,492.42205770968,3026.31192188404
0.77,4.59961216825889,0.0723201115205014,10.0635375059688,-3.50860742899503,-0.22930515106494,4.59446204082923,-4.16065186517918,9.81193606183922,0.065589447274725,511.329239203863,3026.31192188404
0.78,4.54971822754215,0.0442979101603971,12.5602526915309,-2.10133623886054,3.04431813179392,-3.38142357111685,10.0423398475137,-7.83115394120794,-2.39887205730802,530.325468784253,3026.31192188404
0.79,4.59074314302365,0.0907849523896425,10.5110426955962,-4.44525301889716,-4.58933924944283,0.1453608142608,-10.5631521842352,-4.31996630581151,1.55890640760104,549.50882072868,3026.31192188404
0.8,4.57745097569462,0.0951295967434533,11.1777155992417,-4.65531473155047,2.76448341885173,3.64962169299203,2.79406408607558,11.7816164913914,-0.627486341507962,568.435819420527,3026.31192188404
0.81,4.56673978366856,0.0370424299343499,11.7152889972175,-1.73195618031129,2.01993642084073,-4.09589321749454,6.81379787384455,-9.68606354683033,-2.67531970508413,587.164874181513,3026.31192188404
0.82,4.57874022120237,0.0980703144666151,11.1173783717019,-4.77778095234454,-4.55389650981815,-0.486319213790647,-10.4177482941351,-6.15579508822516,1.69860035177901,606.108087414435,3026.31192188404
0.83,4.57868262233718,0.0860182526945983,11.1223582305157,-4.19028625314086,0.413697915758848,4.56076613414741,-3.38300394484409,11.3938858955297,-0.0716759562828511,625.203022747615,3026.31192188404
0.84,4.58890536859008,0.0631762183473491,10.6133494214108,-3.02487035216178,4.54015311290119,-0.670114488616084,10.9203793479126,1.59321733797775,-1.70356935762187,643.844946014934,3026.31192188404
0.85,4.53406707038186,0.0897739667181054,13.3574674038177,-4.37714448006696,-0.341220721184591,-4.52210039508807,3.62922545066434,-13.5797662671963,3.08607641648454,662.982122998211,3026.31192188404
0.86,4.53931828133141,0.0386678636413882,13.0970661614387,-1.79403187512563,-4.48728411429537,-0.686430579520259,-12.6427476230902,-3.86168680046885,1.73111020660224,681.628562470802,3026.31192188404
0.87,4.5898112645862,0.0476836316102497,10.5746128091733,-2.26156568044655,-2.21638240143658,4.01948880130896,-7.17103053779952,8.09403709015794,0.514312996577854,700.736403508449,3026.31192188404
0.88,4.52995367383806,0.0787484752324967,13.5696590042173,-3.78972902304517,2.48805212084557,3.78632780585969,4.05086485386033,13.494005539298,-0.563978407151033,719.36157143627,3026.31192188404
0.89,4.5100903378031,0.125950022332927,14.5650566385169,-6.16850086721422,4.5084210873502,0.17583390573661,14.1201066795031,7.12838447275959,-1.50389584882343,738.410033236014,3026.31192188404
0.9,4.51224414104318,0.092696385762892,14.4596073354192,-4.50919212407903,3.28504158988253,-3.09474418345912,13.7501437406848,-6.35189774924572,-2.3058347395207,757.258219465443,3026.31192188404
0.91,4.50333443665575,0.0766684842983452,14.9073998045477,-3.67606646003707,0.696010016811679,-4.44988417392543,6.17575972906267,-14.0571698901353,-2.96941575043458,775.908138992228,3026.31192188404
0.92,4.55792476447788,0.0944416384591249,12.1801710089137,-4.57332558957818,-1.66606589976295,-4.24356239489449,0.0752388066326315,-13.0102348893726,2.78819032864742,794.85498316235,3026.31192188404
0.93,4.49518577641937,0.0371034759547905,15.3194513769089,-1.71401920618398,-3.06211115912263,-3.29113158072229,-9.07783246120339,-12.4585878066082,2.40048054784887,813.776755697456,3026.31192188404
0.94,4.48928313137392,0.0789773568656946,15.6169738650495,-3.81201118824736,-3.79882414206168,-2.39349860961424,-10.9760273392704,-11.7451320064336,2.15061878924464,832.555317452092,3026.31192188404
0.95,4.46985946143867,0.0777445173046005,16.5905329308553,-3.7281209076676,-4.46803759067685,-0.149425243122851,-16.3797229323585,-4.56610830917893,1.62161831793614,851.25403614877,3026.31192188404
0.96,4.47943388435224,0.0787765267256009,16.1142501928044,-3.76246923060523,-4.47235517118273,-0.263766730731943,-15.7796057180016,-4.98289849103491,1.64728968783634,869.959044276784,3026.31192188404
0.97,4.49914293313473,0.0819441193984449,15.1312355633182,-3.91672470904448,-4.38993240671387,-0.9886836885291,-13.7685152017593,-7.39750033849193,1.81052775682107,888.713748989494,3026.31192188404
