t,iq,id,vq,vd,ia,ib,va,vb,theta_e,omega,r
0,0,0,0,0,0,0,0,0,0,0,0
0.01,0.000711916088864666,0.000403688787926521,-0.034903646013705,-0.0202096380504133,-0.000745191229571468,0.000338347730082101,0.0365724366082692,-0.0170044363538715,1.66042227513701,-0.00174224412329505,0
0.02,0.000789049647805955,0.000447510434168435,-0.0387924195374076,-0.0224034526424331,-0.000825932659503952,0.000375100223083179,0.0406417182938366,-0.0188419011246852,1.6604093792218,-0.00182940763061438,0
0.03,0.000818794087315575,0.00046458794970983,-0.0402726036951827,-0.0232583912926091,-0.000857081027239277,0.000389458384407108,0.0421922210759336,-0.019561489068803,1.66039643496738,-0.001794472957359,0
0.04,0.000800568765992383,0.000454820533325289,-0.0394168506546526,-0.0227694117337951,-0.000838050315441827,0.000381370863340033,0.0412959203751306,-0.0191515322260426,1.66038461278921,-0.00164601387171066,0
0.05,0.000817781209188796,0.000464858687502934,-0.0402837130052763,-0.0232719598079354,-0.000856087356759141,0.000389838611538656,0.0422040439459813,-0.0195749922451915,1.66037313983924,-0.00159155323374756,0
0.06,0.00081778816415713,0.000465236381014837,-0.0403121685891376,-0.0232908535239412,-0.000856123835319644,0.000390223461945659,0.0422338629504372,-0.0195917231124886,1.66036228470681,-0.00149822506120883,0
0.07,0.000839248163704469,0.000477842781432314,-0.0413819101462488,-0.0239219735996085,-0.000878621376723026,0.000400868657310132,0.0433555654015704,-0.020125065390272,1.66035222077279,-0.0014667872652645,0
0.08,0.000817403092550527,0.000465723318169002,-0.0403445120682998,-0.0233152316648675,-0.000855776148748677,0.000390759783025829,0.0422678701610715,-0.0196139448776229,1.66034254537303,-0.00132749366613526,0
0.09,0.000815951827496338,0.000465261125305517,-0.0402971280794046,-0.0232920898652539,-0.000854285868017762,0.000390436877382643,0.0422184309698351,-0.0195955114295155,1.66033358619691,-0.0012467253781994,0
0.1,0.000815360314654003,0.000465241237774024,-0.0402901002165412,-0.0232911027706664,-0.000853691667632514,0.000390477129487757,0.042211178457765,-0.0195955111425906,1.66032518942234,-0.00117300105893154,0
0.11,0.000814836730746105,0.000465238272553714,-0.0402850197244295,-0.0232909538425132,-0.000853166840664682,0.000390527707099008,0.0422059507026962,-0.0195961493761742,1.66031731561843,-0.00110394829738705,0
0.12,0.00081434719833802,0.000465236086237059,-0.040280324225335,-0.0232908370006471,-0.000852676189225462,0.000390575590258919,0.0422011188671173,-0.0195967643822204,1.66030993204641,-0.00103919806507815,0
0.13,0.000853030498652249,0.000487429100154776,-0.0421805641432319,-0.0244018846459624,-0.000893185556192066,0.000409228202252081,0.0441929222937189,-0.0205338156429214,1.66030264259978,-0.00107584341455199,0
0.14,0.000893219514864785,0.000511012092572708,-0.0442637301892672,-0.0255825096271229,-0.000935318778543765,0.000429130799400624,0.0463731349824207,-0.021523823103535,1.66029582408601,-0.0011204046532464,0
0.15,0.000816208434285189,0.000466966460848486,-0.0404241163090014,-0.0233774777522274,-0.000854676587682858,0.000392150244450296,0.042351675568673,-0.0196710757699071,1.66028935013428,-0.000866989297197541,0
0.16,0.000812737429670517,0.000465294259581299,-0.0402699431934226,-0.0232937506468204,-0.000851067810948473,0.000390799768109095,0.0421905254934564,-0.0196017015226673,1.66028369038075,-0.000809406863403372,0
0.17,0.000812261419383841,0.000465229346667789,-0.0402604771591328,-0.0232905009775947,-0.000850585836675769,0.000390782155256572,0.042180703223701,-0.0195995339848287,1.66027839962462,-0.000762688323013042,0
0.18,0.000811927275166339,0.000465225489279578,-0.0402570547017944,-0.0232903231500856,-0.000850250745927448,0.000390812391160103,0.0421771813397638,-0.0195998719366062,1.6602734389438,-0.000719172735023529,0
0.19,0.000811618731742689,0.000465224034314335,-0.0402540765452265,-0.0232902408982197,-0.000849941488678414,0.000390842466528955,0.0421741165711759,-0.0196002523210015,1.66026878714292,-0.000678378329973641,0
0.2,0.000811329407555581,0.000465222751740329,-0.0402512817356991,-0.023290183809872,-0.000849651502143906,0.000390870747442091,0.0421712423388135,-0.0196006291446299,1.66026442496525,-0.000640124272364097,0
0.21,0.000811058127741711,0.00046522155193981,-0.0402486601798919,-0.0232901267065291,-0.00084937960114804,0.000390897265427595,0.0421685459869024,-0.0196009789968026,1.66026033437772,-0.000604251938340032,0
0.22,0.000810803728146006,0.000465220426788729,-0.0402461990878734,-0.0232900681331944,-0.0008491246188954,0.000390922131200948,0.042166014315695,-0.0196013022883221,1.66025649847093,-0.000570613022757693,0
0.23,0.000810565219241896,0.00046521937154674,-0.0402438914889259,-0.023290010999572,-0.000848885563229041,0.000390945442291275,0.0421636403319048,-0.0196016032123497,1.6602529013882,-0.000539068471870833,0
0.24,0.000810341669703057,0.000465218381874678,-0.0402417307054589,-0.0232899523952129,-0.000848661500376749,0.000390967290536584,0.042161416833529,-0.0196018800968523,1.66024952826072,-0.000509487890161125,0
0.25,0.000810131867879675,0.000465217453705156,-0.0402396936543777,-0.023289914545631,-0.000848451217745327,0.000390987792255195,0.0421593225421925,-0.0196021577313401,1.66024636514493,-0.000481749000583062,0
0.26,0.000818281766160067,0.00046993053293883,-0.0406436177690286,-0.0235258671739435,-0.000856988401194626,0.000394956497396979,0.0425826517153449,-0.0198012086633762,1.66024344133427,-0.000477533526324906,0
0.27,0.000790865673002419,0.000454357572752706,-0.0393177888980735,-0.0227462518468773,-0.000828289689115198,0.000381897247380428,0.0411924255468256,-0.0191432644678036,1.66024050511661,-0.000381886901525105,0
0.28,0.000787773289684281,0.000452544540702852,-0.0390703031451114,-0.0226554863632849,-0.000825046721170862,0.000380369853097165,0.0409377714726455,-0.0190750758074862,1.66023788319471,-0.000351400068010763,0
0.29,0.000808534296832135,0.000464733702505459,-0.0401898651752815,-0.0232657015665489,-0.000846812599646969,0.000390657835551023,0.0421073187592504,-0.0195829476611133,1.660235562115,-0.000384749502514882,0
0.3,0.000804088029038742,0.000462383144339618,-0.0399781270950818,-0.0231480137574811,-0.000842173474354692,0.000388715281029891,0.0418858811667044,-0.0194847156980996,1.66023381949029,-0.000358347200412854,0
0.31,0.000808946110416936,0.000465105774213958,-0.0402199619950045,-0.0232843273716368,-0.000847254475895405,0.00039099494094049,0.0421388825085777,-0.0195989750996691,1.66023166238585,-0.000352272377779799,0
0.32,0.000809012453255736,0.000465208463883118,-0.040228467768809,-0.0232894600699278,-0.000847328923827212,0.000391093031435199,0.0421477725403689,-0.0196034139695154,1.66022961273406,-0.000334817126354808,0
0.33,0.000808893000715877,0.000465211816936593,-0.0402276088447728,-0.0232896377448382,-0.000847209496003998,0.000391108669176782,0.0421468952175052,-0.0196037487021864,1.66022768960875,-0.000317973294600278,0
0.34,0.000808773886430792,0.000465211435922274,-0.0402264562489965,-0.023289605523829,-0.00084709011834949,0.000391120455716496,0.042145708995857,-0.0196038955578869,1.66022588617369,-0.000302158946689397,0
0.35,0.000808661651350685,0.000465210944886182,-0.0402253466617653,-0.0232895867467664,-0.000846977626461438,0.000391131422773548,0.0421445690123106,-0.0196040472265534,1.66022419501907,-0.000287328426039876,0
0.36,0.000808556517605013,0.000465210479321941,-0.0402243095744893,-0.0232895679480567,-0.000846872250955963,0.000391141691453719,0.0421435033008495,-0.0196041879577499,1.66022260915598,-0.000273421224809407,0
0.37,0.000808457786701846,0.000465210042526074,-0.0402233276064346,-0.0232895491298626,-0.000846773293868577,0.000391151333037381,0.0421424944219464,-0.0196043195827621,1.6602211220292,-0.000260379887103204,0
0.38,0.00080836534222362,0.000465209632895966,-0.0402224114564726,-0.0232895288368846,-0.000846680636704334,0.000391160361587742,0.0421415527813002,-0.0196044399562637,1.66021972749111,-0.000248150505327265,0
0.39,0.000808278602098198,0.000465209248749293,-0.0402215474712371,-0.023289509981498,-0.000846593697316467,0.000391168832341909,0.0421406649272387,-0.0196045534417254,1.66021841977745,-0.000236682527011029,0
0.4,0.000808197333492708,0.000465208888502808,-0.0402207385265977,-0.0232894911088061,-0.000846512241550339,0.000391176769136617,0.042139833488274,-0.0196046585614909,1.66021719348211,-0.000225928547044686,0
0.41,0.000808121070745863,0.000465208550670353,-0.0402199749807309,-0.023289472220357,-0.000846435803493247,0.000391184216405764,0.0421390487619158,-0.0196047563921178,1.6602160435364,-0.000215844111765503,0
0.42,0.000808049697442342,0.000465208233857839,-0.0402192637099788,-0.0232894533162517,-0.000846364265214025,0.000391191187214787,0.0421383175038828,-0.0196048465203034,1.66021496518656,-0.000206387535205094,0
0.43,0.000807982631503224,0.000465207936758614,-0.0402185876019924,-0.0232894329431927,-0.000846297045101494,0.000391197736044779,0.0421376224530539,-0.01960492921483,1.66021395397481,-0.000197519726768975,0
0.44,0.000807919592606654,0.000465207658146489,-0.040217943870041,-0.0232894332738583,-0.000846233862211542,0.000391203890269996,0.0421369627318873,-0.0196050269850057,1.66021300572153,-0.000189204029650508,0
0.45,0.00080786067574216,0.00046520739687205,-0.040217347753358,-0.0232894143281565,-0.000846174809520165,0.000391209643603734,0.0421363498717626,-0.01960509881504,1.66021211650671,-0.000181406069302378,0
0.46,0.000807805484167774,0.000465207151856468,-0.0402167893132204,-0.0232893953702541,-0.000846119490337968,0.000391215033530355,0.0421357756218841,-0.0196051649347362,1.6602112826547,-0.000174093611341545,0
0.47,0.000807753504726746,0.000465206922088607,-0.0402162521413773,-0.0232893956594331,-0.00084606739212095,0.000391220107800138,0.0421352252917445,-0.0196052461370519,1.66021050071831,-0.00016723642830363,0
0.48,0.000807704948825505,0.000465206706620171,-0.0402157554663757,-0.0232893766785268,-0.000846018724083371,0.000391224849341069,0.042134714530322,-0.0196053024780008,1.66020976746565,-0.000160806174692457,0
0.49,0.000807659255809483,0.00046520650456142,-0.0402152794128627,-0.0232893754883149,-0.000845972926546263,0.000391229309908822,0.0421342267915817,-0.019605372772939,1.66020907986545,-0.000154776269806353,0
0.5,0.000807616637089443,0.00046520631507817,-0.0402148421628491,-0.0232893564866433,-0.000845930208890518,0.000391233472211562,0.0421337769501334,-0.0196054200582703,1.66020843507545,-0.000149121787862732,0
0.51,4.61912517182791,-0.0221035058890323,9.04495493093409,1.11531668428875,-0.54204492010418,4.58726424163423,0.0898243872939837,9.11301665686665,0.112832436781718,34.7927030687908,1174.57731281366
0.52,4.67342706094336,0.0257403320043861,6.331239290891,-1.26898914433424,-2.26974173185049,4.08532196152834,-4.2111508759768,4.8950110016955,0.512628405132221,74.3882377701533,1174.57731281366
0.53,4.62370378520188,0.0119260428443868,8.81890163107585,-0.565660065819465,-4.31937693946911,1.64977628136987,-8.44698103170606,2.59644155309785,1.20852776045425,116.139532351912,1174.57731281366
0.54,4.59577661720716,-0.00190211422063857,10.2168629890742,0.130729670034816,-3.65276339867101,-2.78899370501907,-8.20230832515629,-6.09290716515633,2.22248654009659,159.688069118799,1174.57731281366
0.55,4.58757194137202,-0.00863347325648767,10.6288214202274,0.484551049737162,1.77891807103032,-4.22863350867465,3.65608396033947,-9.99198101368466,-2.74526537143458,199.160785659344,1174.57731281366
0.56,4.62548977952434,0.0295149717040142,8.73470684469585,-1.42353602467305,4.19319779981057,1.9527209339029,7.28534477669418,5.02447111256631,-1.12859245352958,241.909058311742,1174.57731281366
0.57,4.591539976058,0.0523144003439491,10.4340026989741,-2.54416202749372,-3.22485008652395,3.26884047754988,-9.20261914076354,5.53651277379474,0.790017096045906,282.237613246506,1174.57731281366
0.58,4.53525807073577,0.0654312768918472,13.2499856279659,-3.19244952092598,-0.646852141171423,-4.48936847759588,1.4658263991578,-13.5500998539677,3.01291842612571,323.161451117571,1174.57731281366
0.59,4.54640429838879,0.0496430844582125,12.6946151537731,-2.39510200977664,3.12432110195023,3.30316123314486,6.86418238073174,10.9440745512672,-0.746662287568174,364.55821990346,1174.57731281366
0.6,4.62282930050599,0.0247435276596186,8.87541947947676,-1.1376495203299,-4.0537025219835,-2.22230934998761,-7.20746731352337,-5.30280419139483,2.07762214967302,405.649227674978,1174.57731281366
0.61,4.52223473763255,0.0474479940941577,13.9072181429691,-2.26327670192734,4.01198891361416,2.08729568854803,11.2037654018697,8.54451746592416,-1.08057702840431,446.535391150081,1174.57731281366
0.62,4.52992604965416,0.0203070413153805,13.5247448898003,-0.889343016211703,-3.25368952683168,-3.15184816484681,-9.05033663541006,-10.0896512387901,2.34477970733686,487.504412674204,1174.57731281366
0.63,4.52065258697191,0.064779639085657,13.9906408630896,-3.13309813737524,1.01708438018409,4.40522820944857,-0.110842117486749,14.336737764337,-0.2125764254033,528.999703257039,1174.57731281366
0.64,4.44321982998111,0.078279105392262,12.1989826596112,-3.78583218008824,2.70277839751562,-3.52750889577918,10.5529337948591,-7.19606083538819,-2.47018788338517,569.258300756739,1174.57731281366
0.65,4.21958467659751,0.0835187209539585,11.6217707219803,-4.06426517938338,-4.0836014834625,-1.06586544366032,-10.0807008239163,-7.06847063100067,1.84590178887248,608.107899080713,1174.57731281366
0.66,3.92864180831213,0.0341881474471601,14.7830393634811,-1.57334640226222,-0.574849142042046,3.88650791216709,-3.84453746782775,14.3608218212682,0.155546307343335,644.486754802487,1174.57731281366
0.67,3.75809537759042,0.0288837512056496,12.5545230571925,-1.32753202710766,3.60265132663342,1.07005539896617,11.6193028426757,4.93661745801351,-1.27439116932078,679.395172737624,1174.57731281366
0.68,3.50882070953571,0.063369615556673,14.9874184194656,-3.06426258233136,2.16816860259086,-2.75950781672777,11.8457145904176,-9.67943499879921,-2.45756889974983,712.085398066352,1174.57731281366
0.69,3.29718029743493,0.0645224725358091,15.9494823730094,-3.08797091091344,-0.927689548809576,-3.16464107985166,-1.20664725766688,-16.2007887063917,2.87600580785091,742.852227012027,1174.57731281366
0.7,3.16178125102919,0.0702365799648514,13.5639429667899,-3.37358573883845,-2.68927768805351,-1.66420532779535,-9.53418548082377,-10.2206133260618,2.14715696755251,772.072805930929,1174.57731281366
0.71,2.94356725545665,0.100434837877209,15.8096714838479,-4.88994589720624,-2.94456894552832,-0.0647230182102322,-15.510711114991,-5.7684594140976,1.62688013927389,799.740542918056,1174.57731281366
0.72,2.77761443096788,0.0948809935714285,15.8931911906031,-4.61553205559358,-2.65413111523723,0.824458824436778,-16.5478102848651,-0.258141731205599,1.30375979579989,825.967104415038,1174.57731281366
0.73,2.61146380394577,0.0910981256854242,16.4083576606642,-4.47311198346084,-2.36571429028259,1.10970174577453,-16.8464159117897,2.33263860549747,1.16706164435549,850.772482930264,1174.57731281366
0.74,2.48974910516268,0.0805732719823673,15.042413489021,-3.94606181636023,-2.2976617911411,0.962337234209809,-15.4612192704391,1.67221592643364,1.20651123019854,874.195663109142,1174.57731281366
0.75,2.36081065976546,0.0936966657766376,14.4424835887905,-4.58684552565227,-2.31662468124678,0.464172513919267,-14.98447734611,-2.25608571481585,1.41271652123633,896.192164538542,1174.57731281366
0.76,2.21597604255296,0.0888411936896113,15.0806909175665,-4.32676976405078,-2.18755669234951,-0.364744152278995,-13.8820394438405,-7.31007223096549,1.7760820951851,916.96492818291,1174.57731281366
0.77,2.1041297062124,0.0299724019484218,14.3453435029758,-1.43000350050019,-1.60516040887612,-1.36077927204256,-9.86901241528865,-10.5088716890393,2.2882279396437,936.868243347511,1174.57731281366
0.78,1.96295024909582,0.0351371264078379,15.3593232802746,-1.66218713307769,-0.425344146912646,-1.91663524301435,-1.42983153708389,-15.3826935050047,2.94110776146264,955.39620587487,1174.57731281366
0.79,1.79177191775683,0.0200000190478853,18.2715824248808,-0.941095435234685,0.972737648691874,-1.50486812473429,10.8741255338078,-14.7135916350299,-2.5565949394874,973.038612803614,1174.57731281366
0.8,1.72990362316331,0.0818823338687288,15.9411708531375,-4.01690026418346,-0.364460599971745,-1.69305632898069,1.34832789220245,-16.3840906917786,2.97685865332051,989.551290986825,1174.57731281366
0.81,1.61618808625852,0.00204080681388841,16.5706096458118,-0.0537024717439977,1.22732559140174,-1.0515417194514,12.6321253798781,-10.7246163743223,-2.27794769657139,1005.22830548385,1174.57731281366
0.82,1.58165595494662,0.0501389315498068,13.4196224646819,-2.42245235366846,1.45693964532532,0.617637711085063,11.1674120960067,7.82581941897152,-1.13814424169839,1019.87790527969,1174.57731281366
0.83,1.442039717602,0.0241677492259636,15.8284356442763,-1.16596009465655,-0.129004832350159,1.43646106124552,-2.83916446066403,15.615312454531,0.106324969012087,1033.84773701761,1174.57731281366
0.84,1.38366437466487,0.0413864225381612,14.3923675897968,-1.98107041295195,-1.36857055026141,0.207977370510391,-14.5262413280721,-0.230646264913426,1.44988517887408,1046.89117899487,1174.57731281366
0.85,1.28369143319258,0.0640133047121036,15.2490308994378,-3.13713767201274,-0.385590062969741,-1.22608388871691,-0.808794744992172,-15.5473607794263,2.88672195614998,1059.22760755312,1174.57731281366
0.86,1.21168616963999,0.0403087045182401,14.9500060263048,-1.98363235423939,1.14516991090702,-0.3979874878812,14.8653918112795,-2.5411815756611,-1.87201978441247,1070.90889372295,1174.57731281366
0.87,1.15813903797739,0.0559529086361702,13.9419454063755,-2.76792853602476,0.357196369632262,1.1030990494029,0.978537333932715,14.1803291492474,-0.264881503610033,1081.8132559682,1174.57731281366
0.88,1.01633220502465,0.0753970072507535,17.4996928090627,-3.70366419856521,-0.993508098634487,0.227062805453304,-17.8573228293807,-1.03556664419652,1.42015859419922,1092.07718513445,1174.57731281366
0.89,1.01718819909231,0.0135348420064761,14.1155783531096,-0.623132948799922,0.0240009467721418,-1.0169950731812,1.14346715373527,-14.0829801456576,-3.10469181981643,1101.79802706741,1174.57731281366
0.9,0.920546419878109,0.0515358286649104,15.7994209208416,-2.55199760516705,0.896148081784007,0.216749321340176,14.3873414031136,7.00990731471957,-1.27756049242623,1110.92329958442,1174.57731281366
0.91,0.84202094189324,0.00587119226884536,16.7720602963549,-0.284625246834391,-0.480352435740496,0.691588949422711,-9.89626767576754,13.5442572408109,0.614040600847536,1119.43673415786,1174.57731281366
0.92,0.822622299050644,0.0164777095478048,14.9124658008806,-0.820417144251774,-0.461370886372518,-0.681260498645816,-7.42470723498002,-12.9587207326901,2.56633977118647,1127.50459178256,1174.57731281366
0.93,0.75145254323904,0.0266649424989273,15.7933656022488,-1.2859365628531,0.740830498118285,-0.128693888575586,15.821420787251,-0.875599316309232,-1.70732593437367,1134.99749093485,1174.57731281366
0.94,0.767910118720822,0.0507346206876586,12.429336818815,-2.47939083950707,-0.219911817386529,0.737494911673227,-6.65337220589368,10.7874200335587,0.355765745326954,1142.06416554157,1174.57731281366
0.95,0.698282933921202,-0.0096406503216199,13.488163143754,0.536626666006629,-0.51186762516835,0.475061608897982,-9.38833647376028,9.69936345471473,0.808869012524967,1148.74156866184,1174.57731281366
0.96,0.6736351398163,-0.0101391457028356,12.4582542678812,0.555504302002247,-0.105396284228796,-0.665416205950586,-2.68124337003454,-12.178982651411,2.96945586030089,1154.92710037886,1174.57731281366
0.97,0.570402129722294,0.0623704067994501,15.469486702732,-3.08599621782396,0.538476451746154,0.198221512835841,12.4757005726203,9.65325265000078,-1.10916308557626,1160.76244457075,1174.57731281366
