t,iq,id,vq,vd,ia,ib,va,vb,theta_e,omega,r
0,0,0,0,0,0,0,0,0,0,0,0
0.01,0.000424967006483873,0.000233037412872025,-0.0205283878476951,-0.0116550045365896,-0.000472487638912854,-0.000107976031935367,0.0230881718589551,0.00491834917270785,2.29705272313221,-0.00237987749557286,0
0.02,0.000585464154700426,0.000313532429846531,-0.0283663608112201,-0.01568083523028,-0.000645943707697851,-0.000154361871879383,0.0316219531314999,0.00711274204092449,2.29703260362282,-0.00299955156700076,0
0.03,0.000658732903699284,0.000350096360701645,-0.0319808498275564,-0.0175095272713216,-0.000725009767262464,-0.00017566256734619,0.0355389732720415,0.00814491741683052,2.29701041529967,-0.00305663350941916,0
0.04,0.000664194609323113,0.000353028275864916,-0.0323395194611593,-0.0176561674959025,-0.000731044058127183,-0.000177081980141903,0.0359046961220499,0.00827270004323367,2.2969895906237,-0.00272799052403618,0
0.05,0.000678370549988779,0.000362982349420141,-0.0331066391412873,-0.0181540040140127,-0.000748256678450021,-0.000179038354096504,0.036809013396651,0.00840915868189985,2.29697072941015,-0.0024860570480485,0
0.06,0.000679525024048333,0.000366229125841975,-0.0332404818255328,-0.0183163805296231,-0.000751278799827417,-0.000177364584550415,0.0370170518832168,0.00837599531845415,2.29695385619474,-0.00220002355249706,0
0.07,0.000682092401317878,0.000370772354992324,-0.0334312414558365,-0.0185436031573317,-0.000756217776848376,-0.000175661199872491,0.0373106863166351,0.00833221518665377,2.29693929414512,-0.00196265487940445,0
0.08,0.000674154494319338,0.000368768193882233,-0.0331115195318941,-0.0184433682260978,-0.000748953776198894,-0.000171879330192853,0.0370051689615074,0.00819438999344864,2.29692625179756,-0.00168824678700636,0
0.09,0.000668451226905075,0.000368112602856314,-0.0328903399792648,-0.0184105904005235,-0.000744255749304922,-0.000168574347867996,0.0368181086385878,0.00807162803433216,2.2969150454051,-0.00145921339988351,0
0.1,0.000663960443501802,0.000367897371430003,-0.0327200576040429,-0.0183998200879011,-0.000740756427245933,-0.000165746378343711,0.0366837045341074,0.00796626452820423,2.29690538746898,-0.00126438868592068,0
0.11,0.000660245748483545,0.000367826037529558,-0.0325808063454229,-0.0183962478727665,-0.00073793271192745,-0.000163327140863639,0.0365772713435692,0.00787617286333463,2.29689705299779,-0.00109723133219247,0
0.12,0.000657098870654804,0.000367801815281384,-0.0324634686977145,-0.0183950361029035,-0.000735564652007852,-0.000161250562345275,0.0364887814443047,0.00779890901500833,2.29688985645551,-0.00095326307619544,0
0.13,0.000674926806205455,0.000379191910679735,-0.033348268531751,-0.0189647027192918,-0.000756459487579991,-0.000164565313811452,0.0375286959037398,0.00796014742712153,2.29688330676863,-0.00094716981364536,0
0.14,0.000684454077829904,0.000385738118893226,-0.0338868181834139,-0.0192921028981777,-0.000767931115334941,-0.000165991214001531,0.0381488369172817,0.00807266515397954,2.29687730697943,-0.000900507726283021,0
0.15,0.000661740261142928,0.000373645883347893,-0.0327691626816561,-0.0186873230427988,-0.000742918416574796,-0.00015994888456734,0.0369115757334931,0.00778265007779258,2.29687194812967,-0.000670308746869898,0
0.16,0.000652268235112488,0.000369698490983428,-0.0323342860436152,-0.0184898981742964,-0.000733215180475887,-0.000156608824438139,0.0364553342206825,0.00764140008797584,2.29686784942517,-0.000541944379059955,0
0.17,0.000647918936408196,0.000368409638723589,-0.0321413731762802,-0.0184254424024692,-0.000729107625101511,-0.000154682517045748,0.0362683068905909,0.00756139621191289,2.29686450911255,-0.000457679603029351,0
0.18,0.000645609405489035,0.000367988591491796,-0.0320437418185484,-0.0184043838218947,-0.00072710146287172,-0.000153461951681275,0.036181338662882,0.00751222112023127,2.29686169923803,-0.000394941836136893,0
0.19,0.00064416113331944,0.000367850845695819,-0.0319854704432606,-0.0183974892422786,-0.000725927367934134,-0.000152601660681444,0.0361332041687616,0.00747860190109395,2.2968593004894,-0.000344542821055849,0
0.2,0.000643116420051309,0.000367805612466781,-0.0319449679120771,-0.018395232533277,-0.000725116418991298,-0.000151940373867226,0.0361014336805882,0.00745332416194674,2.29685723910746,-0.000302439454602546,0
0.21,0.000642291908377632,0.000367790612405298,-0.0319136924906069,-0.0183944867994855,-0.000724490162909603,-0.000151402886326718,0.0360775641536917,0.00743305305629686,2.29685546244483,-0.000266609808452411,0
0.22,0.000641609133017605,0.000367785512457623,-0.0318880763124779,-0.018394232386287,-0.000723976431231539,-0.000150952276453731,0.0360582509202983,0.00741618072594997,2.29685392920189,-0.000235862677154588,0
0.23,0.000641030491380794,0.000367783671568545,-0.0318664761568578,-0.0183941391440703,-0.000723542701490002,-0.000150568519528126,0.0360420462677768,0.0074018618156816,2.29685260528039,-0.000209378806516337,0
0.24,0.00064053479573171,0.000367782918349849,-0.0318480108119937,-0.0183940980188875,-0.000723171692714513,-0.000150239150787741,0.036028219055338,0.00738959175529257,2.29685146182122,-0.000186529704358605,0
0.25,0.0006401082508074,0.000367782540822707,-0.03183213442209,-0.0183940741345355,-0.000722852620177442,-0.000149955525367764,0.0360163381328475,0.00737903331292051,2.29685047411865,-0.000166802364618264,0
0.26,0.000642696053277825,0.000369536305480407,-0.0319595501658971,-0.0184817946307183,-0.000725952256353045,-0.000150361628958069,0.036169864832322,0.0073980036219306,2.29684973619757,-0.000169613548221468,0
0.27,0.000636718869199515,0.000366007947013305,-0.0316776685644691,-0.0183053245038135,-0.000719140102168469,-0.000149031034099369,0.0358419182154393,0.0073427848605303,2.29684874940305,-0.000116388217287133,0
0.28,0.000635683038167484,0.000365642861382348,-0.031578179765331,-0.0182870717484281,-0.000718123215425418,-0.00014861586241304,0.0357554067447824,0.00729035794312495,2.29684809314597,-9.87388865275173e-05,0
0.29,0.000637608591361133,0.000367083656098184,-0.0317253458400469,-0.0183591198841047,-0.000720519788428496,-0.000148816534144878,0.0359132953601705,0.00733417125261354,2.29684765248879,-0.000102712073155438,0
0.3,0.000627110234503425,0.000361803748392227,-0.0312209554280256,-0.0180950656654654,-0.000709163611377617,-0.000145794961735524,0.0353607979226828,0.00719676521414032,2.29684792451847,-4.40499979438939e-05,0
0.31,0.000634430829879211,0.000365830594293994,-0.0315726598550961,-0.0182964499429831,-0.000717311506140353,-0.000147643844373479,0.0357575079994536,0.00727966706042879,2.29684772783243,-8.48335530309513e-05,0
0.32,0.00063707128078864,0.000367144895169898,-0.0317008506312434,-0.0183621861136519,-0.000720158687172373,-0.000148413800386477,0.0358970156356156,0.00731560510642614,2.29684736538251,-9.44828106681402e-05,0
0.33,0.000637961306346622,0.000367573826518154,-0.0317452655339739,-0.0183836432805729,-0.000721109084318219,-0.000148683673785745,0.0359444778980567,0.00732903354651736,2.29684697956058,-9.31568912400837e-05,0
0.34,0.000638204798921457,0.00036771377969898,-0.0317585801905494,-0.0183906465383397,-0.000721384140205369,-0.000148740416185538,0.035959086887284,0.00733262340847143,2.29684661880282,-8.836263514425e-05,0
0.35,0.00063821691017234,0.00036775941672158,-0.0317606264702808,-0.018392917057288,-0.000721423544305275,-0.00014871409731206,0.0359621269072447,0.0073322724968597,2.29684629678771,-8.28430240656327e-05,0
0.36,0.000638152184316778,0.000367774274700896,-0.0317588040651135,-0.0183936622930589,-0.000721385048593296,-0.000148659810123964,0.035961260953212,0.00733049513009584,2.29684601469549,-7.75544183585325e-05,0
0.37,0.000638068074593761,0.000367779091486245,-0.031755881105043,-0.0183939056467114,-0.000721325385492148,-0.000148600189080771,0.0359592385193405,0.00732836371961229,2.29684576952856,-7.27892606146052e-05,0
0.38,0.000637984721337757,0.000367780635266497,-0.0317528415819566,-0.0183939860455251,-0.000721264110160357,-0.000148543541535913,0.0359570204887391,0.00732627795979672,2.29684555718087,-6.85986112820247e-05,0
0.39,0.000637908643960438,0.00036778111459278,-0.0317500170763775,-0.0183940111305654,-0.000721207564757057,-0.000148492541320255,0.0359549263139359,0.00732437735108337,2.2968453735317,-6.49504531982381e-05,0
0.4,0.000637841414124714,0.000367781249819003,-0.0317475005850502,-0.0183940201800197,-0.000721157403402666,-0.000148447690479062,0.0359530516437116,0.00732269412752852,2.29684521480541,-6.17883776270267e-05,0
0.41,0.000637782799014476,0.000367781275617758,-0.031745296537126,-0.0183940233789746,-0.000721113608302801,-0.000148408656534178,0.0359514065769923,0.0073212234928406,2.29684507765844,-5.90527973073661e-05,0
0.42,0.000637731867311307,0.000367781268194538,-0.0317433736834946,-0.0183940236404621,-0.00072107553404656,-0.000148374762067603,0.0359499697011504,0.0073199424165922,2.29684495917169,-5.66881365615821e-05,0
0.43,0.000637688037770095,0.000367781252083513,-0.0317417166130134,-0.0183940086736283,-0.000721042762644965,-0.000148345601001535,0.0359487213502144,0.00731884976693772,2.29684485681176,-5.46448372005092e-05,0
0.44,0.000637649911752295,0.000367781234999891,-0.0317402674920077,-0.0183940088904729,-0.000721014253641259,-0.000148320237398319,0.0359476384832332,0.0073178843257984,2.29684476838576,-5.28795031166763e-05,0
0.45,0.000637617024423964,0.000367781219208084,-0.0317390135112063,-0.0183940090885075,-0.000720989661217461,-0.00014829835958292,0.0359467014420989,0.00731704888908369,2.29684469199779,-5.13544253706889e-05,0
0.46,0.000637588619085512,0.000367781205228535,-0.0317379259550765,-0.0183940092704453,-0.000720968420100818,-0.00014827946359511,0.0359458887670761,0.00731632433098335,2.29684462600912,-5.00369453987535e-05,0
0.47,0.000637564055452669,0.000367781193041506,-0.031736980593814,-0.0183940094385853,-0.000720950051682181,-0.000148263123330609,0.0359451823509481,0.00731569451220991,2.29684456900443,-4.889881936003e-05,0
0.48,0.000637542867864152,0.000367781182477567,-0.0317361609583661,-0.0183940095945989,-0.000720934207807964,-0.000148249028871521,0.0359445698881845,0.00731514845337674,2.29684451976039,-4.79156367127577e-05,0
0.49,0.000637524532451011,0.000367781173339848,-0.0317354467333491,-0.0183940097403588,-0.00072092049675344,-0.000148236831795908,0.0359440361958562,0.00731467262730419,2.29684447722067,-4.70663057430275e-05,0
0.5,0.000637508699967284,0.000367781165442282,-0.0317348255126402,-0.0183940098771295,-0.000720908657363378,-0.000148226299712944,0.0359435720041513,0.00731425876354174,2.29684444047226,-4.63326045243709e-05,0
0.51,4.75269511582852,-0.0283754472983346,2.36570994650806,1.42591743287022,-0.462635400375269,4.73020977508918,1.20373227848829,2.48613207173227,0.0915240169391021,28.3661427694468,4098.41505219475
0.52,4.72944682996072,0.0236668757087465,3.52861440194984,-1.16952259935605,-1.896656123558,4.33254232378649,-2.50022493420023,2.7509594665236,0.417640973301095,60.6573788230673,4098.41505219475
0.53,4.73197787539511,0.0478253459259876,3.40258488461636,-2.3692091696343,-3.9116952818498,2.66318266344908,-4.14529139151934,-0.0854123287039439,0.983161764727916,93.9377317869082,4098.41505219475
0.54,4.7269195436395,0.0381959226498236,3.6561632700088,-1.88431114121107,-4.6097711420316,-1.04653586591229,-3.1267728941962,-2.67234907936323,1.80211822064614,129.96344954774,4098.41505219475
0.55,4.73719097852814,-0.0134258580705549,3.14326696025249,0.706938987311835,-1.20215528707687,-4.58213719638189,-1.48956226365098,-2.85676288443815,2.88218407626041,164.003110664996,4098.41505219475
0.56,4.71301673743056,0.0345092908438499,4.35275629920661,-1.67824900024261,4.09644874851983,-2.33084218882477,4.61813730578825,-0.660162807180911,-2.08078091322704,196.541438146804,4098.41505219475
0.57,4.71875169893391,-0.00585630902339096,4.06689435041608,0.34094176502977,2.29617570477369,4.12240573274321,2.28103190347611,3.38419331597827,-0.509441878189924,231.752129848667,4098.41505219475
0.58,4.73133621698541,0.0353298742678381,3.43858366770209,-1.70234433896371,-4.55941217765735,1.26433824287785,-3.76294804218061,-0.74970388823751,1.3077574561067,264.420612969575,4098.41505219475
0.59,4.67365185956662,0.0422351708942181,6.32377912763697,-2.04640325502999,1.04020962753793,-4.55661820266614,3.45395368181489,-5.67874569788186,-2.90811666233089,298.628319799863,4098.41505219475
0.6,4.68343116413264,0.0137487563914105,5.8358964047897,-0.620909103682859,2.6411585068555,3.86768641944198,2.76311502375172,5.17768387679193,-0.596206510715102,332.808369716374,4098.41505219475
0.61,4.69405754030109,0.0451529472981626,5.30563847288313,-2.1858744648119,-4.35517645969697,-1.75175711364577,-4.06793652606543,-4.04718904929793,1.96283747117709,366.169735749777,4098.41505219475
0.62,4.64675515126619,0.0521798838271619,7.6718999627356,-2.51454331962608,4.64220618051742,0.21208006427045,7.51653586989393,2.94663632996956,-1.51391403788388,399.401876792893,4098.41505219475
0.63,4.65516053445022,0.0403657306198428,7.25287335475076,-1.91541665917414,-4.65146938660299,0.189688004909382,-7.31058888746102,-1.68174998047475,1.53870963933902,432.886781204655,4098.41505219475
0.64,4.6677700907003,0.0255225513134637,6.62366997269586,-1.16496552134945,4.63475508670873,0.554774104018325,6.4275409768743,1.97910726433096,-1.4461966750641,466.487142883327,4098.41505219475
0.65,4.61354067265501,0.033801206493874,9.33645584732938,-1.58867032052475,-4.00472493837287,-2.29086844401352,-7.27107180848439,-6.06834375528535,2.09773068522245,500.258017173751,4098.41505219475
0.66,4.59307444143097,0.0521438765923166,10.3611625054623,-2.50599324568006,1.81940081135593,4.21768093814953,1.68356831763083,10.5261240887547,-0.395905424177885,533.945748475257,4098.41505219475
0.67,4.67854211859168,0.0847244606012005,6.0892001752547,-4.11710177913221,2.1570433901338,-4.15248099366398,6.52295503029859,-3.38820653248261,-2.6443921711936,567.122201255985,4098.41505219475
0.68,4.63593678234934,0.0816628829134927,8.22091194018622,-3.94391307414638,-4.63173354415405,-0.213595534465099,-7.95319731322266,-4.45920351202622,1.63449271922361,600.214393937978,4098.41505219475
0.69,4.60011865433697,0.0476037466116249,10.0133975200142,-2.26007678353496,0.620354509819311,4.55834597555048,-0.994913698470035,10.2169576535237,-0.124913041783556,634.027282415308,4098.41505219475
0.7,4.57697756630744,0.0511971670610543,11.1720232315924,-2.40963683933306,4.56241269296737,-0.368422598990456,11.3122105739027,1.62921598211979,-1.64018785536343,666.879241733482,4098.41505219475
0.71,4.60681507344082,0.0772085529912214,9.68187333184989,-3.72652073453457,0.97449473747507,-4.50322842949033,5.83453237371816,-8.57810351878181,-2.91172149204351,700.504007952028,4098.41505219475
0.72,4.61985208970776,0.103727606050451,9.03174732756863,-5.01771145708277,-3.38142285661286,-3.14956698798584,-2.96762439346519,-9.89662030770571,2.34315732559063,733.37321961376,4098.41505219475
0.73,4.57870630561403,0.0906858536851298,11.090783443496,-4.36691648687985,-4.57726015495936,0.146508808437132,-11.143206210841,-4.23135821416499,1.55860269036731,766.544698408263,4098.41505219475
0.74,4.59260732120936,0.0801429729450711,10.3975700336129,-3.8460123999143,-3.86371288101897,2.48398624714115,-10.8659102698267,2.19846946584512,1.01687622288103,799.86789222922,4098.41505219475
0.75,4.59940376987053,0.0561535629381432,10.0596303783995,-2.64769275624004,-2.98259885649984,3.50168135645375,-8.61045671627701,5.83664933147299,0.717724336338518,833.053725642283,4098.41505219475
0.76,4.5762000942645,0.122944646919328,11.2217645452722,-5.98648689889629,-2.71258601209172,3.68762793892726,-11.6151089116642,5.18220704626555,0.66107504487943,866.106843515515,4098.41505219475
0.77,4.52865295852191,0.0753538685191413,13.6010430145982,-3.60084776778617,-3.34222037809044,3.05678569227662,-12.5733801901725,6.31384085364033,0.846612531971878,899.155396108115,4098.41505219475
0.78,4.53901680483401,0.0786540265845974,13.0848635063511,-3.75299080019942,-4.31805620198976,1.40116046437274,-13.6104473528781,0.233057462345833,1.27435364022268,932.087032050833,4098.41505219475
0.79,4.5682827606886,0.092325055329558,11.6236422264011,-4.4148522612927,-4.2879335502445,-1.57840335977021,-9.21624536127291,-8.34630460366932,1.94371434951372,964.889824560621,4098.41505219475
0.8,4.52498561167669,0.136564645433799,13.7906024770021,-6.60731779630922,-1.41303671933718,-4.3008687399255,2.4292609021939,-15.0975513448106,2.85432710519682,997.712657850956,4098.41505219475
0.81,4.53977219200026,0.115587606427112,13.053412605075,-5.59560936664945,3.37921326756005,-3.03377813004915,13.5630237144034,-4.21269658829089,-2.27692599210276,1030.8985726208,4098.41505219475
0.82,4.54331308438559,0.125050030057378,12.8785850400728,-6.03568400854251,3.59206261692285,2.78467546562827,6.12952412879867,12.8341874709635,-0.883825421431331,1063.58764347398,4098.41505219475
0.83,4.47515980454294,0.109980119306926,16.288515012354,-5.291778336286,-2.96870415878869,3.35051436654587,-14.9716740738282,8.31670696220138,0.749621788056527,1096.44280257415,4098.41505219475
0.84,4.49962280891105,0.0975826684240202,15.0676634711836,-4.64857626831912,-1.35177884733023,4.2928803556074,-9.23874940362941,12.7784683456257,0.326742883117803,1129.16797342679,4098.41505219475
0.85,4.48317213286689,0.0894354750143743,15.8925810518302,-4.26749214240761,-2.95887551995076,-3.36925610996574,-6.98463815338049,-14.8996795784622,2.44090051144758,1162.07480385629,4098.41505219475
0.86,4.48315140867353,0.152263146109261,15.8960343149459,-7.35267660272915,4.48043971528501,0.217923327001206,15.2356212406118,8.63837980056893,-1.48824543400077,1194.55378411427,4098.41505219475
0.87,4.48243937947659,0.121541130049206,15.9341083373567,-5.8189250857936,-3.95131161437588,2.11994612268198,-16.8509567356935,1.94960374242662,1.10547190182809,1227.21242641529,4098.41505219475
0.88,4.50839445955467,0.17277767013674,14.6388907025818,-8.38916503173742,3.1032135718104,-3.27498675630496,16.3325297489957,-4.23363708057643,-2.34481447303825,1259.91358210329,4098.41505219475
0.89,4.52518125282519,0.124171568611253,13.8020973292325,-5.95903085184105,-2.91523326522458,3.46324976845447,-13.6265190111648,6.3502692082435,0.727125448794293,1292.56862384973,4098.41505219475
0.9,4.4772139055211,0.119138416825168,16.2030334801915,-5.70431883863279,3.42286040167491,-2.88854028685788,16.2181948010718,-5.66106922475572,-2.24513270186299,1325.16044170992,4098.41505219475
0.91,4.48223115034057,0.163640931606834,15.9548352978066,-7.91523066496644,-4.28108760480921,1.33770824903243,-17.475668514721,-3.43637248029807,1.30443207305231,1357.64088281963,4098.41505219475
0.92,4.47257987826346,0.13656916193974,16.4400641743634,-6.53885019879562,4.2041903990809,1.53212433950907,12.8419711141981,12.1702937467251,-1.19080111664392,1390.0930281677,4098.41505219475
0.93,4.45076724573093,0.177135187904061,17.5334453786961,-8.55274126357052,-1.51075332943157,-4.19026614048279,2.86862482359714,-19.2961675363463,2.83533801866281,1422.57421703056,4098.41505219475
0.94,4.45022438240093,0.158759890932744,17.563376501772,-7.69016869804458,-3.13348404115524,3.16401319853602,-18.0635523527452,6.42798297656552,0.816209836166183,1455.19016747564,4098.41505219475
0.95,4.45538998694969,0.18957273169672,17.3078999122817,-9.18428430386061,3.77069516203762,2.38081829449469,8.99972128774469,17.4045825658249,-0.965084309233285,1487.46887718163,4098.41505219475
0.96,4.38896756133022,0.132085870249994,20.6318637366351,-6.34232932830611,2.48851234710456,-3.61770496721842,17.313821363597,-12.8891633687072,-2.50896790361323,1519.93144996609,4098.41505219475
0.97,4.40144144626183,0.159419031446445,20.0110862691555,-7.6720514623669,-0.590614351122506,4.36454761925069,-10.9600167691787,18.4168938676453,0.170707740989667,1552.22437255276,4098.41505219475
0.98,4.38448569303801,0.177369124387883,20.8618516658567,-8.60860965713444,3.54199858132822,2.59025493892204,10.9695689866057,19.7229199512956,-0.898940857196188,1584.63760587546,4098.41505219475
