t,iq,id,vq,vd,ia,ib,va,vb,theta_e,omega,r
0,0,0,0,0,0,0,0,0,0,0,0
0.01,0.000492682490672091,0.000275829987139114,-0.0240910589280501,-0.0138008201135317,-0.000211399568456107,-0.000523572765598623,0.0106478094124026,0.0256410980809714,-3.0149624609952,-0.00272688721607318,0
0.02,0.000585307254096756,0.00032556260732226,-0.0286803091587594,-0.0162891282909917,-0.000249049400790344,-0.000621731444395989,0.0125372552315646,0.0305075902880088,-3.01498367001245,-0.00301874574830835,0
0.03,0.000619499989155148,0.00034462355531636,-0.0303762164581858,-0.0172428187731066,-0.00026365448641216,-0.000658051626574129,0.0132698682428119,0.0323100591515269,-3.01500533458499,-0.00296255989696795,0
0.04,0.000606007037374514,0.000337876294351059,-0.0297512457472642,-0.0169052299059054,-0.000258677438237369,-0.000643809678848331,0.0130145093848375,0.031647211048647,-3.01502513253035,-0.0026488612133235,0
0.05,0.000619596135241571,0.000346378769757185,-0.0304406866767135,-0.017330635841228,-0.00026540873951016,-0.000658358431203262,0.0133500839477859,0.0323845889675655,-3.01504364376872,-0.00250921685661386,0
0.06,0.00062031111988608,0.000347591648256228,-0.0305022444846574,-0.0173913233731422,-0.000266533007452655,-0.000659216197715171,0.0134030745394142,0.0324530836772397,-3.01506082728607,-0.00230981064834176,0
0.07,0.000630409391177652,0.000354267830140187,-0.0310172197310159,-0.0177253636909184,-0.000271891850886384,-0.000670072024023381,0.0136699686475969,0.0330058842479817,-3.0150763181599,-0.00218548401404773,0
0.08,0.000619536593506039,0.000348715611851194,-0.0305114561993944,-0.0174475649422639,-0.000267765542068052,-0.000658581644993862,0.0134586809528088,0.0324689141923869,-3.01509091537193,-0.0019487701618147,0
0.09,0.000616762808312661,0.00034792115552497,-0.0303971262991527,-0.0174078075007678,-0.000267336011933635,-0.000655726275897931,0.0134340910738559,0.0323503051956202,-3.01510406778918,-0.00177666774872165,0
0.1,0.000615349138980933,0.00034780646837029,-0.0303470791489457,-0.0174020836885854,-0.000267408416246496,-0.00065430622892139,0.0134351134690354,0.0322997748544947,-3.0151160478221,-0.00162643319591557,0
0.11,0.00061423371997866,0.000347788990895123,-0.0303098934046432,-0.0174012019151181,-0.000267538918142973,-0.000653194589862438,0.0134392820539301,0.032262627979854,-3.01512698048492,-0.00149035637448497,0
0.12,0.000613242758052112,0.000347785494413456,-0.0302772688163214,-0.0174010288498468,-0.000267666947562077,-0.000652208429576446,0.0134435469317241,0.0322301079412328,-3.01513696056044,-0.00136629635135926,0
0.13,0.000638116760702533,0.000362287189720973,-0.031501264945433,-0.0181266038203151,-0.000278922261927837,-0.000678710085328392,0.0140092801623267,0.0335357052789183,-3.01514653162238,-0.00139875527535273,0
0.14,0.000653549270070021,0.000371703059366787,-0.0323211195045337,-0.0185977108575696,-0.000286322982078152,-0.000695204259686001,0.0143735419348871,0.0344082970722783,-3.01515546249071,-0.00138343453316683,0
0.15,0.000617188704671754,0.000351198976979538,-0.030510774342399,-0.0175718200770596,-0.00027057309661136,-0.000656546127850901,0.0135843947871101,0.0324829252078886,-3.01516373887253,-0.00107215201238024,0
0.16,0.000610947588310653,0.000348269237075839,-0.0302181288340982,-0.0174252320068931,-0.00026845818298359,-0.000649983554518989,0.0134760991017666,0.0321740388159083,-3.0151706396655,-0.000953789850947499,0
0.17,0.000609466100957394,0.000347850095141637,-0.0301557490267368,-0.0174042536793377,-0.000268233198996733,-0.000648459380271605,0.0134633523830678,0.032109428336668,-3.01517683714809,-0.000871671105698747,0
0.18,0.000608773060537745,0.000347789652439098,-0.030130827058648,-0.0174012347294562,-0.000268264271296248,-0.000647762736135766,0.0134636806843716,0.0320842486553303,-3.01518247898177,-0.000800759755878447,0
0.19,0.000608243469526984,0.000347780500016884,-0.0301130786876383,-0.0174007792452144,-0.000268325291467019,-0.000647234835568479,0.0134656315200626,0.0320665151545109,-3.01518762706681,-0.00073665739185362,0
0.2,0.000607776219254702,0.000347778719455241,-0.0300976597747675,-0.0174006888771816,-0.000268385470194024,-0.000646769827516868,0.0134676363375721,0.03205114457858,-3.01519232650881,-0.000678235779373015,0
0.21,0.000607352159115145,0.000347778033013693,-0.0300837007557274,-0.0174006508296887,-0.000268441020911806,-0.00064634791228914,0.0134694957696389,0.0320372343401952,-3.01519661670291,-0.00062491654429303,0
0.22,0.000606965302339284,0.000347777540354683,-0.030070966246517,-0.0174006359309122,-0.000268491829254607,-0.000645963027922254,0.0134712117272774,0.032024546778966,-3.01520053333399,-0.000576242316345225,0
0.23,0.000606612371968794,0.000347777109621509,-0.0300593482719192,-0.0174006065034437,-0.000268538199356309,-0.000645611898348202,0.0134727615142217,0.0320129695967295,-3.01520410893747,-0.000531806599430835,0
0.24,0.000606290009282184,0.000347776719015913,-0.0300487294261759,-0.0174005929409694,-0.000268580552838305,-0.000645291181004308,0.01347419105463,0.0320023897583942,-3.01520737320782,-0.000491240020133076,0
0.25,0.000605995760894141,0.000347776362715753,-0.0300390330721708,-0.0174005778665096,-0.000268619211246269,-0.000644998434133681,0.013475493656816,0.0319927286848832,-3.0152103532537,-0.0004542056372572,0
0.26,0.000610852336122328,0.000350696100346347,-0.0302791475622243,-0.0175466502113754,-0.000270905210043734,-0.000650183588315947,0.0135902198221641,0.032249304425376,-3.01521296849555,-0.000451696999283148,0
0.27,0.000597979375002195,0.000343349808794991,-0.0296576730026009,-0.0171790897185404,-0.000265241823365415,-0.000636486605723453,0.0133040110495503,0.0315864208399797,-3.01521573768773,-0.000343398596572357,0
0.28,0.00059747341537054,0.000343201835985829,-0.0295829426943842,-0.017171685275825,-0.000265160242260628,-0.000635965430053291,0.0133061560779386,0.0315113231093323,-3.01521800208598,-0.000313602144354454,0
0.29,0.00060383694391882,0.00034712186566398,-0.0299488340451918,-0.0173678298953218,-0.000268248189826615,-0.000642771773740887,0.0134546810730584,0.0318989926668783,-3.01521991353357,-0.000328270946448732,0
0.3,0.00059656013348685,0.000343334721654841,-0.0295967078120563,-0.0171783377360169,-0.000265409047828439,-0.000635075398114631,0.0133111134250454,0.0315257777076232,-3.01522094803327,-0.000273341563344074,0
0.31,0.000603475341013949,0.00034714057849836,-0.0299353731992279,-0.0173687538403701,-0.000268314049022313,-0.000642414694375315,0.0134573795991,0.0318857195758564,-3.0152225915036,-0.000294419674605292,0
0.32,0.000604421303196421,0.000347684089111109,-0.0299838547167958,-0.0173959577315226,-0.00026873505153564,-0.000643421175945289,0.0134783083281075,0.0319372211328304,-3.01522422228902,-0.000280645049689221,0
0.33,0.00060444551312727,0.000347761578417483,-0.0299873402165878,-0.0173998297524871,-0.000268809842813259,-0.000643454553305685,0.0134817583935725,0.0319411464931718,-3.01522573147969,-0.000262905130429579,0
0.34,0.000604336199746354,0.000347772508471963,-0.0299841346658852,-0.0174003845022882,-0.00026883535102173,-0.000643347117825028,0.0134827568239148,0.0319380177988019,-3.01522711245366,-0.000245901979563053,0
0.35,0.000604215992350392,0.00034777394247024,-0.0299802126661091,-0.0174004490781072,-0.000268852734522815,-0.000643227710544926,0.013483355448805,0.0319341182039854,-3.01522837368378,-0.000230252947029028,0
0.36,0.000604102894878247,0.000347774031008147,-0.0299764645423768,-0.0174004611104072,-0.0002688678163731,-0.000643115216398038,0.013483876522212,0.0319303859552137,-3.01522952517479,-0.000215946730041709,0
0.37,0.000603999276581315,0.000347773937460162,-0.0299730207240179,-0.0174004485311731,-0.000268881458246599,-0.000643012129822198,0.013484331620692,0.0319269538345207,-3.01523057641617,-0.000202883082795992,0
0.38,0.000603904514509494,0.000347773827139282,-0.0299698642660169,-0.0174004488747592,-0.000268893908311296,-0.000642917851331822,0.0134847603951293,0.0319238096450367,-3.01523153612608,-0.000190956421399271,0
0.39,0.000603818067470771,0.000347773722857655,-0.0299669815349733,-0.017400434799588,-0.000268905262574542,-0.000642831844788453,0.0134851376961351,0.0319209363090812,-3.01523241227331,-0.000180068154952772,0
0.4,0.000603739079673403,0.000347773627140774,-0.0299643420486571,-0.0174004336460022,-0.000268915636111072,-0.000642753259590736,0.013485494721199,0.031918306935086,-3.01523321213326,-0.000170127932820621,0
0.41,0.000603666902173984,0.000347773539679553,-0.0299619247078039,-0.0174004339284929,-0.000268925114700416,-0.000642681450148476,0.0134858229485438,0.0319158990551181,-3.01523394234809,-0.000161053217477484,0
0.42,0.000603601235270031,0.000347773459818604,-0.0299597248025115,-0.017400419802225,-0.000268933739388455,-0.000642616117438905,0.0134861074477351,0.0319137059183673,-3.01523460898224,-0.000152768649634663,0
0.43,0.000603541106756403,0.000347773386905664,-0.0299577031298328,-0.0174004200523654,-0.000268941635629463,-0.000642556295439964,0.013486381892375,0.0319116921874565,-3.01523521757178,-0.000145205430319724,0
0.44,0.00060348621693225,0.000347773320337915,-0.0299558533128314,-0.0174004202876848,-0.000268948843861385,-0.000642501685407658,0.0134866329715299,0.0319098496546002,-3.01523577317028,-0.000138300750774232,0
0.45,0.000603436100136284,0.000347773259563578,-0.0299541599003055,-0.0174004205094845,-0.00026895542520145,-0.000642451824084787,0.0134868627814673,0.031908162929787,-3.01523628039202,-0.000131997271053508,0
0.46,0.000603390348914879,0.000347773204078548,-0.029952609711882,-0.0174004207189271,-0.000268961433217435,-0.000642406306071401,0.0134870731192176,0.0319066188811173,-3.01523674344946,-0.000126242643873734,0
0.47,0.000603348721774716,0.000347773153422642,-0.0299511972488777,-0.0174004065322001,-0.000268966900367612,-0.000642364890708818,0.0134872505316571,0.0319052101892986,-3.01523716618758,-0.000120989079899966,0
0.48,0.000603310595755219,0.000347773107175989,-0.029949897231808,-0.0174004052657872,-0.000268971907006013,-0.000642326959006788,0.0134874254155618,0.0319039151714825,-3.01523755211766,-0.000116192950875449,0
0.49,0.00060327578757405,0.000347773064954518,-0.0299487059536028,-0.0174004054450902,-0.000268976477914892,-0.000642292328234932,0.0134875869574676,0.0319027286609412,-3.01523790444389,-0.000111814427318544,0
0.5,0.000603244006191242,0.000347773026408323,-0.0299476138627882,-0.0174004056157533,-0.000268980651310095,-0.000642260708843115,0.0134877350118695,0.0319016409596277,-3.01523822609278,-0.000107817147754705,0
0.51,3.82192281975048,-0.0158496208713262,3.47953145187585,0.797456459820009,-0.496593072328115,3.78955677766239,0.353329109398329,3.55221543129829,0.126153057733598,38.9094759326443,1008.99164604556
0.52,3.74780570357226,0.0205839876847678,3.91643977964423,-1.02060004189785,-2.0079567332595,3.16458228675375,-2.97515246168194,2.74382813289199,0.570900443910286,82.3240232828558,1008.99164604556
0.53,3.67600736564564,-0.0230126938050909,4.02025602744817,1.16645355036327,-3.5781260291299,0.842955429438729,-3.63270415847547,2.08003194888527,1.33316920404725,125.767795732881,1008.99164604556
0.54,3.59806019002551,0.0195851543704457,3.86007653709197,-0.959866207656799,-2.39259194195599,-2.68736385861785,-1.83068562938331,-3.53130629302795,2.41959916765762,171.137519466859,1008.99164604556
0.55,3.47733805706042,0.00634212287892488,5.45027494639972,-0.29891899319969,2.24105088265152,-2.65887403367858,3.74835477257091,-3.96795741595004,-2.43943620745436,216.478659794763,1008.99164604556
0.56,3.42380044710906,0.00407690815103945,4.46360525895167,-0.17814151414755,2.21733228121529,2.60880502864527,2.75080573169147,3.51974063437878,-0.703269484787002,256.673673439411,1008.99164604556
0.57,3.374036490716,0.00675988195710597,3.14087631637842,-0.305191156718931,-3.27061974438917,0.828983971074801,-3.12053091351909,0.469608874168739,1.32456370485778,297.269557174999,1008.99164604556
0.58,3.26542217946344,-0.00830245690319087,4.24854016351484,0.444169441892521,1.62229831464998,-2.83393703515202,1.71529753922634,-3.91217770123417,-2.62421647058471,338.39607420444,1008.99164604556
0.59,3.16074433667693,0.0032636101093011,5.76044602509745,-0.123781959885671,0.0255311100439371,3.16064290539222,-0.0831962959703708,5.76117511953863,-0.00704510164645044,376.023564761229,1008.99164604556
0.6,3.10792664466747,0.0223809919992963,4.113670535319,-1.08587629565089,-0.777085782696345,-3.00929337615462,0.0534953259206069,-4.25423916261332,2.89608563006775,414.935711145337,1008.99164604556
0.61,2.98826319640524,0.0306495736419796,6.21987747981014,-1.49697948135797,0.666103683286871,2.91323912689401,-0.138545400841894,6.39598535046491,-0.21452679156663,451.449203045217,1008.99164604556
0.62,2.92171714544225,0.00242251168654284,5.51244613036553,-0.0769293023618736,0.250508019354353,-2.91095906511466,0.553831063978465,-5.4850935826398,-3.05491814684023,486.804066769619,1008.99164604556
0.63,2.81023066721682,0.065044043648636,6.91478943597398,-3.21841711673142,-1.63685507018897,2.2852423525256,-6.72793670168253,3.59268554416891,0.64470479716688,522.395478866791,1008.99164604556
0.64,2.69604287834762,0.0168396219325342,8.68353967301258,-0.809788545193766,2.67550786502727,-0.3325484008877,8.71861488913932,-0.213009754679356,-1.68820972057572,556.130230684678,1008.99164604556
0.65,2.68813082841164,0.0308090580537708,5.17087607334976,-1.48851426506567,-1.61830345184725,-2.14664633474042,-1.86644422943039,-5.04678313598584,2.5070766650586,588.261682776134,1008.99164604556
0.66,2.55908378049267,0.00746782537332447,7.61015039638005,-0.322349225753003,-1.55529899302138,2.03224275279877,-4.89812519066251,5.83323818264472,0.656146897794148,619.971720841265,1008.99164604556
0.67,2.52014595810181,0.0105827826246077,5.55000693653169,-0.480608852606078,2.07921840856728,1.42411321702312,4.292472705086,3.55080835034008,-0.966058886402042,650.930989251112,1008.99164604556
0.68,2.3983863433664,0.0478873591221797,7.67093323123331,-2.35093557315416,1.6442798213792,-1.74668088677221,7.04769625026553,-3.83406993561076,-2.3664197232772,680.869029079588,1008.99164604556
0.69,2.29969691030783,0.0103186607565886,8.68626851163108,-0.473046311741328,-0.927200894863707,-2.10452152628647,-3.03268123074201,-8.15339671682366,2.731090553996,709.781668537437,1008.99164604556
0.7,2.25672021072071,0.0243492361407395,6.96825125050838,-1.1745501837183,-2.22370347432552,-0.385385330608975,-6.63962217519261,-2.41898966409013,1.75318892023721,737.616007689171,1008.99164604556
0.71,2.14906065290219,0.0103853185823921,8.51709988208788,-0.474943784306156,-1.77414149876932,1.21284437873908,-7.32043236464392,4.37925016348532,0.97597868954593,764.482204262157,1008.99164604556
0.72,2.09074066372801,-0.000879046110444093,7.64391455921342,0.0923611545662569,-0.80098062184725,1.93122431092639,-2.84015066480386,7.09728853666257,0.392738784557301,790.404561821422,1008.99164604556
0.73,2.02147970386825,0.0617517519723362,7.37836244094295,-3.03703591181987,0.0690796632427857,2.02124255648578,-3.01026773726997,7.3893238925867,-0.00362523209513477,815.319088463702,1008.99164604556
0.74,1.94025207909514,0.0482828842078757,7.7539695313465,-2.35973140321539,0.470596706852051,1.88293603365607,-0.61046499339276,8.08206089312699,-0.220030316052797,839.367268023547,1008.99164604556
0.75,1.83917200283461,0.0165222125652973,9.13865532937391,-0.786268719843351,0.494544056525062,1.77151144949008,1.61888833279784,9.02842402054917,-0.263251008673192,862.757855888452,1008.99164604556
0.76,1.78425446801794,0.0117244738686779,8.23294823551496,-0.558180652571825,0.2601813506135,1.7652215540046,0.594225592169501,8.23042515519005,-0.139768389568554,885.178697576132,1008.99164604556
0.77,1.74590469183325,0.0516787241931377,6.58587179108519,-2.54763773935486,-0.198958932796439,1.7353009037513,-3.46480245681059,6.15299189296363,0.143746711770483,906.461174984289,1008.99164604556
0.78,1.65411791050286,0.0233256983423477,7.71826724283479,-1.11652810420225,-0.887739010069633,1.39591174507921,-5.16688415860729,5.84136904593632,0.580539967449242,926.76794010665,1008.99164604556
0.79,1.5223474479418,-0.00429789810106407,10.876382551668,0.25092127527651,-1.40009023587083,0.597752085401763,-9.89160637471837,4.52932469847828,1.16446190715327,946.570648190877,1008.99164604556
0.8,1.52098054155332,0.0259726901755549,7.51957997733386,-1.27217805826647,-1.45249276895808,-0.45201896480487,-6.74203268294031,-3.5647602092735,1.88957305451526,965.456016703351,1008.99164604556
0.81,1.47240526638383,0.0212972666602996,6.65100850609066,-1.01945048227861,-0.582429138490386,-1.35248184486128,-1.59994016347065,-6.53570079694763,2.7494201240401,983.255000426238,1008.99164604556
0.82,1.37549932187468,-0.00269974912186593,8.25716610050028,0.157199228663273,0.774632596849477,-1.13663979035632,4.50665949342564,-6.92065920408309,-2.54534618082248,1000.51966568364,1008.99164604556
0.83,1.29809795894368,0.0273758946264491,8.89996958328718,-1.34188174449948,1.28970234024089,0.149918725306457,8.63379940585482,2.54315021560247,-1.43398669720078,1016.87095081709,1008.99164604556
0.84,1.24591786039596,0.017534369843956,8.41108485888349,-0.829887263350775,0.271671348640563,1.21606473812346,0.905764680890524,8.40325244866904,-0.205720439025964,1032.35053066198,1008.99164604556
0.85,1.17083310352803,0.0138273470911569,9.07649837093902,-0.675442057399358,-1.05517383432237,0.507591894346318,-8.51080778557026,3.22570852490414,1.1342322061466,1047.32987637505,1008.99164604556
0.86,1.13549192052998,0.0509337768098764,7.87206797574674,-2.50659462313972,-0.648031125896613,-0.9338050176981,-2.07252979749499,-7.99731774146968,2.57975234355079,1061.22365625511,1008.99164604556
0.87,1.07337454883056,-0.0299925171305437,8.02509943192793,1.51192158534882,0.910567783874586,-0.569121062807167,5.84692715710525,-5.70101487386929,-2.15734343117766,1074.77290793727,1008.99164604556
0.88,0.994429170126565,0.0204577500082757,9.12216895471489,-0.986851837808865,0.508288236077685,0.854956702411909,3.64096218369886,8.4220684730668,-0.515810353471541,1087.24353400349,1008.99164604556
0.89,0.929278828124098,-0.0093292154670741,9.5833537821602,0.47346140843008,-0.874535237545887,0.314379218383605,-8.82071643159568,3.77621464600396,1.21566099278831,1099.29027595378,1008.99164604556
0.9,0.85227023106491,0.0511968053841342,10.7181091813587,-2.52725864860445,-0.14411062612321,-0.841556764026855,1.33975244767714,-10.9302316571706,3.03199374383103,1110.42242172936,1008.99164604556
0.91,0.861304627819277,0.0297692382363414,7.606408056202,-1.4829025963659,0.847701170273151,0.155353131174129,7.11244218989841,3.07727309855927,-1.35499439679964,1121.11846368699,1008.99164604556
0.92,0.79053187349867,0.0105881071468772,8.56869509570947,-0.493660678997193,-0.448580982771907,0.651020624040177,-5.35857729841484,6.704616756097,0.616726976952169,1130.99908929195,1008.99164604556
0.93,0.738451948397931,0.0135346768785838,8.63554769340573,-0.667935275764632,-0.354430128604418,-0.647976659694131,-3.41274329739102,-7.96065353371245,2.65939758334538,1140.41889873917,1008.99164604556
0.94,0.68007755285825,0.0399433764873034,9.11262495328641,-1.96890031271603,-0.675553360993738,0.0879125001176582,-9.22899875488953,-1.31988028355564,1.50005565928769,1149.17957221596,1008.99164604556
0.95,0.65829667113543,0.0363905221940325,7.80139871199843,-1.80216439442349,0.301190564345611,-0.586483607002545,5.49677877178878,-5.82194482128702,-2.61193770910498,1157.34146594521,1008.99164604556
0.96,0.580022019863736,-0.0333922940496211,9.39842541355948,1.66486816286204,0.185803696472349,0.550470321821182,5.05676997331717,8.0951382749716,-0.383035668887419,1164.99881348564,1008.99164604556
0.97,0.523165400743122,0.0435722355318125,9.99973343918709,-2.15355778734824,-0.509200759426743,-0.127730821821435,-8.7682921893205,-5.26778246332798,1.89966478671771,1171.94706980388,1008.99164604556
