t,iq,id,vq,vd,ia,ib,va,vb,theta_e,omega,r
0,0,0,0,0,0,0,0,0,0,0,0
0.01,0.000822512662655419,0.000366080254167162,-0.0322957499261122,-0.0183122334888597,0.000809158441940469,-0.000394720722227847,-0.0316331897223391,0.0194343681819346,-1.60589840971513,-0.0174961549401304,0
0.02,0.00102511915362528,0.000460342311849897,-0.0455474699521463,-0.0230274553620523,0.00100827737740351,-0.000496146201663395,-0.0447085557402364,0.0246166765245667,-1.60600853430598,-0.0116656529674202,0
0.03,0.00100302513589089,0.00049827122670046,-0.047964030408287,-0.024924743604945,0.000984832289991545,-0.000533328228370231,-0.0470553539148464,0.026600464746464,-1.60606381378119,-0.0044962822867977,0
0.04,0.000894160494771456,0.000493500525140977,-0.0450788757709898,-0.0246861102660528,0.00087619928402926,-0.000524729047595964,-0.0441801936053695,0.0262606087864717,-1.60607196335266,0.000179872623073907,0
0.05,0.000877212464482026,0.000505940302407534,-0.0442801629090438,-0.0253083740410724,0.000858825736300303,-0.000536559085386781,-0.0433601650156109,0.0268541005001709,-1.60606698927499,0.000183705056257057,0
0.06,0.000877011393904292,0.000508817013856774,-0.0440971649390608,-0.0254522718769615,0.000858525051661209,-0.000539424206259038,-0.0431722917724318,0.0269913193911953,-1.60606383153343,-0.000175693744262485,0
0.07,0.000892083795362565,0.000516395382501931,-0.0444201137364306,-0.0258313704365847,0.000873322229511021,-0.000547527143125977,-0.0434817408568011,0.0273814611562548,-1.60606134093375,-0.000981140449909105,0
0.08,0.000889402192679074,0.000511234026288372,-0.0444805751199492,-0.0255731792729056,0.000870822888409839,-0.000542276670159163,-0.0435511986829331,0.0271256733447355,-1.60606389179505,-0.000593341751531799,0
0.09,0.000885298515914087,0.000510040705895375,-0.0443771888969001,-0.0255134914823694,0.000866763621733897,-0.000540939745247727,-0.0434499704243262,0.0270623947967889,-1.60606429573314,-0.000405853711692374,0
0.1,0.0008832880595745,0.000509764905360781,-0.0442970107026289,-0.0254996916676747,0.000864764318469465,-0.000540592941524779,-0.0433703375829371,0.0270457621500554,-1.60606396653213,-0.000375136640724943,0
0.11,0.000882945968078763,0.000509701203475928,-0.0442694499980474,-0.0254965008522818,0.000864424850159095,-0.00054051695421955,-0.0433429147461652,0.0270415883436362,-1.60606366254509,-0.000398674683065024,0
0.12,0.000883190079488514,0.000509686493851527,-0.0442702432528125,-0.025495784791866,0.000864669392675019,-0.000540510758350473,-0.043343735969784,0.027040895547263,-1.60606354369499,-0.000420833022703306,0
0.13,0.00092345149356551,0.000528221439774443,-0.0456808751029377,-0.0264229476801589,0.000904250478773742,-0.00056045661923401,-0.0447207113951947,0.0280173604500193,-1.60606666974171,-0.00143800443621997,0
0.14,0.000940105730935569,0.000538978925817535,-0.0472609801744283,-0.0269610643858881,0.000920513221651539,-0.000571797583571345,-0.0462807682985648,0.0286110070700468,-1.60606980913693,-0.00164460020497518,0
0.15,0.00089683444169265,0.000516453847240015,-0.045124054939382,-0.0258343029129952,0.000878062396705923,-0.000547761827463571,-0.0441848675742282,0.0274096519244713,-1.60607131634628,1.31679091070826e-05,0
0.16,0.000878990844463535,0.000511247114564212,-0.0443402796212159,-0.0255738341058459,0.000860415814282044,-0.000541925403846616,-0.0434108803259965,0.0271215201838494,-1.60606709993595,0.000135593691507478,0
0.17,0.000877534196248225,0.000510043910809981,-0.0441248665678547,-0.0255136480934626,0.000859004149328809,-0.000540668963391877,-0.0431978060858934,0.0270536437108494,-1.60606405154824,-0.000168088949600178,0
0.18,0.00088071381542872,0.000509765861336578,-0.0441675004317763,-0.0254997468089813,0.000862192125608275,-0.000540502355786098,-0.0432409301280998,0.0270412119434374,-1.60606307064795,-0.000390843160244081,0
0.19,0.000883086587444628,0.000509701520682626,-0.0442444475945567,-0.0254965307165806,0.0008645656506795,-0.000540521781962497,-0.04331794083344,0.0270407141821293,-1.60606314493375,-0.000463539694820959,0
0.2,0.000883873495637765,0.000509686579090091,-0.044283878448525,-0.0254957856433506,0.000865352448464813,-0.000540534832486709,-0.0433573660391384,0.0270413717507745,-1.60606341861426,-0.000458764554382882,0
0.21,0.000883830712735889,0.000509683095173561,-0.0442913788245326,-0.0254956142035512,0.000865309729498822,-0.000540529979109028,-0.0433648635183532,0.0270414717393335,-1.60606357680993,-0.000438949464486659,0
0.22,0.000883621921792482,0.000509682286046053,-0.0442870696281759,-0.0254955743682625,0.000865101076237602,-0.000540521841625214,-0.0433605573716198,0.0270412816456796,-1.60606361506746,-0.000427356784019092,0
0.23,0.000883498114084314,0.000509682103412931,-0.0442825595567261,-0.0254955662074297,0.000864977358417565,-0.000540517283308258,-0.0433560507156642,0.0270411139466032,-1.60606360311299,-0.000424497920894832,0
0.24,0.000883466798358243,0.000509682064870784,-0.0442806322216802,-0.0254955635011396,0.000864946072428271,-0.000540516126348899,-0.0433541251200025,0.0270410425699808,-1.60606358663827,-0.000425338619862477,0
0.25,0.000883475413092031,0.00050968205729607,-0.0442804191406316,-0.0254955635473449,0.000864954686286564,-0.000540516415790122,-0.0433539123806566,0.0270410347649099,-1.6060635788415,-0.000426536115948577,0
0.26,0.000889879914905284,0.000512998973493622,-0.0444417229168071,-0.0256614744401921,0.000871238593730476,-0.000544056543524557,-0.043509282970891,0.027212502670975,-1.60606294952796,-0.000719019870346479,0
0.27,0.000879867978161839,0.000505594766679032,-0.0442692030547809,-0.0252910891485954,0.000861492658159658,-0.000536306001294815,-0.0433498652861951,0.0268363691489062,-1.60606535771503,-9.65548581478834e-05,0
0.28,0.000876654411654357,0.000505223175241085,-0.043266169341803,-0.025272513613312,0.000858294543786433,-0.000535820763296991,-0.0423481278824851,0.0267824087545781,-1.60606470319913,-6.23517192091351e-05,0
0.29,0.000879593579122319,0.000508651299108759,-0.0441372656070466,-0.0254439967914686,0.000861111840264907,-0.000539349058656659,-0.0432126775942028,0.026984434089503,-1.60606315304555,-0.000342893107071441,0
0.3,0.000861762447937275,0.000501907247728575,-0.0432802378841984,-0.0251066317050845,0.000843532532357197,-0.00053197581604089,-0.0423682253949281,0.0266168259522455,-1.60605761952569,-0.000373674884445664,0
0.31,0.000882726352267264,0.000507885264676353,-0.0440369851132666,-0.0254056730614023,0.000864271565771244,-0.000538690927770054,-0.0431139052771374,0.0269424470552129,-1.60605964390445,-0.000857301143879634,0
0.32,0.000888011154031748,0.000509266770118202,-0.0443552626406127,-0.0254747747205975,0.000869502869195355,-0.000540260319931483,-0.0434294733354068,0.0270228480510866,-1.60606243234924,-0.000714961009942938,0
0.33,0.000886564379961358,0.000509585952533151,-0.0443846921429241,-0.0254907381075392,0.000868045027416048,-0.000540529437878881,-0.0434582860062273,0.0270398965103465,-1.60606375198865,-0.000512306029790055,0
0.34,0.000884419433523347,0.000509659747803108,-0.0443301560855987,-0.0254944336600144,0.000865898703218563,-0.000540527731655737,-0.0434036480762022,0.0270416756118331,-1.60606395461357,-0.000415296182677955,0
0.35,0.00088337903114134,0.00050967686085395,-0.0442884202709887,-0.025495284678373,0.000864858438635163,-0.00054050799834202,-0.043361912922479,0.0270410469219362,-1.60606378024405,-0.000399863711870534,0
0.36,0.000883206610018229,0.000509680850602487,-0.0442742125663177,-0.0254955043777506,0.000864686069667137,-0.000540505769048181,-0.0433477105892943,0.0270407586526371,-1.60606362184209,-0.00041233812753088,0
0.37,0.000883336180344574,0.000509681782461744,-0.0442747169601494,-0.0254955505060962,0.000864815559687199,-0.000540511215981721,-0.0433482146999975,0.0270408198809349,-1.6060635605643,-0.000423886207068891,0
0.38,0.000883458882111786,0.000509681996294275,-0.0442782878572612,-0.0254955617417792,0.0008649381790976,-0.000540515753764914,-0.0433517830546037,0.0270409569003379,-1.60606355782272,-0.000428408488071314,0
0.39,0.000883507543720755,0.00050968204252712,-0.0442804304033756,-0.0254955645398104,0.000864986802131721,-0.000540517526472581,-0.0433539238352995,0.0270410357788838,-1.60606357019181,-0.000428643636412841,0
0.4,0.000883510570519113,0.000509682051534773,-0.0442809617376392,-0.0254955646079064,0.000864989822105196,-0.000540517649600941,-0.0433544546053786,0.0270410549527263,-1.60606357874867,-0.000427751906654008,0
0.41,0.000883501140878074,0.000509682053278906,-0.0442807756851644,-0.0254955647252686,0.000864980396843717,-0.000540517321131846,-0.0433542685932913,0.0270410486239155,-1.60606358138047,-0.000427126473955817,0
0.42,0.000883494505204751,0.000509682053852966,-0.0442805142663701,-0.0254955648316166,0.000864973765430426,-0.000540517087485563,-0.0433540073410106,0.0270410395002295,-1.60606358109547,-0.000426931367966218,0
0.43,0.000883492409728965,0.000509682054172715,-0.0442803638008837,-0.0254955649200388,0.000864971671672245,-0.000540517013237265,-0.0433538569872746,0.0270410342490347,-1.6060635803076,-0.000426950544354093,0
0.44,0.000883492526144286,0.000509682054326466,-0.0442802991867603,-0.0254955649997268,0.00086497178824627,-0.00054051701711723,-0.0433537924223525,0.0270410320314124,-1.60606357987002,-0.000427007799483973,0
0.45,0.000883493224636215,0.000509682054370057,-0.0442802745863102,-0.0254955650771158,0.000864972486354952,-0.000540517041705357,-0.0433537678371038,0.0270410312371215,-1.60606357977265,-0.000427040056427301,0
0.46,0.000883493457466858,0.000509682054366528,-0.0442802393888594,-0.0254955651563433,0.000864972719019421,-0.000540517049945861,-0.0433537326576696,0.0270410300769656,-1.60606357981246,-0.000427047522844061,0
0.47,0.000883493573882179,0.000509682054354918,-0.0442802039500869,-0.0254955652360304,0.000864972835336198,-0.000540517054081565,-0.0433536972367951,0.0270410289091647,-1.60606357986161,-0.000427044870679835,0
0.48,0.000883493457466858,0.000509682054348159,-0.0442801575707781,-0.0254955653166369,0.000864972718980618,-0.000540517049990636,-0.0433536508828392,0.0270410273554229,-1.60606357988545,-0.000427041450762682,0
0.49,0.000883493457466858,0.00050968205434611,-0.0442801161438253,-0.0254955653967838,0.000864972718977842,-0.000540517049993146,-0.0433536094786783,0.0270410259750365,-1.60606357989072,-0.00042703987130398,0
0.5,0.000883493457466858,0.00050968205434605,-0.0442800740302792,-0.0254955654769306,0.000864972718978341,-0.00054051704999229,-0.0433535673885183,0.0270410245701723,-1.6060635798898,-0.000427039647800637,0
0.51,4.64763571832203,0.0370362798718527,7.61896727224478,-1.80454509023204,-2.9175960357195,3.6179445585309,-6.2254623497075,4.74854333565484,0.686614218017076,211.537158070151,2656.01280586101
0.52,4.64339846475462,0.0422894936101073,7.83222966103487,-2.02206917676984,0.097119801873208,-4.64257530341076,2.25627368707645,-7.76799937357384,-3.11156913064948,464.755060700016,2656.01280586101
0.53,4.56751704997822,0.0633237421231705,11.6281361737349,-3.01000214666033,-4.21365040998153,1.76390819506592,-11.9111402662791,1.54867729202934,1.18820707395159,708.035412298119,2656.01280586101
0.54,4.51593557144128,0.0796592437612182,14.209440202927,-3.79431330500375,-3.75753645296813,2.50618025791062,-14.0078875662725,4.48152767120257,1.00021853324598,953.413431768764,2656.01280586101
0.55,4.4131143317032,0.148333922514861,19.3531059617616,-7.15658253840239,-2.4329838610233,-3.68485692927866,-4.01361912147116,-20.2398183179568,2.59163416088976,1194.05497141984,2656.01280586101
0.56,4.39808927925955,0.125086785200529,20.1073008579491,-5.9582443598243,1.55902166006105,4.11440001405188,0.957824034028901,20.9496252177287,-0.333768001342334,1434.48382374464,2656.01280586101
0.57,4.30468383659327,0.205166495494145,24.7808378912446,-9.92871791651122,4.30897672423955,0.0715249177733945,24.0925395672943,11.4986478881717,-1.50657361861305,1673.16554319938,2656.01280586101
0.58,4.27704834249936,0.249566653913963,26.1661349760428,-12.0745695230939,3.59635823414086,2.32844014107074,13.9572295554104,25.2122508295094,-0.937936005183799,1909.55807039245,2656.01280586101
0.59,4.15060351760306,0.218176373903129,32.492161753877,-10.5747939405948,-4.01539281891821,1.07318730902319,-33.9779003556315,-3.6151251359979,1.36214894825472,2146.15275113319,2656.01280586101
0.6,2.63584799078928,0.123183334164745,31.2741588742567,-5.95552859536969,2.26829370901299,1.34822565396743,22.8299642497585,22.1886021753797,-0.987820451360468,2340.29150368657,2656.01280586101
0.61,1.49245962154418,0.056413339457502,30.0980830879159,-2.72540857511333,1.14803100719892,-0.955323501918794,25.509142256426,-16.2051263126768,-2.22704951281242,2454.75487239721,2656.01280586101
0.62,0.821250773087079,0.0439242029544805,29.2605447339222,-2.089047524351,0.222057155799657,-0.791879275811331,11.3723356529203,-27.0409611419819,-2.81476282864223,2522.0562238754,2656.01280586101
0.63,0.27586943429819,0.0307239659491006,36.4188290894769,-1.58528543351593,0.00334724019840596,-0.277554864570411,6.04058503436451,-35.9493473459096,-3.0186191642334,2561.80466522833,2656.01280586101
0.64,0.111590255709819,0.00645768023821462,32.7556087599409,-0.288587568428836,0.110946588853981,0.0135993097290804,32.1761344639127,6.14081093823775,-1.39102435120508,2585.16944913786,2656.01280586101
0.65,0.0123517977006173,-0.0150979421684912,30.9457802285273,0.680915101469652,0.00671957218802427,0.0183128947403192,29.4588051932005,9.50177646110376,-1.23678697936837,2598.66798125322,2656.01280586101
0.66,-0.130312359893335,0.0446943138340764,33.9795727340305,-2.19733641093334,-0.0859763593974092,-0.107642735262704,27.4935559180285,20.088405448724,-1.00436548417877,2607.03949482576,2656.01280586101
0.67,-0.11608545490905,-0.0285590602796135,30.7699585395909,1.38758503877126,-0.0982994799489232,-0.0680342928769524,21.4246022965751,22.1292150154847,-0.724156680414722,2612.13816216893,2656.01280586101
0.68,-0.179701889174142,-0.0380256208364284,32.4414243696596,1.7995149875492,-0.107027782037722,-0.149277495573972,14.683306875247,28.9842158515645,-0.413498118119632,2615.31985823243,2656.01280586101
0.69,-0.192442777255329,0.0689341472372741,32.3920661420922,-3.43211596140104,0.052083693298072,-0.197669997889176,-0.626271232084887,32.567363314675,-0.0863339393354906,2616.8919931319,2656.01280586101
0.7,-0.204271300759743,-0.0245786461777866,32.4890394273714,1.15393452971678,0.0268216687538407,-0.203988902264975,-6.93522278947259,31.7611702031356,0.250483813765849,2617.97144076919,2656.01280586101
0.71,-0.262617907984897,0.0591106931686011,34.9875911455907,-2.99175024221618,0.177253470391491,0.20259182331824,-26.4942267928696,-23.0464324859794,2.20140988457159,2619.09556069875,2656.01280586101
0.72,-0.19511448878219,-0.0021429825852273,31.5883529329739,0.106913689504239,0.110375469638442,0.160908395707586,-17.6699872698777,-26.184098637102,2.55133985047751,2619.39340722092,2656.01280586101
0.73,-0.216937934123571,-0.0625260414732685,32.5385487738226,3.03560078667431,0.111829588676253,0.1961267860865,-10.6088347563552,-30.9099442502706,2.90399604774426,2619.78128557394,2656.01280586101
0.74,-0.24004460975184,0.0307197485579953,33.7418761525679,-1.51046550109956,-0.0585941663292253,0.234801706328048,5.44791716671022,-33.3334053296375,-3.02432327538118,2620.04617672376,2656.01280586101
0.75,-0.210233116048997,0.00252019825023439,32.2871558231968,-0.145522238905925,-0.097939811782288,0.186043295366808,14.8263363427855,-28.6820738183975,-2.66900797919745,2620.03077654798,2656.01280586101
0.76,-0.227424591820115,-0.0018692984033418,33.0182814026568,-0.0104881128439493,-0.166604998288348,0.154816710294484,24.3784604178776,-22.2687602807053,-2.31131622840024,2620.53467122155,2656.01280586101
0.77,-0.241907664826167,0.050939056153189,33.7129554932747,-2.52111991590461,-0.243555114100557,0.0423675835857026,32.2454847780535,-10.1561865456583,-1.95056795100141,2620.93389115571,2656.01280586101
0.78,-0.157892699685071,0.0162263756594276,29.415418828932,-0.842102649245619,0.0191445908874193,-0.157565492797866,-1.38613953814277,29.3948059856525,0.0185009111123103,2621.32925823887,2656.01280586101
0.79,-0.204493786384616,0.00984485081311243,31.6935153158599,-0.599014937974993,0.0857588605099902,-0.185903328645502,-12.432098976901,29.1595721333681,0.384113112019902,2621.56741991744,2656.01280586101
0.8,-0.234643899650504,0.0833990348637633,33.2667128317808,-4.14818847655112,0.221116716179975,-0.114544997643665,-25.739589378178,21.4791803594073,0.751326982914046,2621.76030918672,2656.01280586101
0.81,-0.167252377068736,0.0289692499021286,29.8503543539133,-1.49638626373982,0.163160232999026,-0.0468114670004936,-27.518996017844,11.6613757796577,1.11989104831557,2621.82397415058,2656.01280586101
0.82,-0.233097593177332,0.0127913987649422,33.2131099853261,-0.750458362890898,0.233363265099381,-0.0063003436084556,-33.1633485757323,1.96625885790213,1.48898413589311,2622.02406165731,2656.01280586101
0.83,-0.185900362133893,0.00554354699963585,30.8321574143199,-0.254504014029444,0.176568089153503,0.0584241854674106,-29.4743355443903,-9.05263758974418,1.86053292290843,2622.31405259031,2656.01280586101
0.84,-0.244190915213098,-0.0152278856912096,33.7233929392164,0.69164746075081,0.201821153788685,0.13830876132277,-27.0032661295917,-20.2130954056324,2.23387060755864,2622.42589863136,2656.01280586101
0.85,-0.261226623770538,-0.0109822089652921,34.5419711916983,0.43906781709824,0.142233556016146,0.219384533236309,-17.9350472734256,-29.5241364591094,2.60840856079338,2622.78647087331,2656.01280586101
0.86,-0.21924325254697,-0.0119779403220717,32.5798670117577,0.608990492306489,-0.21613977092878,0.038661017376526,32.261674633115,-4.58289796859584,-1.69321609624321,2622.76214877323,2656.01280586101
0.87,-0.219949990015233,-0.0327551727839789,32.4622475445853,1.55931067081322,-0.221108118596261,-0.0237086343476627,31.8081714791515,6.66852251754025,-1.31614350421524,2623.07320839703,2656.01280586101
0.88,-0.253186601496772,-0.0038079882429158,34.0978724615806,0.150465694893503,-0.206208325592008,-0.146956056045621,27.5563573284083,20.0831948932592,-0.936586232860793,2623.50029730393,2656.01280586101
0.89,-0.228838252406615,-0.0109475879090606,32.8645432806798,0.546242221422296,-0.12979876317736,-0.188783146819752,17.7687636477376,27.6522625483518,-0.5545211679249,2623.67564824539,2656.01280586101
0.9,-0.245137997901135,-0.00373564773150498,33.7595823257839,0.094735524125968,-0.0456779094647905,-0.2408736632882,5.87708863120562,33.2442205932379,-0.172171189556743,2623.60104562988,2656.01280586101
0.91,-0.292666412987972,0.0151012834152047,36.2100540664296,-0.738264530493866,0.0758825802406139,-0.283060968817778,-8.28332472279982,35.2576173549404,0.210366853704008,2623.80746701969,2656.01280586101
0.92,-0.176703551174655,-0.0178482616139121,30.362413654222,0.887164792652459,0.0841520268693307,-0.156400581246222,-16.2655131611118,25.6533878052219,0.594291111291293,2624.08822008617,2656.01280586101
0.93,-0.210391390775032,-0.00834197160897802,32.1558491087367,0.321528965263622,0.118195727794306,0.174252390898236,-17.2551916229768,-27.1359609159819,2.58520710424476,2623.97394998336,2656.01280586101
0.94,-0.26034618519825,0.0532107778839587,34.6695015048816,-2.63777837147764,-0.00832185628338684,0.265597947541573,-3.27560522224896,-34.6150634805427,2.9713068946316,2624.18318183186,2656.01280586101
0.95,-0.241452456029819,0.0489071022841769,33.786216106071,-2.47077584273759,-0.0995657214916792,0.225339433478715,9.66119175932518,-32.4695935579849,-2.92538867256562,2624.25402709082,2656.01280586101
0.96,-0.185853753346956,0.000845393358084111,30.9788434557693,-0.141092688271582,-0.106170354805329,0.152545691789679,17.6970448950435,-25.4268214880775,-2.53811136031192,2624.50857725734,2656.01280586101
0.97,-0.206444967835805,0.00846471235187754,32.0109848749166,-0.392077442981611,-0.177542751364741,0.105687026345547,27.0266367661735,-17.1586066594217,-2.14871473703787,2624.7835528182,2656.01280586101
