t,iq,id,vq,vd,ia,ib,va,vb,theta_e,omega,r
0,0,0,0,0,0,0,0,0,0,0,0
0.01,0.00072744008749141,0.000408100049210912,-0.0356934382283477,-0.0204214310952378,0.000793723886979384,-0.000256353510398819,-0.0390242459780888,0.0129678296711532,-1.3719405024198,-0.00134520117009244,0
0.02,0.000841003705691446,0.000469911666910709,-0.0413619106773332,-0.0235144962399173,0.0009172572658916,-0.000294522182279387,-0.0451918869605027,0.0148806095723904,-1.37195075797413,-0.0014477978794903,0
0.03,0.000883275299852466,0.000493897640394427,-0.0434780753324787,-0.0247147570322821,0.000963430851540922,-0.000309695219233007,-0.0475032887110591,0.0156396870625724,-1.37196107247221,-0.00140983883816737,0
0.04,0.000862067501443986,0.000483171307778166,-0.0424925750355339,-0.0241780033744554,0.000940519320361745,-0.000303378143135299,-0.0464310386178512,0.0153086065072321,-1.37197042045696,-0.00125867004911221,0
0.05,0.000881843138436459,0.000495308833324727,-0.0435032873416841,-0.0247853703112168,0.000962300013824866,-0.000311378940472261,-0.0475416674211737,0.0157047906643733,-1.37197919680616,-0.00119460462835119,0
0.06,0.00088240223507989,0.000496604091373585,-0.0435732928964582,-0.0248501924876365,0.000963101376578813,-0.00031254610295917,-0.0476229685873627,0.0157548971256617,-1.37198734442013,-0.00110020834930764,0
0.07,0.00089929868807694,0.000507315939509121,-0.0444360543225014,-0.0253862026787698,0.000981778271884674,-0.00031971709011573,-0.0485744803781076,0.0161103093141228,-1.3719946958016,-0.00104719557826467,0
0.08,0.00088137178772986,0.000497882845499535,-0.0435979525216109,-0.0249141681093912,0.000962339295241042,-0.000314016937256285,-0.0476595517978944,0.015813423382793,-1.37200163571361,-0.000930686763862505,0
0.09,0.000877936131047073,0.000496870968615958,-0.0434631618236604,-0.0248635374878748,0.000958769506816343,-0.000313709487345233,-0.047517318043318,0.0157907067001706,-1.37200789138023,-0.000850627733530917,0
0.1,0.000876309189840924,0.000496760331078837,-0.0434137384240585,-0.0248580143496551,0.000957150964334097,-0.000313927785019931,-0.0474676870540085,0.0157953235833569,-1.3720136011814,-0.000780514940400243,0
0.11,0.000874998727552133,0.000496746322086956,-0.0433771834655878,-0.0248573130132476,0.000955861901648733,-0.000314177826558841,-0.0474316309640186,0.0158021023835115,-1.37201882115945,-0.000716763580520589,0
0.12,0.000873821153789076,0.000496742836149962,-0.0433447665303669,-0.0248571268152626,0.000954705326726095,-0.000314411502964505,-0.0473997401349284,0.0158085475051734,-1.37202359431926,-0.000658509730310543,0
0.13,0.000911495177595245,0.000518560072447191,-0.0452066850041429,-0.0259488729667857,0.000995944194709039,-0.000328364383789086,-0.0494405039244826,0.0165113581816699,-1.37202819932869,-0.000678448663672981,0
0.14,0.00093737732007708,0.000534187382455782,-0.0465699859201343,-0.0267308653618423,0.00102440108177191,-0.000338577647570512,-0.0509313031282991,0.0170089715517359,-1.37203247761841,-0.00067908264171461,0
0.15,0.000878342840811492,0.00050074343925171,-0.0436327309470226,-0.0250573150376201,0.00095992388425132,-0.000317452790824544,-0.0477213598744529,0.0159485440878711,-1.37203644859242,-0.000516723095110292,0
0.16,0.000870741662359455,0.000497163764569915,-0.0432792722102571,-0.0248782028603894,0.000951764492641501,-0.000315447621510613,-0.0473394411857606,0.0158429065777757,-1.37203975618627,-0.000463044552770183,0
0.17,0.000869213356847577,0.000496779514551355,-0.0432203727918834,-0.024858964234746,0.000950189462796964,-0.000315375538984448,-0.0472778553548974,0.015835817633932,-1.3720427429216,-0.000425040188591872,0
0.18,0.00086844956619695,0.000496737263286498,-0.0431974030169132,-0.0248568528527948,0.000949431505896564,-0.000315487516989202,-0.0472548777014182,0.0158384119966341,-1.37204546965961,-0.000391583239834864,0
0.19,0.000867825243280636,0.000496731701045447,-0.043180009696839,-0.0248565716095759,0.000948817588404087,-0.000315607698945466,-0.047237731765049,0.0158416882715942,-1.37204796255353,-0.000361140636222146,0
0.2,0.000867262849310871,0.000496730153130464,-0.0431645175931137,-0.0248565059111258,0.000948265240147436,-0.000315719383554368,-0.0472224955415654,0.015844790310474,-1.37205024207005,-0.000333320710321572,0
0.21,0.000866749819706031,0.000496729115982365,-0.0431504102858088,-0.0248564427237709,0.000947761446483031,-0.000315821635081342,-0.0472086204285119,0.0158476121214027,-1.37205232652107,-0.000307883406232323,0
0.22,0.000866280674436006,0.000496728207831864,-0.0431375076761442,-0.0248564001163582,0.000947300754718614,-0.000315915177645362,-0.0471959331783501,0.0158502077802975,-1.3720542326047,-0.000284623015361498,0
0.23,0.000865851808870306,0.000496727381506918,-0.0431257142916237,-0.0248563603289513,0.000946879617139258,-0.00031600069162727,-0.0471843364521002,0.015852579460152,-1.3720559755845,-0.000263353045519198,0
0.24,0.000865459614126206,0.000496726626170915,-0.0431149271510233,-0.0248563175473659,0.000946494489430173,-0.000316078892539406,-0.047173727928678,0.0158547424628911,-1.37205756941739,-0.000243903151324127,0
0.25,0.000865100946997879,0.000496725935365043,-0.0431050598764024,-0.0248562775980638,0.000946142285013582,-0.000316150407037824,-0.0471640238802386,0.0158567201654228,-1.37205902686588,-0.000226117585908198,0
0.26,0.00087282298027346,0.000501288118782653,-0.0434884768449967,-0.0250845788256856,0.00095461263203643,-0.000319099444817092,-0.0475849472338856,0.01600489018732,-1.3720603123085,-0.000226201562162628,0
0.27,0.000851344784819268,0.000489054648449433,-0.0424478429230684,-0.0244724045917915,0.0009311415127328,-0.000311348478516656,-0.0464439132329851,0.0156102811932641,-1.37206166891436,-0.000168163897786542,0
0.28,0.000850651105858237,0.000488788525209518,-0.0423449473770036,-0.0244590933937398,0.000930408600549932,-0.000311225581045412,-0.046340397565646,0.0156175981336043,-1.3720627816857,-0.000153760922956972,0
0.29,0.000862365205686875,0.000495874640461844,-0.0429961466435852,-0.0248136851256938,0.000943290838038995,-0.000315860415222008,-0.0470487710349356,0.0158366896735386,-1.37206371773399,-0.000165771783655391,0
0.3,0.000853403627658804,0.000491197701204911,-0.0425616561251778,-0.0245796618415424,0.000933582131811264,-0.000313045262754335,-0.0465766218229364,0.0156930764327974,-1.37206422701665,-0.000142221500974691,0
0.31,0.000862398930292801,0.000496131847561468,-0.0430047935971559,-0.0248265680887874,0.000943374255240626,-0.000316107164873112,-0.0470597700212205,0.0158476749383313,-1.37206505671267,-0.000150144839018681,0
0.32,0.000863275114172345,0.000496659433145939,-0.0430517667065693,-0.0248529683539273,0.000944337096587415,-0.000316452150081133,-0.0471110178407014,0.0158643200475564,-1.37206586668518,-0.000142370445738061,0
0.33,0.000863217147662632,0.000496715568857147,-0.043052838535544,-0.0248557737928541,0.000944291117232253,-0.000316519330026072,-0.047112610590432,0.0158668938410602,-1.37206661334241,-0.000133505471585776,0
0.34,0.000863063600526355,0.000496721288638859,-0.0430489161223145,-0.024856053598141,0.000944141505055322,-0.000316555896442375,-0.0471088097726553,0.0158679747158704,-1.37206729680882,-0.000125193813036651,0
0.35,0.000862911624607593,0.000496721638661769,-0.0430447641423689,-0.0248560656738181,0.00094399239149856,-0.000316586833255235,-0.0471047319757719,0.0158688356959174,-1.37206792187292,-0.000117569388159923,0
0.36,0.00086277093669584,0.000496721436544043,-0.0430408817660774,-0.0248560691826987,0.000943854251672826,-0.000316614949628921,-0.0471009176326782,0.0158696325280779,-1.37206849345973,-0.000110594580605433,0
0.37,0.000862642534832624,0.000496721195831978,-0.0430373426116388,-0.0248560491700488,0.000943728163925025,-0.000316640556318842,-0.0470974358880171,0.0158703362342952,-1.37206901613694,-0.000104216279770422,0
0.38,0.00086252495959412,0.000496720969723725,-0.0430340967415126,-0.0248560291230711,0.000943612706739764,-0.000316663997583199,-0.0470942423577982,0.0158709798963326,-1.37206949408871,-9.83837321322432e-05,0
0.39,0.000862417275421731,0.00049672076231038,-0.0430311185530943,-0.0248560296052891,0.00094350696257318,-0.000316685465773183,-0.0470913159424021,0.0158715889085601,-1.37206993114226,-9.30502714150239e-05,0
0.4,0.000862319025126412,0.000496720572565449,-0.0430284046127076,-0.0248560094938451,0.00094341048192846,-0.000316705053468087,-0.0470886451018082,0.0158721238008323,-1.372070330797,-8.81731946832381e-05,0
0.41,0.000862229036082894,0.000496720399039953,-0.0430259140386087,-0.0248560099121037,0.000943322113963561,-0.000316722993788208,-0.0470861978268005,0.0158726331093411,-1.37207069625324,-8.37134495985926e-05,0
0.42,0.000862146730450595,0.000496720240354019,-0.0430236341724927,-0.0248560103014782,0.000943241291014645,-0.000316739402236336,-0.047083957603155,0.0158730993173979,-1.37207103043742,-7.96353251244074e-05,0
0.43,0.000862071646799668,0.0004967200952402,-0.0430215567855454,-0.0248559872008502,0.000943167559638489,-0.000316754371204098,-0.0470819116899355,0.0158735011765475,-1.3720713360253,-7.5906165972218e-05,0
0.44,0.000862002845344665,0.000496719962538094,-0.0430196484545045,-0.0248559875410907,0.000943099997543718,-0.000316768087406518,-0.0470800365479833,0.0158738914079871,-1.37207161546413,-7.24961111623174e-05,0
0.45,0.000861939864655737,0.000496719841186552,-0.0430178985339318,-0.024855987859287,0.000943038151465647,-0.00031678064301879,-0.0470783170738673,0.0158742492178082,-1.3720718709913,-6.93778549185919e-05,0
0.46,0.000861882592553187,0.000496719730215435,-0.0430163127520333,-0.0248559676078877,0.000942981910594423,-0.000316792061174501,-0.0470767547941535,0.0158745534285613,-1.37207210465291,-6.65264280236228e-05,0
0.47,0.000861829856412552,0.00049671962873635,-0.0430148428629771,-0.0248559678885898,0.00094293012461701,-0.000316802574272697,-0.0470753104971139,0.0158748539459592,-1.37207231832019,-6.39189978761425e-05,0
0.48,0.000861781776884777,0.000496719535938499,-0.0430135043841913,-0.0248559681515636,0.000942882911109039,-0.000316812159318712,-0.0470739953107311,0.0158751276418695,-1.37207251370379,-6.15346856618422e-05,0
0.49,0.000861737713685593,0.000496719451078818,-0.043012273976849,-0.024855968399259,0.000942839641746051,-0.000316820943468538,-0.0470727863311735,0.0158753792000119,-1.37207269236852,-5.93543991676428e-05,0
0.5,0.000861697492192018,0.000496719373478724,-0.0430111508611864,-0.0248559686323285,0.000942800144755427,-0.000316828961883625,-0.0470716827714664,0.0158756088424184,-1.37207285574486,-5.73606799018655e-05,0
0.51,4.71255223232731,0.032947030599444,4.3732002899716,-1.64171951523043,-0.247436142014943,4.7061671671184,-1.89895096200642,4.26779907994636,0.059519852275918,18.3468661700621,1835.52891949017
0.52,4.6793938292149,-0.00347654763068084,6.03215494918487,0.189585452359211,-1.25087330486959,4.50910796837274,-1.42544371597208,5.86437943752939,0.269862779680832,39.082175345734,1835.52891949017
0.53,4.68538882390001,0.040986393797086,5.73346293237775,-2.02574040527627,-2.743680396211,3.7982583112594,-5.02949775740997,3.41765616976411,0.634317962948376,60.5614859780955,1835.52891949017
0.54,4.68067450152117,0.0328994882402052,5.97037885670197,-1.61912950108298,-4.28340732059134,1.88738387495005,-6.12273366938249,0.882687060991164,1.16279315226047,83.7895258854615,1835.52891949017
0.55,4.63071412366505,0.00611008653459555,8.46966168276441,-0.267631626859533,-4.4440679936427,-1.30146467341566,-8.04957066927736,-2.6478685293067,1.85700413020883,105.208116570772,1835.52891949017
0.56,4.64525719968047,-0.0171502029410399,7.74386824997423,0.910706642777156,-1.94986658625303,-4.21624582732769,-4.10160295335477,-6.63126950705434,2.70472926368429,126.466650136129,1835.52891949017
0.57,4.61795289129603,0.0258049368456588,9.11053260065798,-1.23856625243322,2.48455110671294,-3.89270607664212,5.9847025507959,-6.9799130372674,-2.56792829273768,148.614276444357,1835.52891949017
0.58,4.57189005909081,-0.00934329151782598,11.4152700417084,0.5214573950585,4.50503754065367,0.779039643927631,11.3400829730612,1.40812858222292,-1.4016070454899,170.226970862661,1835.52891949017
0.59,4.65435225731454,-0.000801363202824534,7.29368113555923,0.117801700378682,0.346820731748095,4.64141260365653,0.662216237076804,7.26451178009758,-0.0747566645357354,191.422522523939,1835.52891949017
0.6,4.59605028362948,0.076444964057397,10.2104285072416,-3.74763420728856,-4.52471950595673,0.810207031933845,-10.6782255020515,-2.06715083640963,1.41024295213482,213.289707369417,1835.52891949017
0.61,4.63165560222212,0.0403751468510536,8.43195438836879,-1.94007789116342,-0.451224321072833,-4.60980047096956,1.18418096833707,-8.57085016002153,3.05273678102182,234.992869832901,1835.52891949017
0.62,4.55449129322416,0.0216607186134499,12.2918869741986,-1.0001720271298,4.51243211085687,0.617913077781478,12.0297649826909,2.7158026311848,-1.42995116240522,256.58382072195,1835.52891949017
0.63,4.55137311931927,0.012394179565923,12.4496296673555,-0.528717936344681,-2.28400173422199,3.93681177668174,-6.7334384535144,10.484923848233,0.528430670427016,278.049212924424,1835.52891949017
0.64,4.58606343546236,0.0472651473181456,10.717002446286,-2.26076308334619,-2.22929279756328,-4.00805008089574,-3.12553935982415,-10.4974375379381,2.6443047994647,299.413371178444,1835.52891949017
0.65,4.5468000215338,0.0471445306028491,12.6821260779426,-2.23785344124855,4.46123099824769,0.879221828015786,11.9612352911022,4.77212323732646,-1.36584115060238,320.679216676869,1835.52891949017
0.66,4.54354714691126,0.0646630055052419,12.8468154919602,-3.09962457268831,-3.94121647328299,2.26159560735539,-12.736765074183,3.52464980120792,1.06407124555892,342.093486988219,1835.52891949017
0.67,4.56977774451043,0.078499572221717,11.5374059100901,-3.81337280717902,2.16058633366246,-4.02751753712543,8.95680084853388,-8.21153249158871,-2.63203096865525,363.733107057086,1835.52891949017
0.68,4.53061265718912,0.0391620691723114,13.4977825750232,-1.81223739929958,-0.465432934678231,4.50681227703805,-3.30355792600898,13.212147587108,0.111552049360095,384.801362974225,1835.52891949017
0.69,4.49037694450018,0.0654617400780781,15.5118602764591,-3.15257320343847,-0.648097586247795,-4.44384291596953,1.11126008067034,-15.7899217247121,3.01134916279374,406.371266421165,1835.52891949017
0.7,4.50976977466043,0.0631110845679892,14.544545789618,-2.99101330599729,1.02816538070881,4.39145561054055,0.195630195917412,14.8476160257933,-0.215992621080392,427.355749876302,1835.52891949017
0.71,4.55794377193825,0.0696797061962469,12.1381540912106,-3.33031545649885,-0.730638918206094,-4.49954147228458,1.53288334851255,-12.4930402393341,2.99590327358013,448.77763097446,1835.52891949017
0.72,4.4771443216486,0.13810744682392,16.1805259155555,-6.76849071094417,-0.221398689479163,4.473799008006,-8.04434627624803,15.5855823887308,0.0802849481688078,470.131795451409,1835.52891949017
0.73,4.44916316913764,0.0412942189522059,17.582083348736,-1.9223942351247,1.94514633027276,-4.00164514568148,9.55395544145292,-14.8844613573979,-2.67985646176631,491.282163847684,1835.52891949017
0.74,4.44244545450702,0.163534626022642,17.9205489018637,-8.02341519110209,-3.64579337754423,2.54366975813156,-19.4100095491546,2.96189020299944,0.998410940260911,512.368597288448,1835.52891949017
0.75,4.44953838378378,0.136008551117278,17.5684823561,-6.64198847582651,4.4340642828974,0.394922891050591,16.6523279653483,8.68720648678775,-1.45140768016901,533.523135750535,1835.52891949017
0.76,4.43486677212864,0.0472843544957855,18.3046591557709,-2.2054717476883,-2.5600622372344,-3.62165161745262,-8.59152571943045,-16.3128887157108,2.53692769975464,554.725017131481,1835.52891949017
0.77,4.48481108128497,0.137498564947136,15.8100963075666,-6.70594555829076,-1.60751955555265,4.18907115822765,-12.2981534924804,11.9868374378183,0.397061273252321,575.856624241902,1835.52891949017
0.78,4.47394478717681,0.118236205935193,16.3560666771197,-5.71189911573823,4.47123826466324,-0.195422976417107,16.4521982667974,5.42880105039288,-1.58805362704555,596.862139079877,1835.52891949017
0.79,4.4226648876371,0.137736028761758,18.9228347016056,-6.65828293742901,-1.34210974548411,-4.21635830463134,1.22889496054994,-20.0223930137005,2.86455647912913,617.851234679993,1835.52891949017
0.8,4.38140346914643,0.0642451202831849,20.988733598814,-3.02838680421583,-4.04082794342604,1.69485495738008,-20.6023718678938,5.02397632706909,1.18831284111304,639.060217918611,1835.52891949017
0.81,4.39736365764755,0.0965940247080592,20.1936332852352,-4.58971349260082,1.53238639014994,4.12285453229822,2.28172505729075,20.5825660685361,-0.333894809713317,659.880770885338,1835.52891949017
0.82,4.46836946373752,0.165528218439267,16.6462753249779,-8.07555581264775,4.40820009269578,-0.749331167320938,17.5605538444186,5.82580745952276,-1.70214512433315,681.025819278024,1835.52891949017
0.83,4.39493646082648,0.120436029735731,20.3208812958417,-5.78036822449035,4.39658197790461,-0.00618413493177973,20.163804106131,6.3064948600599,-1.54480639927021,701.914507168013,1835.52891949017
0.84,4.42411219836475,0.15606286458684,18.8651515719167,-7.54623564896956,2.12490389546413,-3.88354320131297,16.1213776972827,-12.366923523768,-2.60567467088806,722.786113096589,1835.52891949017
0.85,4.39867755118807,0.137764204096955,20.1400086780212,-6.64775059767311,-1.72607844740529,-4.0482090322338,-1.12170734844681,-21.1791007879011,2.76986229596376,743.749861382946,1835.52891949017
0.86,4.34261642714004,0.0942375015424741,22.9461587851313,-4.48151121622477,-3.96075515764345,-1.78314798072518,-18.7862320053546,-13.9171704313268,2.01551714341912,764.703314192646,1835.52891949017
0.87,4.42082307307814,0.123091414363044,19.0389778265025,-5.91841463002008,-4.3476604144469,0.810356131834219,-19.7285770376742,-2.87985355173527,1.41435820750564,785.595109329751,1835.52891949017
0.88,4.39940385106293,0.0841488380104223,20.1131426498609,-3.95782118208033,-3.57163526846416,2.57006941165969,-18.7972697773566,8.17713303549938,0.966176387550869,806.435764526794,1835.52891949017
0.89,4.38164496788452,0.155426454933792,21.0043680045596,-7.50014218733266,-2.60176382674622,3.52899348218665,-18.9310509753033,11.7919852896636,0.670750806509136,827.211062033922,1835.52891949017
0.9,4.30811115499919,0.142755887205137,24.6843912230593,-6.8393974102429,-2.04652777949855,3.79366907029342,-18.3412583084985,17.880010364908,0.527838492190298,847.964352433234,1835.52891949017
0.91,4.28651923595624,0.149355972463067,25.767307196305,-7.24017151436824,-2.0663276076733,3.75856948645364,-19.4116924464212,18.4271647323123,0.53749138388157,868.874756100564,1835.52891949017
0.92,4.32043053405055,0.163232339868747,24.0751819582711,-7.89645992558983,-2.65658975693079,3.41105491889324,-21.5419280974865,13.3384331734664,0.699454296275333,889.609951685183,1835.52891949017
0.93,4.25406900467227,0.150432270953281,27.3966841803132,-7.20263357792034,-3.53062778995145,2.37789831016383,-27.0600072343621,8.3792746111989,1.01342111281098,910.294473944633,1835.52891949017
0.94,4.31879602075088,0.135618359022255,24.163806436529,-6.50633037682861,-4.28850963401452,0.528276941690815,-24.6558346813809,-4.27921635803771,1.47962109751466,931.105532589735,1835.52891949017
0.95,4.29904956520545,0.13324224888725,25.1546777148519,-6.39797741452619,-3.78335150321114,-2.04593061078125,-18.5290637323446,-18.1759655352216,2.09751061790649,951.790828251553,1835.52891949017
0.96,4.25899359787071,0.184796806122823,27.1610303568151,-8.91206142592067,3.70673010796705,-2.10554701513585,28.2378917024294,-4.44610853500937,-2.04401678112602,972.417432404622,1835.52891949017
0.97,4.3108391360267,0.13960768941797,24.5723474572318,-6.67784377192097,3.94572281466265,1.74186561866716,19.2531552409635,16.6646293168636,-1.12269575973746,993.154440804228,1835.52891949017
0.98,4.26068294634337,0.207155488333322,27.0837962183247,-10.0830564072359,0.419244625180992,4.24506378160148,-8.72070691085088,27.5526643917113,-0.0498592786582493,1013.85071916023,1835.52891949017
