t,iq,id,vq,vd,ia,ib,va,vb,theta_e,omega,r
0,0,0,0,0,0,0,0,0,0,0,0
0.01,0.000581861509938536,0.000319654069304717,-0.0285815315300052,-0.0159926896467497,-0.000581113315167498,0.00032101223606906,0.0285440998623241,-0.0160594031578888,1.56846065087556,-0.00218069331586848,0
0.02,0.000702252777542954,0.000381850087577028,-0.0345833702736295,-0.0191044240776724,-0.000701352547146339,0.000383501052880849,0.0345383321776853,-0.0191857272264143,1.56844386415686,-0.00235141284635379,0
0.03,0.000744663092850699,0.000405718599368909,-0.0367248570929364,-0.020298601053673,-0.000743699865759196,0.000407481549763412,0.0366766671471636,-0.0203855443932446,1.56842734877133,-0.00220692473735972,0
0.04,0.000726729357363221,0.000398347710664531,-0.0359090959946691,-0.0199298339682023,-0.000725777924880079,0.000400078568786181,0.035861495916308,-0.0200153582980445,1.56841305846497,-0.00185741349245997,0
0.05,0.00074014911316205,0.000408348733807502,-0.0366178681603951,-0.0204301824851311,-0.000739168637242348,0.000410120864909418,0.0365688149452653,-0.0205178556015675,1.56840045173191,-0.00166923533264098,0
0.06,0.000738916312230712,0.000409944293942152,-0.0366042868438435,-0.0205100264774121,-0.000737927466701401,0.00041172162258499,0.0365548147196729,-0.020598070838331,1.56838939952183,-0.00145085105714758,0
0.07,0.000747954820888106,0.000417413752028762,-0.0370851496624809,-0.0208837244235563,-0.000746944062804065,0.000419219777102947,0.0370345811705916,-0.0209732703412345,1.56838007748838,-0.00130806774363813,0
0.08,0.000734416823299257,0.000411388826046147,-0.0364590680150384,-0.0205822855065675,-0.000733417209961902,0.000413168286140524,0.0364090569755172,-0.0206706237775399,1.56837172131184,-0.00109115323550268,0
0.09,0.000729547588737039,0.000410424581970839,-0.0362508609606193,-0.0205340536715381,-0.000728547430336929,0.000412197359850138,0.0362008225256557,-0.0206221417180112,1.56836469239166,-0.000935479472625549,0
0.1,0.000726629447135956,0.000410269176879263,-0.0361336185439305,-0.0205262759677899,-0.000725627203546597,0.000412039212230387,0.0360834757088765,-0.0206142954027313,1.56835869364814,-0.000807705709089474,0
0.11,0.000724362342240763,0.000410243200474027,-0.0360445377208448,-0.0205249794557928,-0.000723358052657845,0.000412011424655611,0.0359942924447022,-0.0206129666126779,1.56835355772354,-0.000699261114351849,0
0.12,0.000722463227051665,0.000410238066905497,-0.0359703283968745,-0.0205247141292264,-0.000721457142749295,0.000412004826617709,0.0359199932892599,-0.0206126780687271,1.56834915745307,-0.000606527132920522,0
0.13,0.000750944933249637,0.000426915737764966,-0.037379122703853,-0.0213591246646226,-0.000749896177707299,0.000428755247880059,0.0373266527369384,-0.0214506880077213,1.56834502241558,-0.000643756230301526,0
0.14,0.000767616857945819,0.000437389800950174,-0.0382608625894966,-0.0218831540782949,-0.00076654074326318,0.000439272998823484,0.0382070236714428,-0.0219770193765339,1.56834130271397,-0.000640471887498059,0
0.15,0.000726721705119892,0.000414573167993922,-0.0362253679396564,-0.0207416043940633,-0.000725700359652097,0.000416358422892702,0.0361742691755418,-0.0208305949223434,1.56833801382512,-0.000408942357405001,0
0.16,0.000718380868650314,0.000410926914852549,-0.0358275913603584,-0.0205591756191041,-0.000717367564537764,0.000412693323355457,0.0357768948623083,-0.0206472709778636,1.56833571799904,-0.000330355924285472,0
0.17,0.000716208316624181,0.000410343880960339,-0.0357293439161913,-0.0205300141759773,-0.000715195683062627,0.000412106282858947,0.035678680914654,-0.0206179345943674,1.56833384798609,-0.000285335404227234,0
0.18,0.000715273459609171,0.0004102503650838,-0.0356903532119926,-0.0205253391989865,-0.000714260406400252,0.000412011596829034,0.0356396691825454,-0.0206132200829702,1.56833226365378,-0.000250914765970532,0
0.19,0.000714645070045717,0.000410235117978076,-0.0356653627169952,-0.0205245789370446,-0.00071363149835682,0.000411995767837649,0.0356146527217312,-0.0206124464775119,1.56833090937265,-0.000222193513839605,0
0.2,0.000714138742609203,0.000410232420589779,-0.0356455145489801,-0.0205244425833154,-0.000713124701242293,0.000411992649299103,0.0355947810421604,-0.0206123024763859,1.56832974947945,-0.00019772578813859,0
0.21,0.000713710879206812,0.000410231765742852,-0.0356287984894434,-0.0205244064364236,-0.000712696431307862,0.000411991647395547,0.0355780446375916,-0.0206122604566897,1.56832875565061,-0.000176785578798681,0
0.22,0.000713345414433949,0.000410231469225941,-0.035614530457075,-0.0205243861433067,-0.000712330617520314,0.000411991055704302,0.0355637591449855,-0.0206122352430527,1.56832790403197,-0.000158846318252848,0
0.23,0.00071303245297416,0.00041023125736978,-0.0356023129394025,-0.0205243686316412,-0.000712017356877678,0.000411990590939239,0.0355515266655415,-0.0206122135180076,1.56832717425939,-0.000143474580793918,0
0.24,0.000712764173865424,0.000410231082537798,-0.0355918373165665,-0.0205243694577845,-0.000711748821375295,0.000411990198787633,0.0355410381824993,-0.0206122107043059,1.56832654889673,-0.000130302268580227,0
0.25,0.000712534195395892,0.000410230933765889,-0.03558285495887,-0.0205243687221982,-0.0007115186231931,0.000411989863317412,0.0355320448081263,-0.0206122068256175,1.56832601300586,-0.00011901456593233,0
0.26,0.000718140904917354,0.000413521007142815,-0.035858315774269,-0.0206889628641904,-0.00071711703293183,0.000415294044916338,0.0358070904209859,-0.0207774943182853,1.56832563936675,-0.000134841969703389,0
0.27,0.000704252220718775,0.000405456095380388,-0.0351824851954962,-0.0202854747440818,-0.000703248060913663,0.000407195285446196,0.0351322459857521,-0.0203723597582777,1.56832501051405,-6.56321623485323e-05,0
0.28,0.000703687381857295,0.000405269231583477,-0.0351065330906594,-0.0202761125008022,-0.00070268355084735,0.000407007258930349,0.0350563105093292,-0.0203628214465542,1.56832467949098,-5.69213966713758e-05,0
0.29,0.000710352627858729,0.000409437769301837,-0.0354825449839323,-0.0204846726783502,-0.000709338407996372,0.000411192370768038,0.0354318024979345,-0.0205723159858896,1.5683245205659,-8.12434540874679e-05,0
0.3,0.000701059198996998,0.000404734978525468,-0.0350266975513191,-0.0202493976704592,-0.000700056810387034,0.000406466315419932,0.0349765469413631,-0.0203358995725934,1.5683249596823,-5.15301189079325e-05,0
0.31,0.000709959002106173,0.000409352466966103,-0.0354621382765104,-0.0204804174463007,-0.00070894510795618,0.000411105899723938,0.0354114120574265,-0.0205680005352059,1.56832479703776,-8.49629459535296e-05,0
0.32,0.000711519553773109,0.000410090212194784,-0.0355394526853994,-0.0205173147332661,-0.000710503725212608,0.000411847683007267,0.0354886297199089,-0.0206050979528087,1.56832453896463,-8.63939304051018e-05,0
0.33,0.000711726546889362,0.000410208037510528,-0.0355505817685622,-0.0205232129307653,-0.000710710326240997,0.000411966192496071,0.0354997391760687,-0.0206110322768136,1.56832429570034,-8.25492778337104e-05,0
0.34,0.00071169331138188,0.000410226816174067,-0.0355498458712203,-0.0205241559661316,-0.000710676956833948,0.000411985040018756,0.0354989965680729,-0.0206119810365129,1.56832408312044,-7.83099586399479e-05,0
0.35,0.000711625616041922,0.000410229775422097,-0.0355473014593515,-0.0205243061059951,-0.000710609179018468,0.00041198796189283,0.0354964480221472,-0.0206121313790108,1.56832390018685,-7.45011582400066e-05,0
0.36,0.000711560365282131,0.000410230212850222,-0.0355447666793137,-0.0205243311061905,-0.000710543862734034,0.000411988349479177,0.0354939099539186,-0.0206121556812117,1.56832374328295,-7.12044967682825e-05,0
0.37,0.000711503030739515,0.000410230252390774,-0.035542523895278,-0.020524334258304,-0.000710486472863792,0.000411988342803144,0.0354916643969754,-0.0206121580608501,1.56832360880068,-6.83733833330459e-05,0
0.38,0.00071145367064314,0.00041023023269584,-0.0355405895128555,-0.0205243344778132,-0.000710437065486784,0.00041198828293024,0.0354897276444434,-0.0206121575872511,1.5683234935541,-6.59461822913928e-05,0
0.39,0.000711411491222618,0.000410230207256793,-0.0355389365069817,-0.0205243177160439,-0.000710394845570601,0.000411988223346569,0.0354880726494391,-0.020612140242695,1.56832339479513,-6.38660315343262e-05,0
0.4,0.000711375169642267,0.000410230184088362,-0.0355375098002715,-0.0205243178995948,-0.000710358489292158,0.000411988170474952,0.0354866442022376,-0.0206121399013255,1.5683233101654,-6.20834507274141e-05,0
0.41,0.00071134408675139,0.000410230164015284,-0.0355362879577919,-0.020524318068207,-0.000710327376667905,0.000411988125047638,0.0354854208682506,-0.0206121396217656,1.56832323764373,-6.05558983547794e-05,0
0.42,0.000711317427642735,0.000410230146778863,-0.0355352383947422,-0.0205243182242003,-0.000710300692080071,0.000411988086023197,0.0354843700270667,-0.020612139387303,1.56832317549792,-5.92468932057424e-05,0
0.43,0.000711294552032033,0.000410230132002519,-0.0355343360925681,-0.0205243183694013,-0.000710277794635601,0.000411988052497693,0.0354834666296012,-0.020612139190635,1.56832312224329,-5.8125168604982e-05,0
0.44,0.000711274936050338,0.000410230119339338,-0.0355335608596496,-0.0205243185052995,-0.000710258159943983,0.000411988023733175,0.0354826904580745,-0.0206121390284917,1.56832307660789,-5.71639303273872e-05,0
0.45,0.000711258172244022,0.000410230108487422,-0.0355328974518598,-0.0205243186330592,-0.0007102413801045,0.000411987999195078,0.0354820262459356,-0.0206121389030459,1.56832303750171,-5.63402174574487e-05,0
0.46,0.00071124385315946,0.000410230099187904,-0.0355323299104865,-0.0205243187538438,-0.000710227047280423,0.00041198797828112,0.035481458015257,-0.0206121388091725,1.56832300399026,-5.56343540904541e-05,0
0.47,0.000711231513135367,0.000410230091218827,-0.0355318387190539,-0.0205243188689834,-0.000710214695482841,0.000411987960186272,0.035480966233129,-0.020612138728335,1.56832297527354,-5.5029479369937e-05,0
0.48,0.000711220919341098,0.000410230084389767,-0.0355314154679129,-0.0205243189791356,-0.000710204091599605,0.000411987944631893,0.0354805424757835,-0.0206121386647496,1.56832295066539,-5.45111447398365e-05,0
0.49,0.000711211897153671,0.000410230078537946,-0.0355310542072653,-0.0205243190848083,-0.000710195060766389,0.000411987931441199,0.0354801807813179,-0.0206121386250833,1.56832292957774,-5.40669688142572e-05,0
0.5,0.000711204155534782,0.000410230073523056,-0.0355307427462559,-0.0205243191868325,-0.00071018731173879,0.000411987920111628,0.0354798689485389,-0.0206121385978773,1.56832291150732,-5.36863416260952e-05,0
0.51,4.71371489037384,-0.0254815843240727,4.31494028623869,1.28354332554194,-0.505334882596886,4.68661861423591,0.837492026591528,4.42321153097436,0.10200428699388,31.5247175870643,3176.34008718067
0.52,4.69025091824732,-0.00520075032416323,5.489019086549,0.27945197798144,-2.10422186430356,4.19174558742663,-2.20724752560039,5.03343643063344,0.464130927732904,67.3598997372409,3176.34008718067
0.53,4.65337459087144,0.00714978609784622,7.33384793676643,-0.32661767708549,-4.13054933165534,2.14301386397075,-6.66500584673117,3.07728804788199,1.09374236579329,104.967227281609,3176.34008718067
0.54,4.67115386868807,0.0183743351305194,6.4460212216512,-0.886328296718221,-4.23440038766287,-1.97227519330128,-5.45513722595302,-3.54658219777332,2.01062406963997,144.619941624043,3176.34008718067
0.55,4.66433773077511,0.0544514558008087,6.78801755389996,-2.67351154359097,0.23143960557202,-4.65891050963031,3.08439725515787,-6.61145519973801,-3.08028322651242,180.440508195505,3176.34008718067
0.56,4.6248844384242,0.0081479750398441,8.76205811761438,-0.358882851623884,4.61939025440313,-0.225513050178871,8.76924251594987,-0.0533390485384183,-1.61781462437606,219.054928669069,3176.34008718067
0.57,4.61320090095071,-0.0031663138509459,9.34764803290991,0.23287319407825,-0.55424020103562,4.57978715418433,-0.885471720991093,9.30852799872299,0.119746751766879,255.108197828193,3176.34008718067
0.58,4.59392482787193,0.0723128621008901,10.3129788675457,-3.54049991413142,-3.92963292249046,-2.38062167692442,-6.8534786596033,-8.48071359183713,2.13121861658513,292.644576614351,3176.34008718067
0.59,4.62958660570295,0.00786276600015556,8.53151348225254,-0.312948649812621,4.42256257326184,-1.36896831532982,8.24629658352795,-2.20980809387866,-1.86928561281211,330.155812956335,3176.34008718067
0.6,4.6026147313521,0.0364952396106772,9.88180422819807,-1.74052015729275,-2.88427888016845,3.5869666306209,-7.60092273758375,6.55022432895683,0.685164854259206,367.29759830406,3176.34008718067
0.61,4.5636373082628,0.0476450797320985,11.832523336042,-2.2890885168415,1.60312566179068,-4.27306022043909,6.40646912587846,-10.2081187333945,-2.77223283477193,404.148059925374,3176.34008718067
0.62,4.58129303049878,0.0841063079405899,10.9516389548072,-4.09627262766672,-1.37977600695813,4.36938644124719,-7.37179625170663,9.07603797149099,0.324229156138953,440.790371607332,3176.34008718067
0.63,4.53759853431144,0.0751906205225787,13.1383087700407,-3.62888128346646,2.30388643807313,-3.90993112068008,9.95199045103778,-9.31352901798638,-2.59255368906234,477.374969776675,3176.34008718067
0.64,4.52909776445356,0.0159031041033288,13.5654249855611,-0.687418865582353,-3.90595302621482,2.29270809866883,-12.0688649215848,6.23183754924536,1.04351823451894,514.612077449425,3176.34008718067
0.65,4.53830741126208,0.0890645940636461,13.1071241650635,-4.31890931144843,4.43231242451555,0.979169664826856,11.7263717555364,7.27611757531894,-1.33374972722079,551.066898408376,3176.34008718067
0.66,4.48738627369553,0.0388616936069428,15.6554316222394,-1.82192648896484,-1.37036480041114,-4.2732009213674,-2.91176962730112,-15.489788670196,2.83992561597405,587.790053472819,3176.34008718067
0.67,4.4985710079981,0.129576644957863,15.0985433523863,-6.31697137468822,-3.71311519981374,2.54297202773285,-16.115491258634,2.85676043892533,0.9990984069495,624.038119213192,3176.34008718067
0.68,4.52080784629067,0.0887589996154361,13.9891303349711,-4.28934336971887,2.5310550622402,3.74691099640815,4.00066574798092,14.0744061205115,-0.57446522406436,660.805188839603,3176.34008718067
0.69,4.46013321054955,0.0566607292659926,17.0253406441606,-2.69070629428514,4.23000412643833,-1.4152963592134,17.0341696189248,-2.63423419716475,-1.88096991238293,697.321689466816,3176.34008718067
0.7,4.44821231834926,0.0609430990031082,17.6239627421454,-2.90082960371401,0.915141514244558,-4.35348399553006,6.69175866024636,-16.5601703239831,-2.92070057086296,733.636487298806,3176.34008718067
0.71,4.44862344566064,0.104372016911678,17.606070447712,-5.06655344154238,-2.42416994018618,-3.73156055562461,-4.93014014596541,-17.6447555530515,2.58892808981702,769.912991222241,3176.34008718067
0.72,4.43164542097421,0.103830345565295,18.4576950592909,-5.02726398032031,-3.91736403352689,-2.07473393637156,-13.6480788243696,-13.4048436929862,2.08128711335618,806.133710486381,3176.34008718067
0.73,4.44431764716831,0.127341435514259,17.8268479553993,-6.17299916539459,-4.31914803798912,-1.05505232859095,-15.5534254523584,-10.6767683977323,1.8390226907625,842.170153284774,3176.34008718067
0.74,4.40980612543191,0.131014010834425,19.5553151713964,-6.31877469196345,-4.26226233199109,-1.13871618422747,-16.9229656378887,-11.6597812620684,1.86156243403208,878.087925892212,3176.34008718067
0.75,4.37013380756045,0.137454647628477,21.5418940164323,-6.69642322657447,-3.73588057137373,-2.27159847520854,-14.3881498762493,-17.3745913616175,2.14855602846024,914.446413798902,3176.34008718067
0.76,4.382338592108,0.108418509930377,20.9346706355431,-5.17791634102176,-1.97252871064035,-3.91481501413211,-4.27441659057816,-21.1376586939869,2.69959460371867,950.144058736735,3176.34008718067
0.77,4.37567350332665,0.0857690577309691,21.271070433759,-4.0880310935424,1.51229167434904,-4.10692693271667,11.5477218775699,-18.3254073640397,-2.76917210221468,986.29555311065,3176.34008718067
0.78,4.34247027042626,0.156174001888571,22.9343721919248,-7.58365458826903,4.29192480684494,-0.678837109173317,23.6816793160178,4.76185988088727,-1.69171414922844,1022.06465300928,3176.34008718067
0.79,4.33932774737045,0.155397042159973,23.0947407062535,-7.49713977787795,1.63912471222564,4.02084365744086,0.907917911400611,24.2641677830557,-0.351293666468109,1057.73738604504,3176.34008718067
0.8,4.39327774618008,0.163691808346364,20.4005153789136,-7.91028213423126,1.52532604646736,4.12323475140199,-1.15521171306499,21.8499216718602,-0.317079766795793,1093.5494060879,3176.34008718067
0.81,4.34680132101694,0.148525237199695,22.727699342578,-7.14765301272255,-4.34221485459322,0.248820471484597,-22.8866291990679,-6.62113773465523,1.54771183061612,1129.27362637266,3176.34008718067
0.82,4.32901288101087,0.144569589196119,23.6205648808526,-6.93308213650459,2.07303480676652,-3.80312760501312,17.9641247292194,-16.8311893791001,-2.6091462643204,1164.90360943941,3176.34008718067
0.83,4.26899163605871,0.215831248848694,26.6251360645625,-10.4882723106567,1.14887542408066,4.11715411135681,-4.37959013562234,28.2793372758789,-0.221608960649042,1200.55120120151,3176.34008718067
0.84,4.26334567984506,0.117795699559584,26.9110361602144,-5.66181220336535,-2.88380973546308,-3.14223385863252,-13.3661540175521,-24.0334332008895,2.4266756175453,1236.25489239779,3176.34008718067
0.85,4.29695264590439,0.160048892056206,25.2343026864606,-7.71158879940032,3.58344063831681,2.3766301522645,15.9972849258032,20.9839345425404,-0.947949813231591,1271.61586791059,3176.34008718067
0.86,4.2160091499034,0.105708310335667,29.285196734557,-5.03132646476055,-3.42091411815299,-2.46642534757587,-20.2742546825168,-21.7230658712152,2.22053514300614,1307.10215802709,3176.34008718067
0.87,4.29159191585609,0.163328627662204,25.5097712854454,-7.85709149887174,2.67488062422872,3.35997783608481,8.78914698368826,25.2038333028232,-0.634319318053695,1342.47032525714,3176.34008718067
0.88,4.2269119913325,0.187751972426423,28.7475928409783,-9.13732693721862,-0.559524250379674,-4.19392040921827,6.56835287595419,-29.4409846677252,3.05335173001996,1377.960232763,3176.34008718067
0.89,4.17525485738286,0.234496702910459,31.33428725583,-11.4084404281093,-2.56661164401865,3.30155213446084,-29.1885833316307,16.1250325247746,0.716909417336585,1413.17451990739,3176.34008718067
0.9,4.18338828581482,0.171779053904416,30.9315475525491,-8.23141207731451,4.12732109997315,0.703893550879243,28.5366873113213,14.4973879053448,-1.36083749819179,1448.35242510702,3176.34008718067
0.91,4.21220914027889,0.215478153896192,29.4945141818083,-10.4127835987109,-0.378330927429338,-4.20071450893845,9.26353332677324,-29.8753975605051,3.10288258227883,1483.55103191107,3176.34008718067
0.92,4.16658525789226,0.228609065037856,31.7797653256499,-11.0624370213448,0.342118549337055,4.15880388021629,-10.1919068001841,32.0695499310633,-0.0272665817267629,1518.70874792636,3176.34008718067
0.93,4.09855978521614,0.221532248906129,35.1851603135578,-10.7026596381927,4.03418309606632,0.756726897704292,31.643456806896,18.7412398451082,-1.33137363525366,1553.84914285884,3176.34008718067
0.94,4.1463215687419,0.235052326216008,32.8012696898659,-11.4828433997234,2.69642381577313,-3.15856466661763,30.9722169600758,-15.763906951891,-2.37833356022732,1589.02813091236,3176.34008718067
0.95,4.19026610478835,0.178722133754367,30.6082926466777,-8.60686759111324,-0.291312215345861,-4.18394656075124,7.78085711718519,-30.8286232420063,3.11470456207831,1623.97907865467,3176.34008718067
0.96,4.09027105299928,0.247248536259788,35.6123678905123,-11.9659251301666,-2.38479652795944,-3.33229570205273,-8.80729955261961,-36.5219877002932,2.58080710587549,1658.82244304823,3176.34008718067
0.97,4.1535839853903,0.179973415635724,32.4510735776606,-8.68093611506562,-3.20936321950958,-2.64284658640744,-18.3308402028931,-28.1497979678823,2.30299388321189,1693.87754442078,3176.34008718067
0.98,4.05252000356561,0.300045755008265,37.5087059459755,-14.5988111929265,-3.26859825866026,-2.4143759562009,-18.9253729013765,-35.5226486981506,2.28090334758304,1728.6388707759,3176.34008718067
