t,iq,id,vq,vd,ia,ib,va,vb,theta_e,omega,r
0,0,0,0,0,0,0,0,0,0,0,0
0.01,0.000930169047698269,0.000524945982942355,-0.045640420656137,-0.0262755753801014,-0.000445506497405166,0.000970724833860245,0.0215556804263955,-0.0480500416293226,0.944063083669291,-0.00192119660479897,0
0.02,0.0010399832395548,0.000586502224739226,-0.0511631280273905,-0.0293566900032711,-0.000498331893114068,0.00108499554030618,0.0242209364420413,-0.053785008648934,0.944048790867066,-0.00201402371043517,0
0.03,0.00108273912162988,0.00061108872783021,-0.0533017397760211,-0.030587350820778,-0.000518525144654868,0.00112999341287887,0.0252304844790777,-0.0560364537273286,0.944034538995577,-0.00196088261492929,0
0.04,0.00105680698338427,0.000597535153877729,-0.0520883479400685,-0.0299089313124625,-0.000505457166711081,0.00110381262579744,0.0246449239157163,-0.0547756139953519,0.944021633165156,-0.00177162888420798,0
0.05,0.0010807198640904,0.000611709148311376,-0.05330138364754,-0.0306183994279445,-0.000516497290999622,0.00112932460132482,0.0252105703481715,-0.0560620283702908,0.944009300670125,-0.00169708008806327,0
0.06,0.00108079300027881,0.000612512743433134,-0.0533497723590361,-0.0306586127797399,-0.000516072135267889,0.00113002430129608,0.0252255263130384,-0.0561232712033895,0.943997756838659,-0.00157859450005557,0
0.07,0.00110684666515207,0.000628143650236003,-0.0546601396877413,-0.0314409993314857,-0.000527992645505393,0.00115797139506219,0.0258272857533706,-0.0575258082973166,0.943987208452467,-0.0015270559917284,0
0.08,0.00107990706765009,0.000613442232420548,-0.0533865225159513,-0.0307051535718803,-0.000514786136805976,0.00113026805698033,0.0252268348411224,-0.0561830405560046,0.943977162586397,-0.00136499726652361,0
0.09,0.00107714230319776,0.000612602097065636,-0.0532873993276639,-0.0306631029950296,-0.000513029420895446,0.00112797060421053,0.0251707067253978,-0.0560910717969779,0.943967995734561,-0.00126474672866613,0
0.1,0.00107594707381515,0.000612551586018917,-0.0532620665129405,-0.0306605677110088,-0.000512081488533958,0.00112723293967419,0.0251512017428648,-0.0560743719757963,0.943959519785948,-0.00117502314078627,0
0.11,0.00107492466306406,0.000612546242061318,-0.0532426988833404,-0.0306603047188924,-0.000511247748651082,0.00112663289026463,0.025135230657641,-0.0560629953679303,0.943951675730894,-0.00109217147620422,0
0.12,0.00107398351029316,0.000612543653205932,-0.0532250196386923,-0.0306601698528563,-0.000510478869147146,0.0011260824266539,0.0251205847342712,-0.0560526980042306,0.943944416033863,-0.00101550325504455,0
0.13,0.00112392233403202,0.000641249925765428,-0.0556858046553588,-0.0320970215343339,-0.000534075819239588,0.00117862882178136,0.0262702498531609,-0.0586600511774646,0.943937315634151,-0.00105154384838426,0
0.14,0.00116802658881414,0.000667390692515716,-0.0579837384946935,-0.0334054762250617,-0.00055445235438289,0.00122567493053936,0.0273633396049684,-0.0610678918688645,0.943930723021256,-0.00108006702312347,0
0.15,0.00107730040603971,0.000615660826223077,-0.0534637889729921,-0.0308162021214328,-0.000511314147128965,0.00113056280707654,0.0252213109342321,-0.0563196281885491,0.943924535806772,-0.000818418951176058,0
0.16,0.00107108718744062,0.000612713110040579,-0.0531814914358577,-0.0306686442168007,-0.000508005517550301,0.00112453346435467,0.0250789519827258,-0.056034658354335,0.943919267813641,-0.000750711559218192,0
0.17,0.00107011866608966,0.00061254370714031,-0.0531531048759967,-0.0306601684396527,-0.000507315074774035,0.00112383057779085,0.0250606632860559,-0.0560112635312712,0.943914420437855,-0.000698777328632422,0
0.18,0.00106951674431415,0.000612532645365419,-0.0531411712521065,-0.0306596162714988,-0.000506829052885614,0.00112347079141283,0.0250510714766753,-0.0560039281642973,0.943909935891691,-0.000651371744396492,0
0.19,0.00106897768726008,0.000612530706292344,-0.053131002082791,-0.0306595121896388,-0.000506388969245829,0.00112315509785472,0.0250426645388981,-0.0559979823102616,0.943905785519763,-0.00060753813361126,0
0.2,0.00106847966525839,0.000612529384005282,-0.053121630662896,-0.0306594597380019,-0.000505982105939557,0.00112286381623487,0.0250348907345474,-0.0559925384459444,0.943901944328112,-0.00056697231819853,0
0.21,0.00106801918857301,0.000612528186879945,-0.0531129772433279,-0.0306593846780437,-0.000505605898788746,0.00112259451361238,0.0250277277289324,-0.0559874902564221,0.943898389279029,-0.000529428527395924,0
0.22,0.00106759276199162,0.000612527080245323,-0.0531049534875999,-0.0306593321290011,-0.000505257513146424,0.00112234512290108,0.0250210763121881,-0.0559828230057775,0.943895099056407,-0.000494681497318473,0
0.23,0.00106719811679535,0.000612526055946204,-0.0530975258933424,-0.0306592824396489,-0.000504935093947722,0.00112211431708385,0.0250149197688462,-0.0559785016293445,0.943892053932502,-0.000462522879894996,0
0.24,0.00106683304108985,0.000612525107794036,-0.0530906578558005,-0.0306592327014883,-0.000504636832705483,0.00112190080324247,0.0250092291325763,-0.0559745027633116,0.943889235649379,-0.000432759855852298,0
0.25,0.00106649468132532,0.000612524230134787,-0.0530842751301391,-0.030659205434612,-0.000504360402558298,0.00112170291170552,0.0250039301140201,-0.0559708015203217,0.943886627308779,-0.000405213970118943,0
0.26,0.00107711550739879,0.000618691284650114,-0.0536109094907813,-0.0309678783780242,-0.000509341073171279,0.00113292912097875,0.025249207128334,-0.0565297854856653,0.943884267440862,-0.000404145084673517,0
0.27,0.00104398652744167,0.000599881098264961,-0.0520060720632803,-0.0300263479586995,-0.000493544085965139,0.00109826200732982,0.0245017542675528,-0.0548258802118166,0.943881850913521,-0.000306986590811505,0
0.28,0.0010418452790444,0.000598660349085785,-0.051793265481388,-0.0299652537721057,-0.000492523892562725,0.00109601825454209,0.0243651421775962,-0.0546516114082444,0.943879777374166,-0.000281000990054169,0
0.29,0.00106391476074379,0.000611731892089629,-0.0529919892088148,-0.0306195409296434,-0.000502726225085473,0.00111955208388863,0.0249519794386165,-0.0558847557849555,0.943877994717086,-0.000310857366747488,0
0.3,0.0010562843606228,0.000607724797292606,-0.0526247213526478,-0.0304189639959201,-0.000498896302087458,0.00111183117401165,0.0247721556877274,-0.0555068911993088,0.943876829538583,-0.000282224758608225,0
0.31,0.00106446287850652,0.000612247235085908,-0.0530295524327202,-0.0306453310370778,-0.000502864644348562,0.00112029239310678,0.0249671129860549,-0.0559277481642903,0.943875190935678,-0.000283237475680664,0
0.32,0.00106477692638704,0.000612504299404966,-0.0530508822376159,-0.0306581997533469,-0.000502966416779858,0.00112068559522617,0.0249767499333437,-0.055950721899478,0.943873631631584,-0.000267896747785285,0
0.33,0.00106462133960577,0.000612518482515522,-0.0530488881225508,-0.0306589083093782,-0.000502830476155576,0.00112060653238158,0.0249746384561935,-0.0559501619635207,0.943872185854583,-0.00025269762885784,0
0.34,0.00106444991946516,0.000612518867268113,-0.0530457046845254,-0.030658924300761,-0.00050268992876445,0.00112050695193184,0.0249719761404284,-0.0559483407475106,0.943870847616015,-0.000238569162357798,0
0.35,0.0010642895587317,0.0006125184976686,-0.053042672751711,-0.0306589024324308,-0.000502558892157006,0.00112041319821102,0.0249694643111578,-0.0559465752572955,0.943869609057107,-0.000225489381167513,0
0.36,0.00106414077995071,0.000612518114247826,-0.0530398463003347,-0.0306589029938376,-0.000502437346710141,0.00112032618128235,0.0249671108951223,-0.0559449461694203,0.94386846276174,-0.000213383719802749,0
0.37,0.00106400335302785,0.000612517757013061,-0.0530372415404793,-0.030658875241317,-0.000502325074868549,0.0011202458020761,0.0249649584036679,-0.0559434220725629,0.94386740185712,-0.000202179831714203,0
0.38,0.00106387628707214,0.000612517426235993,-0.0530348346839448,-0.0306588503716382,-0.000502221266850677,0.0011201714827472,0.0249629689138621,-0.0559420144352115,0.94386641998292,-0.000191810554507232,0
0.39,0.00106375835835138,0.000612517120075294,-0.0530325883648103,-0.0306588508388587,-0.00050212492608876,0.00112010250689306,0.0249610986625923,-0.0559407196681195,0.943865511251242,-0.000182213716303264,0
0.4,0.00106364956960092,0.000612516836706444,-0.0530305248324138,-0.0306588259176861,-0.000502036049736566,0.00112003887741721,0.0249593951213513,-0.0559395098819117,0.943864670214082,-0.000173331775816993,0
0.41,0.0010635485211018,0.000612516574434557,-0.0530285945169473,-0.0306588263319142,-0.000501953499577902,0.00111997977435147,0.0249577881066126,-0.0559383972001229,0.943863891828231,-0.000165111478143063,0
0.42,0.00106345521558888,0.000612516331689399,-0.0530268164453975,-0.0306588013668133,-0.000501877273500276,0.00111992520040106,0.0249563225180113,-0.0559373518318538,0.943863171426668,-0.000157503535492523,0
0.43,0.00106336883542028,0.000612516107018113,-0.053025167248302,-0.0306588017345921,-0.000501806705348514,0.00111987467690228,0.0249549494372637,-0.0559364012436896,0.943862504690038,-0.000150462331673475,0
0.44,0.0010632889176652,0.00061251589907541,-0.0530236399478976,-0.0306587738206321,-0.0005017414165238,0.00111982793320871,0.0249536944434332,-0.0559354980234621,0.943861887620748,-0.000143945648584011,0
0.45,0.00106321476110536,0.000612515706616376,-0.0530222145135429,-0.0306587741494465,-0.000501680835732267,0.00111978455880721,0.0249525079469681,-0.0559346762878219,0.943861316518975,-0.000137914413076404,0
0.46,0.00106314619248096,0.00061251552848862,-0.0530208961169016,-0.0306587744595035,-0.000501624819492872,0.00111974445285306,0.0249514105243106,-0.0559339162695166,0.943860787960292,-0.000132332462681412,0
0.47,0.00106308303853583,0.000612515363625234,-0.0530196889278281,-0.0306587494064808,-0.000501573224564785,0.00111970751444259,0.0249504202435269,-0.0559331999696463,0.943860298775502,-0.000127166328781135,0
0.48,0.00106302424879845,0.000612515211039097,-0.0530185523558136,-0.0306587496851582,-0.000501525197532247,0.00111967312798335,0.0249494743281307,-0.0559325447026441,0.943859846031628,-0.000122385035938608,0
0.49,0.00106296988284328,0.000612515069815944,-0.0530175003450072,-0.0306587499489082,-0.000501480784130185,0.00111964132905661,0.0249485987885333,-0.0559319381905482,0.943859427014158,-0.000117959916170006,0
0.5,0.00106291988382925,0.00061251493910972,-0.0530165402440017,-0.0306587248569319,-0.000501439936003937,0.00111961208489929,0.024947814301797,-0.0559313642857025,0.943859039210592,-0.000113864437057433,0
0.51,4.69332274214972,0.0801185892788948,5.33492036048777,-4.00468384096206,-0.318187724163854,4.68320978843776,-4.4426856428261,4.97608402238511,0.0849070792065053,26.1129602597198,4986.48999080022
0.52,4.63037258851331,0.00554088812240405,8.48371838992702,-0.264491389681505,-1.72909626844723,4.29541698841201,-3.42268429633238,7.76715299337159,0.38389458120094,55.4928960532148,4986.48999080022
0.53,4.60848350380917,0.0381149660206777,9.57945593030603,-1.88693870491525,-3.58712327937721,2.89346151418436,-8.6781259134904,4.47399644908097,0.900299509844211,85.5987506682007,4986.48999080022
0.54,4.6309943862925,0.00128493811812302,8.45532330280775,-0.0388934817818326,-4.61862867026625,-0.338200921248389,-8.42972270518849,-0.658619747319007,1.64416873159539,117.915791988442,4986.48999080022
0.55,4.61755866170411,0.0385233829079263,9.1285831005584,-1.90066575055241,-2.29961638890454,-4.00438466049291,-2.82376584478691,-8.88650134602692,2.62864631352771,149.973316855839,4986.48999080022
0.56,4.57270159848099,0.00101168795095319,11.3729665133622,-0.00930872570573961,2.9257391447437,-3.51420707830053,7.28582004115699,-8.73277048217274,-2.44709795140321,179.359796513705,4986.48999080022
0.57,4.61515803802664,0.0425376240819746,9.2518043520458,-2.09256762121636,3.95083035847566,2.38588194258884,6.77709861968431,6.63669023813601,-1.01830198221465,211.184339798309,4986.48999080022
0.58,4.55027308284308,0.045473802092292,12.4976890299536,-2.22322607205476,-2.68990425728975,3.67034985822026,-9.26802511968566,8.6740230365017,0.642443428681948,241.299320268031,4986.48999080022
0.59,4.53785568328226,0.0804804354143944,13.1204043863621,-3.98238365044814,-2.69371798791033,-3.65273797368357,-4.35219333779723,-13.0024153122203,2.52390440316814,272.743809808123,4986.48999080022
0.6,4.59713581324203,0.081670870025301,10.1582897442994,-4.01494890880553,4.57590108888817,-0.448839660809063,10.4466897267928,3.19019419809808,-1.65080753694421,302.392922739374,4986.48999080022
0.61,4.54585688912269,0.0811672716232441,12.7242420686642,-3.99458424966461,-2.80386428261893,3.57907083850276,-11.1246322078723,7.35565073866358,0.682393530483011,333.47149923914,4986.48999080022
0.62,4.55856039121654,0.0219680842116161,12.0911959068154,-1.0355725767422,0.417685568302142,-4.53943765274118,2.19661986822427,-11.9350027303395,-3.04501934190496,364.334408624256,4986.48999080022
0.63,4.61012219389814,0.018416248642761,9.51524424211305,-0.854513023499874,1.22863307513136,4.44342509417899,1.67469816453608,9.40560745258359,-0.265770936145072,394.706514111872,4986.48999080022
0.64,4.46867574658689,0.0715458445633046,16.5897935974044,-3.50131846956004,-1.82452017524081,-4.07986615787178,-3.31054961509106,-16.6289128891754,2.73707798204223,424.883390456807,4986.48999080022
0.65,4.51212444919135,0.076375437197734,14.4195706893627,-3.72665700533108,1.49250271881045,4.25881860223477,1.00067636972237,14.8596984526601,-0.320150502488074,455.241649192835,4986.48999080022
0.66,4.51351444900249,0.0203762692268272,14.3524161489556,-0.933497252039715,-0.0791225821360857,-4.51286688156187,0.746606695778669,-14.3633507537129,3.1285762561381,485.690916374361,4986.48999080022
0.67,4.51742064821393,0.015436483864482,14.1595465049889,-0.687645032510389,-2.21738819320337,3.93579943576727,-7.59027512717126,11.9730253658599,0.516482017285293,516.152592256548,4986.48999080022
0.68,4.53220343131125,0.0649260081718295,13.4229257492072,-3.15347581328021,4.30662381106098,-1.41353269482146,13.7525816258217,-0.992896771463748,-1.87361598622309,546.362404867772,4986.48999080022
0.69,4.45321744706787,0.0948878246492891,17.3747555653059,-4.63142087485751,-3.54952355358407,-2.69091654881534,-10.7430440544194,-14.4194034106477,2.24076985811725,576.284341480181,4986.48999080022
0.7,4.42974445395201,0.105828588820369,18.5509198068797,-5.15626647711896,-1.17802762565214,4.27154381116836,-10.294200194189,16.2712369544022,0.292981760709787,606.366229736753,4986.48999080022
0.71,4.41641748221699,0.0610797801625385,19.219903790846,-2.95368362296531,4.38293200814874,0.546242737912175,18.6318713755512,5.56617622060832,-1.43297684064102,636.961771757577,4986.48999080022
0.72,4.38629319554793,0.0546605211487301,20.7288214273877,-2.59112587829044,0.832488015538716,-4.30691530841584,6.72488953256774,-19.7781149723737,-2.93819526721633,666.657983928014,4986.48999080022
0.73,4.42077240469152,0.0635387385186084,19.0076781449106,-3.06945601459057,-3.93206054992659,-2.02142663905608,-15.3355435624748,-11.6419282049606,2.06002279125364,697.074825369446,4986.48999080022
0.74,4.4299084467476,0.162299191653436,18.5536760791805,-7.95949020023288,-3.6281585693031,2.54693841114574,-19.8972442237545,3.4193643559917,0.995355442411828,726.710374933427,4986.48999080022
0.75,4.46697226877918,0.0867101783894988,16.7034053083745,-4.2024716465364,-0.585186395534962,4.42932464237601,-6.66355431670085,15.8827441175684,0.150764619433523,756.967041912316,4986.48999080022
0.76,4.36668664619993,0.0381258108832926,21.7205995788328,-1.78710749846643,2.02927507963507,3.86671029361244,8.33563550204703,20.1369158525351,-0.474564537059,786.97782706977,4986.48999080022
0.77,4.35133002775775,0.0961385092723892,22.491511253752,-4.62719081278368,3.41595288280887,2.6971432156749,14.3932226339361,17.8917331610303,-0.880355442210594,816.544734012274,4986.48999080022
0.78,4.41451456022676,0.0692576424196316,19.3353541556189,-3.2794144639777,3.89998759767847,2.0695004618124,15.3529417211591,12.2023628882462,-1.06724868825569,846.390008087329,4986.48999080022
0.79,4.4151786077551,0.0853716789971197,19.3051954658951,-4.08907728733927,3.84062112979177,2.17961459881099,14.5158539554227,13.3679134117142,-1.03527098865324,876.323257185827,4986.48999080022
0.8,4.38707591932074,0.0891164234955543,20.7134872929368,-4.27517178305682,3.16237626768611,3.04199822491668,11.6075439846352,17.6802311142716,-0.784487247607403,906.151763485491,4986.48999080022
0.81,4.40762957353835,0.0855192838690306,19.6890505573957,-4.0838116417047,1.44926140496356,4.16343048285022,2.22860787374692,19.9842321924481,-0.31557488631956,935.874242623524,4986.48999080022
0.82,4.3792283928472,0.13928514167876,21.1123632395309,-6.75979996141167,-1.45943151580316,4.13123484179876,-13.9606453563475,17.2199639462599,0.371378016891953,965.572458223078,4986.48999080022
0.83,4.31610083554873,0.104198864495881,24.2720326850563,-4.99430717552197,-4.09992683637768,1.35284284465595,-24.6765292110219,2.26794641151268,1.27621523205477,995.334102717941,4986.48999080022
0.84,4.35874156081849,0.0423896023460455,22.1433375844193,-1.96687819772104,-2.97876551332927,-3.18235461396018,-13.5251509759507,-17.6427407252945,2.39895152714616,1025.23659609994,4986.48999080022
0.85,4.28140256257162,0.133766055697916,26.0137383638884,-6.50990954606574,2.29757797256025,-3.61516759230575,20.0145427755724,-17.8468928233342,-2.54421764859544,1054.75581846815,4986.48999080022
0.86,4.36880813497345,0.146904088568271,21.6468843968719,-7.11206743380836,4.03602771318919,-1.67885247410757,22.7640809403814,-0.98271369907002,-1.9313777362151,1084.21150349062,4986.48999080022
0.87,4.34593393586952,0.15463484249915,22.7941442171978,-7.56824958832096,0.834510936206112,4.26786190109398,-3.89858771032763,23.6992072924479,-0.157530905471142,1114.01049751993,4986.48999080022
0.88,4.28471193840769,0.109314437542718,25.8587930146611,-5.22794774585115,-4.16671455207579,-1.00458741924657,-23.6211670358117,-11.7494289935604,1.83288658230845,1143.30402011822,4986.48999080022
0.89,4.26200003702217,0.108828992710738,26.9980405197361,-5.26513746959282,3.26569304749599,-2.74075482025806,24.3970801413789,-12.7042648372173,-2.24349102523269,1173.00632338414,4986.48999080022
0.9,4.26750733410315,0.17960965754498,26.726325280006,-8.72937513866893,-0.584197453811689,4.23114544900876,-13.3549911017412,24.7415170504299,0.179266181540416,1202.30887644832,4986.48999080022
0.91,4.26936715784514,0.135253119381203,26.637115960552,-6.52556114514947,-1.48651604899309,-4.00450488461121,-2.28804469409538,-27.3291739068857,2.81781733117649,1231.69228534673,4986.48999080022
0.92,4.30416834103609,0.108150535876275,24.900781299936,-5.20433882156385,2.55896791974051,3.46254889238067,10.0302033851456,23.3779612449309,-0.611329166190169,1261.26085566369,4986.48999080022
0.93,4.21086300273142,0.168052145603394,29.569857476828,-8.2267627612346,-2.78901642416353,-3.15927145670647,-12.2905509057149,-28.1246947568074,2.4582479588646,1290.66778641672,4986.48999080022
0.94,4.23352002170964,0.0617658246140453,28.4408160153394,-2.90408403346855,2.22984119909526,3.59921033257631,12.1334525454189,25.8861555473172,-0.540071986565356,1319.99866339527,4986.48999080022
0.95,4.24541701528853,0.172700020477697,27.8498175647816,-8.44998103535649,-0.936641416892107,-4.14440511858297,3.28094713982954,-28.9179858177423,2.9599820046495,1349.30439451492,4986.48999080022
0.96,4.19521224911522,0.114450541914292,30.3640026068638,-5.5347995679247,-1.49596639145325,3.92109542058252,-16.7085840775239,25.950527522404,0.391746797490471,1378.5935350613,4986.48999080022
0.97,4.2413649158306,0.162731173548596,28.0603305197365,-7.94634983834906,3.85904742280164,-1.76731739442898,28.9706596494113,-3.35074679858963,-1.96190721305802,1407.9028153611,4986.48999080022
0.98,4.22531854931022,0.186125901582535,28.8666487563179,-9.10159411349384,-3.56699683612682,-2.27255214801469,-18.4157885476213,-24.0204320942967,2.18207485686056,1437.14406078324,4986.48999080022
