t,iq,id,vq,vd,ia,ib,va,vb,theta_e,omega,r
0,0,0,0,0,0,0,0,0,0,0,0
0.01,0.000779793265365995,0.000434008084808182,-0.0381445205673929,-0.0217236885753075,0.000628085815159828,0.000633994292706205,-0.0311989714584505,-0.0308795607897521,-0.272844721670212,-0.00401788309241857,0
0.02,0.000871276951801551,0.000485023272733189,-0.0427795869883514,-0.0242771908059036,0.000701886860616364,0.000708326151379095,-0.0349080488419206,-0.0346540500139632,-0.272873954788269,-0.00403236348916125,0
0.03,0.000905412214992509,0.000505400252753807,-0.0445155319447083,-0.0252971270229169,0.000730729828836853,0.000735686490150062,-0.0363590883057762,-0.0360498809638354,-0.272901779293589,-0.00374708404546265,0
0.04,0.000881405247350341,0.000494181718067054,-0.0434208439723432,-0.0247355975736523,0.000713472959692556,0.0007155746755692,-0.0355241277189057,-0.0351462064582669,-0.272925570368265,-0.00320266657265253,0
0.05,0.000899913685424146,0.000505919097549803,-0.0443812313150143,-0.0253230988966991,0.00072978066777258,0.000730218427201535,-0.0363495340151759,-0.0359118978563982,-0.272947240096642,-0.00293486999790283,0
0.06,0.000898512483208856,0.000506590404111121,-0.0443693460445835,-0.0253567019901918,0.000730063441709311,0.000728674063693205,-0.0363793808500881,-0.0358906931279912,-0.2729665103425,-0.00259583361779434,0
0.07,0.000918891989006554,0.000519496335956497,-0.045405632298988,-0.0260026925306185,0.000747998003100118,0.000744807302522527,-0.037281435280735,-0.036713839988772,-0.272983118481375,-0.00242558013040257,0
0.08,0.00089545014805546,0.000507365381667015,-0.0443131373990619,-0.0253955011104231,0.000730007191379223,0.000725493003895475,-0.0364027278253491,-0.0358249498209166,-0.272998264968859,-0.00203289409320599,0
0.09,0.000892155857040553,0.000506666166426724,-0.0441912140651757,-0.0253604921255603,0.000728455055503553,0.000722499764404551,-0.0363366066473916,-0.0357165084905779,-0.273011263557667,-0.00179092906707272,0
0.1,0.000890399251633871,0.000506624116389114,-0.0441391113729589,-0.0253583813764203,0.00072794912295448,0.000720811276969923,-0.0363209311361302,-0.03566649156044,-0.273022636526508,-0.00158558375479304,0
0.11,0.000888933909762312,0.000506620059002527,-0.0440970325908361,-0.0253581832336958,0.00072755726512623,0.000719394054792695,-0.0363097490883756,-0.0356256629604301,-0.273032601744266,-0.0014060735595337,0
0.12,0.000887654474222771,0.000506618386583148,-0.0440603794618276,-0.025358113799317,0.000727216922555466,0.000718156113098519,-0.036300109399945,-0.0355900692796652,-0.273041334419223,-0.00124879334646942,0
0.13,0.000929097411040462,0.000530347582305158,-0.0460942309142244,-0.0265458378665344,0.000761248996306097,0.000751658514807074,-0.0379926007428949,-0.0372279722843073,-0.273049799170576,-0.00133745524153688,0
0.14,0.000964821808207719,0.000551881691058139,-0.0479691894889489,-0.0276236993397778,0.000791624930816291,0.000780246429936406,-0.0395364387885904,-0.0387425078351566,-0.273057259499837,-0.0014110724618581,0
0.15,0.00088954917535798,0.000509215522441295,-0.0442180113144919,-0.0254880992386782,0.000730245057813257,0.000719263748019136,-0.0364685950561019,-0.0357059841209187,-0.273063971281505,-0.000870525661807772,0
0.16,0.00088396032422547,0.000506762980863727,-0.043961326723212,-0.0253653426356263,0.00072637968193729,0.000714539803822971,-0.0362813378192749,-0.0354917367894468,-0.273068891676586,-0.00075440700691539,0
0.17,0.000883019233835756,0.000506621347947151,-0.0439280273349377,-0.0253582486624974,0.000725992528443468,0.000713668694958616,-0.0362656769230079,-0.0354614302881891,-0.273073140538647,-0.000676081610469586,0
0.18,0.000882453463979347,0.00050661259427053,-0.0439113827941133,-0.0253578217039485,0.000725834167818479,0.000713123550017752,-0.0362609087160558,-0.0354453827676647,-0.273076859787569,-0.000608978760247542,0
0.19,0.000881974898599059,0.00050661155218559,-0.0438976269711605,-0.025357754754772,0.000725706419950567,0.000712660633548145,-0.0362572498362682,-0.0354320365518657,-0.273080118781033,-0.00055027559530028,0
0.2,0.000881556627364886,0.000506611019780485,-0.0438856211658361,-0.0253577349012831,0.000725595134212284,0.000712255932808869,-0.0362540939261208,-0.0354203774405503,-0.273082974695073,-0.000498839240660121,0
0.21,0.000881190044530282,0.000506610575007459,-0.0438750931201612,-0.025357712020968,0.000725497619679741,0.000711901238324318,-0.0362513210857241,-0.0354101549669145,-0.273085477397765,-0.000453764799102641,0
0.22,0.000880868863673987,0.000506610186420087,-0.0438658654899294,-0.0253576919476192,0.000725412182421786,0.000711590473214024,-0.0362488906699171,-0.0354011951958028,-0.27308767057385,-0.000414265046140167,0
0.23,0.000880587496857516,0.000506609845902878,-0.0438577788351067,-0.0253576717826195,0.000725337335320061,0.000711318230877233,-0.0362467582567668,-0.0353933439852708,-0.27308959250543,-0.000379650495972206,0
0.24,0.000880340696372472,0.000506609547456898,-0.0438506758496217,-0.0253576696153062,0.000725271681537822,0.000711079435241487,-0.0362449000381126,-0.0353864437604974,-0.273091276738251,-0.000349316960880043,0
0.25,0.000880124638551243,0.0005066092858859,-0.0438444574198384,-0.0253576492926547,0.000725214206023693,0.000710870384326287,-0.036243255518501,-0.0353804077634775,-0.273092752670746,-0.000322734978735276,0
0.26,0.000889115030166918,0.000511707689644203,-0.0442837521353294,-0.0256128535507832,0.000732549327036255,0.000718151641346351,-0.0366075271498348,-0.0357345480756546,-0.27309393755645,-0.000353162979041843,0
0.27,0.000861715729796152,0.000496186350432676,-0.0429597341517604,-0.024835947678018,0.000710214332665281,0.000695952940227012,-0.035502361879259,-0.0346690835824848,-0.273095460976097,-0.000172205103199344,0
0.28,0.00086018074304728,0.00049519403023514,-0.0427736911540249,-0.0247862663275049,0.000708845472562909,0.000694741775278382,-0.0354043777498626,-0.0345032996906519,-0.273096456926472,-0.000146420098428,0
0.29,0.000878225304397019,0.000505952603142242,-0.0437646965328703,-0.0253247773309525,0.000724072629455779,0.000709215446238053,-0.0361902408056598,-0.0353123134317891,-0.273097041136838,-0.000238316165935394,0
0.3,0.000871746607783621,0.000502620461948349,-0.0434491104332935,-0.0251579867110273,0.000719116216718387,0.000703875943475877,-0.0359444952606777,-0.0350534271256304,-0.273096531898134,-0.000210467754906282,0
0.31,0.000878952341638229,0.000506379314200455,-0.043800539543781,-0.0253461362017232,0.000724679772492188,0.000709800293083991,-0.0362204831343018,-0.0353410594945934,-0.273097256638195,-0.000238720430828785,0
0.32,0.000879324591555593,0.00050659518897489,-0.043820672155724,-0.0253569494815459,0.00072498856661318,0.000710099993724181,-0.036236351548039,-0.035357503046398,-0.273097986359575,-0.00022828469223266,0
0.33,0.000879261320511893,0.000506607486841261,-0.0438194444673182,-0.0253575696040976,0.000724983801963253,0.000710035282477457,-0.0362366403901919,-0.0353561302023136,-0.273098632031359,-0.000216833318172748,0
0.34,0.000879180653747642,0.000506608099690104,-0.0438171426083088,-0.0253575838681757,0.000724963036935376,0.000709957029455436,-0.036236053294455,-0.0353538892857611,-0.273099198255262,-0.0002066470802894,0
0.35,0.000879108127005493,0.000506608052676856,-0.0438150313482234,-0.0253575870602962,0.000724943782225187,0.000709886843530138,-0.0362355044677291,-0.0353518374279963,-0.27309969447644,-0.000197710739386538,0
0.36,0.000879044331409231,0.000506607977912243,-0.0438131645871083,-0.0253575873178875,0.000724926812108774,0.000709825117161153,-0.0362350165895845,-0.0353500240236674,-0.273100129328585,-0.000189878967059347,0
0.37,0.00087898845205484,0.000506607910463637,-0.0438115251723166,-0.0253575875534697,0.000724911945967423,0.000709771050680302,-0.0362345881070839,-0.0353484314951369,-0.273100510399696,-0.000183015760329321,0
0.38,0.000878939557619749,0.000506607851243839,-0.0438100873622887,-0.0253575877696267,0.000724898938223038,0.000709723742208059,-0.0362342123153463,-0.0353470348130093,-0.273100844341034,-0.000177001369894613,0
0.39,0.000878896958627,0.000506607799340642,-0.0438088349332401,-0.0253575670142068,0.000724887606182219,0.000709682523837223,-0.036233864869278,-0.0353458237946545,-0.273101136981351,-0.000171730819521585,0
0.4,0.000878859356478109,0.000506607753855066,-0.0438077189377489,-0.0253575671998345,0.00072487760235802,0.000709646141633194,-0.0362335731069916,-0.035344739816884,-0.273101393429113,-0.000167112113662528,0
0.41,0.000878826410942084,0.000506607713994153,-0.0438067364107444,-0.0253575673723915,0.000724868837403427,0.000709614264941969,-0.0362333162096047,-0.0353437855140138,-0.273101618159712,-0.000163064634319525,0
0.42,0.000878797539942316,0.000506607679062631,-0.0438058705743158,-0.0253575675335175,0.000724861156441657,0.000709586330601115,-0.0362330897922139,-0.0353429445872861,-0.27310181509674,-0.00015951773405672,0
0.43,0.00087877227781752,0.000506607648450652,-0.0438051088539842,-0.0253575676845138,0.000724854435730672,0.000709561887879317,-0.0362328905860868,-0.0353422048033335,-0.273101987676977,-0.000156409502881336,0
0.44,0.000878750158906407,0.000506607621624543,-0.0438044374220665,-0.0253575678266877,0.000724848551299452,0.000709540486332667,-0.0362327149694491,-0.0353415527374147,-0.2731021389128,-0.000153685687626074,0
0.45,0.000878730717547693,0.000506607598115639,-0.0438038412660095,-0.0253575679613592,0.000724843378974509,0.000709521675769808,-0.0362325589877721,-0.0353409738373227,-0.273102271444352,-0.000151298744981585,0
0.46,0.000878713604495411,0.000506607577514031,-0.0438033101572048,-0.0253575680895009,0.000724838825805791,0.00070950511832152,-0.0362324199649428,-0.0353404581694404,-0.273102387584872,-0.000149207011637845,0
0.47,0.000878698703334241,0.000506607559460403,-0.043802844665847,-0.025357568211428,0.000724834861487401,0.000709490700514279,-0.0362322981267361,-0.0353400062092929,-0.273102489361271,-0.000147373977070004,0
0.48,0.000878685664818217,0.000506607543639246,-0.0438024328775591,-0.0253575683281295,0.000724831392778753,0.000709478084842397,-0.0362321903233894,-0.0353396064194059,-0.273102578550478,-0.000145767646255355,0
0.49,0.000878674256116696,0.000506607529775009,-0.0438020679925387,-0.0253575684402589,0.000724828357720471,0.00070946704605021,-0.0362320947765159,-0.0353392521954124,-0.273102656708844,-0.000144359981213182,0
0.5,0.000878664127980448,0.000506607517625107,-0.043801736899593,-0.02535756563841,0.000724825662847949,0.00070945724690847,-0.0362320051964145,-0.0353389316473267,-0.273102725200681,-0.000143126411603909,0
0.51,2.6712769512789,-0.0648437111360595,5.23551425189674,3.24907922639163,-0.411476587020487,2.64019171191066,2.54106684777808,5.61338619518617,0.130337594159198,39.6773608846973,711.570411471695
0.52,2.53150751533172,-0.0142388756796814,6.20766933127229,0.719725290281878,-1.39654443302346,2.11149157998624,-2.79279836116064,5.5904776480895,0.578724263726228,82.3950603231759,711.570411471695
0.53,2.42132361146343,-0.0460766434808478,5.79178073151202,2.31777426812968,-2.36525467613798,0.520097496160275,-5.09120673107711,3.60505417731177,1.33532305177467,123.948160209059,711.570411471695
0.54,2.34000893896602,-0.0120239734426957,3.68081271517391,0.616935190357525,-1.57634322518781,-1.72943009306035,-2.94729685716699,-2.28963589005348,2.39733198683964,166.101753949681,711.570411471695
0.55,2.19064542529076,-0.035678597298892,4.94501500980277,1.79471758972266,1.31326012147582,-1.75372409317825,1.4453195164829,-5.05818506673177,-2.51511921430722,206.84882896847,711.570411471695
0.56,2.10685204862568,0.0356434984568664,3.92624210578093,-1.76853951617275,1.62992262075733,1.33545807276905,1.85066204646291,3.88820769548816,-0.867458168705877,242.044333462151,711.570411471695
0.57,1.97852510324784,0.022001234765773,5.29976076761652,-1.07893624467676,-1.68610029469134,1.03542814079727,-5.10108918102376,1.79734715102198,1.03119580354529,276.296349056952,711.570411471695
0.58,1.8895763041863,0.0236958850149058,4.46002051164022,-1.17425242782179,0.0590155441815104,-1.8888031315767,1.36830010803375,-4.4043622174898,-3.09781821402749,310.484479026771,711.570411471695
0.59,1.74623758504495,0.047929109748324,7.14620927940833,-2.37496600852378,1.17722543895446,1.290652226149,2.87118826271432,6.96168431967413,-0.71202903435134,340.28960010652,711.570411471695
0.6,1.69105464195034,-0.0287461600037272,5.13678418076258,1.44980586036961,-1.59307553425616,-0.567981061243409,-5.33068348680341,-0.268890899839018,1.89628034075308,370.928284631033,711.570411471695
0.61,1.57625303065551,-0.0113431318132688,6.75645876477993,0.594659019363105,1.57622732909358,0.0144806874331347,6.75762906581668,-0.581208911073255,-1.56880579602176,397.816123850598,711.570411471695
0.62,1.49332915616069,0.0135724533109753,6.59172873052583,-0.665930367497844,-1.48071605109483,0.194154979741989,-6.6238746008416,0.136514407741716,1.44950624801556,424.990539177802,711.570411471695
0.63,1.4227527900918,-0.0087866250194031,6.27123795188103,0.459267829075636,1.42084537167689,-0.0741696452573204,6.23379893625196,-0.824077187113455,-1.62912576990392,449.74799562158,711.570411471695
0.64,1.28940424355364,0.023003395731551,9.13188928908663,-1.12830562852915,-1.27144924776136,-0.215660079468595,-8.76612430313689,-2.79634409210641,1.75665316875808,473.200469124088,711.570411471695
0.65,1.22682219997068,-0.00641676675995814,8.55441007806722,0.330502557125214,1.01078405929949,0.695305307546683,7.25906379125116,4.5379683337977,-0.973476523979611,496.076058507688,711.570411471695
0.66,1.19230447786416,-0.0130643318903086,6.90844879806009,0.662502059579448,-0.455546860066785,-1.10192454505105,-3.31859882508227,-6.09528306254332,2.73862269615949,517.007650855215,711.570411471695
0.67,1.11968186935415,0.0478261436293211,7.27635126805419,-2.36610031276601,-0.305724724093192,1.07819628159858,-4.5286411852449,6.16726255979822,0.318987533167031,536.586715766422,711.570411471695
0.68,1.0739816734839,-0.0139498207035512,6.37388314305562,0.716633492778092,0.999361263400016,-0.393583914422913,5.62844770049923,-3.07579686699964,-1.95896533616349,555.561286492671,711.570411471695
0.69,1.02284345737975,0.00697948658124162,5.9121392844142,-0.341952340448238,-0.84333804482309,-0.578825011287061,-4.65609941670737,-3.65937980307988,2.17912581259963,573.449641414252,711.570411471695
0.7,0.880005350510048,-0.00925111206491019,10.2334559954695,0.46312378995349,-0.148978359829066,0.867352551332727,-1.16899655122225,10.177010971757,0.159590158374994,590.053149779822,711.570411471695
0.71,0.84832752181239,-0.0131208918034756,9.15135483012941,0.676938770317652,0.838213701328312,-0.131261315594354,8.90313354453582,-2.22255582918698,-1.74159681691003,605.504993571756,711.570411471695
0.72,0.854277172902629,0.0433890403516396,6.27480409731214,-2.14324544208414,-0.364657817732629,-0.773754982492275,-0.401081816402983,-6.61859508213114,2.75192790665101,620.123986692421,711.570411471695
0.73,0.759120915628412,-0.0598320166412967,8.55743706035322,3.01932144546796,-0.693637552777312,0.314183672613625,-6.03553100403605,6.77631142527327,1.06683633795974,633.968875541041,711.570411471695
0.74,0.709105014186587,-0.0412283921503453,8.7030593414665,2.08267987046679,0.316717884376916,0.635782575397968,6.13337072638264,6.5163303228648,-0.520246101503902,646.964109020515,711.570411471695
0.75,0.692659254780033,0.00468741654686505,7.29100469072484,-0.220752613750676,0.62334511365715,-0.30205907433161,6.67753023484996,-2.93565513630502,-2.01526288969099,659.162246391897,711.570411471695
0.76,0.646220364293971,0.0512731240635663,7.47409626666663,-2.55774509634401,-0.229197655655716,-0.606381173125778,0.375266155648518,-7.89071291416033,2.85939248735935,670.662040741318,711.570411471695
0.77,0.660490793939381,0.023441127206446,4.73714867601556,-1.16749509738579,-0.659067717445076,0.0492678307328401,-4.77920419230211,-0.98123884420553,1.53165686275361,681.358812744111,711.570411471695
0.78,0.581812545366867,0.00376681213188929,6.73392327446181,-0.186436351624313,-0.157168588648717,0.560194663989296,-2.04015083063108,6.4201453073759,0.280002714440326,691.491021732177,711.570411471695
0.79,0.506281083918001,0.043599276162566,8.66924745748257,-2.18328308894415,0.423614013269489,0.280664569507452,5.43189959274729,7.100495992524,-0.899745810605491,700.839386056551,711.570411471695
0.8,0.415785768397553,0.0140543122953906,11.4813434470235,-0.706984958678351,0.369617148812461,-0.190941069966068,10.6759105326186,-4.28322418043107,-2.01383990075498,709.442593338465,711.570411471695
0.81,0.476273244809623,-0.0284265929572783,6.81982211002839,1.42078503408532,0.063827652054139,-0.472832217326507,-0.9087935487031,-6.90671398071098,-3.06702843071066,717.454181960975,711.570411471695
0.82,0.425761081195388,0.034481932303558,7.77207230338324,-1.72869878097123,-0.359959312254383,-0.22997998921081,-5.14499328373134,-6.07639296579045,2.22014522449705,725.046598624523,711.570411471695
0.83,0.378636132941465,0.0449551192648053,8.62567449113257,-2.25274917381197,-0.349522209478,0.152382771331266,-8.90873032224229,0.334160609058572,1.27784287843084,732.147214924866,711.570411471695
0.84,0.367866638765708,-0.0382003796651517,7.74346245641332,1.91150245265716,-0.173735172800656,0.326498426727095,-1.14079193334707,7.89389930295587,0.385537271929061,738.643921840982,711.570411471695
0.85,0.322552204174504,0.043939622062811,8.66690935452948,-2.19857903725681,0.182757640340731,0.269388677753801,1.88374690676909,8.74074168099788,-0.460701391288889,744.701270145138,711.570411471695
0.86,0.301606918035944,0.00470184249343916,8.46839320593473,-0.231559467082336,0.28902171375118,0.0863440172235748,8.00554183242432,2.7710292756341,-1.2649025468131,750.12848654888,711.570411471695
0.87,0.272174189275153,-0.018964271824215,8.72791160059053,0.956362165473968,0.252380045100527,-0.103647217755547,7.39967145833367,-4.72609054166284,-2.03003935363674,755.289007287405,711.570411471695
0.88,0.21347174200788,0.0256003651395892,10.5165710971416,-1.27145449607331,0.0559130954992454,-0.207603682729501,5.10420765997295,-9.28234498069818,-2.75915510095859,760.017713646413,711.570411471695
0.89,0.195244202722043,-0.00767850053151366,10.3433910842361,0.398281545786212,-0.0528454366797506,-0.188113311302271,-3.56548183763211,-9.71759777808715,2.82842044130271,764.365974548534,711.570411471695
0.9,0.205668103364787,0.0444383820878115,8.79306092273278,-2.20660776085106,-0.195418721150744,-0.0780106529139361,-6.0612568397439,-6.74152829288702,2.16340779873968,768.398018110862,711.570411471695
0.91,0.182747258714792,-0.00815395698232901,8.96231184656026,0.427964885308528,-0.182929057335553,-8.69745173990438e-05,-8.93471982669473,0.822781378325722,1.52668259091298,772.053750646851,711.570411471695
0.92,0.139974446566707,-0.0152944775241658,10.1810882744273,0.784740151492689,-0.120282283364601,0.073204774728094,-7.59224039916197,6.828488945468,0.915236900829229,775.342204163723,711.570411471695
0.93,0.133964602914004,-0.0232871063901192,9.60213139941998,1.16526207642562,-0.0650646147777829,0.119395980090413,-1.97926308607437,9.46790793969746,0.326845841626915,778.371478997341,711.570411471695
0.94,0.124123549135728,0.0235983154235997,9.29359224775343,-1.19924666981952,0.0525262817658895,0.114910946670592,1.05232706727188,9.3113724652203,-0.240868745890091,780.990232269508,711.570411471695
0.95,0.0948170085860416,-0.0168368450687221,9.98010122475672,0.824964703449508,0.0555097281613758,0.0786918963332553,7.67059245567915,6.43777901121235,-0.790085017176165,783.404545114038,711.570411471695
0.96,0.102148574039568,-0.0196429504590452,8.87702841652109,0.969457288359977,0.0941853614899006,0.0441508138324807,8.84294743855753,1.24248200815384,-1.32242614719024,785.606304670997,711.570411471695
0.97,0.133603285605475,0.0214187875227495,6.61608636332168,-1.07903732206535,0.123108968679627,-0.0561496590743119,6.66496262742452,-0.71776979901326,-1.83974545031654,787.508007951445,711.570411471695
