t,iq,id,vq,vd,ia,ib,va,vb,theta_e,omega,r
0,0,0,0,0,0,0,0,0,0,0,0
0.01,0.000993721128546312,0.000569944785072481,-0.0494039317234039,-0.0285460658258441,-0.000875217107413806,-0.000739130404083666,0.0437103321265077,0.0366746943989253,2.79283593133085,-0.00139659876203554,0
0.02,0.0011029658392396,0.000632791954115831,-0.0548761146179651,-0.0316937973486009,-0.000971621468296317,-0.000820311539641468,0.0485389962244935,0.040741263989435,2.79282551805722,-0.0015209648993897,0
0.03,0.00113596671515905,0.000651689855317075,-0.0565140227902369,-0.0326403314760778,-0.00100066845305365,-0.000844856610636178,0.0499887355324905,0.041956552893039,2.79281470439485,-0.00153493153280101,0
0.04,0.00111749155852783,0.000641223563462647,-0.0556001611901481,-0.0321161056350688,-0.000984526957606816,-0.000831060594340846,0.0491841835774728,0.0412763643184669,2.79280446552055,-0.00147696277807931,0
0.05,0.00113592947102484,0.000651789251831595,-0.0565160960725612,-0.0326453088946082,-0.00100076655178192,-0.000844767009760973,0.0499949867309551,0.041955769685217,2.7927940895646,-0.00147142518868384,0
0.06,0.00113605349832248,0.000651917453723489,-0.0565241719429461,-0.0326517157268375,-0.00100093802843719,-0.000844829557217512,0.0500041952850599,0.0419606602383177,2.79278390308985,-0.00144024830013502,0
0.07,0.00116786922362737,0.000670209832292508,-0.0581031227989315,-0.0335679115042355,-0.00102901136656572,-0.000868467241913071,0.0514052961033539,0.0431308833003732,2.79277401794387,-0.00145537594153266,0
0.08,0.00113624652747173,0.000652140513423476,-0.056537435666594,-0.032662880137184,-0.00100123027080268,-0.000844915004759759,0.0500200472714032,0.0419683242645795,2.79276420668323,-0.00137989798159481,0
0.09,0.00113574485509873,0.000651914982717822,-0.056514366089265,-0.0326515882393996,-0.00100085489086382,-0.000844511105912286,0.0500019496081059,0.041950027704582,2.79275468875286,-0.00134988329443072,0
0.1,0.00113563888214433,0.000651910025921021,-0.0565108699640847,-0.0326513433365604,-0.00100082186645406,-0.00084440389871304,0.0500009147130859,0.0419463606721054,2.79274538516089,-0.0013210947756828,0
0.11,0.00113554012698615,0.000651907843672955,-0.0565076912505925,-0.0326512323171256,-0.00100079373863363,-0.000844302735604815,0.0500001053217267,0.0419429566210518,2.7927362901863,-0.00129295874537914,0
0.12,0.00113544381654681,0.000651905743193193,-0.0565045943673335,-0.0326511242240407,-0.00100076634942422,-0.00084420404666335,0.0499993180421579,0.041939638685017,2.79272739913992,-0.00126545367068119,0
0.13,0.00118910798912046,0.000682711113312606,-0.0591664212887234,-0.0341940323849555,-0.00104806812684925,-0.000884095851994196,0.0523595759851911,0.0439132333301602,2.79271838033888,-0.00131453100723619,0
0.14,0.00127227276222683,0.000730753324534244,-0.0633505148389645,-0.0366002519962954,-0.00112165351121738,-0.000945818060514738,0.0560515426079085,0.0470222367378245,2.79270963613081,-0.00140669315751667,0
0.15,0.0011368891912605,0.000652874010985027,-0.0565812136503084,-0.032699638159975,-0.00100219265760453,-0.000845204936372352,0.0500722080661822,0.0419937382631279,2.79270102386265,-0.00118633919216224,0
0.16,0.00113509155851939,0.000651909641830707,-0.0564936297096459,-0.0326513243772544,-0.00100067869604423,-0.000843837173047644,0.0499972037464489,0.041927542247255,2.79269291953142,-0.00115881974663547,0
0.17,0.00113498399324655,0.000651895876518759,-0.056489786693828,-0.0326506468482979,-0.00100063566864722,-0.000843732870865527,0.0499955852307453,0.0419237665025667,2.7926850008944,-0.00113429194896808,0
0.18,0.00113489990638959,0.000651893900703049,-0.056487073248046,-0.032650533017634,-0.00100061159571148,-0.000843646780249095,0.0499948751214176,0.0419208684554552,2.7926772598597,-0.00111034412496385,0
0.19,0.00113481772003047,0.000651892111019593,-0.0564844203365791,-0.0326504520756587,-0.00100058819975484,-0.000843562586069407,0.0499942092971715,0.0419180247418082,2.79266969239585,-0.00108693363938094,0
0.2,0.00113473739631418,0.000651890363163508,-0.0564818269209019,-0.0326503711418639,-0.00100056533559244,-0.000843480298163584,0.0499935566695317,0.0419152454311615,2.79266229461009,-0.00106404806952147,0
0.21,0.00113465893524073,0.000651888654467234,-0.0564792937858841,-0.0326502902159502,-0.00100054300400694,-0.000843399913610085,0.0499929176686915,0.0419125310701872,2.79265506269751,-0.0010416756409719,0
0.22,0.00113458253178549,0.00065188698403362,-0.0564768313968241,-0.032650182247133,-0.00100052127403212,-0.000843321612194525,0.0499922706106789,0.0419099005556556,2.79264799293967,-0.00101980484799959,0
0.23,0.00113450756316629,0.000651885351006686,-0.0564744093533831,-0.032650101338102,-0.00100049993507149,-0.000843244805297116,0.0499916560985143,0.0419073066389346,2.79264108170029,-0.000998424442911945,0
0.24,0.00113443422435928,0.000651883754549989,-0.0564720380749717,-0.032650020436305,-0.00100047905606623,-0.000843169672851595,0.0499910524234864,0.0419047681824446,2.79263432542506,-0.000977523430214305,0
0.25,0.0011343623203914,0.000651882193845146,-0.0564697085287102,-0.0326499665863939,-0.00100045857257624,-0.000843096028418377,0.0499904820593612,0.0419022672761607,2.79262772063931,-0.000957091060951612,0
0.26,0.00114457955522031,0.00065775768813026,-0.0569773804684336,-0.0329442394033935,-0.00100947893841542,-0.000850681966082779,0.0504408761128691,0.0422783965149926,2.79262128669835,-0.00095191624273118,0
0.27,0.00110230171227816,0.000633533753833944,-0.054882858149426,-0.0317309640004124,-0.000972264235816211,-0.000819229111965029,0.0485848092212152,0.040724667070261,2.79261487510103,-0.000871646461791546,0
0.28,0.00108823784812742,0.000625368326232336,-0.0541319688389088,-0.0313219861464925,-0.000959787054028259,-0.000808799090300791,0.0479439754163699,0.0401585867257823,2.792608671991,-0.000832415991017139,0
0.29,0.00113351112423996,0.000651548673539388,-0.0564321739879621,-0.0326332606586854,-0.000999875144816796,-0.000842385207339413,0.049962994639858,0.0418714595977123,2.79260274926388,-0.000879009418862226,0
0.3,0.00113075607905188,0.000650025785119434,-0.0562966351972771,-0.0325569702530549,-0.00099750655592008,-0.000840311550872281,0.0498451835638949,0.0417699068956973,2.79259729654469,-0.000858280578938103,0
0.31,0.00113392841560517,0.000651850787384049,-0.0564549611524506,-0.0326483917719156,-0.00100031119350231,-0.000842662813279449,0.0499854756320903,0.0418871382389738,2.7925915296472,-0.000845072404922001,0
0.32,0.001133908279775,0.000651872024566382,-0.0564550123070143,-0.0326494399816479,-0.00100032902153015,-0.000842630982126278,0.0499867145983994,0.0418865456842473,2.79258588452714,-0.000827667368141844,0
0.33,0.00113384871583622,0.000651870999206061,-0.0564530843392788,-0.0326494007102791,-0.00100031233908078,-0.000842569839415163,0.0499862495439076,0.0418844715221799,2.79258036588717,-0.000810595805047696,0
0.34,0.001133790511001,0.000651869727558316,-0.0564512000664856,-0.0326493198587143,-0.00100029578507751,-0.000842510182074389,0.0499857551548898,0.0418824588315732,2.79257497098509,-0.000793906303694087,0
0.35,0.00113373315893499,0.000651868481067979,-0.0564493344522189,-0.0326492660423971,-0.00100027944382335,-0.000842451438685364,0.0499852874656126,0.0418804604820167,2.79256969704772,-0.000777591006030616,0
0.36,0.0011336770874365,0.000651867262458687,-0.0564475094177941,-0.0326492122277771,-0.00100026346649659,-0.000842394007597468,0.0499848286836835,0.041878506181921,2.7925645413631,-0.000761641530601918,0
0.37,0.00113362241292084,0.000651866071147193,-0.0564457313378774,-0.0326491584144994,-0.00100024789463418,-0.000842337995741163,0.0499843811011527,0.041876601788799,2.79255950127979,-0.000746049675038604,0
0.38,0.00113356921393753,0.000651864906523328,-0.0564440046482143,-0.0326490775766265,-0.00100023275674896,-0.000842283474532175,0.0499839209485754,0.0418747605836593,2.79255457420532,-0.000730807420775246,0
0.39,0.00113351698414106,0.000651863767989293,-0.056442304539825,-0.0326490237676493,-0.00100021788128275,-0.000842229965814376,0.0499834906429854,0.0418729406405793,2.79254975760574,-0.00071590692903646,0
0.4,0.00113346580208146,0.000651862654961165,-0.0564406354254332,-0.0326489699603878,-0.0010002032966677,-0.00084217754111366,0.0499830664006662,0.0418711552251375,2.79254504900443,-0.000701340536808071,0
0.41,0.00113341590058937,0.00065186156686855,-0.0564390093862749,-0.0326489161537587,-0.0010001890840677,-0.00084212641698319,0.0499826524548544,0.0418694155690813,2.79254044597974,-0.000687100752896766,0
0.42,0.00113336716324947,0.000651860503152693,-0.0564374211316012,-0.0326488623484002,-0.0010001752051684,-0.000842076481840559,0.0499822470968735,0.0418677165818435,2.79253594616444,-0.000673180254077376,0
0.43,0.00113331947364645,0.000651859463268273,-0.0564358652801318,-0.0326488085441509,-0.00100016162162046,-0.00084202762415268,0.0499818485839915,0.0418660530907412,2.79253154724406,-0.000659571881324943,0
0.44,0.00113327283178029,0.000651858446681595,-0.0564343422936495,-0.0326487547411226,-0.00100014833485457,-0.000841979841830601,0.049981457169855,0.0418644254163452,2.79252724695662,-0.000646268636136133,0
0.45,0.00113322692627444,0.000651857452871325,-0.0564328369968739,-0.0326487279570856,-0.00100013523977137,-0.000841932840234163,0.0499810931459826,0.0418628099470655,2.79252304309062,-0.000633263676926813,0
0.46,0.00113318249629786,0.000651856481327137,-0.0564313867868421,-0.0326486741541845,-0.00100012259054994,-0.000841887311957919,0.049980718615432,0.0418612601983899,2.79251893348395,-0.000620550315515857,0
0.47,0.0011331388812275,0.000651855531551233,-0.0564299590709677,-0.0326486203529177,-0.00100011016257805,-0.000841842634268155,0.0499803479110434,0.0418597361959091,2.79251491602283,-0.000608122013684591,0
0.48,0.00113309643030934,0.000651854603055595,-0.0564285717047535,-0.0326485665516252,-0.00100009807661171,-0.000841799133441047,0.0499799872255974,0.0418582546153507,2.79251098864178,-0.000595972379814481,0
0.49,0.00113305459933796,0.000651853695363803,-0.0564271979162522,-0.0326485397651793,-0.00100008614778884,-0.000841756296229036,0.0499796528729463,0.0418567809581456,2.7925071493208,-0.000584095165600688,0
0.5,0.0011330140110634,0.000651852808010461,-0.0564258691900942,-0.0326484859643217,-0.00100007459035895,-0.000841714705999287,0.0499793049347787,0.041855363191072,2.79250339608523,-0.000572484262837204,0
0.51,4.64310179867917,0.0687934568245353,7.84638938036567,-3.44198334729608,-0.323305745510162,4.6323428465,-4.09189837866424,7.52791095391435,0.084495333245406,26.0273063530218,2742.78949013847
0.52,4.60388191461513,-0.00337378016182022,9.80910494056283,0.177062422130288,-1.72107548003668,4.27008656330634,-3.49600882441248,9.16666859529321,0.382403550181219,55.2640380505285,2742.78949013847
0.53,4.63337254101342,-0.0671915967406735,8.33624650996796,3.37847757835033,-3.65886212055865,2.84348092964077,-4.39577204145834,7.84756680646314,0.895644428424678,84.8484749636514,2742.78949013847
0.54,4.58307670144564,0.0370556070914898,10.852742905376,-1.83803768550198,-4.57749843589503,-0.229070379423781,-10.727735026695,-2.4649771399619,1.62888245187065,115.450275422664,2742.78949013847
0.55,4.55759261916123,0.0717496343183595,12.1287296132196,-3.57423952268682,-2.43448972018711,-3.85357733730115,-3.26426272315598,-12.2158036604368,2.59389714385812,148.252956532535,2742.78949013847
0.56,4.57176614265994,0.052119287466927,11.4219089173965,-2.58803221943323,2.75778667543043,-3.64669367182331,9.03918881299348,-7.44654145823279,-2.48270820506914,180.317246247151,2742.78949013847
0.57,4.57154805226468,0.0142010196398532,11.43465715755,-0.68171966294192,3.97700902942132,2.254473872775,9.59191280360536,6.26189546204523,-1.05198194694315,209.808617262622,2742.78949013847
0.58,4.53169635177868,0.0246866670972806,13.4291118184044,-1.19975782742245,-2.52007831898594,3.766442157054,-8.522007997244,10.4477673581766,0.595124002437455,240.03336107105,2742.78949013847
0.59,4.55641039752348,0.0453382885928704,12.195330888863,-2.23744712598526,-2.852539522098,-3.55330121801425,-5.7808740896779,-10.9687629151936,2.47510551223947,272.492045390824,2742.78949013847
0.6,4.55573604961426,0.0497081687233965,12.2310884062414,-2.44535197620177,4.5097611038663,-0.647500302584764,12.4462845360329,0.818089932046684,-1.70248859301513,301.847404145372,2742.78949013847
0.61,4.50772270260128,0.0495062899538083,14.6337079495539,-2.44022353083785,-2.59765317282588,3.68431985989268,-10.5420505056014,10.4386431288095,0.625093552227926,333.814545039849,2742.78949013847
0.62,4.61920105763148,-0.0222456903976485,9.06176148684269,1.16780077540116,0.212718262239057,-4.61435415009241,-0.793108837736978,-9.10221172391395,-3.10034189862339,363.599289435071,2742.78949013847
0.63,4.61465730086034,0.0038473018393419,9.29109044495367,-0.144611396754446,1.45798215193879,4.37828332234713,2.7908887162196,8.86319436129315,-0.320619649593577,395.277393011964,2742.78949013847
0.64,4.49628263240985,0.061313537525452,15.2119642575692,-3.00764349012154,-2.03557736224606,-4.00958123283538,-4.0004533170589,-14.9815269313667,2.68545694395902,424.862646908909,2742.78949013847
0.65,4.58424152671664,-0.0463567869463903,10.8161516722656,2.38240538575726,1.59739681920344,4.29717846138231,6.09565852190069,9.24705031909737,-0.366013966799184,456.217456964039,2742.78949013847
0.66,4.58198480777817,0.005309129659538,10.9311374509371,-0.207988556793629,-0.248445193902832,-4.575247310386,-0.372366538832361,-10.9267730081573,3.08850260394176,487.16087809551,2742.78949013847
0.67,4.52906586255754,0.0570127860586782,13.5792582038186,-2.77787524301224,-2.06505819581802,4.03128052770371,-8.79892851380716,10.7094211440501,0.485993876391146,517.048837050146,2742.78949013847
0.68,4.50575272561728,0.0112787257998945,14.7471595277223,-0.486883575176617,4.27275597535584,-1.43020670153798,14.1495885250679,-4.18388746540044,-1.89129745959277,547.723368924242,2742.78949013847
0.69,4.4821745868106,0.0782103197730135,15.9283803439143,-3.84177192012019,-3.56886364867372,-2.71278789033442,-10.1328605662663,-12.8762435753299,2.23819438659981,578.631894388516,2742.78949013847
0.7,4.46317242459205,0.0745717816335039,16.8808147253797,-3.66089358514087,-1.28236552734963,4.27562950879986,-8.60750354447377,14.9758115094373,0.308094107626188,609.41167335336,2742.78949013847
0.71,4.47580393182901,0.042964716891591,16.2515688538734,-2.07668538792871,4.41656140286642,0.727084711559946,15.6526513424738,4.83948534077507,-1.39803392881974,640.037168644794,2742.78949013847
0.72,4.5218368103625,0.0639553032611373,13.9522953140643,-3.12462514915982,1.10722078933662,-4.38465056122211,6.62540209803216,-12.6701962847074,-2.88009902987444,670.565476888949,2742.78949013847
0.73,4.51747108158709,0.0369136862042028,14.1729809198027,-1.76676197114779,-3.8131394582791,-2.42257612159448,-10.9407506623882,-9.18122055933942,2.14495581379903,701.053792026825,2742.78949013847
0.74,4.55230750159559,0.0531544047656358,12.4335923553887,-2.57473721734171,-4.05452982661561,2.07053540537558,-12.2826802250035,3.21857998015468,1.11032334000738,731.507084495065,2742.78949013847
0.75,4.5127397993821,0.0729220457027011,14.4143983729673,-3.5586384976802,-1.26042398234864,4.33375928108577,-7.64911838016172,12.7251631195064,0.299188432052982,761.897791269831,2742.78949013847
0.76,4.47312369103797,0.0920807218812424,16.397720795704,-4.50874377414119,1.36172515215409,4.26180936043111,0.346101533943682,17.0027712871438,-0.288683308002335,792.12304408553,2742.78949013847
0.77,4.41960748611972,0.0897686354861509,19.0761116655628,-4.3815927461342,2.75993924118374,3.45307459002215,8.12754486456735,17.8056004039303,-0.65398705988642,822.286029894026,2742.78949013847
0.78,4.48030514825209,0.0957764079247205,16.0437274242587,-4.67292594206524,3.26973023250095,3.06450184343858,8.20123151675609,14.5594377684203,-0.796412767021234,852.803158779925,2742.78949013847
0.79,4.47854820807649,0.101271566618258,16.1341869608667,-4.97257210813751,3.01432188355125,3.31383668345537,6.83073007294573,15.439546266953,-0.715494240785277,883.578941190346,2742.78949013847
0.8,4.51251031394874,0.0646085462157966,14.4385448773653,-3.11696117106798,1.86411556156914,4.1099874416905,2.91831199901387,14.4800027691313,-0.411491718177116,913.778547159125,2742.78949013847
0.81,4.52788881382941,0.0431189275883093,13.6722777212937,-2.02138889643767,-0.475141029239347,4.50309641853816,-3.57218623238833,13.3512799641068,0.114647991267864,943.923016583818,2742.78949013847
0.82,4.50339088996752,0.0752984942291186,14.8998383310527,-3.6585619833541,-3.37506163160149,2.98247520592663,-13.7049517074754,6.89670622640399,0.863790034374072,974.668400887698,2742.78949013847
0.83,4.41942104362983,0.0470983674678305,19.1010211389812,-2.21911454720804,-4.27849819609958,-1.10813076984125,-17.8595550989776,-7.12809719294158,1.83488415119639,1004.55578529176,2742.78949013847
0.84,4.48429635956248,0.0685484785050807,15.8599767518088,-3.31664444052748,-0.576241589372664,-4.44764638488358,1.49812144144462,-16.133648845177,3.02803451054932,1035.274869076,2742.78949013847
0.85,4.47627068764526,0.0585835089572748,16.2639716981819,-2.78318638800839,4.29976961711265,-1.24595848098916,16.4188165659681,-1.63870816277555,-1.83975780971864,1065.15258486331,2742.78949013847
0.86,4.39080578321667,0.134562449195969,20.5399707030556,-6.61415952184044,1.01372678061137,4.2743000003432,-2.3538573603305,21.4498684888731,-0.202228590741959,1095.78321024857,2742.78949013847
0.87,4.45150902478685,0.0313336171315266,17.5076053611625,-1.41500858786109,-4.43774615356504,-0.35117441512729,-17.3213388970863,-2.91371131003278,1.65680402953926,1125.82258030869,2742.78949013847
0.88,4.47318790556068,0.104412965685572,16.4265271240395,-5.07310051981281,2.42453518953347,-3.76057724565944,13.4191944131678,-10.746737344075,-2.54559747425796,1155.93304646649,2742.78949013847
0.89,4.40045486343495,0.130866488386645,20.0660316132623,-6.41812228665395,1.1882719366451,4.23900210515313,-1.38930067403077,21.0216022707125,-0.243573744977557,1186.40065016834,2742.78949013847
0.9,4.41960863935459,0.125368982523486,19.111210287108,-6.1483428287025,-3.43646319645155,-2.78197386872536,-10.5044551322225,-17.1083868483398,2.27968968185914,1216.61219719849,2742.78949013847
0.91,4.35895861679247,0.112427745621996,22.1466504541398,-5.45833549134786,4.18325489829164,1.2302595973265,19.4041697621658,11.9894015077904,-1.25898235132018,1246.50502037926,2742.78949013847
0.92,4.43381517692516,0.0925240203771651,18.4067220548804,-4.45660051938179,-4.40543774864549,-0.509309297272329,-17.6327832268389,-6.9104023522718,1.70675938048757,1276.61182524245,2742.78949013847
0.93,4.40540146468484,0.0653006957246993,19.8304209800299,-3.09640112188083,4.34521943420987,0.728624947743561,18.9493431182593,6.61480850359822,-1.38983592765969,1306.74933105952,2742.78949013847
0.94,4.39893106277334,0.0972743112586816,20.1568737526678,-4.69933675695906,3.14849136732128,3.0736068220523,10.7525012597805,17.6852210077995,-0.77532327160882,1336.94563381971,2742.78949013847
0.95,4.43348987505416,0.11807752997665,18.4319366349713,-5.73788909405399,-1.37560078133146,-4.21633694878545,0.251970450110622,-19.3027503289954,2.85285291272655,1367.06253746533,2742.78949013847
0.96,4.34957737474044,0.0437466446005024,22.6306530369133,-2.01267447009712,-1.72685066887048,3.99233313679975,-11.0318573655883,19.8619092351428,0.418298514322914,1397.0883069035,2742.78949013847
0.97,4.36714703914659,0.123283496780716,21.7552190369452,-5.98671350135124,4.2294447192844,-1.09497463378043,22.5426399375276,0.979631838860525,-1.79590516196541,1427.11842640507,2742.78949013847
0.98,4.45454749504904,0.0793041315348986,17.3882357519571,-3.76969118348446,-2.75243576060333,-3.50333839568463,-7.49205148538858,-16.1378585544912,2.49345754663549,1457.17191596364,2742.78949013847
