t,iq,id,vq,vd,ia,ib,va,vb,theta_e,omega,r
0,0,0,0,0,0,0,0,0,0,0,0
0.01,0.00046076898026074,0.000250814173430971,-0.0218062455243726,-0.0125463018213897,0.000514313170286892,-0.000103430003547472,-0.0245401535009076,0.00554101970890923,-1.27076641486888,-0.0023222374185269,0
0.02,0.000591046138771238,0.000315762306855717,-0.0281785616999145,-0.0157951596575183,0.000657963528943746,-0.000126985696702919,-0.0315878739230205,0.00676199889867965,-1.27078495859797,-0.00264901852507617,0
0.03,0.000640573532681486,0.000341937184705586,-0.0306887088805275,-0.0171044788848345,0.000713011590911382,-0.000137367974005735,-0.0343727082038167,0.00727165602946059,-1.27080379823527,-0.00252114096406727,0
0.04,0.000630652139119,0.000338739884491718,-0.0304046903479178,-0.0169445495481447,0.000702586195073934,-0.00013725694303883,-0.0340539944591403,0.00720336143193859,-1.27082026906183,-0.00211385279016083,0
0.05,0.00064039557603913,0.000347279575622267,-0.0310127122858414,-0.0173717156508875,0.000714415946207348,-0.000142546319698303,-0.0347609846667581,0.00743227912400216,-1.27083454269762,-0.00186272828917058,0
0.06,0.000638650205568776,0.000349264939393993,-0.0310643426964193,-0.0174710397936004,0.000713333370179338,-0.000144967534129256,-0.0348395659410409,0.00751234075837938,-1.27084684132918,-0.0015900505188615,0
0.07,0.000642413536306525,0.000354443426172834,-0.0313494626875637,-0.0177300784017097,0.000718457257932628,-0.000148810155940114,-0.0351884163179018,0.00767592652177861,-1.27085701004836,-0.00139350178128985,0
0.08,0.000632347013796169,0.000350928844445741,-0.030976998734478,-0.0175542670581128,0.000707800411714797,-0.000148433072114403,-0.0347805677046475,0.00761832348261918,-1.2708659251833,-0.00114697416650645,0
0.09,0.000626944153745729,0.000350109494053258,-0.0308047898636841,-0.0175132886284292,0.000702395574395565,-0.000149251756477774,-0.034603883446409,0.00763030848365554,-1.27087327354631,-0.000959842978906486,0
0.1,0.000623263744411702,0.000349917671585965,-0.0306994835341755,-0.0175036827270179,0.000698821869605648,-0.000150160136344853,-0.034500393234395,0.00765245483131603,-1.27087939019997,-0.000808613028790751,0
0.11,0.0006204181716286,0.000349872085891452,-0.0306221557921167,-0.0175014092391796,0.00069608908123991,-0.000150960839794921,-0.0344258064449962,0.00767330445932961,-1.27088449844906,-0.000683582328999239,0
0.12,0.000618102814148891,0.000349860688022887,-0.03056046912869,-0.0175008357050989,0.000693873060487372,-0.0001516369539806,-0.0343666710278626,0.00769112775899284,-1.27088876924988,-0.00057940212158501,0
0.13,0.000639213629682204,0.000362551258233404,-0.0315860449433018,-0.0181356534285235,0.000717790149769289,-0.000157527077394028,-0.035533983029329,0.00799476144179152,-1.27089269819022,-0.000612597265604749,0
0.14,0.000650592721793112,0.000369910350896886,-0.032262194614812,-0.0185037747561349,0.000730834846423484,-0.00016119858747517,-0.0362886772101187,0.00814682686262504,-1.2708962486179,-0.000599854821086416,0
0.15,0.000622581405479625,0.000354522598817116,-0.0308833476937174,-0.0177340385873172,0.000699527383971834,-0.000154775058050545,-0.0347439503579706,0.0078189003645252,-1.27089935059662,-0.000378001163383345,0
0.16,0.000614157480155748,0.000350940742859502,-0.030513188960769,-0.0175548640097169,0.000690420970461381,-0.000153843098568646,-0.0343373649610596,0.0077571462849583,-1.27090140182349,-0.000287367555350976,0
0.17,0.000611283418550274,0.000350106780672806,-0.0303962327074695,-0.0175131523755125,0.000687428575539871,-0.000153896488585054,-0.0342132941803322,0.00775190107422735,-1.27090296655987,-0.000237951297828986,0
0.18,0.000610039443044681,0.000349912441420759,-0.0303519716343588,-0.017503432566106,0.000686182514571561,-0.000154079185575309,-0.0341681273319329,0.00775573389937786,-1.27090423346506,-0.000203954105140273,0
0.19,0.000609321499264707,0.000349867013819145,-0.0303298435481734,-0.0175011592810404,0.000685483032031612,-0.000154248596822351,-0.0341463071575113,0.00776013487910594,-1.2709052815706,-0.000177555752425438,0
0.2,0.000608810660474321,0.000349856277544054,-0.030315473444489,-0.0175006182753739,0.000684991686120035,-0.000154389848081382,-0.0341324118068644,0.00776389299452877,-1.27090615508248,-0.00015604048840246,0
0.21,0.00060840832126518,0.000349853642346876,-0.0303046030840968,-0.0175004814388333,0.000684606412499035,-0.000154506687276932,-0.0341219805101794,0.00776699843817011,-1.2709068848889,-0.000138200330760821,0
0.22,0.00060807851662229,0.000349852914940238,-0.0302958177445791,-0.0175004534619542,0.00068429101808311,-0.000154603839022603,-0.0341135742616519,0.00776958784502366,-1.27090749513497,-0.000123320559511812,0
0.23,0.000607804700071953,0.000349852650192169,-0.0302885612623704,-0.0175004311870739,0.000684029264983966,-0.000154684824470716,-0.0341066310939667,0.00777172763920194,-1.27090800554796,-0.000110885537071406,0
0.24,0.000607576118586156,0.000349852508709802,-0.0302825090124432,-0.0175004305404675,0.000683810777339748,-0.000154752507316586,-0.0341008454491308,0.00777352949727019,-1.27090843249916,-0.000100486788636872,0
0.25,0.00060738502283391,0.0003498524089572,-0.0302774478893665,-0.0175004297742458,0.000683628125507096,-0.00015480910836175,-0.0340960072027537,0.00777503606463526,-1.27090878964657,-9.17889747877755e-05,0
0.26,0.000611147529262122,0.000352118171228028,-0.0304547763513409,-0.0176137558907643,0.000687892014640087,-0.00015586239195704,-0.0342988978859722,0.00783092606255991,-1.27090898642204,-0.000108470305285654,0
0.27,0.000602691494467423,0.000347069565468526,-0.0300663848756801,-0.0173612198094912,0.000678321875729747,-0.000153537466712087,-0.0338532342002259,0.00770441347220202,-1.270909489252,-5.07697987263056e-05,0
0.28,0.000601965337369177,0.000346812224280537,-0.0299300678019015,-0.0173483499074721,0.000677552073032931,-0.000153506269035429,-0.0337191974137059,0.00773239477225786,-1.27090969995749,-4.22327236121142e-05,0
0.29,0.000605500904107808,0.000349144605748902,-0.0301999756991351,-0.017465021709536,0.000681618853159436,-0.000154690140657198,-0.0340115251820926,0.00776412714545538,-1.27090974813627,-6.08322626581459e-05,0
0.3,0.000596205133619618,0.000344504643719275,-0.0297607293961679,-0.0172329134983164,0.000671367342748634,-0.00015300294764863,-0.0335233194188308,0.00767211685100186,-1.27090916242383,-2.17452384571814e-05,0
0.31,0.00060412664493642,0.000348607627818101,-0.0301297407862038,-0.0174381540359575,0.000680147386324887,-0.00015458270980457,-0.0339364922811271,0.00775918730787029,-1.27090917371763,-6.54846933700835e-05,0
0.32,0.000606238305598225,0.000349562560642916,-0.0302299303517437,-0.0174859234501709,0.00068244687542064,-0.000154871331131508,-0.0340463207016699,0.00777523341485974,-1.27090934670512,-7.35099328884654e-05,0
0.33,0.00060674938314027,0.000349784784273524,-0.0302557650851797,-0.0174970423925452,0.000683000761626078,-0.000154932788229515,-0.0340742856202647,0.00777823070143353,-1.27090953688338,-7.2281286216375e-05,0
0.34,0.000606827966806248,0.00034983647425671,-0.0302612591676878,-0.0174996306509266,0.000683091081330954,-0.00015495907403143,-0.0340802977683435,0.00777908628013992,-1.27090970861418,-6.90453081621786e-05,0
0.35,0.000606796651858264,0.000349848477422098,-0.0302613696949931,-0.0175002331981511,0.000683064687038568,-0.000154979892830852,-0.0340805802174876,0.00777963430028087,-1.27090985578554,-6.5724377978864e-05,0
0.36,0.000606743392028005,0.000349851247887188,-0.0302602084581688,-0.0175003731283484,0.000683014603387088,-0.000154998357984371,-0.0340795111782205,0.00778011525729513,-1.27090997987472,-6.27756446906841e-05,0
0.37,0.000606691579547705,0.000349851873212894,-0.0302588991620901,-0.0175003909202089,0.000682965271889561,-0.000155014332490507,-0.0340782647621002,0.00778052258308322,-1.2709100839496,-6.02615068351298e-05,0
0.38,0.000606646002958717,0.000349852002435558,-0.030257696572473,-0.0175003984224958,0.000682921754044491,-0.000155027979302942,-0.0340771173822026,0.00778088797872849,-1.27091017108572,-5.81451840517076e-05,0
0.39,0.000606607236658512,0.000349852018855598,-0.0302566571961616,-0.0175004000827827,0.00068288471142577,-0.000155039496789548,-0.0340761243162483,0.00778119909314027,-1.27091024399791,-5.63711691897101e-05,0
0.4,0.000606574756785672,0.000349852011252155,-0.0302557822207176,-0.0175004017229276,0.000682853669421004,-0.000155049126102164,-0.0340752884006919,0.00778146121631453,-1.27091030499606,-5.48861507505393e-05,0
0.41,0.000606547515600422,0.000349851999924678,-0.030255043311161,-0.0175004018909887,0.000682827632746831,-0.000155057197477899,-0.0340745821211108,0.00778168139787446,-1.27091035602394,-5.36436200555815e-05,0
0.42,0.000606524698197391,0.000349851989292531,-0.0302544201943583,-0.0175004020447411,0.000682805823920411,-0.00015506395698468,-0.0340739865271395,0.00778186707498194,-1.27091039871023,-5.26041399090223e-05,0
0.43,0.000606505606084652,0.000349851980129519,-0.0302538951171808,-0.0175004021864475,0.000682787575640886,-0.000155069612636061,-0.034073484648036,0.00778202354075402,-1.27091043441824,-5.17345724675772e-05,0
0.44,0.000606489540770273,0.000349851972401281,-0.0302534475943305,-0.0175004023183624,0.000682772220403063,-0.000155074371521132,-0.0340730569045519,0.00778215688781795,-1.27091046428868,-5.10071561650637e-05,0
0.45,0.000606476153008291,0.000349851965921827,-0.0302530722068097,-0.0175004024416194,0.000682759424344956,-0.00015507833728554,-0.0340726981124498,0.00778226875062397,-1.27091048927599,-5.03986564798452e-05,0
0.46,0.000606464977135537,0.000349851960498132,-0.030252755768082,-0.0175004011025322,0.000682748742405161,-0.000155081647852235,-0.0340723952380625,0.00778236166301646,-1.27091051017827,-4.98896340990119e-05,0
0.47,0.00060645566390981,0.000349851955960372,-0.0302524892568187,-0.0175004012126126,0.000682739840774388,-0.000155084406685359,-0.0340721405175772,0.00778244109433668,-1.27091052766357,-4.9463826770968e-05,0
0.48,0.000606447864083264,0.00034985195216414,-0.0302522622794319,-0.0175004013177985,0.00068273238566245,-0.000155086717199997,-0.0340719235873798,0.00778250874482594,-1.2709105422902,-4.91076305607037e-05,0
0.49,0.000606441286617595,0.000349851948988661,-0.0302520661799675,-0.0175004014190228,0.000682726098911838,-0.000155088665576155,-0.0340717361744661,0.00778256718837972,-1.27091055452586,-4.88096654410802e-05,0
0.5,0.00060643581509748,0.000349851946332027,-0.0302519001011168,-0.0175004015166687,0.000682720869212177,-0.000155090286373523,-0.0340715774568639,0.00778261669192917,-1.27091056476105,-4.85604117765604e-05,0
0.51,4.74098761228533,-0.0255113033734495,2.95123956020293,1.28627553406324,-0.541075441187185,4.71007980116971,0.957612683854429,3.07364565930388,0.108993750920613,33.8107881342945,1295.88774311583
0.52,4.73885946248457,0.0326557849763858,3.05833995001113,-1.61123644083022,-2.23605748893604,4.1782654668708,-2.87693290706557,1.91645066890243,0.498272499934221,72.5541173249548,1295.88774311583
0.53,4.71364839728891,0.0194284927967556,4.31970583084488,-0.93698688236742,-4.34896399717962,1.81806788399998,-4.35012865835366,0.783698627365151,1.17895204986287,113.926564585094,1295.88774311583
0.54,4.74096251218402,-0.0114448237303479,2.9549362744314,0.614911673835494,-3.90718065571186,-2.68529250726163,-2.78634679652721,-1.16018803736818,2.17051422584208,155.549378788044,1295.88774311583
0.55,4.68498663455251,0.0285904790917815,5.75472323520032,-1.36931913390289,1.40344362770103,-4.46992876512543,3.0612477058139,-5.06168320698522,-2.83126253875787,194.589693797274,1295.88774311583
0.56,4.67417540111237,0.0334618358378687,6.29642136533104,-1.60751664686995,4.44686777624094,1.44027856869827,5.46977240925149,3.50864953660983,-1.25041350828621,235.541355294184,1295.88774311583
0.57,4.64064088244526,0.0181595062200719,7.97437709571421,-0.838441481360837,-2.69082270043294,3.78091930121806,-5.33040395008729,5.99003071037301,0.622438248758638,276.24022611124,1295.88774311583
0.58,4.66098995620806,0.00882288829281608,6.95822181457801,-0.362426555359487,-1.6120650043456,-4.37334558856197,-2.0539297867448,-6.65804597911591,2.7903276040508,316.191056838104,1295.88774311583
0.59,4.61283531357601,0.0530162790324507,9.36738096978917,-2.56463436740754,3.98357653459917,2.32640889548833,6.71546093832829,7.01624971458707,-1.03073187336821,356.12522726581,1295.88774311583
0.6,4.62017342750258,0.0205660238973755,9.00198842276809,-0.930913462514978,-4.56877654056621,-0.687536460059934,-8.75308111136799,-2.29912298413008,1.72461277438627,396.160711771738,1295.88774311583
0.61,4.62475706156108,0.0568608807545528,8.77438014204139,-2.72953566658274,4.61978911477208,0.221719582474392,8.59410116282406,3.25292745620674,-1.51054541166798,435.862568758924,1295.88774311583
0.62,4.60671261449751,0.104866240562495,9.67827337268349,-5.10473939411249,-4.4808197294136,-1.07473373143214,-8.05426217059753,-7.4064971913503,1.82896125627826,475.201372887873,1295.88774311583
0.63,4.60446274921116,0.0426011719259693,9.79252538618314,-2.00551463124578,3.40541695586881,3.09935919593129,5.81729811166275,8.12863365241829,-0.823162840541669,515.49827836674,1295.88774311583
0.64,4.62787476913945,0.071665266672261,8.62371237278472,-3.41975377928512,-0.266847732837575,-4.62073079466486,3.05288155294412,-8.7603107948947,3.09939094093606,554.678278003398,1295.88774311583
0.65,4.5969271778474,0.0878722843076107,10.1730125880204,-4.24073845215165,-3.89386090501918,2.44485342487944,-10.9033150470665,1.60989711472277,1.02924620575462,594.634271562487,1295.88774311583
0.66,4.57544347458139,0.0867828568289817,11.2492692500401,-4.18840254949779,3.18677043439891,3.28431247779042,4.61841367442267,11.0796674006237,-0.751360959896816,634.208651347122,1295.88774311583
0.67,4.53815266667933,0.0504209544855532,13.1158626729603,-2.36303503878471,3.52083673156909,-2.86375288884601,11.7369921696477,-6.31290765496428,-2.24252839989023,673.620430359229,1295.88774311583
0.68,4.486695233037,0.0802938681519314,15.6909190349915,-3.85083731248038,-1.41528018567142,-4.25838739612375,-1.00607144564484,-16.1251886319543,2.8386203575383,712.990535158694,1295.88774311583
0.69,4.51986689011295,0.0893831358013104,14.0345692946418,-4.2907931191403,-4.2703618262646,-1.48364278789979,-11.6755474105057,-8.8916608989771,1.92495093182391,752.322649882036,1295.88774311583
0.7,4.50730864957116,0.119165770835391,14.6648233481229,-5.75142116612988,-4.31009523533364,1.32405090755303,-15.6702288004589,-1.60618137304816,1.29918156644165,791.347714397897,1295.88774311583
0.71,4.46271812328106,0.1252002820581,16.8967601285872,-6.02259077997291,-3.58523842886994,2.66037470418038,-17.2979425672997,4.74902995194053,0.960459279854762,830.393595303709,1295.88774311583
0.72,4.30328030742333,0.121235697147479,15.3096385523474,-5.86145941468965,-3.31788097007059,2.74309776839319,-15.6754422163596,4.79815072659733,0.908114199762664,869.251042373815,1295.88774311583
0.73,3.92141651036372,0.099733974383911,17.0555901548068,-4.75924267469533,-3.50225245060624,1.76682825583648,-17.4528681769188,2.9901402583291,1.12899609497155,904.889526021508,1295.88774311583
0.74,3.62708297587139,0.135455204569405,15.6138334229512,-6.56684583008912,-3.62953228288385,0.0239673487254397,-15.4047307733502,-7.04340316299052,1.60152114304041,937.728448100196,1295.88774311583
0.75,3.30044332907741,0.0736938764755505,17.1684497772184,-3.51437993197063,-2.4991716228253,-2.15696503345472,-10.3884345695959,-14.1133610898443,2.30515534230629,968.069597816347,1295.88774311583
0.76,3.03067414632143,0.0633817428578461,17.1317156175205,-3.02388105917721,0.177850632829691,-3.02611503068058,4.37679984708941,-16.8369581503954,-3.06197788279569,995.881440365483,1295.88774311583
0.77,2.78156539894483,0.0539879414669918,17.1319309702211,-2.57022119836684,2.56315488556349,-1.08178454372532,16.8633080117631,-3.96710709174356,-1.95076055352387,1021.4110534484,1295.88774311583
0.78,2.55227664437678,0.100287623918495,17.1377269099855,-4.89769531012221,-1.38106100133526,2.1486842921968,-13.8380212403615,11.2338003873728,0.610532939477138,1044.82220115148,1295.88774311583
0.79,2.33751000851274,0.0782902111655615,17.3238338461841,-3.80222175830818,-2.09422052061397,-1.04130821954929,-13.4393066395311,-11.5739857645584,2.06570555897332,1066.3135118689,1295.88774311583
0.8,2.12947926806914,0.0891998918672961,18.036995932666,-4.34356396269781,1.00023206128723,-1.8820665231119,12.870728942706,-13.3620397640648,-2.61123585131775,1086.01121428834,1295.88774311583
0.81,1.95498659131392,0.0578749859849418,17.8779361862656,-2.76204440296974,1.52694614071649,1.22219375287677,11.8317514928696,13.6842664463661,-0.866205993683796,1104.11490860178,1295.88774311583
0.82,1.76065815170892,0.06193982460546,19.4567184066321,-2.96314521331368,-1.45448530004357,0.994095659888112,-18.0243445755542,7.9036145738422,1.00641676778168,1120.79393510692,1295.88774311583
0.83,1.64044149599972,0.0187626591223696,17.9492605769135,-0.876336262583353,-0.256058785822839,-1.62044260539461,-1.73148813859389,-17.8870307577577,2.99630777100864,1136.22640306617,1295.88774311583
0.84,1.51724334721255,0.0420509030663798,17.149396482291,-2.01255051127208,1.42367045487288,0.526268077154104,15.1648237981741,8.25713500177682,-1.1890109334602,1150.27025120209,1295.88774311583
0.85,1.3540461669079,0.11745624344817,18.9920172551926,-5.76510686514479,-1.08233840036528,0.822058743848432,-19.137527681858,5.26195883813161,1.00775761379417,1163.18489009802,1295.88774311583
0.86,1.22358926705521,0.0173088789361334,19.6645471397321,-0.822364539119216,0.170422198592722,-1.21178651831482,3.82642634642995,-19.3061948364066,-2.98772682355918,1175.11861702112,1295.88774311583
0.87,1.15134947417065,0.0444961350156072,17.8929043877161,-2.13258046505371,0.701959426642933,0.913694960614036,8.60476211776905,15.8323086050167,-0.616460581057219,1186.0011615448,1295.88774311583
0.88,1.03166446261329,0.0458407183576163,18.9433932723858,-2.27094431378884,-1.00857400081029,-0.221836470780244,-17.7164696901452,-7.08068064996346,1.8317040647547,1196.10591311546,1295.88774311583
0.89,0.962558035118777,0.0339579514730698,17.8547929618142,-1.61991743175616,0.888130376797092,-0.372686929272041,17.2710770701289,-4.80912268845641,-1.93284626766536,1205.25834516735,1295.88774311583
0.9,0.881598429398178,0.0493598353491356,17.7405421387028,-2.45556415553739,-0.844960842450632,-0.256307157114556,-15.8192362007611,-8.39692781447951,1.92124160856316,1213.75642206492,1295.88774311583
0.91,0.76623539605265,0.0441752001279994,19.6714726484966,-2.13958179403432,0.751275499883055,-0.157013546376663,19.7715784033755,-0.79330564922226,-1.71923818791574,1221.46607065245,1295.88774311583
0.92,0.723494514545321,0.0170286197229009,18.3004692026301,-0.835622709969105,-0.590487162580144,0.418400761584975,-15.643729000634,9.53305729053136,0.977874912623395,1228.59552316163,1295.88774311583
0.93,0.613199217285429,0.0941420443332897,20.5880387676781,-4.67258168526573,0.259162856253582,-0.563658246217687,15.2394703866667,-14.6102327920812,-2.55829295286929,1235.11304290059,1295.88774311583
0.94,0.634121091833428,0.0365817726402393,16.5528526319332,-1.79104741716981,-0.111907415793307,0.625239566476711,-5.59184796478838,15.6823473193186,0.234733001746298,1241.12301275738,1295.88774311583
0.95,0.516314624101648,0.0261099087783192,19.7209181488853,-1.32379638786566,-0.0630420957633768,-0.513116178422976,-0.0928158871473095,-19.7650811969658,3.06987077805404,1246.65207392751,1295.88774311583
0.96,0.451292238467875,0.070423146956725,20.4506130601548,-3.47422955107651,0.216648379690908,0.402103946394385,3.53228948944502,20.440664775699,-0.339394318976841,1251.69195589367,1295.88774311583
0.97,0.443300615837995,0.00869524666590574,18.5514922111357,-0.420429291229635,-0.247140193610702,-0.368120588963713,-9.68283820288333,-15.82963260425,2.56996245597364,1256.30558685268,1295.88774311583
