t,iq,id,vq,vd,ia,ib,va,vb,theta_e,omega,r
0,0,0,0,0,0,0,0,0,0,0,0
0.01,0.00116680474554874,0.000667866287228309,-0.0579378901805727,-0.033468981173623,-0.000682568074574787,-0.00115826573609965,0.0341989764856524,0.0575100150122587,3.12894650670521,-0.00163633776368452,0
0.02,0.00131634542547132,0.000753976047585949,-0.0654358176905986,-0.0377842176460988,-0.000770577807386401,-0.00130669621651559,0.0386094703931659,0.0649523066251251,3.12893441907466,-0.0017900700909065,0
0.03,0.00134455890808495,0.00077013216880678,-0.0668361443481049,-0.0385938492682849,-0.000787106287395268,-0.0013346931883712,0.0394375839656387,0.0663417844470362,3.12892203441333,-0.00176631213867533,0
0.04,0.00133026160908356,0.000762207617306204,-0.0661361642177148,-0.0381967353482737,-0.000779016353315813,-0.00132048851632557,0.0390323852512263,0.0656464447651086,3.12891057498749,-0.00168574012328296,0
0.05,0.00134406392243569,0.000770150438876435,-0.0668241658075465,-0.0385947543469572,-0.000787148929217239,-0.00133417993139116,0.0394398607108696,0.0663288895284977,3.12889906553382,-0.00164565409421122,0
0.06,0.00134384820190394,0.000770171949452434,-0.0668195152318597,-0.0385958370610438,-0.000787182506441874,-0.00133395521777746,0.039441620484613,0.066323787797525,3.12888796581554,-0.00158738007668955,0
0.07,0.00137737785154791,0.000789411003455175,-0.0684814014505142,-0.0395599659612075,-0.000806860505561063,-0.00136722916984556,0.0404275069005385,0.0679728617706015,3.1288773418038,-0.00158052507803221,0
0.08,0.0013434645893324,0.000770226198413931,-0.066811827408856,-0.0385985759610753,-0.000787259833501313,-0.00133355444360878,0.0394456516971176,0.066315238898185,3.12886700240455,-0.0014773561017783,0
0.09,0.00134311918025062,0.000770161363611868,-0.066800109695333,-0.038595311061036,-0.000787203791439359,-0.00133320210362161,0.0394428935669067,0.066303173666698,3.12885711426473,-0.00142522032965135,0
0.1,0.00134289366155028,0.000770157816453257,-0.0667941097208184,-0.0385951426270007,-0.000787210054721917,-0.00133296915876575,0.0394432794988601,0.0662968010553304,3.12884760005922,-0.00137521166626013,0
0.11,0.00134267722324207,0.000770154591327798,-0.0667883621233276,-0.0385949829630426,-0.00078721627220609,-0.00133274557254199,0.0394436534631235,0.0662906948712662,3.12883844545529,-0.00132709365809346,0
0.12,0.00134246893399878,0.000770151488486892,-0.0667828281802287,-0.0385948233372933,-0.000787222250876517,-0.00133253040554252,0.0394440071488422,0.0662848159703934,3.12882963686022,-0.00128079432730924,0
0.13,0.00140127278902615,0.0008038324897033,-0.0696922416322085,-0.0402826865739043,-0.000821663387750214,-0.00139089229561407,0.041169480714666,0.0691720842465968,3.12882073278892,-0.00131957147271945,0
0.14,0.0015341552779657,0.00088052014667972,-0.0763780191753902,-0.04412574503699,-0.000900054742561026,-0.00152277693902039,0.0450982525478734,0.0758078545096347,3.12881230479567,-0.00146825786805459,0
0.15,0.0013425041365484,0.000770495548438552,-0.0667983249700017,-0.0386120699318913,-0.000787600709007615,-0.00133254113256736,0.0394631406028782,0.0662990851896214,3.12880413921033,-0.00114769985026547,0
0.16,0.00134169033812479,0.00077014098777355,-0.0667621744379471,-0.0385943073973176,-0.00078724577575125,-0.00133172602025644,0.0394454150620413,0.0662628684086707,3.12879662611655,-0.0011072875609952,0
0.17,0.00134151730381093,0.000770137315277547,-0.0667575192611497,-0.0385941217037687,-0.000787249513890117,-0.0013315473569073,0.0394456487299475,0.0662579308782101,3.128789398131,-0.00106929308844878,0
0.18,0.00134135288427524,0.000770134860934979,-0.0667531405517389,-0.0385939942293896,-0.000787254214172495,-0.00133137750711378,0.0394459259844934,0.0662532798231471,3.12878244333982,-0.00103273761894499,0
0.19,0.00134119475116206,0.000770132502686075,-0.0667489289330928,-0.0385938667713547,-0.000787258738859213,-0.00133121414893622,0.0394461879197109,0.066248806213267,3.1287757514131,-0.000997563815708644,0
0.2,0.00134104230356922,0.000770130233466204,-0.0667448599407169,-0.0385937713013861,-0.000787263086659929,-0.00133105667379103,0.0394464668560079,0.0662444847843764,3.12876931241584,-0.000963719447291655,0
0.21,0.00134089604481037,0.000770128049908254,-0.0667409640697182,-0.0385936438691279,-0.000787267273617714,-0.00133090557746751,0.0394466998788056,0.0662403464719496,3.12876311678799,-0.000931154266152461,0
0.22,0.00134075488949737,0.000770125948782144,-0.0667371922424876,-0.0385935484163162,-0.000787271295037554,-0.00133075976746691,0.0394469509101564,0.0662363410196019,3.12875715533136,-0.000899819923940932,0
0.23,0.00134061920570177,0.000770123926979472,-0.0667335678029944,-0.0385934529690131,-0.000787275164508406,-0.00133061960490254,0.0394471888697515,0.0662324918303882,3.12875141919512,-0.000869669899686222,0
0.24,0.00134048864417759,0.000770121981509017,-0.0667300780011961,-0.0385933575269253,-0.000787278886072755,-0.00133048473389081,0.0394474141626842,0.0662287858194944,3.12874589986274,-0.000840659430729309,0
0.25,0.00134036320492485,0.000770120109491754,-0.0667267275025997,-0.038593262088912,-0.00078728246792516,-0.00133035514801788,0.0394476273950578,0.0662252273289442,3.12874058914029,-0.000812745446266658,0
0.26,0.00134932463244012,0.000775264811209629,-0.0671721110134986,-0.0388510754511975,-0.000792548740695035,-0.00133924567754848,0.0397114832137344,0.0666670583023558,3.12873549205312,-0.000799124339265894,0
0.27,0.00130010342875899,0.000747212648729867,-0.0647434817009162,-0.0374452829044819,-0.000763872527042531,-0.00129038538054429,0.0382749040140722,0.0642565121778884,3.12873048751942,-0.000701613854429793,0
0.28,0.00126422448436208,0.00072640433719044,-0.0628691331647703,-0.0364024995614891,-0.000742610486286514,-0.00125477347501729,0.03720839865395,0.062395552316031,3.12872569159324,-0.000624540887724607,0
0.29,0.00133965489955783,0.000769973490728793,-0.0667020667830784,-0.0385859051465103,-0.000787152431523426,-0.00132963358707621,0.0394412323465657,0.066199901662268,3.12872128078225,-0.000710892543884401,0
0.3,0.00133837432658725,0.00076931069599966,-0.066640905121341,-0.0385526943809295,-0.000786478331350627,-0.00132835861850755,0.039407492140292,0.0661390205751019,3.12871742495233,-0.000688901086263928,0
0.31,0.00133971088156138,0.000770107888362333,-0.0667091819255163,-0.0385926253388344,-0.000787298292687512,-0.00132968146720303,0.0394485790232084,0.0662066106726885,3.12871319306158,-0.000668740400034768,0
0.32,0.00133961918408505,0.000770109006411589,-0.0667068232731194,-0.0385926898923907,-0.000787303647097271,-0.00132958655505848,0.039448882944352,0.0662040906497796,3.12870911854078,-0.000647330997825484,0
0.33,0.00133952643870397,0.000770107632222124,-0.0667043288687982,-0.038592626405847,-0.000787306290478638,-0.00132949074843207,0.0394490468721503,0.0662014426097872,3.12870519801252,-0.000626724109473473,0
0.34,0.00133943718578134,0.000770106302096074,-0.0667019260596964,-0.038592562916376,-0.000787308825209967,-0.00132939855007008,0.0394492021481818,0.0661988920028087,3.12870142566558,-0.000606896060369449,0
0.35,0.00133935142531714,0.000770105022182235,-0.0666996180249903,-0.0385924994234563,-0.000787311264965501,-0.00132930995548359,0.0394493491858552,0.0661964417868631,3.12869779589896,-0.00058781743549429,0
0.36,0.00133926869164606,0.000770103790610398,-0.0666973845232665,-0.0385924330179941,-0.000787313609107877,-0.00132922449482748,0.0394494851740316,0.0661940715472065,3.12869430332386,-0.000569459909560849,0
0.37,0.00133918933402208,0.000770102605556158,-0.0666952458765854,-0.0385923695186428,-0.000787315867277775,-0.00132914251326768,0.0394496165380535,0.0661918013246519,3.12869094275483,-0.000551796227795876,0
0.38,0.00133911288677993,0.00077010146526348,-0.0666931815921619,-0.0385923060164858,-0.000787318038407705,-0.00132906354127215,0.0394497404368916,0.0661896104688421,3.12868770920255,-0.000534800165549552,0
0.39,0.00133903909827767,0.000770100368042609,-0.0666911818318413,-0.0385922744359906,-0.000787320123998504,-0.00132898732346197,0.0394498889846773,0.0661874885410163,3.12868459786619,-0.000518446489365693,0
0.4,0.00133896847179979,0.000770099312267801,-0.0666892742995072,-0.038592210925323,-0.000787322135113597,-0.00132891435946391,0.0394499989996752,0.0661854638846413,3.12868160412654,-0.000502710919513716,0
0.41,0.0013389005228731,0.000770098296374651,-0.0666874372642476,-0.0385921474116232,-0.00078732406989287,-0.00132884416136593,0.0394501024214515,0.0661835141832949,3.1286787235389,-0.000487570093943468,0
0.42,0.0013388346506112,0.000770097318857058,-0.0666856430606487,-0.0385921158155499,-0.000787325924798603,-0.00132877612498422,0.0394502310949644,0.0661816111928907,3.12867595182675,-0.000473001533601977,0
0.43,0.00133877182395684,0.000770096378266017,-0.0666839424912002,-0.0385920522941237,-0.000787327716407071,-0.00132871121595943,0.039450322112197,0.066179806373893,3.1286732848749,-0.000458983609056675,0
0.44,0.00133871095755287,0.000770095473207718,-0.0666822834616054,-0.0385920206869133,-0.000787329434605981,-0.00132864834592535,0.0394504388976182,0.066178046655506,3.12867071872356,-0.000445495508385066,0
0.45,0.00133865253587035,0.000770094602340188,-0.0666806923905294,-0.0385919890733102,-0.000787331089410477,-0.00132858799633044,0.0394505501276853,0.0661763587162205,3.128668249563,-0.000432517206274745,0
0.46,0.00133859657771755,0.000770093764372683,-0.0666791721632697,-0.0385919255399927,-0.000787332684678547,-0.00132853018311204,0.0394506241726029,0.0661747457090342,3.12866587372762,-0.000420029434293218,0
0.47,0.00133854246340102,0.000770092958062612,-0.0666776938533153,-0.0385918939165885,-0.000787334215876157,-0.00132847428386701,0.0394507247170845,0.0661731777456885,3.12866358768967,-0.000408013652281897,0
0.48,0.00133849032814466,0.000770092182214919,-0.0666762660973448,-0.0385918622880777,-0.000787335688093044,-0.00132842043115137,0.0394508201857407,0.0661716637407451,3.12866138805531,-0.000396452020827562,0
0.49,0.00133844017194846,0.000770091435678699,-0.0666748907706398,-0.0385918306542581,-0.000787337104543415,-0.00132836862240882,0.0394509108194377,0.0661702054405187,3.1286592715589,-0.000385327374779049,0
0.5,0.00133839236286052,0.000770090717347254,-0.0666735879456112,-0.0385917641950002,-0.000787338473080918,-0.00132831922319689,0.0394509622692192,0.0661688232421908,3.12865723505807,-0.000374623197761452,0
0.51,4.53947219252526,-0.0099559069084959,13.0283074025089,0.505016311375299,-0.514421416431936,4.51024140297486,-0.946108020998356,13.0037192703328,0.111372355718031,34.1827627771717,2932.41791851831
0.52,4.44668052505496,0.0463570672743072,17.6700385480128,-2.30979194498005,-2.10259745494769,3.9184436466583,-10.540417060183,14.3688903299718,0.502914037575853,72.6871765165421,2932.41791851831
0.53,4.50711058810509,0.0264433376344977,14.6508161158419,-1.30281354705965,-4.15593715833701,1.74440002277802,-14.0392600002525,4.38667466811998,1.17925899601272,112.213483610347,2932.41791851831
0.54,4.56631144050038,0.00291202133755553,11.6930883926425,-0.122761582932784,-3.8067231814433,-2.5219173799661,-9.67600107505234,-6.56645945392042,2.15653977819564,155.025509199719,2932.41791851831
0.55,4.51072548112168,0.00987371448752272,14.4747110775086,-0.463544274306711,1.34588565555014,-4.30526812852145,4.79123118810795,-13.6666103249377,-2.8364152965438,196.022302624793,2932.41791851831
0.56,4.45695382812525,0.105191843075101,17.1656011527711,-5.22582265133108,4.27375040989349,1.2690784781979,14.7301672713784,10.2464265710731,-1.25854520406197,234.716885623083,2932.41791851831
0.57,4.44718652962016,-0.0207995379096599,17.6564987405356,1.0827684539522,-2.58851418891314,3.61628192261162,-9.32631321574475,15.0314409522585,0.616570762271496,276.858494231587,2932.41791851831
0.58,4.51925932284426,-0.0368835621615271,14.0553952576562,1.91094684659041,-1.53088367721716,-4.2522300491745,-6.66145916037362,-12.5232110720099,2.78785900271004,315.58971948405,2932.41791851831
0.59,4.4481750408361,0.0591976017974607,17.6122702696927,-2.90969758396594,3.83950255249915,2.24677228470718,13.578362888984,11.5882037148948,-1.02804305514043,356.858429405842,2932.41791851831
0.6,4.41814172581902,-0.0146451716284424,19.1166256582049,0.789568484632439,-4.35903242472355,-0.720435361905446,-18.9971600290458,-2.27523752137791,1.73127504544248,397.149980273683,2932.41791851831
0.61,4.49881259713755,-0.0146777350664041,15.0857547954309,0.822119442052109,4.48527166842357,0.349096377103856,15.1051269973776,0.301689439590618,-1.49638377561411,436.458994396587,2932.41791851831
0.62,4.38696247049944,0.0222760872575751,20.681075215315,-1.02702320011235,-4.21875025999505,-1.20336286523464,-19.5720445610391,-6.75993494168283,1.85373662348131,476.515565208651,2932.41791851831
0.63,4.4978125611789,0.0957546472675789,15.1414806190393,-4.70334857729134,3.25100261145847,3.10973773946651,7.39377052597667,14.0256222887061,-0.786317441968384,516.650952259856,2932.41791851831
0.64,4.50284881848151,0.0560195328323725,14.8925520884779,-2.70512077926309,-0.0196000714979241,-4.50315461730511,2.82547859697457,-14.870186846051,-3.1335048790134,556.689697757629,2932.41791851831
0.65,4.42185790550974,0.059695762286299,18.9449551707956,-2.88063970161633,-3.90466612406869,2.07604753801649,-18.1639830177258,6.10566396436555,1.09562348949587,596.645608934243,2932.41791851831
0.66,4.41034541579552,0.0936030996492201,19.5235968485235,-4.56822484117165,2.79726387864987,3.411044271201,8.46392121046993,18.1769510602337,-0.665633691451992,636.533122687869,2932.41791851831
0.67,4.36396104515033,-0.00303317566786737,21.845870798443,0.244260930210162,3.69058922401228,-2.3288873702583,18.3363809386599,-11.877662582202,-2.13441800434836,676.878145808864,2932.41791851831
0.68,4.35117259448685,0.0132587425411076,22.4884071702738,-0.559758932954409,-0.744906870475945,-4.28695608743371,-3.23060925225541,-22.2621865722639,2.9725963309694,716.769076533139,2932.41791851831
0.69,4.36388748564457,-0.00678436348415401,21.8557830582694,0.478298834548049,-3.7904060359635,-2.16249441559617,-19.2367624917281,-10.3851332057952,2.08770099117255,756.048180131708,2932.41791851831
0.7,4.29496809677733,0.0856701264789363,25.3049176427051,-4.18847193013267,-4.2757995119165,0.414281132566573,-25.551337295616,-2.23859697562111,1.49415205388766,796.339541174696,2932.41791851831
0.71,4.3747121718583,0.0180634312900689,21.3209422454311,-0.756452678069152,-4.05836490908246,1.63343415504981,-20.0912429093424,7.17612411019805,1.19227790920987,835.581488838587,2932.41791851831
0.72,4.36555248817344,0.013675230649032,21.782257244205,-0.565276405696354,-4.0323669802627,1.67279767916436,-20.3607164669369,7.76063741071317,1.1806929523028,875.652743209247,2932.41791851831
0.73,4.22745221484793,0.0925203678161798,28.690696103301,-4.46841694761045,-4.19092808553929,0.562169039632654,-29.0096844523538,-1.24940020991069,1.45933489950155,914.71374015247,2932.41791851831
0.74,4.28063857445693,0.0942946985919417,26.0347508373964,-4.56294913105754,-3.88273903814117,-1.8047425459067,-21.3476486942188,-15.5854628152695,2.02792379100089,954.339718170106,2932.41791851831
0.75,4.24888496856988,0.0438048752385352,27.625862552742,-2.04856792436902,-1.11577347311001,-4.09999901218741,-4.99696126761416,-27.2472987727905,2.8861967289524,994.098462046055,2932.41791851831
0.76,4.31711564483811,0.0786875770219528,24.2178018718975,-3.80058348894598,3.31201160646257,-2.77024517765861,21.2412933575658,-12.2373942839464,-2.24913081884596,1033.68304057692,2932.41791851831
0.77,4.36280850823121,0.0467315027662394,21.9367254615621,-2.19591128119949,3.19825503860492,2.96773425712001,14.4087436295107,16.6862235796444,-0.812055689632274,1073.09055870113,2932.41791851831
0.78,4.24891520174157,0.000512968294062555,27.6350181563869,0.12176125589073,-3.36366501975335,2.59596577204223,-21.8049927098528,16.9779665222469,0.91362996706148,1112.42230103649,2932.41791851831
0.79,4.21140786007243,0.074573038601724,29.5139890203459,-3.57776670629093,-0.965810029022004,-4.09984491045779,-2.76134296479872,-29.601536235954,2.92794392159225,1151.72977302308,2932.41791851831
0.8,4.26556988296882,0.0600582255272825,26.8095378893504,-2.82194448057817,3.73548140861121,2.06030872998785,21.8933963483254,15.7287599265521,-1.05268422730733,1190.89205408971,2932.41791851831
0.81,4.18077238465928,0.0209727289618322,31.053206684972,-0.83451515058979,-4.17775031088136,0.16031196967305,-31.06376767414,0.200994634781081,1.53745877648822,1229.92421962895,2932.41791851831
0.82,4.22297631903886,0.0725394553313237,28.9468046908339,-3.47513388828145,4.01645278614147,-1.30648305784621,28.6948774389653,-5.15733129763096,-1.86810835842636,1269.40381223173,2932.41791851831
0.83,4.23110450133586,0.18417817217446,28.544193076368,-9.03607630707201,-4.02366633425243,1.32146741576693,-29.9242362584832,-0.980672093354206,1.29697303501195,1308.54257686254,2932.41791851831
0.84,4.19271008652521,0.073532950216439,30.467796650181,-3.44339076570201,-4.19128568150752,-0.131716743080761,-30.2628030419681,-4.93014449333342,1.619748809574,1347.49827614227,2932.41791851831
0.85,4.21681475374866,0.0365714371454385,29.2664923017154,-1.63085535138923,3.38899530931117,2.5094969477794,22.386418593891,18.921826639165,-0.924740753836944,1386.74984360858,2932.41791851831
0.86,4.16244233380946,0.0820890957175351,31.988977108244,-3.93316140701077,-0.253864954527783,-4.15550446838738,2.60914763651282,-32.1240838576953,3.10029605723947,1425.8717517804,2932.41791851831
0.87,4.15235072039239,0.1560500524982,32.4975028766846,-7.57108166025515,-3.68687290026722,1.91659498624594,-32.6141265322034,7.05178851553306,1.12896410094893,1464.74202876161,2932.41791851831
0.88,4.14426413068657,0.126784688227904,32.9057948657512,-6.13710182405825,2.29600000588619,3.45244601913411,12.1637819129095,31.1848964102966,-0.556289380995056,1503.96507158006,2932.41791851831
0.89,4.22384252446611,0.0917641486979501,28.9309541890045,-4.39858978505594,3.88029734460776,-1.67109510438648,28.4655386348308,-6.78681166767057,-1.95573075948963,1543.0124105435,2932.41791851831
0.9,4.08809974466424,0.133061295761514,35.7221851628768,-6.48033122691872,0.161405141961194,-4.08707881143758,9.03359899031965,-35.16338002672,-3.06958463887007,1581.93931515148,2932.41791851831
0.91,4.15840440804373,0.173521073779266,32.2110632889307,-8.50015578399086,-2.98078788945319,-2.90471002717522,-15.9308781692827,-29.2576890288875,2.38497249233557,1620.83250053023,2932.41791851831
0.92,4.17390092148582,0.188232875357493,31.4403792432096,-9.23160090910065,-4.07217482791672,-0.935025501591799,-27.8256801029736,-17.3046649522241,1.84156446760523,1659.72967769183,2932.41791851831
0.93,4.19617747522522,0.102697222211085,30.3306777237895,-4.93124195261305,-4.19712954461715,0.0505540180320993,-30.2670685358259,-5.30770389407803,1.58322111555855,1698.62925601796,2932.41791851831
0.94,4.15231624763053,0.0413493514124528,32.5278753254165,-1.82733122884121,-4.15076029070109,-0.120950396186613,-32.4316179419637,-3.09709061414701,1.60988523099429,1737.43446759057,2932.41791851831
0.95,4.1703268475401,0.18106776565882,31.6315391015689,-8.77756274297782,-3.97883065121848,-1.26226708742594,-26.6926638472134,-19.1076312079928,1.92138973007693,1776.12125176085,2932.41791851831
0.96,4.02942298958409,0.14486656139413,38.6810454948794,-7.00773535186601,-2.47301757374245,-3.18455962882781,-16.9261138954379,-35.480111382821,2.51724228485628,1814.96076912957,2932.41791851831
0.97,4.06575960238744,0.106070149440585,36.8685040610684,-5.06951103690547,0.925518458927117,-3.9604378044849,14.227976052336,-34.3882426318717,-2.88593887249012,1853.76837845606,2932.41791851831
0.98,4.02037656083033,0.161237043953963,39.1420309033542,-7.75960060285243,-3.95928413762348,0.716585091095302,-39.8395472981594,-2.26284242329091,1.43182950840069,1892.26169454611,2932.41791851831
