t,iq,id,vq,vd,ia,ib,va,vb,theta_e,omega,r
0,0,0,0,0,0,0,0,0,0,0,0
0.01,0.000515339218230417,0.000274084528771435,-0.0234140323071629,-0.0137100150738075,0.000240867992313429,0.000531676075291239,-0.0121983197150098,-0.0242359736411661,0.0634286806048741,-0.00661367071163113,0
0.02,0.000670236689653492,0.000347905000776135,-0.0309567219845398,-0.0174025928880606,0.000304757646876643,0.000690925384099416,-0.0154070364068935,-0.0319967514665525,0.0633765980559824,-0.00730699512944099,0
0.03,0.000726525540233032,0.000378021376052876,-0.0339502826166612,-0.018909045070867,0.000331286495010672,0.000748991842136717,-0.0167226465647283,-0.0350788649633141,0.0633259392768092,-0.00659501246807428,0
0.04,0.000711584274123961,0.000375155960747724,-0.0337172318767511,-0.0187657065273813,0.000329402753422573,0.000733885549730133,-0.0165957863301877,-0.034836523118491,0.0632845261522467,-0.00511751870788163,0
0.05,0.000717320146790274,0.000384665347494086,-0.0343093072959513,-0.0192413795700723,0.000338554934097426,0.000740200093996383,-0.0170342403695232,-0.0354569303510741,0.0632513197976242,-0.00419306733162478,0
0.06,0.000711302789200782,0.000386983754256423,-0.0343150095683832,-0.0193573588803537,0.000341268450073929,0.000734332301459867,-0.0171505640476442,-0.0354694992542705,0.0632249105932892,-0.00330243959632846,0
0.07,0.000711764433828107,0.000392559637907455,-0.0345378206682894,-0.0196362740650313,0.00034681857866654,0.000735138457753639,-0.0174155510661184,-0.0357091430411787,0.0632051134394202,-0.00270784288186812,0
0.08,0.000698950889795492,0.000388906328059887,-0.0341402826504571,-0.0194535289512014,0.000343993611052572,0.00072211416957843,-0.0172588527626014,-0.0353005763327907,0.0631889041501271,-0.00202721961294519,0
0.09,0.000691424297159402,0.000388012401579134,-0.0339324916027008,-0.019408813911393,0.000343585349461246,0.000714542014242111,-0.0172277706559089,-0.0350901690227027,0.0631768683290567,-0.00155104146647113,0
0.1,0.000686419936276646,0.000387792759913883,-0.0338049976466688,-0.0193978273765694,0.000343688513866796,0.000709530661068071,-0.017225171612927,-0.0349620799685557,0.0631678224931343,-0.00120274140703247,0
0.11,0.000682850689405601,0.000387738103498429,-0.0337179696693479,-0.0193950869040911,0.000343864102931344,0.000705962732473524,-0.0172281686678194,-0.0348749348242183,0.0631609881101374,-0.000942698500413146,0
0.12,0.000680216007678981,0.000387723981106714,-0.0336550489743447,-0.0193943874005679,0.000344019947032452,0.000703330632541879,-0.0172316222084569,-0.034812006264705,0.0631558129510315,-0.000746790087235536,0
0.13,0.000703758451042815,0.000401528951896301,-0.0347407027495977,-0.0200849156834966,0.000356315136952436,0.000727695664274352,-0.0178524316087482,-0.0359389892902408,0.0631508719428854,-0.000942532888747881,0
0.14,0.000716413469187426,0.000409490307626152,-0.035548070832289,-0.0204831523537203,0.000363465354906085,0.000740826232429655,-0.0181990899172149,-0.0367697973400491,0.0631463143766159,-0.000989989468698123,0
0.15,0.000686677105704512,0.000393033973400201,-0.0340758656095031,-0.0196599984865248,0.000348921062642806,0.000710109318196635,-0.0174706156843972,-0.0352485140840741,0.063142442726489,-0.000435553315920884,0
0.16,0.000677038569955504,0.000389015025926422,-0.0336664736015549,-0.019458965217536,0.000345519310115498,0.000700235904493078,-0.0172958650927186,-0.0348272281813518,0.0631410295744192,-0.000251036115516563,0
0.17,0.000673877804899183,0.000388033490371653,-0.0335334083611805,-0.0194098580541575,0.000344739577810614,0.000697019303231058,-0.0172552722852259,-0.0346913194381959,0.0631404471867159,-0.00018691184819995,0
0.18,0.00067281356979876,0.000387793752722913,-0.0334894777672846,-0.0193978686575085,0.00034456766750144,0.000695941963721752,-0.0172460885904245,-0.0346467149656447,0.0631401627161206,-0.000162637813507753,0
0.19,0.000672434806583104,0.000387735183357869,-0.0334744676629781,-0.019394941781842,0.000344533229064038,0.000695560202706224,-0.0172441203804021,-0.0346315472415976,0.063139997476825,-0.000152054030699781,0
0.2,0.000672285153229011,0.000387720864238598,-0.033468956846892,-0.0193942267714319,0.00034452845718058,0.000695409906465855,-0.0172437582941367,-0.0346260004097244,0.0631398883795663,-0.000146541376068199,0
0.21,0.000672215769338826,0.000387717355812829,-0.0334666518394879,-0.0193940511515039,0.000344529387638256,0.000695340412747519,-0.0172437311498511,-0.0346236875772108,0.0631398108470035,-0.000143168164345436,0
0.22,0.000672177468612166,0.000387716490417179,-0.0334655055482659,-0.0193940092321173,0.000344530980384622,0.000695302114052938,-0.0172437636205529,-0.0346225399399721,0.0631397537158142,-0.000140869263800234,0
0.23,0.000672152904958634,0.000387716272604648,-0.0334648159727047,-0.0193939992524387,0.000344532342672727,0.000695277570858729,-0.0172437986530837,-0.0346218503708639,0.0631397109215713,-0.000139209006293923,0
0.24,0.000672135791900485,0.000387716214518486,-0.033464346774355,-0.0193939965096578,0.000344533386945209,0.000695260477112211,-0.0172438266389205,-0.0346213813776654,0.0631396786356233,-0.000137976534876261,0
0.25,0.000672123219042828,0.000387716196626152,-0.0334639964182954,-0.0193939951986731,0.000344534179394027,0.000695247919761021,-0.017243848283101,-0.034621031215711,0.0631396542030977,-0.000137050341538635,0
0.26,0.000676298352325047,0.00039013947072845,-0.0336447493063985,-0.0195152077328951,0.000346688993269447,0.000699567730762123,-0.0173534047288461,-0.0348090768775231,0.0631399260130863,-0.00020663898504407,0
0.27,0.000667753681353626,0.000384811860465853,-0.0332767027914361,-0.0192487228070216,0.000341911671127434,0.000690703667330177,-0.0171106997516256,-0.0344249362000984,0.0631391724378715,-5.82277272703691e-05,0
0.28,0.00066693158376787,0.000384509818879693,-0.0330419527373387,-0.0192336141441518,0.000341662107070959,0.000689864148100078,-0.0171104334508128,-0.0341897005086027,0.0631391672239242,-4.59930744685043e-05,0
0.29,0.000670474989306508,0.000386933154336205,-0.033392529028296,-0.0193548284405761,0.00034385677791684,0.000693553526045954,-0.0172092730321433,-0.0345472328931692,0.0631395374646319,-0.000109290926057636,0
0.3,0.000659597125959445,0.000381714164698577,-0.0328928243897823,-0.0190937632958679,0.00033933312816556,0.000682368742129113,-0.0169801871029219,-0.0340320869046471,0.0631416282357209,-1.3006297851459e-05,0
0.31,0.000668890090056045,0.000386250800514628,-0.0332988836897652,-0.0193206881145852,0.00034327417086649,0.000691929531881173,-0.0171810290571624,-0.034451660115915,0.0631418733142151,-0.000156964371495603,0
0.32,0.0006716783494221,0.000387358625985363,-0.0334246776639876,-0.0193761060807802,0.000344204069687519,0.000694782029573459,-0.0172284099450332,-0.0345806948247284,0.0631415567169641,-0.000188307431457776,0
0.33,0.000672424424463182,0.000387629100809337,-0.0334615459444563,-0.0193896395597823,0.000344427207788404,0.000695543546403804,-0.0172396039827759,-0.0346183366695786,0.0631411551414114,-0.000187069264224234,0
0.34,0.000672550567168132,0.000387695097295528,-0.0334706939298645,-0.0193929447265194,0.000344485361233719,0.000695673479270871,-0.0172423376758181,-0.0346276688326773,0.063140798684262,-0.000178094272374848,0
0.35,0.000672505118979338,0.000387711170062382,-0.0334715873594568,-0.0193937365208729,0.000344504469367502,0.00069562903693734,-0.0172430814574381,-0.0346286054939402,0.0631405116536234,-0.00016870508183838,0
0.36,0.000672425083846239,0.000387715061121335,-0.0334703039152463,-0.0193939334315264,0.000344513557924882,0.00069554932996293,-0.0172433666832085,-0.0346273331857052,0.0631402885925225,-0.000160754055386177,0
0.37,0.000672349821435941,0.000387715985346785,-0.0334686966800869,-0.0193939804543598,0.000344519348104017,0.00069547421696304,-0.0172435209440232,-0.0346257291732721,0.0631401176847369,-0.000154456851546353,0
0.38,0.00067228800492409,0.000387716191269127,-0.0334672635544266,-0.0193939924892127,0.000344523544655658,0.000695412491773733,-0.0172436278899901,-0.0346242974179209,0.0631399875020285,-0.000149594925603086,0
0.39,0.000672239634364051,0.000387716226534929,-0.0334661018035819,-0.0193939957256666,0.000344526700723213,0.000695364185745265,-0.0172437078490668,-0.0346231364805518,0.0631398885835748,-0.000145879745372105,0
0.4,0.000672202497876581,0.000387716223746507,-0.033465190267889,-0.0193939959948254,0.000344529093384855,0.000695327097213374,-0.0172437682333203,-0.0346222254834788,0.0631398134987806,-0.000143053020234649,0
0.41,0.000672174092538203,0.000387716214416357,-0.0334644766861301,-0.0193939962195781,0.000344530915999916,0.000695298728260857,-0.0172438154554575,-0.0346215123554659,0.0631397565300425,-0.000140906168882402,0
0.42,0.000672152555703776,0.000387716205576817,-0.0334639247379341,-0.0193939964093633,0.000344532296151882,0.000695277218894963,-0.0172438519677504,-0.0346209607738842,0.063139713314544,-0.000139276914983059,0
0.43,0.000672136199351145,0.000387716198441281,-0.0334634937515093,-0.0193939965727673,0.000344533343870647,0.000695260883390739,-0.0172438804599751,-0.0346205300913187,0.0631396805344484,-0.000138040867125235,0
0.44,0.000672123801119434,0.000387716192924014,-0.0334631558500788,-0.0193939967160093,0.000344534137951196,0.000695248500949807,-0.0172439027845338,-0.0346201924434973,0.0631396556707302,-0.000137103256723899,0
0.45,0.000672114371478415,0.000387716188713157,-0.0334628867889496,-0.0193939968441199,0.000344534741848788,0.00069523908333556,-0.0172439205424166,-0.0346199236013977,0.0631396368120558,-0.000136392068762586,0
0.46,0.00067210721193616,0.000387716185513041,-0.0334626709259157,-0.0193939969606608,0.000344535200350494,0.000695231932929455,-0.0172439347743974,-0.0346197079291922,0.0631396225076981,-0.000135852637980673,0
0.47,0.000672101856831384,0.000387716183084321,-0.0334624995393777,-0.0193939970680126,0.000344535543364276,0.00069522658460415,-0.0172439460712387,-0.034619536703849,0.0631396116580239,-0.000135443487995872,0
0.48,0.00067209772408748,0.000387716181241761,-0.0334623545381197,-0.0193939971691382,0.000344535808012959,0.000695222457143842,-0.0172439556062911,-0.0346193918560049,0.0631396034289034,-0.000135133155366026,0
0.49,0.000672094580873808,0.000387716179844185,-0.0334622326757227,-0.0193939972652224,0.000344536009287069,0.000695219317954736,-0.0172439636075052,-0.0346192701348641,0.0631395971870243,-0.000134897774295009,0
0.5,0.000672092194359722,0.000387716178783949,-0.0334621286924322,-0.0193939973574493,0.000344536162103944,0.000695216934497987,-0.0172439704245571,-0.0346191662829515,0.0631395924524461,-0.000134719242621473,0
0.51,4.75182320790828,0.0445024228664488,2.40947820566498,-2.20678632693704,-1.27165993701655,4.57872092067684,-2.78717727890816,1.70503194464765,0.28026994476192,86.7063858950565,3519.36312632163
0.52,4.72928252246929,0.0491864829437445,3.53722621222077,-2.41626453993476,-4.52233618101475,1.38456056325565,-4.07613511903199,-1.31735572066238,1.28409738923882,188.805281037799,3519.36312632163
0.53,4.72485461033895,0.0277960741585912,3.75950222554215,-1.32727227647769,-0.370029076764878,-4.71042484208467,1.05141622193525,-3.84578114406086,3.06908117398214,295.330133847461,3519.36312632163
0.54,4.67558143510375,0.00125005521643795,6.22418739203492,0.0175885939020849,2.93446144429542,3.6400548554752,3.91878887013681,4.83569145429005,-0.678217549065042,399.106090384639,3519.36312632163
0.55,4.68435606614312,0.0803198480487539,5.7866540714223,-3.91749936742876,-2.41926238797409,-4.01208331550285,0.486259794213645,-6.97106290666239,2.6161192709478,501.74459720377,3519.36312632163
0.56,4.66733742452139,0.0999651259175085,6.63885916577744,-4.87406038235039,-1.64472526561074,4.36908576951739,-6.99517851561972,4.34722821674191,0.381452620004444,603.790546541079,3519.36312632163
0.57,4.63242584093974,0.0371413298808463,8.38580535031743,-1.69679276738013,4.15106427038744,2.05655393153313,6.7186668627633,5.29720234237397,-1.10279540034429,705.441555396104,3519.36312632163
0.58,4.60758568117234,0.125757173085134,9.62934771396016,-6.11717677147344,4.41452735692198,-1.3257484267063,10.8935253459853,3.38752041856281,-1.83525528001232,807.911810896909,3519.36312632163
0.59,4.63143384209746,0.0618129358313586,8.4385969530547,-2.90053727628249,4.4721023160218,-1.20594408982928,8.89390098183613,0.722191354491792,-1.82084500579986,910.06001589644,3519.36312632163
0.6,4.60988841877581,0.110701107216409,9.51764294228973,-5.31770242128875,4.07662152405201,2.15510624293518,5.7075791086558,9.28908105986451,-1.06048300760047,1011.33161233826,3519.36312632163
0.61,4.58820472865962,0.133505837050277,10.6036962528174,-6.44367839020568,-1.84891056965611,4.20130648085032,-10.3714817947806,6.811147539068,0.443663231671374,1113.00876074228,3519.36312632163
0.62,4.54141769066452,0.120500500708459,12.9450009446941,-5.77190709038067,-2.08507524747913,-4.03626761056567,-0.437581487881974,-14.1667386281946,2.69129270926413,1214.09586090896,3519.36312632163
0.63,4.56122555390923,0.115688638165571,11.9567295015553,-5.52429102654064,2.68605129822991,3.68826393278906,2.24498469575715,12.9784904913898,-0.604090065628867,1315.30876333832,3519.36312632163
0.64,4.49994571540289,0.149125244764028,15.0228932493369,-7.1780188015305,-0.233268504752661,-4.49636915576215,6.89576695591086,-15.1545265048389,3.12288703741216,1415.967870965,3519.36312632163
0.65,4.56282199252969,0.149674319754825,11.8813787724497,-7.15820797076206,-4.36138602423338,1.34909558042727,-13.3497525697943,-3.76712213929541,1.30359579022533,1516.02602940225,3519.36312632163
0.66,4.46603377065516,0.15260632089744,16.7231836739076,-7.33463011534973,-0.826702349096962,4.39150424749968,-10.810724524309,14.7169937956007,0.220229893922873,1616.85557178941,3519.36312632163
0.67,4.4430434403222,0.167248443137647,17.8751920232093,-7.99738493415282,0.737439504974184,4.38460830985226,-5.63135493318426,18.755492456028,-0.129003748703006,1716.38419048676,3519.36312632163
0.68,4.47034239188316,0.228054296001479,16.5128261845722,-11.0168665860457,-0.904338874878339,4.38385002731345,-14.8180561004638,13.2087089217732,0.254405806171305,1816.16804685828,3519.36312632163
0.69,4.40191837308596,0.238121179340019,19.9367025482832,-11.5279400761555,-4.26458556100046,1.11664544608769,-21.8445395032649,-7.292571891209,1.36874634584453,1916.01799325723,3519.36312632163
0.7,4.40001134312337,0.174603084657325,20.034815786125,-8.35627384476349,-0.140409925522003,-4.40123517999221,8.51169120716782,-19.9692831355175,-3.13382262078466,2015.64338385829,3519.36312632163
0.71,4.35562034934016,0.23555835624254,22.2572213659968,-11.346120687949,2.51993738761079,3.56045389371961,2.25655949619142,24.8802390832692,-0.561884445983903,2114.64124691199,3519.36312632163
0.72,4.38558631986247,0.233501816706202,20.7618858056147,-11.2183660831168,-1.94123563092416,-3.93947898745512,2.13848658764127,-23.5017981204564,2.73694291638247,2213.49364712713,3519.36312632163
0.73,4.37605982214816,0.305579418006008,21.2412479163281,-14.8033919836651,-1.73877812737984,4.02739729496281,-22.9065620085825,12.0673296222453,0.477280074059532,2312.33784439696,3519.36312632163
0.74,4.30352463875753,0.215513680078483,24.871112362394,-10.3616071723838,3.85616066355937,1.92270522949085,16.5933589267677,21.2272365809844,-1.05822784749841,2411.3336347588,3519.36312632163
0.75,4.37954248786244,0.235021564630336,21.0734112943374,-11.263691761346,4.11450685512087,-1.51870368340798,23.460776440327,4.53336348552779,-1.87078070054911,2509.6621068733,3519.36312632163
0.76,4.30996018497557,0.228132312909496,24.5558169380904,-10.9535844254037,3.89701512304368,-1.85501328271173,26.8774021050886,0.757900615406623,-1.96218531806645,2608.16426428957,3519.36312632163
0.77,4.30969378277448,0.298484881434978,24.5724914055937,-14.4630499649486,4.25943635785239,0.720940801408433,20.4934978892637,19.8243207305905,-1.33397954258913,2706.2858707689,3519.36312632163
0.78,4.31702594714415,0.282915871221091,24.209369903218,-13.655164072412,0.502180166749431,4.29704194750623,-12.405817939433,24.8727316193652,-0.050897430018355,2804.11142010121,3519.36312632163
0.79,4.02397974456095,0.276862616563245,24.3219499619332,-13.3159441517287,-3.75891059845947,-1.46275664615688,-16.3378496142526,-22.4041578414545,2.01060391787194,2899.89381238623,3519.36312632163
0.8,3.39135549282767,0.234221163575086,27.8793176284218,-11.3282692934614,3.39601014555544,-0.152534335424552,27.5986075757499,11.9959533381626,-1.54672722874228,2984.52835151643,3519.36312632163
0.81,2.90230953919904,0.27814702948702,28.0449029619264,-13.4930749055135,-2.9042291774934,-0.257331140622732,-25.1042371160022,-18.3944810030944,1.75471583669548,3057.22219003198,3519.36312632163
0.82,2.57028913198934,0.249791847577811,23.7532980898635,-12.1157891030735,1.90106154514664,1.74778350796188,6.82488341992134,25.7765878665224,-0.730500657483053,3120.0844793201,3519.36312632163
0.83,2.17429348809808,0.213153906845245,25.4667333956187,-10.3349329710467,0.555777879119983,-2.1128411462933,18.5413278177067,-20.2875457390953,-2.78665066890336,3174.45072893242,3519.36312632163
0.84,1.82399418486294,0.191080571881873,27.3940394752583,-9.27890749477321,-1.82921163462173,-0.132103622694557,-25.3396004308909,-13.9440371869613,1.74726874262099,3221.39484867267,3519.36312632163
0.85,1.52896333558165,0.104940568384672,28.6720119856224,-5.11381684620603,-0.47191739373084,1.45809306216721,-15.4221594569016,24.7061205316844,0.38154148630565,3262.00194111743,3519.36312632163
0.86,1.34910787550395,0.14985869491868,26.0373275162238,-7.34354287278447,0.991090315442944,0.927518018598408,11.3512630410819,24.5564426064464,-0.707894296155292,3296.98513213956,3519.36312632163
0.87,1.12622531103607,0.151672445757304,27.0764367221307,-7.40692540681625,1.12804478073282,-0.13748801650234,26.9810840137112,7.7470688001816,-1.55821199440929,3327.25181373733,3519.36312632163
0.88,0.962421960113081,0.0616837817406696,26.587674471169,-3.02519095059491,0.740627758341683,-0.617682314633913,23.2509490135678,-13.2457383350603,-2.20192223397388,3353.43518172589,3519.36312632163
0.89,0.817344101363816,0.0993808719151738,26.3061970609216,-4.84315567607394,0.284869894007819,-0.772513482875748,16.3226156462372,-21.1906672659438,-2.66731027919764,3376.0740474576,3519.36312632163
0.9,0.664098065663255,0.082976512885961,27.4607386992945,-4.133032648526,-0.0161763378528306,-0.669066266226345,6.85736154672579,-26.9100487067972,-3.04146342970734,3395.6473377185,3519.36312632163
0.91,0.513068454760792,0.0739345621661652,29.4034142690027,-3.61074850128957,-0.113439933779532,-0.505803262323826,1.32317568963304,-29.5947205005981,3.06408418733475,3412.48803431956,3519.36312632163
0.92,0.500599500505429,0.0356367032304044,25.1918502553902,-1.75294316706432,-0.105173742816928,-0.490722241543315,-1.78112229137219,-25.1898736086575,3.00153050940643,3427.07080076802,3519.36312632163
0.93,0.322303728787427,0.0394309702980725,29.917549935962,-2.02572303476864,-0.0724402892519471,-0.316523142127114,-1.06861828391393,-29.9670052382225,3.03834092941101,3439.65070207911,3519.36312632163
0.94,0.31659162031522,0.0684519297134132,26.5611962882867,-3.37046939936673,-0.0622173459016094,-0.317875640155495,3.89177461858461,-26.489833947292,-3.12194031361347,3450.60424835979,3519.36312632163
0.95,0.301132890382334,0.0405574861434335,24.1992847839917,-2.03008286002987,0.00602348935719683,-0.30379210807435,5.7110123758734,-23.603198048526,-2.98789017699981,3460.02935060382,3519.36312632163
0.96,0.204942222803565,-0.00022352954593912,26.3060684477284,-0.0572311337316021,0.082902759264399,-0.187425977813837,10.6673832076796,-24.046194045623,-2.72623220302553,3468.16176079882,3519.36312632163
0.97,0.0785027118264284,0.0434602856133276,30.3047503157988,-2.15838077112042,0.0201761372266487,-0.0874322347667421,21.8685271220895,-21.0903774448559,-2.40918511439298,3475.15647160349,3519.36312632163
