t,iq,id,vq,vd,ia,ib,va,vb,theta_e,omega,r
0,0,0,0,0,0,0,0,0,0,0,0
0.01,0.000621322865320432,0.000348771921430242,-0.0302761002637933,-0.01745175997046,-0.00070244954202917,-0.000119367487412377,0.0345163516434703,0.00546146889344975,2.25062483184403,-0.00236981442661088,0
0.02,0.00072509788534732,0.000405089960483974,-0.035436122567483,-0.0202697818027805,-0.000818560801561099,-0.000140794295224325,0.040300895956195,0.00651311155116751,2.25060660669729,-0.0025837651009004,0
0.03,0.000763626256456664,0.000426796730286916,-0.0373578411255384,-0.0213559526917748,-0.000862172609341568,-0.000148117859270153,0.0424783446752347,0.00687569942524028,2.25058811670582,-0.00253156193221584,0
0.04,0.000745940621540777,0.000417791560978953,-0.0365559487244072,-0.0209053458470853,-0.000842759927702085,-0.000143989248034176,0.041571558013459,0.00672134186463884,2.2505712391703,-0.00227071635169431,0
0.05,0.000763089075369277,0.000428310036335031,-0.0374354742790199,-0.0214316604183974,-0.00086271095507253,-0.000146575005274083,0.0425865373819264,0.00686422876967625,2.25055535749017,-0.00216156037257807,0
0.06,0.000763852260486055,0.0004295662593388,-0.0375191898213738,-0.0214945341311235,-0.000864096333817779,-0.000146064961214726,0.0426912694203659,0.00686732245085663,2.25054055417624,-0.0019984218835752,0
0.07,0.000777794865346142,0.0004384497236158,-0.0382358315738427,-0.0219390377488988,-0.000880526042401427,-0.000147908422175597,0.0435281316084844,0.00697151003480149,2.25052714111026,-0.00190405329766823,0
0.08,0.000763175592609568,0.000430774329963054,-0.037568989503839,-0.0215549819797752,-0.000864333230809497,-0.000144677484870661,0.0427681763634605,0.0068504971375758,2.25051444165102,-0.00170248949960061,0
0.09,0.000760131594340568,0.000429852170044052,-0.0374581348667785,-0.0215088238404341,-0.000861387765652487,-0.000143471411753457,0.0426530237635854,0.00681622582662963,2.25050294236328,-0.00156109119230747,0
0.1,0.000758689854043363,0.000429739121234772,-0.037421711461273,-0.0215031755371216,-0.000860196885973566,-0.000142644047577717,0.0426212164795773,0.00679727538592102,2.25049240825923,-0.00143699478035732,0
0.11,0.000757543056827808,0.000429723196600475,-0.0373968050749282,-0.0215023737002826,-0.000859296311004836,-0.000141927300185798,0.0426014067495375,0.00678183216536953,2.25048274226139,-0.00132383484717099,0
0.12,0.000756513460001734,0.000429719099468447,-0.0373750527915779,-0.0215021705363405,-0.000858494199741917,-0.000141275718441823,0.0425844208242879,0.00676794001207595,2.25047387073157,-0.00122006831984457,0
0.13,0.000788458614734707,0.000448251386357632,-0.0389469538716712,-0.0224294813882751,-0.000894989939110896,-0.00014693298272065,0.0443899211201286,0.00703432684610422,2.25046531432207,-0.00125284895406337,0
0.14,0.000809558314035503,0.000461004857339649,-0.0400799929314508,-0.0230676433174575,-0.000919418091763277,-0.000150268143174563,0.0456723425877373,0.00724976717936107,2.25045732368897,-0.00124823568341979,0
0.15,0.000760904619123933,0.000433459982043689,-0.0376632089612755,-0.0216893587490478,-0.000864264222982557,-0.000141105451027979,0.0429263604902025,0.00680243833274347,2.25044988507136,-0.000968459332822858,0
0.16,0.00075394994374187,0.000430159202587939,-0.0373466467927055,-0.0215241960263746,-0.00085678119632395,-0.000139296227031324,0.0425763748937862,0.00673166711481422,2.25044362756176,-0.000870144365067039,0
0.17,0.000752482127967731,0.000429762442996438,-0.0372935694125044,-0.0215043347211707,-0.000855390952722119,-0.000138677425424099,0.042522646460166,0.00671351393453279,2.25043795845652,-0.000800568103770622,0
0.18,0.000751775605176428,0.000429713634215554,-0.0372758038375939,-0.0215018955158085,-0.00085481146180765,-0.000138266889497782,0.0425073301749015,0.00670402445650603,2.25043276479123,-0.00073940172909328,0
0.19,0.000751210557907575,0.000429706607321089,-0.0372635258152538,-0.0215015588821715,-0.000854368208111281,-0.000137913145334043,0.042497600649228,0.00669636689603485,2.25042799908033,-0.000683611747050759,0
0.2,0.000750703108850267,0.000429704681574822,-0.0372527943792022,-0.0215014530133065,-0.000853972903561984,-0.000137591972827955,0.0424892164136443,0.0066895186147471,2.25042362506608,-0.000632451038795148,0
0.21,0.000750238644850228,0.000429703455568945,-0.0372430044114286,-0.0215013955046079,-0.000853611420862377,-0.000137297582381896,0.0424815923947633,0.00668323977128277,2.25041961042532,-0.000585499462575613,0
0.22,0.00074981253970174,0.000429702394874208,-0.0372340258905319,-0.0215013408108426,-0.000853279830492116,-0.000137027456117189,0.0424745990460684,0.00667748280091596,2.25041592561439,-0.000542406021325724,0
0.23,0.000749421533773549,0.000429701428826207,-0.0372257870086973,-0.0215012874827889,-0.00085297555689138,-0.000136779576562522,0.0424681797957361,0.00667220253525529,2.25041254353352,-0.000502853069095855,0
0.24,0.000749062395193727,0.000429700542848081,-0.0372182096474078,-0.0215012519301252,-0.000852696080941768,-0.000136551902087991,0.0424622843706233,0.00666733604593585,2.25040943931114,-0.000466549645050819,0
0.25,0.000748733147590991,0.000429699729577978,-0.0372112715393432,-0.0215011984303364,-0.00085243986424797,-0.000136343176366852,0.0424568731594705,0.00666289614477578,2.2504065901196,-0.000433228769274931,0
0.26,0.000755166660141448,0.000433526873461857,-0.0375303676550879,-0.021692700818124,-0.000859849633148646,-0.000137407579765241,0.0428254460728053,0.00671438260571646,2.25040406165814,-0.000430788884982701,0
0.27,0.000737588273531096,0.000423510477983554,-0.0366886089766582,-0.0211915053715203,-0.000839881995422296,-0.000134148499722898,0.0418557320035154,0.00657507619752017,2.25040141660866,-0.000330183682121718,0
0.28,0.000737002132157572,0.000423314080545146,-0.0365834393152357,-0.021181690726268,-0.000839302944032607,-0.000133931033486599,0.041767774806954,0.00651652068441304,2.25039921633895,-0.000303114483296357,0
0.29,0.00074624479686328,0.000428932479520526,-0.0371200882429103,-0.0214628143296126,-0.000850023424663848,-0.000135368188123681,0.0423618865530829,0.00663505220571815,2.25039733675924,-0.000319291258814405,0
0.3,0.000738037210485157,0.00042464158939147,-0.0367266750162591,-0.0212481061236043,-0.000840942768974737,-0.00013354648183583,0.0419209473758796,0.00655475725703046,2.25039622450968,-0.000273695461582889,0
0.31,0.000746105406172964,0.000429090798657662,-0.037122046134579,-0.0214707401540346,-0.000850014877516599,-0.000135155090964547,0.0423684090066234,0.0066300007712938,2.25039457425878,-0.000287710435620178,0
0.32,0.000746995539182809,0.000429623311381949,-0.0371701662320123,-0.0214973909175786,-0.000851042137637826,-0.000135298947544487,0.0424225982326284,0.00663944524577261,2.2503929610889,-0.00027318805603814,0
0.33,0.000746963475369157,0.000429686723075757,-0.037173310495422,-0.0215005508300669,-0.000851057252460807,-0.000135228201781335,0.0424270397781517,0.00663890012339957,2.2503914676091,-0.000256288303373641,0
0.34,0.000746823051444064,0.000429693977247654,-0.0371708310622387,-0.0215009149882149,-0.000850952771462149,-0.000135133138023275,0.0424253491819863,0.00663700037475244,2.25039009515338,-0.000240311463079877,0
0.35,0.000746679716506281,0.000429694532973215,-0.0371678547265056,-0.0215009430492886,-0.000850841800923997,-0.000135041551047736,0.0424230600998487,0.00663505453964032,2.25038883523523,-0.00022558652647232,0
0.36,0.000746546335001599,0.000429694312072413,-0.0371650324170181,-0.0215009303281254,-0.000850738070176153,-0.000134956911955852,0.0424208645020209,0.00663324162337614,2.25038767879846,-0.000212063420194083,0
0.37,0.000746423663698049,0.000429694021743052,-0.0371624274781354,-0.0215009131969613,-0.000850642613504834,-0.000134879139008976,0.0424188345759057,0.00663157278425625,2.25038661736623,-0.000199650287600283,0
0.38,0.000746310857251714,0.000429693744756957,-0.0371600233794641,-0.0215009138167036,-0.000850554826490856,-0.00013480762985883,0.042416971443846,0.00663002006389051,2.25038564313678,-0.000188256834733947,0
0.39,0.000746207510891345,0.000429693489251841,-0.0371578238431527,-0.0215008966012312,-0.000850474400406807,-0.00013474211764983,0.0424152556843524,0.00662861317672194,2.25038474894631,-0.00017779940567777,0
0.4,0.000746112662846457,0.000429693254571859,-0.0371558028507161,-0.021500877894504,-0.000850400587661978,-0.00013468199281474,0.0424136773754426,0.00662732277828094,2.2503839282189,-0.000168201115641353,0
0.41,0.000746025467770815,0.000429693039140441,-0.037153938371755,-0.0215008783958498,-0.0008503327305667,-0.000134626720139025,0.042412232430654,0.00662611866581533,2.25038317491919,-0.000159391383125662,0
0.42,0.000745945579094527,0.000429692841394936,-0.0371522316744437,-0.0215008596229655,-0.000850270559332912,-0.000134576078291872,0.042410897688526,0.00662503133361531,2.25038248350788,-0.00015130542360099,0
0.43,0.0007458721210268,0.00042969265988561,-0.0371506560059311,-0.0215008600596806,-0.000850213392533236,-0.000134529513645571,0.0424096765598801,0.00662401381817325,2.25038184890018,-0.000143883774755352,0
0.44,0.000745804921623184,0.000429692493280028,-0.0371492184049396,-0.0215008426856394,-0.000850161096229317,-0.000134486915187821,0.0424085512846896,0.00662309914046069,2.25038126642936,-0.000137071859435903,0
0.45,0.000745742988672266,0.000429692340355447,-0.0371478836441453,-0.0215008430678481,-0.00085011289846637,-0.000134447656636669,0.04240751684342,0.00662223731394756,2.25038073181198,-0.00013081958433119,0
0.46,0.00074568632485221,0.000429692199989077,-0.0371466650561509,-0.0215008241916313,-0.000850068801161241,-0.00013441173719337,0.0424065603702697,0.00662146534205015,2.2503802411169,-0.000125080971600026,0
0.47,0.000745634170788283,0.000429692071149921,-0.0371455367666599,-0.0215008245273595,-0.000850028213492602,-0.000134378677336898,0.0424056859408792,0.00662073688671484,2.25037979073535,-0.000119813820757619,0
0.48,0.000745586324091242,0.000429691952891228,-0.0371444997367412,-0.0215008248419505,-0.000849990977892797,-0.000134348347783717,0.0424048822374787,0.00662006737145221,2.25037937735554,-0.000114979398347551,0
0.49,0.000745542640582187,0.000429691844345081,-0.0371435569726588,-0.021500807361985,-0.000849956982084043,-0.000134320656004664,0.0424041404486824,0.00661947238129723,2.25037899793725,-0.000110542153101662,0
0.5,0.00074550230267337,0.000429691744713809,-0.0371426769218527,-0.0215008076407138,-0.000849925589996889,-0.000134295086413965,0.0424034583944929,0.00661890431345043,2.2503786496906,-0.000106469454503333,0
0.51,4.70441251628683,0.0162711495506807,4.7802146884336,-0.804699701190754,-0.526571935624176,4.67487795245147,-1.35080617869403,4.65546095936963,0.115624562001092,35.709283633354,1215.98004921824
0.52,4.68679413413315,0.0133420285938906,5.66208621860622,-0.646465022923254,-2.34235056883431,4.05950872374398,-3.40273410651324,4.57149187609091,0.526185348091249,76.4483241890419,1215.98004921824
0.53,4.65019411956912,0.0381254026106108,7.49317128728678,-1.87437460237189,-4.38945931737061,1.53571019308586,-7.69730255852449,0.642206674808181,1.24244188704842,119.755107198762,1215.98004921824
0.54,4.63085035886327,0.0284631792049708,8.46148001981948,-1.38439027035762,-3.51381257052371,-3.01640620904813,-5.47813793418444,-6.59569445324104,2.2863176989436,163.963284696288,1215.98004921824
0.55,4.64223848914944,-0.00297056839192233,7.8932574893291,0.20555435707429,2.20877736345903,-4.0830980361838,3.57030973218257,-7.04263124143559,-2.6463592325559,204.845255451818,1215.98004921824
0.56,4.66431915312355,0.0552816811150219,6.79050382246525,-2.70395288104615,3.90843973865566,2.54617910520044,4.14264908225726,6.0216909524739,-0.981546290691033,248.420495326522,1215.98004921824
0.57,4.64443455784288,0.0190641053667711,7.78607833412275,-0.885801293444837,-3.87612143222797,2.55867513467841,-7.00050686689624,3.52144336360856,0.991449849806511,291.089246817725,1215.98004921824
0.58,4.63055899431676,0.0374390177569282,8.48126208878075,-1.78571484801,0.586669696105198,-4.59339710318739,2.9119220815441,-8.16341190483543,-3.00647516115525,332.828232116373,1215.98004921824
0.59,4.6041353794498,0.0524106371106327,9.80384941869153,-2.52019375564567,1.88500395169353,4.20090104254831,1.60059436031594,9.9952457540622,-0.4104012481598,375.012475373138,1215.98004921824
0.6,4.60877536324675,0.0916320833537738,9.57336345693304,-4.47711795728185,-2.84763100988141,-3.62494198838157,-2.1881476746181,-10.339530107119,2.49559460619078,417.481159179337,1215.98004921824
0.61,4.60548863466863,0.0691693997227625,9.73931832578392,-3.35560878365621,2.550570507775,3.8353487526936,2.44898878153076,10.0058425786056,-0.57184158853204,460.050552982559,1215.98004921824
0.62,4.55899103568296,0.0428397937141682,8.40060948151812,-2.02183249974192,-0.896870134243329,-4.4701072105337,0.410900182343577,-8.63071302721478,2.95298089770946,501.828430573098,1215.98004921824
0.63,4.28458147841546,0.0671282649176492,11.624253272858,-3.22185147413922,-1.98268305758108,3.79883041768287,-8.37174900292258,8.68431976063916,0.496695040222795,541.873843021246,1215.98004921824
0.64,4.07119919044111,0.0910223203595331,11.9379805072759,-4.43496006749382,4.04229090201059,-0.492780046850936,12.3177206058791,3.23388442401184,-1.66975000511965,580.853364581006,1215.98004921824
0.65,3.87608623027754,0.0467616386494081,12.1237987140063,-2.19820198317835,-1.62236879006653,-3.52053271883878,-2.93358466453819,-11.9671495450076,2.72183223918933,617.16249174009,1215.98004921824
0.66,3.74137864339209,0.0950746169375074,9.48365451995189,-4.6201331796849,-3.27854512041961,1.80501945401954,-10.5460117889313,0.258783692590907,1.09293328703087,652.060033666502,1215.98004921824
0.67,3.56065841779026,0.0316788044844127,9.61559130760041,-1.46010791476202,1.03712711712497,3.4064144283628,1.31818276195771,9.63607313814236,-0.286649572942012,685.486114856729,1215.98004921824
0.68,3.34792873770225,0.0609080400501394,11.8123434445693,-2.93229922984334,3.32280850667362,0.413860181767628,11.2779872876082,4.57567909346225,-1.42869238887193,717.194090263335,1215.98004921824
0.69,3.17306529663301,0.0641743605756629,12.4945927420931,-3.10024635587474,2.22543998668913,-2.26271487176292,11.1055938272913,-6.51092627827324,-2.34427750417212,747.316439581451,1215.98004921824
0.7,3.07442786482713,0.0339074240089769,9.72860762218344,-1.58467806801894,0.263860454323918,-3.06327179174039,2.51897793172901,-9.52952050342136,-3.04463952483468,775.902060086356,1215.98004921824
0.71,2.91065124803954,0.0833085685532549,10.5325763327471,-4.05481194348564,-1.20658336250864,-2.65009199738912,-0.35147860853169,-11.2806527687862,2.74295525373425,803.115952026824,1215.98004921824
0.72,2.75388414871082,0.0427921971298855,11.3440447654582,-2.01878323852997,-1.80478248073494,-2.08049736214401,-5.75415716789088,-9.98261051489535,2.44257729763583,828.993794839086,1215.98004921824
0.73,2.60585085133627,0.0350031916137926,12.0817527983767,-1.61934740684345,-1.91841873262285,-1.76390290241692,-7.671157297368,-9.47335117179615,2.3276892982994,853.613349111447,1215.98004921824
0.74,2.44571883467615,0.0239670954743643,13.7133120974663,-1.1083784004122,-1.68870499538311,-1.76929095360918,-8.56131747838173,-10.7697388267019,2.38929380839057,877.229536350301,1215.98004921824
0.75,2.33818123717167,0.0160074164884837,12.92309055552,-0.695200257347478,-1.18150177716137,-2.01777136608903,-5.8511790454204,-11.5435383086132,2.6187134722936,899.488652709381,1215.98004921824
0.76,2.22203265026456,0.055542295440363,12.9335809238666,-2.65625728796575,-0.351437194024217,-2.19476785653538,0.907343764710753,-13.1723173962184,3.00780647922451,920.725023106413,1215.98004921824
0.77,2.13871688569523,0.0545881796148995,11.4733112169451,-2.63865823980953,0.797793646061346,-1.98509825570819,6.97109971899232,-9.48699933041308,-2.73393868256682,941.049506180486,1215.98004921824
0.78,1.98986100356683,0.0575885010387687,13.6555052155722,-2.76677095266069,1.74079492558904,-0.965658467581228,13.3994778428486,-3.81861725445437,-2.04832529094985,960.140372016553,1215.98004921824
0.79,1.93777513780012,0.0180722123613908,11.1445298068443,-0.808813634970728,-0.653106191820533,-1.82448661045829,-2.89396118578928,-10.7925767436188,2.80716389479192,978.417454653849,1215.98004921824
0.8,1.82391317086338,0.0411839649095326,12.0437160112104,-1.9935438148919,1.02434385206482,-1.50966057329175,8.60946277762067,-8.65462090338703,-2.52284849644172,995.79596891643,1215.98004921824
0.81,1.69796610296016,0.06507546637385,13.702645917959,-3.15225596537915,1.6928315366882,0.147122709053866,13.2027353163347,4.83601106192225,-1.44579812035794,1012.17988007188,1215.98004921824
0.82,1.6688676345103,0.0756286435529728,10.7252720529204,-3.69713037480143,0.487538654099193,1.59785635587208,-0.918980364065025,11.307329866414,-0.250861454746513,1027.87418293441,1215.98004921824
0.83,1.6222274568938,0.0541596448798442,8.8557569282859,-2.64442668707774,-1.3851619826176,0.84609779041462,-9.00963335698911,2.0600801073846,1.05582557269706,1042.806415183,1215.98004921824
0.84,1.47749726683557,0.0657316354322828,12.0929423807553,-3.23945147012694,-0.972116873419245,-1.11458853655363,-5.00219196542806,-11.4765577065853,2.46882376426338,1056.91552328102,1215.98004921824
0.85,1.3399801343297,0.0398172847513983,15.1395258843022,-1.9088441929519,0.972140568898247,-0.923079027421492,12.5561777216237,-8.67129351235578,-2.30060718382796,1070.23824357709,1215.98004921824
0.86,1.34693869142488,0.0507827246474406,11.152076856505,-2.45189739418169,0.898122795543555,1.00508614939468,5.22365476797379,10.1535240143516,-0.691571163210071,1082.85586910062,1215.98004921824
0.87,1.24503981137845,0.0374081143116359,12.7490882103077,-1.79153076527206,-1.03309160930118,0.695877306516842,-11.738916364425,5.28646150711019,1.00805454209407,1094.91049140131,1215.98004921824
0.88,1.16440007798376,0.0867432529525722,13.459576103788,-4.268663609074,-0.478591472938917,-1.06503621326767,-0.576727909966789,-14.108474858005,2.79362450473692,1106.32040902694,1215.98004921824
0.89,1.15057866987997,0.0697694101750824,10.9811044608727,-3.42203986292285,1.14543280433035,-0.129161669789662,11.1433400714621,2.84973403246321,-1.62251995145157,1117.15458848864,1215.98004921824
0.9,1.05356984420055,0.0596320128304367,12.825284537008,-2.9207812279711,-0.276357620932804,1.01842616763089,-6.82397386718089,11.245099692618,0.321516339850869,1127.36776612277,1215.98004921824
0.91,1.01984852627595,0.0224916681030523,11.6311583998662,-1.0621448482358,-0.749314596378783,-0.692188216697587,-7.62985911587412,-8.84292074335875,2.33863583407689,1137.07349174131,1215.98004921824
0.92,0.916755724868326,0.0739179583999265,14.0546103996821,-3.63843992424352,0.858127974681934,-0.330940028889142,14.5093894666381,-0.497931596299245,-1.8584182675949,1146.24263966373,1215.98004921824
0.93,0.871851407300848,0.0653908563562238,13.6846576574446,-3.21045082067479,-0.18938660207662,0.853541771362914,-7.02863943861601,12.1727185671632,0.293208009362706,1154.94855274928,1215.98004921824
0.94,0.859687590143067,0.0525457677509279,11.7840160011802,-2.56604168244269,-0.167273089209132,0.8448926109163,-5.47165472844763,10.7474926175718,0.256499912332693,1163.22456629624,1215.98004921824
0.95,0.799329318968304,0.0478069622948543,12.4240659466935,-2.35602873527797,-0.498538158101173,-0.62663591560274,-5.21275834352414,-11.5210866024548,2.52929115703711,1171.04248206232,1215.98004921824
0.96,0.740231523011172,0.0434996236955748,13.1104791691457,-2.17172500494474,0.738729474741631,0.0641380391737228,12.6578758675578,4.04712639575319,-1.4254940246723,1178.4168309278,1215.98004921824
0.97,0.734205050364113,0.00860879132990441,11.24729391884,-0.419782668041854,-0.59452661788236,0.430893569106913,-9.42603830697229,6.15041785740241,0.955365335134729,1185.36989974996,1215.98004921824
