t,iq,id,vq,vd,ia,ib,va,vb,theta_e,omega,r
0,0,0,0,0,0,0,0,0,0,0,0
0.01,0.000377532894264953,0.00019006645213616,-0.0177305827916185,-0.00950527942825419,-0.000325735124454083,-0.000269356587401501,0.0158280864256321,0.0124175514189534,2.72813572777422,-0.00377105428395179,0
0.02,0.000549801331697947,0.000262483154495627,-0.0261535665802462,-0.0131268667454926,-0.000461275608989832,-0.000397999652364007,0.0225292480715463,0.0186750276238623,2.72810496122328,-0.00437735076655265,0
0.03,0.000623947716119396,0.000297237456823298,-0.0299851373318846,-0.0148649407379625,-0.000522907029866683,-0.000451917134334821,0.0256610392337887,0.0214845523434181,2.72807484743066,-0.00382034889616152,0
0.04,0.000619377817588876,0.000302465588196604,-0.0301063399046387,-0.0151263909805313,-0.000525868430644906,-0.000445619463909893,0.0259496510669931,0.0214898817132818,2.72805180149001,-0.00264738932417256,0
0.05,0.000613154768506138,0.000311795250351454,-0.0300476192665211,-0.0155929795046305,-0.000531917765647233,-0.000436163431379107,0.0263536462927933,0.0212481942877973,2.72803601007309,-0.00180601113782442,0
0.06,0.000596955532539673,0.000315192274151014,-0.0294500414152599,-0.0157628662162161,-0.000528522693323501,-0.000419959331550432,0.0262692719615342,0.0206324560176874,2.72802589594445,-0.00111838539456048,0
0.07,0.000584479781449073,0.000319018136490223,-0.0289563251889799,-0.0159541885305321,-0.000527014502247366,-0.000406994964039375,0.0262461605950071,0.0201033319163469,2.72802043724447,-0.000701805565372585,0
0.08,0.00057009068319357,0.000317822195369376,-0.0283442818983696,-0.0158943880396833,-0.000520137966916114,-0.00039429789538608,0.0259454970888442,0.019566835929783,2.72801711426148,-0.000365471105023867,0
0.09,0.000560362368020498,0.000317386550090952,-0.0279188516100443,-0.015872590454075,-0.000515829931379436,-0.000385564116023863,0.0257545903548354,0.0191859969405054,2.72801567795033,-0.000177362153197787,0
0.1,0.000554461849133026,0.000317227883696284,-0.0276545495712394,-0.0158646607274417,-0.000513313464203372,-0.00038022461756963,0.025641117805451,0.0189471541312132,2.72801524277916,-8.44080340202481e-05,0
0.11,0.000551247328032708,0.000317170124227831,-0.027506799882277,-0.0158617710405025,-0.000511968688841021,-0.000377304341364241,0.0255790925113133,0.0188130233243526,2.72801526716378,-4.64438857031865e-05,0
0.12,0.000549714602803044,0.000317149121117277,-0.0274338350969093,-0.0158607188661948,-0.000511333403166289,-0.000375909377864867,0.0255488019090608,0.0187466378875907,2.72801545335984,-3.68046357331095e-05,0
0.13,0.000566769228792763,0.000326323546457171,-0.0282204065334959,-0.0163195377899082,-0.000526588491961394,-0.000387838852891963,0.0262850569145582,0.0192824905442854,2.7280151258448,-0.000228620733340706,0
0.14,0.000577069803261036,0.000331669619056126,-0.0287892534854569,-0.0165868924198661,-0.000535623825204763,-0.000395122021549779,0.0267584991175514,0.01969590925482,2.72801431943578,-0.000314965977691055,0
0.15,0.00056139946403788,0.000322429585175702,-0.0279980951527781,-0.0161248041543804,-0.000520865432180989,-0.000384485886837873,0.0260174291565753,0.019157140216737,2.72801346039549,-8.24833569187711e-05,0
0.16,0.000553110399095862,0.000319064415586533,-0.0276142943393326,-0.015956508328869,-0.000514452600537928,-0.000378248247426638,0.0257090722730059,0.0188733413249991,2.72801372136033,5.81057815362043e-06,0
0.17,0.000549323402196433,0.000317838903587063,-0.0274318781465683,-0.0158952145894784,-0.000511808231419389,-0.000375273371138224,0.0255796237861356,0.0187309538586135,2.72801433250083,2.23007541907616e-05,0
0.18,0.000548004125219508,0.000317392646187506,-0.0273626958513331,-0.015872904267096,-0.000510869170088538,-0.000374244978810076,0.0255313796172947,0.0186765861163797,2.72801493703123,9.05803066133021e-06,0
0.19,0.000547871752495287,0.000317230172807441,-0.0273498670607524,-0.0158647732380399,-0.000510667020305006,-0.00037418930248539,0.0255187696216937,0.0186681186821323,2.72801540662417,-1.2096418891626e-05,0
0.2,0.000548200157023046,0.000317171033855259,-0.0273603458126874,-0.015861813186509,-0.000510744730171233,-0.000374513948310635,0.0255202644830939,0.0186789116724312,2.72801572418516,-3.14909078401206e-05,0
0.21,0.00054862393100124,0.000317149514502636,-0.0273769887278453,-0.0158607486103431,-0.000510895262267658,-0.000374910740322243,0.0255259746362526,0.0186945841663959,2.72801591682638,-4.59933235708176e-05,0
0.22,0.00054898970753488,0.000317141686573134,-0.0273922314106516,-0.0158603549190162,-0.000511035055786713,-0.000375248877544965,0.0255317380106353,0.0187087026265354,2.72801602179645,-5.55369029659302e-05,0
0.23,0.000549254144791819,0.000317138839467371,-0.02740361583027,-0.0158602131888486,-0.000511138703811653,-0.000375492189712978,0.0255361825425727,0.0187191854556003,2.72801607186428,-6.11845017638369e-05,0
0.24,0.00054942376186122,0.000317137803497632,-0.0274110971083782,-0.0158601604529955,-0.000511205914885532,-0.000375647932366309,0.0255391405227352,0.018726057664113,2.72801609098552,-6.4176847387607e-05,0
0.25,0.000549521667127147,0.000317137425887109,-0.0274155121057989,-0.0158601413657209,-0.000511244914576618,-0.000375737736805937,0.0255408973056112,0.0187301081947777,2.72801609465815,-6.5547357594973e-05,0
0.26,0.000551649574932801,0.000318460264784851,-0.0275104697222806,-0.0159262962091325,-0.000513311334463272,-0.000377154699933479,0.0256396334315331,0.0187904777155387,2.72801627453191,-0.000100181721969486,0
0.27,0.000548372991167214,0.000315898771090844,-0.0273664036666406,-0.0157981990815057,-0.000509649147859261,-0.000375183577871836,0.0254644460704361,0.0187100275304516,2.72801584393077,-3.94037451066844e-05,0
0.28,0.000547457600627506,0.000315573373838851,-0.0272414738271487,-0.0157819255282967,-0.000508983311443812,-0.00037447612398196,0.0253993373555376,0.0186021700765132,2.72801581717077,-2.69582580627457e-05,0
0.29,0.000548342932467569,0.000316567652729649,-0.0273624915852606,-0.0158316490016286,-0.00051024949024795,-0.000374887327131233,0.0254935003398006,0.0186930066144751,2.72801601759807,-4.74567000249894e-05,0
0.3,0.000537702883523218,0.000311971602353132,-0.0268573153211344,-0.0156017987241295,-0.000501764395202326,-0.000366992048049012,0.0250799829814736,0.0183228262922532,2.72801722706496,2.34819480489086e-05,0
0.31,0.000544807588221723,0.00031525606485368,-0.027179599025253,-0.0157660537097706,-0.000507627135372019,-0.000372177895696395,0.0253599064233444,0.0185519324856502,2.72801746610339,-7.46285611528591e-05,0
0.32,0.000548439982308351,0.000316452230006397,-0.0273492404507822,-0.0158258759143951,-0.000510182340424535,-0.000375023209400899,0.0254828655338985,0.0186832241830414,2.72801724829744,-0.000108305745052198,0
0.33,0.000550013276089408,0.000316887828135075,-0.0274261770400277,-0.0158476518421311,-0.000511213624206352,-0.000376288625818765,0.0255337315574997,0.0187449142086564,2.72801691207034,-0.000111162973828543,0
0.34,0.000550492449777309,0.000317046435882792,-0.0274525102649069,-0.0158555871790734,-0.000511551548055238,-0.00037666350161662,0.025551586556578,0.0187658303594517,2.72801660648093,-0.000102183433532249,0
0.35,0.000550468704045762,0.000317104175313391,-0.027454664601921,-0.0158584767585888,-0.000511594962020928,-0.000376618436842665,0.025555102581553,0.0187666359679347,2.72801637903077,-9.08670279522724e-05,0
0.36,0.000550267190213938,0.000317125188465692,-0.0274475451268173,-0.0158595292556023,-0.000511533273972831,-0.000376425391550543,0.0255532079182148,0.0187596899437721,2.72801622986731,-8.11815451842115e-05,0
0.37,0.000550045244799669,0.000317132832993996,-0.0274386111547727,-0.0158599125499757,-0.00051145111015935,-0.000376219041259601,0.0255499701013605,0.0187513529115975,2.72801614188106,-7.42126662802792e-05,0
0.38,0.000549864451949843,0.000317135613122546,-0.0274309675413397,-0.0158600527690104,-0.000511381015087226,-0.000376052350128373,0.0255470275011587,0.0187442961976401,2.72801609543685,-6.97597251652422e-05,0
0.39,0.000549738316000071,0.000317136624143837,-0.0274254670208623,-0.0158601026422364,-0.000511331256433637,-0.000375936431655595,0.0255448629787464,0.0187392388461152,2.72801607428487,-6.7198155803808e-05,0
0.4,0.000549659735677542,0.000317136992100903,-0.0274219484088336,-0.0158601218396005,-0.000511300015713125,-0.00037586432487757,0.0255434666104474,0.0187360089887004,2.72801606696981,-6.5886129300678e-05,0
0.41,0.000549615556068998,0.000317137126364409,-0.0274199112491917,-0.0158601278534453,-0.000511282383704328,-0.000375823815777193,0.0255426534221279,0.0187341411492024,2.72801606629143,-6.53162476079208e-05,0
0.42,0.0005495937281992,0.000317137175647226,-0.0274188626272204,-0.015860130899854,-0.000511273655788252,-0.000375803809387707,0.0255422347489225,0.0187331797611037,2.72801606817579,-6.51412485396101e-05,0
0.43,0.000549584764220939,0.000317137193943397,-0.0274183962790713,-0.0158601324580602,-0.000511270069132928,-0.00037579559504455,0.0255420487115049,0.01873275216626,2.72801607057924,-6.5148248597984e-05,0
0.44,0.000549582377706845,0.000317137200865093,-0.0274182359937837,-0.0158601325441489,-0.000511269115586212,-0.000375793408013163,0.0255419843350902,0.0187326054128835,2.72801607264425,-6.52199138999481e-05,0
0.45,0.000549583017991114,0.00031713720355519,-0.0274182231482941,-0.0158601326224361,-0.000511269374811713,-0.000375793993994937,0.0255419792164442,0.0187325936569832,2.72801607413355,-6.52993889810415e-05,0
0.46,0.000549584531390296,0.000317137204634211,-0.0274182577618959,-0.0158601326984737,-0.000511269983656823,-0.000375795379852181,0.0255419931789653,0.0187326253460814,2.72801607508696,-6.53642812199812e-05,0
0.47,0.000549586044789477,0.000317137205079781,-0.0274182981564289,-0.0158601327745143,-0.000511270592073731,-0.000375796765757414,0.0255420094723389,0.0187326623183947,2.7280160756363,-6.54096426218639e-05,0
0.48,0.000549587267150355,0.0003171372052661,-0.0274183292279597,-0.0158601328513098,-0.000511271083389277,-0.000375797885129418,0.0255420220246219,0.018732690746599,2.72801607591815,-6.54379552166392e-05,0
0.49,0.000549588082057607,0.000317137205341903,-0.0274183438054199,-0.0158601329291642,-0.000511271410913117,-0.000375798631363582,0.0255420279521029,0.0187327040668708,2.72801607604093,-6.54538594708048e-05,0
0.5,0.000549588605926554,0.00031713720537007,-0.0274183463765255,-0.015860133007772,-0.000511271621460792,-0.000375799111072769,0.0255420290566693,0.0187327063905782,2.72801607607871,-6.54617636125734e-05,0
0.51,4.76428377913612,-0.00077984425108879,1.78630700380963,0.0529721855669171,-0.786577433481255,4.69890375273155,-0.242382035717586,1.77057892031518,0.165694475845137,51.4364148383675,1005.84185816643
0.52,4.7183297808012,0.0342632401938348,4.08458104531515,-1.6818019504889,-3.22398513467517,3.44524741367259,-4.03207620351549,1.80405698509227,0.759495357962367,111.028969625169,1005.84185816643
0.53,4.69371783704074,-0.00655631747099505,5.31600190703541,0.368099187215219,-4.5597625848439,-1.1133711370926,-5.25285354631564,-0.896048496562465,1.80888650008309,175.829906105547,1005.84185816643
0.54,4.65083067010147,0.0657207526861614,7.01129728467586,-3.22174595912875,0.750856395827095,-4.59028973073984,4.40130904182772,-6.33769795411481,-2.96532360605585,235.210786233691,1005.84185816643
0.55,4.33314432371904,-0.000260601043770681,7.36995758258003,0.0801789667709094,3.68389358853812,2.28146177404295,6.30813470819165,3.81184206638328,-1.01636133914475,295.374899889789,1005.84185816643
0.56,4.09367495276478,0.0511970138295309,5.2268853963434,-2.49099837946841,-3.98222001241328,0.950115532897966,-5.64670561004021,-1.28067155296062,1.34909125327403,350.525960235145,1005.84185816643
0.57,3.79870601148253,0.0391960607384698,6.80143568635626,-1.8873185562229,3.09559128231019,-2.20204866107361,6.66068733792583,-2.33596723322445,-2.17878125074657,401.672622636791,1005.84185816643
0.58,3.55431479328371,0.0481521860678189,6.69506140990646,-2.32722198869881,-2.84107935867435,2.13629126302878,-6.77840748166836,2.07195595502518,0.939608209143287,449.188478770154,1005.84185816643
0.59,3.31542834784535,0.0366244795810932,7.2434293189467,-1.73457151304237,3.13910896787779,-1.06742745420491,7.42338518621048,-0.607749133759552,-1.88752583877235,493.217231310531,1005.84185816643
0.6,3.05027497513748,0.0244956266164918,9.77843664956195,-1.14401487039644,-2.9099669481588,-0.914805892141411,-8.95264975189991,-4.09593160990158,1.88341424274588,535.053813540298,1005.84185816643
0.61,2.82369716650832,0.0607922037157843,10.8960031886467,-2.95438378195021,0.983244891560397,2.64767650278506,0.781430676863387,11.2623547766578,-0.334050900287247,573.699696369485,1005.84185816643
0.62,2.61945258778365,0.0135289650835738,11.8034262596223,-0.609930380861949,1.98128853271589,-1.71353746462434,9.36405470059757,-7.21161327998502,-2.27868969250034,609.838352668337,1005.84185816643
0.63,2.47941849321171,0.0425511991995445,9.97103203345978,-2.0275089985466,-1.85173899650379,-1.64936028746319,-5.95649121046613,-8.24939300864665,2.31561449082152,643.134465198573,1005.84185816643
0.64,2.32213067740743,0.023404814811084,9.54130579783344,-1.08916355300388,-1.75123043732545,1.52513298557797,-7.96497316754209,5.36488546133993,0.864376276227589,674.631117452515,1005.84185816643
0.65,2.12025767176905,0.0178659739750953,11.9517285231598,-0.830022342232307,0.774694470207481,1.97374270500274,3.49767336195757,11.4585790058353,-0.365598264799968,703.88478170578,1005.84185816643
0.66,2.01662548913044,0.0443184000218716,9.97628473884095,-2.16041862352157,1.9915292732257,0.320239969204645,9.42280452335429,3.92484658731314,-1.3893871436798,731.03003691548,1005.84185816643
0.67,1.82621993804452,0.023661242855512,12.7884843386046,-1.13433008324127,1.43916589152006,-1.12447350044813,10.8651259596657,-6.83966916576231,-2.22109763808441,756.270020667511,1005.84185816643
0.68,1.72354543167519,-0.00478892242102558,11.6304863458687,0.287521319447886,0.45995557193878,-1.6610456527949,2.79530695859091,-11.2932342647192,-2.87423268294675,779.787833081587,1005.84185816643
0.69,1.59529555745952,0.0570092027700577,12.1729540539276,-2.80123328334158,-0.403161896741829,-1.54456416178354,0.0821827965798274,-12.4908352120537,2.92199018897544,801.569627827219,1005.84185816643
0.7,1.46226502970066,0.0447541593774302,13.3444479321336,-2.17808608062445,-0.804919135279154,-1.22160842233856,-5.14325357608409,-12.5046108392118,2.58958199683573,821.832541274865,1005.84185816643
0.71,1.35565459732028,0.0466846513058307,13.5874978347224,-2.25891619906094,-0.949385727657838,-0.968837232987438,-7.50339169349079,-11.5508403545811,2.40075789779256,840.651374849988,1005.84185816643
0.72,1.24334412782805,0.0432704648560798,14.42993272582,-2.0937399350018,-0.918620751268595,-0.838995154140998,-8.84502583725312,-11.5919033521436,2.34570990138496,858.317704514814,1005.84185816643
0.73,1.14575031549205,0.0109128655460949,14.8167146010922,-0.519067631817565,-0.769392609064009,-0.849057058861321,-9.45628686085454,-11.4185420077105,2.41490184406104,874.675062496882,1005.84185816643
0.74,1.10992322379772,0.0432628325232408,12.4292469692443,-2.10415590692295,-0.609912785581644,-0.928335946404908,-4.61278831558429,-11.7318300472994,2.59927370510055,889.775050501471,1005.84185816643
0.75,0.939071708920297,0.012108261692778,17.0925585917993,-0.567880585844429,-0.244679519991308,-0.906716172235022,-3.68991468813629,-16.6991789369462,2.89091155917946,903.892200005566,1005.84185816643
0.76,0.946398940238677,0.00999163835928274,13.0515569221831,-0.468359843193544,0.122630048405715,-0.938473578823616,2.29134100636545,-12.8573813596801,-3.00110200794047,916.954924894948,1005.84185816643
0.77,0.815143870608946,0.0510853565250416,16.238915433057,-2.49258976576942,-0.675814858704174,0.458632227604299,-15.2488931306171,6.11446125782265,1.03714154070618,928.991713094436,1005.84185816643
0.78,0.794430815236779,0.0131882133593188,14.089946218636,-0.642157110461967,-0.794408365382108,-0.0144775060114344,-14.0590483770092,-1.13230249115973,1.60561787974729,940.250865794723,1005.84185816643
0.79,0.714270572360718,0.0719675681038532,15.1523461491411,-3.54117772767332,-0.599723630994345,-0.394579963792194,-9.52647156584742,-12.3036528326941,2.25314830707321,950.587103374001,1005.84185816643
0.8,0.694001579569452,-0.0160512064889584,13.3848727540773,0.820950382828825,-0.0999369226442569,-0.686955926655445,-3.04211851085375,-13.0604093787227,2.97400381605285,960.23981587225,1005.84185816643
0.81,0.562198407792898,0.0709037749600801,17.4060141664188,-3.51047041091792,0.269496790399417,-0.498463514204271,12.9838934201313,-12.1124416746655,-2.52049600107862,969.1108423108,1005.84185816643
0.82,0.560244059717669,0.0407255870302093,15.0777365193518,-2.00815807403573,0.553533209265242,-0.0955665533982043,15.202082830056,0.517218547063469,-1.66919429647723,977.341337316841,1005.84185816643
0.83,0.520193448134199,0.00613876897597873,14.8216985144214,-0.317932655138932,0.362654642608258,0.372988630069289,9.97561545022303,10.9668101294258,-0.759551147792088,985.053318862223,1005.84185816643
0.84,0.491007158932847,0.000109243365580991,14.1602195668244,0.0411541742777111,-0.0993701095378482,0.480846777453957,-2.82853199414999,13.8749024719025,0.204010254090683,992.063672248985,1005.84185816643
0.85,0.447172611905237,0.0030011920387828,14.3856531799794,-0.141446206251098,-0.418462930580613,0.15767411874398,-13.5444748925594,4.84914676296169,1.21716557093154,998.562046980345,1005.84185816643
0.86,0.353126885645986,-0.0115690857432661,17.2611272076502,0.557174834214951,-0.261415052341618,-0.237685951457375,-13.5058338992016,-10.7633362375121,2.27593645553274,1004.55845593548,1005.84185816643
0.87,0.34431946709134,0.0359785477791335,15.9943699899147,-1.76137981408756,0.0451683301581451,-0.343234866045226,5.436509101289,-15.1448571804214,-2.90663457495337,1009.99385832383,1005.84185816643
0.88,0.34598241563642,0.0341184488286519,14.3149881431725,-1.69989089462216,0.332656867863779,-0.101031226574492,14.3713229692964,-1.12853476019201,-1.76735789099685,1015.04681849621,1005.84185816643
0.89,0.300442238256257,-0.000567288540066289,15.1240656602403,0.00458172135982174,0.167361613007181,0.249511424260196,8.45236012880728,12.5417299979062,-0.592717422798898,1019.66657658271,1005.84185816643
0.9,0.26472747502434,0.0362121443488602,15.517514106204,-1.77466254326149,-0.122988596194504,0.23720404852618,-10.3940533489608,11.657886865022,0.614278719514166,1023.93150230153,1005.84185816643
0.91,0.23511558863643,-0.00283460995600104,15.7035143017716,0.160232831941627,-0.225147327196161,-0.0677942187054496,-15.1344713414119,-4.19211321440145,1.85121593844271,1027.81511849379,1005.84185816643
0.92,0.208859717130048,0.0181653699311377,15.821534621646,-0.923877057439519,-0.0236240772246698,-0.208312901855986,0.509581792123295,-15.8402914429736,3.11542412988936,1031.3424501894,1005.84185816643
0.93,0.185026876130799,-0.00760682546965996,15.896280308862,0.348289598297119,-0.183196487002505,-0.0270528341285914,-15.8445438373365,-1.32795477668337,1.67631902261036,1034.56967101605,1005.84185816643
0.94,0.152411364255743,0.0280456137882704,16.4853286059124,-1.37238584840933,-0.0510408947874553,-0.14632363946524,-1.16676584259695,-16.5011563119188,2.98794461064089,1037.53554453757,1005.84185816643
0.95,0.131550637488912,-0.00274077155901201,16.5555328504363,0.149332913651776,0.122616196833133,-0.0477320681162689,15.2422881728592,-6.46379296825721,-1.96285888331918,1040.2146895628,1005.84185816643
0.96,0.10904446775317,0.0236522808415229,16.7629548730543,-1.20107533041844,0.0819798153542496,0.0756930393831662,8.64233168437622,14.4135124477908,-0.61165313750664,1042.69001452811,1005.84185816643
0.97,0.0981122681438182,-0.0309036546347484,16.451687291387,1.50868157509362,-0.0898318401852316,0.0501128079341329,-10.198839409866,12.9968384432667,0.756800274215797,1044.91331054338,1005.84185816643
