t,iq,id,vq,vd,ia,ib,va,vb,theta_e,omega,r
0,0,0,0,0,0,0,0,0,0,0,0
0.01,0.00083518641237023,0.000449493657305304,-0.0397229702533768,-0.0224949550262777,-0.000948349116246961,-1.46575945899324e-05,0.0456493195125238,-0.000277480500985694,2.07998618938758,-0.00446174678676565,0
0.02,0.000947636885069829,0.00051047677533529,-0.0456225708450338,-0.0255468539894142,-0.00107626204368203,-1.61931291279639e-05,0.0522882022776858,-6.79840745675224e-05,2.07995467269843,-0.00415630641763144,0
0.03,0.000981936848767501,0.000534499322495966,-0.0475813125011079,-0.0267490595421501,-0.00111792116784518,-1.19064352248069e-05,0.054584489133281,-0.000164413431057765,2.07992734889532,-0.00349410331194023,0
0.04,0.000947141376904357,0.000522550167894717,-0.0462397841726957,-0.0261510676739813,-0.00108171473118796,-5.35781130940643e-06,0.0531216304863255,-0.000297246195814675,2.0799067468564,-0.00261333863203838,0
0.05,0.000962393875396061,0.000535523896101985,-0.047171119397215,-0.0268003513705808,-0.00110135631211198,-1.4451530002367e-06,0.0542513067885224,-0.000411157525197579,2.0798900794791,-0.00217373888067053,0
0.06,0.000957168443168324,0.000536632058014749,-0.0471046648129707,-0.0268557871782063,-0.00109733361025126,2.08377046361017e-06,0.0542202916821994,-0.000492668246036925,2.0798768763692,-0.00171666022612248,0
0.07,0.000973259279305055,0.000549063701918745,-0.0479835552276986,-0.0274779472310708,-0.00111744283286332,5.10771969762866e-06,0.0552909516603089,-0.000608128950548889,2.0798670417449,-0.00150186946992138,0
0.08,0.000948904980982985,0.000537787378378669,-0.0469621662003045,-0.0269136177190802,-0.00109068095779034,7.1397192712325e-06,0.0541240369378739,-0.000613594737163197,2.07985878710059,-0.00108348571641672,0
0.09,0.000943067496416186,0.000536819422380692,-0.0467715618244181,-0.0268651787095425,-0.00108511185861866,9.14600060113923e-06,0.0539339896624815,-0.000664516123478308,2.07985274828885,-0.000852748119781753,0
0.1,0.000940016898679169,0.000536735208051578,-0.0466913033005998,-0.0268609666794327,-0.00108240697138376,1.05641688931671e-05,0.0538618515660802,-0.000700200496816752,2.07984814273963,-0.00068558759584909,0
0.11,0.000937833249749173,0.000536727016822898,-0.0466370190976249,-0.026860544636698,-0.00108049616078648,1.16250354139409e-05,0.0538142419705458,-0.000726477548052634,2.07984460831386,-0.000558292998582769,0
0.12,0.000936173388550856,0.000536725565137435,-0.0465961238586419,-0.0268604696931564,-0.00107904601428376,1.24356246815802e-05,0.0537784933413794,-0.000746488257162253,2.07984189343313,-0.000460625126212308,0
0.13,0.000979734920412692,0.000561000269329265,-0.0486596466967458,-0.0280752995404313,-0.00112891447728658,1.24064272187862e-05,0.0561724199303862,-0.000801810514655416,2.07983893454155,-0.000639510694888384,0
0.14,0.0010102803875121,0.000579886166945069,-0.0503776066960733,-0.0290204627781644,-0.00116479097689762,1.4014568981237e-05,0.0581331776479746,-0.000790046094921931,2.07983650343265,-0.000753497718404725,0
0.15,0.000940254600942549,0.000540421946939176,-0.046885030189228,-0.0270454579819662,-0.00108441107783982,1.36824553879137e-05,0.0541209164828559,-0.000767627744974131,2.07983445385271,-0.000247257973936633,0
0.16,0.000932289733936003,0.000537039997920621,-0.0465215362793087,-0.0268762154245547,-0.00107580788909216,1.46114043171536e-05,0.0537210299829692,-0.000797013740807772,2.07983395724916,-0.000181213193521254,0
0.17,0.000931276729188831,0.000536750115856326,-0.0464779210508697,-0.0268617142744848,-0.00107478204508313,1.48522310562432e-05,0.0536758773994996,-0.000805620486848228,2.07983369582335,-0.00016644260334598,0
0.18,0.000931067180164966,0.000536725223021235,-0.0464706500364377,-0.0268604694195567,-0.00107458692993776,1.49328166959728e-05,0.0536689214324159,-0.000808086956442227,2.07983350836231,-0.000159102025886497,0
0.19,0.000930969565796242,0.000536723050350438,-0.0464679798543989,-0.0268603650176089,-0.00107450063073469,1.49786436997372e-05,0.0536665387974829,-0.00080930471780857,2.07983336583683,-0.000153909037518192,0
0.2,0.000930901893623605,0.000536722833839434,-0.0464662584109612,-0.0268603314590371,-0.00107444143127778,1.50115512324846e-05,0.0536650191657423,-0.000810120203473957,2.07983325650879,-0.0001499692831286,0
0.21,0.000930850554466767,0.000536722791989922,-0.0464649564491611,-0.0268603316893569,-0.0010743965795369,1.50366243536827e-05,0.0536638823183052,-0.000810759404382428,2.07983317253657,-0.000146948132022208,0
0.22,0.000930811147880396,0.000536722770506352,-0.0464639487314181,-0.0268603318847226,-0.00107436215770149,1.50558791650912e-05,0.0536630024076448,-0.000811254134290618,2.07983310802766,-0.000144627769588749,0
0.23,0.000930780879896772,0.000536722754915731,-0.0464631658930211,-0.026860332053355,-0.00107433571891987,1.50706694827753e-05,0.0536623188639004,-0.000811638446579933,2.07983305846944,-0.000142845235115846,0
0.24,0.000930757655040108,0.000536722743016259,-0.0464625569967874,-0.0268603322014047,-0.00107431543226854,1.50820183105615e-05,0.0536617872082099,-0.000811937356165967,2.07983302039674,-0.000141475822355692,0
0.25,0.000930739785288238,0.000536722733881301,-0.0464620789180762,-0.026860332333798,-0.00107429982325129,1.50907503348565e-05,0.0536613697837755,-0.000812172026431142,2.07983299114764,-0.000140423780838053,0
0.26,0.000940254129732662,0.000541886497484329,-0.0469026769044125,-0.0271187517559195,-0.00108512437658784,1.49630200834443e-05,0.0541720435295041,-0.000823102324388581,2.07983309962706,-0.000203744241476624,0
0.27,0.000914840339918,0.000527383825694125,-0.0457283734960892,-0.0263929716926829,-0.00105586500452452,1.46846642957145e-05,0.0527929255708617,-0.000761647581266043,2.0798326062317,-2.80666095327277e-05,0
0.28,0.000914333266482986,0.000526931089333873,-0.0454510341387864,-0.0263703148582232,-0.00105520158623254,1.45364203420165e-05,0.0525397073330751,-0.000877019590300759,2.07983262810094,-2.55804694888118e-05,0
0.29,0.000928907650044481,0.000535883641832517,-0.0463774319439201,-0.0268183416924062,-0.00107229105568767,1.5250960201073e-05,0.0535669912269194,-0.000816759290570297,2.0798329434497,-0.000127369064537804,0
0.3,0.000919771849626521,0.000531410904601132,-0.0459341406735981,-0.0265945041450719,-0.00106213383850517,1.57960120488987e-05,0.0530708199366435,-0.000837258261535336,2.07983435206248,-0.000115173261056486,0
0.31,0.000930162664757786,0.000536267881075743,-0.0464189565311155,-0.0268375731428415,-0.00107357422512109,1.49735212430611e-05,0.0536126242984206,-0.000813248714330195,2.07983419912186,-0.000175606107130984,0
0.32,0.000931158505587823,0.00053668401234763,-0.0464689546154843,-0.0268584040707514,-0.00107464659918615,1.48518852585994e-05,0.0536664347766116,-0.000807087759412187,2.0798339172989,-0.000172814508627027,0
0.33,0.000931145236310647,0.000536719606731878,-0.0464714363294647,-0.0268601881087755,-0.0010746523552356,1.48896857257401e-05,0.0536694710821169,-0.000807448777393294,2.07983368248421,-0.000165186900903219,0
0.34,0.000931048378938602,0.000536722606308339,-0.0464693345510827,-0.0268603397972464,-0.00107456923709678,1.4939703205324e-05,0.0536677095555837,-0.000808615298826688,2.07983350005022,-0.000158716235799401,0
0.35,0.000930964268885604,0.000536722824407284,-0.0464672631321416,-0.0268603546721893,-0.00107449589519434,1.49810344083109e-05,0.0536659078987364,-0.000809645300013082,2.07983335966937,-0.000153677145881701,0
0.36,0.000930898866825242,0.000536722813170757,-0.0464656277638016,-0.0268603327479475,-0.00107443877809097,1.50130133159589e-05,0.0536644690999693,-0.000810428919197498,2.07983325179719,-0.000149798317998904,0
0.37,0.000930848342575656,0.000536722789216092,-0.0464643489768832,-0.0268603329758121,-0.00107439464667583,1.50377037496144e-05,0.053663352488835,-0.000811056765050559,2.07983316892249,-0.000146817589494868,0
0.38,0.000930809401650571,0.000536722769499278,-0.0464633513975973,-0.0268603331698098,-0.00107436063233605,1.50567322667005e-05,0.0536624814312151,-0.000811546507777233,2.07983310525421,-0.000144527570304241,0
0.39,0.000930779541120574,0.000536722754239059,-0.0464625788876224,-0.0268603333372504,-0.00107433454951945,1.50713236120659e-05,0.053661806906325,-0.000811925750931981,2.07983305634172,-0.000142768267604012,0
0.4,0.000930756665509874,0.000536722742505659,-0.046461979701934,-0.0268603334842796,-0.00107431456792307,1.50825018520046e-05,0.0536612837299159,-0.000812219900705013,2.07983301876472,-0.000141416693678165,0
0.41,0.000930739028588647,0.000536722733490337,-0.0464615073446986,-0.0268603336159918,-0.00107429916228091,1.50911201046422e-05,0.0536608713015254,-0.000812451761635111,2.07983298989657,-0.000140378355742061,0
0.42,0.000930725466203678,0.0005367227265643,-0.0464611348839082,-0.026860333735792,-0.00107428731570116,1.50977473240501e-05,0.0536605461037673,-0.000812634569965016,2.07983296771891,-0.000139580659419238,0
0.43,0.000930715047032392,0.000536722721243436,-0.0464608398276367,-0.0268603338464052,-0.00107427821468047,1.51028386209924e-05,0.0536602884964423,-0.000812779372423147,2.07983295068116,-0.000138967834452284,0
0.44,0.000930707130790521,0.000536722717155921,-0.0464606086381494,-0.0268603339497002,-0.00107427129991434,1.51067069845712e-05,0.053660086658152,-0.000812892832002799,2.07983293759199,-0.000138497035690753,0
0.45,0.000930700902570814,0.000536722714015463,-0.0464604147970404,-0.0268603340480626,-0.00107426585966076,1.51097502818592e-05,0.0536599174330633,-0.00081298792327655,2.0798329275363,-0.000138135347629448,0
0.46,0.000930696245957949,0.000536722711602825,-0.0464602633714312,-0.026860334141826,-0.00107426179214679,1.51120258098935e-05,0.0536597852454523,-0.000813062214858044,2.0798329198113,-0.000137857483149687,0
0.47,0.000930692578875318,0.000536722709749457,-0.0464601336599032,-0.0268603342326953,-0.00107425858900446,1.51138176693483e-05,0.0536596720189342,-0.000813125825799236,2.07983291387634,-0.000137644015585078,0
0.48,0.000930689843115259,0.000536722708325457,-0.046460029145543,-0.0268603343208434,-0.00107425619933645,1.51151545584577e-05,0.0536595807947383,-0.000813177081042438,2.07983290931724,-0.00013748002052861,0
0.49,0.000930687689431809,0.000536722707231718,-0.0464599373497482,-0.0268603344072911,-0.00107425431812304,1.51162069341649e-05,0.0536595006766071,-0.00081322207990055,2.07983290581448,-0.000137354032404061,0
0.5,0.000930686001409646,0.000536722706391182,-0.0464598562061704,-0.0268603344923784,-0.00107425284366744,1.51170317249774e-05,0.0536594298601425,-0.000813261842783405,2.0798329031238,-0.000137257242853936,0
0.51,4.6993728520128,-0.0207813296810627,5.03234657002959,1.05534249615601,-0.998588524680136,4.592097344817,-0.0153541317179462,5.14179190902555,0.209702293650023,64.488488224522,1630.34616141166
0.52,4.67258295066306,-0.0173294826283816,6.37315736396414,0.903478122516595,-3.81457831576867,2.69857814685117,-4.66464377923911,4.43559532830964,0.951387012359342,138.510269797477,1630.34616141166
0.53,4.61846320238491,-0.0138382645114588,9.0807172300979,0.73275412858936,-3.55455050997597,-2.94882426085003,-7.47234496027062,-5.21156548655774,2.2603258524091,218.677707837794,1630.34616141166
0.54,4.61121540554003,0.0733040614494175,9.44486870608155,-3.59383689688599,3.81542131880032,-2.59060633091149,9.8685167059014,-2.17568070770567,-2.15138167703736,291.792329629277,1630.34616141166
0.55,4.57831280654307,0.081564142225786,11.0919451394357,-3.99890586890762,-1.16519934496158,4.42830795568176,-6.86165334613391,9.58854569171594,0.275106565534373,368.357725991803,1630.34616141166
0.56,4.54845462186846,0.0475211133673349,12.5870416528202,-2.28349998192637,0.455383944696098,-4.5258505461764,3.66041078013555,-12.2576254901982,-3.03086436953004,443.853627014436,1630.34616141166
0.57,4.46633452428575,0.109550181378191,16.6954168549984,-5.36577707600736,-2.03159997627383,3.97903843427919,-12.6719225469759,12.1223300794449,0.496595325445171,518.357113966358,1630.34616141166
0.58,4.47799909483944,0.1018138413676,16.1147719884428,-4.94675461608741,4.41905651377412,-0.731287549290542,16.6507321380399,2.62856933302661,-1.71206250864528,592.691799626199,1630.34616141166
0.59,4.4076830755891,0.0489117398053693,19.6333425067447,-2.32703513012143,-1.06272805702586,-4.27792841570957,-2.25726641326757,-19.6414861663648,2.90919695486174,667.865664778728,1630.34616141166
0.6,4.35596006121955,0.081651220185486,22.2223035507909,-3.90612206036891,-4.26943541851651,-0.867742003025318,-20.8406923428865,-8.64604576226311,1.79005277603682,741.340383212197,1630.34616141166
0.61,4.377154996717,0.12788661968915,21.1655811629756,-6.20770721066431,-4.05674059268581,1.64884705671427,-22.0007039209663,1.57685819331317,1.21395373473972,814.993569080303,1630.34616141166
0.62,4.38466584167317,0.0843536533320426,20.7932383487011,-4.01573913035188,-4.01760113774326,1.7582068080775,-20.7447323132452,4.25922563862669,1.17751607157269,888.5965522823,1630.34616141166
0.63,4.33314430626923,0.131509661899042,23.3725776716636,-6.35071557465874,-4.32182551284696,-0.339497579713604,-22.5453703756774,-8.84959038327124,1.67952994461383,961.983363177138,1630.34616141166
0.64,4.24408073596918,0.0757853105638823,27.8292544948558,-3.62971257475489,-1.81232758346446,-3.83841548518863,-8.12130329500438,-26.8642262480299,2.7183228395648,1035.59914022217,1630.34616141166
0.65,4.23097816265347,0.0764382283801508,22.2557607521205,-3.59632795661058,3.83187138643432,-1.79548898449261,21.7872210969401,-5.79391562763698,-1.99091859019756,1107.86199410325,1630.34616141166
0.66,3.58150012575211,0.089673521343844,28.1528628239858,-4.33916495484674,-0.249531192511408,3.57392202980933,-6.98290939955159,27.616136840789,0.0947396128050064,1174.15611699851,1630.34616141166
0.67,3.12222529700643,0.144597854446009,27.7092216083416,-7.01478230259937,-1.64683354141886,-2.65652755145417,-7.3678509935875,-27.6174384154168,2.63293435805098,1231.54028896445,1630.34616141166
0.68,2.65075714211905,0.112710693468122,30.7942934197955,-5.43718298659935,1.82542336664665,1.92536922677642,16.1175598274348,26.7969351095099,-0.716263278767606,1281.83600119436,1630.34616141166
0.69,2.3147758673049,0.119121296399672,29.7025543706384,-5.77289365625011,-1.36508245974821,-1.87321303572254,-11.4023457997789,-28.0277460308418,2.56325425047934,1325.96834982053,1630.34616141166
0.7,1.97340225132839,0.152999289965168,31.1426301411264,-7.4860101613074,0.422758847060866,1.93364944742049,-3.13493818822947,31.8759458337815,-0.137869750268908,1364.59211630036,1630.34616141166
0.71,1.73672498584519,0.0808445397263649,29.342970643699,-3.99711358046346,0.864378318689808,-1.50850907794468,19.1284101599756,-22.6073166900419,-2.57474500409152,1398.35097530769,1630.34616141166
0.72,1.47196532238621,0.0329665578650553,30.5567721937031,-1.59309776045489,-1.4663347976088,0.132781646196209,-30.5944408062067,0.484230449011183,1.50288173959302,1427.84562662372,1630.34616141166
0.73,1.37982337782458,0.0680524270540745,24.6447060515734,-3.28740964609451,0.676802828892784,-1.20435942210866,15.9002897124978,-19.1141148267015,-2.58033312492143,1453.62919744938,1630.34616141166
0.74,0.996230389273059,0.0693389768650042,34.6909296051863,-3.44748845801463,-0.970783017999072,-0.234228978114259,-32.0375233889897,-13.7456490803481,1.87703901696053,1476.27666155535,1630.34616141166
0.75,0.957973751997549,0.0878114582235431,28.5445852612882,-4.35308682266044,-0.110411807748791,0.955632667096123,-10.1115316211331,27.0462500339584,0.206436191102169,1496.02415973462,1630.34616141166
0.76,0.760032519052561,0.0938779979356737,31.4616433722622,-4.59637230043136,0.760379571091748,0.0910242625903724,29.44291851926,12.0031742083418,-1.32875838002599,1513.21624779976,1630.34616141166
0.77,0.686251746924448,0.00173058006157301,29.0281053353011,-0.0754433393101164,0.262838736801926,-0.633924485645234,11.2551141665057,-26.757410116708,-2.74602362379628,1528.33252075402,1630.34616141166
0.78,0.467938137033145,0.03713961662456,34.6059764843311,-1.77730452620324,-0.394359948847644,-0.254608880359568,-26.4177566938281,-22.4239726872523,2.22329286771978,1541.42852892153,1630.34616141166
0.79,0.451354600160146,0.0806316725320517,30.7543505197271,-4.02285387731401,-0.336025669809071,0.31194421124683,-28.0435061269492,13.2504789844073,0.999324468382191,1552.94099696661,1630.34616141166
0.8,0.37672923101575,-0.0212554637107403,30.405230347128,1.01807141617763,0.0336821414829084,0.375822061066673,5.42301874304674,29.9350191177977,-0.145745078935005,1563.0152578398,1630.34616141166
0.81,0.311851351299016,0.0589566928247078,30.0197477069855,-2.90588897614528,0.313176503852702,0.0514551685494078,27.2072860428122,13.0151077336049,-1.22110180943804,1571.89052185349,1630.34616141166
0.82,0.234769309317819,-0.0402804355704742,30.6793414132496,1.96921273863132,0.209674376022054,-0.113030076205738,22.9405542911656,-20.46535504639,-2.23513270622268,1579.74505728567,1630.34616141166
0.83,0.146314128422104,-0.0296210561179423,32.3658442931425,1.54193569836892,0.0216009635598743,-0.147711304627463,-3.30400782731457,-32.23366213732,3.0870524438806,1586.46917705093,1630.34616141166
0.84,0.184596632509459,0.076586504222787,28.016555767334,-3.81865566133338,-0.195526275674758,-0.0413628442404283,-20.9337441032893,-19.0075744360497,2.17254162579087,1592.43118896117,1630.34616141166
0.85,0.120609595682676,0.0192574982919265,29.1037026419298,-1.02685521813751,0.0985932526749978,0.0720895022743684,19.761936479608,21.3903203735902,-0.781117063229759,1597.61302579714,1630.34616141166
0.86,-0.0234633292500437,0.0579217274261422,34.4692679038554,-2.85194952167116,-0.0262509107556548,-0.0567128205260761,34.567147516357,1.17318305661491,-1.61942097438005,1602.12428596935,1630.34616141166
0.87,0.0685445434405716,0.04207611843399,28.2343031174115,-2.09453960727868,0.0131708057613369,-0.0793428261000621,20.093278494584,-19.9455039553133,-2.42655229836802,1606.13174712947,1630.34616141166
0.88,0.0232790727239953,-0.0353535867254397,29.0774149099826,1.70597112245422,0.0337704793403152,-0.0255214820566439,-3.58696436079063,-28.9057101969895,3.07673468626349,1609.5842225582,1630.34616141166
0.89,-0.10597227415706,-0.00393278094123288,34.3145711904453,0.203871249645247,0.0802423067408501,0.0693308146848004,-25.2542090192794,-23.2326556011386,2.32046699191579,1612.55157721099,1630.34616141166
0.9,-0.0292733578336516,-0.00630627295917377,29.417996122051,0.341800862361639,0.0293572894070746,-0.00590322929945006,-29.4199149631669,-0.0626675876781193,1.58454467617049,1615.16231362396,1630.34616141166
0.91,-0.0487365495436156,-0.0335661918960104,29.42354266556,1.63572849299241,0.0154271700566769,-0.0571309279100162,-21.37093317941,20.2904826393068,0.866861775335047,1617.50015177428,1630.34616141166
0.92,-0.121949307191521,-0.00358119010716512,32.2566793523021,0.0894601583620954,0.0165113206680233,-0.120879422305342,-5.21352220719162,31.8326962752496,0.165110972181525,1619.48723356599,1630.34616141166
0.93,-0.0780460313937696,0.0365518624809538,29.3639640193383,-1.78710711328955,-0.00734786322378524,-0.0858675175674036,13.1280748896426,26.326598421659,-0.523362234292737,1621.24429642713,1630.34616141166
0.94,-0.0461198443692257,-0.00229951979627178,27.1261453445529,0.112792593863178,-0.0438144524407109,-0.0145815497549378,25.3206330185551,9.73170216163123,-1.19970538924411,1622.8045248108,1630.34616141166
0.95,-0.126176864854726,-0.000317681059187482,30.5792332910729,-0.0569429022667215,-0.120647439868338,0.0369445178482388,29.2780583117286,-8.82542082050485,-1.86543092066464,1624.05865409952,1630.34616141166
0.96,-0.200202300483501,-0.00197941584681556,33.8295692566595,0.0287410113457042,0.199211645813941,0.0199899819430061,-33.6286396232888,-3.68173589816315,1.68069375206064,1625.17330730307,1630.34616141166
0.97,-0.164698055357536,0.00899207155607251,31.6147121469979,-0.421867627397192,0.145937046658743,-0.0768679725369889,-27.3436310854552,15.8743137015467,1.03145869808548,1626.24915904818,1630.34616141166
