t,iq,id,vq,vd,ia,ib,va,vb,theta_e,omega,r
0,0,0,0,0,0,0,0,0,0,0,0
0.01,0.000747733003871067,0.000419977537171032,-0.036620796781327,-0.0210280649248574,0.000193758412125298,0.000835430101526739,-0.00993042778052187,-0.0410444743598832,0.283859683684894,-0.00139931121505864,0
0.02,0.000825323900063614,0.000464557525762319,-0.0405849819520647,-0.0232601687216651,0.000214833348497176,0.00092239897394355,-0.0109634436022342,-0.0454750383550182,0.283849599889768,-0.00140899607714796,0
0.03,0.000853252238390446,0.000481031651024888,-0.0420101269953189,-0.0240850184484935,0.000222836077534094,0.000953821217081721,-0.011356626373653,-0.0470740472153855,0.283839904933331,-0.00132330962799139,0
0.04,0.000834048562715796,0.000471570717349028,-0.0411414557392449,-0.0236113231331335,0.000219139398036995,0.000932734619630549,-0.0111455377506814,-0.0461073849691091,0.283831518788999,-0.0011609284819406,0
0.05,0.000849957574786701,0.000481214053215029,-0.0419704100210473,-0.0240941567560448,0.000223949259874772,0.000950705828819025,-0.011377284861589,-0.0470382939348138,0.28382367710244,-0.00107802343135434,0
0.06,0.000848883975550026,0.000481471442853267,-0.0419707376652576,-0.0241070441774974,0.000224503718097495,0.000949745668476158,-0.0113898981784015,-0.0470421366290619,0.283816593063838,-0.000971689008797772,0
0.07,0.00087128139670947,0.000494889004693102,-0.0431023842968089,-0.0247788557417329,0.000231118829778295,0.000975002813195965,-0.0117182497633175,-0.0483165587187655,0.283810338575726,-0.000925325995600659,0
0.08,0.000846889752896469,0.000481835576199129,-0.0419629648959545,-0.0241252661388473,0.000225423110899092,0.000947930481166612,-0.0114101334819186,-0.0470396401246239,0.283804565094682,-0.000790795249760366,0
0.09,0.000845041400223228,0.000481480810256142,-0.0419109190238478,-0.0241075181466596,0.00022560489835445,0.000946055584294402,-0.0114079074334236,-0.0469846486908808,0.283799486727671,-0.000712371679230004,0
0.1,0.000843990384854797,0.000481469255788353,-0.0418935466077041,-0.0241069221403467,0.000225892387724212,0.000945042349931998,-0.0114124129386471,-0.0469677524837033,0.283794945227309,-0.000643463064667974,0
0.11,0.00084306766533569,0.00048146717769813,-0.0418788588724175,-0.0241068290884709,0.00022615259170619,0.000944155038539618,-0.0114166269907742,-0.046953579813579,0.283790881551136,-0.000581841457517947,0
0.12,0.000842242734694114,0.000481465540533007,-0.0418657505875862,-0.0241067490971169,0.00022638542829835,0.000943361822801799,-0.0114203911645741,-0.0469409319245096,0.283787245356594,-0.0005267032986039,0
0.13,0.00088265734494378,0.0005045422877852,-0.0438507052116071,-0.0252621918166437,0.000237226851781699,0.000988620417319241,-0.0119740195663353,-0.0491699658161482,0.283783678431177,-0.000556526344383858,0
0.14,0.000929587213806603,0.000532285517169681,-0.0462874014629123,-0.0266512732132047,0.000250723823908355,0.00104144026424279,-0.0126254548770099,-0.0518980904005367,0.283780524878374,-0.000605688440196593,0
0.15,0.000842743704337179,0.000482833924218463,-0.0419610046805753,-0.0241752608613428,0.000227567880469249,0.000944223707261624,-0.0114599440073374,-0.0470514488072995,0.283777640226502,-0.000386508765107397,0
0.16,0.000839633537274143,0.000481497293863042,-0.0418269260417085,-0.0241083271627447,0.000227157626967041,0.000940863185284463,-0.0114333329433065,-0.0469039665539279,0.283775386767335,-0.000347047629926033,0
0.17,0.000839099881793785,0.000481460318378985,-0.0418158868842706,-0.0241064798614037,0.000227273431065579,0.000940340064727446,-0.0114347443815593,-0.0468928287497649,0.283773380244501,-0.000316461805357172,0
0.18,0.000838690268591633,0.000481458537456679,-0.0418092967434937,-0.0241063915186775,0.000227388092257718,0.000939945926859426,-0.0114365888484576,-0.0468864569118697,0.283771585096377,-0.000289235922691685,0
0.19,0.000838325882790004,0.000481457789248293,-0.0418035026051655,-0.0241063511143918,0.000227490903388944,0.000939595539292719,-0.0114382475981869,-0.0468808648170337,0.283769978798373,-0.000264878368710493,0
0.2,0.000837999684135226,0.000481457142455569,-0.0417983097087063,-0.0241063306210535,0.00022758296058202,0.000939281878184043,-0.0114397491909133,-0.0468758574211232,0.283768541475455,-0.00024308324259851,0
0.21,0.000837708057908453,0.00048145656421566,-0.0417936750078882,-0.0241062900785422,0.000227665261324883,0.000939001460220895,-0.0114410681546666,-0.0468713820096663,0.283767255352185,-0.000223580863558321,0
0.22,0.00083744693541947,0.000481456046737247,-0.0417895181936812,-0.0241062709005661,0.000227738952448503,0.000938750373699515,-0.0114422674808336,-0.0468673728993695,0.283766104522915,-0.000206130041770718,0
0.23,0.000837213228736954,0.000481455583629338,-0.0417857950521041,-0.0241062502042737,0.000227804905912496,0.000938525649208492,-0.0114433382505764,-0.0468637810759054,0.283765074755529,-0.000190514963102248,0
0.24,0.00083700420210404,0.000481455169184706,-0.0417824673719344,-0.0241062309057084,0.000227863894284029,0.000938324655946017,-0.0114442945607405,-0.0468605705276099,0.283764153314671,-0.000176542516144471,0
0.25,0.000836817177966737,0.000481454798295302,-0.0417794894748404,-0.0241062115553733,0.000227916673116487,0.000938144819448093,-0.0114451483444231,-0.0468576968672689,0.283763328805215,-0.000164039903889632,0
0.26,0.000845289979088031,0.000486247576222643,-0.0421953479437557,-0.0243461795306326,0.00023014632047348,0.000947620454243975,-0.0115591252048688,-0.0473241003118978,0.283762618404021,-0.000170842093835959,0
0.27,0.000815282264006732,0.000469325516869723,-0.0407468401388736,-0.0234988975993526,0.000222302959713573,0.0009140749448987,-0.0111513010881518,-0.0456962980309036,0.283761839070146,-9.83033121235735e-05,0
0.28,0.000810594508640176,0.00046642111340188,-0.0403947674374574,-0.0233534693974858,0.000220827682464437,0.000908761380738664,-0.0111102855790004,-0.0453175829406052,0.283761233803204,-7.98626739105239e-05,0
0.29,0.000835470336946173,0.000481047641803242,-0.0417327687851165,-0.0240858221777015,0.000227905230475171,0.000936737275613323,-0.0114387724744995,-0.046807107416764,0.283760814320334,-0.000124330543717318,0
0.3,0.000831729044189606,0.000479107550829743,-0.0415516605443373,-0.0239886825393466,0.000227090193061102,0.000932602429991528,-0.0113962233149946,-0.0466060455104288,0.283760786850841,-0.000116311304616013,0
0.31,0.000836001789674915,0.000481390083799984,-0.041762071404464,-0.0241029580905173,0.000228085638775979,0.000937343238362965,-0.0114470418291306,-0.0468400302099275,0.283760333633296,-0.000118345027405095,0
0.32,0.000836037823798899,0.000481451549137523,-0.0417669292301459,-0.0241060458114618,0.000228134953443608,0.000937394943450519,-0.0114486658139781,-0.0468455533968824,0.283759911454107,-0.000112211795475661,0
0.33,0.000835955925716348,0.00048145304416409,-0.0417657472373354,-0.0241061290704145,0.000228159672016251,0.000937316652759665,-0.0114490943823801,-0.0468444376513992,0.283759533184494,-0.000106483924762808,0
0.34,0.000835879379720019,0.000481452936790312,-0.0417645308805856,-0.0241061108992906,0.00022818131652434,0.000937243060563458,-0.011449433333535,-0.0468432609742877,0.283759194691965,-0.000101351366697033,0
0.35,0.000835810578264937,0.000481452801673939,-0.0417634262887452,-0.024106111180543,0.000228200732769494,0.000937176903547414,-0.0114497570400323,-0.0468421971661064,0.283758891806936,-9.67585111534892e-05,0
0.36,0.000835749052767457,0.000481452679712327,-0.0417624388566867,-0.0241061114405313,0.000228218094724789,0.000937117742465732,-0.011450046432271,-0.0468412461911577,0.283758620783949,-9.26487955107621e-05,0
0.37,0.000835694160019081,0.00048145257054832,-0.0417615623696166,-0.0241060917571611,0.000228233585275853,0.000937064958970141,-0.0114502842819516,-0.0468403964673501,0.283758378271212,-8.89714021356076e-05,0
0.38,0.000835644858130373,0.000481452472864184,-0.0417607679505351,-0.024106091982575,0.000228247497669881,0.000937017551785561,-0.0114505170727078,-0.0468396313954159,0.283758161269856,-8.56808529822774e-05,0
0.39,0.000835600794931138,0.000481452385453692,-0.0417600587579765,-0.0241060921925426,0.000228259931866167,0.000936975181876795,-0.01145072491862,-0.046838948398775,0.283757967096006,-8.27364538899115e-05,0
0.4,0.000835561330137107,0.000481452307236519,-0.0417594213657286,-0.024106092388938,0.000228271068340614,0.000936937233715521,-0.0114509116929285,-0.0468383345611822,0.283757793348308,-8.0101791525885e-05,0
0.41,0.000835526227993223,0.000481452237245879,-0.0417588606253469,-0.0241060726525819,0.000228280974185871,0.000936903480214688,-0.0114510570154592,-0.0468377889389263,0.283757637878213,-7.77442830651429e-05,0
0.42,0.000835494679441064,0.000481452174616579,-0.0417583509612562,-0.0241060728263802,0.000228289876884547,0.000936873143989835,-0.0114512063861953,-0.0468372981118142,0.283757498762863,-7.56347732394797e-05,0
0.43,0.00083546639051618,0.000481452118574722,-0.0417578909993249,-0.0241060715352961,0.000228297859608159,0.000936845942223456,-0.0114513397502212,-0.0468368547567118,0.283757374281725,-7.37471737767415e-05,0
0.44,0.000835441070183728,0.000481452068427548,-0.041757478099542,-0.0241060716905681,0.000228305004615438,0.000936821594974434,-0.0114514607135938,-0.0468364571366105,0.283757262895594,-7.20581407666773e-05,0
0.45,0.000835418485611333,0.000481452023554982,-0.0417571112888545,-0.0241060718377055,0.00022831137778843,0.000936799878233697,-0.0114515682169631,-0.0468361038943958,0.283757163226791,-7.05467859652709e-05,0
0.46,0.000835398229345371,0.000481451983402334,-0.0417567797270835,-0.0241060719779231,0.000228317093823459,0.000936780400405256,-0.0114516653541195,-0.0468357846096149,0.283757074042632,-6.91944184739132e-05,0
0.47,0.000835380068555198,0.000481451947473108,-0.0417564803216823,-0.0241060721119177,0.00022832221846245,0.000936762937578831,-0.0114517530432045,-0.0468354963009625,0.283756994240308,-6.79843135866806e-05,0
0.48,0.000835363886825493,0.000481451915323159,-0.041756214878487,-0.0241060722400317,0.000228326784796572,0.000936747377645112,-0.0114518308252127,-0.0468352406908592,0.283756922832952,-6.69015059567782e-05,0
0.49,0.00083534933491029,0.000481451886555108,-0.0417559727791094,-0.0241060723632995,0.000228330891048924,0.000936733385011627,-0.0114519017152887,-0.0468350075757197,0.283756858937275,-6.59326045197359e-05,0
0.5,0.00083533658450796,0.000481451860813128,-0.0417557687249866,-0.0241060525656214,0.000228334489549261,0.000936721124230753,-0.0114519425149077,-0.046834805484237,0.283756801763147,-6.50656268889156e-05,0
0.51,4.63547809362751,0.0365485375787313,8.22743162296692,-1.81861621765333,-0.419903887324314,4.61656513844542,-2.61961945870417,8.00846988814257,0.0985906836819761,30.3776261360153,2698.01221001094
0.52,4.61849704588338,-0.0257295287426631,9.07810883549518,1.31481529180461,-2.022155142576,4.15235662616258,-2.74387019084118,8.75282672377742,0.447614430636236,65.0465185560869,2698.01221001094
0.53,4.59144289198199,0.0396406117942938,10.4326097035268,-1.95354531665271,-3.98447149608839,2.28186461151719,-10.0537127747148,3.4027259622064,1.05933362436932,102.590289651022,2698.01221001094
0.54,4.54760113008814,0.0611260603814221,12.6265924535392,-3.01174692733043,-4.25339147727327,-1.61030226190482,-10.6433671122977,-7.43102907105855,1.94615346700626,138.47141936836,2698.01221001094
0.55,4.52520473557058,0.0120844160452303,13.7483956891751,-0.553414201955034,-0.244842172483403,-4.51859228549281,-0.154527490659884,-13.7586617285143,3.09013055531205,174.706407014224,2698.01221001094
0.56,4.49763621659875,0.0517216117261188,15.1289550384227,-2.505454111758,4.38624878919102,-0.996106531100267,15.3175736479185,-0.731107653723443,-1.78260716155639,209.715638778579,2698.01221001094
0.57,4.49850475196269,0.0580632882871591,15.0877627710955,-2.8134244576573,0.552290106317045,4.46485072397073,-1.13757631994193,15.3056153986734,-0.110165634049456,245.654412145731,2698.01221001094
0.58,4.47764315612244,0.0885638715092285,16.1332668267218,-4.3281563362682,-4.35780885733307,-1.03277962598818,-14.540589001873,-8.22110134057427,1.82327474099877,281.319699192487,2698.01221001094
0.59,4.47841937772743,0.0932513598094968,16.0970076626083,-4.5438571878865,3.37950211305913,-2.94005125920276,15.2721478667695,-6.82068862868736,-2.26594860112163,316.772734516294,2698.01221001094
0.6,4.41579899905658,0.0891787167558946,19.2307048313158,-4.36148310193236,-0.737685619215469,4.35465883517802,-7.87876520710336,18.076714357675,0.188001013936996,352.588065921746,2698.01221001094
0.61,4.45209624337392,0.0554973846820332,17.4186076581535,-2.65251709601124,-1.11051934989066,-4.31172676470682,-1.55719160033352,-17.5504670596872,2.90197821143849,387.961811983618,2698.01221001094
0.62,4.46702832269533,0.104975483107639,16.6748034206869,-5.08876818880478,1.87291356962601,4.05679142285214,1.96280081828013,17.3231649459821,-0.40902344417214,423.076073698416,2698.01221001094
0.63,4.38769130685511,0.0479051496657878,20.6446344272589,-2.23449791750716,-1.42330256023192,-4.15070352225423,-4.36134845923462,-20.3020331788626,2.82216891841516,458.240231900608,2698.01221001094
0.64,4.40705961344177,0.0502173630219827,19.6792749775573,-2.35992459274295,-0.0712819006246204,4.40676923727823,-2.90148521403311,19.6067460655381,0.0275683974549586,493.587879270273,2698.01221001094
0.65,4.38990371110478,0.062329344322371,20.5402056080472,-2.96451743078494,2.54237745570365,-3.5793094882484,14.5232968998183,-14.8243804989622,-2.50979107737372,528.695781486587,2698.01221001094
0.66,4.39903682533301,0.0555324133036879,20.0868093767985,-2.6085891548012,-4.38125659308429,0.398998126710766,-20.229202250303,-1.03151569775875,1.49260060665305,563.612547109817,2698.01221001094
0.67,4.3072708875592,0.12939266800952,24.6784681487176,-6.27758460200451,2.29694021258241,3.6460102332785,7.11193671343388,24.4510779882341,-0.532146175152053,598.332896701209,2698.01221001094
0.68,4.29733641124468,0.0827616101371689,25.1786817226702,-3.90273696897013,3.14411762414773,-2.93060984797455,21.3511032130847,-13.904235352032,-2.30180562694843,633.010748027768,2698.01221001094
0.69,4.29110389464285,0.0840940354969599,25.4938820505257,-4.02117090230798,-2.74698675739367,-3.29768224608269,-12.7905783997326,-22.4167112135563,2.46664279598398,667.996936353355,2698.01221001094
0.7,4.23801954567451,0.0992042809527456,28.1517170635602,-4.70352775642976,-3.92399035697883,1.60404203100034,-27.9781033244132,5.64518213618563,1.20614934291004,702.422301723071,2698.01221001094
0.71,4.31739797379948,0.0931693469122554,24.1865259291115,-4.41299608168206,-0.76464025853714,4.25016835741788,-9.12057781515002,22.8315052340908,0.199580672614978,737.077250402809,2698.01221001094
0.72,4.25335483239899,0.110273465570769,27.3924610820848,-5.29005606812535,2.33008171524332,3.56004308510299,9.90222539128492,26.0821308492545,-0.553618328614614,771.741183723183,2698.01221001094
0.73,4.26524670094535,0.193861009286384,26.8017545441043,-9.47091745681231,3.80369020736229,1.93954951400136,18.618416439021,21.4799183755283,-1.05383009012785,806.225071517128,2698.01221001094
0.74,4.23698798210431,0.176670409355539,28.2186387022623,-8.58595767828571,4.13142356098025,0.956357126713385,24.9195788102992,15.7805206308099,-1.30164623046061,840.58862805362,2698.01221001094
0.75,4.16063020544517,0.142465643667992,32.0405658277131,-6.82825713482952,4.04460325154739,0.986065263388151,29.0074508884831,15.2246755962683,-1.29743553014173,874.818908380597,2698.01221001094
0.76,4.0813623284709,0.133065342736068,36.0081208544101,-6.43365341544729,3.99158939803126,0.861648953590334,33.3693703983102,14.9820486902251,-1.32560082916832,909.20187802746,2698.01221001094
0.77,4.11799976090084,0.156652631088503,34.1804440234234,-7.55127613682035,3.11451993733958,2.69856028976945,19.8049035136648,28.8633040684416,-0.818809598859498,943.385634958223,2698.01221001094
0.78,4.08820340347628,0.19963903659079,35.6745869068807,-9.75545144795922,0.451167789174906,4.0681335326089,-7.53870692266077,36.2079118683238,-0.0616573504972223,977.602756716458,2698.01221001094
0.79,4.10109641509738,0.197000981388858,35.034312790299,-9.50065935074292,-3.2097426388743,2.56034243506314,-33.9661925711896,12.8048179606049,0.945471864221025,1011.51908340463,2698.01221001094
0.8,4.11098916061065,0.229100270144589,34.5441027921804,-11.1077254375505,-3.45328030762565,-2.24222521826052,-21.3228618365986,-29.3600436854249,2.20235256065858,1045.56095009029,2698.01221001094
0.81,4.07716167929584,0.16514114695086,36.2400174020197,-7.89808724136531,2.04964394726837,-3.52838187374338,26.1199802082726,-26.3337288907278,-2.57485238580474,1079.51722662026,2698.01221001094
0.82,4.09138190013426,0.233786857411242,35.5335949831858,-11.3096234619006,3.15117086127756,2.61995884518816,18.2680451907603,32.508806194436,-0.820106748665167,1113.42464793249,2698.01221001094
0.83,3.99714958756772,0.191942917763822,40.2498264085992,-9.33872517633154,-3.62776387517398,1.68919394240423,-40.7925208535529,6.57499477215561,1.18300426868886,1147.41068700255,2698.01221001094
0.84,4.08528229124648,0.193348282150924,35.8478312901555,-9.3392160513824,0.992819416472708,-3.96752121149435,19.2789694943249,-31.6324090119412,-2.84909850573201,1181.19625225938,2698.01221001094
0.85,3.99206009433674,0.281283618057707,40.5135228976405,-13.6659017892473,1.63456980962006,3.65292291296465,1.0718336625449,42.7428775574461,-0.350402655143467,1214.9004181507,2698.01221001094
0.86,3.98715158009644,0.176860653190659,40.7635484709362,-8.4700598420554,-3.50872239293353,-1.90197912255612,-30.5784278643639,-28.2554162420988,2.11186076890972,1248.61360846543,2698.01221001094
0.87,4.00312584103999,0.150939726790134,39.9693537260253,-7.22802941340856,3.75672151311873,1.39098625916884,34.1695546168434,21.9598539103472,-1.17849484274238,1282.30812040596,2698.01221001094
0.88,3.97240145820389,0.244918063332214,41.5100883196213,-11.9516416476414,-3.62083726928587,-1.652118540613,-31.0117383821075,-30.0699393563758,2.06043804641672,1315.86664358231,2698.01221001094
0.89,3.90647363063286,0.153165142456165,44.8109460959541,-7.3564587538096,2.74239333995132,2.78626534211732,24.7172891771601,38.0945401749864,-0.738274991691516,1349.28842954138,2698.01221001094
0.9,3.88364597051964,0.183964068317196,45.9567694339055,-8.86727103943591,-0.76512011553345,-3.81197324381629,1.86495980006026,-46.7672436373166,2.99084323862564,1382.61613530802,2698.01221001094
0.91,3.95768289565127,0.240062239053914,42.2593202391407,-11.5832333625065,-2.3051106231324,3.22604228060829,-35.6046187642373,25.5408019619168,0.680995626441254,1415.81809196347,2698.01221001094
0.92,3.76505981195748,0.282309768347655,48,-13.7189979619974,3.75258674110266,0.416493629509845,44.6489522431298,22.3311882503373,-1.38541887938232,1448.99547994406,2698.01221001094
0.93,3.87994395531335,0.255926997196977,46.1549540183722,-12.4050582598691,-0.518550509171778,-3.85364361270014,9.24535537405087,-46.8901765285257,3.07370110213288,1481.95241336286,2698.01221001094
0.94,3.86213414929033,0.312615452068844,47.0497390646545,-15.320163873904,-3.49726701861226,1.66821221926759,-49.4204905546798,2.44958782454305,1.20648136284756,1514.7715750205,2698.01221001094
0.95,3.77811647188585,0.334570235062524,48,-16.2490657185434,0.847170652198224,3.69708036203962,-9.54471886915075,49.7687701117319,-0.136932636443454,1547.31300911318,2698.01221001094
0.96,3.82926994144047,0.246233422022224,48,-11.8249184013656,3.7030613020105,1.00562228301316,41.5946988243145,26.7153462435643,-1.24141173445728,1579.90942110528,2698.01221001094
0.97,3.84176746266164,0.222925971154945,48,-10.6478856920717,3.18800510149901,-2.15534143434336,46.6981681103103,-15.3837110234373,-2.10732454998768,1612.36628875799,2698.01221001094
0.98,3.70921726336744,0.321885521213701,48,-15.5945696234238,1.16823130080586,-3.53512922301965,33.2735631755181,-37.9481303273905,-2.7358640926449,1644.69234256484,2698.01221001094
