t,iq,id,vq,vd,ia,ib,va,vb,theta_e,omega,r
0,0,0,0,0,0,0,0,0,0,0,0
0.01,0.00131210559886985,0.000738028335548489,-0.0636153229155722,-0.0369519973417821,0.000538322791010109,-0.00140588601932631,-0.0253525671511974,0.0690623396363287,-2.26353692786454,-0.00539459715898481,0
0.02,0.00144895366895258,0.000816460797445383,-0.0706432788435801,-0.0408790122803465,0.000593475783543299,-0.0015536606652947,-0.0282495989171019,0.0765736681360597,-2.26357595719087,-0.00546587323046833,0
0.03,0.00149880516137301,0.000845702308436681,-0.0731819104897832,-0.0423430927577135,0.000613098535609795,-0.00160802347367401,-0.0292649364189828,0.0793227144241538,-2.2636137279851,-0.00516759879893168,0
0.04,0.00146518016220465,0.000828896882062846,-0.0717136702840298,-0.0415016683803452,0.000597907700097002,-0.00157363570465857,-0.0286700624543858,0.0777384493209139,-2.2636466755134,-0.00456450103671898,0
0.05,0.00149366370613582,0.000846035976623111,-0.0732034194736961,-0.0423597693488828,0.000608826717758315,-0.00160503525460086,-0.0292657620620073,0.0793511553341376,-2.26367765938492,-0.00426463182714247,0
0.06,0.00149206483645093,0.000846512955403298,-0.0732447723901052,-0.042383648608198,0.000607246631211414,-0.00160439807676317,-0.0292800880825632,0.0793967681565116,-2.26370585005721,-0.00386943824531534,0
0.07,0.00153144708657597,0.000870034469786924,-0.0752302007551511,-0.0435613590358384,0.000622480611760656,-0.00164766745600607,-0.0300533165147857,0.081571890214532,-2.26373092891594,-0.00369932926352299,0
0.08,0.0014889732808071,0.000847178268784435,-0.0732989215710185,-0.0424169772141571,0.000604365489810115,-0.00160296438038549,-0.029296616767603,0.0794584174611655,-2.26375422293394,-0.00318977276268724,0
0.09,0.00148581690878224,0.00084652548884102,-0.0732344015838362,-0.0423842844193719,0.000602321052768375,-0.0016004582590848,-0.0292662225062051,0.0793926530687953,-2.26377487787227,-0.00289139283577347,0
0.1,0.00148407367888998,0.000846501672025186,-0.0732288118342518,-0.0423830894915095,0.000600965362432597,-0.00159933748729645,-0.0292612083054262,0.0793887072952319,-2.26379348389904,-0.00262750297378102,0
0.11,0.00148253679933748,0.000846496180213769,-0.0732254038073005,-0.0423828175478991,0.000599759692135585,-0.00159836149108884,-0.0292574288374561,0.0793868115234635,-2.26381025354302,-0.00238981207239169,0
0.12,0.00148115271814799,0.000846491680361391,-0.0732223789309583,-0.0423826071244434,0.000598673614410296,-0.00159748284585693,-0.0292540362707916,0.0793851593488416,-2.26382536834283,-0.00217558153183745,0
0.13,0.00155212233915596,0.000887054883869848,-0.0766736200546476,-0.0444135559502476,0.000627332125533546,-0.0016740383887408,-0.0306103803023289,0.0831529469241892,-2.26384018834519,-0.00228716880702796,0
0.14,0.0016333279493206,0.000935016820512384,-0.0809604726268592,-0.0468149252282856,0.000659138682046289,-0.00176282524445936,-0.032372925735924,0.0877395522634504,-2.26385341159596,-0.00246625682243998,0
0.15,0.00148232439125845,0.00084898534787914,-0.0734460997723902,-0.0425074623707507,0.000597917534523617,-0.00160017384797477,-0.0293431802987115,0.0796253207147952,-2.26386557334544,-0.00162731408521263,0
0.16,0.00147673568342256,0.000846547769423697,-0.0732196251965269,-0.0423854212200951,0.000595160113129707,-0.00159473378478954,-0.0292461584242375,0.0793870245276214,-2.26387527011319,-0.00146897187490231,0
0.17,0.00147579165343749,0.000846476277867982,-0.0732108150534741,-0.0423818296596599,0.000594465695134077,-0.00159408081057949,-0.0292409850022045,0.0793788871312471,-2.26388397033308,-0.00134500324834495,0
0.18,0.00147506899543003,0.000846471996270848,-0.0732089846923125,-0.04238162515032,0.00059390001191097,-0.00159362045594359,-0.0292390852562263,0.0793777896104484,-2.26389181076836,-0.00123385585796833,0
0.19,0.00147442177469943,0.000846469839198867,-0.0732075245140973,-0.0423815193923238,0.000593392242650677,-0.00159320946668766,-0.029237468620614,0.0793769819289112,-2.26389887746793,-0.00113369496495178,0
0.2,0.00147383881522324,0.000846467942787747,-0.0732062202340432,-0.0423814134667615,0.000592934857242808,-0.00159283931596769,-0.029236027384302,0.0793762533203739,-2.26390524682187,-0.00104341855722147,0
0.21,0.0014733129607103,0.000846466234568107,-0.0732050160203605,-0.0423813425142256,0.000592522285792267,-0.00159250541829545,-0.0292346906798449,0.079375597161238,-2.26391098764576,-0.000962050670822858,0
0.22,0.00147283943163116,0.000846464694702082,-0.0732039449077347,-0.0423812362819016,0.000592150764275779,-0.00159220474283689,-0.0292335238808044,0.0793749823328955,-2.26391616196326,-0.000888712192738673,0
0.23,0.00147241241372758,0.000846463306586833,-0.0732029610891473,-0.0423811679342072,0.000591815740638478,-0.00159193359617464,-0.0292324405628499,0.0793744374873053,-2.26392082567689,-0.000822610778065711,0
0.24,0.00147202713396364,0.000846462055284966,-0.0732020468512611,-0.0423811316329075,0.00059151347172934,-0.00159168894791827,-0.0292314268288369,0.0793739482906729,-2.26392502917404,-0.000763032271232676,0
0.25,0.00147168055904521,0.00084646092732642,-0.0732012495462284,-0.0423810630097446,0.000591241559849183,-0.00159146887725429,-0.0292305566262525,0.079373496812756,-2.26392881786818,-0.000709332989748567,0
0.26,0.00148656737066212,0.000854916314872295,-0.0739259730842041,-0.0428044241376977,0.000597285330812412,-0.0016074870719693,-0.0295172773995898,0.0801623262955988,-2.26393212346596,-0.000730030680569966,0
0.27,0.00143416287971941,0.000825332695168356,-0.0714378704276612,-0.0413231982177207,0.00057587041335087,-0.0015512480428049,-0.0285494728590534,0.0774332205300188,-2.26393566357447,-0.000448249694610335,0
0.28,0.0014262993441966,0.000820498170445605,-0.0707450789292734,-0.0410811468330353,0.000572906118843328,-0.00154250628716777,-0.0281709899951557,0.0768044408906111,-2.2639384918219,-0.00037434560546002,0
0.29,0.0014692084568356,0.000845722725405838,-0.0731320098321191,-0.0423441019665423,0.000589792885210335,-0.00158932840233238,-0.0291999778781859,0.0793011672382667,-2.26394057653848,-0.000536464891089787,0
0.3,0.00146242893300303,0.000842202253949633,-0.0728104806209491,-0.0421678453325818,0.000586826385287778,-0.0015822887897512,-0.0290652228102903,0.0789601550861846,-2.26394111421532,-0.000498914724363812,0
0.31,0.00147010438179019,0.000846336207595072,-0.0731858926423931,-0.0423748212465411,0.000590085830107799,-0.00159037435302231,-0.0292215864410568,0.0793593047059262,-2.26394324706108,-0.000503686346915222,0
0.32,0.00147016917403077,0.000846452629799887,-0.0731972208591527,-0.0423806442624746,0.000590058118386021,-0.00159050648275705,-0.0292264220148246,0.07937108041231,-2.26394523585424,-0.00047659575441124,0
0.33,0.00147001276708557,0.000846455406879976,-0.0731971736440057,-0.042380775875288,0.000589933175619207,-0.00159040973951204,-0.0292261591582621,0.0793712039351681,-2.26394703047572,-0.000451193991223635,0
0.34,0.00146986445397136,0.000846455018718324,-0.0731967718829995,-0.0423807795292565,0.000589816763275316,-0.0015903156282705,-0.0292257193843161,0.0793709973105323,-2.26394864806834,-0.000428268007214477,0
0.35,0.00146973121337955,0.000846454587015957,-0.0731964246157362,-0.0423807451662953,0.00058971222720052,-0.00159023101986871,-0.029225358490489,0.0793707915953974,-2.26395010603853,-0.000407603398147967,0
0.36,0.00146961101130342,0.000846454195582174,-0.0731960986330188,-0.0423807107508442,0.000589617924090734,-0.00159015468849853,-0.0292250254229738,0.0793705952344309,-2.2639514201353,-0.00038897794875297,0
0.37,0.00146950251222392,0.000846453842696481,-0.0731957893517721,-0.0423807113217197,0.00058953280507776,-0.00159008578793259,-0.0292246931405794,0.0793704326673536,-2.26395260455673,-0.000372190463535599,0
0.38,0.00146940489471981,0.000846453524621191,-0.0731955117997356,-0.0423806768118309,0.000589456220287213,-0.00159002379804042,-0.0292244169580472,0.0793702599725886,-2.26395367209844,-0.000357059572545407,0
0.39,0.00146931665190093,0.000846453237924897,-0.0731952411825071,-0.0423806743827628,0.000589386994380439,-0.00158996776017695,-0.0292241339729837,0.0793701133074172,-2.2639546342948,-0.000343421802580338,0
0.4,0.00146923702382113,0.000846452979512758,-0.0731949850958259,-0.0423806748249157,0.000589324528197756,-0.00158991719254724,-0.0292238678671295,0.0793699753601951,-2.26395550154121,-0.000331129811995981,0
0.41,0.0014691657161793,0.000846452746595414,-0.0731947699148869,-0.0423806402034727,0.000589268582211237,-0.00158987191051176,-0.0292236624246372,0.0793698340771876,-2.26395628320698,-0.000320050798863264,0
0.42,0.00146910122209128,0.000846452536657768,-0.0731945572703652,-0.0423806405784033,0.000589217985436015,-0.00158983095428514,-0.0292234426939776,0.0793697190807198,-2.26395698773756,-0.000310065066187822,0
0.43,0.00146904278159996,0.000846452347432927,-0.0731943425461599,-0.042380640925689,0.000589172142618875,-0.00158979384103963,-0.0292232268994441,0.0793696007021604,-2.26395762274481,-0.000301064728717398,0
0.44,0.00146899039470536,0.000846452176877818,-0.073194155826847,-0.0423806412452781,0.000589131044143698,-0.00158976057326377,-0.0292230376384815,0.0793694983652134,-2.26395819508916,-0.000292952547346881,0
0.45,0.00146894353428068,0.000846452023150756,-0.0731939978387803,-0.0423806065189115,0.000589094275863034,-0.00158973081637944,-0.0292228973547181,0.0793693857777026,-2.26395871095404,-0.000285640878560467,0
0.46,0.00146890069344243,0.000846451884591524,-0.0731938177284795,-0.0423806067958548,0.000589060670828505,-0.00158970360954716,-0.0292227217281972,0.079369284492498,-2.26395917591306,-0.000279050727519814,0
0.47,0.00146886227638639,0.000846451759703912,-0.0731936576721968,-0.042380607052463,0.000589030532922346,-0.00158967921285462,-0.0292225651825779,0.0793691946646808,-2.26395959498925,-0.000273110894632398,0
0.48,0.00146882781745127,0.00084645164713885,-0.0731935141931709,-0.0423806072908854,0.000589003497600948,-0.00158965733039438,-0.029222424682609,0.0793691142067203,-2.26395997271114,-0.000267757206303278,0
0.49,0.00146879638531451,0.000846451545680696,-0.073193358689277,-0.0423806075154035,0.000588978842750401,-0.00158963736855001,-0.0292222779001562,0.0793690249651454,-2.26396031315862,-0.000262931821605444,0
0.5,0.00146876832921673,0.000846451454233816,-0.0731932247225258,-0.0423806048140135,0.000588956831864,-0.00158961955180646,-0.0292221522207518,0.079368946252744,-2.2639606200107,-0.000258582607370634,0
0.51,4.63809404524559,-0.0430610045051564,8.09654201259235,2.16549300506284,-1.03457724867584,4.52144009571883,0.382737417402329,8.37238703034978,0.215659524872518,66.1138309157383,3045.59584766483
0.52,4.57480651122916,0.0195931739745548,11.2622588743643,-0.959694744414074,-3.77237863937159,2.58812633170487,-9.85349231593941,5.5378857098514,0.973761583523861,140.974500829252,3045.59584766483
0.53,4.65704614347244,0.00864460506763987,7.15182520142366,-0.397631680848598,-3.50175367961092,-3.07015873839768,-5.10617944708776,-5.02331027505485,2.29247224407914,220.218766720175,3045.59584766483
0.54,4.60721238799724,0.112845637504642,9.6453110449316,-5.61459445810798,3.9849589890511,-2.31500366772926,11.1568627927452,0.283034814740469,-2.07259140110907,301.339985949865,3045.59584766483
0.55,4.62503015765574,-0.0100970880461904,8.75618076478932,0.564847244050454,-1.84708417686929,4.24019881066574,-2.96104876527223,8.25965763239964,0.408642058799466,375.973092556312,3045.59584766483
0.56,4.60434145772184,-0.0422362160829812,9.79268417620474,2.17124901898557,1.48765177452789,-4.35759524910117,1.01756457031231,-9.97875483327362,-2.8217790453407,455.752065135955,3045.59584766483
0.57,4.53622046634114,-0.0764578040524617,13.2007370813791,3.88633180372091,-3.2897978653028,3.12415939422142,-6.69433868079132,12.0228475831298,0.794363754932565,533.076018417355,3045.59584766483
0.58,4.4515497816768,0.0184700649424994,17.4364695262755,-0.831101233837803,4.29639978748771,1.1651546970773,16.5886724429254,5.4348086795166,-1.30182353011268,608.846030540669,3045.59584766483
0.59,4.50861514874284,-0.0342026205931864,14.5855743123604,1.81798171356741,1.3971964183657,-4.28679630344561,2.68182318072282,-14.4517078561529,-2.8341055552814,685.649844993496,3045.59584766483
0.6,4.44976540212339,0.0402492062625011,17.5303953571144,-1.89901610544297,-2.76561466422341,-3.48617378533709,-9.27202736637254,-14.9983509781145,2.4799896360788,762.708369118325,3045.59584766483
0.61,4.45518348928233,-0.0250947694775345,17.2619494905194,1.38187007024754,-3.89099033462176,-2.17013453189175,-15.789116292388,-7.11254327296048,2.07392469655823,839.961409616156,3045.59584766483
0.62,4.42759408624376,0.0379332133259445,18.6440239791462,-1.80254656272336,-3.52147959100232,-2.68406591039938,-13.6256515260442,-12.8526427141104,2.2306260197851,917.31176468533,3045.59584766483
0.63,4.4775173439708,0.0419388678160705,16.1505096340742,-1.96629916807872,-0.903296587931035,-4.38565567599933,-1.18026373418066,-16.2268996230484,2.94783332512979,992.928705813405,3045.59584766483
0.64,4.39878926143009,0.106613866940062,20.0897061991542,-5.21147817999438,3.83220060793685,-2.16216372729381,20.1811095775534,-4.84547378567601,-2.06025104864203,1069.32705478228,3045.59584766483
0.65,4.44484157926231,-0.00106823094857517,17.7900019245756,0.20850983267814,0.99402883955997,4.33226551263649,4.18587844391629,17.2917918816843,-0.225784209664554,1145.04169390305,3045.59584766483
0.66,4.39919270109288,0.112155879690667,20.0754114511015,-5.48618039126467,-3.71002557679342,-2.36668239995076,-13.5768552010983,-15.7730568712892,2.16411837799372,1221.59095396171,3045.59584766483
0.67,4.40443991137293,0.0653947311569203,19.8161717839832,-3.13597453641348,4.08741101529988,1.64208361412051,17.0639834707357,10.5515623760572,-1.17394298602948,1296.87398039606,3045.59584766483
0.68,4.24539566579131,0.0607158249152049,27.7715260496025,-2.84144528190702,-3.13314423346281,-2.86539316374446,-18.2760540157627,-21.102542975356,2.32588863512414,1372.08355339604,3045.59584766483
0.69,4.33659023691255,0.169295676903857,23.2149754833749,-8.26354960088621,-0.247646304067713,4.33282208464474,-10.4532347492501,22.314820679922,0.0961128508765031,1447.60890101972,3045.59584766483
0.7,4.28170038319847,0.101687860089908,25.9627603297182,-4.92243028274745,4.28049248103601,-0.143814853773052,26.0099400670245,4.66671849769117,-1.58063648209753,1523.24666871839,3045.59584766483
0.71,4.29088052865281,0.128483395673591,25.5071163583822,-6.27280229775211,1.69583609071309,-3.94364091260482,16.459034328529,-20.4709848947,-2.70554508923594,1598.7532011665,3045.59584766483
0.72,4.33877781531514,0.0645928998588483,23.1156716264935,-3.02152429673851,-0.660090548665805,-4.28875805343984,-0.183020730869591,-23.3115934082535,3.00376542935812,1673.44013808413,3045.59584766483
0.73,4.21919057474706,0.0882625873279469,29.0985918564546,-4.17473702554944,-0.769515014291909,-4.1493621236445,-0.586655134610302,-29.3906841195311,2.97913839757859,1748.28702619061,3045.59584766483
0.74,4.27356773655075,0.13447311764867,26.3833379539071,-6.51504480052068,1.38776163770415,-4.04420348834902,15.4366504963403,-22.3659596663479,-2.77957890839542,1823.21841385559,3045.59584766483
0.75,4.21578399470933,0.0676998743929007,29.2762316641018,-3.21007822313231,4.16695608050051,-0.643346707631256,29.4402215280375,-0.82200914159455,-1.70792202382075,1898.05788903925,3045.59584766483
0.76,4.25841919448909,0.145450500879472,27.1481089167755,-6.99916449369745,0.520810906128234,4.22895328470972,-4.57523502675797,27.6599954052214,-0.0883938977298516,1972.30907595691,3045.59584766483
0.77,4.27916558665006,0.176470463313696,26.1145344108983,-8.55428034500113,-3.82593844673039,-1.92473243444968,-18.6694113788531,-20.1642678638728,2.07811668737425,2046.89244178326,3045.59584766483
0.78,4.17514418836791,0.16490719665409,31.3194867388476,-7.98014875020503,-2.79084313088808,3.10969741228073,-27.5466778344554,16.9048384773406,0.770889368720037,2121.28680615894,3045.59584766483
0.79,4.1624236042539,0.140937450535278,31.9594096098807,-6.76269589601934,3.13642358107006,-2.74016071541818,29.0401874850011,-14.9601279817439,-2.2550190607333,2195.56266957369,3045.59584766483
0.8,4.19041668431654,0.171942222784041,30.563708361339,-8.28889238565594,-4.18508235928559,0.272473415530634,-30.7538575072321,-7.55289707349672,1.54679146100176,2269.7899865042,3045.59584766483
0.81,4.15082584736888,0.0955259085966547,32.5472825642277,-4.5680426756509,1.67080033044864,3.80090866375022,8.18551474831458,31.8306450532717,-0.391144610045494,2344.28862597317,3045.59584766483
0.82,3.85495160378619,0.190113007564988,33.7226109866604,-9.26256240009921,3.7228644266011,-1.01836893330816,34.92728215953,1.75912333903479,-1.78853217805058,2416.46065648874,3045.59584766483
0.83,3.46256698473975,0.222456294599041,32.9511431922191,-10.8467687025968,1.34397886876093,-3.19884005963733,24.3950175830183,-24.6640091243493,-2.67968293573901,2482.11688202264,3045.59584766483
0.84,3.17154602545974,0.15077305315496,29.0213619690188,-7.32717730888783,-0.0627459090990008,-3.17450778169758,8.12932339663083,-28.8069623349232,-3.11385210753086,2541.16213579579,3045.59584766483
0.85,2.74059605676964,0.117557387419619,34.0023184639862,-5.75787199929143,-0.104935586156707,-2.74110835401962,5.91439298754216,-33.9754426972699,-3.13698759720161,2594.58946692024,3045.59584766483
0.86,2.38930438221093,0.140583995431204,36.5768524369146,-6.81011078937791,0.691084729639133,-2.29149322213341,18.9932343402939,-31.9921989311474,-2.78990934617762,2642.15319462039,3045.59584766483
0.87,2.21142060980214,0.0610296812138856,31.9357536297384,-2.87228724933083,1.86709425099934,-1.18661905990589,28.8884615754917,-13.9139923006791,-2.10935087419693,2685.35389441996,3045.59584766483
0.88,1.98703368727711,0.156696614747766,31.0184603750558,-7.72196457672234,1.86347873699475,0.707321497069006,24.7452295715916,20.2348025543194,-1.12932800172089,2724.24338212603,3045.59584766483
0.89,1.73518359733047,0.0194655165148878,32.6930745166308,-0.898416353785501,-0.18978834169881,1.72488301288323,-4.83180535455564,32.3465288757605,0.120806521092859,2759.17435267556,3045.59584766483
0.9,1.54878860648548,0.0292991539699209,32.1065403580102,-1.41899646159862,1.01822395936707,-1.16740076947612,22.6095224621282,-22.8397237013299,-2.40542721378072,2790.6846385384,3045.59584766483
0.91,1.37615444275792,-0.0296736251435518,31.9127922155897,1.51537704467157,0.857285329689719,1.0769138488525,21.5742757902311,23.5642377069569,-0.693891715333953,2818.72922955059,3045.59584766483
0.92,1.22382769246036,0.0913114404522489,31.6195646200587,-4.55455149174235,-1.1140775361294,0.514706949129473,-31.2086286333861,6.82365773441147,1.212479180659,2843.94177344118,3045.59584766483
0.93,1.01144061168522,-0.0324772746565788,34.992192003942,1.63144705862992,0.186726332557285,-0.994585421703434,3.7374001794846,-34.8302592675427,-2.98810897039648,2866.83443308941,3045.59584766483
0.94,0.968619072495053,0.0210641522249812,30.6703076043405,-1.03959419730314,0.673335640889045,0.696624519248837,20.0679082542209,23.2169675655566,-0.746656972083422,2887.30993870068,3045.59584766483
0.95,0.831747880473188,0.0127819249511577,31.6598590784618,-0.612621738001951,-0.830760496415941,-0.0424842543989714,-31.5492779939418,-2.71386077810052,1.63725714693128,2905.75192580936,3045.59584766483
0.96,0.759636832036081,0.0522421529660905,29.992631657625,-2.56097656661103,0.614611319935872,-0.449477790929686,26.7334852307616,-13.8360876746772,-2.13357048951517,2922.28868791645,3045.59584766483
0.97,0.635884277737527,0.0527077022435869,31.4145564589155,-2.55920397633792,-0.255085619399322,0.584857455560959,-17.1478724780969,26.445686831274,0.493976598467403,2937.26084408864,3045.59584766483
0.98,0.516159810686126,0.0201345574937422,33.1262864269038,-0.917794288367246,0.0233109491312359,-0.516026113896969,3.69823857896133,-32.9319940211053,-3.05746076160257,2950.69230919686,3045.59584766483
