t,iq,id,vq,vd,ia,ib,va,vb,theta_e,omega,r
0,0,0,0,0,0,0,0,0,0,0,0
0.01,0.00126043627883307,0.000716179484603226,-0.0616925330330801,-0.0358771469802921,0.000420370329252517,-0.00138740817838487,-0.0200079451330662,0.0685041636620387,-2.33068667768293,-0.00424687472614351,0
0.02,0.00140421628953391,0.000799245290312625,-0.0690084877662092,-0.0400383263533014,0.00046733116451748,-0.00154667967095648,-0.0224426069890914,0.0765608800399114,-2.3307175451658,-0.00445392320613884,0
0.03,0.00144126861308005,0.000820648848670162,-0.0708757665791956,-0.0411105538687287,0.00047939726358957,-0.00158773360849236,-0.0230551521711031,0.0786251352046503,-2.33074816891978,-0.00428092822124798,0
0.04,0.00141950942995915,0.000809213619478071,-0.0698966043881487,-0.0405377016576474,0.000471459526540798,-0.00156446783876361,-0.0227378990743636,0.0775359820106888,-2.33077549533324,-0.00393009510870133,0
0.05,0.00143912655359677,0.000820710513673189,-0.0709120282708768,-0.041113626473189,0.000477716582372777,-0.00158632841853353,-0.0230750817923328,0.078653586285329,-2.33080205990678,-0.00373514793858948,0
0.06,0.0014382468854534,0.000820792580520641,-0.0709337237371293,-0.0411177638648133,0.000476983155231729,-0.00158579369193452,-0.0230860084273635,0.0786721035904699,-2.33082682836309,-0.00348468244479687,0
0.07,0.00147704034770959,0.000843250080137888,-0.0728646719959375,-0.0422427753781354,0.000489592136231,-0.00162880889810787,-0.0237086758109081,0.0808183839730567,-2.33084963814645,-0.00339594919242327,0
0.08,0.00143669477075081,0.000820954691984383,-0.0709736407316427,-0.0411258648356887,0.000475676144844789,-0.00158486298329524,-0.0231058671290962,0.0787065012651444,-2.33087120393014,-0.00303602714508931,0
0.09,0.00143552245469465,0.000820775655461397,-0.0709683880347979,-0.0411169182151282,0.000474918428061579,-0.00158393493591693,-0.0231066643587402,0.0786968558836992,-2.33089102309995,-0.0028339313402383,0
0.1,0.00143473769281894,0.000820768867038758,-0.0709781542621173,-0.0411165795969468,0.000474325201329062,-0.00158339804966396,-0.0231125279443354,0.0787037645365919,-2.3309094211903,-0.00264741307663212,0
0.11,0.00143401183713966,0.000820763802250796,-0.0709873486315838,-0.0411163080508109,0.000473775584575791,-0.00158290235441158,-0.0231180343294959,0.0787102975614465,-2.33092650165053,-0.00247426191218355,0
0.12,0.00143333785978641,0.000820759108773076,-0.0709958758270726,-0.041116067889821,0.000473265262792287,-0.00158244207665406,-0.0231231316388912,0.0787163655562424,-2.33094235885895,-0.00231351138371383,0
0.13,0.0014998330052803,0.000858751592107547,-0.0742454108149581,-0.0430193062571474,0.000495252652437365,-0.00165580136215946,-0.0241655017662054,0.082335109536064,-2.3309581448446,-0.0023941856943768,0
0.14,0.00161706839562816,0.000926848665015583,-0.0802679775065487,-0.0464306499847418,0.000533268841247392,-0.00178594036488771,-0.0261783778198175,0.088957551707094,-2.33097250866399,-0.00267089924741813,0
0.15,0.00143302894952503,0.000821570517283781,-0.0710939853513953,-0.0411567194563275,0.000472413194770799,-0.00158283791288091,-0.0231627839812698,0.0788144387012195,-2.33098601946693,-0.0018764497246664,0
0.16,0.00143100173534961,0.000820749148926514,-0.0710261856590658,-0.0411155735236836,0.000471491691064073,-0.00158085126349531,-0.0231410875868851,0.0787381705448738,-2.33099762210978,-0.00175333212724902,0
0.17,0.00143053151496377,0.000820739605170713,-0.0710313453308295,-0.0411150875157943,0.000471140487418023,-0.00158052540502069,-0.0231443141190515,0.0787416228236226,-2.3310083859422,-0.00164416909203393,0
0.18,0.00143010642127989,0.000820736594974075,-0.0710366839279039,-0.0411149469436081,0.000470818709473785,-0.00158023500699265,-0.0231474929177421,0.0787454309612419,-2.33101837883508,-0.0015428669362844,0
0.19,0.00142971206124426,0.000820733845458535,-0.0710416512300614,-0.0411148121556588,0.000470520160410845,-0.0015799656331058,-0.023150454945878,0.0787489709385949,-2.3310276560658,-0.00144882009476835,0
0.2,0.00142934610654199,0.000820731292902352,-0.0710462676282578,-0.0411146773314111,0.000470243114737611,-0.00157971565810996,-0.0231532149692965,0.0787522537617663,-2.33103626888875,-0.00136150860785858,0
0.21,0.00142900606957749,0.000820728922890928,-0.0710505355960974,-0.0411145736309537,0.000469985703548768,-0.00157948338079854,-0.0231557495734463,0.0787553048057034,-2.33104426488708,-0.00128045010694273,0
0.22,0.00142869075553104,0.000820726722385365,-0.0710545131096186,-0.0411144387277899,0.000469746999366079,-0.00157926799003964,-0.0231581402525798,0.0787581198682904,-2.33105168823563,-0.00120519677210105,0
0.23,0.00142839786676478,0.000820724679277253,-0.0710581946869966,-0.0411143349347082,0.000469525280026333,-0.00157906791379254,-0.0231603368735244,0.0787607412687523,-2.33105857994565,-0.00113533285491792,0
0.24,0.00142812554064609,0.00082072278232139,-0.0710615886421151,-0.0411142680546322,0.000469319142764233,-0.00157888187889471,-0.0231623384711169,0.0787631798149284,-2.33106497809165,-0.00107047238159051,0
0.25,0.00142787328082701,0.000820721021074195,-0.0710647644000318,-0.0411141670732561,0.000469128178746241,-0.00157870955290674,-0.0231642415141271,0.0787654327001054,-2.33107091802148,-0.00101025702057752,0
0.26,0.00143975565159646,0.000827495330676429,-0.071652272623215,-0.0414535414495405,0.000473061681714533,-0.00159180950615602,-0.0233556734119024,0.0794163508999051,-2.33107638590651,-0.000998243477815009,0
0.27,0.00138548480034989,0.000796811662624523,-0.0690473770018036,-0.0399164153556064,0.000454871281052288,-0.00153217788633333,-0.0225269120564591,0.0765075075980851,-2.33108178386999,-0.000749852664254845,0
0.28,0.00136156957152854,0.000782722079574968,-0.0676081356623881,-0.0392105976598299,0.000447243558332456,-0.00150548953882008,-0.0219700145564823,0.075004329454858,-2.33108665821484,-0.000615476325356614,0
0.29,0.00142648340821718,0.000820419952619705,-0.0710488036243452,-0.0410990714951129,0.000468297263410215,-0.0015775428633346,-0.0231615198459469,0.0787439532449126,-2.33109070899062,-0.000807661369636548,0
0.3,0.00142382486670746,0.000819051216534391,-0.0709276131098509,-0.0410305128903288,0.000467309731841487,-0.00157472021670112,-0.0231207322483942,0.0786108200555254,-2.33109344462622,-0.000770818725568408,0
0.31,0.00142672449908957,0.000820700266197782,-0.0710775578968438,-0.0411131464225062,0.000468268344604541,-0.00157791523241295,-0.0231721350583737,0.0787741213989347,-2.33109733001797,-0.000742415443953397,0
0.32,0.00142659629629246,0.000820712012905453,-0.0710807149305242,-0.0411137193216227,0.000468161633813006,-0.00157783709087733,-0.0231737425319014,0.0787767961303121,-2.33110095286255,-0.000705781086928638,0
0.33,0.0014264533811496,0.000820711114741922,-0.07108248938444,-0.0411136918716836,0.000468053385977495,-0.0015777395255013,-0.0231747822930735,0.0787780770397286,-2.33110431638101,-0.000671684545994352,0
0.34,0.00142632086981433,0.0008207101891533,-0.0710841422863264,-0.0411136216451374,0.000467953076556929,-0.00157764899657334,-0.0231757824227404,0.078779237610274,-2.33110743901511,-0.000640029179520659,0
0.35,0.00142619751243379,0.000820709329105454,-0.0710856566619652,-0.0411135882996274,0.000467859708469898,-0.00157756471833758,-0.0231766743679809,0.0787803242642135,-2.33111033801532,-0.000610640869509815,0
0.36,0.00142608300261737,0.000820708530616174,-0.071087059983672,-0.0411135549183262,0.000467773037068667,-0.00157748648437059,-0.0231775022165984,0.0787813295530355,-2.33111302939711,-0.000583357262128316,0
0.37,0.00142597687470376,0.000820707789286702,-0.0710883685784412,-0.0411135215027559,0.000467692704405041,-0.00157741397763303,-0.0231782766281249,0.0787822650731241,-2.33111552803014,-0.000558027624939914,0
0.38,0.0014258781973704,0.000820707101027011,-0.071089572672787,-0.0411134880568453,0.000467618016589485,-0.00157734655988256,-0.0231789894313938,0.0787831244108734,-2.33111784771788,-0.000534512020458499,0
0.39,0.00142578662136576,0.000820706462039161,-0.071090688960149,-0.0411134516712599,0.000467548702880273,-0.00157728399374792,-0.0231796537189299,0.0787839172586904,-2.33112000127647,-0.000512680533104443,0
0.4,0.00142570179745497,0.000820705868797378,-0.0710917316920998,-0.0411134181679313,0.00046748449381963,-0.00157722604162593,-0.0231802748688265,0.0787846579318483,-2.33112200060334,-0.000492412551454382,0
0.41,0.00142562302714058,0.000820705318027941,-0.0710926954185585,-0.0411133846393999,0.000467424868050006,-0.00157717222499043,-0.0231808500660301,0.0787853408230199,-2.33112385674374,-0.000473596101921321,0
0.42,0.00142554984476129,0.000820704806690487,-0.0710935841494581,-0.0411133510874705,0.000467369474024156,-0.00157712222556598,-0.0231813814075678,0.0787859689341609,-2.33112557995278,-0.000456127230124778,0
0.43,0.00142548162538302,0.000820704331963041,-0.0710943920452287,-0.0411133514990719,0.000467317845801233,-0.00157707561511908,-0.0231818404900555,0.078786563088261,-2.33112717975025,-0.000439909426588685,0
0.44,0.00142541857113637,0.000820703891225242,-0.0710951527786611,-0.0411133179029282,0.000467270117679649,-0.00157703253521808,-0.023182297860269,0.0787870974432119,-2.33112866497481,-0.00042485309355172,0
0.45,0.00142536005708693,0.000820703482043949,-0.0710958569531785,-0.0411132842874976,0.000467225825534704,-0.0015769925572847,-0.0231827226397669,0.0787875903414939,-2.33113004383164,-0.000410875049979335,0
0.46,0.00142530534188022,0.000820703102160517,-0.0710964878404973,-0.0411132817257895,0.000467184421695084,-0.00157695517235387,-0.0231830806928756,0.0787880529465333,-2.33113132393846,-0.000397898072009694,0
0.47,0.00142525509331825,0.00082070274947731,-0.0710970976586086,-0.0411132480736876,0.000467146380325201,-0.00157692084245795,-0.0231834521275737,0.0787884763788132,-2.33113251236742,-0.000385850466325045,0
0.48,0.00142520794511314,0.000820702422047167,-0.0710976355917579,-0.0411132483863446,0.000467110702376077,-0.00157688862767585,-0.0231837547717399,0.0787888729091836,-2.33113361568417,-0.000374665674067866,0
0.49,0.00142516468147012,0.000820702118062657,-0.0710981571213217,-0.0411132147029947,0.000467077947702727,-0.0015768590700098,-0.0231840751835118,0.0787892316699939,-2.33113463998477,-0.000364281903125256,0
0.5,0.001425124052523,0.000820701835844783,-0.0710986148324391,-0.0411132149844569,0.000467047202869294,-0.00157683130953522,-0.0231843317239975,0.0787895693601719,-2.3311355909273,-0.000354641786749032,0
0.51,4.60139771600075,-0.0208465830523019,9.93175165471019,1.05480292199581,-1.08981450959467,4.47052567999769,-1.28260158183301,9.90490955624376,0.234583411914267,71.9394730792828,4317.23477298354
0.52,4.61956973176431,-0.0171619823425891,9.02495440809225,0.883909875888093,-4.03785852850772,2.24419641387032,-7.43983660338741,5.18458581293946,1.05980458742222,153.599918375381,4317.23477298354
0.53,4.55213499132755,0.0281917441327555,12.3986862058266,-1.37862654743454,-2.74567677166103,-3.63097601469177,-6.31213088720154,-10.7603454614934,2.50034013210629,241.22924273934,4317.23477298354
0.54,4.47515407303855,0.0899189469134214,16.2498356889903,-4.4625873662438,4.43304141203839,-0.619058344261878,16.6638555423782,2.50754150180865,-1.68945524000505,327.613264424939,4317.23477298354
0.55,4.57757947794539,-0.00783206250913326,11.1308680412998,0.457665290348575,-3.87979572454647,2.4292962672142,-9.18045531915115,6.31069893148837,1.00966651625482,410.565309141846,4317.23477298354
0.56,4.54031729272032,-0.00225461508381297,12.9962703474077,0.185425245098025,4.22829634565748,-1.6540847061635,12.0331448566096,-4.91333393168817,-1.94418503832926,495.237183444328,4317.23477298354
0.57,4.46431433677234,0.0694598278522043,16.7988800011561,-3.40670927714038,-4.088739504064,-1.79363776529789,-13.8599859512868,-10.0850794157671,1.99975226212896,580.831427845142,4317.23477298354
0.58,4.48101846908319,0.127886255295437,15.9662462651403,-6.32738623987156,-1.10550667302901,4.3443913739955,-10.4621801238793,13.6198246495,0.277710791776369,665.197077045861,4317.23477298354
0.59,4.43462426040836,0.141601502198349,18.2886513469461,-7.00440965291323,3.36095837591419,2.89653277416284,8.72593456297238,17.532672034767,-0.827561427024026,748.927375599847,4317.23477298354
0.6,4.41739917245679,0.0508150536206765,19.1525718360296,-2.43710524107154,4.28908009221557,1.0582011061497,17.9300300037493,7.16062245583323,-1.31740437839071,832.290231786199,4317.23477298354
0.61,4.45486903880661,0.0449233352174554,17.2818074432538,-2.11184225515707,4.15824948767297,1.59901139996945,15.2891284052924,8.3284631729299,-1.19360479796565,915.373259372385,4317.23477298354
0.62,4.4446867371304,0.0639521770221658,17.7938300726569,-3.09285788512324,2.01381864337271,3.96281018265741,5.05508904672998,17.3387494728365,-0.455782263458034,1000.09637904472,4317.23477298354
0.63,4.31829061622358,0.040949726262975,24.1167002465748,-1.89790927216148,-3.34070669906484,2.7366018119319,-19.9890680117339,13.6255073450779,0.893958619958319,1082.30359277242,4317.23477298354
0.64,4.37266720467277,0.120755666611741,21.4009475940189,-5.91559966242774,-1.36048672722594,-4.15738815590771,-0.421149486398375,-22.1994934716575,2.85294008714097,1166.39710290588,4317.23477298354
0.65,4.31763203939724,0.0541068587934391,24.1558798576745,-2.57717564441334,3.3139831387093,2.76810219033701,16.6670121196912,17.6736830627526,-0.862379641035083,1249.20362643632,4317.23477298354
0.66,4.28886461143866,0.224400187045093,25.5974347643406,-11.0455328486099,-3.30939810679958,-2.73726127176565,-11.3702630714362,-25.4548537632949,2.31412896065059,1331.73902681581,4317.23477298354
0.67,4.26860499030951,-0.0140694273384088,26.6136947964127,0.912124256920584,0.76979533408919,4.19864283497601,5.78233452631545,25.9939479264395,-0.184625959942287,1414.56426534297,4317.23477298354
0.68,4.26238718353996,0.00401793249958504,26.9280279531585,-0.0449918075560347,3.7245374656951,-2.07262666990966,23.5642750242417,-13.0324846553038,-2.0776575133904,1497.47807382046,4317.23477298354
0.69,4.37081666890083,0.108346503278181,21.5099504597375,-5.24793868360671,-1.07459556897263,-4.23804455864475,0.348925682558911,-22.1381363279592,2.91805042837382,1580.18949743914,4317.23477298354
0.7,4.3811479906034,0.146306146095559,20.9969070800412,-7.09256256857235,-3.54008134079672,-2.58528282872425,-12.1620702788875,-18.5272393315464,2.23494472873729,1661.92144605225,4317.23477298354
0.71,4.31558184599414,0.183558749143993,24.2788478289057,-9.01240593699314,-3.70302862826606,-2.22385239215724,-15.2998010650219,-20.8950233319579,2.15412818225354,1744.68761412466,4317.23477298354
0.72,4.22079030959545,0.0776908102491434,29.0221441991333,-3.63276999534179,-1.96554036538711,-3.73600826706873,-9.79222329068429,-27.5607371958684,2.67568280129509,1826.02645129737,4317.23477298354
0.73,4.1661564419612,0.150013394104222,31.7576446721164,-7.28697334494813,2.42163476047689,-3.39338306180654,25.1411808927421,-20.7260463902021,-2.48578252644951,1908.22121638163,4317.23477298354
0.74,4.28637016906129,0.0811558698498798,25.7507363228077,-3.84552021860339,3.02432870644214,3.03858377814725,15.0404608039291,21.2525995050942,-0.764115765518913,1990.32611679934,4317.23477298354
0.75,4.22591850740088,0.0453379806099916,28.7772250155092,-2.05152285331545,-4.22493407684776,0.101856811110629,-28.8020905141995,-1.66643560415056,1.55742063782376,2071.9881573271,4317.23477298354
0.76,4.16234614582312,0.129223691340685,31.9598137995616,-6.23896996063236,4.01704053443824,-1.09782036086623,32.5330510400458,-1.39822541033022,-1.80653693760894,2153.43649828768,4317.23477298354
0.77,4.19468502307971,0.115608660658996,30.3467696973193,-5.51000647574363,3.21331077007919,-2.69877411062165,27.1930899761981,-14.5541217519735,-2.24182812313588,2234.82555014269,4317.23477298354
0.78,4.1428932135914,0.217798969907058,32.9404317689328,-10.583686077036,-4.02041557345617,-1.02335682302183,-28.306323777544,-19.8956902444175,1.87256675758313,2316.0174289154,4317.23477298354
0.79,4.10785542695408,0.157988945283232,34.6964603650315,-7.6674689871911,-1.06304635406669,3.97106650217461,-17.5787099138606,30.8807933883843,0.300006213354856,2397.67428531269,4317.23477298354
0.8,4.08761535202117,0.111497401825249,35.7126468599931,-5.24065763452369,2.64931814178554,3.11482653133348,18.3045091218311,31.1095256151177,-0.677543614487735,2478.36284205531,4317.23477298354
0.81,4.07060293001881,0.213718731184101,36.5675141133972,-10.4016126929467,3.6569460349537,1.80061922886909,26.836521639878,26.9291244068561,-1.06080580298611,2559.54863980479,4317.23477298354
0.82,4.04978344686655,0.147012108298135,37.6127959361013,-7.09680060902885,3.14199933287963,2.55933560102706,23.6028375293361,30.13292315025,-0.850957057710813,2640.64307935576,4317.23477298354
0.83,4.02912173856665,0.160939675460685,38.6502096397166,-7.80206017930439,0.356069714166668,4.01658286631572,-5.91924572532111,38.9829883189937,-0.0484958878608318,2721.4726427861,4317.23477298354
0.84,4.02010179051053,0.165036173966035,39.1055589079643,-7.99791092316114,-3.88195633062245,1.05776670013932,-39.9042579406306,0.928178240808154,1.34580144678808,2802.13827538155,4317.23477298354
0.85,3.9988709591675,0.152181280648704,40.1714644185717,-7.32235874430299,0.605852222103974,-3.95563789738454,14.7780236761316,-38.0653846340811,-2.95157431682475,2882.7108053282,4317.23477298354
0.86,3.95629704365783,0.211392761629393,42.3045481293949,-10.2216811569951,1.64583868315518,3.60391290493472,5.98427776466993,43.1085371793434,-0.375014757034349,2963.01391691192,4317.23477298354
0.87,4.00192051814699,0.20128416220078,40.0277915771972,-9.76764850327564,-1.56211316426028,-3.68994384910712,-4.55866352837389,-40.9493546062225,2.79138058847731,3043.53640552643,4317.23477298354
0.88,4.01024513433701,0.10628901070258,39.6159552372574,-4.96529967740358,-2.179485419272,-3.36796774011429,-16.3955220325277,-36.404188873366,2.59374158250524,3123.66503468264,4317.23477298354
0.89,3.9379623744119,0.169886940390626,43.2344379947173,-8.22309616379769,-2.25635847344417,3.2319120771017,-32.7875224722249,29.3566740175291,0.652597167971803,3203.97562726075,4317.23477298354
0.9,3.98763765351049,0.174620764486511,40.7550174295309,-8.30699620634099,2.70551729667396,2.9346077462725,19.9395323439796,36.5019544895465,-0.701039934596605,3283.7129188167,4317.23477298354
0.91,3.93147769043153,0.214925094549313,43.5673202324353,-10.3430031787848,3.93284736119112,0.188205367085846,42.2813612700614,14.7436629147059,-1.46836467023658,3363.651654552,4317.23477298354
0.92,3.90425757896648,0.216069688134239,44.9326102835316,-10.4030332602497,3.87508839623629,-0.523071003213218,45.6126800900882,6.82978644650522,-1.6496826733727,3443.58755135977,4317.23477298354
0.93,3.91853943687676,0.17692152109788,44.2226860102137,-8.41409767526563,3.76998596216397,1.0832628434838,39.22273159179,22.0911820445458,-1.24587627985493,3523.36856246437,4317.23477298354
0.94,3.45520284038762,0.296731834974064,46.6106338201939,-14.4432594160314,1.20451902574633,3.25201635400637,-1.53357915147094,48.7730157224787,-0.269054667372634,3598.76147073476,4317.23477298354
0.95,3.07798574966157,0.209839044164457,46.8977517600432,-10.2758582626957,-2.83469210800209,1.21759983262409,-47.6538732821198,5.83958426545187,1.23315948597117,3667.00594064929,4317.23477298354
0.96,2.80489393495506,0.152362702955605,43.6568944180384,-7.31812699274323,2.00833191586439,1.96398760060243,24.1183248320916,37.1185374200464,-0.742294055119829,3728.49439317279,4317.23477298354
0.97,2.41256240797256,0.100201724015824,48,-4.85886012955373,-2.41139637836062,-0.125160953525293,-47.337937373007,-9.31279802357127,1.66416318566122,3784.17050579275,4317.23477298354
0.98,2.25537135036959,0.196747377914423,42.1865033163058,-9.59032307526065,2.13357874051446,-0.757133552822005,43.2428010960871,-1.31738836673328,-1.82478435605439,3834.36559161857,4317.23477298354
