t,iq,id,vq,vd,ia,ib,va,vb,theta_e,omega,r
0,0,0,0,0,0,0,0,0,0,0,0
0.01,0.000604168984754739,0.000345325240689144,-0.0296007047273148,-0.0172860180701119,-0.000220492084304766,0.000660040093293981,0.010558218135539,-0.0326118409611645,0.841656362301565,-0.00139061081801123,0
0.02,0.000672673429270372,0.000384323772807861,-0.0330333729637812,-0.0192381778073157,-0.000245589464835669,0.000734765349995058,0.0118171562583031,-0.0363547250392162,0.841645862982417,-0.0015067220291884,0
0.03,0.000699827479402529,0.000399831848112302,-0.0343709091926428,-0.0200144747907327,-0.000255498993569541,0.00076442414403049,0.0122970030941266,-0.037824890148959,0.841634995615525,-0.00152378409031113,0
0.04,0.000684301811587163,0.000391112127563721,-0.0336316963622038,-0.0195779898901535,-0.000249722748916863,0.000747580239400627,0.0120361718206204,-0.0370070163110041,0.841624694850838,-0.00144270052337966,0
0.05,0.00070003786691653,0.000400157851913053,-0.034412945662993,-0.0200307942834412,-0.000255422959187149,0.000764812678689883,0.0123166995842339,-0.0378653200195295,0.841614429513277,-0.00143545122571234,0
0.06,0.000700645020386081,0.000400595447638065,-0.0344579784001475,-0.0200526962171819,-0.000255576496602856,0.000765546087211191,0.0123353088486831,-0.0379117799187959,0.841604402056546,-0.00139357173952949,0
0.07,0.000718779164055444,0.000411101794548954,-0.0353548441223053,-0.0205786085288889,-0.000262091777149944,0.0007854655132544,0.0126533411366813,-0.0389016335129585,0.841594787511934,-0.00139478539096746,0
0.08,0.000701237943473205,0.000401123589427056,-0.0345163665968701,-0.0200791373161066,-0.00025565210656344,0.000766339864401592,0.012360506627433,-0.0379706359483454,0.841585276102476,-0.00131236076795311,0
0.09,0.000700193670946948,0.000400637185026305,-0.034479669924056,-0.0200547775673852,-0.000255190495894507,0.000765283700117205,0.0123490264924811,-0.0379281331736371,0.841576157116094,-0.00127051261862385,0
0.1,0.0006999814702045,0.000400611937520166,-0.0344829922234183,-0.0200535172940903,-0.000255042327222459,0.00076512573766556,0.012352008805595,-0.0379295160397705,0.841567329896119,-0.00123188600713979,0
0.11,0.000699816010756131,0.000400609143455482,-0.034488157436859,-0.0200533774258094,-0.000254914267552446,0.000765015588683629,0.012355629347616,-0.0379329589275061,0.841558780829667,-0.00119457097701662,0
0.12,0.000699657769082559,0.000400607489361105,-0.0344932568765738,-0.0200532914242401,-0.000254791038236393,0.000764911028292972,0.0123591751054338,-0.0379363948947714,0.841550500937824,-0.00115843557400724,0
0.13,0.000732631393683063,0.000419546374763456,-0.0361098614296089,-0.0210013165845048,-0.000266752949106656,0.000801006107174001,0.0129326343353243,-0.0397205785443382,0.841542203553951,-0.00120031387191303,0
0.14,0.000764165169156341,0.000437878045645036,-0.0377457784854416,-0.0219189607039063,-0.000278045427758955,0.000835689134015751,0.0135407187675508,-0.0414949824324521,0.841534162626665,-0.00123990688849089,0
0.15,0.000702445054437972,0.000402413545848462,-0.0346662080391769,-0.02014369938875,-0.000255647483320716,0.000768121136708581,0.0124269792186224,-0.0381193493173709,0.841526310711537,-0.00106052272735241,0
0.16,0.000699219651899986,0.000400689374336154,-0.0345205695097275,-0.0200573969485162,-0.000254385722755357,0.000764688171980756,0.0123756116179888,-0.0379580443214212,0.841519035725013,-0.00102149862099661,0
0.17,0.000698930597593571,0.000400604325797232,-0.0345173703490496,-0.0200531417395908,-0.000254221484589286,0.000764433936238561,0.0123757947357391,-0.0379528266944693,0.841512006315734,-0.000990456168832971,0
0.18,0.000698792828196703,0.000400598945199782,-0.0345211856968072,-0.0200528717573016,-0.000254117138864806,0.000764339853317547,0.0123785611832726,-0.0379552519509515,0.841505199052184,-0.000960729592649426,0
0.19,0.000698666525869322,0.00040059747404122,-0.0345252269517724,-0.0200527953026231,-0.000254018903555525,0.000764256270641571,0.012381375224787,-0.0379579694275567,0.84149860615315,-0.000931955910832995,0
0.2,0.000698544589122984,0.000400596230797844,-0.034529159182043,-0.0200527290473013,-0.000253923931256238,0.000764175712946843,0.0123841090213983,-0.0379606193285814,0.84149222083016,-0.000904089002950648,0
0.21,0.000698426361037589,0.000400595035432692,-0.0345329603407065,-0.0200526794572448,-0.000253831847008818,0.000764097610027424,0.0123867415802804,-0.0379631918617385,0.841486036545385,-0.000877099511714278,0
0.22,0.000698312049490416,0.000400593878046546,-0.0345366508925486,-0.0200526132256756,-0.000253742807479988,0.000764022094735519,0.012389310117546,-0.037965675904211,0.841480046969578,-0.000850959771660912,0
0.23,0.000698201213774649,0.000400592757040469,-0.0345402183512441,-0.0200525636527004,-0.00025365648035799,0.000763948873866618,0.0123917829033074,-0.0379680880381738,0.841474245972578,-0.000825643026834317,0
0.24,0.000698094003557694,0.000400591671254859,-0.0345436795450397,-0.0200524974423513,-0.000253572973392964,0.000763878047888943,0.0123941944495831,-0.0379704147216201,0.841468627616551,-0.000801123365599707,0
0.25,0.000697990036342607,0.000400590619584142,-0.034547024513004,-0.0200524478843393,-0.000253491997652763,0.000763809362641211,0.0123965149302964,-0.0379726742071082,0.841463186151448,-0.000777375692230563,0
0.26,0.000704997416479435,0.000404649585338176,-0.0348959305410152,-0.0202556299580214,-0.000256008013358542,0.000771506669610346,0.0125210702459129,-0.0383567375205004,0.84145795446594,-0.00077129491466192,0
0.27,0.00068266971448861,0.000391872401330747,-0.0338180184260573,-0.0196160408497481,-0.000247870640377893,0.000747102445213064,0.0121433750545318,-0.0371616182528306,0.841452723743297,-0.000696077571221211,0
0.28,0.000680814260352402,0.000390810863977775,-0.0336509538976712,-0.0195629012795223,-0.000247190889392674,0.000745075736219817,0.0120540376210645,-0.0370107279275278,0.84144777147673,-0.000670314517932615,0
0.29,0.000696759563668906,0.000400111782815485,-0.0345182181014461,-0.0200284912186622,-0.000252878281702582,0.000762637464956331,0.0123902375353943,-0.0379358650252177,0.841443077057918,-0.000687620895767647,0
0.3,0.000692439291148694,0.000397738308480786,-0.0343145744339231,-0.0199096726876822,-0.000251235533149083,0.000757989868562212,0.0123174205087363,-0.0377116193914137,0.84143887757366,-0.000659299609913701,0
0.31,0.000697185298097138,0.000400446719705107,-0.0345523230034709,-0.0200452418023834,-0.000252965891799092,0.000763173094908138,0.0124041744816126,-0.0379711890685809,0.841434400011119,-0.000651146105072651,0
0.32,0.00069734407208558,0.000400577491223574,-0.0345667767536131,-0.0200517967937025,-0.000252993798085726,0.000763377507841324,0.0124104172759116,-0.0379857625015982,0.841430037548993,-0.000632678264975924,0
0.33,0.000697275611949892,0.00040058306778568,-0.0345699678471466,-0.0200520673470124,-0.000252935812045083,0.000763337113077687,0.0124124556958871,-0.0379881432217937,0.841425811139486,-0.0006142619581181,0
0.34,0.000697197937986181,0.0004005825868553,-0.0345725045529246,-0.0200520504482268,-0.000252875094853833,0.000763286027663635,0.0124142028020022,-0.037989871900692,0.841421717731296,-0.000596398914263292,0
0.35,0.000697122184853336,0.000400581835291436,-0.034574935207335,-0.0200520175440971,-0.000252816088948927,0.000763235987456509,0.0124158863857242,-0.0379915163877013,0.84141775319857,-0.000579096946809954,0
0.36,0.000697048760026298,0.000400581093474034,-0.0345772858510386,-0.0200519846391376,-0.000252758908163647,0.000763187474115616,0.0124175150446233,-0.037993106018187,0.841413913486726,-0.000562339655467845,0
0.37,0.00069697797116325,0.000400580374305292,-0.0345795779907683,-0.0200519351154841,-0.000252703770249837,0.000763140703322084,0.0124191157400221,-0.0379946427819916,0.841410194666267,-0.000546109954822382,0
0.38,0.000696909086532188,0.00040057967771546,-0.034581781028128,-0.0200519022098959,-0.000252650126746928,0.000763095188390355,0.0124206433653655,-0.0379961311149309,0.841406592930779,-0.000530391237153742,0
0.39,0.000696842530206933,0.000400579003026925,-0.0345839219505958,-0.0200518693024701,-0.000252598291444485,0.000763051212390474,0.0124221289787102,-0.0379975766548938,0.841403104594238,-0.000515167414608679,0
0.4,0.000696777952941519,0.000400578349553155,-0.0345859889665472,-0.020051836394114,-0.000252548001654552,0.000763008543003547,0.012423563653134,-0.0379989715877544,0.841399726085954,-0.000500422905699504,0
0.41,0.000696715471151267,0.000400577716628248,-0.0345879933402631,-0.020051803484194,-0.000252499341951449,0.000762967258219328,0.012424955656982,-0.0380003234617398,0.841396453948164,-0.000486142619504157,0
0.42,0.000696654968420856,0.000400577103606814,-0.0345899344450432,-0.0200517705726913,-0.00025245222338716,0.000762927280850782,0.0124263043965903,-0.0380016318999003,0.841393284831872,-0.00047231194022891,0
0.43,0.000696596195299436,0.000400576509863635,-0.0345918049800714,-0.0200517528125545,-0.000252406457895808,0.000762888445038115,0.0124275942078998,-0.0380029033738063,0.841390215493673,-0.000458916712250536,0
0.44,0.000696539476066011,0.000400575934793037,-0.0345936260811397,-0.0200517198964719,-0.000252362285234252,0.000762850967257022,0.012428860928081,-0.0380041294108771,0.841387242791975,-0.000445943225627445,0
0.45,0.000696484561269443,0.000400575377808607,-0.0345953901070559,-0.0200516869788381,-0.000252319517466528,0.000762814681622381,0.0124300886458571,-0.0380053162546087,0.841384363683858,-0.000433378202068226,0
0.46,0.000696431201461898,0.000400574838341986,-0.0345970891671725,-0.0200516706637415,-0.000252277966724131,0.000762779422236802,0.0124312603014178,-0.0380064710617393,0.841381575223358,-0.000421208781341106,0
0.47,0.000696379662708716,0.00040057431584273,-0.0345987411011958,-0.0200516377416895,-0.000252237829546515,0.000762745366746229,0.0124324112194375,-0.0380075809961951,0.841378874555753,-0.000409422508110054,0
0.48,0.000696329620737368,0.000400573809777854,-0.0346003339821805,-0.0200516214195812,-0.000252198862397135,0.000762712299364434,0.0124335102729359,-0.0380086629010472,0.841376258917373,-0.000398007319189037,0
0.49,0.00069628128340459,0.000400573319630939,-0.0346018824899659,-0.0200515884932067,-0.000252161218531337,0.000762680358924028,0.0124345904339143,-0.038009701836388,0.841373725630836,-0.000386951531194402,0
0.5,0.000696234384646454,0.000400572844901806,-0.0346033773815365,-0.0200515721642958,-0.000252124697922679,0.000762649368408675,0.0124356225862076,-0.0380107164279022,0.841371272103652,-0.000376243828587633,0
0.51,-0.00121074653834668,0.000739974737445296,0.237210646763431,-0.0370410662393464,0.00139583531496837,-0.00025517359907099,-0.201542134352553,0.130467235759367,0.841388312872358,0.00404474025111255,0.416985374583856
0.52,-0.00135963364993968,0.000775994545538384,0.245406500865206,-0.0388441196919433,0.00153085572264716,-0.000327493439922178,-0.208858491585949,0.134578403891517,0.841419342970187,0.00426162205321007,0.416985374583856
0.53,-0.00136654073242339,0.000777733332862244,0.246696534316444,-0.0389311593337713,0.00153717451503516,-0.000330752506783677,-0.209882507600035,0.135366717528117,0.841450196562823,0.00414463135454512,0.416985374583856
0.54,-0.00136634785350049,0.000777807174142652,0.247639966401033,-0.0389348713640217,0.00153708979974236,-0.000330522925742189,-0.210592483020125,0.135986334837939,0.841480118875303,0.00401492957685286,0.416985374583856
0.55,-0.00136581609437126,0.000777800469022885,0.24856564381896,-0.0389345318361155,0.00153669840456239,-0.000330129045482494,-0.211286428820998,0.136597298847748,0.8415091011138,0.00388848952300065,0.416985374583856
0.56,-0.0013652837311998,0.000777790173398124,0.249490036780188,-0.0389340303097966,0.00153630384416494,-0.000329738864736258,-0.211979219304335,0.137207681096462,0.841537170965022,0.00376598914270791,0.416985374583856
0.57,-0.00136476754969103,0.000777780015563312,0.250414030971203,-0.0389335175738657,0.00153592113026332,-0.000329360742818543,-0.212671617596116,0.137817955169029,0.841564357059241,0.00364734353253599,0.416985374583856
0.58,-0.00136426766625032,0.000777770166905287,0.251337667025817,-0.0389330052508406,0.00153555047487949,-0.000328994584759898,-0.213363663951449,0.138428135395431,0.841590687216061,0.00353243329083348,0.416985374583856
0.59,-0.00136378324390336,0.000777760626324144,0.252260949557129,-0.0389325229265737,0.00153519126376816,-0.000328639790441759,-0.214055383681896,0.13903819881489,0.841616188383398,0.00342114091170883,0.416985374583856
0.6,-0.00136331393341608,0.000777751384631622,0.253183907571106,-0.0389320763699762,0.00153484324059327,-0.000328296092191132,-0.214746804368432,0.139648156582887,0.841640886662181,0.0033133524953084,0.416985374583856
0.61,-0.00136285954188062,0.000777742432528786,0.254106542965763,-0.038931625656008,0.000777743413115327,-0.00136285898228928,-0.0389318084873899,0.254106514954127,7.19506824941004e-07,0.00320895772302292,0.416985374583856
0.62,-0.00136241951047413,0.000777733760984665,0.255028885913576,-0.0389311920162425,0.000777766304941277,-0.00136240093232276,-0.0389372838920478,0.255027955889615,2.38870467198937e-05,0.00310784974919271,0.416985374583856
0.63,-0.00136199329066395,0.000777725361245796,0.255950943821194,-0.0389307695776207,0.000777788454982375,-0.00136195726094274,-0.0389426265068991,0.255949140072027,4.63251702795403e-05,0.00300992509200279,0.416985374583856
0.64,-0.00136158053819011,0.000777717224830373,0.256872757595321,-0.0389303636995295,0.000777809887901709,-0.00136152760605808,-0.0389478455582135,0.256870107522802,6.8056842689962e-05,0.00291508352759412,0.416985374583856
0.65,-0.00136118079221809,0.000777709343517859,0.257794304108068,-0.0389299681153233,0.000777830627500322,-0.00136111148956318,-0.0389529385433329,0.257790834256888,8.91043060987807e-05,0.00282322798750001,0.416985374583856
0.66,-0.00136079359176372,0.000777701709342775,0.258715606793965,-0.0389295853048711,0.000777850696749871,-0.00136070843374531,-0.0389579116110325,0.258711342877899,0.000109489102378919,0.00273426445930838,0.416985374583856
0.67,-0.00136041859211258,0.000777694314586392,0.259636683261101,-0.0389292177623225,0.000777870117836766,-0.00136031807768705,-0.0389627708297143,0.259631650188652,0.000129232095175729,0.00264810189045467,0.416985374583856
0.68,-0.00136005533198417,0.000777687151768617,0.260557545293215,-0.0389288592650353,0.000777888912166719,-0.00135993994441396,-0.038967513458024,0.260551767193779,0.000148353491260029,0.0025646520950366,0.416985374583856
0.69,-0.00135970358279804,0.000777680213641966,0.261478204668519,-0.0389285123343809,0.000777907100440314,-0.00135957379014476,-0.0389721454083228,0.26147170491568,0.000166872861208895,0.00248382966356687,0.416985374583856
0.7,-0.00135936288300349,0.000777673493183154,0.262398673161502,-0.0389281736845295,0.000777924702613004,-0.00135921913860559,-0.0389766666976927,0.262391474397448,0.000184809159435402,0.00240555187556909,0.416985374583856
0.71,-0.00135903288734331,0.000777666983587024,0.263318968363556,-0.0389278487732257,0.000777941737970508,-0.00135887563027875,-0.0389810860020596,0.263311092520347,0.000202180743587771,0.00232973861491655,0.416985374583856
0.72,-0.00135871336684514,0.000777660678260116,0.264239113682752,-0.0389275343385328,0.000777958225163466,-0.00135854302237955,-0.0389854031955498,0.264230582005953,0.000219005393337775,0.00225631228784326,0.416985374583856
0.73,-0.00135840385957721,0.00077765457081287,0.265159074313987,-0.038927227131392,0.000777974182156514,-0.00135822083959801,-0.0389896180705005,0.265149907384306,0.000235300328577648,0.00218519774353189,0.416985374583856
0.74,-0.00135810413633886,0.000777648655055089,0.266078908581924,-0.0389269326439655,0.000777989626350242,-0.00135790883977575,-0.0389937391011784,0.266069126333975,0.000251082227044106,0.00211632219720609,0.416985374583856
0.75,-0.00135781373497009,0.000777642924988869,0.266998570032803,-0.0389266447384436,0.000778004574496025,-0.00135760654820236,-0.0389977630292046,0.266988191777975,0.000266367241387516,0.00204961515563747,0.416985374583856
0.76,-0.00135753254244373,0.000777637374802732,0.26791814608895,-0.0389263660187961,0.000778019042862619,-0.00135731383969477,-0.0390016952963612,0.267907190532802,0.000281171015703675,0.00198500834500435,0.416985374583856
0.77,-0.00135726021281215,0.000777631998865671,0.268837572828459,-0.0389260990985553,0.000778033047109471,-0.00135703035653159,-0.0390055412398537,0.268826058089452,0.00029550870154513,0.00192243564101566,0.416985374583856
0.78,-0.00135699640000576,0.0007776267917225,0.269756902740839,-0.0389258378703284,0.000778046602361665,-0.00135675574123963,-0.0390092974356597,0.269744846371184,0.000309394973428406,0.00186183300123752,0.416985374583856
0.79,-0.0013567408742821,0.000777621748087625,0.270676147567017,-0.0389255849670094,0.000778059723265243,-0.00135648975303134,-0.0390129691189732,0.270663566567921,0.000322844043852999,0.0018031383995515,0.416985374583856
0.8,-0.00135649340579204,0.000777616862839633,0.271595295760601,-0.0389253401207656,0.0007780724239734,-0.00135623215135979,-0.0390165585479891,0.27158220660028,0.000335869677847574,0.00174629176267148,0.416985374583856
0.81,-0.001356253997432,0.000777612131017905,0.272514370698217,-0.0389251030707116,0.000778084718246095,-0.00135598292875994,-0.0390200679321185,0.272500789328552,0.000348485207058134,0.00169123490866396,0.416985374583856
0.82,-0.00135602172067937,0.000777607547815131,0.273433349189544,-0.0389248735693941,0.000778096619057981,-0.0013557411466736,-0.0390234994129897,0.273419291062223,0.000360703543392696,0.00163791148740274,0.416985374583856
0.83,-0.00135579704391035,0.000777603108574561,0.27435227788683,-0.038924651370578,0.00077810813942744,-0.00135550726375687,-0.0390268550944429,0.274337757968988,0.00037253719223638,0.00158626692289532,0.416985374583856
0.84,-0.00135557927125715,0.000777598808784728,0.275271145233586,-0.0389244362422562,0.000778119291530221,-0.00135528057472761,-0.0390301370121068,0.275256178022953,0.00038399826525042,0.00153624835742714,0.416985374583856
0.85,-0.00135536863810082,0.000777594644074316,0.27618996295294,-0.0389242279545266,0.000778130087474085,-0.00135506130584852,-0.0390333471516772,0.276174562492528,0.00039509849276822,0.00148780459746518,0.416985374583856
0.86,-0.00135516421557847,0.000777590610209181,0.277108731123151,-0.0389240262921524,0.000778140538515486,-0.00135484851942523,-0.0390364874501669,0.277092911015471,0.000405849235801158,0.00144088606126359,0.416985374583856
0.87,-0.00135496647174301,0.000777586703086914,0.278027473108,-0.0389238310385709,0.000778150656075805,-0.00135464267495678,-0.0390395597953402,0.27801124652885,0.000416261497666389,0.00139544472811607,0.416985374583856
0.88,-0.00135477494323969,0.000777582918733146,0.278946188980701,-0.0389236419902384,0.000778160450834919,-0.00135444330080371,-0.0390425660228687,0.278929568692513,0.00042634593524856,0.00135143408921246,0.416985374583856
0.89,-0.0013545893994764,0.000777579253297799,0.279864843887469,-0.0389234589486907,0.000778169933204002,-0.00135425015834973,-0.039045507903563,0.279847842252251,0.000436112869906974,0.00130880910003597,0.416985374583856
0.9,-0.00135440984262923,0.000777575703051137,0.280783531031311,-0.0389232817197933,0.000778179113349368,-0.00135406324199913,-0.0390483872150163,0.280766160023169,0.000445572298039336,0.00126752613426193,0.416985374583856
0.91,-0.00135423580912064,0.000777572264380002,0.281702180630867,-0.0389231072095853,0.000778188000897227,-0.00135388208064708,-0.0390512027124603,0.281684451849485,0.000454733901312933,0.00122754293910717,0.416985374583856
0.92,-0.00135406718459559,0.00077756893378354,0.282620810214024,-0.0389229410574276,0.000778196605300878,-0.00135370655264798,-0.0390539618718008,0.282602734892476,0.000463607056573684,0.00118881859208738,0.416985374583856
