t,iq,id,vq,vd,ia,ib,va,vb,theta_e,omega,r
0,0,0,0,0,0,0,0,0,0,0,0
0.01,0.00116562356164762,0.000661602466167299,-0.0573849507081,-0.0331392082672897,-0.00133804504593057,-7.76631557908627e-05,0.0661818637654616,0.00334672987911233,2.1450251896794,-0.00263877215941649,0
0.02,0.00129422840271611,0.000735881674697286,-0.0638948330183252,-0.0368597914507515,-0.00148637230918527,-8.51255310681439e-05,0.0736686816356777,0.0037575601517106,2.14500601926525,-0.00275123989744758,0
0.03,0.00133071494855224,0.00075697666853085,-0.065724083288832,-0.0379164372742252,-0.00152846706209083,-8.72031599419887e-05,0.0757785732036964,0.00386253581725932,2.14498704477476,-0.00264369015381515,0
0.04,0.00130870827388127,0.000745439469114002,-0.0646952936525379,-0.0373385215670089,-0.00150372449395124,-8.49116866475745e-05,0.0746009343479051,0.00378771804885809,2.14497013272136,-0.00241640040488234,0
0.05,0.0013285251933373,0.000757063262074708,-0.0657047687985726,-0.0379207763741768,-0.00152667836766257,-8.58902429048824e-05,0.0757648410385074,0.00384587910677269,2.14495374840974,-0.00229535838478375,0
0.06,0.00132766978483374,0.00075717796440385,-0.065703087706864,-0.0379264968626602,-0.00152602372280505,-8.53060652910403e-05,0.0757665950179061,0.00383900740841304,2.14493849838842,-0.00213617409178738,0
0.07,0.00136399043046066,0.000778265330962996,-0.0675110620220935,-0.0389827624775908,-0.00156797474314616,-8.73042073609166e-05,0.0778584044889448,0.00393295260219081,2.14492450072984,-0.00207950117677658,0
0.08,0.0013261430891315,0.000757387400195195,-0.0656999876435104,-0.0379370000180323,-0.00152485786180167,-8.42595284065748e-05,0.075769800637485,0.00382644196106273,2.14491127520777,-0.00185201266317683,0
0.09,0.00132486504442226,0.000757166664646874,-0.0656694487223046,-0.0379259552387771,-0.00152366585647934,-8.37323222151643e-05,0.0757382058471401,0.0038182131058059,2.14489916213315,-0.00172413056650485,0
0.1,0.00132405872260087,0.000757160196845054,-0.0656595582872218,-0.0379256224956397,-0.0015229862259455,-8.32827723012093e-05,0.0757297631053117,0.00381227178572303,2.14488794588315,-0.00160662530436262,0
0.11,0.00132331606758377,0.000757156256156532,-0.0656505933677025,-0.037925434920339,-0.00152236134970992,-8.28669528324888e-05,0.0757221730670875,0.00380677414963633,2.1448775586808,-0.00149781557118238,0
0.12,0.00132262859341852,0.000757152627074974,-0.0656423018469906,-0.0379252474200791,-0.00152178290610399,-8.24820192797705e-05,0.0757151454959555,0.00380170043163926,2.14486793923163,-0.00139704844119516,0
0.13,0.00138479749219404,0.000792682512286944,-0.0686992453161708,-0.0397049055809546,-0.00159328145701399,-8.63936248101147e-05,0.0792485422211706,0.00396665980684989,2.14485838507966,-0.00144846018325544,0
0.14,0.00148530908698885,0.00085118243518062,-0.0738293469695044,-0.0426351345081394,-0.00170945027724906,-9.1838834186733e-05,0.085147589531867,0.00429128947791835,2.14484969729121,-0.00160121747971171,0
0.15,0.0013225727365731,0.000758116552652515,-0.0657088290901942,-0.03797352791022,-0.00152226162328844,-8.16020906315623e-05,0.0757973274228511,0.00379528627454051,2.14484153768597,-0.00112489676009127,0
0.16,0.00132026398217425,0.000757150119780992,-0.0656144879093573,-0.0379251246748497,-0.00151979869635087,-8.11493011748864e-05,0.0756918498652623,0.00378417351408166,2.14483457397854,-0.00104758436043494,0
0.17,0.00131978323608768,0.000757137705356787,-0.0656079270833131,-0.0379244997603477,-0.00151938878645042,-8.08888789619178e-05,0.0756860256537576,0.00378064795778311,2.1448281316026,-0.000980049430320918,0
0.18,0.00131935674012392,0.000757135348682625,-0.0656027604042144,-0.0379243695093681,-0.00151902985139212,-8.065019847975e-05,0.0756816389072375,0.00377750018535544,2.14482216547846,-0.000917551610194616,0
0.19,0.00131896166385186,0.000757133260566802,-0.065597966527445,-0.0379242735932792,-0.0015186974078014,-8.04290277493417e-05,0.0756775821570309,0.00377455944177937,2.14481664033159,-0.000859673719968255,0
0.2,0.00131859580782657,0.00075713132751798,-0.0655935242547965,-0.0379241805473182,-0.00151838955030385,-8.02242173848367e-05,0.0756738206465097,0.00377183816063922,2.14481152356712,-0.000806073784171942,0
0.21,0.0013182571929839,0.000757129537140911,-0.0655894166246601,-0.0379240874618558,-0.00151810461319758,-8.00346565759369e-05,0.0756703386725657,0.00376932728174788,2.14480678500016,-0.000756435599377284,0
0.22,0.00131794360742872,0.000757127878910575,-0.0655856090268237,-0.0379239914281388,-0.00151784073602352,-7.98591100215296e-05,0.0756671057031638,0.00376700833117662,2.1448023966767,-0.000710466339314838,0
0.23,0.00131765294325269,0.000757126343086014,-0.0655820664062886,-0.0379239296829985,-0.00151759614583385,-7.96964014716154e-05,0.0756641126229737,0.00376482903965278,2.14479833270913,-0.000667894821520683,0
0.24,0.0013173839323253,0.000757124920643,-0.0655787904405736,-0.0379238678891126,-0.00151736977504867,-7.95458130656718e-05,0.0756613422894488,0.00376281733258463,2.14479456912312,-0.000628469907521809,0
0.25,0.00131713495726716,0.000757123603219838,-0.0655757605882917,-0.0379237717370497,-0.0015171602629822,-7.94064395092883e-05,0.0756587589104331,0.00376098918235143,2.14479108371686,-0.000591959021311144,0
0.26,0.00132873286285718,0.000763737605095884,-0.0661497284015597,-0.0382550919243763,-0.00153049107055007,-8.01450762102677e-05,0.0763206577914537,0.0037941823918228,2.14478788975573,-0.000587007127269436,0
0.27,0.00127875952997706,0.000735483339710236,-0.0637208550304901,-0.0368398537356968,-0.00147318495868421,-7.67317144672822e-05,0.0735125888713335,0.00366353197318801,2.14478471646291,-0.000433858678006565,0
0.28,0.00126053914772774,0.000724704390674334,-0.0626521996706603,-0.0362999357172562,-0.00145203193921258,-7.58857320146075e-05,0.0723220363824535,0.00353645445952445,2.14478188309445,-0.000360748357440293,0
0.29,0.00131568506605983,0.00075678352472679,-0.06553519688074,-0.0379067393635898,-0.00151575898465052,-7.88872410596279e-05,0.0756154908988376,0.00375239330351933,2.14477953985363,-0.000469526910001132,0
0.3,0.00131267782395706,0.000755226933468874,-0.0653925632731524,-0.0378287996214859,-0.00151238858898601,-7.85591907440249e-05,0.0754534009691262,0.00374027999326815,2.1447780099787,-0.000446516679816693,0
0.31,0.00131600025114641,0.000757098218590344,-0.065560457207972,-0.0379225102837429,-0.00151619483026901,-7.87883892183419e-05,0.0756452806212372,0.00375257981569781,2.14477576139329,-0.000431357177480331,0
0.32,0.0013158893212659,0.000757116815136145,-0.06556050498202,-0.0379234485320901,-0.00151611193967252,-7.87093639025789e-05,0.0756458380479452,0.0037516593778754,2.1447736662752,-0.000409503814321771,0
0.33,0.00131575103231794,0.000757116282135562,-0.06555881181863,-0.0379234294181016,-0.00151599567497552,-7.86317822258975e-05,0.0756444131167298,0.00375060930060682,2.14477172587253,-0.000389178433735876,0
0.34,0.00131562240581888,0.000757115604619529,-0.0655572127297959,-0.0379233957214898,-0.0015158874342908,-7.85597862160322e-05,0.0756430587250999,0.00374963340334867,2.14476992889028,-0.000370354395699868,0
0.35,0.00131550355821105,0.000757114975250228,-0.0655557417553545,-0.0379233649029243,-0.00151578742090296,-7.84932611529764e-05,0.0756418129791881,0.00374873470341748,2.14476826472884,-0.000352921694746397,0
0.36,0.00131539332533672,0.000757114392357131,-0.0655543674035792,-0.0379233340560261,-0.00151569465712419,-7.84315613761436e-05,0.0756406478931681,0.00374789779878756,2.14476672357147,-0.000336777503239369,0
0.37,0.00131529147436524,0.000757113852527762,-0.0655531026783164,-0.0379233031811536,-0.00151560894633823,-7.83745494840535e-05,0.0756395744218671,0.00374712906135126,2.14476529632649,-0.000321826583233587,0
0.38,0.00131519707397404,0.000757113352581911,-0.0655519238835905,-0.0379232722813512,-0.00151552950543543,-7.83217096489342e-05,0.0756385727002261,0.00374641498477533,2.1447639745742,-0.000307980736024529,0
0.39,0.00131510965850184,0.000757112889574548,-0.0655508290140866,-0.0379232413579658,-0.0015154559424188,-7.82727796383104e-05,0.0756376410746242,0.00374575388872106,2.14476275051709,-0.000295158281966254,0
0.4,0.00131502840060747,0.000757112460777359,-0.0655497962049153,-0.0379232417650602,-0.00151538756163643,-7.82273015396652e-05,0.07563677823552,0.00374510702489236,2.14476161693444,-0.000283283578628431,0
0.41,0.00131495344156967,0.000757112063663209,-0.0655488507027696,-0.0379232078869373,-0.00151532448090222,-7.81853440148056e-05,0.0756359697821488,0.00374454269620695,2.14476056713884,-0.00027228657456858,0
0.42,0.00131488407047168,0.000757111695892263,-0.0655479738469856,-0.037923176900082,-0.00151526610245453,-7.81465136093295e-05,0.0756352202531922,0.00374401908263274,2.1447595949372,-0.000262102396079769,0
0.43,0.0013148195763836,0.000757111355296658,-0.0655471456567148,-0.037923177242808,-0.00151521182857433,-7.81104174175009e-05,0.0756345283322754,0.00374350101993371,2.14475869459452,-0.000252670964490579,0
0.44,0.00131476010058765,0.00075711103986889,-0.0655463875554889,-0.0379231462202153,-0.00151516177724386,-7.80771257656815e-05,0.0756338779889306,0.00374305238672226,2.14475786079938,-0.000243936641746125,0
0.45,0.00131470468689464,0.000757110747749859,-0.0655456651600833,-0.037923146527296,-0.00151511514488441,-7.8046113567369e-05,0.0756332744092849,0.00374260149339074,2.14475708863309,-0.000235847902185735,0
0.46,0.00131465346415321,0.000757110477217208,-0.0655449972356543,-0.0379231468172255,-0.00151507203912862,-7.80174453103144e-05,0.0756327163485047,0.003742184507663,2.14475637354013,-0.00022835702858341,0
0.47,0.00131460632838104,0.000757110226676673,-0.0655443900752871,-0.0379231157492625,-0.00151503237212961,-7.79910594697012e-05,0.0756321920903677,0.00374183084586688,2.14475571130257,-0.000221419830656772,0
0.48,0.00131456243980486,0.00075710999465082,-0.0655438123063616,-0.0379231160102326,-0.00151499543819198,-7.79664953896953e-05,0.0756317093407379,0.00374147053646823,2.14475509801315,-0.000214995384372794,0
0.49,0.00131452205612103,0.000757109779771512,-0.0655432866782956,-0.0379230849176105,-0.00151496145326436,-7.79438886472694e-05,0.0756312531830794,0.00374116829593158,2.14475453005438,-0.000209045790533214,0
0.5,0.00131448433755689,0.000757109580772283,-0.0655427802259242,-0.0379230851540728,-0.00151492971172012,-7.79227792570808e-05,0.0756308299814507,0.00374085333363361,2.14475400407533,-0.000203535951195903,0
0.51,4.64290612466508,0.0422135692884197,7.85626646696441,-2.10540762467894,-0.645001381760685,4.59807921695694,-3.24430008371202,7.45843019896492,0.148458693083895,45.5532018086411,1534.04836069282
0.52,4.51973269717593,0.00537003554050641,14.0167356248782,-0.248484325749193,-2.80459557356953,3.54432732121585,-8.9054217548769,10.827007222942,0.670596320529883,97.0724484501217,1534.04836069282
0.53,4.56028462735258,-0.0391124450618137,11.9910395953611,1.99285551229011,-4.55982234562487,-0.0758013335440306,-12.0066851775532,1.89631609113758,1.57884199789856,151.604496717583,1534.04836069282
0.54,4.58040793697786,-0.0250883146004761,10.986881959644,1.29143518277983,-1.06639661296283,-4.45461160557469,-3.87066241012366,-10.3632693940343,2.90114575884636,207.95007895554,1534.04836069282
0.55,4.56381044724185,-0.00979210489614468,11.8188547294578,0.547272548016245,4.54251641124491,-0.44046150483645,11.7072214838152,-1.71049685376344,-1.66960394490934,259.381479204026,1534.04836069282
0.56,4.45973992019043,0.0275898544767019,17.0247411029062,-1.32981085136122,-1.85949697893259,4.05367886507439,-8.39921005114689,14.8682035578645,0.436266777962233,314.634968460612,1534.04836069282
0.57,4.50264006994029,0.00564520445484806,14.8820971840064,-0.22264632122543,-0.944183409393159,-4.40253531015845,-2.88470588547599,-14.60153621825,2.93158303939093,367.572366303245,1534.04836069282
0.58,4.46945967089108,0.00807892517198394,16.5436116950889,-0.31366567061593,1.99852441804417,3.99775376545817,7.08991036466682,14.9506737337083,-0.461769491627683,420.059911046046,1534.04836069282
0.59,4.52433872432092,0.0946624433810326,13.8022060954873,-4.64118159312374,-1.52865398649548,-4.25932140841099,0.0105931795769072,-14.5616395871895,2.81793451747388,473.414473147815,1534.04836069282
0.6,4.49789301864102,0.0493146447424979,15.1271595867624,-2.35894323122302,-0.862354363394079,4.41472745401807,-5.37274949296414,14.3362872884636,0.203870269851674,526.577073879356,1534.04836069282
0.61,4.45822539403839,0.00213850087830525,17.1133187543309,0.0177815663961821,4.01161256215573,-1.94492747638288,15.3947812391714,-7.47440335876347,-2.02175020642486,579.612210264643,1534.04836069282
0.62,4.4672408162927,0.0088630504327884,16.665383707556,-0.34856274228134,-2.94361736503304,-3.36027318423524,-10.6938309476725,-12.7866527976629,2.42417753003771,633.211615394387,1534.04836069282
0.63,4.39990916983182,0.0194573580356927,20.0348788690431,-0.860479568055388,-3.6321631574268,2.48333849673846,-17.0711572129628,10.5219954283672,0.975510765569605,686.019340238377,1534.04836069282
0.64,4.3255154815341,0.119914093491456,23.7575242594918,-5.85273746089362,0.497394284708927,4.29849537586676,-3.75455743448346,24.1780436180774,-0.0874858356461749,738.190560744554,1534.04836069282
0.65,4.29177673421214,0.051004534119499,25.447550406373,-2.42971954576426,3.0043407306757,3.06527091344768,15.8400588647351,20.0642441651235,-0.763476249537505,791.411203236567,1534.04836069282
0.66,4.0313491261353,0.095862888866926,26.7079846137768,-4.67249605515331,3.56080804675907,1.8925146034812,20.9889593078396,17.1642724485781,-1.05850456247411,842.305852304408,1534.04836069282
0.67,3.81793643332513,-0.0158641025446147,25.0801968580718,0.957193646021336,3.18111542329918,2.11125435282181,21.4801455333677,12.9821354938609,-0.989016847430238,890.155100028775,1534.04836069282
0.68,3.69279773092764,0.00290031231841881,19.6901909615833,0.00536716174711459,2.01695132333046,3.09332682603558,10.7460275113806,16.4992891251318,-0.577017705037438,935.652163726053,1534.04836069282
0.69,3.44126285141667,0.0514320727024171,21.3228698561664,-2.43838327716195,-0.488592540913118,3.40678919212899,-5.7504238225794,20.6771157991163,0.157390559646084,978.430231811886,1534.04836069282
0.7,3.13931169853497,0.108909565656817,26.0775813045118,-5.32365334744137,-2.88121235874869,1.25130115393692,-26.2151104706706,4.5988601487418,1.19575594915251,1018.66565403134,1534.04836069282
0.71,3.06284531525485,0.0141388364304089,20.2060404894649,-0.563468147618826,-1.79619372765952,-2.4809089915978,-11.3160236772255,-16.7496022863753,2.51955232134481,1056.29793764453,1534.04836069282
0.72,2.78930933829479,0.0538964977759554,24.6945868540104,-2.54684775663018,2.27126897164954,-1.62002736877903,21.8163448972997,-11.8472000366239,-2.17105261198931,1091.8519105857,1534.04836069282
0.73,2.59811017861288,0.0932562345582604,25.5990382218149,-4.57202243431416,0.919718400795819,2.43166430428491,3.8597665338855,25.716071809779,-0.325717376657597,1125.4234246925,1534.04836069282
0.74,2.46378492245853,0.0807018142218241,24.0181446433656,-3.95741711249091,-2.43590432507574,-0.378310779690433,-22.8652043260773,-8.34954210951747,1.75761503505179,1157.03250477882,1534.04836069282
0.75,2.37864120031587,0.0102235340408703,20.5415339870665,-0.377820265994002,1.89048596907827,-1.4436416734102,16.6072026240587,-12.0953787745015,-2.21866898773593,1186.36307426604,1534.04836069282
0.76,2.13434168933099,0.0406387340807212,25.4751908827697,-1.97656914410779,-0.587871573890778,2.05218736136229,-9.36986154461107,23.7717872851372,0.29802795617517,1214.29088853158,1534.04836069282
0.77,1.98928395227389,0.102916937361403,25.7716888810398,-5.05202207327459,-0.358967441524878,-1.95933277283247,1.68134621905562,-26.2083183302865,3.01208273598976,1240.23145381657,1534.04836069282
0.78,1.83941376947516,0.0356441377456497,26.7865416434517,-1.7399087726552,0.70125278941321,1.70086979079253,8.10729297238625,25.5894098488697,-0.371681134375553,1264.83615677144,1534.04836069282
0.79,1.71689309393154,0.0506914643247016,26.6636683162944,-2.43312155355098,-0.864959601501938,1.48395970575848,-16.1661561180577,21.3430711225517,0.557247234262463,1287.90086217994,1534.04836069282
0.8,1.55655044932283,0.0159330152404905,28.8882854818877,-0.758800349251647,0.933705481729309,-1.24551083321278,18.1660231956468,-22.4745281887805,-2.48807557507248,1309.58847542443,1534.04836069282
0.81,1.4818063586527,0.0746265817948665,27.1370731945039,-3.62417353720993,-1.11757716837147,0.975879338847156,-23.5561995883187,13.9520907518181,0.903300529571233,1329.79652839273,1534.04836069282
0.82,1.49701298976272,-0.0156105850681729,21.1198093107815,0.875215335460204,1.44579712251891,-0.38853862407812,20.1019416854457,-6.53638184947424,-1.84375768883974,1348.94871526386,1534.04836069282
0.83,1.30855717672809,0.0245922826821979,25.6482380368505,-1.19396598038914,-1.27188595869765,-0.308598077119534,-24.5037544707993,-7.66966009625295,1.82761809063917,1366.85351598821,1534.04836069282
0.84,1.16395395796812,0.047681906994664,28.2965494044679,-2.37952732734372,0.749235552447339,0.892024925365447,15.4138591221392,23.8488952671589,-0.657674282055087,1383.56786281279,1534.04836069282
0.85,1.09376899153766,0.137261578576567,27.4411062747976,-6.7791217456823,-0.00832657017372621,-1.10231665869286,9.9436831585768,-26.4592889259964,-3.02430472625246,1399.14227024667,1534.04836069282
0.86,1.08302066566716,0.0313054094285599,23.8489175728418,-1.47711710835324,-0.896453056296855,0.608511058878683,-20.9050235231018,11.5729311691789,1.0033392668897,1413.8373992428,1534.04836069282
0.87,1.04479073896754,0.007350002331521,21.8836292608302,-0.298219460836807,0.955894630413213,0.42179042937672,19.8362135399214,9.24698852983638,-1.14820621068758,1427.51276326251,1534.04836069282
0.88,0.985453455865028,-0.0364729145004274,21.1772582367112,1.8733056800356,-0.023496224157625,-0.985848220883325,-3.15712071535907,-21.0242272006335,3.08076923898959,1440.43696661231,1534.04836069282
0.89,0.855377517358376,0.077836347386784,24.2219807423598,-3.87680964766101,-0.73509499033171,0.444257300858318,-23.4765899413518,7.11222390346821,1.11792836475359,1452.44984286793,1534.04836069282
0.9,0.788409052271409,0.000579105668008562,24.3320251399845,-0.0221327884793802,0.543582592149361,0.57105790825367,16.7471491890249,17.6516552003971,-0.760019143029714,1463.65368035353,1534.04836069282
0.91,0.733404907656055,0.0313867986361149,24.0219653059194,-1.57544541394019,0.377507042169616,-0.62956836230465,14.5384283255616,-19.1877811962094,-2.55867656091076,1474.13351757958,1534.04836069282
0.92,0.649477552030409,-0.0817726609392435,25.3457966685585,4.08445979302792,-0.556572249245159,-0.344579729581823,-24.7472652508657,-6.83118460942664,1.99990302983846,1483.85315733504,1534.04836069282
0.93,0.639261037928621,0.00800194081439742,23.1077142801207,-0.41369176125761,-0.208458181394028,0.604370658023923,-8.19685377652623,21.6090071102602,0.344656899744057,1493.01035643068,1534.04836069282
0.94,0.470948732896534,-0.0548390917932143,28.9384025976081,2.72520510059934,-0.0629992894149397,-0.469926722520403,-9.77776896811769,-27.372488409856,2.89240349325706,1501.52332903724,1534.04836069282
0.95,0.553044360512071,0.0426548425639297,22.4353589419475,-2.14880169368831,-0.532162473213113,0.156462782769775,-22.3930278847135,2.55244622416722,1.36181598786164,1509.412703138,1534.04836069282
0.96,0.481441013557695,0.0135010810137955,23.7264117344605,-0.68553876474976,0.0676487357543332,0.476855719557648,1.99156857943742,23.6526157493102,-0.112888079683272,1516.77108981674,1534.04836069282
0.97,0.452322165372709,0.0489658464341163,23.0472476352924,-2.45287811530195,0.453766566401915,-0.0329984639079229,22.9465136650939,3.26339473994128,-1.53555534121576,1523.56949841389,1534.04836069282
0.98,0.423166204773264,0.0264227746126702,22.4672571652855,-1.31103085665671,0.071435530988113,-0.417929138482693,6.43415166666963,-21.5661340710029,-2.90994161237521,1529.95795443894,1534.04836069282
