t,iq,id,vq,vd,ia,ib,va,vb,theta_e,omega,r
0,0,0,0,0,0,0,0,0,0,0,0
0.01,0.00136549060093965,0.000773329455736941,-0.0677467591673676,-0.0387688423606999,-0.00114199938222364,-0.00107630871006684,0.0570419587306925,0.0532809671443385,2.84189050512587,-0.00187871224750382,0
0.02,0.00155483602097455,0.000883159813458502,-0.0772888959787762,-0.0442748925899288,-0.00130285181997881,-0.00122477077177973,0.0651205620085468,0.0607713086839409,2.84187718890264,-0.00194551134893884,0
0.03,0.00157904260628468,0.000897820402571145,-0.0785312693701654,-0.0450098733952865,-0.00132402152528653,-0.00124355298572809,0.0661903670819123,0.0617404589998398,2.84186454570443,-0.00176984513483764,0
0.04,0.00156479321746938,0.000891316539100779,-0.0778734618953728,-0.0446837976794369,-0.00131361336466765,-0.00123184532895948,0.0656852513053679,0.0612075616535865,2.84185397565207,-0.00156998109662946,0
0.05,0.00157480222166739,0.000897817077141073,-0.0784063139053311,-0.0450097192686541,-0.00132279173091358,-0.00123947552537408,0.0661545881984689,0.0616197642737731,2.84184405285944,-0.00141829793610364,0
0.06,0.00157299609620173,0.000897819411334195,-0.0783532374712156,-0.045009829037235,-0.00132227150174875,-0.00123773764978588,0.0661395605442109,0.0615684421047057,2.84183528408169,-0.00126788517703661,0
0.07,0.00160653875187306,0.000917280082255815,-0.0800346316604108,-0.0459854336652701,-0.00135077887414705,-0.00126402766731235,0.0675686415144371,0.0628862549234256,2.84182758549059,-0.00118981725401567,0
0.08,0.00157001515874399,0.000897834104881866,-0.0782659850065455,-0.0450105663144255,-0.00132142330275942,-0.0012348660386857,0.066115396469888,0.0614838990193337,2.84182070857368,-0.0010179010395957,0
0.09,0.00156871597728612,0.000897805827487226,-0.0782265883832168,-0.04500912486046,-0.00132102004950857,-0.00123362520647851,0.0661027546919343,0.0614462877065789,2.84181469834588,-0.000914711888353535,0
0.1,0.00156761349496757,0.000897802286674279,-0.0781939684159467,-0.0450089746286484,-0.00132069762718459,-0.00123256593864629,0.0660933037142777,0.0614148165989985,2.84180939843847,-0.000823785405868623,0
0.11,0.0015666420598845,0.000897799190089911,-0.0781652395425107,-0.0450087869829343,-0.0013204135473434,-0.00123163257244897,0.0660849273235665,0.061387115578533,2.84180472483441,-0.000743604025721583,0
0.12,0.00156578490105085,0.000897796458739712,-0.078139877742892,-0.045008676884132,-0.00132016287628336,-0.00123080900945989,0.0660775852446481,0.061362645125276,2.84180060352198,-0.000672897876110797,0
0.13,0.00162983486606551,0.000934102302120101,-0.0813076764154531,-0.0468287629371484,-0.00137377009191863,-0.00128127457479603,0.0687522776729691,0.0638513554835183,2.84179642477572,-0.000700978536431356,0
0.14,0.00180876817031839,0.00103745922342223,-0.0903221809947366,-0.0520102955725213,-0.00152536547945638,-0.00142169760789825,0.0763651573224022,0.0709332783135796,2.84179294002821,-0.000917305336519464,0
0.15,0.00156389209791799,0.000897963875780149,-0.0780906720743095,-0.0450170538493823,-0.00131977707476328,-0.00122893697522115,0.0660717173448,0.061312448731105,2.84178983483027,-0.000488679722840725,0
0.16,0.00156305499044895,0.00089778796996286,-0.0780591176446185,-0.0450082388994705,-0.00131936469208316,-0.00122818604106288,0.0660541213309533,0.06128474909375,2.84178747257671,-0.00044762083022346,0
0.17,0.00156262161977637,0.000897786370514979,-0.0780462828570989,-0.0450081539001409,-0.00131923773176609,-0.00122776972627592,0.066050377176895,0.0612723743631579,2.84178539000915,-0.000411891065740636,0
0.18,0.00156223927544257,0.000897785151802036,-0.078034953277627,-0.0450081176981009,-0.00131912590142459,-0.0012274023744161,0.0660471090607548,0.0612614395560886,2.8417835535448,-0.00038038425106094,0
0.19,0.00156190299515771,0.000897784077234782,-0.0780250047650274,-0.0450080441583991,-0.00131902754569028,-0.00122707927589428,0.0660441998233989,0.0612518495821466,2.84178193410041,-0.000352600675176738,0
0.2,0.00156160586683531,0.000897783129564447,-0.0780162006755505,-0.0450080048675769,-0.0013189406385496,-0.00122679379809622,0.0660416495508587,0.0612433555139588,2.84178050602994,-0.000328100352849357,0
0.21,0.00156134389594273,0.000897782293814696,-0.0780084373944839,-0.0450079684086448,-0.00131886401400361,-0.001226542099176,0.0660393990202046,0.0612358661411177,2.84177924671839,-0.000306495293928523,0
0.22,0.00156111312435601,0.000897781556774588,-0.0780016017556956,-0.0450079318791381,-0.00131879651513699,-0.00122632037509931,0.0660374132642512,0.0612292728836279,2.84177813622297,-0.000287443358014809,0
0.23,0.00156090936112358,0.000897780906791415,-0.077995558906762,-0.0450078952880737,-0.0013187369148052,-0.00122612460205825,0.066035653546321,0.061223445738954,2.84177715695802,-0.000270642836278774,0
0.24,0.00156072992868987,0.000897780333586649,-0.0779902408911619,-0.045007855730416,-0.00131868443155117,-0.00122595220447936,0.0660340979742648,0.0612183196146105,2.84177629341548,-0.000255827673566982,0
0.25,0.00156057168384748,0.000897779828094151,-0.077985548649065,-0.045007819033792,-0.00131863814526418,-0.00122580016398007,0.0660327236995553,0.0612137972445138,2.84177553192016,-0.000242763255114876,0
0.26,0.00156884906447377,0.000902363258495453,-0.0783954655794279,-0.0452376196455023,-0.0013254626272149,-0.001232353707845,0.0663733815361569,0.061537512771172,2.84177485925655,-0.00024415927403493,0
0.27,0.00151397089956347,0.000871719904262377,-0.0756985731273306,-0.0437013826078417,-0.00127997900552461,-0.00118897317952444,0.0641091985669949,0.0594146065748853,2.84177418966525,-0.000148544363817293,0
0.28,0.00145582829049596,0.000837590134707563,-0.0726675719066256,-0.0419903937829775,-0.00123020023260415,-0.00114350366543729,0.0615793754093239,0.0570241150834599,2.84177357423344,-4.88247013366922e-05,0
0.29,0.00155995879655731,0.000897703119114491,-0.0779644670918672,-0.0450039749031623,-0.00131838658585704,-0.00122523432340783,0.0660229616168038,0.0611946437635628,2.84177329469978,-0.000204153563096086,0
0.3,0.00155927126342991,0.00089732897510898,-0.0779298428252644,-0.0449852484815561,-0.00131782582425222,-0.00122468822949451,0.0659948320551738,0.061167108201444,2.84177349633327,-0.000206492065361366,0
0.31,0.00156005775374378,0.000897777629712329,-0.0779702702271104,-0.0450077174281412,-0.00131848727863002,-0.00122530655899607,0.0660282650809959,0.0611990676217682,2.84177306672974,-0.000200467491617143,0
0.32,0.00155997987192597,0.000897777938381062,-0.0779679749083504,-0.0450077468280757,-0.0013184650371154,-0.00122523155907862,0.0660276385180082,0.0611968409118032,2.84177268654568,-0.000193946835278343,0
0.33,0.00155991002273298,0.00089777771648635,-0.0779658913196466,-0.045007747102672,-0.00131844460603219,-0.00122516444939726,0.0660270439122483,0.0611948280554415,2.84177235128723,-0.000188195030307492,0
0.34,0.00155984886826781,0.000897777520192672,-0.0779640741234034,-0.0450077101643645,-0.00131842671880398,-0.0012251056912542,0.0660264900066521,0.0611930833147052,2.84177205564737,-0.000183122927872083,0
0.35,0.00155979438589402,0.000897777347092043,-0.0779624420916558,-0.045007707487134,-0.0013184107814962,-0.00122505334677829,0.0660260213830284,0.061191507666261,2.84177179494436,-0.000178650208270547,0
0.36,0.00155974665561215,0.000897777194445056,-0.0779610167534349,-0.0450077077013293,-0.00131839682018777,-0.00122500748776393,0.0660256146826548,0.0611901306710098,2.84177156504959,-0.00017470604096063,0
0.37,0.00155970428043507,0.000897777059835161,-0.0779597437255409,-0.0450077079005129,-0.00131838442443897,-0.00122496677545575,0.0660252512897374,0.0611889009897787,2.84177136232235,-0.000171227965615473,0
0.38,0.00155966702753214,0.000897776941131382,-0.0779586250176975,-0.045007708085334,-0.00131837352738658,-0.00122493098380457,0.0660249319951027,0.0611878203304111,2.84177118355209,-0.000168160902999312,0
0.39,0.00155963462765105,0.000897776836454058,-0.0779576591922836,-0.0450076710727709,-0.00131836405118389,-0.00122489985239108,0.0660246210232612,0.0611868981144634,2.84177102590796,-0.000165456282727645,0
0.4,0.00155960575665128,0.000897776744146013,-0.0779567906592251,-0.0450076712347617,-0.00131835560622515,-0.00122487211334243,0.0660243731627274,0.0611860591011675,2.84177088689323,-0.000163071274093146,0
0.41,0.00155958014528052,0.000897776662746275,-0.0779560152944995,-0.0450076713875273,-0.00131834811429012,-0.00122484750694636,0.0660241518052627,0.0611853101873278,2.8417707643066,-0.000160968107803636,0
0.42,0.00155955779353876,0.000897776590964888,-0.0779553413704931,-0.0450076715310652,-0.0013183415765267,-0.00122482603102364,0.0660239595129724,0.0611846591480883,2.8417706562066,-0.00015911347785509,0
0.43,0.00155953777010344,0.000897776527666094,-0.0779547295640574,-0.0450076716680199,-0.00131833571888221,-0.00122480679387678,0.0660237847790863,0.0611840683007145,2.84177056088129,-0.000157478014095869,0
0.44,0.00155952030780519,0.000897776471847536,-0.0779541979649508,-0.045007671797738,-0.00131833061101571,-0.00122479001625534,0.0660236330381869,0.061183554828487,2.84177047682123,-0.000156035817116742,0
0.45,0.00155950494098274,0.000897776422624829,-0.0779537289164044,-0.0450076719215306,-0.00131832611618106,-0.00122477525177707,0.0660234991580989,0.0611831017740104,2.84177040269487,-0.000154764048106008,0
0.46,0.00155949120397478,0.000897776379219144,-0.0779533041446925,-0.0450076720407019,-0.00131832209753905,-0.00122476205423698,0.0660233778147395,0.061182691600897,2.84177033732872,-0.000153642567171573,0
0.47,0.00155947932961198,0.000897776340942762,-0.0779529396839948,-0.0450076721546072,-0.00131831862446838,-0.0012247506449165,0.0660232738065802,0.0611823395598311,2.8417702796871,-0.00015265361440116,0
0.48,0.00155946861940239,0.000897776307189539,-0.0779526044743099,-0.0450076722652238,-0.00131831549120789,-0.00122474035546028,0.0660231780177564,0.0611820159156075,2.84177022885769,-0.00015178152861528,0
0.49,0.00155945930617665,0.000897776277425386,-0.0779523135856502,-0.0450076723718855,-0.00131831276700085,-0.00122473140740788,0.0660230949478601,0.0611817350129627,2.84177018403503,-0.000151012499354177,0
0.5,0.00155945115710414,0.000897776251178728,-0.0779520583921604,-0.0450076724752538,-0.00131831038349942,-0.00122472357751926,0.0660230220932947,0.0611814885638035,2.84177014450955,-0.000150334348174841,0
0.51,4.42057747202055,0.0233445561365906,18.9732304658651,-1.15809215545961,-0.582637549919098,4.38207526633912,-3.74711274659794,18.6355519858053,0.13746482437996,42.0437202423662,1391.98041326224
0.52,4.44310301490583,-0.0525998078723975,17.8494071814848,2.668296253277,-2.62384526688583,3.58599597828752,-8.19693695736705,16.0789106018612,0.619842808096242,89.8606673226891,1391.98041326224
0.53,4.40728819666627,-0.0584644832795624,19.6429803677635,2.95753982105211,-4.38905912492351,0.404681778938272,-19.2237907265337,5.00395739629021,1.46558925144152,141.677558134422,1391.98041326224
0.54,4.37948381725217,0.0647773853494085,21.0361022510153,-3.19057782536143,-1.99100285892403,-3.90127956329493,-6.42121787020367,-20.2846085946522,2.68449247554859,189.90992905874,1391.98041326224
0.55,4.32632406069253,0.0491709852990321,23.6972803247208,-2.41951969936698,3.86451029447463,-1.94552251280266,22.3494226643385,-8.24126670693147,-2.02582162117263,240.038734600645,1391.98041326224
0.56,4.31504887108382,0.00893512913542649,24.2643178105279,-0.380017486534484,0.408267024684311,4.29570071500912,1.86734639397355,24.1953414843702,-0.0926855380645168,288.288511084564,1391.98041326224
0.57,4.24277993915504,0.082623348676925,27.8812573106469,-4.02708499182769,-3.48155601335469,-2.42626790683074,-20.1934796065197,-19.6419272001242,2.19890462664636,336.683337213651,1391.98041326224
0.58,4.15469720861977,-3.43916294282959e-05,32.2890402759354,0.0832670036895718,4.11723150535657,0.556698866349597,32.0090605449308,4.24371280435406,-1.43640773424604,385.519925040262,1391.98041326224
0.59,4.21101001224675,0.0203621981905844,29.4772557788192,-0.941177119002219,-4.21089309618096,0.0374068829640822,-29.480823894143,-0.821854696274416,1.56674862848192,434.139160441964,1391.98041326224
0.6,4.1143492457536,0.0797406065530051,34.3142644602528,-3.85999648572894,4.03999844025473,0.782713793864683,32.7475636465369,10.952871474368,-1.36004743508859,481.723187228388,1391.98041326224
0.61,3.94717205513779,0.0659124758635672,37.5621597075644,-3.22267366333013,-2.86022194950316,-2.7209634482873,-24.5187533911037,-28.6379503383733,2.34794535229959,529.842924851018,1391.98041326224
0.62,3.81896957180087,0.0987559354891813,34.3013755415169,-4.77519950565205,-0.3430630764083,3.80481130290853,-8.70564141271097,33.5201238355744,0.115775989392093,574.959571485054,1391.98041326224
0.63,3.67673466791934,-0.0435668173667285,32.1338225012902,2.32965503691361,3.59793597978143,-0.758374954260505,30.8547348792278,-9.27335843521679,-1.79038476171332,618.576051555088,1391.98041326224
0.64,3.45353283247017,-0.0408432938750876,34.4888535464327,2.17221099544311,-0.795994907626861,-3.36079593350089,-10.4526657482231,-32.9384471144578,2.89720496962492,660.057321339474,1391.98041326224
0.65,3.15966366625346,0.101626409289034,40.791486114345,-4.97013945463545,-3.16125328870551,0.0167348604968818,-40.6432970568263,-6.06382964519083,1.59765522905046,699.472608860056,1391.98041326224
0.66,2.98376053672618,0.12469136661828,41.6089960344652,-6.09419447713299,-1.53120992833126,2.56393662808062,-27.9044320825073,31.4609349427825,0.580131590708362,736.810649658886,1391.98041326224
0.67,2.8468304298909,0.0173600891614434,40.884975113089,-0.673733881567672,0.497299776831787,2.8031121635089,6.23218272302797,40.4128074482319,-0.169485005219661,772.441091281361,1391.98041326224
0.68,2.71452505618192,0.0438560588288134,40.1921460764857,-2.1331125191764,1.7060221580604,2.11188494732606,23.0675043859112,32.9825562480988,-0.663336201671694,806.79079921626,1391.98041326224
0.69,2.57611988663245,0.0713346494265183,40.1319176855536,-3.40667314791212,2.08307594160896,1.51732558272835,29.6909593108738,27.2143927776607,-0.913575380682373,838.996363639025,1391.98041326224
0.7,2.40637279198547,0.0727271158073772,41.9838320928455,-3.59291613624653,1.97463240959862,1.37722405379239,31.5508484584305,27.930183764442,-0.931564623386753,870.14024277751,1391.98041326224
0.71,2.2947120820475,0.0376864310599976,41.229031602479,-1.69326221605501,1.55572655423816,1.68725774409812,26.1828927578588,31.8928880887416,-0.728440005880976,899.33420523472,1391.98041326224
0.72,2.13124373415664,0.0221151847368936,43.3195979370483,-0.975679899985157,0.681284264974702,2.01953972134142,12.4926880878601,41.4906285929027,-0.314981587017279,927.405964267617,1391.98041326224
0.73,2.00224692934174,0.017905112547134,44.0305034794088,-0.830475249858472,-0.571840473951498,1.91893507744912,-13.7451438626393,41.8383310611956,0.298562151928441,954.061438903603,1391.98041326224
0.74,1.96210500572579,0.00628656261530885,40.5672539975164,-0.277570417088477,-1.74761869041361,0.89203390478206,-36.3167881068268,18.0795476668885,1.10204496221748,979.393797796843,1391.98041326224
0.75,1.65116166293972,0.0214263439775533,48,-1.0624130916698,-1.44685844504161,-0.795860895753702,-41.2294828011741,-24.6020013317015,2.08666242966235,1003.46728883992,1391.98041326224
0.76,1.7444930108139,-0.0485140320659211,41.2188212937399,2.45324847981299,-0.726589633142663,1.58671893575877,-13.854714303175,38.8980275660138,0.401617630270189,1026.39421383204,1391.98041326224
0.77,1.59826060282771,0.0330798129399825,43.7773209797315,-1.62764995001106,-1.58499134093898,-0.208167427144062,-43.0320170977964,-8.20661812302515,1.7220799545078,1048.0915068442,1391.98041326224
0.78,1.53071272865616,0.130625465866884,42.5889654608578,-6.47286177799468,-0.0438083218861722,-1.53565142559646,8.8721808870261,-42.1545053930307,-3.08498231449522,1068.8036700619,1391.98041326224
0.79,1.45276847498241,0.0787030052900866,42.169084493114,-3.79980373201325,1.45263310290614,0.0811632508323914,41.4976142412415,8.40346402826361,-1.46085957193752,1088.42267884867,1391.98041326224
0.8,1.09973885922374,0.0881344945919472,48,-4.26317013268871,-0.24517841060553,1.07567690065217,-18.4391462843401,44.5215959269763,0.304071328837915,1107.17458697774,1391.98041326224
0.81,1.1765770801133,0.0320449107571238,47.9072192483683,-1.61423159590324,-0.968112311370039,-0.66941695103062,-37.69414512568,-29.6118020897178,2.20300090195676,1125.08904275779,1391.98041326224
0.82,1.13733934340404,0.0464795301168048,46.1059890224367,-2.20970782667608,0.985801309925804,-0.569119412885539,41.8632593199542,-19.4451163927244,-2.05352564448835,1141.96281886993,1391.98041326224
0.83,0.906642052096387,-0.0206315913210698,48,0.990125066203138,-0.105541778158633,0.900714386613815,-3.51441432615589,47.8814080786147,0.0938916062831388,1158.07964618339,1391.98041326224
0.84,0.996098494533363,0.0803804523224937,46.1907113688595,-3.95484113040216,-0.761115831399906,-0.647592401993438,-29.8614517507151,-35.4614760616041,2.35630217542666,1173.30652317412,1391.98041326224
0.85,0.764084964576031,-0.0233096682304805,48,1.11384819445444,0.763638502001881,0.0350058849979923,48.0114275805715,-0.378786847484317,-1.55548467058124,1187.86721101738,1391.98041326224
0.86,0.860067067705451,-0.0374750265091153,46.6410217480348,1.97415922921035,-0.70684957543021,0.491409621677724,-35.9041397378739,29.8358000403233,0.919747001230474,1201.62734413611,1391.98041326224
0.87,0.723334642600873,-0.0173657216767158,48,0.815463472485522,0.265478896642592,-0.673079140156132,15.7696059297618,-45.3429653804753,-2.78990522775172,1214.74752655501,1391.98041326224
0.88,0.66092881471513,0.0861374260816631,48,-4.17825675283211,0.0317133190659012,-0.665763336093649,12.5737979378519,-46.5119063779443,-2.96439672578357,1227.24632412717,1391.98041326224
0.89,0.666738898910267,0.0910315064102072,47.8062017625248,-4.5178084974368,0.226308457225845,0.633728630146568,5.41822122866535,47.7125392249876,-0.207298019287439,1239.13659342151,1391.98041326224
0.9,0.451873794435107,-0.0128982234142003,48,0.571782574069759,-0.208334913209882,-0.401189299710567,-23.8273784009409,-41.6723286348434,2.634093694091,1250.27700924263,1391.98041326224
0.91,0.455550392610018,0.100838190889385,48,-4.9582678073701,0.378367525619661,0.273006440410187,28.233602148847,39.1337211283342,-0.727919255917217,1260.93500474687,1391.98041326224
0.92,0.460932591954077,0.0365507398242346,48,-1.72207649667485,-0.376617612607613,-0.268242399297621,-35.6666095822838,-32.1692167819694,2.26882216403562,1270.9378123911,1391.98041326224
0.93,0.484476474984577,0.0427506034287744,47.4328714467917,-2.10350104874561,0.4179632597283,0.248700185814767,37.2423587266226,29.4501057184435,-0.946027261968074,1280.46619472126,1391.98041326224
0.94,0.310017479312521,0.0430707078316383,48,-2.20638828867997,-0.277380272417122,-0.145003820040062,-37.7919793459079,-29.6754856135311,2.19053343998231,1289.50010756638,1391.98041326224
0.95,0.257542465980158,-0.0423007904921789,48,2.02456550650217,0.173799159625123,0.19470832230032,38.6170185373101,28.5801459894657,-0.891513098916599,1298.11846719214,1391.98041326224
0.96,0.204610029274215,-0.0374538458742798,48,1.76627826234412,-0.115657858754107,-0.172891047653672,-34.7036758292946,-33.2080505726438,2.37095584024197,1306.26641328557,1391.98041326224
0.97,0.0756786900984329,0.0754945866673837,48,-3.79372072798052,0.104872078686788,0.0207013009979075,23.6254128627883,41.955121070314,-0.591725784432069,1313.89592013464,1391.98041326224
0.98,0.156693938168053,0.0840746826852157,48,-4.10783824251809,-0.133678365171734,-0.117267374884261,-12.9830517888559,-46.3930458288155,2.78335194267164,1321.20573642001,1391.98041326224
0.99,0.109773766924508,0.0358871898121428,48,-1.6934099435763,-0.0102307531904141,-0.115036959219921,12.4649678243611,-46.3841806478744,-2.91432669792032,1328.15063617143,1391.98041326224
