t,iq,id,vq,vd,ia,ib,va,vb,theta_e,omega,r
0,0,0,0,0,0,0,0,0,0,0,0
0.01,0.000483199709976497,0.00027226568267621,-0.0235156006003331,-0.0136231219159499,0.000537520037868024,0.000136684931776959,-0.0264166686462634,-0.00638220494537301,-0.808664404707708,-0.00116183471664554,0
0.02,0.00056735500583499,0.000318169741664152,-0.027690024441184,-0.0159199907367262,0.000630091699036567,0.000161580128610753,-0.0310222799346092,-0.00760274333839817,-0.808673427387285,-0.00128815374272182,0
0.03,0.00059883521020563,0.000335806847339914,-0.0292550502407618,-0.0168024824658473,0.000665042869807269,0.000170551543589923,-0.0327637743500551,-0.00804465486787825,-0.808682717354694,-0.00127917217516928,0
0.04,0.000585670663963613,0.000328898561574258,-0.0286606944310612,-0.016456819753568,0.000650751517638776,0.000166453755511931,-0.0320952346959569,-0.00788404918068969,-0.808691331507032,-0.00116409603596265,0
0.05,0.000599417871858596,0.000337182614790181,-0.029364063607711,-0.0168713180599242,0.000666417113839509,0.0001699474365857,-0.0328902956247492,-0.00806957609502659,-0.808699533540346,-0.00112076459881938,0
0.06,0.000600419134831835,0.000338246215086935,-0.0294496618106696,-0.0169245388762137,0.000667877084860703,0.000169864178127161,-0.0329890249225009,-0.00808992160641234,-0.808707278269278,-0.00104965698915213,0
0.07,0.000611290318316279,0.000345044071816448,-0.0300089126833285,-0.0172646708660199,0.000680435947572275,0.000172447632672393,-0.0336284816821873,-0.00822975821627965,-0.808714398232996,-0.00100936438646823,0
0.08,0.00060044580269187,0.000339253884765655,-0.0295179456134452,-0.0169749556320804,0.000668594463069171,0.000169144329648143,-0.0330733434364582,-0.00810013492995599,-0.808721214143049,-0.000917231829726581,0
0.09,0.000598224729043956,0.000338507508120678,-0.0294408016671423,-0.0169376185772666,0.000666473464652904,0.000168146603912597,-0.0329918093119145,-0.00807367600286536,-0.808727479221856,-0.000852070267053037,0
0.1,0.000597245522795328,0.000338410022621886,-0.0294214849479247,-0.0169327292016894,0.000665698766736845,0.000167537189528337,-0.0329745066158901,-0.00806368452987351,-0.808733297408937,-0.000794286821650686,0
0.11,0.000596484391509091,0.000338396105692301,-0.029410743284011,-0.0169320426816085,0.000665139449678148,0.00016701816111889,-0.0329663055689404,-0.00805658656163153,-0.808738708890395,-0.000740920417632561,0
0.12,0.000595797287632198,0.000338393033306373,-0.0294017631163088,-0.0169318788935938,0.000664641104326893,0.000166542653333312,-0.0329597366110682,-0.0080503391073838,-0.808743743245794,-0.000691325327172077,0
0.13,0.000620639628744222,0.00035280117330058,-0.0306250025324524,-0.0176528098508456,0.000692560899072197,0.00017326747451943,-0.0343424302058462,-0.00837316925061278,-0.808748626205538,-0.000707513032143829,0
0.14,0.000636750196630625,0.000362478847899861,-0.0314947600524991,-0.0181370410974296,0.000710897993542536,0.000177385937608219,-0.0353059885976871,-0.00862318616720843,-0.808753242044743,-0.000704233068196879,0
0.15,0.000599752352631009,0.000341487242371369,-0.0296593321464734,-0.0170867117568631,0.000669640857614936,0.000167025575890537,-0.0332530774832934,-0.00811569713130306,-0.808757588118679,-0.000569666503015815,0
0.16,0.000594211669822461,0.000338786152318386,-0.0294098355223615,-0.0169515589102365,0.000663768356711475,0.000165151851895285,-0.032979305191466,-0.00804109470331747,-0.808761352210548,-0.000519915690917537,0
0.17,0.000593046631249631,0.000338437829415856,-0.0293702158744672,-0.0169341263408443,0.000662685619513184,0.000164597208076807,-0.0329386354859157,-0.00802623870604756,-0.808764815542826,-0.000484052336571619,0
0.18,0.000592513756522886,0.000338392203304256,-0.0293599404985809,-0.0169318490626692,0.000662269147768326,0.000164260192500148,-0.0329296555047605,-0.00802068619876238,-0.808768032314277,-0.000452126756465247,0
0.19,0.000592094155977829,0.000338385569931649,-0.0293540544159561,-0.0169315183965428,0.000661961504123116,0.000163973322647697,-0.0329251929911833,-0.0080167632097196,-0.808771024291984,-0.000422623787685145,0
0.2,0.00059171436974708,0.000338384005199275,-0.0293490883544872,-0.01693143939877,0.000661686127270923,0.000163710412976986,-0.032921568113233,-0.00801330021398661,-0.808773807767927,-0.000395203264245441,0
0.21,0.000591362523229989,0.000338383141799445,-0.0293445389940578,-0.0169313938385533,0.000661431414247228,0.000163466414843891,-0.0329182662074136,-0.00801010711462888,-0.808776397352572,-0.000369696456144003,0
0.22,0.000591035414970882,0.000338382414555909,-0.0293403167298339,-0.0169313511634894,0.000661194661282783,0.000163239517647031,-0.0329152014688862,-0.00800714370365611,-0.808778806563004,-0.000345966796016928,0
0.23,0.000590730962628228,0.000338381747593412,-0.0293363811495437,-0.0169313225481791,0.000660974311826831,0.000163028330105817,-0.0329123524800774,-0.00800437358004516,-0.808781047964765,-0.000323890048394239,0
0.24,0.000590447756081209,0.000338381128193913,-0.0293327206833151,-0.0169312938951833,0.000660769339065004,0.000162831879958187,-0.0329097012343956,-0.008001798567402,-0.808783133246149,-0.000303351020679255,0
0.25,0.000590184340140155,0.000338380551966184,-0.0293293174337481,-0.0169312666612796,0.000660578689162539,0.000162649158374431,-0.0329072358790959,-0.00799940489551943,-0.808785073281578,-0.000284242597581457,0
0.26,0.000595108756404298,0.000341328245166017,-0.0295756025692924,-0.0170787559722634,0.000666176563808146,0.000163915187612235,-0.0331872481596454,-0.00806267526860475,-0.808786834483511,-0.00027990954823504,0
0.27,0.000581775361939272,0.00033373379817059,-0.0289403009062348,-0.0166987575878978,0.000651287777051822,0.000160203156223078,-0.0324653112822442,-0.00789892934958763,-0.808788633559815,-0.000229200231501613,0
0.28,0.000581306633438459,0.000333587725839926,-0.028858457134286,-0.0166914446000736,0.000650848079842362,0.000159984217584481,-0.0324010648380761,-0.00784766642815148,-0.808790195046809,-0.000213173307274605,0
0.29,0.000588170396358348,0.000337762312990968,-0.0292632997810868,-0.0169003311000806,0.000658695937369023,0.000161701754235658,-0.0328381701522399,-0.00797599438456705,-0.808791580444389,-0.000217301232938324,0
0.3,0.000581526905854751,0.000334259870519384,-0.028947196724603,-0.0167250832356406,0.000651471846730239,0.000159648476943967,-0.0324885056747903,-0.00788451688254201,-0.808792568578772,-0.000191162827114231,0
0.31,0.000587945040135498,0.000337848203841797,-0.0292630387190341,-0.0169046201922809,0.000658592556633958,0.000161482579262927,-0.0328409599987008,-0.00797263853944801,-0.80879379281529,-0.000195699389366619,0
0.32,0.000588693027048288,0.000338309464298723,-0.0293048708602764,-0.0169277025879874,0.000659452324885315,0.000161664482595031,-0.0328871685966529,-0.00798478006836519,-0.808794982285042,-0.000186276179568858,0
0.33,0.000588667464840061,0.000338368510555815,-0.0293089792611532,-0.0169306599332309,0.000659474775525663,0.000161603383449608,-0.0328921914001784,-0.00798544025082193,-0.808796095881888,-0.000175624482523047,0
0.34,0.000588543993780758,0.000338375839840891,-0.0293079906071636,-0.016931027633661,0.000659390676983432,0.000161512156541743,-0.0328917382811385,-0.00798445758999757,-0.808797132877226,-0.000165454323094699,0
0.35,0.000588415399987322,0.000338376535255579,-0.029306407803957,-0.0169310636069593,0.000659298280717244,0.000161422240094406,-0.0328906257285965,-0.00798330711022186,-0.808798097775942,-0.000155956573829921,0
0.36,0.000588293849259777,0.000338376394558979,-0.0293048419225711,-0.0169310559099544,0.000659210391580289,0.000161337835315158,-0.0328894947312112,-0.0079822021183701,-0.808798995485018,-0.000147115401270686,0
0.37,0.000588180447596417,0.000338376162322835,-0.0293033687295384,-0.0169310423693407,0.000659128324528914,0.000161259163977611,-0.0328884262548461,-0.00798116740153001,-0.808799830668537,-0.000138889355730473,0
0.38,0.000588075020382456,0.000338375933209128,-0.0293020010352233,-0.0169310288056081,0.000659052019318482,0.000161186034150623,-0.0328874336206574,-0.00798020744914627,-0.808800607679394,-0.0001312361834695,0
0.39,0.000587976927333625,0.000338375718359015,-0.0293007271726097,-0.0169310152203252,0.000658981021098705,0.000161117993046645,-0.0328865084217741,-0.00797931407197218,-0.808801330569347,-0.00012411606392456,0
0.4,0.000587885424888804,0.000338375518242103,-0.0292995289677361,-0.0169310141762474,0.000658914792885652,0.000161054524490185,-0.0328856462133038,-0.00797846551041702,-0.808802003107694,-0.000117491879708268,0
0.41,0.000587800544978827,0.000338375332022103,-0.0292984257013549,-0.0169310005497683,0.000658853357786121,0.000160995648799676,-0.0328848436278537,-0.00797769313559254,-0.808802628801868,-0.00011132908903593,0
0.42,0.000587721440767855,0.000338375158757407,-0.0292973914869587,-0.0169310009179289,0.00065879610303889,0.000160940779863639,-0.0328841003116603,-0.00797695974138608,-0.808803210914528,-0.000105595554714422,0
0.43,0.000587647969559262,0.00033837499755048,-0.0292964345068372,-0.0169309872555602,0.000658742925291294,0.000160889817804232,-0.0328834028610946,-0.00797629115167554,-0.808803752481324,-0.000100261377813584,0
0.44,0.00058757956241488,0.000338374847563011,-0.0292955405332688,-0.0169309721228177,0.000658693412826085,0.000160842368580166,-0.0328827496767261,-0.00797566836433127,-0.808804256326391,-9.52987419263592e-05,0
0.45,0.000587515825026353,0.000338374708014608,-0.0292947031025276,-0.0169309724380564,0.000658647280270331,0.000160798158798113,-0.0328821477832013,-0.00797507459069679,-0.808804725077234,-9.06817681357947e-05,0
0.46,0.000587456731109697,0.000338374578179564,-0.0292939332304668,-0.0169309587307728,0.000658604508509673,0.000160757169218113,-0.0328815848243191,-0.0079745386760167,-0.808805161178208,-8.63863800666901e-05,0
0.47,0.000587401550247303,0.000338374457382142,-0.0292932058500041,-0.0169309590157743,0.000658564569021092,0.000160718894569548,-0.0328810620236182,-0.00797402297234673,-0.808805566903299,-8.23901783338968e-05,0
0.48,0.000587350211090519,0.0003383743449934,-0.0292925280679518,-0.0169309592865244,0.000658527410099025,0.000160683284650457,-0.0328805748699677,-0.00797354244951015,-0.808805944368482,-7.867232373494e-05,0
0.49,0.000587302642290566,0.000338374240428519,-0.0292919062514332,-0.0169309455414962,0.000658492980043734,0.000160650289324921,-0.0328801183193938,-0.00797311156792171,-0.808806295542174,-7.52134285781353e-05,0
0.5,0.000587258288053074,0.000338374143143128,-0.0292913218226848,-0.0169309457873676,0.000658460876681735,0.000160619524075979,-0.0328796982809954,-0.00797269718010044,-0.808806622255497,-7.19954555807928e-05,0
0.51,4.74260599806001,0.0316816402138124,2.87052700704307,-1.57779915696229,-0.295960850225331,4.73346834301185,-1.77229549152615,2.75469493203706,0.0691239871096794,21.4707084446538,1295.03768088727
0.52,4.71788630380584,0.0403544223659386,4.10743873870885,-2.00269889428618,-1.42847800098218,4.49661319836977,-3.18048354294415,3.28121628157649,0.316149089584958,45.9892139315652,1295.03768088727
0.53,4.6961371396131,0.0382888551843066,5.19586753224894,-1.88934826035671,-3.1583071322136,3.4756677242069,-4.91338875606735,2.53481502152377,0.745749013506224,71.5242198205183,1295.03768088727
0.54,4.68310753655218,0.035060077030701,5.84838832423028,-1.72336635326706,-4.58288997450552,0.964284651692646,-6.07413629433832,-0.527736540679149,1.37089809736912,98.9943459455789,1295.03768088727
0.55,4.66008326995725,0.0437269883115889,7.00069738468368,-2.14527055322774,-3.82240214295563,-2.66599512189547,-4.46049913293305,-5.8065391674875,2.18920255315815,123.918891563067,1295.03768088727
0.56,4.67227496040986,0.013340193108268,6.39227816367143,-0.620285141945237,0.21317511771139,-4.66742837498487,0.92943672805365,-6.35469284447435,-3.09309627081412,149.896522862893,1295.03768088727
0.57,4.6408620376934,0.005896537286735,7.96418203771214,-0.233814408102931,4.3907523076591,-1.50297351767821,7.61367488637074,-2.34836526798977,-1.8993283626311,175.188143387482,1295.03768088727
0.58,4.694675980682,0.0539074402539834,5.27477195614445,-2.63362481340474,2.37931319952655,4.04743835953878,0.335186661297006,5.8861573839983,-0.519960478379123,201.435329771413,1295.03768088727
0.59,4.65089225265801,0.0559398533325295,7.46531397158213,-2.72781434375457,-3.99978959441452,2.37394423132442,-7.82904063892678,1.37040375887019,1.04718435782289,226.757480917388,1295.03768088727
0.6,4.61528401037005,0.0349954002875399,9.24711885760964,-1.65981375142176,-1.56689293981821,-4.3413036854805,-1.50781040618324,-9.27311687811461,2.80279918582667,252.00046736066,1295.03768088727
0.61,4.6448247098477,0.0463332263541938,7.77151259367689,-2.21777065156719,4.64378514200669,0.108641189031146,7.69320359648931,2.47578938514472,-1.53743072304797,277.546785801975,1295.03768088727
0.62,4.61605553127638,0.0519557771691772,9.21145578881995,-2.49044037608486,-2.53506839795126,3.85799122449979,-7.21058988323916,6.24984836231627,0.592602032593439,303.114162022977,1295.03768088727
0.63,4.61606198460812,0.0524809428710999,9.21267927258232,-2.50816109428189,-1.11236349863909,-4.48033815040833,0.322864651243256,-9.54254105945135,2.90960530412144,328.770240187693,1295.03768088727
0.64,4.59920852406573,0.0704977240209734,10.0569735810526,-3.42115436844959,3.55929666229156,2.91360536907989,5.47619053993139,9.10265631522566,-0.869495210439388,354.519615264286,1295.03768088727
0.65,4.61515872300432,0.0922198901114477,9.26112617118284,-4.49108754332834,-4.49404611411589,-1.05439274981143,-7.85924335066306,-6.64609804588115,1.8212273656117,379.792406485826,1295.03768088727
0.66,4.59121734360371,0.0881586795644771,10.4598779238608,-4.26711075265217,4.58944266655383,-0.155127880812309,10.5210152007995,4.11406362396316,-1.58538525904512,404.994075539671,1295.03768088727
0.67,4.61207844594336,0.0820622668457451,9.41858754161371,-3.97317615371733,-4.5845199896866,0.510076730834801,-9.7469020699376,-3.08120432080626,1.47778240676839,430.699332821371,1295.03768088727
0.68,4.6052338420869,0.0713119457058888,9.76268432736359,-3.40597212392298,4.60578162790509,-0.00630317021545092,9.7136373834456,3.5434305648085,-1.5566811195539,455.743570771995,1295.03768088727
0.69,4.60472388149886,0.0679587373127428,9.79004407361956,-3.24113953699347,-4.40967071710441,-1.32774417021313,-8.35149230119252,-6.05000204998294,1.87801780360514,481.166355685411,1295.03768088727
0.7,4.5783266844002,0.0653253079826006,11.1118388972634,-3.11597502925574,3.28294669013855,3.19180257137911,5.65200300477828,10.0616661689632,-0.785206678077443,506.626786679181,1295.03768088727
0.71,4.56890983092889,0.0660637411887877,11.5846819556903,-3.15000900585535,-0.619881956318622,-4.52714565938507,1.72127178828379,-11.8812724984458,3.01997171797123,531.85514198948,1295.03768088727
0.72,4.53725120609535,0.0824565501729226,13.1696891146476,-3.96369497995021,-2.95371308271941,3.44514536919015,-11.7139682748616,7.20656204622465,0.726919871480967,556.993718063068,1295.03768088727
0.73,4.52701001225174,0.122901832429986,13.6838627286876,-5.98142800681279,4.46918426131814,0.731653298925384,12.3129269306272,8.45088223674218,-1.3813831935649,582.189599070902,1295.03768088727
0.74,4.50437492990882,0.0758676371979957,14.8177664128435,-3.62236242651237,-0.808177865909815,-4.43192937044562,1.16166966696804,-15.2098071848215,2.97806251484516,607.416769574506,1295.03768088727
0.75,4.51862089399578,0.117798553739299,14.1077044285384,-5.70546646332486,-4.23325236210874,1.58473522129693,-15.1970359230363,-0.793581099240557,1.23865575536756,632.508384132133,1295.03768088727
0.76,4.5481212037724,0.154779507584814,12.6349357743218,-7.52733709551621,1.56352857409401,4.27372689559872,-3.21801380583958,14.3508464181106,-0.316703349832881,657.460505106476,1295.03768088727
0.77,4.46462209875835,0.130802193211792,16.8122201687346,-6.3301325524464,4.4185245046774,-0.653146920712136,17.4382401092781,4.31614492628695,-1.68826459983345,682.592508988525,1295.03768088727
0.78,4.49332879172115,0.15217617760523,15.3792647230558,-7.39842739829061,1.03291291014526,-4.37564305440881,11.1767842648593,-12.8972091898363,-2.87592250960957,707.673225724005,1295.03768088727
0.79,4.45853690709913,0.154746938910979,17.1212372840244,-7.51359455253565,-3.11623707987298,-3.19242297152056,-5.97179126620086,-17.7180297524496,2.40296438356175,732.674529554494,1295.03768088727
0.8,4.51187883932962,0.115739734830536,14.4565908839758,-5.54478058080738,-4.51290456105828,0.0643332712399171,-14.3924871107061,-5.70910907621402,1.58218849109222,757.623632325044,1295.03768088727
0.81,4.48385224958349,0.121931454250479,15.8604927781485,-5.87277490738358,-4.43170709896589,-0.692654650317085,-14.5336128073933,-8.64978699409804,1.75302397323319,782.692381470634,1295.03768088727
0.82,4.49045376338736,0.137483818550585,15.5329377357759,-6.65361215263044,-4.28747266241448,1.34188485740449,-16.7510161639446,-2.22399794433147,1.29808334235587,807.668838499045,1295.03768088727
0.83,4.44145705558806,0.148342478478562,17.9854081831565,-7.19272053295607,-3.7213294712674,2.42904368709803,-19.1089394174251,3.17152495199697,1.02588761421542,832.517403379556,1295.03768088727
0.84,4.40779323998135,0.141513507494647,19.6712320881364,-6.84256122133856,-3.46584630297179,2.72700875015199,-19.8983120685259,6.15103184487365,0.936236008995512,857.408092861574,1295.03768088727
0.85,4.22195428506608,0.136005231087631,18.5385657581087,-6.57843862146403,-3.54429742078725,2.29811905720132,-19.2709645769564,3.94768278079446,1.02775005580222,881.765277306521,1295.03768088727
0.86,4.04103715228823,0.12007413363385,16.0606942680974,-5.78304737361191,-3.85292173688191,1.22449710216259,-17.0311343071364,-1.15325691457572,1.29278615939431,904.796751749943,1295.03768088727
0.87,3.7907970626297,0.14023004559539,17.6245900915856,-6.78201233502998,-3.76864575048455,-0.432569119429919,-16.4014473185964,-9.36025603625363,1.72205262928242,926.530013129551,1295.03768088727
0.88,3.61823668111999,0.156208302126357,15.9887507015091,-7.56235923226327,-2.78682434725759,-2.31293055922302,-6.77526737664036,-16.3378449658404,2.30668146744765,947.074132942301,1295.03768088727
0.89,3.38896068262139,0.0607411393481844,17.7378956004777,-2.85072605745226,-0.409892976508524,-3.36462951038772,1.00636468962237,-17.9373021800817,3.03828722366736,966.695010136733,1295.03768088727
0.9,3.20686534852701,0.114810953207816,17.5541767234934,-5.52414609892579,2.1439135083159,-2.38763518725545,16.1635680241945,-8.79797586318302,-2.37413970051664,985.071363128167,1295.03768088727
0.91,3.00643956099561,0.101700471471442,18.8868908445723,-4.92373456049494,2.96717747724438,0.494853148267892,17.5401901160503,8.56151496464346,-1.3717268976936,1002.63474801474,1295.03768088727
0.92,2.84784937379541,0.15577450992175,18.4847153766501,-7.58674533257262,0.840592581953854,2.7254203097747,-2.88598825408787,19.7715573259757,-0.244525189983616,1019.11116578583,1295.03768088727
0.93,2.70537651072908,0.0972078389639357,17.7930104006933,-4.70494239494401,-2.22511470361355,1.5418741792129,-17.5185687117122,5.64158243331941,1.00073928110403,1034.83797308167,1295.03768088727
0.94,2.52584062185889,0.0860490072583554,19.3749029979704,-4.15873558861886,-0.0237281004224862,-2.52719454255761,4.63531325616099,-19.2664428189032,-3.11692718217249,1049.61532037793,1295.03768088727
0.95,2.46944090307575,0.0964855431536178,15.1572591118019,-4.63872647930382,2.45272197143027,-0.302659486361204,15.4920879231007,3.35492159595611,-1.65452110276199,1063.58069051281,1295.03768088727
0.96,2.30150896199313,0.0807546882657788,16.9027550622882,-3.88524398011392,0.292215103227731,2.28431065209117,-2.31323111699019,17.1885779307105,-0.0921583261786327,1076.86881071979,1295.03768088727
0.97,2.18407521451542,0.0671472541089582,16.5102652423157,-3.23358227804778,-2.18362717519602,0.0804093038173543,-16.529597462315,-3.13326035534087,1.56472356461099,1089.44377394849,1295.03768088727
