t,iq,id,vq,vd,ia,ib,va,vb,theta_e,omega,r
0,0,0,0,0,0,0,0,0,0,0,0
0.01,0.00107204654048289,0.000613233679268202,-0.053197787762522,-0.0307245324303906,-0.000577601640866566,0.00109165730649247,0.0285046881311112,-0.0544195210419988,1.00625279264901,-0.000879321098939091,0
0.02,0.00120095175283483,0.000687474923155162,-0.0596679091824136,-0.0344441999463131,-0.000646775752695818,0.00122335113860617,0.0319803288021732,-0.0610239368268489,1.00624629907567,-0.000953863976442848,0
0.03,0.00123042404744021,0.000704349594409558,-0.0611338199682826,-0.0352896628027721,-0.000662637934274029,0.00125338049120174,0.0327660051001842,-0.0625227410981193,1.0062396541581,-0.000943244983992269,0
0.04,0.00121468603890742,0.000695626220260841,-0.0603669401406961,-0.034852587974885,-0.000654001808813087,0.00123759429761946,0.0323515983981018,-0.0617433756089301,1.00623350167479,-0.000896912953902468,0
0.05,0.00122992179652992,0.000704387468513285,-0.0611292137159821,-0.0352915376396282,-0.000662177920175246,0.00125315191952545,0.0327603404047203,-0.0625222639950791,1.00622733692061,-0.000876790776766453,0
0.06,0.00122972801886377,0.000704432005710287,-0.0611293774941985,-0.0352937805915258,-0.000661982935741543,0.00125308979879123,0.0327589070644135,-0.062524441214745,1.00622139350777,-0.00084476602854126,0
0.07,0.00126227278612274,0.000723128101124984,-0.0627453455399145,-0.0362305048300221,-0.000679466504884504,0.00128630171653571,0.033622537915098,-0.064180626448402,1.00621571650653,-0.000841942204681862,0
0.08,0.00122938295592468,0.000704528062151671,-0.0611306479056812,-0.0352985983611568,-0.000661625982615559,0.00125299373574064,0.0327567017572387,-0.0625295582074425,1.0062101861184,-0.000784394885574382,0
0.09,0.0012289485450086,0.000704424114218824,-0.0611178392663617,-0.035293385611174,-0.000661307995275498,0.0012526769712725,0.0327483400829757,-0.0625184738001306,1.00620490810822,-0.000755732776799132,0
0.1,0.00122870715278268,0.000704420884577376,-0.0611142228983768,-0.0352932103979181,-0.000661099439370417,0.00125254843466918,0.0327450615588611,-0.0625165568803225,1.00619983518051,-0.00072833395873507,0
0.11,0.00122847601776525,0.000704418305999058,-0.0611107895268213,-0.0352930965297293,-0.000660899448340498,0.0012524258042831,0.0327419171360956,-0.0625147832236607,1.00619495916312,-0.000701999495384339,0
0.12,0.00122825384672166,0.000704415830171745,-0.0611074878889741,-0.0352929797824853,-0.00066070721331985,0.00125230793020336,0.0327388973920573,-0.0625130713977515,1.00619027241119,-0.000676687225276887,0
0.13,0.001284026005467,0.000736365464920846,-0.0638686354398266,-0.0368937141887385,-0.000690721606191317,0.00130914496652744,0.0342146786082652,-0.0653429759600748,1.00618554519061,-0.000698658614556985,0
0.14,0.00139354819436447,0.000799652222728324,-0.0693889824584675,-0.0400645379379456,-0.00074937532671653,0.00142121668546331,0.0371812662831736,-0.0709757108057561,1.00618106722812,-0.000767563770733246,0
0.15,0.00122854986126367,0.000704926747104478,-0.0611442554241354,-0.0353185555242835,-0.000660666933608384,0.00125290689328089,0.0327554261840703,-0.0625547951095176,1.00617672814438,-0.000604332298219533,0
0.16,0.00122742884178731,0.000704409389120461,-0.061095417859138,-0.0352926527921357,-0.000659991757813564,0.00125187260883469,0.0327277802100029,-0.0625069102341066,1.00617274795849,-0.000582045300052341,0
0.17,0.00122724252653719,0.000704404565225555,-0.0610924708396029,-0.0352923964884134,-0.000659832154255137,0.00125177136037817,0.0327251886864505,-0.062505241929132,1.00616892334345,-0.000561384794812203,0
0.18,0.00122706833123903,0.000704402607189145,-0.0610898783152676,-0.0352923091436068,-0.000659681442538811,0.00125167891925786,0.0327228155174681,-0.0625039011732217,1.0061652471895,-0.000541530546777232,0
0.19,0.00122690077161171,0.000704400739613021,-0.0610873789496516,-0.0352922218098384,-0.000659536467406425,0.00125159001015102,0.0327205299705166,-0.0625026055909807,1.00616171372771,-0.000522446978056482,0
0.2,0.00122673984765524,0.00070439894450257,-0.0610849820624709,-0.0352921344858415,-0.000659397231479084,0.0012515046216292,0.0327183395721565,-0.0625013603514369,1.00615831741956,-0.000504104150037699,0
0.21,0.00122658521012366,0.000704397218974176,-0.0610826790786103,-0.0352920471707208,-0.000659263434529363,0.0012514225679942,0.0327162367449659,-0.0625001610411383,1.00615505294123,-0.000486473310281228,0
0.22,0.00122643650977099,0.000704395560334031,-0.061080461080456,-0.0352919598641572,-0.000659134776494069,0.00125134366356076,0.0327142136349319,-0.0624990030568682,1.00615191517577,-0.00046952682252599,0
0.23,0.00122629386301256,0.000704393965992318,-0.0610783421378163,-0.035291872564663,-0.000659011350889135,0.0012512679717742,0.032712281820433,-0.0624978940887221,1.00614889920454,-0.00045323812322914,0
0.24,0.00122615623477469,0.000704392433460026,-0.0610762783812569,-0.0352918145063457,-0.000658892278669175,0.00125119493984859,0.0327103883015437,-0.0624968355136269,1.00614600030031,-0.00043758167992879,0
0.25,0.00122602429822171,0.000704390960343319,-0.0610743110571353,-0.0352917272171042,-0.000658778124052313,0.00125112492905926,0.0327085989270455,-0.0624958001572897,1.00614321391892,-0.000422532951218904,0
0.26,0.00123537944916582,0.000709763790258491,-0.0615405223245645,-0.0355609295475497,-0.000663802626354879,0.00126067168391604,0.032958217831637,-0.0629727836102898,1.00614054489466,-0.000416161597974118,0
0.27,0.00118941657909454,0.00068356918280694,-0.0592756502220374,-0.0342484988970417,-0.000638988643075784,0.00121394898588387,0.0317470705493198,-0.0606521714160548,1.00613791755662,-0.000363085952839787,0
0.28,0.00116395862406845,0.000668771669920125,-0.0579274136586475,-0.0335071154949328,-0.000625398068346908,0.00118782678919909,0.0310047047956017,-0.0593044713534184,1.0061354137114,-0.000328067418632026,0
0.29,0.00122519657718288,0.000704191885674207,-0.0610499223377092,-0.0352817580476118,-0.000658172780338146,0.00125052047396754,0.0326926994298316,-0.0624746578410897,1.00613310956604,-0.000367665138150896,0
0.3,0.00122347821167491,0.000703288879585553,-0.0609683721975738,-0.0352365108421003,-0.000657201881977027,0.00124883940877832,0.0326478965297271,-0.0623928598233129,1.00613110487878,-0.00035546096972795,0
0.31,0.00122533495451376,0.000704377431107972,-0.0610636314622632,-0.0352910498872468,-0.000658185119586893,0.0012507540383952,0.032699044996031,-0.0624899811637896,1.00612889895274,-0.000345210996363469,0
0.32,0.00122524552254211,0.000704382236247295,-0.0610626725069934,-0.035291288643862,-0.000658104344325132,0.00125071163632174,0.0326979744969489,-0.0624897390908107,1.00612677638413,-0.000333756806940973,0
0.33,0.0012251489889017,0.000704381189530747,-0.0610612276772721,-0.0352912305820753,-0.000658020804587492,0.00125066043589043,0.0326966575361722,-0.062488983568427,1.00612473619155,-0.000322738156942511,0
0.34,0.00122505606413516,0.000704380152591285,-0.0610598309330313,-0.035291172518802,-0.000657940407511252,0.00125061112253281,0.032695386148792,-0.0624882511829511,1.00612277519037,-0.000312147151461538,0
0.35,0.00122496652808248,0.000704379155701572,-0.061058476358952,-0.0352911436588856,-0.000657862947045927,0.00125056360606462,0.0326941395166248,-0.0624875635410461,1.00612089030654,-0.00030196724217982,0
0.36,0.00122488082106422,0.000704378197476205,-0.0610571909044857,-0.0352910855893714,-0.000657788792183146,0.00125051812292706,0.0326929714797991,-0.0624868858164991,1.00611907858587,-0.000292182472432129,0
0.37,0.00122479837367387,0.000704377276417203,-0.0610559508393052,-0.0352910275178767,-0.0006577174591398,0.00125047436904151,0.0326918461838959,-0.0624862300770952,1.00611733718835,-0.000282777504632707,0
0.38,0.00122471896575279,0.00070437639108429,-0.0610547497467312,-0.0352909986434314,-0.000657648759273666,0.00125043222719879,0.0326907424117826,-0.0624856176448079,1.00611566338423,-0.000273737596533343,0
0.39,0.00122464292120348,0.000704375540092767,-0.0610536082084727,-0.0352909405655717,-0.000657582963647793,0.00125039187131673,0.0326897086386054,-0.0624850102856636,1.0061140545499,-0.000265048578114295,0
0.4,0.0012245695668783,0.000704374722111441,-0.0610524967599863,-0.0352909116813535,-0.000657519501158,0.00125035294172126,0.0326886885651234,-0.0624844416460738,1.00611250816356,-0.000256696829373926,0
0.41,0.00122449900652057,0.000704373935860118,-0.0610514246330208,-0.0352908827917689,-0.00065745845708255,0.00125031549446512,0.0326877054640205,-0.0624838920798091,1.00611102180133,-0.000248669258980049,0
0.42,0.00122443146028752,0.000704373180109682,-0.0610504067659485,-0.0352908247044098,-0.000657400015131667,0.00125027964788064,0.0326867874311511,-0.0624833449971742,1.00610959313316,-0.000240953283748082,0
0.43,0.00122436637144908,0.00070437245367664,-0.0610494190370064,-0.0352907958053372,-0.000657343702824842,0.00125024510452565,0.0326858827040449,-0.0624828368849192,1.00610821991962,-0.000233536808918202,0
0.44,0.00122430384374361,0.000704371755425043,-0.0610484702217889,-0.0352907639906845,-0.000657289605701133,0.00125021192038917,0.0326850157416789,-0.0624823453899823,1.00610690000825,-0.000226408209194565,0
0.45,0.0012242436443481,0.000704371084261836,-0.0610475521882758,-0.0352907350815325,-0.000657237525070086,0.00125017997132839,0.0326841764299035,-0.06248187114575,1.00610563133023,-0.000219556310526504,0
0.46,0.00122418577325874,0.000704370439136639,-0.0610466682404376,-0.0352907061675097,-0.000657187458994526,0.00125014925777643,0.0326833689928512,-0.0624814135270377,1.00610441189674,-0.000212970372589416,0
0.47,0.00122413023047554,0.000704369819040074,-0.061045821534226,-0.0352906772486178,-0.000657139405616046,0.00125011978015118,0.032682595976963,-0.0624809742854678,1.00610323979642,-0.000206640071951628,0
0.48,0.00122407689958318,0.000704369223001242,-0.0610450093706481,-0.0352906483248244,-0.00065709326480651,0.001250091476553,0.032681854987339,-0.0624805520368977,1.00610211319184,-0.000200555485891998,0
0.49,0.00122402566416633,0.000704368650087701,-0.0610442288685696,-0.0352906193963794,-0.000657048936507613,0.00125006428506634,0.0326811434795567,-0.0624801452975827,1.00610103031723,-0.000194707076845391,0
0.5,0.00122397617497902,0.000704368099402289,-0.0610434654025765,-0.0352905904645195,-0.000657006124044513,0.00125003801915777,0.0326804489919602,-0.0624797462972912,1.00609998947522,-0.000189085677454303,0
0.51,4.60086404442734,-0.0211377592198046,9.95855197812406,1.06450248173489,-0.293565576575273,4.59153743450047,0.472884979617113,10.0041142951623,0.0592550492542983,18.200123861807,3425.29045604916
0.52,4.56470795319397,0.0791373524258951,11.7683432713378,-3.95320175539356,-1.13085630254079,4.42311942428701,-6.92469531841754,10.3038974285449,0.2676424595174,38.6864696399609,3425.29045604916
0.53,4.54715611630885,0.0497908007524717,12.6479305849319,-2.4751730632444,-2.62937263557081,3.71018967348516,-9.42939168478978,8.7853971013884,0.627483537700303,59.6295702761212,3425.29045604916
0.54,4.55378562081696,0.0107331951777438,12.3185405940326,-0.511952870629119,-4.14345438077537,1.88914384742703,-11.431812891053,4.6175959256445,1.14537521044937,82.0233656139286,3425.29045604916
0.55,4.61483098324848,0.00176258880944014,9.26844496322265,-0.0623208481914024,-4.45989400001842,-1.1857544515072,-8.94032203377718,-2.44511714581631,1.83103724489846,104.620357360299,3425.29045604916
0.56,4.57945247359122,-0.0391953543403654,11.0395670887386,2.00217919281999,-2.02961191889886,-4.10531322706883,-6.76422775191194,-8.95131196792884,2.67388707450578,125.185386595229,3425.29045604916
0.57,4.54687805054855,0.0736221587246287,12.670547287244,-3.65005662695257,2.22752643076648,-3.96454867911244,9.53734635296165,-9.10520216589922,-2.6134981293853,147.048944804734,3425.29045604916
0.58,4.52132918399627,0.0398516551353862,13.9503995301993,-1.94941163979855,4.49560972459911,0.483217289180905,13.6314144703738,3.54942140784249,-1.45490702050956,168.48392828661,3425.29045604916
0.59,4.47806630328279,0.0693962149738601,16.1160256093867,-3.43258089613247,0.707927785857791,4.42229939073102,-1.09687070522525,16.4409783074767,-0.143238934008198,189.995366473125,3425.29045604916
0.6,4.43999227191401,0.00503010158395534,18.0222023492567,-0.188182835564567,-4.30901276279237,1.07049786859691,-17.5406133076633,4.14271349337366,1.32842661475828,211.054513904534,3425.29045604916
0.61,4.41713046093335,0.0955650459038382,19.1679320711119,-4.73210085354456,-0.911432685321876,-4.32313134741831,1.10276311986344,-19.7125927232403,2.95544027201757,232.924114068649,3425.29045604916
0.62,4.4090684344924,0.0275952155096535,19.5736024517908,-1.3254961994381,4.40827042163041,0.088305411695407,19.5319994332971,1.83952473567449,-1.54450858745814,254.167871907833,3425.29045604916
0.63,4.47714934984593,0.0530835747573075,16.172183601562,-2.57039789540534,-1.67847752728741,4.15095137975934,-8.61119370083745,13.928166097157,0.396115096050955,275.142617976475,3425.29045604916
0.64,4.43506088594352,0.133340679592582,18.2793309400709,-6.58856054657959,-2.78492070579287,-3.45423818827053,-5.78905720228321,-18.5480426568755,2.49311873557911,296.452632982485,3425.29045604916
0.65,4.42621793647415,0.0930668165995474,18.7242248221506,-4.56744222631048,4.4268423275059,0.0559791114579627,18.5598666212638,5.19513952478866,-1.5371284550308,317.810472534172,3425.29045604916
0.66,4.36359705716081,-0.00751233129724627,21.858149551352,0.476663709532871,-3.34463958803595,2.80257412721354,-16.4229936443552,14.4322967631186,0.871629750744992,339.059488634598,3425.29045604916
0.67,4.34694829519616,0.0784449872887373,22.6935381534015,-3.82129494558258,1.18552085064818,-4.18290011951253,10.2381075581713,-20.6101946281043,-2.8473706478805,360.231844142091,3425.29045604916
0.68,4.4371705578581,0.00626712625003312,18.1853522582171,-0.192416827690847,0.571691684382938,4.40019209289794,2.1267042239628,18.061594340888,-0.127788104168833,381.453189748514,3425.29045604916
0.69,4.40983964780677,0.0522059259359724,19.5549658314918,-2.5220952761954,-1.74255084362916,-4.05128717020143,-5.18492255450624,-19.0229921767526,2.74722894701328,402.832081533243,3425.29045604916
0.7,4.44777376945274,-0.000361373044660773,17.6612963920065,0.117023020518329,2.15394888388104,3.89142593922202,8.65657322477453,15.3947661443021,-0.505616405603782,424.108208464035,3425.29045604916
0.71,4.34195874383801,0.074966085466269,22.9550887089018,-3.63030820896136,-2.00213804016784,-3.85352681517521,-6.98025218030799,-22.1673479429748,2.67968362745546,445.016683490437,3425.29045604916
0.72,4.3141082956397,0.0867358135970713,24.3508266514101,-4.21645103476779,1.20864038763411,4.14225082548695,2.27889739080762,24.6078817580423,-0.263799320788156,466.156085017323,3425.29045604916
0.73,4.44347471093517,0.0337504360301966,17.8857643682813,-1.56676818298161,0.362608348058007,-4.4287833300548,3.15539923614547,-17.6748065120221,-3.05230412786177,487.291797874676,3425.29045604916
0.74,4.2767057412792,0.0716752529025695,26.2274905842104,-3.43635989933943,-2.34190837309461,3.57921981881505,-17.5694024626855,19.773869849041,0.596154876528366,508.205742531632,3425.29045604916
0.75,4.36131738901349,0.00165805045403045,22.0002147248556,0.0571432262830465,4.14875989436665,-1.34494738028577,20.912965430737,-6.83085574294052,-1.88390673631094,529.30068686896,3425.29045604916
0.76,4.29446040546173,0.0616055930142676,25.3464796268585,-2.97162843516236,-3.79406889196875,-2.01276592433501,-20.7879754799,-14.8031983192314,2.07289210083609,550.412842299355,3425.29045604916
0.77,4.28397262546938,0.0805160467438366,25.8743007092077,-3.85984044952836,0.506302066389498,4.25471062554482,-1.26662137185156,26.1299344772751,-0.0996485328972162,571.14600099924,3425.29045604916
0.78,4.33919840436012,0.103364778004301,23.116448701592,-5.0124931109423,3.65110424611371,-2.34707580911732,22.3466919455546,-7.75375050224502,-2.11830500329777,592.168514412103,3425.29045604916
0.79,4.28842505574913,0.00301384982211961,25.6586381493087,-0.000832717987416833,-3.20071293644972,-2.85412600291421,-19.138039653146,-17.090966930083,2.29971835947416,613.209694514928,3425.29045604916
0.8,4.27981044766951,0.113947383435303,26.0928335293392,-5.5667453103214,-2.27947860888242,3.62405004736694,-19.1069345851272,18.6212154732032,0.588078999023501,634.224536669736,3425.29045604916
0.81,4.26077173481679,0.0860262373368199,27.0483577693014,-4.16844531209056,3.56351425540925,2.33729382860158,19.9572579841471,18.7269177413213,-0.970100079023182,655.133847879909,3425.29045604916
0.82,4.34925721099949,0.0476217609049451,22.6276935003082,-2.23458985705611,2.98230189308324,-3.1660987884232,17.3041007444169,-14.7503899067183,-2.37513007502528,676.016539890574,3425.29045604916
0.83,4.21096455296448,0.0579743733960374,29.5459826629081,-2.74600071599327,-2.01639276859114,-3.69726164844569,-11.3594820411957,-27.4129126362898,2.65607412230555,696.849816750957,3425.29045604916
0.84,4.27254409437148,0.106760213107478,26.4707054176708,-5.16344417268604,-4.27065938598944,0.165828798197687,-26.5395724363728,-4.79692567464543,1.55696834201173,717.619138865631,3425.29045604916
0.85,4.28499331136766,0.106129875411905,25.8520259798086,-5.10100653264175,-2.36928111973097,3.5719655939842,-18.9986719731594,18.2591888692526,0.610430241455766,738.348004977617,3425.29045604916
0.86,4.23096173170671,0.111180611575397,28.5573790396369,-5.38801584972564,0.881340054380995,4.13964225653626,-0.0866767792767638,29.0610925387591,-0.183498629009127,759.262301009401,3425.29045604916
0.87,4.18708788182394,0.107020061108543,30.7548374953667,-5.19271208813857,4.01861202018163,-1.18064205195659,31.0555363905698,-2.89446846427984,-1.83099541308772,780.1444472475,3425.29045604916
0.88,4.18420418484526,0.142259316800277,30.9029543546436,-6.89896650466131,2.96685496672815,-2.95390825519236,27.3263480811043,-15.9955939942208,-2.32002178879419,800.723857135546,3425.29045604916
0.89,4.17565385548091,0.136934392594352,31.3344283284752,-6.69809880496367,1.82389421362925,-3.75875591734253,20.5229621395018,-24.6072946764568,-2.65704181209691,821.628909574058,3425.29045604916
0.9,4.1380495976196,0.148757155469702,33.2186022463253,-7.2178438362522,1.07870116757901,-3.9977477352538,16.696958959097,-29.6105448508183,-2.84210872161536,842.183824253892,3425.29045604916
0.91,4.18062871616714,0.0597482005214207,31.0936736616392,-2.81274795177063,1.04215706004832,-4.04909063520419,10.8935063414266,-29.258496413965,-2.87538906502519,863.032016433634,3425.29045604916
0.92,4.11849299888885,0.13130199117453,34.2045079118915,-6.32601076572572,1.42311342704437,-3.86703671673142,18.694084292855,-29.3342459619189,-2.75709276436758,883.608060898918,3425.29045604916
0.93,4.1608903197834,0.068420522156599,32.0887627374058,-3.18231861907664,2.47823831577926,-3.34305615736903,22.0558000521707,-23.5235526625871,-2.48723465313354,904.226762490834,3425.29045604916
0.94,4.15511023447472,0.155079372024477,32.3818695422671,-7.55814883418686,3.58215630014998,-2.1111956123391,32.0831442548626,-8.7397336100022,-2.06605362200277,924.974087913999,3425.29045604916
0.95,4.12356554407185,0.0761369094585289,33.9633238809997,-3.62551462351379,4.11714796964943,0.242244135636095,33.5823557819679,6.23515079724011,-1.49356447707139,945.623248475576,3425.29045604916
0.96,4.12958747433543,0.0201752592559288,33.6663902736403,-0.826279508028742,2.88917060765779,2.95069363864167,22.8426224243763,24.7451646318999,-0.769978042857834,966.25098398182,3425.29045604916
0.97,4.14086939760948,0.127158484406409,33.1064944612721,-6.1835334611499,-0.30657170166967,4.13146250617751,-9.6117530064352,32.2783250142055,0.104766925710758,986.8518252442,3425.29045604916
0.98,4.08877735855891,0.117407098056792,35.7153159756143,-5.69417516232478,-3.64890941804236,1.8486061704592,-34.7366306734828,10.0684614252257,1.13057428325187,1007.45540523501,3425.29045604916
