t,iq,id,vq,vd,ia,ib,va,vb,theta_e,omega,r
0,0,0,0,0,0,0,0,0,0,0,0
0.01,0.000834988322893793,0.000477710583646154,-0.0414027234874065,-0.0239175946466889,-0.000702695397212701,0.000656987123034099,0.0347899992693794,-0.0328008048177868,1.33866692222885,-0.00167889987091026,0
0.02,0.000923925900835121,0.000528623085612837,-0.0458592026519324,-0.0264666393889685,-0.00077752598343093,0.000727003976582379,0.038540085206685,-0.0363071797400756,1.33865435695136,-0.00180974559350803,0
0.03,0.000957522526944843,0.000547838804060548,-0.0475266028919966,-0.0274287221311553,-0.000805790815858591,0.000753444029719046,0.0399409314447201,-0.0376275799850301,1.33864138310637,-0.00182494662505122,0
0.04,0.000937890591421634,0.000536799925408031,-0.0465632166099234,-0.026876035940178,-0.000789216275403218,0.00073819414250857,0.0391300976600477,-0.0368685490090878,1.33862912908772,-0.00173354641723543,0
0.05,0.000957546915262725,0.000548081295031744,-0.0475413379369065,-0.0274408604010749,-0.000805740275819537,0.000753705385953351,0.0399515553468843,-0.0376437625344128,1.33861686003057,-0.00172297665594097,0
0.06,0.000957959437267458,0.000548420505982245,-0.0475683265468418,-0.0274578410573209,-0.000806054642583471,0.000754140071870763,0.0399734613233906,-0.0376669764624594,1.33860488073749,-0.00167399009057703,0
0.07,0.000984237055936842,0.000563590389835695,-0.0488732120348301,-0.0282173440924652,-0.000828127415601894,0.000774959155906233,0.0410681142542417,-0.038706838592613,1.33859337204296,-0.00168021630685758,0
0.08,0.000958408489823619,0.00054888546987156,-0.0476031109097647,-0.0274811215080145,-0.000806367377562124,0.000754714346495213,0.0400010923066906,-0.0376985519867439,1.33858199254398,-0.00157969569269214,0
0.09,0.000957418949569474,0.000548437666116439,-0.0475602326450559,-0.0274586876284263,-0.000805499210532391,0.000754059639843995,0.0399641160324676,-0.0376672893273567,1.33857106330114,-0.00153219049429862,0
0.1,0.000957210245368746,0.000548421843480544,-0.0475557559199304,-0.0274578986889587,-0.000805291761555008,0.000754004742038885,0.0399595419820366,-0.0376659146459365,1.33856046838722,-0.00148768410251193,0
0.11,0.000957031285597825,0.00054841917562523,-0.0475525714259017,-0.0274577645545508,-0.000805110473947012,0.000753969229178022,0.0399560868804545,-0.0376654616956994,1.33855019448162,-0.00144457444625237,0
0.12,0.000956858554052207,0.00054841697240242,-0.0475495225164317,-0.0274576508242637,-0.000804935375816443,0.000753935347918612,0.0399527707608068,-0.0376650473099697,1.3385402317626,-0.00140277204391666,0
0.13,0.0010026165402622,0.000574683524184525,-0.0498162545166386,-0.0287727607537457,-0.000843410958130269,0.000790037363345729,0.0418555410189128,-0.039467007252551,1.33853021290413,-0.00145530679269995,0
0.14,0.00105487598234237,0.000604991346124976,-0.0524625467089452,-0.0302901784107555,-0.000887282682381437,0.000831569184466869,0.0440810863483201,-0.0415532374394054,1.33852052933509,-0.00152262184265685,0
0.15,0.000959423132271829,0.000550124575818931,-0.0476923194973459,-0.0275431490393796,-0.00080701598905872,0.000756210942172766,0.0400709519876356,-0.0377822869192298,1.33851105994786,-0.00128669244347922,0
0.16,0.000956296036149657,0.000548460547728464,-0.0475426255140606,-0.0274598433837646,-0.000804349313813295,0.000753878811572679,0.0399441243922035,-0.0376671098701674,1.3385022699155,-0.00124368585841132,0
0.17,0.00095605551979227,0.000548408323082209,-0.0475354236785631,-0.0274572296176815,-0.000804120864393811,0.000753779464563514,0.0399373971377365,-0.0376632482991218,1.33849375837556,-0.00120778127889573,0
0.18,0.00095590953464245,0.000548404981939549,-0.0475327505115262,-0.027457063180717,-0.00080397334883066,0.000753749240136583,0.0399345232488212,-0.0376628005144365,1.33848550502158,-0.00117314524084704,0
0.19,0.000955770650885082,0.000548403174862846,-0.0475302898568548,-0.0274569695104746,-0.000803832579666428,0.000753721940213868,0.0399318488352402,-0.0376624624417375,1.3384775016625,-0.00113956393378604,0
0.2,0.000955636132701395,0.000548401465823896,-0.0475279108358646,-0.027456878766669,-0.000803696219408034,0.000753695543804996,0.0399292623260386,-0.0376621362926726,1.33846974071519,-0.00110699993625681,0
0.21,0.00095550568905342,0.000548399809763464,-0.047525603072847,-0.0274567909486464,-0.000803563989633362,0.000753669946147893,0.0399267533471584,-0.0376618199744867,1.33846221483701,-0.00107542226441763,0
0.22,0.000955378999865219,0.000548398203808053,-0.047523354580169,-0.0274567230129282,-0.000803435574121952,0.00075364507664994,0.0399243060599011,-0.037661527515443,1.33845491690756,-0.00104480103846309,0
0.23,0.000955256414242627,0.000548396646406317,-0.0475211866925385,-0.0274566323102053,-0.000803311307715788,0.000753621019901467,0.039921950785319,-0.0376612226033552,1.33844784002281,-0.00101510728877223,0
0.24,0.000955137408461135,0.000548395136092073,-0.0475190769890757,-0.0274565643925846,-0.00080319067601978,0.000753597659421912,0.0399196549634933,-0.0376609446739389,1.33844097748769,-0.000986312923336615,0
0.25,0.000955021895137356,0.000548393671444151,-0.0475170247517152,-0.0274564964823638,-0.000803073589400884,0.000753574979068787,0.0399174228954162,-0.0376606716579733,1.33843432280993,-0.000958390701017599,0
0.26,0.00096455415296964,0.000553895595680099,-0.0479916041049614,-0.0277319634195662,-0.000811077822755967,0.000761129299369188,0.0403155704229751,-0.0380382786301068,1.33842790861567,-0.000951333233176744,0
0.27,0.000931349148281467,0.000534896960699696,-0.0463542250450123,-0.0267807590263107,-0.000783135602938864,0.00073499974284347,0.0389410090733092,-0.036735827823821,1.33842150922886,-0.000856342248525321,0
0.28,0.00092638614010256,0.000532012495771122,-0.0460578142404119,-0.0266363403683582,-0.000778965799839854,0.000731054621017195,0.0386856008099745,-0.0365272661281216,1.33841542151087,-0.000820797574034096,0
0.29,0.000953710503127593,0.000547892108843739,-0.0474657633320945,-0.0274313831140974,-0.000801894371056123,0.000752804692053411,0.0398723941095575,-0.0376254123727956,1.33840965750433,-0.000853078538008396,0
0.3,0.000949360172335381,0.000545503583779332,-0.0472536318786115,-0.0273117857762283,-0.00079820717925063,0.000749482618694731,0.0396933143237584,-0.0374603812847818,1.33840448193665,-0.000822589851655752,0
0.31,0.000954247988274588,0.000548298530947449,-0.0474982060695318,-0.0274517354154666,-0.000802315745687244,0.000753332560286326,0.0398988745978684,-0.0376531162451139,1.33839895385302,-0.000809656209672002,0
0.32,0.000954310304786098,0.000548382054561054,-0.0475042370007319,-0.0274559101366661,-0.000802353096190084,0.000753432508337492,0.0399035792672391,-0.0376587824566536,1.33839357267734,-0.000787397779659422,0
0.33,0.000954224506705103,0.000548383471701725,-0.0475028585497791,-0.0274559930487144,-0.000802265346380647,0.000753418313574189,0.0399020222448093,-0.0376587539021955,1.33838835384942,-0.000765510207370136,0
0.34,0.000954137049461498,0.000548382435140755,-0.0475013108394865,-0.0274559280876381,-0.000802176666416757,0.000753401221250999,0.0399003405263293,-0.0376585361439613,1.33838329307325,-0.000744276111937487,0
0.35,0.000954051891494599,0.000548381356900931,-0.0474997917885532,-0.0274558829665462,-0.000802090349182195,0.000753384494139422,0.0398986879024843,-0.0376583381615379,1.33837838558061,-0.000723684873585723,0
0.36,0.000953969498310383,0.000548380309066671,-0.0474983272279436,-0.0274558151005448,-0.000802006827550217,0.00075336831340418,0.039897099143208,-0.0376581246511977,1.33837362672925,-0.000703717307389831,0
0.37,0.000953889462615487,0.000548379292864788,-0.0474968993033029,-0.0274557699794266,-0.00080192570148907,0.000753352590108384,0.039895546226645,-0.0376579359480696,1.33836901201776,-0.000684354532089605,0
0.38,0.000953811813433825,0.000548378307404617,-0.0474955119301829,-0.0274557248574017,-0.000801846996142949,0.000753337333639057,0.0398940380374763,-0.0376577509952451,1.33836453707936,-0.000665578229652893,0
0.39,0.000953736492557738,0.000548377351759059,-0.0474941645945006,-0.0274556797340566,-0.000801770651880291,0.000753322533143718,0.0398925739159421,-0.0376575698439198,1.33836019768133,-0.000647370636604641,0
0.4,0.000953663558194884,0.000548376425027097,-0.0474928625112913,-0.027455634609066,-0.000801696722444636,0.000753308204505935,0.0398911587820985,-0.0376573938599628,1.3383559897179,-0.00062971452749551,0
0.41,0.000953592777514621,0.000548375526334964,-0.0474915963207866,-0.0274555894830559,-0.000801624978456734,0.000753294296490713,0.0398897833776494,-0.0376572210477997,1.33835190920834,-0.000612593198609116,0
0.42,0.000953524208724609,0.000548374654834886,-0.0474903710444827,-0.0274555443555919,-0.000801555473834101,0.000753280824829466,0.0398884524435872,-0.0376570527187166,1.3383479522919,-0.000595990452162645,0
0.43,0.000953457735409527,0.000548373809705423,-0.0474891830180452,-0.0274554992263762,-0.000801488092650763,0.000753267764956224,0.0398871622730712,-0.0376568881785607,1.33834411522543,-0.000579890580982559,0
0.44,0.000953393241154052,0.000548372990149029,-0.047488028440272,-0.0274554540957201,-0.000801422719061022,0.000753255092233736,0.0398859090301946,-0.0376567266976475,1.33834039437841,-0.000564278353644011,0
0.45,0.000953330464107939,0.000548372195392385,-0.047486896203845,-0.0274554316926112,-0.000801359095775177,0.000753242748451064,0.0398846765376159,-0.0376565879759723,1.33833678623155,-0.000549139000061791,0
0.46,0.000953269869759824,0.000548371424686019,-0.0474858115342494,-0.0274553836468571,-0.000801297673353186,0.000753230842891379,0.0398835003566683,-0.0376564308925049,1.33833328737038,-0.000534458197517054,0
0.47,0.000953211138060565,0.000548370677303243,-0.0474847602548737,-0.0274553385097223,-0.000801238138019878,0.000753219303809438,0.0398823599899453,-0.0376562800974642,1.33832989448515,-0.000520222057106603,0
0.48,0.000953153890741127,0.000548369952537915,-0.0474837253003001,-0.0274553160961587,-0.000801180119418267,0.000753208045980867,0.0398812341450594,-0.0376561510699288,1.33832660436604,-0.000506417110603888,0
0.49,0.000953098767915547,0.000548369249706786,-0.0474827404107861,-0.0274552709540971,-0.000801124238249064,0.000753197218738873,0.0398801660085985,-0.0376560074783242,1.33832341390047,-0.000493030297715724,0
0.5,0.000953044896639792,0.000548368568146559,-0.047481763627589,-0.027455248533485,-0.000801069642922718,0.000753186622776804,0.0398791041658515,-0.0376558840043735,1.33832032007017,-0.000480048953728971,0
0.51,4.62703853181847,0.00996961462430117,8.64932506837783,-0.49442898508154,-0.437263861678546,4.60634185481479,-1.32804093674437,8.5610508367892,0.0967975318037657,29.8630380671989,3284.14272250761
0.52,4.62045118628987,-0.0365537397598723,8.98013196543663,1.84055324762911,-1.99759839963285,4.16647404582846,-2.15224983699553,8.9105682766683,0.439158311841767,63.5445314853501,3284.14272250761
0.53,4.60329536150815,0.0100881422785819,9.83940353222493,-0.488621111122148,-3.94102839710083,2.37880750148934,-8.68651334629926,4.64726783656371,1.02992495878825,97.7844547776405,3284.14272250761
0.54,4.59342640794444,0.00414039932100208,10.3343802721073,-0.184441965938631,-4.38056453076285,-1.38211349024976,-9.79701349443761,-3.29423147898372,1.87732274851655,133.903119933748,3284.14272250761
0.55,4.62996666840941,-0.0226734302666105,8.5089676032141,1.15950598806633,-0.634011665627868,-4.58640759667847,-2.35422920384657,-8.25860694455577,2.99932907937816,171.902581901737,3284.14272250761
0.56,4.59092647190556,-0.0430025833847116,10.4625288433103,2.18456348520284,4.36538875279487,-1.4219128417709,9.22131011710661,-5.40409725505831,-1.89504970756969,206.510578296503,3284.14272250761
0.57,4.59923066367072,0.0433152195280492,10.0489424250773,-2.12810431053988,1.21151035238538,4.4370081780356,0.497382702610974,10.2597603415577,-0.257131670793191,240.794252255853,3284.14272250761
0.58,4.62971313100842,0.0190631676819915,8.5265507971159,-0.915217244747234,-4.61823726856185,-0.326330524254565,-8.43452876066795,-1.54868191903494,1.64545789323555,277.978345031817,3284.14272250761
0.59,4.61116669166992,0.0677607511400939,9.45559808799432,-3.34103469436863,2.79546474150971,-3.66780951751004,8.46879598210085,-5.37125149701718,-2.47565937791689,311.853011799774,3284.14272250761
0.6,4.56880476284387,-0.0239794452608821,11.5754414300794,1.24921190292595,0.227112963970267,4.56321944205804,1.88339588365167,11.4893078392501,-0.0549777695192205,348.612143533686,3284.14272250761
0.61,4.61955550581023,0.0360155998747982,9.03966128198007,-1.73875723025649,-2.31410191228286,-3.9983149618639,-2.95539529757784,-8.71804974944245,2.62472644273674,382.807157250979,3284.14272250761
0.62,4.60095174658284,0.0345760181611965,9.97173607131477,-1.66720091419709,3.05104787702394,3.44398886867006,5.29993298737979,8.60963352841125,-0.717458326814634,418.624498484543,3284.14272250761
0.63,4.54752181294852,0.0157811537010333,12.6451131042959,-0.728225401705608,-2.80711441946194,-3.57775241179481,-7.19653107037877,-10.4230100359348,2.47978130106192,454.45783256127,3284.14272250761
0.64,4.60089302295647,0.0543618189146486,9.97846545400112,-2.6449002871035,1.61691573005806,4.30775525511095,0.908900612938679,10.2829553155313,-0.347262499446616,489.142211583511,3284.14272250761
0.65,4.52657369722811,0.095578828597559,13.6963515524054,-4.69985146394158,0.926390466038503,-4.43179483430206,7.66390229075253,-12.285896438925,-2.91441507858907,524.038971216181,3284.14272250761
0.66,4.55641418133582,-0.0155004473749216,12.2063053626511,0.86559901525645,-3.98188980539525,2.21488239720225,-10.2235495861157,6.72474431645778,1.05977383749758,559.359189414197,3284.14272250761
0.67,4.56536929684815,0.0576986135012074,11.7605252848705,-2.79577892100655,3.85161464542653,2.45173215701462,8.3095028212755,8.77943606471608,-0.991299251705545,594.697640771459,3284.14272250761
0.68,4.56213283539659,0.0263968708363522,11.9244006426273,-1.22349256817007,1.56938064755606,-4.28378304605523,5.31302828729026,-10.74523127572,-2.78463756665482,629.884984461455,3284.14272250761
0.69,4.58017885488556,0.124155057723135,11.0241838502835,-6.11083947767767,-4.28010245927492,-1.63529072620369,-7.85286909978967,-9.85938312412922,1.96284966150289,664.964637050168,3284.14272250761
0.7,4.47980895286635,0.0555047769828407,16.044797280647,-2.66756733828327,-2.78957820268115,3.5057128355836,-12.2117401102843,10.7435952436885,0.684517248774864,700.014230097734,3284.14272250761
0.71,4.51836139682233,-0.0143276392123326,14.1192925922773,0.836281306985969,1.47805886061767,4.26979355450462,5.45040379691864,13.0517005857967,-0.336426439812872,735.299322555828,3284.14272250761
0.72,4.54729178103978,0.071888055213676,12.6749838359232,-3.49767081275312,4.08506195534021,1.99882446838794,9.70894959187092,8.86708600261715,-1.09993691320959,770.786105793508,3284.14272250761
0.73,4.54328449808934,0.0198953587270276,12.8775533252575,-0.880985642570006,4.53972209096733,-0.180978431480209,12.9006934703714,0.423819927306442,-1.60626171740333,805.651340101418,3284.14272250761
0.74,4.48337212429698,0.0431414400243111,15.8753662481869,-2.0270330253281,4.28981985910409,-1.30381454402333,15.8037906783963,-2.52513694544981,-1.85623451619797,840.328437850252,3284.14272250761
0.75,4.57359471425349,0.0920256589157387,11.3665351262842,-4.49211521768756,4.37187558580252,-1.34645504730392,12.1636864494955,1.19245623164646,-1.84944068775265,875.831116732464,3284.14272250761
0.76,4.51328077256391,0.0402207490342628,14.3845150819843,-1.87589194380192,4.51217458957764,-0.107710323636326,14.4109596418268,1.66056825523477,-1.58575143188897,910.427551081086,3284.14272250761
0.77,4.4686862903002,0.0832502426278237,16.616606115027,-4.0477716641106,3.95253759356505,2.08651248150342,12.5917418274759,11.5734217920597,-1.06645746233525,945.683414384461,3284.14272250761
0.78,4.5264544789844,0.112160335501435,13.7305599107542,-5.46410361856759,1.4047162991763,4.3044328557902,-1.2997789567819,14.7205733067962,-0.290671237852783,980.223057744994,3284.14272250761
0.79,4.52639165523465,0.0536360150144901,13.7361280994068,-2.55033571374042,-3.01503753039264,3.37648440378574,-11.1518166960316,8.41560525418124,0.740756408761926,1015.4986467108,3284.14272250761
0.8,4.47528240413472,0.133475598850117,16.2940765230585,-6.52286049458751,-4.07559354100708,-1.85351169965221,-11.7484039235915,-13.0391581023959,2.02743711260889,1050.06971030194,3284.14272250761
0.81,4.46549153907436,0.0716790935603959,16.786109487552,-3.42287115336544,1.78911584081548,-4.09204314324048,10.0843359546739,-13.8490319883339,-2.71336833958918,1084.76427075423,3284.14272250761
0.82,4.48228532664178,0.0397544750740462,15.9489123363998,-1.83186219228155,3.57911310368092,2.69859436721715,11.5333045762357,11.1672023961894,-0.915881257441284,1119.79108697703,3284.14272250761
0.83,4.4502387997983,0.0659226817861902,17.5538288987832,-3.14899408325352,-4.0096314922959,1.93179358917899,-17.2498684333849,4.52715272274217,1.1366361337615,1154.68821359288,3284.14272250761
0.84,4.52045680873237,0.0959594634024243,14.0455225580599,-4.65081735843589,1.25395015978818,-4.3441163629671,8.62079729963401,-12.0245024823949,-2.83935186040451,1189.47096091669,3284.14272250761
0.85,4.47634181073878,0.131017696935306,16.253854445743,-6.40522522422793,1.35134631943967,4.26950404244044,-1.71132407856145,17.3863758274869,-0.277274547988798,1224.22156103357,3284.14272250761
0.86,4.46834547435294,0.131225055472029,16.6562536490061,-6.41155283321349,-2.63878820595482,-3.60834146076391,-4.14904316868047,-17.3586933879697,2.53952516105964,1258.97647950826,3284.14272250761
0.87,4.47026146805336,0.118086560403863,16.5630786442521,-5.74667116785826,2.87577320474776,3.42448689636351,5.8160450799218,16.5388458882563,-0.672113674802007,1293.68704177539,3284.14272250761
0.88,4.4819786943211,0.0597250390071478,15.9798390986883,-2.8116149941164,-2.15305875420403,-3.93141680537412,-5.00450666333622,-15.4342265615006,2.65387667439142,1328.33464638944,3284.14272250761
0.89,4.46146829717847,0.0955132807093053,17.0080374401623,-4.58525027364004,4.40418242060216,0.719026675151434,15.8878091098579,7.60758695820128,-1.38755888035739,1362.85399447096,3284.14272250761
0.9,4.41342055441798,0.0764018563582067,19.4131976395079,-3.61211930570841,-2.88455890820383,-3.34117316805281,-9.65550305710844,-17.2247179710855,2.44671599467222,1397.3765535135,3284.14272250761
0.91,4.41133668116145,0.0795825145311875,19.5201637089329,-3.81023932109376,-1.02081631105877,4.29233721301763,-8.54853109373737,17.9576538291325,0.251523984296984,1432.27746849906,3284.14272250761
0.92,4.44072338267848,0.0620966311847897,18.0536181333581,-2.90962385073564,4.40192290237789,-0.589028789273411,18.2713979394902,0.74502080150853,-1.68983530288036,1466.77647275761,3284.14272250761
0.93,4.40797286365565,0.125017907163917,19.6939597511167,-6.031112075999,-1.15345285061051,-4.25621906922737,1.25315498136361,-20.5585983506792,2.90529934182188,1501.19798946814,3284.14272250761
0.94,4.47397677344036,0.123621881911821,16.3965721186082,-5.99106728170883,-4.43942592846353,0.568548999345659,-16.9116867984248,-4.32843089891307,1.47104583947841,1536.029776377,3284.14272250761
0.95,4.38240976626632,0.0758551585012426,20.9777705419292,-3.56131006030611,-1.18038107571425,4.22113371982378,-9.41083227751638,19.0836585093091,0.28997844003737,1570.33396153612,3284.14272250761
0.96,4.43997777550064,0.0820131044979227,18.1022423632348,-3.89314917491306,2.70919063076851,3.51858137925004,7.64893987945206,16.8624288818648,-0.637688424907741,1605.05307132216,3284.14272250761
0.97,4.41192254214074,0.139714060750261,19.5079049315651,-6.79742201732602,4.30125081056817,0.99187801730235,17.1244606109771,11.5549188523202,-1.31249923570637,1639.58030673216,3284.14272250761
0.98,4.34335543587788,0.135532974198898,22.9392205297543,-6.54120705557691,4.26336914402969,-0.840707542014845,23.6980252406253,2.7200786663835,-1.73429707275737,1673.84571628196,3284.14272250761
