t,iq,id,vq,vd,ia,ib,va,vb,theta_e,omega,r
0,0,0,0,0,0,0,0,0,0,0,0
0.01,0.000626306045832416,0.000321580641292787,-0.0295921925506384,-0.0160861483513631,-0.000578567794885895,-0.000401164154207962,0.0281234597998069,0.0185346442540656,2.65141621636903,-0.00517261417635688,0
0.02,0.000810233491987044,0.000405367709750298,-0.0387965273298547,-0.0202773509764892,-0.000739099080208937,-0.000523959770669491,0.036155344711519,0.0246806106948577,2.65137707194304,-0.00526301508943393,0
0.03,0.000865689926111851,0.000439197044515038,-0.0418560146927679,-0.0219695695070266,-0.000795073427776217,-0.000556930279771592,0.0390896483975308,0.0265817106003864,2.65134248087508,-0.00426512924597648,0
0.04,0.000833528165420716,0.00043520852123214,-0.0407285801575035,-0.021770048995681,-0.000776424504799404,-0.000530415542617003,0.0383834123712263,0.0256800687238358,2.65131784322996,-0.00283308009758508,0
0.05,0.000830297704019161,0.000446189785479589,-0.0408256178604425,-0.0223193636578857,-0.000784599976075599,-0.000522381545910632,0.038914145428331,0.0255063590769544,2.65130083745144,-0.00203555799588293,0
0.06,0.000817134238719553,0.000448763551556037,-0.0403860844927057,-0.0224480984394257,-0.000780677994936338,-0.000509547797085956,0.0388210363902273,0.0250575353494066,2.65128923776186,-0.00138124760434413,0
0.07,0.000814797231890022,0.000455389416332401,-0.0403799350037619,-0.0227795364519197,-0.000785426331536095,-0.000504360513257094,0.0391107069929758,0.0248957633018545,2.65128220648933,-0.00104142251468949,0
0.08,0.000799092853945485,0.000450919382282747,-0.0397312098278377,-0.0225559343128396,-0.000774090323180553,-0.000492607196560527,0.0386080917763875,0.0244285582156386,2.65127696003355,-0.000647337788976719,0
0.09,0.000790580618007442,0.000449870656043173,-0.0393825461439987,-0.022503487541785,-0.000769158184661561,-0.000485589340601579,0.0383977104211641,0.0241455529392037,2.65127391076098,-0.000424487973876873,0
0.1,0.000785819551413761,0.000449624463471072,-0.0391888089231269,-0.0224911730891009,-0.000766699841752406,-0.000481503767578832,0.0382956576201987,0.0239803715395272,2.65127211635487,-0.000295844537516909,0
0.11,0.000783092967245895,0.000449566579881989,-0.0390783895037731,-0.0224882695187489,-0.000765365315943238,-0.000479124867073164,0.0382411241133085,0.0238842881138842,2.65127105147128,-0.000220495720560253,0
0.12,0.000781504712398516,0.000449552917169887,-0.039014280531546,-0.0224875937013645,-0.000764605642059135,-0.000477729686086578,0.038210353530594,0.0238280263332664,2.65127041596557,-0.000175921201384226,0
0.13,0.000811512300173068,0.000465814137774864,-0.0404162642210272,-0.0233010080885677,-0.000793082460741776,-0.000496543285874346,0.0395881704776739,0.0246817371705884,2.65126921257132,-0.000423826485660438,0
0.14,0.00082755527919287,0.000475235149622093,-0.0413322438676496,-0.0237722626627382,-0.000808949025403668,-0.000506258493118661,0.0404352827508977,0.0252678207231258,2.65126780695997,-0.000522074992823029,0
0.15,0.000792635189366209,0.000455572135486251,-0.039583312487953,-0.0227886893941721,-0.000775158997139489,-0.000484711298823135,0.0387440301956529,0.0241880779728636,2.65126658044914,-0.000115414129461626,0
0.16,0.000781188556642457,0.000450960840210086,-0.039049158568902,-0.0225580183246816,-0.00076570043664795,-0.000476785152609905,0.0382889868010657,0.0238255003184349,2.65126699226464,-1.87240930143461e-05,0
0.17,0.000778019739926157,0.000449879507879487,-0.038892853624349,-0.0225039218722483,-0.000763253939641545,-0.000474499431976809,0.0381676414577714,0.0237131125799272,2.65126768795616,-1.81228200625444e-05,0
0.18,0.000777559363841126,0.000449626002776222,-0.0388630033134922,-0.0224912340379644,-0.000762813224274996,-0.000474213128815224,0.0381423775605286,0.023692776728891,2.65126828129973,-4.01793506921065e-05,0
0.19,0.000777844946220367,0.000449566612970621,-0.0388700031143731,-0.0224882780035806,-0.000762895114129597,-0.000474493355797139,0.0381430560153933,0.0237003600707726,2.65126870665094,-6.21907336617199e-05,0
0.2,0.000778236333896224,0.000449552725555993,-0.0388839500431102,-0.0224875802506349,-0.000763067037693381,-0.000474845385822485,0.0381490015383083,0.0237130031441398,2.65126898940561,-7.88490347711162e-05,0
0.21,0.000778557348997183,0.000449549494400785,-0.0388961261293238,-0.0224874166397823,-0.000763215271051436,-0.000475130238595067,0.0381545867750275,0.0237238285912355,2.65126917012304,-9.02099768060293e-05,0
0.22,0.000778784067801699,0.000449548752592782,-0.0389049322900472,-0.0224873783730923,-0.00076332132739785,-0.000475330681062218,0.0381586972568789,0.0237316195453585,2.65126928307228,-9.75723659423123e-05,0
0.23,0.000778933545066806,0.000449548588423218,-0.0389108004523301,-0.022487369382353,-0.00076339153996693,-0.000475462677494847,0.0381614510552219,0.0237368032165104,2.65126935272992,-0.00010221099996181,0
0.24,0.000779028772798635,0.000449548555898261,-0.038914557320544,-0.0224873677903348,-0.000763436334809982,-0.000475546733402997,0.0381632177902802,0.0237401198287484,2.65126939533804,-0.000105085638699534,0
0.25,0.000779088028197383,0.000449548551900809,-0.0389168952075411,-0.0224873677353191,-0.000763464222975715,-0.000475599029049354,0.0381643180630327,0.0237421832829645,2.65126942126725,-0.000106849285646531,0
0.26,0.000784182378391193,0.000452444214712614,-0.0391485478177945,-0.0226322121731342,-0.000768417594467559,-0.000478729746849798,0.0384011792101884,0.023878342893905,2.65126965561415,-0.000168667604791544,0
0.27,0.000774188178483047,0.000446005816976808,-0.0386959830886665,-0.0223101568239666,-0.000758031667754269,-0.000472944515944238,0.0379039645800733,0.0236307357867016,2.65126906064381,-4.13070740089406e-05,0
0.28,0.000773054394435575,0.000445672113824494,-0.0384921536038873,-0.022293463469455,-0.000757203351942481,-0.000472101486551374,0.0377932515303167,0.0234587838835561,2.65126909788219,-3.15700261275419e-05,0
0.29,0.000777066900312287,0.000448639450775342,-0.0388234069689717,-0.0224418925610693,-0.000761710455250799,-0.000474244142520039,0.0380801758576421,0.0236811249110348,2.65126943136094,-8.69595183690805e-05,0
0.3,0.000763767071815792,0.000442662979384995,-0.038185800102583,-0.022142939110142,-0.00075017432186987,-0.000465326917462498,0.0375161503123252,0.0232594829618568,2.65127108492572,-2.74758970540128e-05,0
0.31,0.000775680206116359,0.000447934004567451,-0.0387347593258437,-0.0224066061137363,-0.000760434308377145,-0.00047335432526969,0.038007261450797,0.0236196031841757,2.65127113457556,-0.000149620634725804,0
0.32,0.000779320976501673,0.000449170101041295,-0.0389084420251272,-0.0224684423635992,-0.000763239431166384,-0.000475983754762475,0.0381436104565145,0.023743688517388,2.65127074001522,-0.000168517783248739,0
0.33,0.000780139971380878,0.00044945992870092,-0.0389520417537912,-0.0224829439441961,-0.000763880976500153,-0.000476569466284996,0.0381769446019585,0.0237753070652295,2.65127033715041,-0.000158639249420314,0
0.34,0.000780099327148109,0.000449527853753003,-0.0389545897813833,-0.022486325830739,-0.000763921905212684,-0.000476501389560342,0.038181135230656,0.0237759505993004,2.65127003012131,-0.000144416764761444,0
0.35,0.000779866962893278,0.000449543753183582,-0.0389468872975692,-0.0224871237755783,-0.000763826608661813,-0.000476288754579573,0.0381782169744827,0.0237687718344271,2.6512698200657,-0.000132628588504849,0
0.36,0.00077964606499022,0.000449547462470714,-0.0389386470035495,-0.0224873105980556,-0.000763725922652189,-0.000476092031793911,0.0381745045829319,0.0237614092226906,2.65126968371262,-0.000124271900310854,0
0.37,0.000779481570180465,0.000449548320206563,-0.0389322807966736,-0.022487354702927,-0.000763649257869753,-0.000475946448044862,0.0381715476184096,0.0237557690252659,2.65126959772199,-0.000118747445972468,0
0.38,0.000779370160726883,0.000449548513857137,-0.0389278910820523,-0.0224873652219316,-0.000763596990150301,-0.00047584803285924,0.0381694910000471,0.023751889514689,2.65126954440139,-0.000115227403881701,0
0.39,0.000779298274268384,0.000449548554679991,-0.0389250271013052,-0.0224873683759297,-0.000763563189612767,-0.000475784571797917,0.0381681458797366,0.0237493602317042,2.65126951167641,-0.000113031328363188,0
0.4,0.00077925298870824,0.000449548561459242,-0.0389232053519813,-0.0224873685591438,-0.000763541879620004,-0.000475744603318996,0.0381672886335293,0.023747752271576,2.65126949171964,-0.000111678456001136,0
0.41,0.000779225049031031,0.000449548561353641,-0.0389220710077603,-0.0224873687028735,-0.000763528728192128,-0.000475719946268655,0.0381667548730085,0.0237467510446333,2.65126947959777,-0.000110851494086187,0
0.42,0.000779207819563418,0.000449548560302843,-0.0389213612609713,-0.0224873688221948,-0.000763520617212714,-0.000475704741652059,0.0381664209250858,0.0237461245832164,2.65126947225375,-0.000110348460017985,0
0.43,0.000779197458599786,0.000449548559436035,-0.0389209270863258,-0.0224873689258588,-0.000763515739469299,-0.000475695598426167,0.0381662166643982,0.0237457413443544,2.65126946781144,-0.000110043410587457,0
0.44,0.000779191055757093,0.00044954855885803,-0.0389206495301455,-0.0224873690204973,-0.000763512725067069,-0.000475689948184574,0.0381660861073608,0.0237454963426321,2.6512694651272,-0.000109858785629017,0
0.45,0.000779187214051476,0.000449548558496049,-0.0389204749809174,-0.022487369109292,-0.00076351091641728,-0.000475686558038822,0.0381660040270283,0.0237453422549901,2.65126946350624,-0.000109747185298759,0
0.46,0.000779184885745042,0.000449548558274739,-0.0389203609440808,-0.0224873691946366,-0.000763509820262296,-0.00047568450340898,0.0381659504243469,0.0237452415763604,2.65126946252782,-0.000109679780456368,0
0.47,0.000779183488761182,0.000449548558140193,-0.0389202843140736,-0.0224873692778585,-0.000763509162569406,-0.000475683270629248,0.0381659144258707,0.0237451739131178,2.65126946193729,-0.000109639090024144,0
0.48,0.00077918267385393,0.000449548558058981,-0.038920231241335,-0.0224873693597538,-0.000763508778918483,-0.000475682551499922,0.038165889514042,0.0237451270412041,2.65126946158089,-0.000109614534497876,0
0.49,0.000779182091777321,0.000449548558010022,-0.0389201864754175,-0.0224873694411185,-0.000763508504871328,-0.000475682037861975,0.0381658685101643,0.0237450875030494,2.65126946136577,-0.000109599719099672,0
0.5,0.000779181858946678,0.000449548557980564,-0.0389201571522728,-0.022487369521687,-0.00076350839526465,-0.000475681832377909,0.0381658547757343,0.0237450615918356,2.6512694612358,-0.000109590781563113,0
0.51,4.72107875835516,0.0390826308773574,3.94672650759279,-1.94355351640373,-0.893481454380076,4.6359252566567,-2.68428439648632,3.48549389264146,0.198673552664812,61.1907026442992,2116.26871404733
0.52,4.69946973087245,-0.00120636654315009,5.02802955585504,0.0878449203851915,-3.68714141236153,2.91376138555566,-3.88964132995751,3.18739521692489,0.901772496685562,131.068165083775,2116.26871404733
0.53,4.66516373663276,-0.00257271602436226,6.744445581872,0.159371266261853,-3.94377559885216,-2.49206607744646,-5.78857662704906,-3.4648702775319,2.13378954899082,206.553503355461,2116.26871404733
0.54,4.67087052979429,0.0326123766181263,6.46040856410973,-1.58181343053145,3.25345818643739,-3.3515824474885,5.65937466926176,-3.49435128416569,-2.36406740041672,278.708740966851,2116.26871404733
0.55,4.63450655130682,0.0538494910197523,8.28007250318907,-2.6436891177882,0.34546369725955,4.62192660864111,-2.11725390916419,8.43006101364091,-0.0629870670536034,351.261892773568,2116.26871404733
0.56,4.60297217458335,0.047044198616462,9.85842292835902,-2.26568138816237,-1.70360543728931,-4.27636463724158,-1.44145287918477,-10.0121939845446,2.77270621251249,421.496622669503,2116.26871404733
0.57,4.58168386092827,0.0483835709649517,10.9246609351095,-2.32503035894181,0.733728169631955,4.52281007168314,-0.663379997991753,11.1496147778913,-0.150267441702894,493.4794667395,2116.26871404733
0.58,4.54024264727925,-0.0115538563530584,12.998715826087,0.685020462251262,2.53840426131411,-3.7643645670833,6.67105039287758,-11.1773410441283,-2.55085177100818,564.886046734268,2116.26871404733
0.59,4.57818930625554,0.0362300887242943,11.1035171256886,-1.68366586988786,-4.40692264125069,-1.24103294769865,-10.1944599337562,-4.71124293376216,1.85321070766491,635.762632506933,2116.26871404733
0.6,4.49206478788682,0.0586243430335727,15.4120777023688,-2.80310977581941,-2.07676886047613,3.98360564970046,-9.77092116919807,12.2441276955308,0.49361469713576,707.050075103185,2116.26871404733
0.61,4.46710656467546,0.0692772520505724,16.6624705565727,-3.34874926933874,1.58285676843123,4.17784691539191,2.51152671061965,16.8090535218195,-0.346651303942497,778.032270116902,2116.26871404733
0.62,4.48120980467802,0.0863884908449883,15.9598986977216,-4.14878992919674,2.85658540152296,3.45378403040763,6.68559316496249,15.0742717353359,-0.671765971989742,847.605315537088,2116.26871404733
0.63,4.4582223107366,0.0456930225138259,17.1119810542209,-2.13091665136294,2.10297341820027,3.93132761628932,6.02717105917689,16.1565438878026,-0.480948476237438,918.191100446209,2116.26871404733
0.64,4.44113603102014,0.105398610920921,17.9691268301553,-5.1352595354805,-0.879572293691912,4.35444034215408,-8.98274960544342,16.3881243301623,0.223040354496996,988.56070598351,2116.26871404733
0.65,4.41134673183666,0.0888871097809998,19.4615861403822,-4.30797250704684,-4.36151776844642,0.667115928679109,-19.8586545604068,-1.71633367135378,1.4391645963237,1058.26391187249,2116.26871404733
0.66,4.31775584786363,0.0974406729411902,24.1442703694695,-4.72990055401708,0.00664666457941332,-4.31885008634865,5.31040991477234,-24.0232657534737,-3.11749006068081,1127.75403401519,2116.26871404733
0.67,4.31737619625604,0.101332927887924,24.1665021191539,-4.89989482771121,3.39764939100247,2.66570519714636,15.5436751782983,19.1421774087812,-0.882066268101756,1196.97462235845,2116.26871404733
0.68,4.31721939847659,0.083108825811067,24.1776840872044,-3.93139771610568,-4.16071251061904,-1.15488606169112,-22.0439101378551,-10.6809326211258,1.86079779091053,1265.70888692864,2116.26871404733
0.69,4.24168219164566,0.0637589410848323,27.9580674280326,-3.02372387855096,3.93617836270989,1.58190799809176,24.6122622340088,13.6026831224034,-1.17363190728188,1334.93269502953,2116.26871404733
0.7,4.31241633214465,0.103772492471073,23.206589417067,-4.95038896207581,-2.38367101453933,-3.59524906597396,-8.1640862225833,-22.280032302454,2.58018778458586,1403.41952818248,2116.26871404733
0.71,3.8115348253445,0.0714908354691753,28.709362309436,-3.41385264960436,-1.91189484103515,3.29811564096731,-17.7824122031379,22.7962209667604,0.544108351166254,1468.73017054521,2116.26871404733
0.72,3.41466637654144,0.0775963373332745,30.7802837413574,-3.72677465635454,2.98073799131699,1.66768362760139,24.6204274207497,18.8454044837809,-1.03797823853728,1527.56361141393,2116.26871404733
0.73,3.15526456532643,0.0857513647038791,27.5399277596839,-4.0542281132833,2.48544263290068,-1.94566767262883,24.550168633476,-13.1214940716001,-2.20780633374593,1580.98771232394,2116.26871404733
0.74,2.78515283392737,0.116072952006311,31.2948310541619,-5.58720333446635,0.270811094981623,-2.77438472266482,9.86792695875177,-30.219320133748,-3.00263816863222,1629.7610986421,2116.26871404733
0.75,2.44770096640269,0.104584098586097,34.7935706367308,-5.03197848794573,-0.857791747516905,-2.2948575495001,-5.99546815896941,-34.6405503234447,2.82658590404735,1674.12769776273,2116.26871404733
0.76,2.2534015239271,0.0716376676703227,32.332429053723,-3.50876473182623,0.00118071483507098,2.25453964023228,-4.51748470392175,32.2069826343166,0.0312564933710305,1714.619246499,2116.26871404733
0.77,2.05079803756812,0.0232278543778112,31.3494485694755,-1.07989530991986,-0.323262456563496,2.02529343757609,-6.35591747477381,30.717363372276,0.169603327157324,1751.29548209884,2116.26871404733
0.78,1.86706907970167,0.093897452926842,30.4572987322204,-4.56208647434788,-0.918816137334507,1.62804809075711,-20.1384049860478,23.3003073731028,0.56405539072616,1784.43115777615,2116.26871404733
0.79,1.60666756471183,0.128914460084743,34.3390085262268,-6.29058917938826,-1.44471236833058,0.714706775054384,-34.2272938139471,6.87250878223177,1.19145913651169,1814.81630091236,2116.26871404733
0.8,1.44886313414471,0.0493553969803804,33.9052508480899,-2.42490821877539,-1.32001821719139,-0.599326491136172,-29.3000252052834,-17.2323747031901,2.03104742433017,1842.42744172949,2116.26871404733
0.81,1.31847412007996,0.0944345414979025,32.8433126891821,-4.5893824398595,-0.19743501532169,-1.30702383401125,2.00229638002036,-33.1019097452887,3.0631712012631,1867.37473108461,2116.26871404733
0.82,1.16203001797348,0.0778855013411366,33.8108536643981,-3.88572633965081,1.01705617594897,-0.567429862586258,32.2239631977275,-10.9493785455386,-2.01276994211478,1890.26665011734,2116.26871404733
0.83,1.05244417714022,0.058228710393037,32.9869346471064,-2.79368057446874,0.680017507540509,0.80536048956277,17.6256767699789,28.022812616953,-0.645942262450951,1910.96095160571,2116.26871404733
0.84,0.982362623916086,-0.0149053897323979,30.8103162421334,0.758855837305317,-0.757949825104639,0.625116435661565,-22.977405463746,20.5399680446854,0.865975323496596,1929.84004820955,2116.26871404733
0.85,0.780497628840222,0.0996839039884116,35.7482520373644,-4.88000851205956,-0.54174070671261,-0.570640373641843,-17.1936788217335,-31.7195431142975,2.50919931910947,1946.89109328381,2116.26871404733
0.86,0.799762020600637,0.011805633514393,30.0441687485789,-0.534537055510518,0.71856226859627,-0.351321688382133,27.4103580412892,-12.3130044142414,-2.01078284787671,1962.53243719749,2116.26871404733
0.87,0.629956759852732,-0.0120769298656148,34.2825943666283,0.568771689792664,0.075074956341278,0.625583825278025,5.29986759365966,33.8752296114958,-0.138605340895273,1976.70102272037,2116.26871404733
0.88,0.53100779584426,0.0666647754545396,35.3290522226886,-3.24379403847032,0.433382897383706,0.313994802168901,23.5888872056323,26.499594923648,-0.81891202575802,1989.53548787675,2116.26871404733
0.89,0.501580182758916,-0.0114574481495713,33.2471823939547,0.615394349867294,-0.478460594090588,0.150961626770015,-31.2711855053027,11.3078204989152,1.24232807450474,2001.29409363721,2116.26871404733
0.9,0.462298495640332,0.0497032594928895,31.9881965565438,-2.51993764487969,0.0636222910335456,-0.460589315072738,10.1843259615977,-30.4281828143267,-2.89722696842694,2011.9885971533,2116.26871404733
0.91,0.335054870070087,0.0426635980581625,35.4101795852209,-2.19523651665511,0.243598161788811,0.233969835940584,20.5270440797199,28.9368336721709,-0.678904990460421,2021.68845262328,2116.26871404733
0.92,0.273846937892101,0.0225845195425248,35.8147247387765,-1.06143093820893,-0.274483233659529,0.0126948948658648,-35.7531564639062,-2.35222163461634,1.60686420361631,2030.4577820155,2116.26871404733
0.93,0.250397689994883,0.0226081160603987,34.57010400426,-1.11042708228432,0.166268015501406,-0.188587054401405,25.8647906126571,-22.9638356058788,-2.32896327609791,2038.47195890159,2116.26871404733
0.94,0.257892372444821,0.00559563754123699,31.9996409752418,-0.31714025919678,-0.013586265282251,0.257595031629866,-2.69446000119682,31.8875757277082,0.0743880702622052,2045.7567250539,2116.26871404733
0.95,0.151221203699438,0.0114509760594947,35.3119989903106,-0.65222298116445,-0.096348686588605,-0.117114934545825,-19.7777364596972,-29.2609604770524,2.52875081898695,2052.40132376125,2116.26871404733
0.96,0.0462740392111876,0.086153028335785,38.7506728103,-4.28590512978827,0.0708216289424056,-0.0674383264196949,35.4844502186738,16.1504618729908,-1.25382896146568,2058.39914259623,2116.26871404733
0.97,0.0985493790055626,0.0515315173581645,34.4986866187279,-2.52343360647084,-0.0802978234819134,0.0769398266678858,-33.836467358482,7.184745804957,1.28855080779382,2063.8286122004,2116.26871404733
