t,iq,id,vq,vd,ia,ib,va,vb,theta_e,omega,r
0,0,0,0,0,0,0,0,0,0,0,0
0.01,0.000827428431245787,0.000466304290304139,-0.0402820822971637,-0.0233531234265864,0.000734562947063734,0.000602075391284972,-0.0363685374844085,-0.0290748002438198,-0.371002278796366,-0.0028840597202707,0
0.02,0.000914511301946737,0.000516778812916402,-0.0447633820508036,-0.0258809528310755,0.000813189042330717,0.000664917171007678,-0.0403497479216562,-0.0323339130748099,-0.37102298237834,-0.00292071077345435,0
0.03,0.000942032615740023,0.000532967935491667,-0.0461748025077836,-0.0266917171042068,0.000838268649213233,0.000684679444065953,-0.0416177483878636,-0.0333545074574382,-0.371042942924571,-0.0027420343859225,0
0.04,0.000923723464652862,0.000523874758000769,-0.0453773893800954,-0.0262363276990583,0.000823167173376334,0.00067089910261996,-0.0409047819480099,-0.0327757711102414,-0.371060202095516,-0.00242787174511131,0
0.05,0.000938998207436467,0.000533070122473953,-0.0461848272330252,-0.0266968449442978,0.000837286507112368,0.000681786399138956,-0.0416272808603396,-0.0333605947893419,-0.371076477069053,-0.00225501718520022,0
0.06,0.000937855863072873,0.000533207902011996,-0.0461983548166704,-0.0267037323746245,0.000837010701548098,0.000680659512650898,-0.0416390965115231,-0.0333700906832242,-0.371091209872385,-0.00204177506935919,0
0.07,0.000963346700240586,0.000548242642546451,-0.0474805582696767,-0.02745670505471,0.000860275019675042,0.000698951894263008,-0.0428062337154395,-0.0342914044792666,-0.37110430271296,-0.0019527839880141,0
0.08,0.000935873476681369,0.000533435074286121,-0.0462199490576532,-0.0267151293065149,0.000836520621641071,0.000678708621135424,-0.0416583890381794,-0.0333850332858838,-0.371116387932707,-0.00167723555228371,0
0.09,0.000934388935203128,0.00053320676525854,-0.0461983837898372,-0.0267036875168242,0.000835776725802797,0.000677398997160365,-0.0416402624590565,-0.0333686399802295,-0.371127088426235,-0.00151987374328394,0
0.1,0.000933448852344522,0.000533201474534446,-0.0461978802688364,-0.0267034253451213,0.000835437364186926,0.000676516801646059,-0.0416401563735351,-0.0333678654349324,-0.371136703825486,-0.00137996329575892,0
0.11,0.000932610632989883,0.000533199773709825,-0.0461977495029692,-0.0267033348880596,0.000835137618178592,0.000675729050842857,-0.0416403130381831,-0.033367416492217,-0.371145346596984,-0.00125423061284837,0
0.12,0.000931857083934682,0.000533198291016479,-0.0461976232117036,-0.0267032666589139,0.00083486818095355,0.00067502086105057,-0.0416404628660174,-0.0333670000595113,-0.371153115166957,-0.0011412160104237,0
0.13,0.000976345691230696,0.000558564427989805,-0.0483651640837053,-0.0279736216891976,0.000874648142209333,0.000707273466440022,-0.0436107330249039,-0.0349258725343354,-0.371160786869054,-0.00120113599806357,0
0.14,0.00103939995005116,0.00059554689387574,-0.0516486701405836,-0.0298257499663467,0.000931987058469071,0.000752614431045249,-0.046527915387704,-0.0373137183622926,-0.371167539102883,-0.00134449762649074,0
0.15,0.000931708364272087,0.000534147280713435,-0.0462860069334804,-0.0267507923255212,0.000835712523416063,0.000674520846048276,-0.0417174977802187,-0.0334312684002089,-0.371173735310186,-0.000848259605359284,0
0.16,0.000929412719442187,0.000533207981022655,-0.046198719447628,-0.0267037550313045,0.000834007837809724,0.000672718128608949,-0.0416421674020888,-0.0333667814664372,-0.371178643832614,-0.000769952271793167,0
0.17,0.000928955075714095,0.000533192799091099,-0.0461971616291887,-0.0267029928990631,0.000833830654584796,0.00067229348737904,-0.0416410389631316,-0.0333654229170222,-0.371183044636941,-0.000705813582076495,0
0.18,0.000928571007032154,0.000533191824052665,-0.0461970652649127,-0.0267029378457887,0.000833693095082998,0.000671932630215447,-0.0416410846816248,-0.0333651883738786,-0.371187000116655,-0.00064826856314149,0
0.19,0.000928226403150482,0.000533191141171092,-0.0461970057008637,-0.0267028914753932,0.000833569851184263,0.00067160877877352,-0.0416411384897367,-0.0333650016357084,-0.371190555503386,-0.00059654592466489,0
0.2,0.000927916294573473,0.000533190530219878,-0.0461969312813226,-0.0267028700955413,0.000833458943034077,0.000671317347852443,-0.041641198198403,-0.0333648069641039,-0.371193751268788,-0.000550054970199936,0
0.21,0.00092763773454845,0.000533189981028137,-0.046196870636036,-0.0267028486616347,0.000833359317308614,0.000671055564526431,-0.041641252067246,-0.0333646386085761,-0.37119662378825,-0.00050826649405641,0
0.22,0.00092738723061576,0.000533189487320351,-0.0461968072831331,-0.0267028271790142,0.000833269723768302,0.000670820149033409,-0.0416412952138516,-0.033364479846389,-0.37119920575691,-0.000470704848369592,0
0.23,0.000927162221638325,0.000533189043496473,-0.0461967554016311,-0.0267028056513701,0.000833189248295845,0.000670608692056854,-0.0416413337655649,-0.0333643426657532,-0.371201526564121,-0.000436942496711087,0
0.24,0.000926959913645796,0.000533188644521559,-0.0461967029883683,-0.026702781172776,0.000833116890762614,0.000670418569610802,-0.0416413615419112,-0.0333642158351207,-0.371203612625776,-0.00040659514721588,0
0.25,0.000926778094752283,0.000533188285866957,-0.0461966543768693,-0.0267027595675712,0.000833051860791484,0.000670247702219308,-0.0416413863347641,-0.0333641002914563,-0.371205487685784,-0.00037931737845897,0
0.26,0.000935595409723959,0.000538159859610489,-0.0466267995569047,-0.0269517351521175,0.000840884320998042,0.000676659710557814,-0.0420294901805992,-0.0336745663637792,-0.371207130963979,-0.000389451537919215,0
0.27,0.000900705413307578,0.00051851928556322,-0.0449627688426002,-0.0259681270448208,0.000809926574616519,0.000651269095530043,-0.0405093202986402,-0.0324805968718438,-0.371208865516865,-0.000232550052244281,0
0.28,0.00089141935530344,0.000512881633807725,-0.0443123091999857,-0.0256857783308557,0.000801305372906187,0.000644659395850676,-0.040010298561426,-0.0319768035319753,-0.371210280569967,-0.000177270767349991,0
0.29,0.000925624797364142,0.000532876843888324,-0.0461680595960821,-0.0266871747695198,0.000832347152070519,0.000669281117833072,-0.0416166832214172,-0.033342865829057,-0.371211265816911,-0.000293010670613501,0
0.3,0.000922833227839158,0.000531428976817291,-0.0460351127508198,-0.0266146418927972,0.000829985393376516,0.000667204744127874,-0.0415008708336448,-0.0332452776964136,-0.37121144354733,-0.000279903811200453,0
0.31,0.000926040318691563,0.000533160072728478,-0.0461937032526524,-0.0267013480531496,0.000832762648080793,0.000669564565188207,-0.0416392346037482,-0.0333615699520206,-0.371212505738686,-0.000277003875460246,0
0.32,0.0009260017864657,0.000533186345911431,-0.0461963491693949,-0.0267026723847064,0.000832773807256757,0.000669518314873565,-0.0416414610629357,-0.0333635146471355,-0.371213480921115,-0.000263030498322194,0
0.33,0.000925917872876064,0.000533186582495703,-0.0461963653547991,-0.0267026709587389,0.00083274417538944,0.000669439300773224,-0.0416414948614692,-0.0333634937323266,-0.371214357812499,-0.000250277377963746,0
0.34,0.00092584138800971,0.000533186437835677,-0.0461963258942097,-0.0267026712203636,0.000832716823496993,0.00066936742160694,-0.0416415070881585,-0.0333634240427105,-0.371215146013838,-0.000238810931905427,0
0.35,0.000925772586554588,0.000533186302342267,-0.0461962849935027,-0.0267026714637356,0.000832692213821954,0.000669302765616343,-0.0416415161154503,-0.0333633563375722,-0.371215854489889,-0.000228504240844698,0
0.36,0.00092571102468735,0.000533186180466273,-0.0461962594056056,-0.0267026496198329,0.000832670194942865,0.00066924491086726,-0.0416415077236862,-0.0333633138984686,-0.371216491304732,-0.00021924005241702,0
0.37,0.000925655494578902,0.000533186070913318,-0.0461962238292654,-0.0267026498329988,0.000832650332389531,0.000669192726224439,-0.0416415141142398,-0.0333632568323434,-0.371217063706702,-0.000210912920255666,0
0.38,0.000925605552405896,0.000533185972438812,-0.0461961875818157,-0.0267026500327648,0.000832632468384555,0.000669145793113869,-0.0416415183171647,-0.033363201556623,-0.371217578211212,-0.000203428062791793,0
0.39,0.000925560616091723,0.000533185883922643,-0.0461961498680677,-0.0267026502205338,0.000832616394669935,0.000669103564630543,-0.0416415202407012,-0.0333631470859153,-0.371218040674412,-0.000196700285429102,0
0.4,0.000925520474643471,0.000533185804358035,-0.0461961256388693,-0.0267026283312051,0.00083260203730425,0.000669065840130859,-0.0416415049217413,-0.0333631151376677,-0.371218456359823,-0.000190653010852521,0
0.41,0.000925484269478426,0.000533185732839787,-0.0461960948390223,-0.0267026284989139,0.000832589087168507,0.00066903181589804,-0.0416415063711147,-0.0333630708159691,-0.37121882999945,-0.000185217407410263,0
0.42,0.000925451556773031,0.000533185668554608,-0.0461960558211959,-0.0267026286581611,0.000832577385360396,0.00066900107509039,-0.0416415035705932,-0.0333630204128908,-0.371219165845883,-0.000180331605647276,0
0.43,0.000925422336527286,0.000533185610770651,-0.0461960271106699,-0.0267026288089502,0.000832566933762241,0.000668973614787784,-0.0416415033678126,-0.0333629810326772,-0.371219467722236,-0.000175939994094603,0
0.44,0.000925395910249263,0.000533185558830973,-0.0461959903986177,-0.0267026289529659,0.000832557480686093,0.000668948781451603,-0.0416414992374001,-0.0333629354699277,-0.371219739063887,-0.000171992586286916,0
0.45,0.00092537227793896,0.000533185512144211,-0.0461959606066228,-0.0267026290902114,0.000832549027651586,0.000668926572722913,-0.0416414966952582,-0.0333628975012191,-0.371219982959856,-0.00016844445180129,0
0.46,0.000925351090350412,0.000533185470179374,-0.0461959337330605,-0.0267026292215249,0.000832541449334583,0.000668906661024518,-0.0416414943831914,-0.0333628632815919,-0.371220202186162,-0.000165255204847499,0
0.47,0.000925331881822333,0.00053318543245859,-0.046195898534869,-0.0267026293480336,0.000832534578041629,0.000668888610508476,-0.0416414883070425,-0.033362822229494,-0.371220399237862,-0.000162388544585689,0
0.48,0.000925314907022893,0.000533185398553068,-0.0461958785910848,-0.026702607408263,0.000832528507257444,0.00066887265678354,-0.0416414665362512,-0.0333628042273478,-0.371220576358034,-0.000159811841942209,0
0.49,0.000925299423785109,0.000533185368076671,-0.0461958465875962,-0.026702607526085,0.000832522968749043,0.000668858106696324,-0.0416414603481842,-0.0333627677315215,-0.371220735562507,-0.000157495768215269,0
0.5,0.000925285570361828,0.000533185340682866,-0.0461958181626291,-0.0267026076399221,0.000832518013558866,0.000668845087698876,-0.0416414549172649,-0.0333627352424784,-0.371220878663705,-0.000155413961251626,0
0.51,4.55663166820928,-0.0281082225298945,12.1698914531102,1.41710427888075,-0.98882182685939,4.44813597213798,-1.18236544199309,12.1949356078369,0.212574757194778,65.4051101915662,4590.82986727007
0.52,4.61249740558789,0.0208176559549659,9.37847124928659,-1.02035925982268,-3.77376968884621,2.65221191214052,-8.2802226255252,4.52048329988528,0.962705757314602,139.47518017907,4590.82986727007
0.53,4.58560935905586,-0.00510304749755064,10.7248503886706,0.29178636451373,-3.51126755673426,-2.94937949066916,-8.40726236891893,-6.66524527696046,2.26832907621708,218.128461916218,4590.82986727007
0.54,4.48507432378485,-0.0369380369731305,15.7537495204063,1.88443609837778,3.85818118363488,-2.28728967616594,12.5104107663613,-9.75814253930951,-2.1141711334266,298.52590111915,4590.82986727007
0.55,4.55063362063922,0.011404426066224,12.4780116182461,-0.510157882419313,-1.52279723838722,4.28829627952479,-4.68532772363431,11.5762143696557,0.34372192802969,372.520177114763,4590.82986727007
0.56,4.56402347234474,0.0540406918742413,11.8109089664368,-2.65001145284749,0.978440285097732,-4.45823790986863,5.24976837278152,-10.9068814674875,-2.91370987525378,451.630513218351,4590.82986727007
0.57,4.47104619216393,0.00170169970393319,16.4622923771332,-0.0303111671800114,-2.77638000758748,3.50456430982711,-10.2512308081521,12.8810036874099,0.670358568253247,528.4079027069,4590.82986727007
0.58,4.50432517880164,0.0721984684155137,14.8009887696482,-3.51788045486708,4.48664671643773,0.405165616885916,14.3452724643389,5.06536369650481,-1.46470851024996,603.504611426182,4590.82986727007
0.59,4.46345996515952,0.0889492210468098,16.8469959808538,-4.34526419824424,0.365765401164097,-4.44933730973703,6.03724591093921,-16.317299296829,-3.03964470063824,679.598204930194,4590.82986727007
0.6,4.41354249169685,0.0223446207461886,19.3457684711764,-0.998410891777568,-3.51218197591299,-2.67290747616932,-14.7264898996847,-12.585153049672,2.22638774244268,755.81151208942,4590.82986727007
0.61,4.3036526172415,0.0756266337161835,24.8432982291827,-3.70119968362479,-4.23675429640589,-0.759643514750889,-23.6554247534073,-8.44447900927355,1.76578051093654,832.383720731728,4590.82986727007
0.62,4.3667223556682,0.0272182257379796,21.6929522325971,-1.26604098813388,-4.19168575064608,-1.22424488201315,-20.4221860162266,-7.42437570897478,1.8611905622206,908.387945375297,4590.82986727007
0.63,4.33352740419346,0.0540626691797326,23.3559314016743,-2.56570772596624,-2.60375251575687,-3.46451372804097,-11.7279537773224,-20.3601937115487,2.50957558947907,982.87668318039,4590.82986727007
0.64,4.29738617780831,0.0397555493112165,25.166346587828,-1.88859162817971,2.2789936301905,-3.64352802904961,15.1343088016661,-20.1956548795162,-2.57338957246054,1059.01577066202,4590.82986727007
0.65,4.27764593758723,0.0647672614554546,26.1567690839903,-3.07700203435503,3.17477187596151,2.86762499311134,17.0462401590868,20.0766084504169,-0.821046702334352,1133.2870367252,4590.82986727007
0.66,4.32699737422069,0.0541071127182804,23.6927148416166,-2.57022105664953,-4.30487546528104,0.440319298442402,-23.8275806697111,-0.444040847912182,1.48137082599768,1208.95456604162,4590.82986727007
0.67,4.26004265956511,0.0651974854525625,27.044071594578,-3.14099636089715,3.93252470591019,-1.6393485324451,26.2823466819795,-7.1053444279692,-1.95045680339891,1283.96437527793,4590.82986727007
0.68,4.22990927472606,0.110882486377415,28.5544611888671,-5.42605547546303,-4.18483309966448,0.625778975478831,-29.002993586455,-1.90412573990492,1.44856910173827,1358.48463857837,4590.82986727007
0.69,4.1938805022695,0.0998398545581019,30.3597501554333,-4.86789720659762,3.31918189210574,2.565469397789,20.5045248508467,22.9123397616949,-0.888984093452949,1432.91618793317,4590.82986727007
0.7,4.17866300907831,0.129725091672127,31.1245132358111,-6.35230127545049,1.74107619116108,-3.80088237642534,19.5242164187005,-25.057773821631,-2.68101203639323,1507.31832165422,4590.82986727007
0.71,4.19103240607396,0.0970743720754524,30.5100256026872,-4.67476568125347,-3.0368438779929,-2.88994036671572,-18.3086437596439,-24.8497215303051,2.35457144672329,1581.20629560447,4590.82986727007
0.72,4.15692546330211,0.17494704177119,32.2194589849647,-8.51738170489545,-4.15774572549155,-0.154227938554269,-31.4452742019324,-11.0378466539445,1.64993431263398,1654.85185854474,4590.82986727007
0.73,4.10901658710527,0.125140213392376,34.6190887336905,-6.10525432353747,-4.0843933977508,0.466270263392179,-35.0067766725911,-3.2064032967703,1.48757501964909,1729.35663847791,4590.82986727007
0.74,4.16847553980333,0.132201008742113,31.6504128921841,-6.35547076406164,-4.02658561277025,-1.08640403887445,-28.4317791191886,-15.289688714825,1.86603282075999,1802.46005277349,4590.82986727007
0.75,4.11337931855329,0.174309767412165,34.4095809205311,-8.51749852419077,-1.60188715302689,-3.79265485673092,-4.05455857175628,-35.2154454043161,2.78430638887475,1876.39847900569,4590.82986727007
0.76,4.14187229114593,0.0921027768517497,32.9893546760143,-4.43302911666891,3.64913727964555,-1.96147549359336,31.4091814493725,-11.0187381205606,-2.04177230773172,1950.06880835424,4590.82986727007
0.77,3.99785678016634,0.0771523125076519,40.1946244774253,-3.69209381392259,0.263133284404774,3.98993385768306,-1.81739170473085,40.3229026857395,-0.0465578992145242,2023.27983628131,4590.82986727007
0.78,4.02240998120431,0.124513406124263,38.9715051093034,-6.05525818270396,-1.25058670509507,-3.82509065751861,-5.14782101924955,-39.1017173650651,2.85654940639357,2096.41727632966,4590.82986727007
0.79,3.97169380888002,0.104849390040456,41.5118380917592,-5.06955793192789,1.49043265193231,3.68292758768643,9.80366161197633,40.6549054651399,-0.358147258585532,2169.61342552292,4590.82986727007
0.8,4.02485415030183,0.129318228951417,38.8583931126492,-6.26221619578487,0.288334884577644,-4.01659521608496,10.2540821865937,-38.0005771731235,-3.03781082017764,2242.47897952878,4590.82986727007
0.81,4.04441845269756,0.153784927447683,37.8846929381617,-7.40645004229519,-3.53386330881497,1.9730130610419,-37.1183800501169,10.5986472581598,1.09959644232921,2314.98047896335,4590.82986727007
0.82,3.92918149636722,0.154797818057119,43.6510576677429,-7.50490369480169,2.06416192030833,3.34688887814024,14.8957001947384,41.7115874870441,-0.513261241188909,2387.73528560453,4590.82986727007
0.83,3.93182727679945,0.100977567017724,43.5232346127639,-4.78137167730549,3.92844777836872,-0.191729643651886,43.6220261483892,3.77522197804016,-1.59388662422921,2460.24199139058,4590.82986727007
0.84,3.8560963291957,0.11840720861707,47.314109859303,-5.72983317463299,3.17601358295767,-2.19007691370815,42.86361828737,-20.8366553770504,-2.14378964201507,2532.7397109606,4590.82986727007
0.85,3.86840208898019,0.179276103569898,46.7031358628331,-8.62223968635235,3.10756333717782,-2.31078444446161,43.5464054910311,-18.9535349062346,-2.16387833455362,2604.60159796347,4590.82986727007
0.86,3.88565743009547,0.195054140328261,45.8445751239762,-9.43714888499034,3.85543663410338,-0.521524824077341,46.4763702766294,5.54363177754559,-1.65509379982549,2676.70334688158,4590.82986727007
0.87,3.93726166920503,0.178259593158699,43.2685011991418,-8.60825951399141,2.43107591216593,3.10220499703531,18.1124855660438,40.2268964065116,-0.619454079019456,2748.54963638156,4590.82986727007
0.88,3.89750341308734,0.207908056978312,45.2604948278299,-10.0825264663887,-3.0286106219553,2.46196594528915,-42.5253784562093,18.4868039195968,0.941530608291336,2820.09478911725,4590.82986727007
0.89,3.85533635730736,0.220913740456925,47.372850345353,-10.6943094716732,-0.664009310989276,-3.80414418018274,5.16027918305351,-48.2900271657832,3.0260228628519,2891.2597082115,4590.82986727007
0.9,3.78017256930968,0.264369325030097,48,-12.8446137282632,1.3020469415596,3.5586893030656,0.966764458722729,49.6794672707914,-0.280927521921629,2962.11643901634,4590.82986727007
0.91,3.78432483025099,0.214864088333148,48,-10.5187104154684,-1.32177426882189,-3.55249120753166,-4.11072981676101,-48.9667761770986,2.84210999979391,3032.7715696016,4590.82986727007
0.92,3.79031676435267,0.16701307827169,48,-7.98080450148041,-0.578466941420465,3.74963605435652,-17.2259801630361,45.5077888708465,0.197100714868378,3102.74579903807,4590.82986727007
0.93,3.71553821843773,0.157323282565351,48,-7.64097743583933,3.41746708188259,-1.46659251742174,47.5846803731169,-9.90367254927749,-1.93385675948395,3173.05556253296,4590.82986727007
0.94,3.76372549247018,0.145527311492945,48,-6.85995083196638,-1.63696667136463,-3.39221872789796,-12.8865473539455,-46.7439388874271,2.73063643383989,3242.46355557901,4590.82986727007
0.95,3.73637152619864,0.272254955123523,48,-13.2701331086745,-3.74539356265973,0.0813756914829321,-47.2608842530355,-15.7004857358973,1.62181045610007,3311.97924128567,4590.82986727007
0.96,3.76556034327256,0.15432866633846,48,-7.41872583630451,-3.13010618511496,2.09897529904138,-44.80366890793,18.7528329972524,1.02105320112322,3381.290825476,4590.82986727007
0.97,3.76936762662292,0.319632935878708,48,-15.7157625684041,-2.82284286973739,2.51830412204406,-47.8238380280102,16.2439437753611,0.926949096525699,3450.34932815537,4590.82986727007
0.98,3.74267264582212,0.0545324166266437,48,-2.42568932988379,-3.62977833404169,0.913937396088938,-47.2709337847152,8.68002234134109,1.3387042489408,3519.31111333807,4590.82986727007
