t,iq,id,vq,vd,ia,ib,va,vb,theta_e,omega,r
0,0,0,0,0,0,0,0,0,0,0,0
0.01,0.00130903725846687,0.000723235686599901,-0.0634553272142375,-0.0361961154599888,0.00126892689383848,0.000791500436209298,-0.0625045723150232,-0.0378142270313017,-0.508336019096656,-0.0048162520595621,0
0.02,0.00148045131381607,0.000816871737495599,-0.072179843457216,-0.0408823591782813,0.00143418609268625,0.000895614749568227,-0.0708462193408535,-0.0431521760586634,-0.508371197797133,-0.00482090977226976,0
0.03,0.00154188983082344,0.0008539976251055,-0.0753726386896217,-0.0427404473669919,0.00149655334464113,0.000931162864769653,-0.0740249321991096,-0.0450343193252001,-0.508404327807607,-0.00441772154030772,0
0.04,0.00149836651946106,0.000834825679754947,-0.0735005232279985,-0.0417809073926831,0.00145864491848063,0.000902436227115687,-0.0722766590958406,-0.0438640591747863,-0.508432195118773,-0.00369053149467287,0
0.05,0.00152903047369924,0.000855357606156899,-0.0751568263127463,-0.0428085009580849,0.00149153000922621,0.000919189346918819,-0.0739816849137614,-0.044808778079787,-0.508457002590485,-0.00332609910519112,0
0.06,0.00152581754256087,0.000856925376505177,-0.0751673982068702,-0.0428869631094856,0.00149135513200604,0.000915587322063974,-0.0740563379693699,-0.0447782108230223,-0.508478662466896,-0.00288568039737331,0
0.07,0.00155633972661163,0.000877387605182114,-0.076766922131723,-0.0439110554327113,0.00152410529396959,0.000932258229918427,-0.0757304276505754,-0.0456754140720544,-0.508496892068391,-0.00265044268420464,0
0.08,0.00151875368928377,0.000858603804702035,-0.0750917867251523,-0.0429709474587152,0.00148941362764013,0.00090854846208759,-0.0740944315775648,-0.0446687135282961,-0.508513267570338,-0.0021741707278714,0
0.09,0.00151164385513799,0.000857158553066188,-0.0748554588069081,-0.042898616621413,0.00148470199607907,0.000903021546093892,-0.0739167997720205,-0.0444964912401721,-0.508526978682445,-0.00187468710006609,0
0.1,0.00150779237461805,0.000857043848039074,-0.0747600641894268,-0.0428928731505918,0.00148273710492422,0.000899695882006193,-0.0738658571474487,-0.0444150978001026,-0.508538706052746,-0.00162762216215503,0
0.11,0.00150469067067506,0.000857031744236279,-0.0746878572935919,-0.0428922717871556,0.00148122532643764,0.000896977679412891,-0.0738306201261286,-0.0443515787538895,-0.50854875931287,-0.0014166407545878,0
0.12,0.00150204863142269,0.000857027978330339,-0.0746267774597255,-0.0428920955470823,0.00147994331347484,0.00089465906115172,-0.0738011076523504,-0.0442976780850828,-0.508557379473045,-0.00123580771849997,0
0.13,0.00157051724406745,0.000896246380020568,-0.0779678063114117,-0.0448548885442597,0.00154754490786831,0.000935353807788296,-0.0771426961480289,-0.0462595317566516,-0.508565703757595,-0.0013506609047935,0
0.14,0.00162266806538992,0.000928080134286153,-0.0807839968663931,-0.0464480753312281,0.00160075046130352,0.000965392327879931,-0.0799058774471636,-0.0479429723847377,-0.508572976368782,-0.00141975006635253,0
0.15,0.00150650800266349,0.000862470298307263,-0.0750074692846377,-0.0431644795795195,0.00148688798613652,0.000895871360315883,-0.0742253670879432,-0.0444959282015411,-0.50857941702141,-0.000819209766099298,0
0.16,0.0014949658574484,0.000857436420624676,-0.074487997161436,-0.0429125159379992,0.0014768747900358,0.000888234757767784,-0.0737525352661,-0.0441645704957471,-0.508583781294406,-0.000686060004686368,0
0.17,0.00149293898439772,0.000857049107488625,-0.0744185544213945,-0.0428931637357144,0.00147555275634234,0.000886647645365426,-0.0737019783896617,-0.0441130719728143,-0.508587420000259,-0.000606012816407741,0
0.18,0.00149190486835132,0.000857018371396392,-0.0743926333951128,-0.0428916090568833,0.00147502510932286,0.000885754792246915,-0.0736881355550047,-0.0440909594971058,-0.508590530836822,-0.000540424644081681,0
0.19,0.00149108105679321,0.000857015132166117,-0.0743734087401896,-0.0428914599842332,0.00147462348785377,0.000885032894167919,-0.0736787614982375,-0.0440740441904328,-0.508593197467009,-0.000484457195910253,0
0.2,0.00149037994712603,0.000857014127487082,-0.074357172061862,-0.0428914152934526,0.00147428322791046,0.000884417641959805,-0.0736709167721511,-0.0440597158963101,-0.508595483955647,-0.000436491003870922,0
0.21,0.00148977965313892,0.000857013401830109,-0.074343288974176,-0.0428913790157703,0.00147399201330849,0.000883890791062971,-0.0736642110623533,-0.0440474632406154,-0.508597444550615,-0.000395363481715677,0
0.22,0.00148926480800153,0.000857012789901372,-0.0743313751614986,-0.0428913453780983,0.00147374225880642,0.000883438931117778,-0.0736584542521593,-0.0440369499275929,-0.508599125706642,-0.000360097949043689,0
0.23,0.00148882353734296,0.000857012265894663,-0.0743211652734198,-0.0428913085955886,0.00147352819550072,0.000883051644188889,-0.0736535138461459,-0.0440279440668831,-0.508600567251799,-0.000329858735048639,0
0.24,0.00148844524737297,0.000857011816564226,-0.074312411063154,-0.0428912716108762,0.00147334468380965,0.000882719633206227,-0.0736492730453747,-0.0440202248779464,-0.508601803337414,-0.000303929436240689,0
0.25,0.00148812044862589,0.000857011431229094,-0.0743048794141628,-0.0428912728418676,0.00147318711968822,0.000882434571659903,-0.0736456531855694,-0.0440135678810481,-0.508602863247341,-0.000281695770615902,0
0.26,0.00150295486420353,0.000865397544815013,-0.07502084592414,-0.0433109541942358,0.0014877361771214,0.000891306513882347,-0.0743608928471906,-0.0444344876346896,-0.508603627750646,-0.000327078152920475,0
0.27,0.00146061254146026,0.000841303748251217,-0.0730033320065507,-0.0421051452991052,0.00144607420677135,0.000866054491128097,-0.0723253189604535,-0.0432594265101387,-0.50860489646943,-0.000129458989069748,0
0.28,0.00145919912887526,0.000840378794926686,-0.0726895286991303,-0.0420588295970424,0.00144457862308724,0.000865269448433331,-0.072132084489112,-0.043007849479256,-0.508605552538536,-0.000110753470677042,0
0.29,0.00148471218517297,0.000855734662807674,-0.0741638421439133,-0.0428273568867874,0.00147041485656471,0.000880075130614112,-0.0735212768814499,-0.0439212912512454,-0.50860579303468,-0.000210000982458166,0
0.3,0.00147156102322368,0.000849032893524078,-0.0735264107451139,-0.0424919651938251,0.00145815637949697,0.000871853584203959,-0.0729178891443744,-0.0435279407486867,-0.50860476141809,-0.000176749784633743,0
0.31,0.0014859651514757,0.000856398640271454,-0.074219588464923,-0.0428606132274679,0.00147160444582408,0.00088084698869316,-0.0735774455921208,-0.0439538278000406,-0.50860523762345,-0.000226067205915183,0
0.32,0.00148709576082535,0.0008569634287291,-0.0742779094600932,-0.0428888518087358,0.00147264879698725,0.000881558642845647,-0.0736305342813197,-0.043990974809396,-0.508605793563337,-0.000219706122687366,0
0.33,0.00148706177067043,0.000857006587247458,-0.0742799733028211,-0.0428910229877764,0.00147267037268709,0.000881507217091651,-0.073633457202015,-0.0439916840696603,-0.508606283459807,-0.000209903376795909,0
0.34,0.00148694314369611,0.000857009758100035,-0.0742774645483004,-0.0428911893726318,0.00147261574683768,0.000881401441018364,-0.0736323993930309,-0.0439893808225141,-0.508606704711894,-0.000201109139173919,0
0.35,0.00148683336406463,0.000857009881640302,-0.0742749243037784,-0.0428912014872555,0.00147256271479649,0.00088130496464962,-0.0736311888680986,-0.0439871296088157,-0.508607066029452,-0.000193533582893752,0
0.36,0.00148673860199291,0.000857009788493388,-0.0742727123750659,-0.0428912019072949,0.00147251676102573,0.000881221786344172,-0.073630125739639,-0.0439851746406282,-0.508607375858834,-0.000187034645372817,0
0.37,0.0014866575203419,0.000857009693349902,-0.0742708207014394,-0.0428911668347638,0.00147247742838949,0.00088115062286098,-0.0736291856196287,-0.0439835199262537,-0.508607641529678,-0.000181461706382508,0
0.38,0.00148658767114899,0.000857009610593025,-0.0742691785621727,-0.0428911671670493,0.00147244354294995,0.000881089319811553,-0.0736283962704485,-0.0439820687086621,-0.508607869335198,-0.000176683038558161,0
0.39,0.00148652783367373,0.000857009539539593,-0.0742677694333681,-0.0428911674631385,0.00147241451442472,0.0008810368033516,-0.0736277189282454,-0.0439808234163733,-0.508608064672224,-0.000172585459159028,0
0.4,0.00148647661093226,0.000857009478605024,-0.074266561577055,-0.0428911677280861,0.00147238966523875,0.000880991847275344,-0.0736271383460102,-0.0439797559853939,-0.508608232168439,-0.000169071896506751,0
0.41,0.00148643237311008,0.000857009426354015,-0.0742655062015356,-0.0428911679677724,0.00147236820398334,0.000880953022917893,-0.0736266309438433,-0.0439788235048311,-0.508608375791691,-0.000166059112449344,0
0.42,0.00148639477095702,0.000857009381549323,-0.0742646138998874,-0.0428911652730918,0.0014723499625092,0.000880920020825442,-0.0736261994890693,-0.0439780363929404,-0.508608498944821,-0.000163475732378744,0
0.43,0.00148636229108231,0.000857009343130154,-0.0742638330629869,-0.0428911654702578,0.00147233420549941,0.000880891515386693,-0.0736258240671325,-0.0439773465211337,-0.50860860454522,-0.000161260554509284,0
0.44,0.00148633458423579,0.000857009310186196,-0.0742631668060294,-0.0428911656501679,0.00147232076429358,0.000880867198317179,-0.0736255037642157,-0.0439767578427031,-0.50860869509442,-0.000159361099968048,0
0.45,0.0014863108355102,0.000857009281937766,-0.0742625921167094,-0.0428911658157685,0.00147230924327371,0.000880846355077491,-0.0736252274711772,-0.0439762500987285,-0.508608772738194,-0.000157732369559273,0
0.46,0.00148629046282893,0.000857009257715257,-0.0742620950049695,-0.0428911659691684,0.00147229936002647,0.000880828474886879,-0.073624988458115,-0.0439758109335609,-0.508608839315126,-0.000156335777705981,0
0.47,0.00148627288411538,0.00085700923694474,-0.0742616593824152,-0.0428911661124549,0.00147229083199205,0.000880813047301981,-0.0736247789618245,-0.0439754261780206,-0.508608896403186,-0.000155138238324507,0
0.48,0.00148625798295423,0.000857009219134573,-0.0742612905764045,-0.0428911662460576,0.00147228360324319,0.000880799968890819,-0.0736246016363979,-0.0439751003853527,-0.508608945354781,-0.00015411138100354,0
0.49,0.00148624506085354,0.000857009203862922,-0.0742609632228878,-0.0428911663725086,0.00147227733429359,0.000880788628072966,-0.0736244441836934,-0.0439748113154283,-0.508608987329164,-0.00015323087888978,0
0.5,0.001486234001398,0.000857009190767528,-0.0742606796892232,-0.0428911664922318,0.00147227196901344,0.000880778921880411,-0.0736243078006463,-0.0439745609625093,-0.508609023320981,-0.000152475872368989,0
0.51,4.72967990154586,-0.0219983167194577,3.51678552199459,1.10869367671702,-0.699540441048363,4.67771301688798,0.593291119297759,3.63936639049512,0.143796319463187,44.1132073641755,4511.04928298646
0.52,4.69220682466104,-0.0417451496838186,5.39148807029482,2.1069627698823,-2.86687769255443,3.71477588002985,-1.57651461684807,5.56974302716614,0.64837985025139,93.6401535269544,4511.04928298646
0.53,4.73632132493398,0.0866165128523364,3.186961244063,-4.30555247001748,-4.72613848077932,0.322268791259691,-3.39732784639128,-4.14157790550505,1.52099879342618,145.020031595807,4511.04928298646
0.54,4.64685010996461,-0.0838226098221755,7.66191207402617,4.22074306052165,-1.53727418116947,-4.38600390632581,-6.62164473766638,-5.71606416874276,2.78643993778629,200.286712928332,4511.04928298646
0.55,4.55101666780871,0.0298056339080173,12.4550472981236,-1.45061857653142,4.37759078459774,-1.24472487284955,12.3898133606453,-1.93003169441587,-1.84127597716474,250.602233042574,4511.04928298646
0.56,4.57999382781172,0.0138886562926561,11.0078105421143,-0.645018389933969,-0.805148935854349,4.50868845105311,-2.60260894380266,10.7151466784209,0.179746896608429,302.141992466658,4511.04928298646
0.57,4.61273846383928,-0.0406282668472486,9.37230277478812,2.09324139089959,-2.3898028262204,-3.9456113903473,-6.70671480623141,-6.87325944008756,2.58819491257557,353.499459871462,4511.04928298646
0.58,4.51381535815806,0.0384187611304276,14.3203126667333,-1.87360372190887,3.60378752173251,2.71822011377949,10.2180463394956,10.2065309867591,-0.916058386850514,405.799652742289,4511.04928298646
0.59,4.46366523941241,0.0602615179271673,16.8298372030278,-2.92850967029463,-3.537851537981,-2.72241534584401,-11.3810398701825,-12.7393689263928,2.24016756282579,455.689114920376,4511.04928298646
0.6,4.53062441584776,0.0977179844232516,13.4840660850913,-4.79557220022255,2.30235925986871,3.9032356117012,2.41655681156065,14.1059492445974,-0.511364644635761,506.455865736064,4511.04928298646
0.61,4.49022084035376,0.0187561776669058,15.5064672161999,-0.840874897282955,1.09717691542575,-4.35415178945392,4.66623909006295,-14.8116106104073,-2.89057040566622,557.57709696113,4511.04928298646
0.62,4.48795925814851,0.0683014678421864,15.6219594335056,-3.31290039378223,-4.39836870550074,0.894872127056169,-15.9649755065496,-0.37481013391872,1.38529807861422,608.320554938559,4511.04928298646
0.63,4.43520389337253,0.132562182446194,18.262188166894,-6.51605180753974,1.22987782862446,4.26333283179483,-1.77655578698032,19.3082960754524,-0.250973205347616,658.84376408548,4511.04928298646
0.64,4.46090248864371,0.0615092040908123,16.9798097513803,-2.94293345735614,4.45767723249961,0.180410881684305,16.7953019203332,3.85909703588136,-1.51655881688061,709.407748300315,4511.04928298646
0.65,4.47361566780066,0.104195049419589,16.3468901574436,-5.12705537408393,2.90406023571182,-3.40448643687598,14.7176367356696,-8.7691894463125,-2.41206704378252,760.450083793902,4511.04928298646
0.66,4.44537682725976,-0.0010545511115192,17.7616220521793,0.168984486835778,0.899999870141051,-4.35331787056289,3.42635402154836,-17.4288230182153,-2.93796314441893,810.527623227755,4511.04928298646
0.67,4.43018711810725,0.100327745845158,18.5239608905107,-4.85877146948176,0.0977000819300895,-4.43024584555086,5.68151564990609,-18.2883888624912,-3.09690073699928,860.258048031583,4511.04928298646
0.68,4.40990418133619,0.117673397925924,19.5410674981887,-5.77123390238336,0.994048437546711,-4.2980192671691,10.4956310026122,-17.4643118840048,-2.88763079531208,910.912485836503,4511.04928298646
0.69,4.38046588437043,0.0865633303665096,21.0160490554001,-4.15423238291498,3.17181395652434,-3.02251067814404,18.3037090919111,-11.1313160977906,-2.31233727487491,960.453919726277,4511.04928298646
0.7,4.3828246795931,0.15430820191401,20.9012630732805,-7.5563465739643,4.32595129281903,0.720491919028716,18.9807658074026,11.5625127445932,-1.3705671597639,1010.29706849026,4511.04928298646
0.71,4.37135181041515,0.0915931956617664,21.4781638088005,-4.44747986043926,0.372468350306865,4.35641748365914,-3.05729631010384,21.7196808673356,-0.0643413548224028,1060.41093839895,4511.04928298646
0.72,4.41870313244346,0.00235234997329514,19.113942361276,0.00923635644509485,-4.41601584838282,-0.154100399246119,-19.1022847487919,-0.667529232719625,1.60621033326754,1110.14119432899,4511.04928298646
0.73,4.25806373463058,0.0434643335914382,27.1493483787272,-2.05271771745983,1.99946937604222,-3.75966994970835,14.7943493186192,-22.8566838289316,-2.64260673485554,1159.62221343267,4511.04928298646
0.74,4.19914360382185,0.126874239035452,30.0989110450003,-6.22496504330884,1.14375147836585,4.04236770145724,1.27784531442142,30.7093104324677,-0.245528661449294,1209.02813823958,4511.04928298646
0.75,4.23341532596666,0.0908974498026336,28.3888294105006,-4.41321694754105,-2.55925487603997,-3.3734673776362,-13.0962922985758,-25.5712582239285,2.51405153506127,1258.51939650296,4511.04928298646
0.76,4.25972194045076,0.0659482453725888,27.0770843089967,-3.13327810839438,2.62222948375003,3.35760222712241,13.8349840468016,23.4857221052665,-0.647556442739309,1307.77347441202,4511.04928298646
0.77,4.24474001609384,0.183234301317639,27.8298462602501,-8.94830052236756,-1.45348961135913,-3.9923377315902,0.148578591117875,-29.2326931621091,2.83557948060266,1356.76568220766,4511.04928298646
0.78,4.13921255293544,0.0125821493709279,33.1100177488816,-0.429279275424624,-1.58536971398989,3.82359016355372,-13.1704432359227,30.3808653760373,0.396092994470369,1406.05934330038,4511.04928298646
0.79,4.2660512639427,0.0849025538184283,26.7719033561929,-4.05904001723694,4.22979747068398,-0.561440279306208,27.0578945420206,1.03969136177754,-1.68286021275216,1455.27580032653,4511.04928298646
0.8,4.182175915206,0.0772050737482819,30.9695158493032,-3.59852978893765,-1.15185163100357,-4.02116821698571,-4.50007568760026,-30.8514124050745,2.88107410420337,1504.1539236288,4511.04928298646
0.81,4.1354745717283,0.121855094133835,33.3084914409419,-5.88109371536098,-4.1245102507575,0.324674897049339,-33.5569913090497,-4.23924517391027,1.52169719152915,1553.27723725465,4511.04928298646
0.82,4.0884129993504,0.105702053685012,35.6656378325648,-5.13071985347491,-3.44878402688672,2.19822258047304,-33.2061127124526,13.9898565663274,1.02918477688352,1602.32561343201,4511.04928298646
0.83,4.14112943521158,0.136301333215101,33.0338894880333,-6.53541590363385,-1.43380774514686,3.88738040363544,-18.4986129052985,28.138067387811,0.386258296589453,1650.87863852111,4511.04928298646
0.84,4.15248851294812,0.219983822387409,32.4701375993326,-10.7176550107969,-0.198968251760929,4.15354852711142,-13.9304994741659,31.2268978454524,0.100793512626333,1699.46239438609,4511.04928298646
0.85,4.14621373966561,0.099346807427187,32.7880350007852,-4.68379542438126,-0.612798932899041,4.10188196209687,-10.2344631169697,31.4999832301155,0.17225406383944,1748.2066339132,4511.04928298646
0.86,4.12092146051996,0.13750000827919,34.056849900877,-6.58676562550896,-2.21520174553533,3.47761141627813,-24.6791216531803,24.3761248151502,0.600528467336097,1796.86156180199,4511.04928298646
0.87,4.0964031319554,0.171866292066286,35.2870751261067,-8.28785750161061,-3.99402619419373,0.926181084851659,-36.2109974049504,-1.62170276597702,1.38486295355598,1845.37091458594,4511.04928298646
0.88,3.96785322904983,0.21126850379034,41.7188822238065,-10.2694005476553,-2.46732272588212,-3.11461268769017,-15.7525632657254,-39.9722712911256,2.52483523482844,1893.95760647407,4511.04928298646
0.89,3.95288749809583,0.0644010318455993,42.4714899843172,-3.03920130843831,3.00157375499601,-2.5729403527529,34.6319959727503,-24.7727483542819,-2.26316316646042,1942.56896493291,4511.04928298646
0.9,4.11378940923386,0.175564672081381,34.430738797963,-8.50470174943817,1.81304358585095,3.69688506900234,6.04017140649176,34.9474184368553,-0.41330679660899,1990.76730613987,4511.04928298646
0.91,3.90151054349263,0.0586858554259304,45.048998880787,-2.60923932307564,-3.82038429567502,-0.793657598697881,-43.3953970455253,-12.3717397833711,1.79066644281202,2039.01931959815,4511.04928298646
0.92,4.04979664778715,0.243975140068295,37.6389860468532,-11.9486319352961,3.69750047995929,-1.66999010718632,39.4266528786963,-2.23654164798614,-1.93485361777214,2087.2728608828,4511.04928298646
0.93,3.91982311832874,0.061453040768251,44.1419737077174,-2.86508975473082,-3.21092351048833,2.2491687275519,-38.1537859059233,22.3832795443485,0.975428470623048,2135.33933764442,4511.04928298646
0.94,4.02239116249324,0.211031583865334,39.0177515284636,-10.219017516722,3.48193518940219,-2.02491785766612,39.3776419542741,-8.73009550148148,-2.04512268366324,2183.23304976378,4511.04928298646
0.95,4.09849778832196,0.168662467564906,35.2166008874289,-8.1662262446331,-3.66443534451219,-1.8433786248991,-26.8162676915553,-24.2442573868089,2.07800662392559,2231.42427071992,4511.04928298646
0.96,3.91320748358199,0.167954713610982,44.4852305696973,-8.18981618509383,1.08867815553031,3.76247012865981,2.56344774401876,45.1601324582694,-0.238765927045142,2279.39084927953,4511.04928298646
0.97,3.89868409211194,0.0908485415852853,45.2154598057351,-4.34103892480755,3.08587905338941,-2.38439543185424,38.9869407175921,-23.3088154541088,-2.20535686467562,2327.13631675119,4511.04928298646
0.98,3.82952505842187,0.153493993003769,48,-7.47945812067563,-2.52797639908729,-2.88065234011793,-24.3756513179448,-42.0210651531457,2.46136876255232,2374.8956800458,4511.04928298646
