t,iq,id,vq,vd,ia,ib,va,vb,theta_e,omega,r
0,0,0,0,0,0,0,0,0,0,0,0
0.01,0.000845181034954958,0.000477174561540387,-0.0417004277506651,-0.023886642607017,0.000632603402742188,0.000736097465603435,-0.0315487834683665,-0.0362515052279202,-0.195956831361832,-0.00277550030871042,0
0.02,0.000939522260091386,0.000530435229230427,-0.0464466194622714,-0.0265527773421345,0.000703230252616327,0.00081824863056478,-0.0350888290381512,-0.0403870340676983,-0.195977329529235,-0.00288733199820933,0
0.03,0.000976109603429141,0.000551540584351662,-0.048278105580113,-0.0276092837523928,0.000731073374931993,0.000850010996728345,-0.036482602061264,-0.0419769910136986,-0.195997670265778,-0.00279983978432844,0
0.04,0.00095323199372942,0.000539603258483046,-0.0471876006025862,-0.0270117159207646,0.000714924503418256,0.000829883042872335,-0.0356848563720198,-0.0410230846392808,-0.196015992466749,-0.00252672288151614,0
0.05,0.0009741049500112,0.000551949111093787,-0.0482428691990821,-0.0276297371807531,0.000731114072462285,0.000847938964738121,-0.0364973047470053,-0.0419371380931205,-0.196033508526903,-0.0024143748188659,0
0.06,0.000973913339062628,0.000552508892945681,-0.0482622615716863,-0.0276577692313858,0.00073163966785556,0.00084763002849615,-0.0365292629549725,-0.0419501017738567,-0.196049856528641,-0.00224105647320761,0
0.07,0.000998433155618914,0.000567128170375659,-0.0494918879949463,-0.0283895750005414,0.000750768220429696,0.000868821159425582,-0.0374872181728696,-0.0430130610358685,-0.196064767094852,-0.00216891573351008,0
0.08,0.000972940090473395,0.000553194413330689,-0.0482656753373894,-0.0276920695819218,0.000732147084383901,0.000846520599524203,-0.0365647908430407,-0.0419457054310565,-0.196078932224919,-0.0019305994973546,0
0.09,0.000970714071434301,0.000552553132039932,-0.0481791405207436,-0.0276599707760653,0.00073109529904479,0.000844452743451227,-0.0365169879684871,-0.0418666114506502,-0.196091830084293,-0.00178663772576295,0
0.1,0.000969712796611767,0.000552520185567689,-0.0481509618052693,-0.0276583275090347,0.000730877938542855,0.000843468376599689,-0.0365103839646194,-0.0418388583272249,-0.196103733857895,-0.00165743753047863,0
0.11,0.000968840394930755,0.00055251534053256,-0.0481275050583544,-0.0276580782340538,0.000730712463499983,0.000842605606472672,-0.0365060286738068,-0.0418154983852896,-0.196114728185472,-0.00153828974141786,0
0.12,0.000968037113053212,0.000552512034562155,-0.0481059606291142,-0.027657916181791,0.000730561241807844,0.000841810948225663,-0.0365020959902898,-0.041794027849497,-0.196124882945348,-0.00142824949668054,0
0.13,0.00101366626506173,0.000578701284601702,-0.0503628712599913,-0.0289689086778438,0.000765148941950556,0.000881454236109738,-0.038228194999945,-0.043751818003163,-0.196134832660047,-0.00148196331945959,0
0.14,0.00105755289815513,0.000604638226866219,-0.0526179532063343,-0.0302672839306983,0.00079914966180101,0.000919437510561524,-0.0399415664305211,-0.0457102696036871,-0.196144020185522,-0.00153766297593578,0
0.15,0.00097034685070799,0.000554887857080691,-0.048268169487927,-0.0277768576047541,0.000733365024792512,0.000843593080238094,-0.0366515303084373,-0.0419289318986274,-0.196152631342688,-0.00114323531150468,0
0.16,0.000965488632091886,0.000552609907439631,-0.0480425735796755,-0.0276628054819304,0.000730190026906714,0.000839266663882864,-0.03649600168326,-0.0417296243024681,-0.196159926049764,-0.00104928788165921,0
0.17,0.000964746367747083,0.000552503667159885,-0.0480179428299229,-0.027657504122401,0.000729946776109097,0.000838554446863319,-0.0364862809957276,-0.0417062545309355,-0.196166631117311,-0.000975892643152344,0
0.18,0.000964246343685818,0.000552496923195042,-0.048004295766345,-0.0276571495945078,0.000729847890156207,0.000838060808465585,-0.0364835314443777,-0.041692712421511,-0.196172822561479,-0.000908763976196991,0
0.19,0.000963793553639788,0.000552494873992798,-0.0479921331838406,-0.0276570478801004,0.000729762413746909,0.00083761292928668,-0.0364812993410385,-0.0416805943259834,-0.196178541136649,-0.000846794121847265,0
0.2,0.000963375599048639,0.000552493172123769,-0.047980910344954,-0.0276569778081641,0.000729683697731036,0.000837199469273166,-0.0364792631219734,-0.0416694077362473,-0.196183823027883,-0.000789558008643167,0
0.21,0.000962989922447477,0.000552491608648693,-0.0479705610168897,-0.0276568876152478,0.000729611067634073,0.000836817936201469,-0.0364773605242866,-0.0416590965578804,-0.196188701584999,-0.000736692619721821,0
0.22,0.000962633551556689,0.000552490164698209,-0.0479609931404472,-0.0276568174112259,0.000729543952228573,0.000836465395839907,-0.0364756142504808,-0.0416495615509459,-0.196193207607185,-0.000687864123216582,0
0.23,0.000962304421854044,0.000552488830802653,-0.0479521557340808,-0.0276567500518481,0.000729481964334643,0.000836139804214582,-0.0364739987523575,-0.0416407550122348,-0.1961973695418,-0.000642764251655444,0
0.24,0.000962000232289664,0.000552487598573796,-0.0479439819538636,-0.0276567026552471,0.000729424669778754,0.000835838886760698,-0.0364725189006941,-0.0416326070813691,-0.196201213664336,-0.000601108280940247,0
0.25,0.000961719531357493,0.000552486460275591,-0.0479364437610245,-0.0276566351674428,0.000729371798851088,0.000835561203517167,-0.0364711309692954,-0.0416250971777773,-0.196204764243105,-0.000562633229140584,0
0.26,0.000971419933758822,0.000558090721231902,-0.0484181586896022,-0.0279371820821138,0.000736762318281604,0.00084398058460456,-0.036840339559114,-0.0420427593617481,-0.196207972064803,-0.000562513874789373,0
0.27,0.000939949003618328,0.000540240735957199,-0.0468793817548912,-0.0270436440247927,0.000713122200495616,0.00081659102943331,-0.0356640927863846,-0.0407075865359847,-0.196211256427039,-0.000418306031954296,0
0.28,0.000937205521410197,0.000538623383342913,-0.0466697489857016,-0.0269626821641817,0.000711003316030168,0.000814213499666783,-0.0355439294429637,-0.0405176600956755,-0.196214068365072,-0.000379061322802676,0
0.29,0.000959618191168585,0.000551848702826718,-0.0478538405554348,-0.0276247144065876,0.000728346371683271,0.000833615994621632,-0.036424205103681,-0.0415498758664269,-0.196216456266649,-0.000431840442686649,0
0.3,0.000953610608957524,0.000548698507265751,-0.0475616547876621,-0.0274670217359526,0.000724086637774619,0.000828336759046857,-0.0362126362121259,-0.0412939858545075,-0.196217965644949,-0.000394993133575608,0
0.31,0.000960150518771529,0.000552308434928484,-0.0478865121714239,-0.0276477183811587,0.000728904173023957,0.000834045761657386,-0.0364532922686001,-0.0415772998450814,-0.196220183215383,-0.000394332312457371,0
0.32,0.000960316631588151,0.000552472924383198,-0.0478983446371838,-0.0276559626541376,0.000729099643180402,0.000834175086774681,-0.0364637725435161,-0.0415872213691202,-0.196222282584672,-0.000372739343775442,0
0.33,0.000960179731547434,0.000552479856548193,-0.0478950278685822,-0.0276562959191625,0.000729081370891496,0.000834038046725082,-0.0364635334964799,-0.0415838324767167,-0.196224224172578,-0.000351756974164048,0
0.34,0.000960038667148593,0.000552479626676754,-0.0478912453603508,-0.0276562912407209,0.000729055138027042,0.000833898426686191,-0.0364628660137985,-0.041580058073753,-0.196226017622711,-0.000332325476472036,0
0.35,0.000959907614434099,0.000552479110923029,-0.0478877127823922,-0.0276562690598413,0.000729030462075503,0.000833768781869915,-0.0364622243866036,-0.0415765372129545,-0.196227674128267,-0.000314375257970362,0
0.36,0.000959786689852351,0.000552478620643785,-0.0478844544395878,-0.0276562468366345,0.000729007679937397,0.000833649158146571,-0.03646163091587,-0.0415732899470404,-0.196229204140315,-0.000297795622180385,0
0.37,0.000959674845665456,0.000552478167142231,-0.0478814356639945,-0.0276562245753636,0.000728986606560195,0.00083353851862269,-0.0364610792504557,-0.0415702819199026,-0.196230617318307,-0.000282482028705363,0
0.38,0.000959571674414137,0.000552477748219781,-0.0478786524562269,-0.0276561993668064,0.000728967167854895,0.00083343645756924,-0.0364605661300735,-0.041567509450474,-0.196231922583423,-0.000268337806370327,0
0.39,0.000959476361202419,0.000552477361266371,-0.0478760791906944,-0.0276561770352751,0.000728949209309793,0.000833342170218641,-0.0364600926151999,-0.0415649459685823,-0.196233128176228,-0.000255273660345868,0
0.4,0.000959388382155731,0.000552477003845559,-0.047873703641349,-0.0276561546722594,0.000728932632789545,0.000833255137666764,-0.0364596537871864,-0.0415625797721238,-0.196234241707722,-0.000243207114224702,0
0.41,0.000959306833223184,0.000552476673704055,-0.0478714935128765,-0.0276561551521438,0.000728917265719341,0.000833174468519068,-0.0364592660780006,-0.0415603744690346,-0.196235270208166,-0.000232061989624159,0
0.42,0.00095923177627695,0.000552476368760907,-0.0478694638142577,-0.0276561327316181,0.000728903123571279,0.000833100219125349,-0.036458887819592,-0.041558353462232,-0.196236220170545,-0.000221767925264811,0
0.43,0.000959162540096568,0.000552476087093809,-0.0478675919930851,-0.0276561102858878,0.000728890078616754,0.00083303172714432,-0.0364585373010692,-0.0415564899531734,-0.196237097591951,-0.000212259932773197,0
0.44,0.000959098220625811,0.000552475826926575,-0.0478658430230626,-0.0276561077739486,0.000728877957484241,0.000832968102174027,-0.0364582274999081,-0.0415547454940789,-0.196237908011946,-0.00020347798639425,0
0.45,0.000959039112578142,0.000552475586619007,-0.0478642410237367,-0.0276560852826394,0.000728866820314799,0.000832909629857213,-0.0364579241851123,-0.041553151337192,-0.19623865654703,-0.000195366644040904,0
0.46,0.000958984339169494,0.000552475364655477,-0.0478627508388015,-0.0276560856351076,0.000728856498622298,0.000832855447085266,-0.0364576627000277,-0.0415516644788703,-0.1962393479224,-0.000187874697276177,0
0.47,0.000958934020478369,0.000552475159636163,-0.0478613864764009,-0.0276560631039433,0.000728847018100418,0.000832805668719865,-0.0364574011080992,-0.0415503074151789,-0.196239986503158,-0.000180954848022283,0
0.48,0.000958887221519228,0.000552474970267917,-0.0478601085929801,-0.0276560634178344,0.000728838198547554,0.000832759375031802,-0.0364571767569412,-0.0415490324943467,-0.196240576320695,-0.000174563409964227,0
0.49,0.000958843973227385,0.000552474795356324,-0.0478589255709225,-0.0276560637139728,0.000728830047937924,0.00083271659387891,-0.0364569690120429,-0.0415478522598866,-0.196241121098895,-0.000168660032742387,0
0.5,0.000958804422953266,0.000552474633798052,-0.0478578510775001,-0.0276560411332803,0.000728822596795358,0.000832677467489969,-0.0364567582611675,-0.0415467844484824,-0.196241624276632,-0.00016320744722175,0
0.51,4.62789256845827,-0.0743024643301765,8.60659149047349,3.73005731506971,-0.741465211227086,4.56871314725895,2.44881878343623,9.0548346878055,0.144835190401898,44.5990217959541,2745.20915357074
0.52,4.69956438705786,0.0560352744258632,5.02433098431513,-2.78158983966874,-2.82613872554181,3.75526101410746,-5.27128995253834,2.27917663035705,0.657073950489778,95.411149486366,2745.20915357074
0.53,4.62702638359863,0.0187076670841877,8.65275481283886,-0.902318188921346,-4.62589216514613,0.104138406773068,-8.66794022705391,-0.742398939509571,1.55233116645923,149.908807225223,2745.20915357074
0.54,4.56762758406613,0.0317110894042099,11.6242648979187,-1.54398175472512,-1.3254988567858,-4.3711874954722,-1.81528442589385,-11.5849970448428,2.85411269924799,203.797953154604,2745.20915357074
0.55,4.5796124179929,-0.0320750111174276,11.0266708091653,1.66819185626115,4.51255769369113,-0.781474098407576,10.5553455696306,-3.59930730956313,-1.74927699631227,255.580230550178,2745.20915357074
0.56,4.62951227910026,0.0275469976989964,8.53343460549008,-1.30707208098377,-1.44706181626888,4.39763059832439,-3.95458962379516,7.67392757969702,0.323845250389841,308.40611707163,2745.20915357074
0.57,4.56364144752524,0.113280281997721,11.8288729604994,-5.59514752976828,-1.72025988633702,-4.2285176607553,1.04916020963794,-13.0432808085243,2.78003516818177,361.785239157141,2745.20915357074
0.58,4.59685330652218,0.00812523659638975,10.170141858766,-0.322326276126709,2.82932804021783,3.62298622437221,5.99106733184759,8.22452380876696,-0.661241726514528,414.554913102915,2745.20915357074
0.59,4.53328063474613,0.00217876464859046,13.3508106731288,-0.0147311343378393,-2.46864424958501,-3.80216170478986,-7.25257764623815,-11.2091248597442,2.56620867728388,466.89129222381,2745.20915357074
0.6,4.51458615640859,-0.00887844587639113,14.2875564209754,0.555433763427049,0.463811573467704,4.49070660528548,2.04817489498741,14.1508923657716,-0.104884233199459,518.983264500886,2745.20915357074
0.61,4.54352498988669,0.0217660491208644,12.8426727040034,-0.954411335120728,3.07820321575739,-3.34196918853541,9.4447639324027,-8.75451754467064,-2.39246480996106,570.911409853677,2745.20915357074
0.62,4.52302860543042,0.0750082149385825,13.8697005212893,-3.63515411051403,-4.1671973088506,-1.76007971039906,-11.2158510038728,-8.93239185304617,1.9870153852067,623.910679600652,2745.20915357074
0.63,4.47083195978915,0.139108499762357,16.4818139301624,-6.81071425971536,-1.88702134787459,4.05547038209426,-13.4971818477399,11.6559899332929,0.466611178402625,675.449927597737,2745.20915357074
0.64,4.51784115458022,0.0334854532257338,14.1337466761291,-1.53239037889243,2.84073980113627,3.51314778451415,7.606421494951,12.0105523361526,-0.672552663250003,728.034418972898,2745.20915357074
0.65,4.48367984915458,0.0494739886472183,15.8441925595822,-2.32904979064854,4.44641829898254,0.578961981256694,15.3618464571941,4.52510598970142,-1.43028238760198,779.938433721311,2745.20915357074
0.66,4.40828505592984,0.087345425564394,19.6164265541261,-4.18080582499257,4.26570619544185,-1.11550751313939,20.0502330932928,-0.521038390467953,-1.80676312100009,831.566616032925,2745.20915357074
0.67,4.40986246982946,0.0893311558470373,19.5401093111047,-4.26867467620737,4.27074500858743,-1.10254438905694,19.9979388046259,-0.34626427429268,-1.80318770739322,883.425952833545,2745.20915357074
0.68,4.38070882674273,0.109165168905907,21.0003942978948,-5.29402812333443,4.34723406113606,0.55143710112977,19.9643286548592,8.3945741880382,-1.41970800461651,935.467619040068,2745.20915357074
0.69,4.45275171932806,0.115402779318403,17.4009773534051,-5.58593362416563,2.81086918112545,3.45533357608966,6.20443634362198,17.1901610511724,-0.656999449205368,987.159299607385,2745.20915357074
0.7,4.39615627229175,0.18044513534853,20.2335257976673,-8.80260832997514,-1.88620315837481,3.97504566799149,-17.2076814409962,13.8122112292352,0.484072421662114,1038.35303358659,2745.20915357074
0.71,4.45945410434149,0.101633872892346,17.0714790625304,-4.88536128670763,-4.09224744194752,-1.7749848525329,-13.4572248089377,-11.5846990779125,2.00283595538258,1090.26661614657,2745.20915357074
0.72,4.47929971362411,0.153820302987512,16.082009183355,-7.43699276585698,2.96693172611963,-3.35933069861081,16.4552789781262,-6.56990673639756,-2.38381534213471,1141.39337912646,2745.20915357074
0.73,4.43949124319812,0.106361419137804,18.0753550253664,-5.07630394009446,0.592278931095454,4.40109087814535,-3.064706244731,18.5228209681669,-0.109818348427235,1193.00658522429,2745.20915357074
0.74,4.36024270427775,0.0868360681239577,22.0408204584058,-4.11037683458857,-2.53761953821107,-3.54679348457505,-9.07570154703127,-20.5018195687899,2.54047310042007,1244.43276142549,2745.20915357074
0.75,4.42543342282452,0.189666500955897,18.7842922580531,-9.24819094475868,3.04857903075923,3.21350280140726,5.35706958977201,20.2405651303764,-0.716235282703013,1295.77073492068,2745.20915357074
0.76,4.40850111184613,0.141197863611321,19.6340152956886,-6.80393166631583,-2.06668861245416,-3.89661610490298,-2.52985978498579,-20.6249327809702,2.68595477833291,1346.90919720882,2745.20915357074
0.77,4.33320942973465,0.203119771520307,23.4017847903901,-9.87326312615622,-1.40183669023883,4.10521808159128,-17.7749593165048,18.1431992060565,0.375902519284908,1397.84841626663,2745.20915357074
0.78,4.37941169175864,0.190618688676024,21.0949136360939,-9.21755023638773,4.26970775791942,-0.992561288962835,22.4300278004855,5.18193656310438,-1.75570678114513,1448.93792325985,2745.20915357074
0.79,4.32378266811164,0.109560494428796,23.8796025380308,-5.20066452123348,-1.66988989050424,-3.98980799244698,-3.81190207625367,-24.1402512703948,2.77054092741048,1500.15110888568,2745.20915357074
0.8,4.20161938062375,0.188017222238027,24.6323139973745,-9.08077604200419,-4.09562380651747,0.956463031684214,-25.8810621543689,-4.40250021601139,1.38609402856777,1550.43595333718,2745.20915357074
0.81,4.06043626338319,0.195424693686072,24.6268335327109,-9.46694654567354,-1.26892134104152,3.86201658336017,-17.6445102451968,19.6156892551254,0.365544312416031,1599.18235319551,2745.20915357074
0.82,3.97029141469315,0.190688693328551,22.3391192107937,-9.25904680048952,1.36806743245314,3.73201923837627,-2.16262827091043,24.0850417008061,-0.303372562952432,1646.4992034451,2745.20915357074
0.83,3.73254160713262,0.156244777253931,27.65228595398,-7.56103524498376,2.3325933003084,2.91809660133993,10.2489444552976,26.7726971000083,-0.632511415230063,1692.06114916505,2745.20915357074
0.84,3.70426418922486,0.204632557631973,22.6619378330687,-9.97878452379065,2.35722204667166,2.86477780812086,5.36832454793777,24.1727255076899,-0.633320503355387,1736.17630070285,2745.20915357074
0.85,3.54707661260767,0.127705246548114,24.2891394117042,-6.11912243233326,1.22392379715836,3.3316770048211,1.73382734646486,24.9879930253659,-0.316068127062461,1778.74775751092,2745.20915357074
0.86,3.395818022697,0.158106529060294,25.815913073999,-7.61528593232609,-0.87974016854987,3.2836922745052,-15.0895727483713,22.2880852014471,0.308290162394092,1819.82888139443,2745.20915357074
0.87,3.25364326229302,0.203247962333545,27.1131371407063,-9.86553569126137,-2.99784863205902,1.2807840535076,-28.8513940446062,-0.219229945861315,1.22942139112277,1859.63897502364,2745.20915357074
0.88,3.16212446246032,0.164911910030976,26.0316343651979,-8.01758360734044,-1.68216418609494,-2.68263875786129,-5.65670565159793,-26.6444987904675,2.63362142378787,1898.29184520152,2745.20915357074
0.89,3.04810482503715,0.145559791769395,26.2281139932454,-6.98442022343602,2.44595623287947,-1.82467224022091,25.6514749106871,-8.87118506213272,-2.164011654614,1935.30209271637,2745.20915357074
0.9,2.98155168896669,0.15875016051559,24.2538148407501,-7.71114957733118,1.33507882900615,2.67065845959071,2.6053281480932,25.316429988727,-0.410378685778944,1971.36142648798,2745.20915357074
0.91,2.80935030009651,0.176778881667751,27.6992875291525,-8.64340555612935,-2.81350183965903,0.0889228873312577,-27.41572890948,-9.50456719647417,1.60204340341551,2006.04037936608,2745.20915357074
0.92,2.79914303385714,0.158422394073612,23.1821483687482,-7.64292328423217,1.73365885126806,-2.20334435945789,21.0714283488443,-12.3215740333301,-2.41839711860413,2039.54926459792,2745.20915357074
0.93,2.72110120786554,0.151558210109425,22.2444205677174,-7.33283617454572,-0.082883512175758,2.7240580019354,-9.21762619514735,21.5318392173718,0.0860569946858724,2071.97002939836,2745.20915357074
0.94,2.56621424855638,0.0748495927911272,25.303917112312,-3.52880662055924,-0.873187091495194,-2.41424984918317,-4.55689934296785,-25.1391202266531,2.82370922934201,2103.2743456278,2745.20915357074
0.95,2.43005788978508,0.158590059013348,27.573182928544,-7.7419979272866,1.29760591251392,2.06071614986962,6.3355107487702,27.9299167966766,-0.49679312745395,2133.42228317766,2745.20915357074
0.96,2.36560422401051,0.0954061364441007,26.391065851077,-4.57971021879886,-1.13255801229984,-2.07906181348776,-7.57383684134412,-25.6923937760722,2.68310184517822,2162.55861273513,2745.20915357074
0.97,2.26859509857619,0.0807143083008445,26.9594808724253,-3.83507543167405,0.113193973129811,2.26720657314138,-3.44860266300509,27.0116373467069,-0.0143212212760883,2190.67085224061,2745.20915357074
