t,iq,id,vq,vd,ia,ib,va,vb,theta_e,omega,r
0,0,0,0,0,0,0,0,0,0,0,0
0.01,0.000575408398586219,0.000325173240720213,-0.0276504465877655,-0.0162661073126029,-0.000494077951080943,-0.000438998223116791,0.0243480379577959,0.0208879508620094,2.81160810632532,-0.00223400472263223,0
0.02,0.000727246995653653,0.000407739734922828,-0.0350409979802182,-0.0203963187504738,-0.000621399988572116,-0.00055587942786613,0.0306506494188873,0.0265408938851172,2.81158974768845,-0.00270750891384956,0
0.03,0.00078802143911409,0.000440828689205294,-0.0380056601172883,-0.0220515189084108,-0.00067240931231467,-0.000602638729623654,0.0331778020332871,0.0288085601750391,2.81156966745329,-0.00280227270041665,0
0.04,0.000780133823069591,0.000436343154658931,-0.0376975589543581,-0.0218271479924595,-0.000665621330804886,-0.000596617444006137,0.0328662499239576,0.0285891580242928,2.81155024281269,-0.00262600882638919,0
0.05,0.000798636522976241,0.000447320807661585,-0.038644107009282,-0.0223762821782697,-0.00068201436421585,-0.000610551068954794,0.033693056265531,0.0293060227624656,2.81153149529994,-0.00256082982614483,0
0.06,0.000802096317901336,0.00044981190353842,-0.0388715872161225,-0.0225008864751476,-0.000685503363072968,-0.000613004397187645,0.0338851923683744,0.0294802293584423,2.81151348019862,-0.00244065357980275,0
0.07,0.000812649531246574,0.000456576997309709,-0.039432984792261,-0.0228392971190203,-0.000695334221592928,-0.000620783485113275,0.0343877983518925,0.029901055282835,2.81149659639483,-0.00235740121662266,0
0.08,0.000803648771486629,0.000451909646952649,-0.0390611234018176,-0.0226058364449589,-0.000688011434823792,-0.000613770268482063,0.0340468931820586,0.029624386363902,2.81148025431447,-0.00219960648058966,0
0.09,0.000800652859291153,0.000450847053718769,-0.0389717359569056,-0.0225526674267483,-0.000686044458769739,-0.000611270044685105,0.0339680729863515,0.0295565395327359,2.8114649315065,-0.0020735259206247,0
0.1,0.000799145612180023,0.000450603487350579,-0.0389502155174269,-0.0225404970244001,-0.000685334262791863,-0.000609913240160123,0.0339500104649748,0.0295396358201839,2.8114504819075,-0.00195992793384142,0
0.11,0.000798039987023844,0.000450546099910063,-0.038945028895238,-0.0225376133228868,-0.000684929864533737,-0.000608876580025035,0.0339460041521591,0.0295352008973104,2.8114368357762,-0.0018539223028047,0
0.12,0.000797071536564918,0.000450531119349801,-0.0389437510110735,-0.0225368818119795,-0.000684609568594515,-0.000607956464307582,0.0339452786279272,0.0295337915529315,2.81142394362455,-0.00175408049968912,0
0.13,0.000825228433493312,0.000467019465375911,-0.0403284553149128,-0.0233616699228043,-0.00070934375811141,-0.000629238095885976,0.0351748255677544,0.0305758659067413,2.81141142448174,-0.00177405030388757,0
0.14,0.000841141654091218,0.000476611327650498,-0.0412255808662721,-0.0238414730805746,-0.000723584536369979,-0.000641173189254138,0.0359199499105282,0.0312685393780786,2.81139935700232,-0.00174818179640939,0
0.15,0.00080545034664024,0.000456446951927025,-0.0394684570520533,-0.0228327957805385,-0.000692944473589274,-0.000613939766873297,0.0343964014884828,0.0299329789674975,2.8113878364107,-0.00151901826475795,0
0.16,0.000796317266472678,0.000451864610848058,-0.0390694604088369,-0.0226035835876899,-0.00068565469316907,-0.000606778754699448,0.0340505097593772,0.0296295040925412,2.8113774791115,-0.00140523388175112,0
0.17,0.000793598117682903,0.00045082217209619,-0.0389735409032242,-0.0225514405921453,-0.000683792739439363,-0.000604537916704474,0.0339703678292372,0.0295553459269668,2.81136781976724,-0.00132241711207459,0
0.18,0.000792449459808757,0.00045058398370285,-0.0389504666360253,-0.0225395236690995,-0.000683200451450675,-0.00060352234081127,0.0339518815001617,0.0295370736701013,2.81135872346987,-0.00125010143347415,0
0.19,0.000791705589395522,0.000450528574681814,-0.0389449018993067,-0.0225367444581755,-0.000682912002548406,-0.000602830767015308,0.0339477016240539,0.0295324192907377,2.81135013600141,-0.00118319917450876,0
0.2,0.000791084674125835,0.000450514759385183,-0.038943539344658,-0.0225360601272586,-0.000682702473633294,-0.000602242345369079,0.0339468519978656,0.0295310768883112,2.81134202373861,-0.00112032822345272,0
0.21,0.000790517776197799,0.000450510460339342,-0.0389431916034078,-0.0225358471378202,-0.000682519184996229,-0.000601702244861993,0.0339467640933107,0.0295305568195393,2.81133435914398,-0.00106100587221066,0
0.22,0.0007899868507484,0.000450508386735834,-0.038943085872298,-0.0225357403377373,-0.000682349404867518,-0.000601195742293342,0.0339468426344182,0.0295302455963567,2.81132711721506,-0.00100497388031749,0
0.23,0.000789486426145615,0.00045050687883179,-0.0389430433208604,-0.0225356582578761,-0.000682189804163523,-0.000600718183542225,0.0339469532553279,0.0295299996763761,2.81132027457159,-0.000952035798470099,0
0.24,0.000789013726280526,0.000450505556298877,-0.0389430078243187,-0.022535600796067,-0.000682039137186238,-0.000600267050454623,0.0339470783096847,0.0295297652527204,2.81131380918218,-0.000902017437419209,0
0.25,0.000788567318392681,0.000450504329634507,-0.0389429842812599,-0.022535525952938,-0.000681896868105507,-0.000599841002203385,0.0339471802714219,0.0295295598735501,2.81130770024312,-0.000854756958322123,0
0.26,0.000793285003062809,0.000453471308588751,-0.0391874153723134,-0.0226839444459016,-0.000686236908724748,-0.000603337574581144,0.0341670173645221,0.0297124516591853,2.81130202777636,-0.000831496780407107,0
0.27,0.000781535363542509,0.000446812927740718,-0.038647528395572,-0.0223508732167694,-0.000676131186506516,-0.000594378612920287,0.0336770208781911,0.0293095760700922,2.81129634153513,-0.000741962075776342,0
0.28,0.0007805376181605,0.00044649054372564,-0.0385236130494347,-0.0223347610359714,-0.000675505699733079,-0.000593535869706463,0.0336217416728379,0.0291974108407145,2.81129118044624,-0.000699541711301137,0
0.29,0.000785372375148547,0.000449589000530417,-0.0388647681116932,-0.0224897465554577,-0.000680007557381436,-0.000597101129582371,0.0338791358205029,0.0294696972593938,2.81128642246186,-0.000683557505706623,0
0.3,0.000774217612742635,0.000443660164765543,-0.0383470191302493,-0.0221931707561705,-0.000670783658893708,-0.000588469656517532,0.0334307825591185,0.0290759949421027,2.81128251905571,-0.000609682186910162,0
0.31,0.000783413558371917,0.000448944786722855,-0.038799611616613,-0.0224575278222222,-0.000678767681223715,-0.00059545164362252,0.0338277645705742,0.0294182385883945,2.811278324777,-0.000615419136665887,0
0.32,0.000785397441759665,0.000450144684439972,-0.0389083785354329,-0.0225175340672731,-0.000680548618146772,-0.000596936308822563,0.0339199255729133,0.0295015238564953,2.81127421772476,-0.000592823531709577,0
0.33,0.000785660237523978,0.000450416673586702,-0.038934499138517,-0.0225311419292189,-0.00068089347738576,-0.000597094013639955,0.0339413854341467,0.0295216858362202,2.81127030248951,-0.000564740040332413,0
0.34,0.000785521207349982,0.00045047789878178,-0.0389407576933577,-0.022534204313584,-0.000680908511739481,-0.000596940116869478,0.0339464216845405,0.0295264868989608,2.81126659478939,-0.000536586438745478,0
0.35,0.000785296782300722,0.000450491274861142,-0.038942244259515,-0.0225348721774396,-0.000680850463749835,-0.000596721099869544,0.0339476391141322,0.0295275574776837,2.8112630895023,-0.000509596019583403,0
0.36,0.000785062071410326,0.000450493810149269,-0.0389425691461677,-0.0225350132028767,-0.000680778708272001,-0.000596496001087504,0.0339479757047778,0.0295277066042335,2.81125977698803,-0.000484000143514937,0
0.37,0.000784835200438812,0.000450493910372661,-0.0389426328802102,-0.0225350118178632,-0.000680707082039184,-0.00059627923290383,0.0339480874891737,0.0295276610841677,2.81125664698328,-0.000459792946643772,0
0.38,0.000784619621702541,0.000450493483576423,-0.0389426340827174,-0.0225349827570085,-0.000680638515880213,-0.000596073435245894,0.0339481477166211,0.0295275712473879,2.81125368951396,-0.000436914937870383,0
0.39,0.000784415353132623,0.000450492961783657,-0.0389426057719485,-0.0225349665442872,-0.000680573430134118,-0.000595878478418435,0.0339482057098938,0.0295274548605239,2.81125089508873,-0.000415296939117128,0
0.4,0.000784222260427933,0.000450492441781522,-0.0389425735184825,-0.0225349473784594,-0.000680511878328505,-0.000595694197811918,0.0339482550814608,0.0295273409320314,2.81124825472405,-0.000394870469685612,0
0.41,0.000784040151081766,0.000450491944274427,-0.0389425585744258,-0.022534910933155,-0.000680453822831093,-0.000595520398776585,0.0339482894239455,0.0295272539237201,2.81124575992731,-0.000375570075298257,0
0.42,0.000783867722096058,0.000450491472752786,-0.0389425250306298,-0.0225348916912525,-0.000680398849217114,-0.000595355842123905,0.033948329944898,0.0295271484104044,2.81124340267328,-0.000357333730262885,0
0.43,0.000783704955584626,0.000450491026863153,-0.0389424998009107,-0.0225348738663466,-0.000680346955996101,-0.000595200505845684,0.0339483706654612,0.0295270547138812,2.81124117537946,-0.000340102785211273,0
0.44,0.000783551094842296,0.000450490605441934,-0.0389424711075763,-0.0225348545508808,-0.00068029790099474,-0.000595053669614894,0.0339484052265428,0.029526962393179,2.81123907088024,-0.00032382181382419,0
0.45,0.000783405732418228,0.000450490207199449,-0.0389424433847334,-0.0225348352015301,-0.000680251554958951,-0.000594914943789675,0.0339484366442831,0.0295268749403384,2.81123708240611,-0.000308438443043646,0
0.46,0.000783268344446314,0.000450489830874642,-0.038942413813554,-0.0225348172753297,-0.000680207750664276,-0.000594783828856652,0.0339484655714583,0.0295267889991798,2.81123520356061,-0.000293903186635745,0
0.47,0.000783138639882585,0.000450489475266142,-0.0389423898975036,-0.0225347978628026,-0.000680166396244569,-0.000594660045759244,0.0339484918683999,0.0295267124060189,2.81123342829939,-0.0002801692864921,0
0.48,0.000783016153071448,0.000450489139235126,-0.0389423692269041,-0.02253477987614,-0.000680127343043699,-0.00059454315048105,0.0339485176768407,0.0295266417429386,2.81123175091152,-0.000267192562332213,0
0.49,0.000782900301933457,0.0004504888217056,-0.0389423424570183,-0.0225347618624837,-0.000680090404501456,-0.000594432589074862,0.0339485387505331,0.0295265684586288,2.81123016600138,-0.00025493126960999,0
0.5,0.000782790853635071,0.00045048852166052,-0.0389423165227338,-0.022534742367318,-0.000680055507218153,-0.000594328138139921,0.0339485561137359,0.0295264994117269,2.81122866847056,-0.000243345965232568,0
0.51,4.70802313385552,-0.0237474743832516,4.59939370980925,1.19259438770646,-0.404102532605207,4.69070857276386,0.817039608144405,4.68072111433111,0.0808933876203823,25.0307202408062,4538.31345170384
0.52,4.73593248892012,0.0138379835212926,3.20462665390627,-0.682558499202825,-1.69028461502151,4.4240463322188,-1.78938009372264,2.74474716065973,0.367874354762787,53.2875248546396,4538.31345170384
0.53,4.75981012510992,0.0252553978165578,2.01145709125452,-1.24800274517953,-3.60079389061528,3.11299110495444,-2.3397846041862,0.358996501301839,0.863233529137907,81.9575868862929,4538.31345170384
0.54,4.72007499023977,0.0389008734766363,3.99894750377235,-1.92484553989963,-4.72014794188597,0.0287158171365101,-3.99478476723475,-1.93346997749326,1.57295412591923,111.989589334872,4538.31345170384
0.55,4.72955312226908,0.00629660185988801,3.5258052064844,-0.291858799136716,-2.79253870714649,-3.81712456603774,-1.84221801577031,-3.02038353443356,2.5113151298423,144.073978222474,4538.31345170384
0.56,4.72440010250877,0.0159009463691375,3.78422074623715,-0.766244610954081,2.4004238069248,-4.06917371413767,2.59233209760087,-2.86134090171306,-2.60526370683053,173.707960526773,4538.31345170384
0.57,4.71918828618896,0.0536786128826074,4.04560712111044,-2.6480439537529,4.4630259135896,1.53460717078077,2.92107715602034,3.85310031117319,-1.22823762696234,202.119538454684,4538.31345170384
0.58,4.74204538296719,0.00728850673899428,2.90363583138388,-0.327379857774084,-1.69013832636614,4.4306297491665,-1.34476844371672,2.5942005406977,0.365965134440025,233.33240375342,4538.31345170384
0.59,4.68025703926408,0.00775822062424414,5.99397013196201,-0.342250718173736,-3.8307155914244,-2.6889559686217,-4.70314911964032,-3.73164867791297,2.18448486897887,262.310157743853,4538.31345170384
0.6,4.71164765219787,-0.0203657833516728,4.42542203739548,1.0652284258994,4.15011578490848,-2.23082436230347,3.38047296543536,-3.0481919785949,-2.06834002551141,292.494609447026,4538.31345170384
0.61,4.73102146713234,0.0185693255396633,3.45771710341255,-0.871556281699674,-0.852284635049194,4.65365660993343,-1.49291564285688,3.23830523618683,0.185060618520887,321.674211678788,4538.31345170384
0.62,4.68331256043501,0.00919173087540193,5.8441645420713,-0.404467326832925,-2.20642829805078,-4.13100171776841,-2.38606694459787,-5.35019042176783,2.65298993145057,352.181198428218,4538.31345170384
0.63,4.69165023347384,0.072591234095042,5.42834167535611,-3.56121688057023,3.84129450758574,2.69468141094902,2.30514664727878,6.06922218652487,-0.943590840970694,380.932834831415,4538.31345170384
0.64,4.71758600637207,0.0132725864312477,4.13266475843514,-0.592126014700046,-4.36663987660635,-1.78556715838398,-3.59514560793906,-2.12237114582082,1.96177435421934,410.85465449479,4538.31345170384
0.65,4.66787052662761,0.0767041625648224,6.61953717571126,-3.76699402195723,4.37866550075317,1.61931689746865,4.80551935483388,5.90893392350955,-1.20014409047538,440.984308881993,4538.31345170384
0.66,4.69750569612724,0.0197876992423494,5.13891252002237,-0.916908961412626,-3.97220231275188,-2.5077001624512,-3.84108544972957,-3.53485593763554,2.13813430863451,470.6226415453,4538.31345170384
0.67,4.68289976923333,0.0170102644589643,5.87035855227258,-0.767796839154782,2.61619186977809,3.88399017741929,2.62350045262518,5.3073408495716,-0.58914353113016,499.924256792376,4538.31345170384
0.68,4.65327485834237,0.0591916262434382,7.35280021061804,-2.8651479876166,0.138485925009854,-4.65159028768363,3.17483563097299,-7.22448355555693,-3.09910997019579,529.301954908504,4538.31345170384
0.69,4.64523069317744,0.042819616659866,7.75632476493574,-2.04103217808242,-3.58459902759881,2.95476759217139,-7.31395764668919,3.29126263819223,0.890633538028286,558.778189482796,4538.31345170384
0.7,4.6250113934003,0.0633868059891732,8.76854207986101,-3.06536234123763,4.31117130117741,1.67587299284891,6.97878279973083,6.13028279311421,-1.18634043629281,588.38784410399,4538.31345170384
0.71,4.61357077734803,0.0227149413809276,9.34189601505836,-1.03451205119657,0.413675604097373,-4.59504339269351,1.91330535932765,-9.20220076624078,-3.04688474169727,618.078808456707,4538.31345170384
0.72,4.66400098654382,0.0844438655860866,6.82175521382915,-4.1263252582536,-4.66473996706227,-0.0153950839130076,-6.7318804811499,-4.27138028297878,1.59220010216713,647.798215009232,4538.31345170384
0.73,4.64152197340691,0.0414740002765337,7.94709331988589,-1.96981105958656,-0.718551978352031,4.58575286912896,-3.24360298729141,7.51767833218998,0.164363625612136,677.26490870349,4538.31345170384
0.74,4.65509920185006,0.0676879431726747,7.26963314131972,-3.26778039448577,4.06631339265005,2.2670742443667,4.66474722306361,6.46266880327933,-1.0476540124445,706.44171536749,4538.31345170384
0.75,4.67433866322334,0.0709716863171681,6.30908534606327,-3.41849807562148,4.12787404614031,-2.19434153630753,7.17378062122336,0.166007817581892,-2.04421425272329,735.71683733905,4538.31345170384
0.76,4.66455672263485,0.0526475266182564,6.79962898447142,-2.51866616025074,1.40381588316332,-4.44861350837712,4.51250212265157,-5.6759103363532,-2.82463389279869,765.605879843491,4538.31345170384
0.77,4.67232043420893,0.0817409781176577,6.41295990476118,-3.95568893839689,-1.22417208141273,-4.50984063382727,2.26363175881803,-7.18675872545478,2.89402776898755,794.698789435221,4538.31345170384
0.78,4.57191290241267,0.0533613463869695,11.4348687335888,-2.54073061288271,-2.61532956876469,-3.75037148390407,-4.33002110086686,-10.8840457674384,2.54431701799184,824.172974285168,4538.31345170384
0.79,4.63202622949345,0.054725489425832,8.43078181754321,-2.59880396229876,-3.13335765224616,-3.41185165167224,-3.69416840845609,-8.01155314901186,2.41053216899142,853.494195514863,4538.31345170384
0.8,4.55934162990164,0.0836649463550994,12.0666082051149,-4.05738800160428,-2.82724655102974,-3.57788664732313,-4.07721349068422,-12.0599237610646,2.49120402871689,882.935313405318,4538.31345170384
0.81,4.61923929414696,0.0657412752146704,9.07333226561403,-3.13404564207353,-1.66375914911391,-4.30970985863293,-0.207412011194245,-9.59711314648551,2.78740165119438,912.024896858175,4538.31345170384
0.82,4.62561164385513,0.0938076673371588,8.75635951664696,-4.55065364746233,0.629196346816944,-4.58357883267776,5.86138286759073,-7.93892130477748,-2.98489613706674,941.635893522843,4538.31345170384
0.83,4.61892240022387,0.108604237957252,9.09242045846064,-5.28517466747884,3.49797910733113,-3.01834079992088,10.3794005557948,-1.69505904367992,-2.25921272031462,970.849034939829,4538.31345170384
0.84,4.59649633880079,0.0910023479695576,10.2154279520054,-4.38046585416794,4.47362117501546,1.05961011810871,8.79805731073978,6.79246913125726,-1.318429324387,999.909048949317,4538.31345170384
0.85,4.57890454035689,0.106593512056891,11.0967621057893,-5.1645748793294,0.848778255437188,4.50081153122529,-3.29393854067788,11.7881691456697,-0.163119274356824,1029.24945123784,4538.31345170384
0.86,4.62243670044474,0.0892846086613956,8.9219310829801,-4.30058503804331,-4.28693490811473,1.73120821525016,-9.8688558187543,-0.837598201721945,1.20630260930379,1058.59359689882,4538.31345170384
0.87,4.60803933434461,0.0886428839748543,9.64353963843733,-4.26980974050734,-1.66982718201862,-4.29576084645529,0.688344320680376,-10.5240350661916,2.79008651767321,1087.90274116909,4538.31345170384
0.88,4.58561083063635,0.0718801502589357,10.7667678031605,-3.42978849818833,4.54132345084089,-0.63982400774995,11.1089126613504,2.06852545354589,-1.6950905243912,1117.12640784494,4538.31345170384
0.89,4.5498576231077,0.0855340865654353,12.5563274902594,-4.10933904330093,-1.33648267226548,4.34998098125152,-7.81735603255312,10.6506794185041,0.31688161227537,1146.2583322511,4538.31345170384
0.9,4.55193563850194,0.0756240362850295,12.4543113199433,-3.60500559491954,-2.62933926275257,-3.71650536031846,-4.0459802034507,-12.3181159268272,2.54247874892386,1175.36084608645,4538.31345170384
0.91,4.59659153755145,0.100289037071828,10.2233774996354,-4.82448271510715,-3.85199528112393,-2.51014820443842,-5.71996714452873,-9.75064391893843,2.17014444906337,1204.43566194109,4538.31345170384
0.92,4.5270726034519,0.100086213830554,13.7012883515018,-4.80294027014732,4.51045951115557,0.400198207579639,13.0874529574857,6.2858661149598,-1.46019658742315,1233.44625715534,4538.31345170384
0.93,4.54969353559729,0.159778393989383,12.5721411219633,-7.78346660209331,-4.46194230933248,0.903499436209169,-13.6780730878735,-5.61706340886878,1.40611159708561,1262.68492489826,4538.31345170384
0.94,4.55695093008274,0.111431199147119,12.2112221403854,-5.39143276306066,4.41588374129972,-1.13057042003144,13.1092973738809,2.51551500961566,-1.79698802433579,1291.97817984711,4538.31345170384
0.95,4.53512049390334,0.0983064629997061,13.3047368119365,-4.71014970414372,-4.51527207349588,0.435086379007448,-13.6180014929453,-3.7083105598753,1.49640737725929,1320.87862015326,4538.31345170384
0.96,4.59831843937048,0.119546690761321,10.1468476113082,-5.75362294077744,4.44015363224103,1.20160709186629,8.07550023429274,8.41718417035586,-1.28051198120852,1349.96292369968,4538.31345170384
0.97,4.5627785143944,0.124178673187643,11.9259113783949,-6.00875949982669,-3.04314365603085,-3.40200599691609,-3.12047527454863,-12.9844209340662,2.43902536620799,1379.11645253544,4538.31345170384
0.98,4.57595507193365,0.140102578606231,11.2691598930286,-6.7723583680863,-0.263001841730655,4.57053865360897,-7.7374844783725,10.6296818629429,0.0880870303301958,1407.98334687759,4538.31345170384
