t,iq,id,vq,vd,ia,ib,va,vb,theta_e,omega,r
0,0,0,0,0,0,0,0,0,0,0,0
0.01,0.000504292921812449,0.000258974247023832,-0.0230832377683508,-0.0129525341175278,0.000547774929469648,-0.000146019307819957,-0.025306727715447,0.00775716045161924,-1.35688636046958,-0.00702526140773211,0
0.02,0.0006988789399192,0.000344742941524334,-0.0325699777368975,-0.0172422458368554,0.000756122603927112,-0.000188568492129304,-0.0354873213565346,0.0099372286991194,-1.35694253910269,-0.00789583125980285,0
0.03,0.000774523088577566,0.000382871025370061,-0.0366004886098682,-0.0191492053312559,0.000838124085789911,-0.000209819573983171,-0.0398301357765378,0.0109475163997253,-1.35699660059448,-0.00687553364260379,0
0.04,0.000761283905827277,0.000384785526736605,-0.0365415786610265,-0.0192449594695384,0.000825583593908447,-0.000214533951454808,-0.0397924224639066,0.01105524990573,-1.35703832496593,-0.00489573422718968,0
0.05,0.000757897924229251,0.000395325462912651,-0.0367710790834449,-0.019772109403778,0.000824503777415601,-0.000225577051593275,-0.0401281798629223,0.0115229227249376,-1.35706836114966,-0.00357282789015491,0
0.06,0.000743518303223337,0.000398603589293379,-0.036399229756885,-0.0199360665593353,0.000811141785406253,-0.000231847563268695,-0.0397993209059881,0.0117628539128449,-1.35708930698677,-0.00245021177532113,0
0.07,0.000735000444828068,0.000403642831729276,-0.0361877504298068,-0.0201881020302854,0.000803883311719971,-0.000238589208980663,-0.0396459471288672,0.01205452699239,-1.35710241460272,-0.00175569718308759,0
0.08,0.000719604739439748,0.000401189914309332,-0.0356244373095369,-0.0200654188392124,0.000788315362271324,-0.000239464439896006,-0.0390693167598023,0.012054462026004,-1.35711176188874,-0.00110524324993061,0
0.09,0.000709402682175588,0.000400426042506929,-0.0352429600743721,-0.0200272120893982,0.000778182014471298,-0.000240885726744179,-0.0386883464715873,0.0120982356635975,-1.35711730770848,-0.000701548835334342,0
0.1,0.00070292323865308,0.000400188024987284,-0.0349968282150166,-0.0200153199173797,0.000771798678492184,-0.00024202961525292,-0.0384452514210638,0.0121389315706791,-1.35712052568636,-0.000457988726907067,0
0.11,0.000698940099704301,0.000400113784469996,-0.0348436334487465,-0.0200116065851793,0.000767889936760581,-0.000242803106486288,-0.0382947309184276,0.0121678582304291,-1.35712235498424,-0.00031454241731187,0
0.12,0.000696556219634692,0.000400090587203462,-0.0347509887827939,-0.0200104385185599,0.000765555102778416,-0.000243286723210522,-0.0382039330214731,0.0121864011413432,-1.35712337453861,-0.000231862713241051,0
0.13,0.000719295581451425,0.000412816633265692,-0.0357773347538269,-0.0206469264245191,0.000790475510437417,-0.000250902717392758,-0.0393418862649992,0.0125908394469456,-1.35712496112543,-0.000543524641873734,0
0.14,0.000732073328715321,0.000420107168962974,-0.0365381318661765,-0.021011562553891,0.00080450810838003,-0.000255319594980882,-0.0401626767063205,0.0127859391915399,-1.35712700840255,-0.000669920260189204,0
0.15,0.000707768776760911,0.000406312014405508,-0.0353169599264233,-0.0203216014225238,0.00077783056434144,-0.000246993335100717,-0.038822947169159,0.0123706877707424,-1.35712890197479,-0.000185452555642607,0
0.16,0.000697242146859247,0.000402018953247155,-0.0348471170051921,-0.0201068813117574,0.000766633064910557,-0.000245029781685156,-0.0383182619961582,0.0122604664369847,-1.35712858882324,-2.34091496727331e-05,0
0.17,0.000693174253323205,0.000400683046565612,-0.0346552614062134,-0.0200400749072464,0.000762374631630676,-0.000244586120459184,-0.0381166146672648,0.0122358257477084,-1.35712765422637,4.90127624972958e-06,0
0.18,0.00069195535621178,0.000400267412507329,-0.0345894906838488,-0.0200192793367034,0.000761095547480022,-0.00024443768962983,-0.0380479414017107,0.01222941396883,-1.35712671950067,-1.42197537224729e-05,0
0.19,0.000691873898499562,0.000400138146106556,-0.0345764961251759,-0.0200128246096364,0.000760988712757246,-0.000244328071352113,-0.0380338827061285,0.0122258332823097,-1.35712597786102,-4.413820723285e-05,0
0.2,0.000692163071399556,0.000400097973583348,-0.0345825984264519,-0.0200108100593597,0.000761262920167783,-0.000244227091561086,-0.0380394255125225,0.0122225504635595,-1.35712544949006,-7.12324257069322e-05,0
0.21,0.000692507776309553,0.000400085508011654,-0.0345933751398842,-0.0200101833338972,0.00076159722902318,-0.000244141546473269,-0.0380498285696089,0.0122196393747241,-1.35712509660012,-9.18504904277609e-05,0
0.22,0.000692798523310023,0.000400081651364881,-0.0346033740037252,-0.0200099889111563,0.000761880601372427,-0.00024407595316169,-0.0380595615763116,0.0122173205444251,-1.35712487118483,-0.000106194948433546,0
0.23,0.000693012187311668,0.00040008046491971,-0.0346110489505318,-0.0200099451286111,0.000762089188820686,-0.000244029380312089,-0.0380670544033749,0.0122156449914292,-1.35712473197951,-0.000115624983634901,0
0.24,0.000693157997476186,0.000400080103828403,-0.0346164240612189,-0.0200099257984016,0.000762231626946471,-0.000243998044719785,-0.0380723042010081,0.0122144831274015,-1.35712464834116,-0.000121578593750521,0
0.25,0.000693252468503692,0.000400079996159605,-0.0346199632933816,-0.0200099211925019,0.000762323938744552,-0.000243977869550754,-0.0380757625699951,0.0122137262650914,-1.35712459926172,-0.000125221174212721,0
0.26,0.000696640640383963,0.000402089932022009,-0.0347654039234506,-0.0201104447992283,0.000766061352986571,-0.000245223364972479,-0.0382392160685314,0.0122811096586446,-1.35712424420046,-0.000196599165551075,0
0.27,0.000690746268405836,0.000397982797312813,-0.0345144020531363,-0.0199050178971159,0.000759429918711955,-0.0002424601262861,-0.0379503520271699,0.0121336090090263,-1.35712502643018,-6.54823955654169e-05,0
0.28,0.0006896501916264,0.000397595742229629,-0.0343003951850876,-0.0198856593596636,0.000758276691601581,-0.000242314300079917,-0.0377371068510245,0.0121600709099953,-1.35712503266793,-4.69720253427817e-05,0
0.29,0.000691684941791218,0.00039930684751102,-0.0345509217689493,-0.0199712530246192,0.000760628105411959,-0.000243554721628062,-0.0380000911539568,0.0121905789340946,-1.3571246323317,-9.77307584561025e-05,0
0.3,0.000678979961833622,0.000393603858769817,-0.0339602507066282,-0.0196860157947061,0.000747003275593751,-0.000240673830032024,-0.0373623952393299,0.0120369958007202,-1.35712238357299,1.89583152098093e-05,0
0.31,0.000688573176826095,0.000398064846426078,-0.034380461774027,-0.0199091279617022,0.000757324369253433,-0.000242998850901578,-0.0378203655372128,0.0121659146233388,-1.35712204117812,-0.000155186439190719,0
0.32,0.000692552462754328,0.000399453072461696,-0.0345617148287206,-0.0199785633600709,0.000761507436293438,-0.000243512002242127,-0.0380122155315915,0.0121953514182252,-1.35712245031386,-0.000204181619778225,0
0.33,0.000693964160290026,0.000399885028665368,-0.0346312212711526,-0.0200001567498576,0.000762978490662379,-0.000243635208260836,-0.0380847133924391,0.0122017360472262,-1.35712300859378,-0.000204140491346962,0
0.34,0.000694285708559096,0.000400019400816025,-0.034651610297163,-0.0200068819342854,0.000763321100986355,-0.000243698713430326,-0.0381060588543041,0.0122040034214679,-1.35712349790032,-0.000188860788718321,0
0.35,0.000694201775958681,0.000400061178755567,-0.0346525059141844,-0.0200089745065709,0.000763247846760729,-0.00024375761917649,-0.0381073733584097,0.0122058724661515,-1.35712386466395,-0.000171999866546989,0
0.36,0.000694009225901632,0.000400074153956418,-0.0346471567883783,-0.0200096256004876,0.000763062365269768,-0.000243811322562003,-0.0381022808558866,0.0122076526723729,-1.35712411754721,-0.000158130964836914,0
0.37,0.000693822612416317,0.000400078175124374,-0.0346409629772991,-0.0200098285521115,0.00076288080799439,-0.000243854949723969,-0.0380962689180591,0.0122091707008474,-1.35712428277194,-0.000148057872298711,0
0.38,0.000693676453065217,0.000400079416190628,-0.0346357843522676,-0.0200098916916859,0.000762738210319883,-0.000243887234833225,-0.0380912201818399,0.0122103344863432,-1.35712438660375,-0.000141246253112916,0
0.39,0.000693573018077745,0.000400079796217504,-0.0346319842240637,-0.0200099110375826,0.000762637192708513,-0.000243909587848837,-0.0380875098022966,0.0122111616190979,-1.35712444989331,-0.000136856103038619,0
0.4,0.000693504274838283,0.000400079910854325,-0.0346293952181524,-0.0200099171710661,0.000762570027902376,-0.000243924305539949,-0.0380849805146214,0.0122117180432908,-1.35712448750069,-0.000134125930341256,0
0.41,0.000693460560887018,0.000400079944450083,-0.0346277151848679,-0.0200099188545662,0.000762527309848359,-0.000243933624562797,-0.0380833387772841,0.012212076771183,-1.35712450935255,-0.000132475989160188,0
0.42,0.000693433552532416,0.000400079953736906,-0.0346266549988917,-0.0200099190262779,0.000762500914628654,-0.000243939370234321,-0.0380823025856198,0.0122123022247146,-1.35712452179069,-0.000131502827366385,0
0.43,0.00069341737080272,0.000400079955983549,-0.0346260046984863,-0.0200099191612464,0.000762485099672358,-0.000243942809052428,-0.038081667017608,0.0122124405169172,-1.35712452873225,-0.000130941166824036,0
0.44,0.000693407941161674,0.000400079956335443,-0.0346256138427375,-0.02000991927327,0.000762475883619816,-0.000243944811844038,-0.0380812850277191,0.0122125236518408,-1.35712453253031,-0.000130623502181765,0
0.45,0.000693402527849221,0.000400079956261757,-0.0346253783583077,-0.0200099193716405,0.000762470592899667,-0.000243945961215448,-0.0380810548944552,0.0122125737599004,-1.35712453456658,-0.000130447337696315,0
0.46,0.0006933994428432,0.000400079956144173,-0.0346252334109598,-0.0200099194620961,0.000762467577764661,-0.000243946616089002,-0.0380809132495101,0.0122126046249892,-1.35712453563434,-0.000130351568238114,0
0.47,0.000693397813028698,0.000400079956060136,-0.0346251467682685,-0.0200099195476046,0.000762465984862924,-0.000243946962024684,-0.0380808285886331,0.0122126231018928,-1.3571245361803,-0.00013030058351126,0
0.48,0.000693396881706126,0.000400079956010887,-0.0346250871342867,-0.0200099196307387,0.000762465074643059,-0.00024394715966989,-0.0380807703251106,0.0122126358388247,-1.35712453645146,-0.00013027405797352,0
0.49,0.000693396416044839,0.000400079955984965,-0.034625046556236,-0.0200099197122897,0.000762464619534202,-0.000243947258487001,-0.038080730685554,0.012212644528033,-1.35712453658149,-0.00013026061814226,0
0.5,0.000693396183214196,0.000400079955972033,-0.0346250153733108,-0.0200099197930492,0.000762464391981205,-0.000243947307891131,-0.0380807002281651,0.0122126512215366,-1.35712453664067,-0.000130254023941257,0
0.51,4.73233944516275,-0.0250015634069505,3.38355460827791,1.26532082451058,-1.25957276234899,4.56170342731359,0.338121227708987,3.5965473181249,0.264123111670228,81.584167506987,4773.63218082417
0.52,4.72456162377824,0.0280271729804067,3.77312510463175,-1.36828238506256,-4.40072515219082,1.71926908719329,-4.01286477267138,0.0747399272673359,1.20428354522766,175.744053728182,4773.63218082417
0.53,4.68561789328794,-0.0025707400316346,5.72117893680664,0.171119704580302,-1.27215303665152,-4.50961731213888,-1.72099669196659,-5.4588772441314,2.86609109549917,278.057297273158,4773.63218082417
0.54,4.69677554082966,0.0521657692810469,5.16428747260804,-2.53926630983145,4.06478140058129,2.35371491772238,3.14333217665242,4.82049803642766,-1.03481682998859,371.464954388957,4773.63218082417
0.55,4.69055193691854,0.0166471998802207,5.47666413279386,-0.752114528328098,-4.15942741780686,-2.16811396337708,-4.4974678065767,-3.21439101790045,2.0548504827286,469.573926406549,4773.63218082417
0.56,4.67643939723401,0.0770894992883027,6.18360721819861,-3.76335463790688,2.03587317626066,4.21073017861336,-0.815131915041693,7.19273218747185,-0.433874666752964,566.308313418673,4773.63218082417
0.57,4.6595806011877,0.0274567011773885,7.02798232713149,-1.26126640674117,3.7034689209883,-2.82785487616993,6.3703471966553,-3.22521396705897,-2.21703286756704,661.903667327943,4773.63218082417
0.58,4.617668613866,0.0655647273846194,9.12518296405518,-3.14023088317752,-0.784804836845904,-4.55096072593726,1.67891129645299,-9.50322424158176,2.98502177084088,756.825984932759,4773.63218082417
0.59,4.5880807440242,0.0991158410253505,10.6062985689354,-4.83295789219804,-2.43113536085598,-3.89228592485489,-1.26975160780649,-11.5861461312912,2.60487806055121,853.684259186337,4773.63218082417
0.6,4.57003404165544,0.0993255347831261,11.5104139819344,-4.79595021916897,-1.08050476156357,-4.44157473920995,2.20644302146616,-12.2728308769119,2.92468812767237,947.750573519219,4773.63218082417
0.61,4.591935366776,0.0869292294640318,10.4173173914917,-4.17454728953896,3.23466081357956,-3.26042888661542,10.3828929369261,-4.2594460869932,-2.34123319852854,1043.24501684968,4773.63218082417
0.62,4.52460563410708,0.126840897233735,13.7859261603545,-6.16521038761838,2.76673189248927,3.58236505572608,3.13444486585592,14.772841114872,-0.629607257736596,1138.06808162311,4773.63218082417
0.63,4.5448413159251,0.120745049135013,12.7763667056048,-5.83627299539492,-4.47521655225531,-0.801622582173525,-11.3306853456397,-8.30139736857409,1.77460271699104,1232.24192347082,4773.63218082417
0.64,4.48157614381041,0.131857448845901,15.9419485829134,-6.35927599916523,4.44681711376605,0.572475917663037,14.7476355751642,8.78028250092023,-1.41334857077677,1326.08079765196,4773.63218082417
0.65,4.50771720956142,0.0698871216420867,14.6373289916268,-3.29350628841303,-3.18723527394392,-3.18840555131797,-7.82142977313035,-12.8032737994985,2.37188068593155,1420.88536606066,4773.63218082417
0.66,4.46041356186345,0.14653186799292,17.0050114919898,-7.06149423351051,-2.2543961292707,3.85155278083037,-15.0412076316829,10.6206021313865,0.562396285097839,1513.93919171193,4773.63218082417
0.67,4.46647871472981,0.157135648242854,16.7043980989638,-7.59878517594612,2.50742524613802,3.69958678180589,2.44368476213528,18.1880965684195,-0.560475495016397,1607.75526592235,4773.63218082417
0.68,4.47151431466263,0.144220154290148,16.4553894351055,-6.94864105584373,3.83794607149358,2.29900188591555,10.0755093037596,14.7494937626277,-0.998856689350444,1701.18244700029,4773.63218082417
0.69,4.40394531248475,0.146380221144874,19.8367556221654,-7.03569549917846,3.12270172668729,3.10884149011221,8.45837087276147,19.2731379632246,-0.754396169828612,1794.01579284219,4773.63218082417
0.7,4.41530514166655,0.190110299156154,19.2718109872304,-9.18085398507744,-0.560932129173639,4.3836533355562,-12.3141723816251,17.4370851112928,0.170298888439347,1886.50299334779,4773.63218082417
0.71,4.36397875290389,0.11615644701566,21.8412312999494,-5.54281856873431,-4.29723728744961,-0.76912584882622,-20.2682117358796,-9.84691908229916,1.77451333947776,1979.6792664664,4773.63218082417
0.72,4.34057921123997,0.169488274010664,23.014389725021,-8.12521222806886,3.33779514248013,-2.78001398394177,23.1976611867263,-7.58615341475284,-2.2262449558126,2071.54893185206,4773.63218082417
0.73,4.37942502271867,0.154754964233798,21.0753766022165,-7.4063266201937,-3.87994119610023,-2.03699998610057,-14.6302440012906,-16.8813842262104,2.08957168828009,2164.02949695478,4773.63218082417
0.74,4.31219502976249,0.209696489728352,24.4402626603919,-10.164533010222,2.46546811343994,3.54407471339468,4.34991630489726,26.1098142154483,-0.55921628366642,2256.16770268968,4773.63218082417
0.75,4.3091689749102,0.223452674650485,24.5950027339615,-10.8296749818884,2.27659297898456,-3.66551398308277,22.9324616179326,-14.0106468030195,-2.53400535744452,2347.99117150574,4773.63218082417
0.76,4.30851220390963,0.225253058956275,24.6314167159157,-10.8676314695069,-2.93123023512356,-3.16573935448022,-7.41944306992231,-25.8797984482548,2.44687214803829,2439.36308286961,4773.63218082417
0.77,4.23123034777071,0.221419082067863,28.4991822985853,-10.7535134574703,-4.15899897882264,-0.809360339991925,-25.0487281942168,-17.3321279484154,1.81528068968487,2531.09752927399,4773.63218082417
0.78,4.24916484006383,0.181935411088377,27.6061993459603,-8.69023206380525,-4.13126441614432,-1.01052296151168,-24.0865123435712,-16.0456317661438,1.85348040718248,2622.11889337669,4773.63218082417
0.79,4.2353484858666,0.170957142466969,28.3008499123343,-8.18835986924134,-2.46954110982216,-3.44510810399199,-8.70495686030533,-28.1462443172956,2.56000594341626,2713.48984381813,4773.63218082417
0.8,4.21979036332741,0.239893814949677,29.0826905092781,-11.6444356758911,2.8336600862706,-3.13600865246875,28.8741333540372,-12.1523739459292,-2.35001013739034,2804.38690453478,4773.63218082417
0.81,4.19451344543162,0.195137661247789,30.3505647238287,-9.3952453667298,1.46998013809726,3.93334210873443,0.348210044107445,31.7695792279589,-0.311161975964036,2895.05320623247,4773.63218082417
0.82,4.16730033621769,0.254726189026366,31.7153163358598,-12.3367242289076,2.16837298073646,-3.56783353591897,28.2264247017504,-19.0085508006315,-2.53444053571983,2985.48520873413,4773.63218082417
0.83,4.18810574174734,0.260852653607799,30.6792364579242,-12.5550873259817,-2.91866936787451,3.01490346976189,-31.1281074349672,11.396784411464,0.831384817512627,3075.55738816943,4773.63218082417
0.84,4.1447272052865,0.199857817457596,32.8524555081587,-9.60117548749858,4.1296407519147,0.405923654849425,31.1038129522177,14.2835297980138,-1.42463347314749,3166.01689715332,4773.63218082417
0.85,4.07021022830713,0.313098107603654,36.582695398232,-15.1459179090006,0.179566560665446,-4.07828365588905,19.4431172338744,-34.4914137740949,-3.02081802339946,3255.64951111468,4773.63218082417
0.86,4.13204923526417,0.311423089395268,33.4952804475346,-15.0531517953413,-3.22688471590397,-2.59962117500244,-14.1328384469689,-33.8938647643561,2.32417613110892,3345.22981422278,4773.63218082417
0.87,4.08296905720148,0.324856350997851,35.9539054421642,-15.7219265024287,-3.78497947876825,-1.56527898987741,-24.8887520100896,-30.3382977912755,2.04232555385435,3434.69705890686,4773.63218082417
0.88,4.04529767821055,0.332512773813579,37.8422527973597,-16.0805918934317,-2.93614294534412,-2.80251006324524,-13.1232176327879,-38.9666869439123,2.41492522683047,3523.81574634602,4773.63218082417
0.89,3.97455173499268,0.176209582193349,41.3843675746002,-8.40095261404116,1.00095101966115,-3.8504815760148,20.2049130901895,-37.0810378952757,-2.84296152815493,3613.06721268714,4773.63218082417
0.9,4.04024990171628,0.301271212265109,38.1043487084741,-14.5388615016606,-0.470514630412907,4.02405263313311,-21.5022276943074,34.6550730549457,0.190826764653375,3701.61778245782,4773.63218082417
0.91,4.00911064123124,0.375601750898669,39.666186235119,-18.3479401354932,-2.64800113445618,-3.03350206870384,-8.29628126263694,-42.9094972572041,2.51735695499527,3790.30945357709,4773.63218082417
0.92,3.89437418390201,0.278143570902973,45.4079586938799,-13.3404346978939,2.96563755928193,2.53939126509748,22.9229065116576,41.4051961441034,-0.791371696992386,3878.44509389612,4773.63218082417
0.93,3.98830424308313,0.431485417266567,40.7164488198266,-20.9752904947503,-1.63579882324875,-3.66291040165694,7.45329662031511,-45.1911538392894,2.82935126127235,3966.40855076752,4773.63218082417
0.94,3.56901759845219,0.259410497640077,46.821455854896,-12.4224670066462,-2.4012991434705,2.65310061021349,-42.434941463359,23.3632651379144,0.808177457959215,4052.19900603614,4773.63218082417
0.95,3.22354653673945,0.410950257009006,41.8938794083433,-20.2043212174629,2.20159912704171,2.39020787214624,7.78546204960109,45.8551884568524,-0.617546260701293,4128.76139442848,4773.63218082417
0.96,2.87409988320841,0.172990771070332,39.7413868992476,-8.26519336474183,0.625656100530606,2.81050358288385,-1.87169763004263,40.5485881630169,-0.158924779984007,4196.26447913908,4773.63218082417
0.97,2.35451073885306,0.220925669143311,48,-10.6730782957204,1.49373990468384,1.83337668464937,17.8417769705929,45.8212351954659,-0.590112233673584,4256.23851149393,4773.63218082417
0.98,2.14488408930262,0.238837602366637,43.3581609897692,-11.663522596934,1.42037684344109,1.62483869336747,15.171267621958,42.258733091834,-0.607461406108016,4309.359469371,4773.63218082417
