t,iq,id,vq,vd,ia,ib,va,vb,theta_e,omega,r
0,0,0,0,0,0,0,0,0,0,0,0
0.01,0.00141921547871661,0.000812558439368534,-0.0706861518926669,-0.0407311498386873,-0.00162446150235216,-0.000188543416203291,0.0810633480729341,0.00918108031666744,2.20632849133744,-0.000863840105689681,0
0.02,0.0016148549965531,0.000925158507623969,-0.0804845489592223,-0.0463754574258574,-0.00184874498674113,-0.000214048821816541,0.0922992267912706,0.0104545878139961,2.206322115165,-0.00095286922121279,0
0.03,0.00164369002341853,0.000941680823531703,-0.0819229329930866,-0.0472036787372926,-0.00188175933514808,-0.000217856537831708,0.0939484825306326,0.0106412812534349,2.20631558776582,-0.000935920194474343,0
0.04,0.00163002221015283,0.000934140017087976,-0.0812512525946415,-0.0468257051570551,-0.00186628508774449,-0.000215800714501107,0.0931836387090174,0.0105461930857071,2.20630956641966,-0.000894898214629776,0
0.05,0.00164309494011607,0.000941685117698544,-0.0819067846922283,-0.0472039062315187,-0.00188128560819093,-0.000217477133381056,0.0939357503372197,0.0106303786723042,2.20630351627559,-0.000870579785519169,0
0.06,0.00164281776355005,0.000941692406548395,-0.0818994766788322,-0.0472042493439478,-0.00188106813673503,-0.000217295784005829,0.0939301346120755,0.0106252175577517,2.2062976922108,-0.000839061451454527,0
0.07,0.00168000352816898,0.000963009975976241,-0.0837512349148675,-0.0482728390403322,-0.00192364922494052,-0.000222201997911152,0.0960547370361438,0.0108638773785607,2.20629211821051,-0.000832508142019568,0
0.08,0.00164231536302767,0.000941717680797764,-0.0818866629745025,-0.0472055175720321,-0.001880681202527,-0.000216956577280827,0.0939206918417995,0.0106155596320175,2.20628671149157,-0.000779649668933052,0
0.09,0.00164198559657813,0.000941678679734839,-0.0818760181755274,-0.047203590705517,-0.00188039378373823,-0.000216782502328467,0.093911036237276,0.0106103063393245,2.20628154127179,-0.000751617282418171,0
0.1,0.00164172962281998,0.000941674376300221,-0.0818688124828213,-0.0472033533797757,-0.00188018630225708,-0.000216624685181325,0.0939051490447305,0.0106057536521595,2.20627657227866,-0.000724714144570922,0
0.11,0.00164148355983542,0.000941670293948834,-0.0818618838119274,-0.0472031581571058,-0.00187998688471285,-0.000216472938316362,0.0938995076944585,0.0106013497244722,2.20627179663837,-0.000698857921040956,0
0.12,0.00164124704289796,0.000941666370284837,-0.0818552224869242,-0.0472029629764263,-0.00187979520233847,-0.000216327081087846,0.0938940795178825,0.0105971219501947,2.2062672068268,-0.000674007809710632,0
0.13,0.00170932869327348,0.00098064632966272,-0.085239404372609,-0.0491569185178662,-0.00195772464663869,-0.000225357523664958,0.097777477364438,0.0110328426172094,2.20626256088718,-0.000691927860262381,0
0.14,0.00189066104477702,0.0010851787983204,-0.0943365905364662,-0.0543968176717376,-0.00216570665572259,-0.000248851144100863,0.108209058111478,0.0122149838102175,2.20625817822044,-0.000782665454073057,0
0.15,0.00164098605014655,0.000941888181648157,-0.081856939806244,-0.0472140674713368,-0.00187971967951222,-0.000215968724491603,0.0939021931844077,0.0105879590473881,2.20625394389968,-0.000602465732725531,0
0.16,0.00164036385483897,0.000941652078799631,-0.0818303648273135,-0.0472022421614992,-0.00187907963933348,-0.000215782118842578,0.093873827992716,0.0105813369116581,2.20625004847739,-0.000581109531018347,0
0.17,0.00164017031058882,0.0009416484994954,-0.081824896208077,-0.0472020687931635,-0.00187892255733043,-0.00021566308885348,0.0938693635323754,0.0105778791751403,2.20624630492738,-0.000560840787612941,0
0.18,0.00163998491542068,0.00094164542212687,-0.0818196702006436,-0.04720191290354,-0.0018787722994187,-0.00021554876653985,0.0938651031369948,0.0105745650774296,2.2062427070461,-0.000541361170730245,0
0.19,0.00163980697082719,0.000941642464951188,-0.081814658516171,-0.0472017570311979,-0.00187862807817499,-0.00021543903375509,0.0938610137382842,0.0105713913451136,2.20623924916501,-0.000522639541629297,0
0.2,0.00163963532815268,0.000941639622713014,-0.0818098099246549,-0.0472016402675271,-0.00187848896729358,-0.000215333202608767,0.0938570773679709,0.0105682955955978,2.20623592583651,-0.000504646404924594,0
0.21,0.00163947100413835,0.000941636890949506,-0.0818051811342582,-0.0472014815119816,-0.00187835578361791,-0.000215231870215865,0.0938532915872162,0.0105653762630447,2.20623273182484,-0.000487353413674923,0
0.22,0.00163931274921797,0.000941634265371366,-0.0818007153545331,-0.0472013647643832,-0.0018782275200957,-0.000215134288817946,0.0938496606022038,0.0105625315613662,2.20622966209798,-0.000470733323969458,0
0.23,0.00163916111446632,0.000941631741854682,-0.0817964456551435,-0.0472012089415469,-0.00187810461890203,-0.000215040779634017,0.0938461629558352,0.0105598459186311,2.20622671181982,-0.000454759952005537,0
0.24,0.00163901496673162,0.000941629316436486,-0.0817923205743461,-0.0472010922075863,-0.00187798616677045,-0.000214950664483146,0.0938428036742071,0.0105572254446845,2.20622387634255,-0.000439408132836988,0
0.25,0.00163887463975966,0.000941626985307121,-0.0817883618576354,-0.0472009754773183,-0.00187787243106294,-0.000214864136048093,0.0938395771092192,0.0105547140808656,2.20622115119883,-0.000424653680729105,0
0.26,0.00164793248840814,0.000946827296821394,-0.0822408086773047,-0.0474616482637784,-0.0018882494164979,-0.000216049895747455,0.0943584573155375,0.0106132087911028,2.20621853655532,-0.000416293004935772,0
0.27,0.00159029040807209,0.00091399811662113,-0.0793827081154766,-0.0458160503752133,-0.00182237369315899,-0.00020825528006544,0.0910815327022124,0.0102410556265869,2.2062159798609,-0.000366192401633831,0
0.28,0.001533453344439,0.000881098477959134,-0.0764832338360238,-0.0441668770725722,-0.00175710398931849,-0.000200995667003283,0.0877691846027527,0.00984724949046789,2.20621352049152,-0.000317122662212584,0
0.29,0.00163818831091394,0.000941520214314892,-0.081765187620322,-0.0471956181865815,-0.00187725880897198,-0.000214524171402011,0.0938178505499634,0.0105443444928918,2.2062112716284,-0.000371051892035192,0
0.3,0.00163722130248169,0.000941037380917392,-0.0817193650680143,-0.0471714228254745,-0.00187619438832813,-0.000214335164613121,0.0937666317920723,0.0105364377694285,2.20620931406597,-0.000359907205780392,0
0.31,0.00163815170078412,0.000941614071108104,-0.0817679186981105,-0.0472003457160685,-0.0018772859317167,-0.000214419178874567,0.0938228978179154,0.0105417744704671,2.206207156296,-0.000348881436716426,0
0.32,0.00163804643037618,0.00094161323596449,-0.0817649770614369,-0.0472003146063308,-0.0018772011561749,-0.00021435347785206,0.0938205337081666,0.0105398589890319,2.20620508176162,-0.000337650615129451,0
0.33,0.0016379441711922,0.00094161153152316,-0.0817620954142395,-0.0472001978814985,-0.00187711827066261,-0.000214290415521789,0.0938181662085911,0.0105380556003935,2.20620308795004,-0.000326855734175164,0
0.34,0.00163784541997657,0.000941609891896035,-0.0817593015249561,-0.0472001202066136,-0.00187703823007677,-0.000214229528975223,0.0938158916913735,0.0105362801557261,2.2062011717213,-0.000316480899802925,0
0.35,0.00163775051046094,0.000941608316027093,-0.0817566154677866,-0.0472000396173929,-0.00187696130306109,-0.00021417101143166,0.0938137014393335,0.010534578059067,2.20619933005673,-0.000306509769047652,0
0.36,0.0016376593262382,0.000941606801440106,-0.0817540346952301,-0.047199961934137,-0.00187688739510428,-0.000214114790315635,0.0938115968878194,0.0105329428409228,2.20619756005459,-0.000296926633075907,0
0.37,0.00163757175088895,0.000941605345754401,-0.0817515565451798,-0.0471998842464497,-0.00187681641171546,-0.000214060793183332,0.0938095741969928,0.0105313750012463,2.20619585892662,-0.000287716394308287,0
0.38,0.00163748721785124,0.000941603946679954,-0.0817491557108041,-0.0471998455951555,-0.0018767478961417,-0.000214008680564978,0.0938076361985145,0.0105298278467869,2.20619422399269,-0.000278864542640954,0
0.39,0.00163740639458843,0.000941602602016546,-0.0817468685059773,-0.0471997678971269,-0.00187668238484617,-0.000213958845508898,0.0938057658045482,0.0105283855314314,2.20619265267704,-0.000270357132582824,0
0.4,0.00163732871453781,0.000941601309649222,-0.0817446693613338,-0.0471996901947626,-0.00187661942113198,-0.000213910948792841,0.0938039656341923,0.0105270012242151,2.20619114250424,-0.00026218076128778,0
0.41,0.00163725372755463,0.000941600067544995,-0.0817425384586673,-0.0471996515232182,-0.0018765586420247,-0.000213864720406848,0.0938022429296657,0.0105256315223322,2.20618969109509,-0.000254322547438679,0
0.42,0.00163718210109852,0.000941598873750259,-0.081740511791581,-0.0471995738108244,-0.00187650058406634,-0.000213820553744982,0.0938005803493818,0.0105243604077501,2.20618829616306,-0.000246770110952708,0
0.43,0.00163711270204966,0.000941597726386585,-0.0817385351648002,-0.0471995351265653,-0.00187644433464752,-0.000213777773676216,0.0937989806318676,0.010523092676285,2.20618695551035,-0.000239511553479798,0
0.44,0.00163704666352677,0.000941596623649073,-0.0817366676143966,-0.0471994574041506,-0.00187639080514062,-0.000213737050169591,0.0937974449825423,0.0105219259976267,2.20618566702501,-0.000232535439654429,0
0.45,0.00163698273599692,0.000941595563802971,-0.0817348489756605,-0.0471994187066202,-0.00187633898928797,-0.000213697639208314,0.0937959713298937,0.010520761645368,2.20618442867711,-0.000225830779082686,0
0.46,0.00163692125318845,0.000941594545180656,-0.0817330981210025,-0.0471993800024223,-0.00187628915512581,-0.000213659736523502,0.0937945517191294,0.0105196420508512,2.20618323851549,-0.000219387009025903,0
0.47,0.0016368625488232,0.00094159356617884,-0.08173143384207,-0.0471992993557247,-0.00187624157070725,-0.000213623537933772,0.0937931764061816,0.0105186119422135,2.20618209466544,-0.000213193977762341,0
0.48,0.0016368059554571,0.000941592625257477,-0.0817298248379351,-0.0471992606392817,-0.00187619569832583,-0.000213588645163396,0.0937918699954962,0.0105175850689374,2.20618099532473,-0.000207241928590577,0
0.49,0.00163675145756642,0.000941591720936036,-0.0817282722782269,-0.0471992219168715,-0.00187615152498721,-0.000213555046929924,0.0937906085582156,0.0105165957144717,2.20617993876155,-0.00020152148446018,0
0.5,0.00163669905515116,0.000941590851790794,-0.0817267780282957,-0.0471991831887946,-0.00187610905021007,-0.000213522741244772,0.0937893936135752,0.0105156448291851,2.20617892331107,-0.000196023633199534,0
0.51,4.55203398551032,0.03783606882488,12.4002098499497,-1.89073091907151,-0.209277920882502,4.54737811548327,-2.56095617374658,12.2793147694516,0.0543009293660123,16.6502238087427,1337.24640554314
0.52,4.47310309572756,-0.0109203687819618,16.348916392161,0.560614014118813,-1.09533792846039,4.3369350216412,-3.42079082882585,15.9968604849864,0.244945634920715,35.3610690117042,1337.24640554314
0.53,4.51743415079672,0.0286213767357879,14.1347242146944,-1.41269660715353,-2.42798024795363,3.80958559498769,-8.85866730790329,11.1045105185783,0.573755599568817,54.5033142615387,1337.24640554314
0.54,4.50384704181201,0.0628118931212096,14.8164989422576,-3.12565427682023,-3.8706137696443,2.30367804959726,-14.3974981623661,4.69152451009159,1.04788031205007,75.1766036506151,1337.24640554314
0.55,4.41812168738203,0.0131351148820316,19.1051665416427,-0.630254899279526,-4.39586388068791,-0.443116822318684,-18.9379776382237,-2.59954088179232,1.67423309061985,95.2723704637386,1337.24640554314
0.56,4.46444780745742,-0.0455336128497474,16.7913171408997,2.32695591559527,-2.8431241201495,-3.44238475084274,-12.6031893519854,-11.3367840818019,2.44104841288249,113.96825373483,1337.24640554314
0.57,4.46508504358087,0.00392379952318878,16.7620882035547,-0.159959535748465,0.922341171255688,-4.36878548413846,3.63339179405024,-16.3643408687228,-2.93264853686095,134.391477362183,1337.24640554314
0.58,4.48497066622522,-0.0323315889540008,15.7703543692306,1.6800391105619,4.28502120697031,-1.32461332635592,14.5251848359441,-6.36754378279316,-1.87781357296554,153.251495196389,1337.24640554314
0.59,4.40011520469143,0.0273031816222498,20.0158024554128,-1.31917026555188,2.78947401712226,3.403027179745,11.5671832368661,16.3881917882477,-0.680435435243734,173.416629357107,1337.24640554314
0.6,4.41907659451761,0.000557244830118986,19.0705390760135,0.0429849979399783,-2.7071754077531,3.49276961312824,-11.6507532382594,15.0979222855661,0.659486063719679,192.545080126652,1337.24640554314
0.61,4.37360761683845,0.042519745758705,21.3467914802956,-2.05108168374111,-3.69882646227536,-2.3342952505667,-16.8293778057348,-13.291519297975,2.14348512590018,211.849137682309,1337.24640554314
0.62,4.39637482446364,-0.0347477166220227,20.2113432843207,1.82020978631705,2.61157753749406,-3.53680389145972,10.4041061637691,-17.423149427009,-2.51346024751944,231.497018127205,1337.24640554314
0.63,4.39747264737647,0.0969839722211263,20.1593789391378,-4.78411277611308,3.05250687639441,3.16691858829002,10.1499067165016,18.062881495283,-0.744953467769316,251.066397462082,1337.24640554314
0.64,4.39693915502026,0.0549538934673617,20.1890686964189,-2.67420052614325,-4.01971721546038,1.78268543806499,-19.6099159045261,5.49554742497589,1.16587079406917,270.494488861999,1337.24640554314
0.65,4.37593678823099,-0.0246579530216975,21.2421833253955,1.32374362096512,0.362736310598301,-4.36094636039176,0.321712013006583,-21.2809574733949,-3.06424017825997,289.864876230363,1337.24640554314
0.66,4.32772548981333,0.158498288070231,23.6558173633707,-7.84527592229044,3.40746882896539,2.67273002791724,13.0017632997121,21.2626480129894,-0.869048747806622,309.135928317879,1337.24640554314
0.67,4.32108522845304,0.0539277875926163,23.9910317248375,-2.58411575781617,-4.2926784829156,0.497591398783253,-24.1295691293544,-0.105598786256261,1.4678745572008,328.314868198433,1337.24640554314
0.68,4.31942941657433,0.0880692185567626,24.0770490947426,-4.28056551151225,3.05139805247166,-3.05846311035412,20.3173224938683,-13.610067629852,-2.33696456505074,347.646836136633,1337.24640554314
0.69,4.32653792810614,-0.0329524140958561,23.7248755407971,1.74796793785834,-1.24032436474048,4.14507078047732,-4.94953113126129,23.268589405436,0.283132879483582,367.20255723072,1337.24640554314
0.7,4.37274373377823,0.102024931402148,21.4178744246002,-4.9787369183469,-0.524915640181696,-4.34232200770705,2.8816628163839,-21.7992932358534,3.04462051860282,386.246185785937,1337.24640554314
0.71,4.26196300087122,0.0271074676788301,26.9602636388155,-1.25703841999027,1.43160921100076,4.01441882500779,7.70751215736385,25.8656184424007,-0.336197079038766,405.640347574847,1337.24640554314
0.72,4.37448517420053,0.0868191218548597,21.3376352841105,-4.20580277909074,-1.91877305379246,-3.93217091023011,-5.15943888514361,-21.1273199181721,2.70746110107751,424.711400166948,1337.24640554314
0.73,4.24669395514534,-0.00566823110246428,27.730693417437,0.394639856330443,1.61579133818771,3.92729678391504,10.9500026742601,25.4802774604553,-0.391651998982463,444.077323717537,1337.24640554314
0.74,4.23105067634847,0.0630265063616391,28.5164260707159,-2.98539462403246,-0.937479928759868,-4.12636565872505,-2.98210439562298,-28.5167703339879,2.93308728423533,462.995910377751,1337.24640554314
0.75,4.21948307020484,0.0117684427523701,29.0983695909405,-0.431024804319304,-0.473156872955031,4.19288664878571,-3.77177081511739,28.8561023035187,0.11516119382135,482.222850773048,1337.24640554314
0.76,4.19065841729653,0.012104812399418,30.543284429561,-0.467739910988329,2.28262417919988,-3.51445463101653,17.1021027724588,-25.3106516140863,-2.56268331479939,501.4435067536,1337.24640554314
0.77,4.24522822906591,0.16289235743087,27.8185401052962,-8.03228934560972,-3.86765026761208,1.75777644892849,-28.7889507488381,3.09599103721914,1.18257351436465,520.560139673391,1337.24640554314
0.78,4.22097444696451,0.0401756994831799,29.035043465234,-1.88085253308527,3.9714066962803,1.43044336535786,26.5680218185192,11.8621908570858,-1.2155586581491,539.607446859824,1337.24640554314
0.79,4.14588121143805,0.0794656340001181,31.8061689680969,-3.84830649531205,-1.4279888454813,-3.89300573638456,-6.74125486868989,-31.3208769050989,2.80918757962151,558.638256545986,1337.24640554314
0.8,4.09119282186983,0.0305915053778718,31.7961246044783,-1.3888371249204,-2.57954978127153,3.17564441836023,-21.3027102541903,23.6456538131024,0.689668371328882,577.460107488191,1337.24640554314
0.81,4.05339331625012,0.0712650753187363,30.9359725218312,-3.4039806494005,3.91696516305877,1.04520811256194,28.8099968259928,11.7730863846008,-1.2924511212077,596.033413811693,1337.24640554314
0.82,4.07973381617511,0.116142991292005,26.917171625179,-5.61433904115552,-0.106457510430762,-4.07999803967378,5.67822369879357,-26.9037675204579,-3.13921868432619,614.268808138121,1337.24640554314
0.83,3.95092540777514,0.147338065319963,30.6646951277759,-7.17378416668498,-3.89159608208491,0.697853865215876,-31.3661827765863,-2.81944756564175,1.43063369179442,632.400531604674,1337.24640554314
0.84,3.94552326586515,0.112884844138219,28.1885503031095,-5.50235915649058,0.70491048789971,3.88368356506659,-1.20092993159098,28.6954367762082,-0.150947882136102,650.320911622271,1337.24640554314
0.85,3.90200546594832,0.129444214650755,27.664622015323,-6.26572765824338,-2.51689906260121,-2.98456388265928,-12.202440068276,-25.60646618958,2.4741595725047,667.791934612273,1337.24640554314
0.86,3.75885781926364,0.108263188726315,32.1270795365775,-5.2836609451005,-3.38777915359968,1.63208009298196,-31.4880964780022,8.28046452346609,1.15064502216711,685.287413055154,1337.24640554314
0.87,3.73635989571554,0.175071041446099,30.5366265905658,-8.54793018148412,0.348389755571056,3.72419920494025,-7.120660996718,30.900628810576,-0.0464543051393913,702.283949699337,1337.24640554314
0.88,3.6468097851795,0.126652283985622,32.3038310462441,-6.18454501917296,3.33611072997564,1.47838682612539,26.3613696227256,19.6688659808466,-1.11894045320118,719.265683799567,1337.24640554314
0.89,3.54226495135161,0.110159329245568,34.8816755961029,-5.38361886321831,3.05961720527887,-1.78844027592631,33.2179708694126,-11.9281622966413,-2.06867516573264,735.888782453679,1337.24640554314
0.9,3.45280580111935,0.133054115317755,36.662880777312,-6.44184258953868,0.705939601880519,-3.38248733572547,15.1173519577574,-34.0166111278751,-2.89732575607104,752.193058529211,1337.24640554314
0.91,3.54405763417975,0.158239360093738,29.4238941833012,-7.72635103140745,-1.73116086298601,-3.09652487087318,-6.29304536784466,-29.7633941137244,2.67643543340605,768.354170696849,1337.24640554314
0.92,3.38050687239057,0.0953026165518029,34.9597925133726,-4.60766975174625,-2.99138826375395,-1.57749978081666,-28.1882730941178,-21.1858200948336,2.08426582101306,784.2731576687,1337.24640554314
0.93,3.44228407662779,0.0559182972523722,29.244179074286,-2.64351330311607,-3.4420090793828,-0.0708520826735496,-29.1270282791525,-3.71838620077435,1.60762103807595,799.952145879093,1337.24640554314
0.94,3.24208839837841,0.103640504955766,36.6307197819212,-5.05126383958049,-3.03832664125782,1.13597964690849,-36.3202590313331,6.94000590889913,1.24496134702783,815.37467071858,1337.24640554314
0.95,3.32250096914124,0.035645759350603,29.991758693286,-1.6320594920488,-2.76635457649043,1.84053407119636,-26.0362700361949,14.9760425448189,0.994449017275154,830.561592792595,1337.24640554314
0.96,3.23425308462211,0.0821830545377054,31.7920139198221,-3.95413636576255,-2.38520471170142,2.18585121934639,-26.5731493514381,17.8951132162771,0.854387420608237,845.492056903008,1337.24640554314
0.97,3.20450841592067,0.0798376546520057,30.6754947791331,-3.80753175517616,-2.29546613533434,2.23742786706968,-25.0821495116205,18.0656871966724,0.823110276857982,860.204004743581,1337.24640554314
0.98,3.11169564131822,0.022764564670666,32.7409231937991,-0.912180536127401,-2.42140111717977,1.95447809384603,-26.1945195915914,19.6633483486022,0.899015436990831,874.660315271064,1337.24640554314
