t,iq,id,vq,vd,ia,ib,va,vb,theta_e,omega,r
0,0,0,0,0,0,0,0,0,0,0,0
0.01,0.000971029547009115,0.000556417182127818,-0.0480181298310178,-0.027870179228182,0.00053613669514217,0.000982372590137683,-0.0268672176272982,-0.0485864209388474,0.0207635263396752,-0.00140970894424942,0
0.02,0.00107923242234347,0.000618675935782585,-0.0534545137391422,-0.0309886265184235,0.000596146960659674,0.00109183851198336,-0.0298726892223105,-0.0540860652221414,0.0207530451256303,-0.00153117934605364,0
0.03,0.0011104561401247,0.000636548239554601,-0.0549993175245724,-0.031883821820822,0.000613379649336957,0.00112341973731993,-0.0307362377248613,-0.0556487799739714,0.0207422084422389,-0.001536985860312,0
0.04,0.00109307355603445,0.000626754125354233,-0.0541546446921138,-0.0313932610005568,0.000603959446364204,0.00110583159644577,-0.0302638603309363,-0.0547938056339195,0.020732010653714,-0.00147299236601624,0
0.05,0.00111030357974102,0.000636629911445758,-0.0550111791389255,-0.0318879142458888,0.00061348748889961,0.00112325633062841,-0.0307412239993702,-0.0556600938934589,0.0207217136555646,-0.00146003490237681,0
0.06,0.00111034321462089,0.000636733223428694,-0.0550226175349541,-0.0318931021683211,0.000613601254663863,0.00112329192659232,-0.0307467337011688,-0.0556713281054639,0.0207116564534989,-0.00142244386671102,0
0.07,0.0011412406990152,0.000654496045103647,-0.0565502913833282,-0.0327828006000064,0.000630731588165634,0.00115454452916944,-0.0316051586551499,-0.0572167931389195,0.020701943641334,-0.00143197281513192,0
0.08,0.00111039647964284,0.000636919866620243,-0.0550434177959937,-0.031902441679838,0.000613808440394622,0.00112333719648157,-0.0307567155451007,-0.0556917235922676,0.0206923518458925,-0.00135025372130493,0
0.09,0.00110991992463562,0.000636729722248143,-0.0550287306930573,-0.0318929187318056,0.00061363859356198,0.00112285112761604,-0.030748014034741,-0.0556765579022442,0.0206830928561866,-0.00131488374383413,0
0.1,0.00110978074438628,0.0006367256063055,-0.0550303850956252,-0.0318927141592673,0.000613647468202613,0.00112270636548663,-0.0307482767324688,-0.0556779308002826,0.0206740867566655,-0.00128096179047978,0
0.11,0.00110964913116623,0.00063672353680534,-0.0550321792301252,-0.0318926085535393,0.000613657954646831,0.00112256936147328,-0.0307486218617376,-0.0556794529855474,0.0206653258821844,-0.00124796878944,0
0.12,0.00110952112681712,0.000636721544244209,-0.0550339248273231,-0.0318925029686038,0.000613668173372353,0.00112243611343724,-0.03074895476122,-0.0556809339773885,0.0206568035480521,-0.00121587417548668,0
0.13,0.00116167301193543,0.000666641720972409,-0.0576051876455063,-0.0333911586903746,0.000642514889038256,0.00117518934141029,-0.0321946831874985,-0.0582823257670486,0.020648177837963,-0.00126104145659381,0
0.14,0.00124608424191324,0.000715424283241989,-0.0618804965867895,-0.0358346286775974,0.000689554715267592,0.00126058404624564,-0.0345498815826136,-0.0626068858266911,0.0206398666401809,-0.00135529998096491,0
0.15,0.00111064767282206,0.000637557568541211,-0.0551129438903994,-0.0319343830486778,0.000614508935287813,0.00112356427266119,-0.0307905925091603,-0.0557600288549139,0.0206317182268938,-0.00112363765385143,0
0.16,0.00110904587066066,0.000636722904996134,-0.0550413919070838,-0.0318925847864416,0.000613716033828374,0.00112194092126018,-0.0307507031036151,-0.055687395755798,0.0206241074490172,-0.00109276694677694,0
0.17,0.00110891856450689,0.000636712265629621,-0.0550421087527535,-0.0318920340442462,0.000613716323608125,0.00112180888124856,-0.0307505497909353,-0.0556878735362063,0.020616707367536,-0.00106487439027805,0
0.18,0.00110881016299323,0.000636710486996027,-0.0550435635425469,-0.0318919491773542,0.000613724854683431,0.00112169604820183,-0.0307508358331267,-0.0556891049071309,0.020609508812227,-0.00103776478301371,0
0.19,0.00110870478827953,0.000636708848403557,-0.0550449813743728,-0.0318918701410355,0.000613733241989755,0.00112158636442589,-0.0307511175699357,-0.0556903054740923,0.0206025062588282,-0.00101139357038017,0
0.2,0.00110860232394662,0.000636707255342049,-0.055046361649659,-0.0318917911144633,0.000613741399548525,0.00112147970830741,-0.0307513894898685,-0.0556914743546623,0.0205956943698794,-0.000985740392086924,0
0.21,0.0011085027699945,0.000636705705605233,-0.055047709317303,-0.0318917120970324,0.000613749331095608,0.0011213760766199,-0.0307516517781043,-0.0556926163371816,0.0205890679542753,-0.000960785694799575,0
0.22,0.00110840589359252,0.000636704198006165,-0.0550490176625492,-0.0318916330884085,0.000613757046014511,0.00112127523346271,-0.0307519048524916,-0.0556937245531364,0.020582621961742,-0.00093651046035444,0
0.23,0.0011083113905856,0.000636702731401065,-0.0550502761543098,-0.0318915805122499,0.000613764555033794,0.00112117687171094,-0.0307521756200111,-0.0556947888663839,0.0205763514797894,-0.000912896188441501,0
0.24,0.00110821986928466,0.000636701304676227,-0.0550515198168112,-0.0318915015175924,0.000613771849981665,0.00112108159659491,-0.0307524107851469,-0.0556958430593248,0.0205702517295833,-0.00088992488247447,0
0.25,0.00110813079270322,0.000636699916748574,-0.0550527262049894,-0.0318914225304774,0.000613778946131271,0.00112098886837055,-0.03075263748796,-0.055696865092688,0.0205643180628667,-0.000867579035876153,0
0.26,0.00111785978395821,0.000642294729992921,-0.055536294766434,-0.032171675192429,0.00061917902364222,0.00113082728718812,-0.0310232104525177,-0.056185915800049,0.0205585672440522,-0.000860500533094188,0
0.27,0.00107635252882733,0.000618548120568444,-0.0535016829550229,-0.0309822272003449,0.00059629692228775,0.00108883723496301,-0.0298761487912635,-0.0541271116420954,0.0205528544133597,-0.000777464702531663,0
0.28,0.00106109938049654,0.000609685971101722,-0.0526486648134553,-0.0305383459685821,0.000587756019326238,0.00107340194726587,-0.0294501848611428,-0.0532649893718275,0.0205473568249663,-0.000734229286630044,0
0.29,0.00110728352255174,0.000636405818724198,-0.055031932216657,-0.0318766880366568,0.000613527157304003,0.00112012213292617,-0.0307395675929913,-0.0556750912696242,0.0205421556956517,-0.000783353203043795,0
0.3,0.00110482839882667,0.000635065269985961,-0.0549157208653772,-0.0318095455223059,0.000612242596422741,0.00111763710171137,-0.0306750885287482,-0.0555573805020821,0.020537435889275,-0.000762037599541436,0
0.31,0.00110761909723978,0.000636675032810841,-0.0550576086602049,-0.0318901842787608,0.00061380034972575,0.00112045718019543,-0.0307530768373868,-0.0557007395798958,0.0205324024910741,-0.000747339528245926,0
0.32,0.00110757686557718,0.000636691117211361,-0.0550601408942005,-0.0318909930899358,0.000613822791224393,0.00112041227807942,-0.030754106603877,-0.0557031370979132,0.0205274994526207,-0.000728921760662018,0
0.33,0.00110750541280099,0.000636690185604328,-0.0550611105175066,-0.0318909492777199,0.000613828670042282,0.00112033789352252,-0.0307543085850076,-0.0557039589321379,0.0205227298399154,-0.00071096018693413,0
0.34,0.00110743570624457,0.000636689102005062,-0.0550620430641629,-0.0318908967368226,0.000613834214894011,0.00112026533138488,-0.0307544953743851,-0.0557047475117277,0.0205180900928418,-0.000693487170633711,0
0.35,0.0011073678623323,0.000636688045984529,-0.0550629474641144,-0.0318908441976966,0.000613839606937603,0.00112019470958432,-0.0307546757135734,-0.05570551183528,0.0205135766759192,-0.000676489901628095,0
0.36,0.00110730188106418,0.000636687018669842,-0.0550638270095345,-0.0318907916597303,0.000613844851204109,0.00112012602603509,-0.0307548497253524,-0.0557062550885559,0.0205091861500838,-0.000659955431750654,0
0.37,0.00110723764602489,0.000636686019300843,-0.0550646790579394,-0.0318907391230766,0.000613849953118998,0.00112005916227836,-0.0307550176498979,-0.0557069745267544,0.020504915168466,-0.000643871160034733,0
0.38,0.00110717527362974,0.000636685047118709,-0.0550655126082986,-0.0318906865874375,0.000613854913228036,0.00111999423269383,-0.0307551794831038,-0.0557076790469225,0.0205007604770255,-0.000628224828552339,0
0.39,0.00110711453104809,0.000636684101384052,-0.0550663190159701,-0.0318906340529593,0.000613859739156742,0.00111993100254233,-0.0307553355782493,-0.0557083599088829,0.0204967189086462,-0.000613004513130488,0
0.4,0.00110705553469526,0.000636683181377751,-0.0550671071214432,-0.0318905815190108,0.000613864431290418,0.00111986958631137,-0.0307554859245418,-0.0557090258565924,0.0204927873838983,-0.000598198614267881,0
0.41,0.00110699786401064,0.000636682286401144,-0.0550678586662099,-0.0318905553787189,0.000613869000943438,0.00111980956167636,-0.0307556574501512,-0.0557096590839844,0.0204889629060537,-0.000583795848291592,0
0.42,0.00110694212728533,0.000636681415773109,-0.0550686069253069,-0.0318905028447181,0.000613873438272815,0.00111975153499914,-0.0307557968589446,-0.0557102916879302,0.020485242560515,-0.000569785238756705,0
0.43,0.00110688778754287,0.0006366805688324,-0.0550693278197366,-0.0318904503118012,0.000613877756828809,0.00111969496766357,-0.0307559311910182,-0.0557109000481991,0.0204816235123385,-0.000556156108086243,0
0.44,0.00110683465705455,0.000636679744934537,-0.0550700145058201,-0.0318904241682166,0.00061388196293223,0.00111963967027497,-0.0307560871224318,-0.055711477778079,0.020478103002838,-0.000542898069428502,0
0.45,0.00110678334410895,0.000636678943453554,-0.0550707000769858,-0.0318903716347952,0.00061388604653568,0.0011195862493363,-0.0307562113564539,-0.0557120568007663,0.0204746783498065,-0.00053000101874585,0
0.46,0.00110673312400292,0.000636678163779154,-0.0550713507495457,-0.0318903454883017,0.000613890024820743,0.00111953397868222,-0.030756357495622,-0.0557126043399896,0.0204713469422464,-0.000517455127109814,0
0.47,0.00110668460502355,0.00063667740531917,-0.0550719993901481,-0.0318902929544473,0.000613893887612602,0.00111948346490333,-0.0307564722449365,-0.0557131520971071,0.0204681062421154,-0.000505250833212585,0
0.48,0.00110663706246917,0.000636676667496431,-0.0550726121247912,-0.0318902668052175,0.000613897651959383,0.00111943398192279,-0.0307566091959496,-0.0557136672094315,0.0204649537794693,-0.000493378836080548,0
0.49,0.00110659080048308,0.000636675949750038,-0.0550732064536304,-0.0318902406540806,0.000613901313789316,0.0011193858323347,-0.0307567417429875,-0.0557141665594537,0.0204618871515732,-0.000481830087987208,0
0.5,0.00110654623962264,0.00063667525153379,-0.055073805697259,-0.0318901881184587,0.000613904866592974,0.00111933943516347,-0.0307568431618267,-0.0557146728513138,0.0204589040213139,-0.000470595787552822,0
0.51,4.59143833765027,-0.00387250556561353,10.429764069799,0.198039492019072,-0.417607750675759,4.57240907742511,-0.74262973547235,10.4051765611191,0.0902360003263313,27.7454953631837,1022.39196221405
0.52,4.60055870898802,0.0267691793232068,9.97549784928,-1.33204661758436,-1.80198122063736,4.23305099240222,-5.18311203139969,8.62671752188326,0.40827630153055,59.0606129799693,1022.39196221405
0.53,4.60840114595156,0.0121603925934126,9.58513112506162,-0.594872848873043,-3.76052858922082,2.6638193870472,-8.17875919784944,5.03353855399405,0.957118359907342,90.769886962589,1022.39196221405
0.54,4.51852193754885,0.0260683574472542,14.0809445653227,-1.2859884194969,-4.45678935317474,-0.744814554636589,-13.6554290660304,-3.66824523299392,1.74215432008044,123.713177717722,1022.39196221405
0.55,4.6159877080299,-0.0148394327374661,9.20947966306581,0.763056953374849,-1.62852025807163,-4.31919952057061,-3.98989597865316,-8.33531653016511,2.77781803224046,159.167547486828,1022.39196221405
0.56,4.54431494580295,-0.0439709032452997,12.7951402116333,2.22711643467621,3.66359901415797,-2.68900986060688,8.90604442704202,-9.45293781384994,-2.21364153332974,192.618229104789,1022.39196221405
0.57,4.63757976415333,0.00713656649744632,8.13386497317805,-0.323316141204851,2.94548501521706,3.58208249829587,4.90636877817797,6.49552447009299,-0.686642284111217,223.933367064776,1022.39196221405
0.58,4.62317054648367,0.055923310214826,8.8563168486967,-2.76362977213836,-4.03942667883638,2.24941446265565,-9.10430887737934,1.78425264669283,1.0747936521626,257.43170516132,1022.39196221405
0.59,4.61180898704195,0.00251835122143662,9.42643134484769,-0.0872557835357704,-0.249843034431073,-4.60503712614785,-0.418403148743871,-9.41754534239197,3.08793756534752,290.95861618026,1022.39196221405
0.6,4.49402720630084,-0.0150628183244477,15.3176147202134,0.805047965699569,3.64022596130367,2.63538656938954,12.9073583991633,8.28719024154287,-0.947520341548993,322.732294256773,1022.39196221405
0.61,4.56774321900245,0.100027624534251,11.6339912992335,-4.96448778408041,-4.56372431451733,0.216111132281826,-11.7564330501444,-4.66713771453102,1.5453727561302,356.740435794742,1022.39196221405
0.62,4.39170270266567,0.0371901367459671,13.4938353733697,-1.8035381400952,3.96242564522865,-1.89410103767102,12.9872709728871,-4.08254033454473,-2.00823412636869,388.342750806947,1022.39196221405
0.63,4.21478314358658,0.0850301611561033,12.6126779835189,-4.20521460301473,-3.39886640931289,2.49385929984278,-12.7362162065467,3.81474409540762,0.957959392740997,419.796637461189,1022.39196221405
0.64,4.0518128810042,-0.0556725611325442,11.5841086076383,2.83511036801756,3.44497404669201,-2.13364497383072,8.2377268038099,-8.62376252793363,-2.13906175886605,450.105476843367,1022.39196221405
0.65,3.82878311371047,0.050971989900066,14.2889270606591,-2.48906774748854,-3.63273617528516,1.21053961371091,-14.3704054813406,1.96477507574764,1.26245010431964,477.763055517422,1022.39196221405
0.66,3.70090034443404,0.10086044785966,12.1713163290153,-4.99319935128368,3.67131391228815,0.477797390965982,11.243210870186,6.83104605980272,-1.41413407271691,505.304171758249,1022.39196221405
0.67,3.55423696894032,-0.0606767862808133,11.3823537848301,3.0898427401931,-2.3900989821805,-2.63129416051402,-10.0471796382915,-6.17732038654787,2.38712109901647,531.821303880273,1022.39196221405
0.68,3.37548081060243,0.0470723130107118,12.673685835931,-2.31277493058071,-0.264887338223157,3.36540060073782,-3.4734274814237,12.4059075475634,0.0924915326310388,556.912649569892,1022.39196221405
0.69,3.24226173948359,0.0653250423880944,12.0941114498248,-3.21616185293561,2.88904425429218,-1.47307564137878,12.2857577561723,-2.38146702301642,-2.02217408006432,580.587349060077,1022.39196221405
0.7,3.16800539935778,0.00953707494393652,8.75555936710305,-0.409568916184887,-2.32898542777381,-2.1475977377935,-6.14024412435409,-6.2549954933082,2.31870784228521,603.327219491709,1022.39196221405
0.71,2.99696129845159,-0.040411295755174,10.5092295843287,2.0905312760134,-1.57769612678735,2.5483887122575,-3.6187699652214,10.0855704554047,0.540858878716001,625.239642962022,1022.39196221405
0.72,2.79211408667179,-0.0259588146627747,14.2190759592443,1.36310190398903,2.44967981248601,1.34001632428423,13.1805799621246,5.50567705168561,-1.07954318919723,646.299126028748,1022.39196221405
0.73,2.66785370934041,0.0102972699826167,14.1887445843733,-0.45461848791047,1.48078456258774,-2.21919501788651,8.29804395598972,-11.5182297838945,-2.54931825285982,666.437193132657,1022.39196221405
0.74,2.53711080796635,0.0604571195150869,14.7340426369911,-2.96812265152725,-1.74281974722879,-1.84476709745949,-7.65488654887745,-12.934623165249,2.40842814884787,685.711247236416,1022.39196221405
0.75,2.459794016404,0.0362162775262114,12.8908608207625,-1.75295555229031,-2.29824603362037,0.877475578488101,-12.7104111111721,2.7735528214852,1.22079762317422,704.112734361996,1022.39196221405
0.76,2.35369396342956,0.00891139138629649,12.7195776243439,-0.384651965538151,-0.378155854970696,2.32313426984593,-2.47050991665042,12.4832765261383,0.165149148016972,721.707093408668,1022.39196221405
0.77,2.27732894009841,0.0647602007660096,11.2840996885821,-3.18184278572521,1.62293704222959,1.59890473198751,5.51341336328504,10.3468498771597,-0.764427959306609,738.59400574445,1022.39196221405
0.78,2.15560959311108,-0.043363088029565,12.2954769548107,2.21850268546912,2.15570399826032,0.0383842050906571,12.2903201287605,-2.24689537902865,-1.57310600834323,754.838705074864,1022.39196221405
0.79,2.11768225538236,-0.0220427968835792,9.28603130964777,1.13475606320497,1.64043601995774,-1.33941542625168,6.4046058355441,-6.81902286974121,-2.26592591724936,770.429342332176,1022.39196221405
0.8,1.99804049320442,0.0385222132044397,10.5909587577771,-1.89770550826612,0.541558685516934,-1.92363301165682,4.88251746298467,-9.58805073144113,-2.84788896510271,785.185012861055,1022.39196221405
0.81,1.84709219427236,0.0664936597329635,13.6803536135348,-3.29266708459854,-0.400327678947189,-1.80441368050548,0.757399571065647,-14.05062551672,2.95925223072668,799.227012442101,1022.39196221405
0.82,1.83350990718402,-0.00615777233584969,10.1331503840881,0.358529817280139,-0.964637265038873,-1.55925348959059,-5.66434837650033,-8.40978226864773,2.58421185619694,812.602039175502,1022.39196221405
0.83,1.79638728925336,0.0750676275925566,7.93169599518089,-3.70370316501326,-1.38309385868082,-1.14877927374357,-3.40129712131044,-8.06600250353687,2.30567521956004,825.501884967956,1022.39196221405
0.84,1.63630293470492,0.0304444784844364,11.966751774212,-1.50465551077349,-1.41154093796115,-0.828230849977162,-9.42129959295019,-7.53035525135326,2.12002456104528,838.028463090542,1022.39196221405
0.85,1.59466312506392,-0.0158829934517714,10.2448195180379,0.822948739859725,-1.42751653150151,-0.710914414124171,-9.57507624538391,-3.73516886909973,2.02288916844739,849.799384859183,1022.39196221405
0.86,1.50441385352327,0.0239730410174553,11.1790584805352,-1.1584464286634,-1.37172936275662,-0.618218654457862,-9.624573269632,-5.80352789403085,2.01015403071047,860.973705310335,1022.39196221405
0.87,1.46908630663798,-0.0330951762040447,9.53259664170949,1.7079213694544,-1.26803661704733,-0.742558418487303,-9.16199164754952,-3.1377226117047,2.07803413480614,871.719783486663,1022.39196221405
0.88,1.40387640535258,0.0718180694305744,9.43917498203131,-3.58103737523737,-1.15921206488232,-0.79514412859159,-5.32715835440327,-8.57573535572106,2.22313260914411,882.085364290047,1022.39196221405
0.89,1.30054747203268,0.0345525763551029,11.445132028744,-1.69874399249181,-0.864332639808136,-0.972392253828499,-6.07459114620835,-9.8476454400946,2.4415209901875,891.801568986668,1022.39196221405
0.9,1.24530997288254,0.0204753131179293,11.1923511277948,-0.979950696604297,-0.516767920969661,-1.13321096132392,-3.57765417012791,-10.6503247731978,2.73018347117097,901.162661673868,1022.39196221405
0.91,1.15627415672116,0.00872082269337704,12.6785670901813,-0.427394990966132,-0.072349713651935,-1.15404137585451,-0.271089789528977,-12.6828719249445,3.08652414932282,910.280861946332,1022.39196221405
0.92,1.09411153324585,0.0378120182490763,12.9807781827177,-1.86491096795883,0.355919587992198,-1.03529273289689,6.38326519833977,-11.4556719818174,-2.77591818548946,918.804067446894,1022.39196221405
0.93,1.06745985658988,-0.00165556770240205,11.6602160419538,0.123912640423285,0.801487548525988,-0.705046804044317,8.66096007889058,-7.80792949502985,-2.29381769322085,926.955024244775,1022.39196221405
0.94,1.03166693943899,0.0429097058736578,10.8426663469096,-2.13863183910555,1.00680722930385,-0.229166140193279,11.0507037767831,0.138223338960779,-1.75303134662253,934.830384183416,1022.39196221405
0.95,0.99754813699861,0.0630875262068563,10.1117545616424,-3.12435373855505,0.938527845791393,0.343871784632683,7.99813577344392,6.93101657392878,-1.15643266816038,942.181986388573,1022.39196221405
0.96,0.94457930374441,-0.077423610720552,10.3913589608448,3.87995400166427,0.390565157347121,0.863529579357708,8.43415392576942,7.20412601670656,-0.506539458277575,949.394267289484,1022.39196221405
0.97,0.87392791713273,0.0124371254172265,11.6609105902817,-0.602038484351808,-0.138576396135855,0.862960757431411,-2.6055035641934,11.3820313348787,0.173453504780456,956.097269433843,1022.39196221405
0.98,0.810409769957077,-0.0492559320352816,12.6934587696311,2.50090630288239,-0.675792564538521,0.449993946400388,-8.60933277512259,9.65700870038551,0.922637044033945,962.564314145263,1022.39196221405
