t,iq,id,vq,vd,ia,ib,va,vb,theta_e,omega,r
0,0,0,0,0,0,0,0,0,0,0,0
0.01,0.000479894092189656,0.000268711523524343,-0.0232972650940536,-0.013447257866774,0.000185884326437475,0.000517640067786675,-0.00942076452642015,-0.0251960413703397,0.16568382047613,-0.00308584087355525,0
0.02,0.000548985227133562,0.000306444589306962,-0.0267588521316927,-0.0153355467507687,0.000211719440007634,0.000592003331620064,-0.0107129581494236,-0.0289214053814732,0.165660588796819,-0.00325764268536205,0
0.03,0.000574755278435485,0.000321235702670525,-0.0280563581429696,-0.0160757531018551,0.000222072746666271,0.00061985458129127,-0.0112297651331132,-0.0303229524468429,0.165637565297131,-0.00313434334057501,0
0.04,0.000560379253025545,0.000314099299772953,-0.0274177996345633,-0.0157186230713206,0.000217416785776175,0.000604494184092853,-0.010983418772319,-0.0296340236912098,0.165616998129124,-0.00276710752924186,0
0.05,0.000573049673417044,0.000321936609223322,-0.0280757517267887,-0.0161108321700482,0.000223069846048417,0.0006182790246689,-0.0112623721255107,-0.0303474170621201,0.165597836552999,-0.00260415108375376,0
0.06,0.000573068384678644,0.000322657452753384,-0.0281215684063182,-0.0161468971545746,0.000223788631716225,0.000618412365376107,-0.0112909264161909,-0.0303983532122351,0.165580230732789,-0.00237451956974601,0
0.07,0.000584588355189861,0.000329967241694141,-0.0287153707914904,-0.0165127067013147,0.00022910958028687,0.000630976010507215,-0.0115543471241458,-0.0310441470301757,0.165564522411871,-0.00224871971070275,0
0.08,0.000572048770502761,0.000323394342523102,-0.0281501130267397,-0.0161837709053952,0.000224702282576652,0.000617521320129526,-0.0113235165875463,-0.030432240736234,0.165549815654069,-0.00197058729791165,0
0.09,0.00056983024876892,0.000322785891111474,-0.0280768858253657,-0.0161533321950407,0.000224475810298829,0.000615229920032634,-0.0113059591525415,-0.0303548504574643,0.165536715214733,-0.00178437331650909,0
0.1,0.000568751805186273,0.000322728075663754,-0.0280552328681881,-0.0161504373531171,0.000224603761712744,0.000614154033568745,-0.0113070308949146,-0.0303328826577144,0.165524879894824,-0.00162250624684909,0
0.11,0.000567870359198,0.000322721235287111,-0.028040175948979,-0.0161500993561822,0.000224748818694368,0.000613281101173345,-0.0113095031373654,-0.0303178547270446,0.165514170379713,-0.00147668528261176,0
0.12,0.00056708227851979,0.000322719241251535,-0.0280270114050296,-0.0161499956227366,0.000224882632393517,0.000612501282392882,-0.0113118635358822,-0.0303047433623459,0.16550447783252,-0.00134477742542362,0
0.13,0.000592119499932637,0.000337184942362477,-0.029254347413755,-0.0168739025377795,0.000235031758606296,0.000639577407358089,-0.0118239704938511,-0.0316344614498128,0.165495136971943,-0.00139500049766117,0
0.14,0.000610240423675205,0.000348127930637115,-0.0302323398336155,-0.0174215284236503,0.000242845632617048,0.000659251415998327,-0.0122032793371756,-0.0326892030776239,0.16548655925398,-0.00140763535935195,0
0.15,0.000569526952915322,0.000325060406060127,-0.028210354033751,-0.0162671572241567,0.000226804930440144,0.000615292403019107,-0.0113980059850614,-0.0305045888093826,0.165478662027886,-0.0010246822500036,0
0.16,0.000564928275810279,0.000322930587529917,-0.0280056245500469,-0.016160571646782,0.000225465630640841,0.000610404268147037,-0.0113267943538873,-0.0302850262019651,0.165472256544247,-0.000909474878432399,0
0.17,0.000564048509143495,0.000322733218412889,-0.0279779170520405,-0.0161506993742067,0.00022541935847222,0.000609502718418969,-0.0113217939778825,-0.0302560062461859,0.16546653470975,-0.000828756290188505,0
0.18,0.000563586510180846,0.000322714273641062,-0.0279688856392538,-0.0161497512318853,0.000225479918782089,0.000609042743241823,-0.0113225027768487,-0.0302468834695691,0.165461363784805,-0.000758098089515376,0
0.19,0.000563202394137552,0.000322711864882854,-0.0279623429660338,-0.0161496279154221,0.000225543657749616,0.000608662421172331,-0.011323600272814,-0.030240356856661,0.165456684562976,-0.000694392058133574,0
0.2,0.000562858150441076,0.000322711044748444,-0.0279565827257629,-0.016149580178972,0.000225602122900881,0.000608321788252892,-0.0113246299567605,-0.030234619461834,0.165452449659591,-0.000636759020829166,0
0.21,0.000562546814675601,0.000322710427826073,-0.0279513778365292,-0.0161495516069423,0.000225655121394467,0.00060801373760615,-0.0113255748776425,-0.0302294375362265,0.165448616820192,-0.000584600111114658,0
0.22,0.000562265281236011,0.000322709880910105,-0.0279466771025759,-0.0161495258684924,0.000225703057257884,0.00060773517560272,-0.0113264285256407,-0.0302247574631509,0.165445147866236,-0.000537393352827597,0
0.23,0.000562010348694811,0.000322709386864777,-0.0279424141686553,-0.0161494986054219,0.000225746462424414,0.000607482934010138,-0.0113271985843366,-0.0302205126860911,0.165442008250061,-0.000494668364629633,0
0.24,0.000561779592928936,0.000322708939722449,-0.0279385525318005,-0.0161494846714285,0.000225785749709362,0.000607254613845271,-0.0113279066691705,-0.0302166692939418,0.165439166704716,-0.000455999630051985,0
0.25,0.000561570819064058,0.000322708534958514,-0.0279350591167682,-0.0161494587348,0.000225821293694323,0.000607048043134619,-0.0113285341030364,-0.0302131901718551,0.16543659493194,-0.000421002051673041,0
0.26,0.000566809773695374,0.000325771138882124,-0.0281925517711566,-0.0163027262726905,0.000227980679228408,0.000612719319414453,-0.0114373722021574,-0.0304923822683787,0.165434369794873,-0.000427980265680408,0
0.27,0.00055192836771475,0.00031729936606664,-0.0274833610656446,-0.0158787611436255,0.000222076697728499,0.000596645414899473,-0.0111360575158653,-0.0297230283437647,0.165431949834294,-0.000294093053974321,0
0.28,0.000551432281336214,0.000317067781534273,-0.02738326733272,-0.0158671734098781,0.00022193110403362,0.00059611754214177,-0.0111411676310891,-0.0296223717087327,0.165430046894521,-0.000265848746683947,0
0.29,0.000559937369449646,0.000322186765039832,-0.0278770650691728,-0.0161233438588094,0.000225580537954606,0.000605349147326675,-0.0113125699255226,-0.0301515959070239,0.165428518831062,-0.000304377385267494,0
0.3,0.000554545263763819,0.000319382907532475,-0.0276193713038252,-0.0159830332079776,0.00022370325831165,0.000599568797893563,-0.0112166281847247,-0.0298743079235573,0.165427928105345,-0.000259599357556652,0
0.31,0.000560111056648216,0.000322400150519514,-0.0278904376026048,-0.0161340247640852,0.000225763606396072,0.000605555155920273,-0.0113209625749801,-0.0301665223572225,0.165426540369508,-0.000279752407910455,0
0.32,0.000560578523114307,0.000322678422184337,-0.0279163606875416,-0.0161479477985436,0.000225961924947733,0.000606061756914513,-0.011330467799715,-0.0301943688720435,0.165425179238907,-0.000265203001824279,0
0.33,0.000560536382750843,0.000322703928326922,-0.0279174843766462,-0.0161492343223904,0.000225994775268401,0.000606024111151043,-0.0113315892420804,-0.0301956749944181,0.165423936630512,-0.000248697561111531,0
0.34,0.000560451029903981,0.000322706123029875,-0.0279162327674401,-0.0161493392303799,0.000226011677228956,0.000605940030463048,-0.0113319328117268,-0.0301944449900026,0.165422810904256,-0.000233419444525404,0
0.35,0.000560368936520204,0.000322706181394479,-0.027914865258705,-0.0161493364545717,0.000226025870410927,0.000605858837050326,-0.0113321860262383,-0.0301930841452367,0.165421791942479,-0.00021955723801836,0
0.36,0.000560294081470768,0.000322706056272379,-0.027913598684275,-0.0161493382817614,0.000226038631932331,0.000605784774784084,-0.0113324242371935,-0.0301918247105701,0.165420869707906,-0.00020700757128928,0
0.37,0.000560226423570948,0.000322705926598692,-0.0279124548483985,-0.01614932526953,0.000226050150664365,0.000605717830440572,-0.0113326249547018,-0.0301906848872469,0.165420035028344,-0.000195648994380888,0
0.38,0.000560165014488874,0.000322705807713432,-0.0279114087818013,-0.0161493255906118,0.000226060602965149,0.000605657069286186,-0.0113328203300435,-0.0301896445918689,0.165419279591798,-0.000185368748584763,0
0.39,0.000560109521987729,0.000322705699969338,-0.0279104642431579,-0.0161493110798133,0.000226070048474657,0.000605602161981518,-0.011332982191143,-0.0301887028087729,0.165418595875541,-0.000176064491382047,0
0.4,0.000560059288776517,0.000322705602436523,-0.0279096068039877,-0.0161493113581937,0.000226078598655466,0.000605552458519292,-0.0113331423365429,-0.0301878501069013,0.165417977070241,-0.000167643567101021,0
0.41,0.000560013712178164,0.000322705514158371,-0.0279088230308707,-0.016149311618189,0.000226086355553765,0.000605507362901726,-0.0113332885591534,-0.0301870707281246,0.165417417013833,-0.000160022113676786,0
0.42,0.000559972713386706,0.000322705434258027,-0.0279081240965317,-0.0161492985098554,0.000226093334674186,0.00060546679599565,-0.0113334060201625,-0.0301863734312351,0.165416910128179,-0.000153124230487031,0
0.43,0.000559935402276179,0.000322705361940539,-0.027907479167841,-0.0161492987380753,0.000226099684872662,0.000605429878555596,-0.011333526289598,-0.030185732144145,0.165416451365991,-0.000146881222779621,0
0.44,0.000559901700040616,0.000322705296486801,-0.0279068966862954,-0.0161492989519634,0.000226105421192883,0.000605396531701491,-0.0113336349469092,-0.0301851529429561,0.165416036157966,-0.000141230917583671,0
0.45,0.000559871141018733,0.000322705237245553,-0.0279063645727205,-0.016149299153368,0.000226110622181278,0.000605366295087629,-0.0113337341078672,-0.030184623866842,0.165415660369201,-0.000136117044543154,0
0.46,0.000559843492379886,0.000322705183626919,-0.0279058813195802,-0.0161492993432008,0.000226115327866841,0.00060533893811935,-0.0113338241346832,-0.0301841433866008,0.165415320257352,-0.000131488675531638,0
0.47,0.000559818617108004,0.000322705135097637,-0.0279054492429088,-0.0161492847202901,0.000226119562340926,0.000605314324798158,-0.0113338901491897,-0.0301837113110972,0.16541501243545,-0.000127299717466804,0
0.48,0.000559795974327981,0.000322705091174729,-0.0279050496236004,-0.0161492848907456,0.000226123416048917,0.000605291920859904,-0.0113339645283087,-0.0301833140170046,0.165414733837877,-0.000123508453284109,0
0.49,0.000559775485231405,0.000322705051421123,-0.0279046860321139,-0.0161492850525948,0.000226126903219656,0.000605271647873129,-0.0113340321680088,-0.0301829525572857,0.165414481689914,-0.000120077126477468,0
0.5,0.000559756916987633,0.000322705015440954,-0.027904353621016,-0.0161492852067727,0.000226130063323723,0.000605253275552851,-0.0113340939432352,-0.0301826221223789,0.165414253480694,-0.00011697156508835,0
0.51,4.67365737689206,0.0259958347530529,6.31806882830716,-1.2878231307527,-0.986911679408673,4.56834263131049,-2.62571379453128,5.88915182386534,0.218325229126194,67.8133273405802,2773.78727032512
0.52,4.69682611504024,0.030185846857286,5.16069417605093,-1.48080742087863,-3.9387120354988,2.5588345475414,-5.14432840048154,1.53669785724266,1.00108498765239,146.341699186905,2773.78727032512
0.53,4.67256077611804,-0.0194443075908652,6.37515625019456,1.01385756048235,-3.19656360149581,-3.4081055484252,-5.11720271177859,-3.93506807741719,2.38405133820163,231.989784306753,2773.78727032512
0.54,4.6551111252117,0.0626245831684065,7.24896894203908,-3.07272280440936,4.37524032478194,-1.59099136606356,7.85638202687227,0.516175942119351,-1.90611424382224,310.620709494794,2773.78727032512
0.55,4.66078585539594,0.0133392984543705,6.96663670896371,-0.59640809089719,-2.90266373436834,3.64659374923022,-4.81983771267911,5.06546089403567,0.675154996056654,393.57645807259,2773.78727032512
0.56,4.61186274357593,0.0522149655603794,9.41425725870987,-2.53117883336799,2.96113061591694,-3.53605851813733,8.0476209824743,-5.5018999029518,-2.43313192068983,474.668358718515,2773.78727032512
0.57,4.62757024274344,0.0763611807739011,8.6304309644903,-3.72548945532778,-4.48303164817655,1.15007157294719,-9.26006371734129,-1.61704368072443,1.33617288515442,555.363657233631,2773.78727032512
0.58,4.6280769281926,0.0669263215125635,8.60670278691061,-3.23541624904729,2.61175223046494,3.82129892476907,2.0559929913376,8.96192747049343,-0.585087330585431,635.728652085986,2773.78727032512
0.59,4.60272631803501,0.100168340559672,9.87598561908442,-4.87343610174573,4.29661315256966,-1.65355334729424,10.9429970682691,1.2394702699193,-1.91641549285471,715.223777069564,2773.78727032512
0.6,4.57484384592534,0.0743465888711722,11.2719651291771,-3.58612395106927,2.05823192952863,-4.08636818631736,8.40968187208835,-8.31833719418045,-2.6587536832325,796.601309145929,2773.78727032512
0.61,4.58477291671909,0.0918105423400464,10.7774172213939,-4.42206929864331,1.39556452612838,-4.368177140064,7.66930405932013,-8.76864836173154,-2.81233504531189,875.768033762407,2773.78727032512
0.62,4.5885465841876,0.073894379246592,10.5907656138443,-3.51728065000603,3.11783113492427,-3.36739500929736,9.86157137213821,-5.22350356853691,-2.37855471872643,955.991751298366,2773.78727032512
0.63,4.56035809279715,0.118288491235617,12.002317246746,-5.7283610329959,4.48367863885582,0.841120660290343,10.5333630745178,8.11899019313779,-1.35942292797467,1035.92954494514,2773.78727032512
0.64,4.53475935255022,0.11435860333543,13.2844457038664,-5.512384500992,-0.986066192130051,4.42773008893233,-8.5623638344117,11.5563318623562,0.244339382478385,1115.4598865427,2773.78727032512
0.65,4.53890391233008,0.134823025186762,13.0794860947957,-6.51561020070584,-3.06116223796215,-3.35396954761971,-3.58575587946437,-14.1657505118643,2.43150120094802,1195.13241770268,2773.78727032512
0.66,4.48285418717968,0.0933250613045853,15.884341155897,-4.45539681945534,4.00008662844816,2.02583271656179,11.9229297579943,11.402043709865,-1.08118904452983,1274.9801911099,2773.78727032512
0.67,4.50261518858021,0.149071473752828,14.8987351442293,-7.20091817150381,-3.54147389362107,-2.78455175953339,-6.7651652194391,-15.1015916698962,2.27020422304732,1353.79823805197,2773.78727032512
0.68,4.4977575034985,0.130786953801983,15.1441528045597,-6.2800492643312,0.492217382827567,4.47265579221163,-5.04131224692939,15.6003062072268,-0.0805392183855004,1432.88148917393,2773.78727032512
0.69,4.48920205184513,0.116179659968701,15.5745043251298,-5.54495539922666,4.2806549416733,-1.35735995447373,16.5015482746806,1.00529592224596,-1.851984826797,1512.07609983331,2773.78727032512
0.7,4.4452648896207,0.174954817365964,17.7740585088787,-8.47248959981322,0.255390739162941,-4.44136968708572,10.15027616607,-16.8722295399422,-3.04481594351019,1590.84674244115,2773.78727032512
0.71,4.43575743037816,0.194341707557178,18.2521884388265,-9.41558827479024,-2.36840119764534,-3.75558097335731,-0.874663966112562,-20.519031368785,2.6227359056665,1669.40284508869,2773.78727032512
0.72,4.21217046245049,0.178631835641216,19.7023947918925,-8.67967125085597,-2.38941355443087,-3.47346976427706,-3.11554668499122,-21.30292051368,2.58141416702291,1747.1627792222,2773.78727032512
0.73,3.96425501293864,0.181081982453987,18.2591863352856,-8.77325569082283,-0.385042352375112,-3.94966465397457,7.82106893112963,-18.6868612082863,3.09005934552381,1819.42850971238,2773.78727032512
0.74,3.6964523387411,0.140900615118656,18.8575765021148,-6.80820321454765,2.5686109541979,-2.66192611503398,18.3173360700764,-8.15076817481438,-2.33593370221704,1887.61017832996,2773.78727032512
0.75,3.43366479940846,0.186065740897594,19.9274166216704,-9.05099697553393,2.6627976753976,2.1758177668476,8.62833978600722,20.1140307248934,-0.831569141957345,1950.87360024152,2773.78727032512
0.76,3.2190827000042,0.165475331820085,19.3425188297768,-8.00744894669884,-2.83007524199881,1.54290299096627,-20.9025026300979,1.15657127450362,1.12301981439141,2010.14247122291,2773.78727032512
0.77,3.01725967188691,0.158292881029656,18.8525254010221,-7.65811863731545,0.906573997762229,-2.88219294121008,13.7659581974709,-14.9854225821251,-2.78443309610048,2065.71263348043,2773.78727032512
0.78,2.78475018951328,0.165860956313795,20.5838858698151,-8.05275829806031,0.2072146245909,2.78197871562297,-7.74606259236887,20.7012508806511,-0.0148571659565974,2117.75352295071,2773.78727032512
0.79,2.63922911966843,0.160077704708034,18.6043623648086,-7.83223505594725,-0.208814382463662,-2.63582089135941,7.48715251109418,-18.7458996116039,3.12311499328698,2166.49568512183,2773.78727032512
0.8,2.43775191719042,0.102206380646506,19.9580932205617,-4.92660581619669,-0.67567145295917,2.34447193236909,-10.9980434035838,17.3677854420678,0.322496099144919,2211.88147526503,2773.78727032512
0.81,2.27410099612315,0.158852429531736,19.986212447553,-7.73413353292636,1.80785785675043,-1.38867541373864,20.9323090896672,-4.59390309850936,-2.15606239240445,2254.22179875571,2773.78727032512
0.82,2.14382154395723,0.0489576311580103,18.9192167091429,-2.3022874911216,-2.00992485825166,-0.747375224479504,-16.7263231814947,-9.13604955150095,1.94962844309977,2294.09079956807,2773.78727032512
0.83,2.00470533189045,0.115787054000031,18.6872469517688,-5.59896827507644,0.00785931682383423,2.00803096109673,-6.59538214764932,18.359264111292,0.0537796232942877,2331.09953245129,2773.78727032512
0.84,1.87125149808024,0.11280053674125,18.6831561657555,-5.50655314417141,1.82373561531455,-0.433929182689872,19.3530016951335,2.20085829433655,-1.7441792166312,2365.97471020224,2773.78727032512
0.85,1.70935960945292,0.0712754772881359,20.5061147025051,-3.4617641416574,-0.0521177121788392,-1.71005093847199,3.69131683086023,-20.4660384837655,-3.13038746813903,2398.41144017486,2773.78727032512
0.86,1.63182646173077,0.0716083661999848,18.4966917733834,-3.41865901841739,-1.51560615130307,-0.609034771952209,-15.4314308447436,-10.7557323380443,1.99674415313926,2428.64384297029,2773.78727032512
0.87,1.49717934395117,0.11248862727448,19.7352104118973,-5.50015317965192,-1.24736547536073,0.835630929357123,-19.8831613338134,4.93863446461108,1.05553989347125,2456.97992087772,2773.78727032512
0.88,1.39135197333392,0.0869484660178285,19.8844104919091,-4.25471268287848,-0.348365219341142,1.34983777669631,-10.2055151795545,17.5880590328914,0.314979069553654,2483.51477492298,2773.78727032512
0.89,1.31403047137984,0.0654313252313471,18.9319779483166,-3.19872277120227,0.373288332346761,1.26159151826969,1.3534151306822,19.1525424914447,-0.237925717040332,2508.26669960232,2773.78727032512
0.9,1.18869492824565,0.0157073642928267,20.6778680676045,-0.728372274679447,0.699295941098416,0.961367536633747,11.346855399999,17.301838819134,-0.615664427952865,2531.34797619077,2773.78727032512
0.91,1.10682146314147,0.0504803259610296,20.5337626498874,-2.47840614351979,0.85074645683394,0.709811581170844,13.4781282677383,15.6881472447367,-0.82988760853851,2552.91257881708,2773.78727032512
0.92,1.02606631541341,0.0459130274795278,20.6140356280661,-2.25708892279091,0.827056849483648,0.609013183306051,14.618022779093,14.708715964029,-0.891364049042145,2572.99526950279,2773.78727032512
0.93,0.977872360132556,0.0867629911329609,19.3028944532459,-4.30196087218302,0.858521601807981,0.476133204650351,13.576389440664,14.3802034538588,-0.975936309050164,2591.82379350261,2773.78727032512
0.94,0.890997669591722,0.0300124081251219,20.1803706064417,-1.46026078466152,0.636807293004196,0.623902286769343,12.8749009667369,15.6082236167116,-0.761962792645427,2609.30143614803,2773.78727032512
0.95,0.839368258769068,0.0708596863673861,19.4943327614092,-3.49191339802195,0.409703057733816,0.736005144998772,4.83206807296536,19.2060820348677,-0.423719881603213,2625.64922515877,2773.78727032512
0.96,0.767440966156459,0.0446399725678225,20.0503914924814,-2.16465741604624,0.0215980284266289,0.76843470044897,-2.76515903968544,19.9764320191535,0.0300027094096877,2640.8208398464,2773.78727032512
0.97,0.70399094859663,0.0865241395349633,20.3689022279312,-4.25116774400413,-0.320696568302611,0.632647922234142,-14.8860785018583,14.5385443561312,0.59145346697416,2655.04273108509,2773.78727032512
0.98,0.643276856701676,0.0509098888554775,20.7363468194521,-2.55029320175196,-0.595295467979356,0.249038625426872,-20.4971431819347,4.04563915973359,1.25355324521615,2668.30627601891,2773.78727032512
