t,iq,id,vq,vd,ia,ib,va,vb,theta_e,omega,r
0,0,0,0,0,0,0,0,0,0,0,0
0.01,0.00127717687664065,0.000728807444808271,-0.0632474478172848,-0.0364954396449144,-0.00104179468396221,0.00103778846703054,0.051485249345368,-0.0517824861330647,1.30587561003745,-0.00151853957913485,0
0.02,0.00141243781089792,0.000806416328113312,-0.07004432320486,-0.0403817545436168,-0.0011520033476065,0.0011481185265491,0.0570267949191453,-0.0573135060391314,1.3058643650675,-0.00161860162425107,0
0.03,0.00145935213318657,0.000833271093518008,-0.0723788822225348,-0.0417265321422295,-0.00119023549616831,0.00118633419726056,0.0589271016033583,-0.059223329634761,1.30585290162316,-0.00160862899035152,0
0.04,0.00143168200694052,0.000817973358529557,-0.0710353220021366,-0.0409604809806483,-0.00116752424827745,0.00116433711353093,0.05783039727551,-0.0581328059280641,1.30584226039817,-0.00151170898752005,0
0.05,0.00145865314430665,0.000833493877036771,-0.0723850739460293,-0.0417376666634173,-0.00118947740533034,0.00118639139438132,0.0589289056738239,-0.0592369464503719,1.30583169873953,-0.00148251569219233,0
0.06,0.00145869121140187,0.000833802011730936,-0.0724064389688891,-0.0417531123374682,-0.00118942138223943,0.00118671084113159,0.0589448776003549,-0.0592580475437715,1.30582152864634,-0.00142248447100077,0
0.07,0.00149934006777879,0.000857293222048798,-0.0744286347087487,-0.0429294487802705,-0.00122248779424152,0.00122003930278833,0.0605878444221046,-0.0609234958408418,1.30581188267551,-0.00141553615851803,0
0.08,0.00145855523894735,0.000834272813233522,-0.0724362292805129,-0.0417766818016016,-0.00118914423324458,0.00118715226677226,0.0589663256956514,-0.0592897199241628,1.30580246917791,-0.00130972616359645,0
0.09,0.00145723180985579,0.00083380403949249,-0.0723880848859259,-0.0417531907085651,-0.0011879791893525,0.00118636384368159,0.0589254855997982,-0.0592549653162146,1.30579354803013,-0.001255396572038,0
0.1,0.00145675910785638,0.000833790405491185,-0.0723811390788517,-0.0417525146060858,-0.00118751643247311,0.00118623701730219,0.0589184534914551,-0.0592529966200759,1.30578501093373,-0.0012043832622134,0
0.11,0.00145632365903931,0.000833786131811097,-0.0723753281176896,-0.0417522983857451,-0.00118708761252593,0.00118612854011092,0.0589124178622511,-0.0592517473350705,1.3057768395996,-0.00115557615010963,0
0.12,0.00145590667129904,0.00083378221776554,-0.0723697551030677,-0.0417521256944015,-0.00118667693191635,0.00118602482328688,0.0589066212352359,-0.059250581670795,1.3057690183202,-0.00110886033497227,0
0.13,0.00152549139138988,0.000873675353930049,-0.0758148357692827,-0.0437497869268127,-0.00124337296405197,0.00124276155457676,0.0617076735036216,-0.0620813676527447,1.30576119040313,-0.00114826851417225,0
0.14,0.0016168503551525,0.000926737501838116,-0.0804490373414286,-0.0464069197907021,-0.00131763290422081,0.00131791160476891,0.0654835563662177,-0.0658601067358353,1.30575375269129,-0.00121678362033036,0
0.15,0.00145811797132072,0.000835646411774262,-0.0725217704742555,-0.0418454525267303,-0.00118829603975307,0.00118842983205019,0.0590275499822605,-0.0593817937837783,1.30574656272881,-0.000978928476812856,0
0.16,0.00145443446524941,0.000833805555762554,-0.0723527041691753,-0.0417532953297775,-0.00118521564466847,0.00118569608001332,0.0588881418133578,-0.0592489512587158,1.3057400309552,-0.000935809430544382,0
0.17,0.00145403179470313,0.000833765360642023,-0.0723448122774911,-0.0417512692674393,-0.00118483016264146,0.00118555920236365,0.0588806863178633,-0.0592452962491119,1.30573378637314,-0.000898424625865557,0
0.18,0.00145371184830722,0.00083376162257307,-0.0723404844763865,-0.0417510937191762,-0.00118451528379277,0.0011854788583715,0.058876201551423,-0.0592443449782506,1.30572780945989,-0.000862723229185933,0
0.19,0.00145340691951888,0.000833758745116906,-0.0723364055900312,-0.0417509531121104,-0.00118421497709195,0.00118540297232434,0.0588719630346965,-0.0592434775135328,1.30572208859629,-0.000828552977111782,0
0.2,0.00145311526207514,0.00083375600481585,-0.0723325108552369,-0.0417508154354563,-0.00118392773366035,0.00118533040200278,0.0588679160005651,-0.0592426466483302,1.30571661281012,-0.000795846588508442,0
0.21,0.00145283617748091,0.00083375338196393,-0.0723287858915485,-0.0417506777767421,-0.00118365287200753,0.00118526095823745,0.0588640467105064,-0.0592418464282312,1.30571137160263,-0.000764541317075728,0
0.22,0.00145256908365958,0.000833750871269326,-0.0723252212278021,-0.0417505401346589,-0.00118338981976294,0.00118519449569572,0.0588603454279364,-0.0592410749673762,1.3057063549244,-0.000734577139318251,0
0.23,0.00145231323318176,0.00083374846793918,-0.072321798283243,-0.0417504371322793,-0.0011831378453695,0.00118513082565605,0.0588567845789426,-0.0592403613821392,1.30570155315689,-0.000705896603828496,0
0.24,0.00145206872392369,0.000833746167389955,-0.072318540058648,-0.0417502995111272,-0.00118289703348977,0.00118506998054795,0.0588534039600091,-0.0592396454057846,1.30569695709351,-0.000678444720384573,0
0.25,0.0014518342938582,0.000833743965233617,-0.0723154006029649,-0.0417501965158889,-0.00118266615681246,0.00118501163619462,0.0588501405600134,-0.0592389823473471,1.30569255792214,-0.000652168854500025,0
0.26,0.00146582729694933,0.000841808309773405,-0.0730131689053847,-0.0421540234608937,-0.00119405238158413,0.00119646554689996,0.0594174759846142,-0.0598117720450215,1.30568837641406,-0.000644691025278573,0
0.27,0.00141290551339719,0.000811647152567064,-0.0704123880153042,-0.040643688185757,-0.00115087730327919,0.0011534966505609,0.0573030441975369,-0.0576729997577196,1.30568422619944,-0.000555033606296006,0
0.28,0.00140117734594562,0.000804789815158014,-0.0697339251306138,-0.0403002968461616,-0.00114135118230188,0.00114381033394151,0.0567380372554581,-0.0571640566126044,1.30568034353615,-0.000517661163446798,0
0.29,0.00144993966508544,0.000833152063128293,-0.072252209339869,-0.0417205721388429,-0.00118097410410258,0.00118396265064491,0.0587959839766811,-0.0591947646527842,1.30567676666213,-0.000556552539241183,0
0.3,0.00144480778901139,0.000830400196708301,-0.0720050867518749,-0.0415827430359234,-0.00117673898513081,0.00117996584474063,0.0585934301147771,-0.0589971777623421,1.30567371450544,-0.000532205385779839,0
0.31,0.00145052295468613,0.000833665566379522,-0.0722932899886108,-0.0417462750959054,-0.00118139483208079,0.00118461865989485,0.0588285129259958,-0.0592307127145734,1.30567032434801,-0.00051921350919449,0
0.32,0.00145047358093118,0.000833729844434188,-0.0722970832246733,-0.0417495064039026,-0.00118132648102411,0.00118467160331915,0.0588311339367751,-0.0592350167340068,1.30566706638396,-0.000499906829789641,0
0.33,0.00145031039712245,0.000833729612191543,-0.0722949993348504,-0.0417494703036107,-0.00118116536546389,0.00118463230315364,0.0588289475874623,-0.059234619313453,1.305663947714,-0.000481282504148946,0
0.34,0.00145015135523415,0.000833728143949795,-0.0722928630097744,-0.041749401847514,-0.0011810087294875,0.00118459273675628,0.0588267270301464,-0.0592341690555026,1.30566096263985,-0.000463452981970213,0
0.35,0.00144999906543319,0.000833726713404094,-0.0722908141383974,-0.0417493333802401,-0.00118085875150258,0.00118455482414302,0.0588245984514055,-0.0592337341682732,1.30565810544374,-0.000446387198676115,0
0.36,0.00144985341130426,0.000833725343572846,-0.0722888576272623,-0.0417492649009345,-0.0011807153066115,0.00118451856360277,0.0588225662617224,-0.0592333162604313,1.30565537064793,-0.000430052499137797,0
0.37,0.00144971404360139,0.000833724032356821,-0.0722869862634266,-0.0417491964104042,-0.00118057805208387,0.00118448386788604,0.0588206231890567,-0.0592329137525273,1.30565275300887,-0.000414417565615006,0
0.38,0.00144958061307389,0.000833722777259734,-0.0722851924009803,-0.0417491249984091,-0.00118044664555739,0.00118445064908322,0.0588187623197026,-0.0592325221289611,1.30565024750733,-0.000399452420698023,0
0.39,0.00144945260514525,0.00083372157588226,-0.0722834597059028,-0.0417490910432923,-0.00118032058535418,0.00118441877578968,0.058816957024417,-0.0592321763603522,1.30564784933974,-0.000385128371158304,0
0.4,0.00144933046690666,0.000833720425927179,-0.072281819495422,-0.0417490225172456,-0.00118020029807586,0.00118438836845594,0.058815256128361,-0.0592318154142648,1.30564555390776,-0.000371417952961839,0
0.41,0.00144921368377156,0.000833719325195275,-0.072280254683686,-0.0417489539805296,-0.00118008528246303,0.00118435929537828,0.0588136338253099,-0.0592314684257384,1.30564335681037,-0.000358294878615701,0
0.42,0.0014491013919097,0.000833718271581102,-0.0722787303127969,-0.041748919983377,-0.00117997470041952,0.00118433133318876,0.0588120470751482,-0.0592311598252051,1.30564125383523,-0.000345733986758212,0
0.43,0.00144899438765965,0.000833717263069043,-0.0722772941030137,-0.0417488514241138,-0.00117986931618986,0.00118430469344766,0.0588105598000095,-0.0592308356694026,1.30563924094988,-0.000333711193922868,0
0.44,0.00144889164185319,0.000833716297730049,-0.0722759021236008,-0.0417488173991989,-0.00117976813249358,0.00118427910919907,0.0588091112682781,-0.059230551355253,1.30563731429497,-0.000322203448360183,0
0.45,0.0014487933198236,0.000833715373717067,-0.072274569872396,-0.0417487804498092,-0.00117967130498203,0.00118425462639572,0.0588077260336622,-0.0592302750123275,1.30563547017679,-0.000311188685839559,0
0.46,0.00144869947050222,0.000833714489262478,-0.0722733067084103,-0.0417487118582324,-0.00117957887713926,0.00118423126037379,0.0588064204444273,-0.0592299815878994,1.30563370505913,-0.000300645787344861,0
0.47,0.00144860941396447,0.000833713642673367,-0.0722720852747145,-0.0417486777948123,-0.00117949018922852,0.00118420883534952,0.0588051505582157,-0.0592297279699666,1.30563201555777,-0.000290554538581764,0
0.48,0.00144852331554733,0.000833712832329764,-0.0722709201475365,-0.0417486437182135,-0.00117940539738641,0.00118418739694837,0.0588039393018853,-0.0592294848353597,1.30563039843342,-0.00028089559122237,0
0.49,0.0014484407095895,0.000833712056680719,-0.0722697941248135,-0.0417486096301369,-0.00117932404895217,0.00118416682533078,0.0588027698903965,-0.0592292478604074,1.30562885058555,-0.000271650425804504,0
0.5,0.00144836182892164,0.00083371131424178,-0.0722687246559041,-0.0417485755293262,-0.00117924636548463,0.00118414718361498,0.0588016589876721,-0.0592290217918231,1.30562736904632,-0.000262801316225918,0
0.51,4.54201723905073,-0.0248495024612092,5.24771631057049,1.24897831149534,-0.315477051745371,4.53111601345945,0.910576385339975,5.31689043946502,0.0640414298044636,19.5998215668918,614.57116881566
0.52,4.31595255003772,-0.106097530359142,9.81526017058133,5.32266948205231,-1.32159301314846,4.10999939266694,2.33156262663817,10.919430312495,0.286535646729245,41.0115350049208,614.57116881566
0.53,4.28172829099142,7.21516624681007e-05,4.89195129759166,0.0115852175169689,-2.64042414774939,3.37066128275508,-3.00767680414299,3.85813451775516,0.664525636747977,62.0900997599063,614.57116881566
0.54,4.0907358802607,-0.050221165253556,7.61817199685444,2.53528968616924,-3.82797554204649,1.44334523139323,-6.17124532863686,5.13614344233405,1.19795180754487,83.5926217172041,614.57116881566
0.55,3.90884490540525,0.0169132373403305,9.55306285150021,-0.830218631433189,-3.71405146957786,-1.21867806800501,-8.80168905500078,-3.8053308134473,1.89218016566737,105.644531597763,614.57116881566
0.56,3.78328611697745,0.00298934716625787,9.50751204741389,-0.127609643390912,-1.48227905596022,-3.48082053248548,-3.60065094067043,-8.80024899399192,2.7397993130637,125.207746345025,614.57116881566
0.57,3.74433133278055,0.0805217430183713,5.63881108921024,-4.00113307509726,1.99547287397418,-3.16931994124514,6.44559003404699,-2.50192435885494,-2.55817505151633,143.591772413893,614.57116881566
0.58,3.55244331686517,-0.0749414874669128,8.99756846327678,3.77576787414851,3.50972013523561,0.554377415129328,9.42531991191365,-2.52507541449535,-1.43522840251333,163.013669774816,614.57116881566
0.59,3.44274356514783,0.013090774996612,8.75654186732458,-0.623993306284065,0.609386200535036,3.38840716006124,0.902611766235889,8.73222108744093,-0.174139852736379,180.625665860788,614.57116881566
0.6,3.29131447514248,0.0518829105785172,10.8349666253767,-2.56244233865222,-3.06378471945506,1.20360541853475,-11.0451184649439,1.40284375726618,1.21223185766741,197.987794397064,614.57116881566
0.61,3.23440626841264,-0.0237006601756174,8.12592750378118,1.22070626949148,-1.27929473841044,-2.97074916523006,-4.38613857526975,-6.94856891680682,2.72763519689309,214.894113675632,614.57116881566
0.62,3.14202186461368,-0.00802523564682267,7.57513953988273,0.433675810000273,2.95305572554851,-1.07323235318488,6.96373112440016,-3.01284957871027,-1.92194020321513,231.18125278734,614.57116881566
0.63,3.04066785051383,0.0741060856003655,7.52387583804502,-3.67052520944088,0.582758734018124,2.98522108846179,-2.3573757755823,8.03269832572819,-0.168423181717168,246.755373859947,614.57116881566
0.64,2.90903113844095,-0.0395554181471558,9.06619518669617,2.00927483286501,-2.88096311409351,-0.405065835089168,-9.24689777017131,0.853206976798925,1.69688489349328,262.346140198062,614.57116881566
0.65,2.75342152353268,-0.0328040161446295,12.2184065317639,1.69011425124112,1.42269199011231,-2.35761610339735,4.73036791822997,-11.3916444693415,-2.61055715498106,276.687214414316,614.57116881566
0.66,2.60414460321096,0.0348604373593256,14.9732357612981,-1.70629428603504,1.34228977591442,2.23182493085844,6.07087349430318,13.7932492317851,-0.528085674096215,291.005111523473,614.57116881566
0.67,2.63225644458452,-0.0395491047683494,9.00028414860153,2.01097152154342,-2.61927716945654,-0.264055356522922,-9.13907290584959,1.23550298971411,1.65624551087649,305.023871336297,614.57116881566
0.68,2.53742580737411,0.0480781297247745,9.50092057112806,-2.37874522775349,1.78313830403053,-1.80589562909519,8.46300190842365,-4.92985996306811,-2.34358986606641,318.191507906475,614.57116881566
0.69,2.44914047691519,-0.00966566997133422,9.74699975546986,0.535173001612902,-0.0980071745881897,2.44719780454494,0.183221361456466,9.75996128616763,0.0360808079705682,330.854440807091,614.57116881566
0.7,2.37318522387483,0.0790525057222702,9.42147101902184,-3.91265806787962,-1.46771331012488,-1.86656771770034,-2.41924578438077,-9.91061345998157,2.50854948019141,343.345111608802,614.57116881566
0.71,2.32267194880546,0.0641581713499286,7.9443910702646,-3.17378147433994,2.19770773288246,0.754322194786388,6.32718806625804,5.75785806514586,-1.21254861457181,355.491903391952,614.57116881566
0.72,2.19735771693348,0.0290071764471875,10.3691119631293,-1.42098002377021,-2.17354752360101,0.323903558332525,-10.4660132716997,-0.0152750931532235,1.43606444220652,367.189131400349,614.57116881566
0.73,2.05660905380191,0.0797277699913929,13.7101748445986,-3.96685877295833,1.7183418972252,-1.13282763107557,13.7837464074265,-3.70313350688548,-2.11490386714579,378.412194410765,614.57116881566
0.74,2.11644116138134,0.0377862154600146,7.15283973164503,-1.86678833179916,-1.33132239684665,1.64570096412516,-6.02739950335586,4.28000819266584,0.698038218591085,389.236971006885,614.57116881566
0.75,1.95766619178979,-0.0789533258794256,11.6285264532453,3.9759072241338,0.918370411665931,-1.73068955422996,1.44799946487061,-12.2038421523092,-2.69404425831359,399.730877219072,614.57116881566
0.76,1.96383307729986,-0.0652626258144331,7.97727898682691,3.29079888165318,-0.59173150066876,1.87370045550017,1.02085354543411,8.56879194238806,0.2726766015335,409.793705245369,614.57116881566
0.77,1.83133467197619,0.0343020368027223,11.3281106583823,-1.69750055402956,0.277225946516174,-1.81055491081855,3.59677946333507,-10.8752368577248,-2.97092769252138,419.634762804599,614.57116881566
0.78,1.80637292839512,-0.023911897289154,9.42390385388822,1.21796589440799,-0.274657214220837,1.78553027136119,-0.103203475234915,9.50172372835423,0.139390833828445,429.068589004832,614.57116881566
0.79,1.70012114926258,-0.0806814952776095,11.6687829182338,4.06008215332388,0.377369023659581,-1.65967287313867,-1.95236801924832,-12.1997139721397,-2.96543903083355,438.198420216929,614.57116881566
0.8,1.60157826563877,0.0242010296945314,13.6398395057601,-1.19140385597296,-0.417308949314108,1.54644491386765,-4.89760543520752,12.785856478623,0.278682085087162,446.998754446677,614.57116881566
0.81,1.62071840760609,0.0372017902856944,9.82254308077753,-1.83639128733559,0.663769702056682,-1.47902735356222,5.88408518338581,-8.0766470201806,-2.69679724037791,455.480155674021,614.57116881566
0.82,1.48177890323027,-0.0422531088551947,14.0168190000096,2.14729740123999,-0.955613424591171,1.13325064571231,-7.04645017244898,12.3056751531802,0.672054772201517,463.63982848855,614.57116881566
0.83,1.52911208052306,-0.00847764951085805,8.97927456376138,0.466257625305392,1.25611296742015,-0.872029723359098,7.07953402951661,-5.54301053485233,-2.18318255988545,471.554895491494,614.57116881566
0.84,1.46427374597059,0.0505874791385899,9.61841235559463,-2.48544566231651,-1.39839493935399,0.437205088915363,-9.9331386780453,0.155088314530134,1.30231091569052,479.25946342457,614.57116881566
0.85,1.42449987061998,-0.0530682660142254,9.08407254952747,2.70281523339295,1.40538869771557,0.23853454799552,9.35913007553817,-1.49407780925103,-1.43990677641546,486.730156381771,614.57116881566
0.86,1.3585416777007,0.0296443478801307,9.90825846306277,-1.47318918265859,-1.14985783238536,-0.724114108903503,-7.45504437729311,-6.69075372968903,2.15461581549254,493.977216235558,614.57116881566
0.87,1.3736609738223,0.0288821330914005,6.76271712064346,-1.42594198803126,0.662619473777835,1.20362539088569,1.87284951122239,6.65282557379861,-0.48221954974637,500.895174737341,614.57116881566
0.88,1.28058459377523,0.0323234786345618,9.1337480245025,-1.58445552966934,0.0603770015477582,-1.27956880501582,2.24088711644934,-8.99523636331667,-3.06920636671896,507.53287744288,614.57116881566
0.89,1.11536640387897,-0.0420164970341644,15.1864929124648,2.14676496619381,-0.729953927738137,0.844378389292735,-7.81653423984661,13.196210034617,0.675191703244929,513.971479682008,614.57116881566
0.9,1.21619562111921,-0.0199092158392993,8.00075188548887,1.00509121610324,1.18429652812368,-0.277434495294077,7.51371290686031,-2.92683402999254,-1.81727646736999,520.227785933128,614.57116881566
0.91,1.01742899308244,0.0462463303756419,15.8376750478745,-2.30536946875859,-0.937298170417383,-0.39846281980906,-13.281550351896,-8.93012315478362,2.01819021126517,526.218176970081,614.57116881566
0.92,1.04742043352067,0.0867359535474157,12.335103363795,-4.31109743509122,0.475097494081015,0.937494032680927,0.655723559254305,13.0503012495573,-0.386431420504795,531.965001628614,614.57116881566
0.93,0.993392645837434,0.0528103268096281,13.1003100786046,-2.60340362283612,0.33097515149498,-0.938122235380077,7.41389198456498,-11.1099073002518,-2.74930866106125,537.554792624033,614.57116881566
0.94,0.982059465995261,0.0258233921196674,11.7649665911395,-1.28949736381427,-0.910141566370846,0.369797203201276,-11.4661001388514,2.93356267152137,1.21115352009727,542.966234314815,614.57116881566
0.95,1.01604495802474,0.0515318036877874,8.25026022160782,-2.55354686182584,0.917337158556813,0.439881144230718,6.02964111236174,6.18310790427452,-1.07299225540514,548.095381664072,614.57116881566
0.96,0.981203035569532,0.0398791350107195,8.24527298526011,-1.95477535708826,-0.213298214785189,-0.958568523366754,0.461180801056547,-8.46126382799145,2.96326314441573,553.086084973063,614.57116881566
0.97,0.90258610435921,-0.0541461656376611,10.4384455044801,2.71311425528722,-0.65643688325424,0.621839288996003,-5.15416614012559,9.47400152587208,0.752539159503234,557.964069632954,614.57116881566
0.98,0.897677734904354,-0.0132164844736501,9.02823643761129,0.689298931982825,0.886012417959528,0.144851601393856,9.03161593528116,0.643505857487123,-1.42346477584501,562.594208007577,614.57116881566
