t,iq,id,vq,vd,ia,ib,va,vb,theta_e,omega,r
0,0,0,0,0,0,0,0,0,0,0,0
0.01,0.000413391177709741,0.000233155457096787,-0.0201737713449113,-0.0116629780771753,-0.000296668892688372,0.000370460930589601,0.0143714576758914,-0.0183430453353716,1.18876816745686,-0.00223715006340179,0
0.02,0.000524978723813048,0.000293507777662786,-0.0256537895766315,-0.0146819373510223,-0.000377703989915814,0.000468069623033368,0.0183305194211495,-0.0231876747814931,1.18874976306643,-0.00271420927157825,0
0.03,0.000569875466421424,0.000317828731992457,-0.027856564886625,-0.0158985331626098,-0.00041028628908145,0.000507383790735121,0.0199204053703296,-0.0251381983023266,1.18872965110418,-0.00280266505839445,0
0.04,0.000564603380652944,0.000314852516443799,-0.0276225412106499,-0.0157496445610586,-0.000406494242777621,0.000502664416031585,0.0197582840723672,-0.0249131751739792,1.1887102591136,-0.00261511437324157,0
0.05,0.000577871542848174,0.00032279054996889,-0.0282878689874149,-0.0161467339773916,-0.000415836280315305,0.00051498489993055,0.0202271012685406,-0.0255300788141753,1.18869163413538,-0.00253797786229927,0
0.06,0.000580309254310853,0.000324635488447522,-0.0284263859218504,-0.0162390137128914,-0.000417401040980836,0.00051761317794903,0.0203207627985294,-0.0256677147839724,1.18867382585852,-0.00240664156761856,0
0.07,0.000587644616531846,0.000329450522532401,-0.0288013043518395,-0.0164798702444554,-0.00042240315009421,0.000524823228264737,0.0205783951266934,-0.0260313447530291,1.18865722871632,-0.00231268623407795,0
0.08,0.000581185380635534,0.000326181715722395,-0.0285057511655125,-0.016316364791569,-0.000417620480647136,0.000519388190547428,0.0203647207269246,-0.0257697450363025,1.18864124388293,-0.00214621400900209,0
0.09,0.000578885320584864,0.000325419883047183,-0.0284109234664141,-0.0162782557782645,-0.000415762726110728,0.000517829769565307,0.0202905622649107,-0.0256993242395753,1.18862634117078,-0.0020119228117467,0
0.1,0.000577657054992316,0.000325241334328954,-0.0283670835381343,-0.0162693195664403,-0.000414682430486603,0.000517211833376033,0.0202528589171695,-0.0256749662764273,1.18861236782591,-0.00189122158802775,0
0.11,0.000576733704947907,0.000325198554567191,-0.0283370827175046,-0.016267181519369,-0.000413834870870875,0.000516833209040224,0.0202254832355261,-0.0256620591420924,1.18859924606476,-0.00177916958696956,0
0.12,0.000575923337097943,0.000325187433197178,-0.0283116661294001,-0.0162666221585735,-0.000413080753773349,0.000516525747456448,0.0202017929238662,-0.0256523098011397,1.18858691907237,-0.00167422465481679,0
0.13,0.000595993837809864,0.000336984680063142,-0.0292996595578457,-0.0168567573008526,-0.000427296613188898,0.000534962553513689,0.0208980753973659,-0.0265686048107821,1.18857500034013,-0.00168992271318454,0
0.14,0.00060726105246025,0.00034382588857552,-0.0299018026469872,-0.0171989607710977,-0.000435192875308263,0.000545517542129309,0.0213288207974288,-0.027110947171508,1.18856355813174,-0.0016600400636586,0
0.15,0.000581850182937441,0.000329517464946635,-0.0286381227665765,-0.0164832221758934,-0.000416947062331243,0.000522768153489228,0.0204230185885181,-0.0259757386926035,1.18855268704098,-0.00142873546007696,0
0.16,0.000575113332198098,0.00032618796947797,-0.0283219429224307,-0.0163166810843369,-0.000411933312326013,0.000517170071156752,0.0201915287948098,-0.0257034763687278,1.18854300081729,-0.00131199991790121,0
0.17,0.000573025052882551,0.000325412573859181,-0.0282306673496751,-0.0162778835708636,-0.000410280357750144,0.000515675365420069,0.0201210829063691,-0.0256336126059052,1.18853403061098,-0.00122721234939917,0
0.18,0.000572112288471601,0.00032523139381428,-0.028195817951789,-0.0162688330286501,-0.000409496732443502,0.000515170220665642,0.0200919098312915,-0.0256123844539273,1.18852563484411,-0.0011537091913459,0
0.19,0.000571514648372138,0.000325188495092662,-0.0281756852873233,-0.0162666836544774,-0.000408954174767881,0.000514910704476495,0.0200738303590317,-0.0256030383595765,1.18851775447295,-0.0010861726635753,0
0.2,0.000571017360059895,0.000325177810050963,-0.0281598825615478,-0.0162661418572952,-0.000408492958082319,0.000514718308239049,0.0200591809595559,-0.0255967891743008,1.18851035232916,-0.00102309494972289,0
0.21,0.000570566017497704,0.000325174661295356,-0.0281458027094659,-0.016265989002945,-0.000408071792292494,0.000514549854734146,0.0200459965217637,-0.0255915343786484,1.1885033980218,-0.000963922678883617,0
0.22,0.000570145816135055,0.000325173305550495,-0.0281327577894608,-0.0162659219588106,-0.000407679069314439,0.000514394504968567,0.020033751122204,-0.0255867366810262,1.18849686411678,-0.000908349569171978,0
0.23,0.000569752099281746,0.000325172404368225,-0.0281205509634169,-0.0162658752590353,-0.00040731095439228,0.000514249291327289,0.0200222858883599,-0.0255822624533759,1.18849072511627,-0.000856140719805636,0
0.24,0.000569382422196605,0.00032517164414516,-0.0281090903702615,-0.0162658329011377,-0.000406965283635049,0.0005141130214052,0.0200115209386419,-0.0255780630840875,1.18848495713192,-0.000807088510155063,0
0.25,0.000569034999919507,0.000325170949820692,-0.0280983147370754,-0.0162658069975297,-0.000406640417117812,0.000513984969534068,0.0200013943219326,-0.0255741274244733,1.18847953773551,-0.00076100110497096,0
0.26,0.000572354203102676,0.000327277045353075,-0.0282650908159424,-0.0163711488067338,-0.000408931678456015,0.000517179350496019,0.0201167012085097,-0.0257341835808568,1.18847454619283,-0.000738998089740622,0
0.27,0.000564062100426478,0.000322581734297913,-0.0278680963424785,-0.0161362841377844,-0.000402987406477757,0.000509731477015605,0.0198358643681805,-0.0253682664818888,1.18846952895092,-0.00065154871013826,0
0.28,0.000563308252953447,0.000322342184199462,-0.0277956483517096,-0.01612430285264,-0.000402375065728286,0.000509229789034481,0.0197730031031294,-0.0253302103832397,1.18846502569921,-0.000610638504991985,0
0.29,0.00056665443356306,0.000324510949544019,-0.0280036352603565,-0.0162327890732466,-0.000404668403145201,0.000512492035983533,0.0199253933896023,-0.0255085422390459,1.18846091330801,-0.000595947005708288,0
0.3,0.000558494961393258,0.00032019852377586,-0.0276111176825719,-0.016017079115762,-0.000398705341589632,0.000505448085482368,0.0196416137952641,-0.025162027950845,1.18845764371773,-0.000523476353621164,0
0.31,0.000565141811807899,0.000324011613047189,-0.0279378623888569,-0.0162078141934586,-0.000403447795508829,0.000511467173083495,0.0198735131942365,-0.0254609675603047,1.18845407015589,-0.000531717450813425,0
0.32,0.000566618856595858,0.000324898321350951,-0.0280135031189224,-0.0162521649551509,-0.000404485564434484,0.000512842350075323,0.0199270556559592,-0.0255304068829232,1.18845056569963,-0.000511475131007167,0
0.33,0.000566826420829133,0.000325104278819142,-0.0280273033799149,-0.0162624739242266,-0.000404599590421579,0.00051311222445696,0.0199359281331057,-0.0255451866768984,1.18844723669077,-0.000485530608761051,0
0.34,0.000566729702494724,0.000325151890773564,-0.0280261112359727,-0.0162648495327254,-0.000404490482414044,0.000513121581498806,0.0199338555950186,-0.0255470084833872,1.18844409987532,-0.000459440171604681,0
0.35,0.0005665664113614,0.000325162684516202,-0.0280214737350155,-0.0162653939811321,-0.000404333442127489,0.000513071863837859,0.0199292744875763,-0.0255458421282692,1.18844115040652,-0.000434502371706026,0
0.36,0.000566395242071284,0.000325164930162938,-0.0280162522834544,-0.0162654971965996,-0.000404172373419652,0.000513011203204357,0.0199243207724877,-0.0255440449580283,1.18843837863732,-0.000410966720273691,0
0.37,0.000566229912879967,0.000325165203240242,-0.0280111244163557,-0.0162655149656997,-0.000404017545259283,0.000512950822946007,0.0199194900500674,-0.02554220006799,1.18843577424274,-0.000388827464039674,0
0.38,0.00056607343121518,0.000325165032467771,-0.0280062475022082,-0.016265507973187,-0.000403871172339467,0.000512893267669442,0.0199149054258977,-0.0255404226797111,1.18843332721015,-0.000368019758759444,0
0.39,0.000565926204561631,0.000325164772570884,-0.0280016522016802,-0.0162654965872238,-0.000403733495452104,0.000512839022482332,0.019910587503207,-0.0255387433232332,1.18843102805489,-0.000348467969742191,0
0.4,0.000565787825470139,0.000325164505220368,-0.0279973289297578,-0.016265483718509,-0.000403604101472717,0.000512788014855882,0.0199065260736343,-0.025537161304222,1.1884288678463,-0.00033009739314697,0
0.41,0.000565657711864054,0.000325164248615651,-0.0279932587540946,-0.0162654693685135,-0.000403482439222506,0.000512740047985443,0.0199027033558254,-0.0255356697304332,1.18842683818887,-0.00031283693901626,0
0.42,0.000565535514501994,0.000325164006239184,-0.0279894338580425,-0.0162654564484695,-0.000403368179299591,0.000512694998069109,0.0198991108087867,-0.0255342685462188,1.18842493119318,-0.000296619590767726,0
0.43,0.000565420709512727,0.000325163778194916,-0.0279858371903899,-0.0162654435047183,-0.000403260831792905,0.000512652672808367,0.0198957329647735,-0.0255329501908146,1.18842313944572,-0.000281382326776259,0
0.44,0.000565312734299751,0.000325163563842819,-0.0279824490783918,-0.0162654425612557,-0.000403159871375436,0.000512612864572248,0.0198925469066141,-0.0255317186203055,1.18842145598242,-0.00026706592045559,0
0.45,0.000565211375279982,0.000325163362410039,-0.0279792669340061,-0.0162654295714793,-0.000403065096796687,0.000512575495653049,0.0198895590376491,-0.0255305506912207,1.18841987425835,-0.000253614721180352,0
0.46,0.00056511618627213,0.000325163173129926,-0.0279762759907035,-0.016265416561589,-0.000402976091210353,0.000512540401392422,0.0198867510128554,-0.0255294521755309,1.18841838812546,-0.000240976440715647,0
0.47,0.000565026759820199,0.000325162995273025,-0.0279734629383966,-0.0162654020775888,-0.000402892473878173,0.000512507431458475,0.0198841108778248,-0.0255284168743353,1.18841699180676,-0.000229101950644326,0
0.48,0.000564942591542797,0.000325162828151221,-0.0279708092092338,-0.0162654025001284,-0.000402813774302633,0.000512476399244355,0.0198816151544567,-0.0255274531663584,1.18841567987392,-0.000217945091556866,0
0.49,0.000564863642472031,0.000325162671117729,-0.0279683191856323,-0.0162653894346953,-0.000402739953942514,0.000512447291702833,0.0198792783728354,-0.0255265364455702,1.18841444722718,-0.000207462493660272,0
0.5,0.000564789369496955,0.000325162523563988,-0.0279659715407516,-0.0162653898187545,-0.000402670506669266,0.000512419907581649,0.0198770705724507,-0.0255256838425925,1.18841328907548,-0.000197613408198013,0
0.51,4.76236585472141,-0.0214233099591304,1.88230493841582,1.07719163326703,-0.543362862176276,4.73131528144485,0.864354129880255,1.98904641326542,0.109844566380542,34.1888823801869,2762.27119224562
0.52,4.72028160787773,0.00452072271344595,3.98716872276246,-0.214509735556244,-2.27170709884362,4.13768362150444,-2.11016589143613,3.38979774633284,0.503054915384274,73.1427806983015,2762.27119224562
0.53,4.75425213600968,0.00883170245340748,2.28929830748578,-0.423257998322825,-4.39996841959349,1.80090790389204,-2.27990657745838,0.47123250297863,1.1841559858875,112.929698309181,2762.27119224562
0.54,4.68903679528066,-0.00796465095624255,5.55076764975894,0.42360515862219,-3.88016008554363,-2.63277177395133,-4.83576674926339,-2.75786562013822,2.16526266615863,155.417897973839,2762.27119224562
0.55,4.74714371532622,0.0319643467475776,2.64620675137852,-1.5704282579546,1.48180336004086,-4.510061415945,2.33152306445017,-2.00814722676413,-2.8174154365233,198.625050144924,2762.27119224562
0.56,4.75012363557097,-0.00882391511575831,2.49803259389797,0.478956638740351,4.45204360532197,1.65621863019341,2.50904843042057,0.417423377129427,-1.21650447524406,237.848094498547,2762.27119224562
0.57,4.69760981659915,-0.00897831850660852,5.12456317038507,0.492233343875041,-2.9415075965038,3.66267001774967,-2.81682911784177,4.30916640116951,0.674719951853295,279.187364341389,2762.27119224562
0.58,4.71033683684918,0.0438750613836476,4.48909567593096,-2.14674058907301,-1.27418656981179,-4.53493624242955,0.898051089234553,-4.89428027247727,2.87699792968983,320.505197076666,2762.27119224562
0.59,4.68400150220243,0.0134197376989342,5.80674871535895,-0.616636421177632,3.71019661154185,2.85910672513251,4.21154180108527,4.04493347002853,-0.911371098058144,361.238036052999,2762.27119224562
0.6,4.68137952030066,0.0140202973209773,5.93882585413603,-0.639199997658273,-4.44982194394964,-1.45416486306459,-5.43912415694204,-2.46863475794424,1.88964279807723,401.850412399399,2762.27119224562
0.61,4.72134607060412,0.00509180740690152,3.94150043965677,-0.191590951490906,4.54618193180711,1.27411321624974,3.74221533243891,1.252180982992,-1.29646802262281,443.6785024192,2762.27119224562
0.62,4.69378186711488,0.0160570177874702,5.32067412462189,-0.729282988594282,-4.05893016248121,-2.35731456958484,-4.22342383294599,-3.31724553585919,2.10037878878064,483.921182765951,2762.27119224562
0.63,4.64845380882162,0.0181769746473419,7.58814451981001,-0.826145057953393,2.18112247384108,4.10501619598034,2.80314365310306,7.09963650973566,-0.484486834730387,524.270486653642,2762.27119224562
0.64,4.6763250983496,0.0398288373970189,6.19571746236085,-1.90489153157641,1.65768085474651,-4.37283625871695,4.02084869486449,-5.08412257852633,-2.77072767062213,565.23919790399,2762.27119224562
0.65,4.71646758571503,0.0168957289692206,4.18969240493622,-0.752639295041802,-4.71069697143315,0.233850371153203,-4.21988055308816,-0.559103276765252,1.52477690051601,606.230636544374,2762.27119224562
0.66,4.68125377637132,0.0257157440866904,5.951556540336,-1.18906442101626,0.790367337678253,4.61412155126153,-0.200493311253328,6.06586365510185,-0.164153409225383,647.003635643414,2762.27119224562
0.67,4.64956332690121,0.0843260737607593,7.53729249347031,-4.11463752280681,4.65031827497136,-0.00948467437035826,7.47009494175528,4.23541044497176,-1.55470154473241,687.607510585893,2762.27119224562
0.68,4.66904952322954,0.0760752570887004,6.56422368793922,-3.69243170064993,2.14851552827563,-4.14604533499932,6.36502415854475,-4.02610878521788,-2.64719257890751,728.127159290134,2762.27119224562
0.69,4.65386998902855,0.0858117961900282,7.3244656136016,-4.171533883485,-1.45778047743287,-4.42049155849907,1.81978105257649,-8.23030305557331,2.8414820985784,768.828076198091,2762.27119224562
0.7,4.63698322070256,0.0401942317107467,8.17012489054787,-1.90188691303618,-3.34303434410447,-3.21361950757676,-4.51086246869922,-7.07249845143913,2.34512708200473,810.005650412517,2762.27119224562
0.71,4.62180141977995,0.0558893185560987,8.93054437107456,-2.67552469059835,-3.9061163192891,-2.47111862928351,-6.03117400673933,-7.10900803447041,2.1469541141992,850.450428922324,2762.27119224562
0.72,4.61059701366589,0.0597138583925905,9.49217043326948,-2.84955930102803,-3.63844141723136,-2.83247499912787,-5.63452981259718,-8.15311974248289,2.24523121359067,890.540258896131,2762.27119224562
0.73,4.64089604351823,0.0840235840709578,7.97863937505138,-4.07799890553735,-2.30129607069774,-4.03100638109324,-0.252146370348614,-8.95685120779642,2.64094917234793,931.669079227921,2762.27119224562
0.74,4.61738908995886,0.10714917396666,9.15549419628891,-5.21226752891892,0.774849280662151,-4.55317159195765,6.86168175405423,-7.99425608029801,-2.94982816484351,971.546608605615,2762.27119224562
0.75,4.6455250536205,0.0401867814007209,7.75020147199546,-1.87303824432602,4.28103953919638,-1.80422239899973,7.88008969958685,-1.21576373020983,-1.96100151884244,1012.51055114987,2762.27119224562
0.76,4.57804660221658,0.0753014246987906,11.1256494148736,-3.60595404757192,2.92299443800732,3.52424240256069,4.14773337701922,10.9352314712144,-0.675963525786627,1052.48839656879,2762.27119224562
0.77,4.66978006184845,0.0713422695326305,6.54057345441709,-3.40692823882262,-3.63026602686943,2.93821444411687,-7.24896026663271,1.35603694267259,0.905646600355863,1092.93151007809,2762.27119224562
0.78,4.63279093813443,0.0921054040998825,8.39163721516167,-4.45348621193357,-1.71290383130222,-4.30548438002451,1.22346933924498,-9.42105287994374,2.78282631368951,1133.58475360493,2762.27119224562
0.79,4.61296988208488,0.103057410445807,9.38434091512832,-5.00218789330159,4.50210998635073,1.01050365346743,7.90411146353811,7.11426455111207,-1.32766729409372,1173.92410096922,2762.27119224562
0.8,4.57428131968743,0.108169654507624,11.3204042936656,-5.24821413983163,-4.11276520836205,2.00522133608346,-12.4776871960044,-0.0512568847965467,1.14079280101756,1214.07879315119,2762.27119224562
0.81,4.57906443120811,0.124284187414727,11.082971214074,-6.02972203220955,3.07470150277666,-3.39551001960229,12.0174075610176,-3.84339878624418,-2.37860113559925,1254.2216479371,2762.27119224562
0.82,4.59157062557209,0.104593500073884,10.4594011917109,-5.03918792452639,-2.80634117187439,3.63564434961904,-10.4958470646585,4.96283010218528,0.680143747957675,1294.46451684364,2762.27119224562
0.83,4.56419663839274,0.119174305856054,11.8299046259444,-5.78639988341391,3.47801311582873,-2.95795845731735,12.8409736892523,-2.92206464364569,-2.24946054157379,1334.75810728016,2762.27119224562
0.84,4.54983693187369,0.0882718277429704,12.5496990451285,-4.24101464891283,-4.46746375329777,0.866357683168726,-13.0906882916737,-2.02855402339426,1.39864651197901,1375.07409747571,2762.27119224562
0.85,4.59258312373837,0.0890752821274245,10.414209844989,-4.26779833479404,3.76628799312659,2.62960622663604,5.91108823083633,9.57752083000631,-0.94188927009904,1415.19842002715,2762.27119224562
0.86,4.59541564047512,0.128363615126318,10.2744612285573,-6.21249399772276,0.575144677450713,-4.5610887654607,7.7091187999228,-9.20484234180821,-2.98823087837351,1455.07580686272,2762.27119224562
0.87,4.56917366756587,0.0799163710111686,11.5884868941096,-3.77493526106205,-1.50670127701824,4.31434651975992,-7.55304831239856,9.56528232258374,0.353477658052197,1495.13727276921,2762.27119224562
0.88,4.58595723436191,0.0990682960206835,10.7512966027872,-4.75600009792663,4.14255246140218,1.96979120396134,7.47289634915511,9.0755570477721,-1.1053394617146,1535.42709022603,2762.27119224562
0.89,4.58662849023155,0.112015738701557,10.719666380182,-5.37147680678465,3.43606114473671,-3.04026187075246,11.6594160086843,-2.79678900252897,-2.2707382093261,1575.16623225929,2762.27119224562
0.9,4.53710919556274,0.112113901487447,13.1976532751412,-5.40422293990278,-0.116768701810548,-4.536991784172,5.39067992800164,-13.2031908063489,3.14056670073227,1615.49281037951,2762.27119224562
0.91,4.58719010981875,0.139237079063032,10.6956500189379,-6.7200764714238,-2.62998273617838,-3.76096940631118,-0.239123787150129,-12.6292983543746,2.5616920629952,1655.13814117317,2762.27119224562
0.92,4.53042138762071,0.135222346834579,12.0676059636271,-6.53900647623058,-3.53825754116055,-2.83262009540904,-4.9542688713511,-12.8000366929128,2.27572303308441,1695.20106786438,2762.27119224562
0.93,4.44651273345529,0.119017752684604,12.767494504802,-5.7443275508888,-3.45177731869735,-2.80550780721792,-5.94766210166884,-12.6740494896628,2.28003682271714,1734.62978354569,2762.27119224562
0.94,4.35065099999446,0.135908113200486,13.9474543152119,-6.55093485951209,-2.46669054937079,-3.58637321993003,-2.03049387521487,-15.2749246816869,2.57033324510727,1773.08548142463,2762.27119224562
0.95,4.31783136385842,0.132290458205605,11.9092309055552,-6.37167186969186,-0.130809980263483,-4.31787646895035,6.37575485543034,-11.9070455277667,-3.14124978003356,1811.07622629433,2762.27119224562
0.96,4.25257350713655,0.168528528965432,11.4677180733652,-8.19251009881668,3.07847124522102,-2.93867284518408,14.0198755579644,-1.43835630794106,-2.29335627408196,1848.50217391491,2762.27119224562
0.97,4.16340673992301,0.143404614125633,12.2025071588349,-6.94244321386334,3.89555948448424,1.47618998378723,8.57300434272698,11.1176569149582,-1.17414395034517,1885.242169567,2762.27119224562
0.98,4.09218049620534,0.162941355866371,12.0157935285933,-7.92124906137549,-0.700321016357902,4.03510118497943,-10.2686103277383,10.0837058044745,0.211642145192541,1921.25982398911,2762.27119224562
