t,iq,id,vq,vd,ia,ib,va,vb,theta_e,omega,r
0,0,0,0,0,0,0,0,0,0,0,0
0.01,0.000895001441133047,0.000506179717427713,-0.043377168080438,-0.0253268917789573,0.000174379567629025,0.00101332978460072,-0.00919923615474272,-0.0493802006074384,0.344296644182697,-0.00310243033989218,0
0.02,0.0010536994461646,0.000593344406567558,-0.0512173952214716,-0.0296882127716634,0.000202891673685784,0.00119213047792663,-0.0106596689671628,-0.0582321475506312,0.344272381992809,-0.00348325572136242,0
0.03,0.00111348439726237,0.000626796142031102,-0.0541669568097338,-0.0313619988029706,0.000214234225735133,0.00125969226525191,-0.0112412842558118,-0.0615732710453581,0.344247097566818,-0.00349955244564533,0
0.04,0.00108989901938304,0.000614081682291959,-0.0531051537434897,-0.0307258217138321,0.000210254818603595,0.00123319467085801,-0.0110022122073083,-0.0603588005236621,0.344223330185668,-0.00322733655554376,0
0.05,0.0011159786084875,0.000629545618745732,-0.0544276002189815,-0.0314995511256049,0.000216039551800137,0.00126295797742508,-0.0112856888499561,-0.0618645182143517,0.344200438936632,-0.00314101116853922,0
0.06,0.00111843233228508,0.000631598562327112,-0.0546115167317704,-0.0316022726857824,0.00021717178153852,0.00126595578245755,-0.0113216817278107,-0.0620720623268242,0.344178562159789,-0.00297753100213635,0
0.07,0.00113886437689396,0.000644112154823236,-0.055654936288826,-0.0322284049174847,0.000222083521054414,0.00128940740133798,-0.0115603085220191,-0.0632653244970289,0.344158176878978,-0.00289059229724462,0
0.08,0.00111941513801013,0.000633528381142432,-0.05477968540365,-0.031698842660714,0.000218707637898215,0.00126752334497009,-0.0113583413007176,-0.0622624978767153,0.344138454544574,-0.00266514554088651,0
0.09,0.0011156429638285,0.000632116487757701,-0.0546538310082068,-0.0316282070130946,0.000218674431205924,0.00126349197463693,-0.0113354505928284,-0.0621199829571318,0.344120073367972,-0.00250676293873919,0
0.1,0.00111414326166007,0.000631925099533168,-0.0546339030102057,-0.0316186301340661,0.00021902203749549,0.00126201184067895,-0.0113342320048022,-0.0620977963743059,0.344102782185217,-0.00236515489152506,0
0.11,0.0011130200532248,0.000631896298578145,-0.0546290428652717,-0.0316171749705823,0.000219394380783746,0.00126094118685917,-0.0113355131310787,-0.0620925456037297,0.344086493533332,-0.00223280095027212,0
0.12,0.00111200259853992,0.000631889320644862,-0.0546264243271367,-0.0316168261109295,0.000219750374336385,0.00125997764491422,-0.0113370209724178,-0.0620897888832625,0.344071146058461,-0.00210824193672643,0
0.13,0.00115816954195991,0.00065861976157191,-0.0568903971234483,-0.0329542902515161,0.000229360648652491,0.0013124520452597,-0.0118333757897117,-0.0646720476578892,0.344056158095137,-0.00215656499768549,0
0.14,0.00118795943115895,0.000676374289017953,-0.0585109913704872,-0.0338426603627885,0.000236045569302614,0.00134648144366591,-0.0121239949427533,-0.0664971466922933,0.344041833583701,-0.0021510930958358,0
0.15,0.00112016789483731,0.000637798153962201,-0.0551483517129886,-0.0319124955406907,0.000222613078815173,0.00126964798860246,-0.0114419952325182,-0.0626803702397579,0.344028197197532,-0.00179936133774733,0
0.16,0.00110992926432384,0.000632663245841482,-0.0546927684591417,-0.0316555555762634,0.000221247592560121,0.00125827471453077,-0.0113545234390837,-0.0621646838489386,0.344016093703183,-0.00166712170493663,0
0.17,0.00110785271460172,0.000631977742906654,-0.0546270297462532,-0.03162125998322,0.000221316806884033,0.00125608613389785,-0.0113451106254699,-0.0620911018320683,0.344004794359313,-0.00157063293296354,0
0.18,0.00110696468678153,0.000631884354633879,-0.0546163973500915,-0.0316165855199033,0.000221541731767505,0.00125521628275682,-0.0113449559416001,-0.0620793952461168,0.343994162362353,-0.0014836844058179,0
0.19,0.00110627899400739,0.000631869871163873,-0.0546136299845736,-0.0316158478990011,0.000221771912303449,0.00125456365545154,-0.0113458165824756,-0.0620764276077603,0.343984146419529,-0.00140231696798764,0
0.2,0.00110565388562396,0.000631866004094891,-0.0546120269921063,-0.0316156633038758,0.000221990917714332,0.00125397176777572,-0.0113467692114975,-0.0620747491883101,0.343974709155572,-0.00132572725723807,0
0.21,0.00110506800929949,0.000631863661060615,-0.0546106646162756,-0.0316155485220661,0.000222197433672424,0.00125341744515363,-0.0113476725619719,-0.0620733270061201,0.343965816899809,-0.00125357147382359,0
0.22,0.00110451635908833,0.000631861625957977,-0.0546093970462541,-0.0316154424494536,0.000222392044768202,0.00125289555840693,-0.0113485202432134,-0.0620720028299354,0.343957438144292,-0.00118558399049827,0
0.23,0.00110399653796905,0.000631859730962885,-0.0546081985815619,-0.0316153655860028,0.000222575440061599,0.00125240378829734,-0.0113493420661474,-0.0620707590426079,0.343949543231311,-0.0011215227507886,0
0.24,0.00110350705353251,0.000631857948064051,-0.0546070824287167,-0.0316152594562491,0.000222748132828276,0.00125194071467032,-0.0113500802646519,-0.0620695880431679,0.34394210422024,-0.00106116083798399,0
0.25,0.00110304555648417,0.000631856268176043,-0.0546060141744644,-0.0316151825119095,0.000222910940903911,0.00125150411734767,-0.0113508031083787,-0.0620684768467696,0.343935094783856,-0.0010042846029564,0
0.26,0.00111213185264995,0.000637297902618809,-0.0550622366926951,-0.0318874563088585,0.000224978223643369,0.00126189170424693,-0.0114537015276928,-0.0625897156149975,0.343928608652381,-0.000985940022418102,0
0.27,0.00108770333682744,0.000623381111744808,-0.0539078955389565,-0.0311911214875097,0.000220121520604328,0.00123419977134683,-0.0111877770623115,-0.0612681067562207,0.343922066367583,-0.000846366541933913,0
0.28,0.00108683970586761,0.000623111451533423,-0.0537441227893508,-0.0311776232483535,0.000220166084125409,0.00123329449957557,-0.0112306488351611,-0.0611093074134733,0.343916202876519,-0.000797066877153317,0
0.29,0.0010993380330565,0.000630687580900169,-0.0545008087740981,-0.0315567079085621,0.000223091094460847,0.00124761424294471,-0.0113327293204277,-0.0619494408143208,0.343910855882843,-0.000799992906508463,0
0.3,0.00108684644906726,0.000624037429870129,-0.0539132183027741,-0.0312239648426845,0.000221047385635955,0.00123361094800287,-0.0112178489310441,-0.0612840187456734,0.343906620622269,-0.000721612760785526,0
0.31,0.00109883319062108,0.0006308089182313,-0.0545037497332965,-0.0315627836236037,0.000223386814693866,0.00124717785546071,-0.0113380174732496,-0.0619541556704353,0.343901819860044,-0.000726996993083164,0
0.32,0.00110026287231827,0.000631708884899099,-0.0545864822239139,-0.0316078167596886,0.000223757869520761,0.00124882621660904,-0.0113528085962726,-0.062047174463243,0.343897159225846,-0.000695437932924647,0
0.33,0.00110021761857443,0.000631827713862021,-0.0545975748533215,-0.031613762290047,0.000223890506856606,0.00124882268924183,-0.0113549397631883,-0.0620595720978642,0.343892748374275,-0.000660530612930663,0
0.34,0.00109997852394434,0.000631842666549686,-0.0545985910295591,-0.0316145083807934,0.000223990388653526,0.00124860170358775,-0.0113555576642595,-0.0620607330983609,0.343888589501676,-0.000626909215973919,0
0.35,0.00109972545821283,0.000631843848128265,-0.0545982118566375,-0.0316145619571162,0.000224081714761199,0.00124836297484691,-0.0113559791628239,-0.0620603496842881,0.343884670402748,-0.000595126310560791,0
0.36,0.00109948310252387,0.000631843244056517,-0.0545976644518202,-0.0316145252943489,0.000224167464676004,0.0012481337771153,-0.0113563583793418,-0.0620597800313579,0.343880977562323,-0.000565164207457563,0
0.37,0.00109925394945495,0.000631842446294735,-0.0545971074485386,-0.0316145002479425,0.000224248313314296,0.00124791699095241,-0.0113567385305761,-0.0620592076780114,0.343877497962336,-0.000536930250710893,0
0.38,0.00109903836926132,0.000631841664123622,-0.0545965970397411,-0.0316144489462714,0.000224324348502296,0.00124771303283251,-0.0113570657814749,-0.0620586726198,0.343874219294877,-0.000510326409131868,0
0.39,0.0010988349439721,0.000631840923007497,-0.0545960987351906,-0.0316144208928438,0.000224396086982068,0.00124752057386973,-0.0113573990859323,-0.0620581589438119,0.343871129958162,-0.000485258798515261,0
0.4,0.00109864346174849,0.000631840224088872,-0.0545956363048926,-0.0316143695096234,0.000224463615099718,0.00124733941263625,-0.0113576872580486,-0.0620576732014299,0.343868219018942,-0.000461638742419302,0
0.41,0.00109846285386711,0.000631839565404857,-0.0545951886738378,-0.03161434427922,0.000224527304348075,0.00124716854006949,-0.0113579846284306,-0.062057212116863,0.34386547617539,-0.000439382654970854,0
0.42,0.00109829260694339,0.000631838944699589,-0.0545947607825624,-0.031614316096148,0.000224587337953407,0.00124700746996022,-0.0113582627326338,-0.0620567704189385,0.343862891721007,-0.000418411772809422,0
0.43,0.00109813237174274,0.000631838359794125,-0.0545943639141386,-0.0316142907822999,0.000224643843156392,0.00124685587078403,-0.0113585238158905,-0.0620563605892342,0.343860456509253,-0.0003986518802599,0
0.44,0.00109798133335223,0.00063183780862649,-0.0545939844763234,-0.031614265430522,0.000224697103622445,0.00124671297275016,-0.011358770258708,-0.0620559687533957,0.343858161921579,-0.000380033047238907,0
0.45,0.00109783902611059,0.000631837289253556,-0.0545936246559615,-0.0316142400425183,0.000224747284747742,0.00124657833502001,-0.0113590018296171,-0.0620555968787404,0.343855999838218,-0.000362489381852718,0
0.46,0.00109770486793537,0.000631836799842511,-0.0545932794547973,-0.0316142117102833,0.000224794590682593,0.00124645140728553,-0.0113592179509872,-0.0620552391924661,0.343853962606661,-0.000345958797211084,0
0.47,0.00109757850959224,0.00063183633866681,-0.0545929541752671,-0.0316141862554416,0.000224839146613347,0.00124633185858694,-0.0113594227636919,-0.0620549025674224,0.343852043017908,-0.000330382791707815,0
0.48,0.00109745960182942,0.000631835904098729,-0.0545926526632969,-0.0316141607690553,0.000224881077296609,0.00124621935807055,-0.0113596126543798,-0.0620545895666832,0.343850234278059,-0.000315706241988066,0
0.49,0.001097347446155,0.000631835494604422,-0.0545923601659941,-0.0316141352541329,0.000224920624810994,0.00124611324620178,-0.0113597929967172,-0.0620542862293328,0.343848529985957,-0.00030187720785991,0
0.5,0.00109724150820678,0.000631835108738457,-0.0545920688630329,-0.0316141329612393,0.000224957975515546,0.00124601301807741,-0.01135998869099,-0.0620539929624003,0.343846924110749,-0.000288846748482023,0
0.51,4.73680999412313,-0.00692721841237438,3.16026775333969,0.351378178676717,-0.475646318945567,4.71287359113877,0.0369143997514348,3.17952767315208,0.0991218941525256,30.5569948824788,2469.72361458433
0.52,4.68847096102214,0.00710857375169194,5.57802259667417,-0.345470034273263,-2.02951478728255,4.22645007214922,-2.73339498713538,4.8746525494533,0.449193589415993,64.9919769505643,2469.72361458433
0.53,4.70175124005159,0.0843043540025473,4.91488241377635,-4.20223126458962,-4.0439568257517,2.39999690393273,-6.35042395833218,-1.21939833187651,1.05311516868529,99.9311389863731,2469.72361458433
0.54,4.72004344587882,-0.0142526764655633,4.00105709335203,0.736137245333204,-4.4317231627954,-1.62445162381425,-4.01203913943001,-0.673719416308493,1.91911937461298,136.762746959814,2469.72361458433
0.55,4.73282127179362,0.0180766630565001,3.36320758536239,-0.881208575943842,-0.38119851271123,-4.71747937466569,0.620533090156694,-3.42091106294459,3.06478170056083,175.662464869449,2469.72361458433
0.56,4.68710571922615,0.00424314982454277,5.65001148877507,-0.181980600327053,4.56562756316311,-1.06019950104127,5.54573222482914,-1.09571933115983,-1.79806052568907,211.263096911134,2469.72361458433
0.57,4.65122152529431,0.041044027685428,7.44532782245015,-2.01399851199608,0.613230227565271,4.61080198854494,-1.08227169981008,7.63660817103136,-0.123398509822865,245.943688425083,2469.72361458433
0.58,4.6691430851934,0.0243059558859564,6.55042806279602,-1.1792311984889,-4.53252105549067,-1.12149044179368,-6.06120298491005,-2.74963859462888,1.81856213779828,283.994224409524,2469.72361458433
0.59,4.73441084470338,0.0538774455442677,3.28821818154166,-2.64554577423565,3.63717177771397,-3.03125886142776,4.22026925557271,-0.0248729464486859,-2.25420094281087,318.71782487018,2469.72361458433
0.6,4.68007487216628,-0.0578145101996375,6.00622966831486,2.93940082200002,-1.06227597268019,4.5582905879878,1.57989463802315,6.49759993795138,0.216603509045405,356.063450482311,2469.72361458433
0.61,4.66897338799572,0.0907156450637312,6.56258726146458,-4.47689105723959,-0.954722242717984,-4.57121945057674,3.18264910860324,-7.27879452617231,2.95512432547099,390.838949400633,2469.72361458433
0.62,4.59134297303645,-0.00472383421364597,10.445505670358,0.293887839779513,1.46701957475244,4.35066732558972,3.62609909897469,9.80032469341023,-0.326250112729173,427.845731748415,2469.72361458433
0.63,4.58594451228019,0.0357064928715832,10.7167869941729,-1.72806508608906,-0.963921070234502,-4.48363894551111,-0.478612872121362,-10.8446605358984,2.93761547651159,463.625579860079,2469.72361458433
0.64,4.63591863216586,0.0518326888134011,8.21953942965125,-2.51422871018353,-0.79838710874515,4.56694714402102,-3.97756720728697,7.61978566327282,0.184249816249849,498.866524125366,2469.72361458433
0.65,4.65445173034951,0.0474593984666506,7.29434013820048,-2.29524240739626,3.42051826465916,-3.15693333882574,6.9498495347059,-3.18984752071646,-2.30594569462217,535.140081580161,2469.72361458433
0.66,4.69199079145227,0.0564014419130037,5.418856150099,-2.7426831409661,-4.62715801419549,-0.779337809546784,-4.84438791971562,-3.66308865174169,1.74967737074694,571.424711357508,2469.72361458433
0.67,4.56533808581558,0.102261217312447,11.7529742885097,-5.03872623010668,1.07199903734608,4.43887229578567,-2.42065564918805,12.5563367618262,-0.214569485847181,607.48651916967,2469.72361458433
0.68,4.65868120109864,0.0902366849389704,7.08738206591389,-4.43207788954469,4.35356876049086,-1.66069029034818,8.16876504062209,1.77357736745231,-1.91584691897481,643.35862499677,2469.72361458433
0.69,4.58115565878547,-0.0103327600015009,10.9652886047538,0.603594711336422,-0.956719209404136,-4.48015427081574,-2.90414345499723,-10.5909315715802,2.92895113868719,679.128851072933,2469.72361458433
0.7,4.66314181273568,0.0389141158460256,6.86765994055941,-1.85204787597988,-4.5931599214136,-0.805783972548294,-6.41898899424644,-3.06454151315153,1.75280528593248,714.804141756111,2469.72361458433
0.71,4.54274071758088,0.025383319198055,12.8894617428641,-1.1677090210426,-3.3617702131769,3.05542772355317,-10.3672903303893,7.74732596345328,0.838687292242388,750.309963226445,2469.72361458433
0.72,4.57556923469803,0.0883508393685701,11.2497428214921,-4.304408192351,-0.759799173522707,4.51290869708733,-6.31163896478544,10.2590378210773,0.186103912147064,785.768620864658,2469.72361458433
0.73,4.59998421216077,0.0847386335887963,10.0308132138252,-4.11141352035685,1.01977295304395,4.48632349618157,-1.98242318437424,10.6579047276695,-0.205089814572464,821.377297876744,2469.72361458433
0.74,4.58323338887264,0.0983319322649168,10.8702414662039,-4.81584845081343,1.59875419845442,4.29647326055968,-0.976921809976194,11.8490577520735,-0.334781828783618,857.508014136123,2469.72361458433
0.75,4.59050765380825,-0.00468135487745469,10.5083554220102,0.357798674281298,0.920684802397546,4.49723492041385,2.46853610951236,10.2205617772529,-0.202951984110006,892.897936611776,2469.72361458433
0.76,4.54177835282817,0.0662239316244189,12.9467721835162,-3.17071708466026,-0.789184967348481,4.4731782104729,-5.54918586611675,12.1193602564704,0.18920898757599,928.211200887009,2469.72361458433
0.77,4.5395011717919,0.0337010301492278,13.0625353299187,-1.56488140505429,-3.36572182236343,3.04632947374373,-10.7909703973481,7.52553260180408,0.842592100855403,964.226393576043,2469.72361458433
0.78,4.59054683426364,0.0693524992062307,10.5122384262006,-3.31565165801218,-4.52457827725826,-0.778538001433919,-9.72032608578501,-5.19768827774184,1.75630285135885,999.301164959683,2469.72361458433
0.79,4.57227121263533,0.155985739908048,11.4280875350233,-7.67121278590863,-1.11038197024279,-4.43813558525516,5.10688904987499,-12.7815638537352,2.93053651710876,1035.14247256499,2469.72361458433
0.8,4.50801415187825,0.0572355625673495,14.6430904419501,-2.71738600239324,4.21747634499952,-1.5932233937921,14.6907948519541,-2.4463914230824,-1.91929493161966,1070.38420447712,2469.72361458433
0.81,4.5682547897757,0.102759744276615,11.6331355133304,-4.97989285047579,1.12254863757711,4.42937873133764,-2.25002646911727,12.4525722468091,-0.225716138670004,1105.67924955629,2469.72361458433
0.82,4.52002505172897,0.0976239113407686,14.0467496703944,-4.74051670715076,-4.47993526240921,-0.608553153755258,-13.1354734259066,-6.87335528186945,1.72740438660431,1141.39616244897,2469.72361458433
0.83,4.43904853993779,0.0480075624010126,18.097822356377,-2.26709804699111,3.144688121953,-3.13343155049209,14.5401524751112,-11.0115790692419,-2.34358709759384,1176.77165366551,2469.72361458433
0.84,4.51026144728711,0.104303237075077,14.5394551159687,-5.04432852976256,-0.469859185280879,4.48693323263852,-6.85157459399009,13.7803095381938,0.1274585971791,1211.82991595357,2469.72361458433
0.85,4.51172674682412,0.0702420657445662,14.4685440989419,-3.32708398595228,-1.33282459668062,-4.31093850342259,-0.864441050716612,-14.820964808758,2.85730942464425,1246.93314920985,2469.72361458433
0.86,4.49922052101387,0.0830501358089411,15.0961429321865,-3.96521137296851,1.98202655656204,4.03998185031233,2.80636049179091,15.353852072084,-0.437644969867184,1282.21009014372,2469.72361458433
0.87,4.47709448233759,0.109364128349693,16.2048573761335,-5.27853260901915,-1.56585053066807,-4.19576544053096,-0.304509069863231,-17.0401755657528,2.808825530387,1317.40884418783,2469.72361458433
0.88,4.47906001574878,0.0488928455063704,16.1090230908164,-2.246043684287,-0.0849008864637073,4.47852218644709,-2.72615496154746,16.0347565088408,0.0298705120888212,1352.58368099427,2469.72361458433
0.89,4.50181481093909,0.0813778860740659,14.9737629113196,-3.86492814362749,2.66076098307346,-3.63225961947744,12.1416449007118,-9.57766695938173,-2.49128778788657,1387.78368339481,2469.72361458433
0.9,4.46024601740031,0.129392663944096,17.0546858996291,-6.31213448053752,-4.0819262811459,1.80233593775087,-18.1758106457203,0.587588466802893,1.18400159158125,1423.11964440174,2469.72361458433
0.91,4.51661374479203,0.119184623232582,14.2388252182562,-5.79150851905419,3.3891173083204,2.98795725613712,6.48522267739195,13.9365562943995,-0.821840050575133,1458.30943829615,2469.72361458433
0.92,4.41714109944563,0.10565147373694,19.214949725612,-5.0927282779374,2.29893832854114,-3.77321882321699,14.6717064216502,-13.4123526999407,-2.57046522200554,1493.26185135206,2469.72361458433
0.93,4.46098691375161,0.14001495015106,17.0252357355372,-6.78222160774139,-3.63495313203206,-2.58981160682766,-9.44232499112304,-15.7066763049711,2.22122174342836,1528.18154500674,2469.72361458433
0.94,4.39911203567954,0.136300013077836,20.1215994281074,-6.64607297643886,-3.59498484121805,2.53906447091011,-20.4513909456843,5.54884293705846,0.98684190416093,1563.52481180557,2469.72361458433
0.95,4.4423677541408,0.131532547410983,17.9614413932707,-6.36470186959708,0.0904361708651128,4.44339435263827,-6.53056826379433,17.9018011653764,0.00924987255655819,1598.31797510997,2469.72361458433
0.96,4.4982967050579,0.155955474195445,15.1676023097211,-7.61829558027429,3.0557519743859,3.30475040323819,4.13591375586207,16.4617375990007,-0.711614525436894,1633.52699093804,2469.72361458433
0.97,4.46301900239457,0.0645551025921071,16.9341523807424,-3.0040653714995,4.14403909251496,1.65820564970497,14.4733157617392,9.29048203654895,-1.17570377902399,1668.36369917274,2469.72361458433
0.98,4.39976662331821,0.0556048512381329,20.0995183675152,-2.5947351711213,4.33327257284511,0.764059584439913,19.2656660565727,6.28946743460498,-1.38362891122626,1703.50531948091,2469.72361458433
