t,iq,id,vq,vd,ia,ib,va,vb,theta_e,omega,r
0,0,0,0,0,0,0,0,0,0,0,0
0.01,0.000486059962254588,0.000272165452530217,-0.0234164328929774,-0.0136140968329205,0.000245588656388864,0.00050001453209984,-0.012333003501274,-0.0241157622032772,0.0538911893999082,-0.00262040501444974,0
0.02,0.000622902658137649,0.000344783143646521,-0.0300982236696428,-0.0172465385475734,0.00031074366775517,0.000640563432150003,-0.0156009234165155,-0.0309831784762764,0.0538696590982276,-0.00316502783148862,0
0.03,0.000678261958354281,0.000374321826641723,-0.0328209396663628,-0.0187241046229188,0.00033727502246117,0.000697425030576619,-0.0169305331063771,-0.0337811074899404,0.0538463368981612,-0.00322927534823079,0
0.04,0.000672572207575029,0.000371323018238747,-0.0326238308344305,-0.0185740930349527,0.000334602103902361,0.000691574717829097,-0.0167920911484557,-0.0335758387124815,0.053824185727222,-0.00296046327805179,0
0.05,0.00068766126936897,0.000380724051324333,-0.0334149199100892,-0.0190443433816411,0.000343192530469236,0.00070714051763216,-0.0172198197453307,-0.0343907210650468,0.0538032958242801,-0.00282274158221615,0
0.06,0.000689971888814188,0.000382991392692284,-0.0335913390999881,-0.0191577632306014,0.000345346242607201,0.000709562954886514,-0.0173242658980309,-0.0345726447588913,0.0537836913249438,-0.00262641828999284,0
0.07,0.000697623416488941,0.000388548920004847,-0.0340170668908314,-0.0194357501865348,0.000350497242235238,0.000717495907762635,-0.0175795911563981,-0.0350123863788599,0.0537657993215431,-0.00247861807571556,0
0.08,0.000689672963832441,0.000384876562625758,-0.0336943548421454,-0.0192520540395731,0.000347269453904042,0.000709353714225302,-0.0174140899297077,-0.0346799741189509,0.0537488743386766,-0.00225283220536637,0
0.09,0.000686305272142913,0.000383988321033965,-0.0335855402811525,-0.0192076280559413,0.000346574320708931,0.000705937814178263,-0.017376107858296,-0.0345686616346246,0.05373342945197,-0.00206879741525724,0
0.1,0.00068424191989388,0.00038377232826828,-0.0335347577439789,-0.0191968193941408,0.00034647943723578,0.000703860926928961,-0.0173685316150302,-0.0345171256239031,0.0537192507004474,-0.00190566875576837,0
0.11,0.000682614598669933,0.000383718746421235,-0.0335009586381259,-0.0191941426277641,0.000346522465342405,0.000702228558010438,-0.0173681231167295,-0.0344830050936762,0.0537062119362512,-0.0017571855633946,0
0.12,0.000681188203404582,0.000383704485539736,-0.0334732424938592,-0.0191934390468179,0.000346593201517249,0.000700799296049089,-0.0173693216989258,-0.0344550827776664,0.0536942156277949,-0.00162097510507794,0
0.13,0.000704246914634062,0.000397428067081018,-0.0346130969547396,-0.019879902574888,0.000359067763184674,0.000724557193544378,-0.0179940290299808,-0.0356299302055653,0.0536827839104751,-0.00162939174363488,0
0.14,0.000716972762997553,0.000405351732841304,-0.035332675924262,-0.0202762576805943,0.000366305162079864,0.000737685907708313,-0.0183515960706911,-0.0363695413107861,0.0536719681494473,-0.00158589933252204,0
0.15,0.000687475459061167,0.00038892332399759,-0.0338825001043076,-0.019454482239568,0.000351489971528944,0.00070734620849714,-0.0176091526147271,-0.0348771907802123,0.0536618697039176,-0.00131106380650751,0
0.16,0.000679037495805581,0.000384956377796081,-0.0335087029881778,-0.0192560517330151,0.000347987377927155,0.00069870460018464,-0.0174313560683458,-0.0344931374321475,0.0536531925729565,-0.00117061710237387,0
0.17,0.000676178257446565,0.000383997848189834,-0.033398485465474,-0.0192081001653744,0.000347189004856769,0.000695795356526948,-0.0173896531621208,-0.0343803709440674,0.0536453690976488,-0.00107086659157181,0
0.18,0.000674833381341984,0.000383765654156172,-0.033358351855588,-0.0191964916777355,0.000347034226756012,0.000694437481234436,-0.0173804590940763,-0.0343395482342695,0.0536382120512434,-0.000986807360613119,0
0.19,0.00067393322186385,0.000383708869023895,-0.033337497680385,-0.0191936526785663,0.000347030343089463,0.000693533290242506,-0.0173789678671771,-0.0343184575790745,0.0536316370321928,-0.000911481775472518,0
0.2,0.000673193368782254,0.000383694487591514,-0.0333225226421811,-0.0191929317657457,0.000347059832590047,0.000692791631143941,-0.0173792581955378,-0.0343033603248439,0.0536255894188251,-0.000842696832929504,0
0.21,0.000672535821948952,0.000383690396252963,-0.0333098503728986,-0.0191927213948673,0.00034709484289979,0.000692132878870581,-0.0173799181671228,-0.0342905982874316,0.0536200249918698,-0.000779538390269357,0
0.22,0.000671936590905374,0.000383688838193646,-0.0332984661153336,-0.0191926506202234,0.00034712894336169,0.000691532648132048,-0.0173806331472709,-0.0342791376038542,0.0536149046432534,-0.000721454717627506,0
0.23,0.000671386836409853,0.000383687936950526,-0.0332880683082859,-0.0191926088387326,0.000347160760131024,0.000690981999541979,-0.0173813101049582,-0.0342686706011334,0.0536101928013037,-0.000668014012681792,0
0.24,0.00067088137795296,0.000383687235950263,-0.033278519345306,-0.0191925742362563,0.000347190138764242,0.000690475724309031,-0.017381935774872,-0.0342590581357448,0.0536058568400904,-0.000618838826277859,0
0.25,0.000670416315615895,0.000383686621677828,-0.0332697338963565,-0.0191925424546329,0.000347217196695096,0.000690009911680792,-0.0173825114259542,-0.0342502142465391,0.0536018667652846,-0.00057358703928305,0
0.26,0.000674167750344207,0.000386105163704724,-0.0334608700188667,-0.0193135161524005,0.000349433743245542,0.000693884293038133,-0.0174931934399759,-0.034447495001235,0.0535983132245987,-0.000556864728558458,0
0.27,0.000664769536538585,0.000380769006293961,-0.033024277594905,-0.0190465894455074,0.000344611236168199,0.00068421244417976,-0.0172501636924823,-0.0339971665400754,0.0535946592331889,-0.000464636259661759,0
0.28,0.000663812123204106,0.000380473634891802,-0.0329158351744647,-0.019031823481977,0.000344369707581008,0.000683239508709131,-0.0172413337801444,-0.0338880350531469,0.0535915402330796,-0.000425901812119087,0
0.29,0.000667478337772596,0.000382909365355832,-0.0331733313936028,-0.0191536658866507,0.000346607433064127,0.000687029985384605,-0.0173493014979048,-0.0341516408124418,0.0535888096328312,-0.000417488601473467,0
0.3,0.000657575632866657,0.000377761890366826,-0.0327064490190972,-0.0188961803774648,0.000341998995108433,0.000676865160942949,-0.0171172543763845,-0.0336716058855326,0.0535869962229144,-0.000342063970476409,0
0.31,0.00066550902528022,0.000382254267467685,-0.0330929140574469,-0.0191208968171284,0.000346061537666951,0.000685027006675117,-0.0173210251120461,-0.0340695134243609,0.0535847521832507,-0.000363001621381175,0
0.32,0.000667396553116604,0.0003833385260055,-0.0331906073656414,-0.0191751335720461,0.000347044686646206,0.000686969118740158,-0.0173700283032721,-0.034169932419446,0.0535825089763835,-0.000349725892303811,0
0.33,0.000667714161452848,0.000383600041859907,-0.0332128712380728,-0.0191882143756113,0.000347290267947019,0.000687299544091868,-0.0173819701306416,-0.0341928282126341,0.0535803979867698,-0.000328975113852841,0
0.34,0.000667634138948093,0.000383662956060133,-0.0332156166214663,-0.0191913605163175,0.000347358720861669,0.00068722232674958,-0.0173850315754131,-0.0341957041619761,0.0535784431395648,-0.000307641681932767,0
0.35,0.0006674629015604,0.000383677942710796,-0.0332134905810125,-0.0191921077239036,0.000347384094400968,0.000687051511634635,-0.0173859531872277,-0.0341935898558846,0.053576641018658,-0.000287423155026829,0
0.36,0.000667279730757038,0.00038368137508702,-0.0332103128544193,-0.0191922758992066,0.000347398470491278,0.000686868211062481,-0.0173863480206684,-0.0341903968474172,0.0535749818116088,-0.000268663572626886,0
0.37,0.000667104475992392,0.000383682032890334,-0.0332070679002862,-0.0191923058302243,0.000347409560760051,0.000686692712459111,-0.0173866038801689,-0.0341871316013669,0.0535734547398732,-0.000251360096612338,0
0.38,0.000666941319932349,0.000383682034479712,-0.0332039901412424,-0.0191923152495749,0.000347419263789972,0.000686529302334014,-0.0173868261326491,-0.0341840343284964,0.0535720494258124,-0.000235426347628976,0
0.39,0.000666790861568553,0.000383681890172789,-0.0332011413892872,-0.0191923029049864,0.000347428063841287,0.000686378602793962,-0.0173870105502653,-0.0341811665171503,0.0535707561993729,-0.00022076086979001,0
0.4,0.000666652094505327,0.000383681722170896,-0.0331985029178395,-0.0191923035067934,0.000347436143054473,0.000686239612333619,-0.0173871931033201,-0.0341785111710637,0.0535695661304367,-0.000207264539811891,0
0.41,0.000666524569955382,0.00038368155905802,-0.0331960819347571,-0.0191922881759251,0.00034744355973036,0.000686111881486755,-0.0173873448509376,-0.0341760737985134,0.0535684709932325,-0.000194844630894112,0
0.42,0.000666407048686132,0.000383681406890393,-0.0331938438945357,-0.0191922872455337,0.00034745039153474,0.000685994170495864,-0.0173874981925509,-0.0341738213961202,0.0535674632160164,-0.000183415416967225,0
0.43,0.000666299140117706,0.00038368126635293,-0.0331917945894269,-0.019192271848848,0.000347456664904777,0.000685886086959804,-0.0173876242319706,-0.0341717580811199,0.0535665358294505,-0.000172897906508799,0
0.44,0.000666199546810171,0.000383681136895472,-0.0331898924076321,-0.019192272308206,0.000347462453206354,0.000685786333044996,-0.0173877556960683,-0.0341698438134617,0.0535656824212677,-0.000163219381962652,0
0.45,0.000666108169215027,0.000383681017726618,-0.0331881538105555,-0.0191922554005402,0.000347467765068825,0.000685694807255243,-0.017387858730533,-0.0341680931495991,0.0535648970902063,-0.00015431291936141,0
0.46,0.000666023884522271,0.000383680908048697,-0.0331865423659737,-0.0191922558035983,0.000347472663570716,0.000685610386463245,-0.0173879701001963,-0.0341664714718099,0.0535641744055005,-0.000146116931434354,0
0.47,0.000665946351918162,0.000383680807111276,-0.0331850591928829,-0.0191922561807991,0.000347477169666195,0.000685532728569132,-0.0173880726047487,-0.034164978882425,0.0535635093697991,-0.00013857474328129,0
0.48,0.000665875172383371,0.000383680714219334,-0.0331837010313976,-0.0191922406586776,0.000347481307202724,0.000685461433492161,-0.0173881507256352,-0.0341636111964817,0.0535628973844661,-0.000131634200872802,0
0.49,0.000665809455932151,0.000383680628732583,-0.0331824387638467,-0.0191922395369795,0.000347485126111222,0.000685395611019479,-0.017388236423022,-0.0341623408866888,0.0535623342178334,-0.000125247310506999,0
0.5,0.000665749036380303,0.000383680550061044,-0.0331812781877436,-0.0191922398500409,0.000347488637387245,0.000685335093821412,-0.017388316572848,-0.0341611729803932,0.0535618159755164,-0.000119369906967616,0
0.51,4.733667890164,0.0159172006531673,3.31718902015093,-0.790993518772144,-0.497832210765444,4.70744390742691,-1.14627466092313,3.21177025079239,0.108725164956678,33.6908519471589,1035.09902277702
0.52,4.71530240636942,0.0333185227481141,4.23606110199615,-1.6552565623883,-2.21446830346681,4.16308984294264,-3.47156890556537,2.93807714008432,0.495929289811565,71.9795968259134,1035.09902277702
0.53,4.71378605801993,0.0268982508753621,4.31257823622035,-1.32710892862371,-4.32178746944326,1.88219435384511,-4.48658994685463,0.479645494857565,1.16576116389311,110.992121713951,1035.09902277702
0.54,4.73622316111055,0.0325411810907614,3.19142771186301,-1.60221462209512,-4.03301964438798,-2.48346961090476,-1.85649434027495,-3.05052967529078,2.12961165009723,152.63804940645,1035.09902277702
0.55,4.7327633065961,0.0229117054539576,3.36518349716736,-1.11853739647109,1.22048150852993,-4.57274516563582,1.96282779825644,-2.95345440311911,-2.87592815549347,195.177637923241,1035.09902277702
0.56,4.72408104669894,0.047599427839875,3.80004173986067,-2.34415439665621,4.56766570018156,1.20649802846739,3.04261544785699,3.26770076605983,-1.30247982702589,233.799312975224,1035.09902277702
0.57,4.69164477425003,0.0217376857927813,5.42271947039036,-1.04318226103667,-2.45673047535103,3.99705874190169,-3.74708574411454,4.05628698572301,0.555744017999492,274.157720483,1035.09902277702
0.58,4.72008625833387,0.0543223995842084,4.00160128832454,-2.67032046457338,-1.98568158606199,-4.28243316912047,0.793907504955253,-4.74480085228197,2.71892854675888,314.903856859712,1035.09902277702
0.59,4.56386784811428,0.0177544903879014,6.68947315760178,-0.831980726098784,4.10439873842266,1.99577452459306,5.63780749791714,3.6954525665071,-1.1143167958908,354.325982619714,1035.09902277702
0.6,4.35784117065602,0.0593608981540688,5.08000516869714,-2.91288819156109,-4.3540656089366,-0.190829918958805,-4.90446442213846,-3.19962480027014,1.62821706757792,392.46406550268,1035.09902277702
0.61,4.14011280048585,0.0324697954338093,4.67984646285295,-1.57278448383672,4.12654881485937,-0.33642706036376,4.78271300616388,1.22485519517438,-1.64430130629899,429.35270007386,1035.09902277702
0.62,3.89416013099146,0.068295073663922,6.73606372954689,-3.35191071455197,-3.89206388712784,-0.144865597729371,-6.54258351897146,-3.71543549319975,1.62553593910826,462.798847791848,1035.09902277702
0.63,3.71934673345622,0.0677089930836545,5.33984474357284,-3.32371151540474,3.40968677605231,1.48733342617917,3.47065284484747,5.24552847229416,-1.14126811237024,495.362652086842,1035.09902277702
0.64,3.49552127702697,-0.0261234485687846,6.86759550424559,1.36500401814015,-1.75912721142137,-3.0207321772627,-4.67468613023584,-5.21290835937614,2.60677798505659,526.631047982942,1035.09902277702
0.65,3.33884359993338,0.0255901023771967,5.60885959815605,-1.22620694226766,-0.935720769415543,3.20514556297216,-2.78747446967899,5.01925049563981,0.291713245443785,556.157121343896,1035.09902277702
0.66,3.18883907540944,0.0134487045620517,4.57298582929149,-0.621445773151488,3.09144691898041,-0.782196563300451,4.58786360366117,-0.499901788424237,-1.81439750603992,583.918900812852,1035.09902277702
0.67,2.98353168022306,0.0421070662349693,6.73671472001111,-2.05795851768884,-1.6719160492083,-2.47142287282474,-1.97498440903892,-6.76150538440927,2.56092586664071,610.201631545296,1035.09902277702
0.68,2.85124915067911,-0.0134743292541661,5.65284663075419,0.721545593696277,-2.13384077375298,1.89117075618953,-3.73158348292754,4.3070393293484,0.84089005791565,635.117003129908,1035.09902277702
0.69,2.66615605846236,0.0371487348287383,7.56867995906169,-1.81318398242724,1.74755716734622,2.01390469075172,3.49446176436963,6.95422817099004,-0.700774035932303,658.784596449733,1035.09902277702
0.7,2.59140621210453,0.0439462032121253,4.33897024498852,-2.1525613349291,2.24962332043774,-1.28705568685018,4.83926151974683,-0.20428174422865,-2.07350710279268,681.20538883227,1035.09902277702
0.71,2.41375608098889,0.0293184632912469,6.62325673809008,-1.4209404612676,-0.376264289963437,-2.38442931849508,0.453315955170354,-6.75877993856221,2.99722847014774,702.409181707881,1035.09902277702
0.72,2.3095838093997,0.010991994790493,5.59454931909442,-0.500484864107274,-2.16079461137705,-0.815637691646615,-5.04564047920952,-2.46799095167358,1.93649100974547,722.456567297759,1035.09902277702
0.73,2.18740288535416,0.0459185748561861,5.79767821019131,-2.24295770059474,-1.83948722236207,1.18453647353689,-6.11377121702316,1.12504816851704,1.01967565233548,741.479168720908,1035.09902277702
0.74,2.09187129678672,0.0140256780476665,4.97624719431484,-0.643045320793775,-0.482232410217447,2.03557710355091,-1.80429081442193,4.68199509616506,0.239318458844619,759.560869966482,1035.09902277702
0.75,1.94895461484969,0.0224868592578967,6.76257095104547,-1.08474851247927,0.799992854033062,1.77734104298506,1.71009909766407,6.63208913385658,-0.411405137716581,776.912140666073,1035.09902277702
0.76,1.82127482147089,-0.0119715268283752,7.99408342185591,0.632087315051759,1.46297604383848,1.08484394635041,6.82558041537483,4.20908019912812,-0.939309691708008,793.299068463568,1035.09902277702
0.77,1.7675550602443,0.0157399830972442,5.87569174484625,-0.74415221291986,1.72845400534313,0.370061332047023,5.57203775153503,2.00746389554492,-1.35097622117238,808.614518711875,1035.09902277702
0.78,1.65332268677058,0.0295025421131705,7.06784385689186,-1.42465723828904,1.64538282484039,-0.164504304812013,7.16062256863806,0.842347589492971,-1.6526020326333,823.137952016971,1035.09902277702
0.79,1.57032003007904,0.00841362229026521,6.8617478596303,-0.39535427758454,1.50722103055337,-0.440749986914481,6.70508679576259,-1.51052962739416,-1.84993185785987,837.173374775648,1035.09902277702
0.8,1.49412925905639,-0.000111652318649902,6.52553272415904,0.0399336811742035,1.38899614625452,-0.550556047033112,6.05147202318371,-2.44210122345236,-1.94824398805881,850.244495951875,1035.09902277702
0.81,1.43769843186558,0.0497693899188711,5.49912431788045,-2.44256194791958,1.31529690865382,-0.582621502561792,6.01336527475992,0.214278335910017,-1.95317526290723,862.561505442888,1035.09902277702
0.82,1.32770538912647,0.00113152672059819,7.25281019237209,-0.0366360806164881,1.26871662968396,-0.391357885102064,6.94316038149487,-2.09693152149027,-1.86915103797828,874.535484796447,1035.09902277702
0.83,1.25211789631167,-0.00784090183190883,7.52013547503751,0.426682479102283,1.24254899224083,-0.154701997035612,7.40118764047478,-1.39889849931074,-1.7009246962066,885.581679011417,1035.09902277702
0.84,1.16966233007878,-0.00671990907171349,8.32641689254265,0.368949871561991,1.16078428419559,0.143996420607579,8.31214958027165,0.611155979546188,-1.45312097402829,896.242674720513,1035.09902277702
0.85,1.11331136067823,0.0211338958113221,7.92310389150011,-1.03510272169465,1.01555147010442,0.456688119985752,6.72072730530668,4.32190205900934,-1.12921567612354,906.318281174927,1035.09902277702
0.86,1.04380691091047,0.0407054911650033,8.41941294836139,-1.99799539316642,0.729276600342592,0.747894006172127,4.15480674585814,7.59052573216911,-0.733818011787985,915.769696231722,1035.09902277702
0.87,0.980017929592675,-0.00917119884007966,8.71636587180552,0.472403051932186,0.25287106376395,0.946876696472231,2.7829119581326,8.27366905840048,-0.270325696623723,924.886857006995,1035.09902277702
0.88,0.991190210295448,0.0418541810461652,5.46824247463534,-2.05797454132416,-0.211937171854459,0.969171006914112,-3.38264226564321,4.76389192539341,0.257490883436395,933.333852696319,1035.09902277702
0.89,0.904808449291542,0.0221194611884831,7.19328036105175,-1.09714280629479,-0.662874869313285,0.616250361545963,-6.1136062220278,3.94598829852296,0.846274040249276,941.504583461058,1035.09902277702
0.9,0.877533383092493,-0.00691085256774637,6.13688682164056,0.377856370210993,-0.875392782200109,0.0616447499542445,-6.088632147638,0.855987072848442,1.49261769811035,949.061777064119,1035.09902277702
0.91,0.809733130520417,-0.0240110927014019,7.20099042934388,1.20768348626008,-0.643783814880916,-0.491718084813325,-6.55400736493199,-3.21834585259334,2.19342276781641,956.364419966585,1035.09902277702
0.92,0.795257335443825,0.0142074161647195,5.74646112324568,-0.680255980530408,-0.168662544184562,-0.777295970940594,-0.450784828658041,-5.76899962543534,2.94578205112443,963.130968182162,1035.09902277702
0.93,0.747175867175474,-0.0373948931554622,6.04853281139276,1.87681084308153,0.423317514109463,-0.616824478090578,1.57039438737188,-6.13522856781344,-2.59013726525873,969.679486834743,1035.09902277702
0.94,0.648013186525899,-0.00770264793105407,9.04979096665881,0.412701243637169,0.639766977055151,-0.103337484807368,8.84556918457568,-1.95574657294961,-1.74282283471794,975.744163744544,1035.09902277702
0.95,0.671831331055296,0.0247618411651954,5.96325060075903,-1.23139023749506,0.521786131747542,0.423921831097854,3.67550422662874,4.85462133687946,-0.851673160601726,981.596685492419,1035.09902277702
0.96,0.603770098646459,0.0512765077378499,7.60457187762432,-2.53925394087622,0.00237367139832707,0.60593892262293,-3.14479906501759,7.37479239428979,0.0808065782767797,987.057432890267,1035.09902277702
0.97,0.586925764946194,0.0353441127673256,6.71948149508922,-1.75688308762953,-0.492393711404631,0.321371269459728,-6.70768195847335,1.80140847406032,1.05269188797704,992.326075243511,1035.09902277702
