t,iq,id,vq,vd,ia,ib,va,vb,theta_e,omega,r
0,0,0,0,0,0,0,0,0,0,0,0
0.01,0.000576913444969177,0.000321962807847483,-0.0280892514518591,-0.0161149208217539,-0.000387597354931151,0.000535030338460927,0.0186867697150559,-0.0264480879806771,1.13596511208042,-0.00287242611726867,0
0.02,0.000646485495057446,0.000360610013043768,-0.0316141571521281,-0.0180492961450477,-0.000434402065335958,0.000599397966679027,0.0210681565918266,-0.0296877887622733,1.135944046151,-0.00292086909761692,0
0.03,0.000672670836190228,0.00037604427642713,-0.0329456758166124,-0.0188218092887331,-0.000451635628457732,0.0006244362343763,0.0219496839612325,-0.0309497889155447,1.13592374506236,-0.00274653510013286,0
0.04,0.000655167409938887,0.000367653234111094,-0.032162934555747,-0.0184018133493484,-0.00043928572051881,0.00060945983571245,0.0214162066660864,-0.0302394971158086,1.13590612575642,-0.00237762675248023,0
0.05,0.000669283988580896,0.000376475344265353,-0.0328988776440354,-0.0188433780194639,-0.000448361317643171,0.000623415488299536,0.0218971076649324,-0.030950375140408,1.13588991217705,-0.00220163154059597,0
0.06,0.000668542756462812,0.000377018720312299,-0.0329133669119289,-0.0188705791415129,-0.000447451045479611,0.000623602513291938,0.0218983353156115,-0.0309814684774689,1.13587531380986,-0.00197040999235217,0
0.07,0.000683599878806408,0.000386486469238941,-0.0336826772173572,-0.0193444686404385,-0.000457109124778427,0.000638538826739,0.0223959525442909,-0.0317356663888353,1.1358625575234,-0.00185331289057094,0
0.08,0.000666646711877107,0.0003776343414681,-0.0329062319571826,-0.0189014012275101,-0.000445456853426388,0.000623372862778021,0.0218781181317104,-0.031006951107746,1.13585080522441,-0.00157869649797,0
0.09,0.000664262305661443,0.000377086025045699,-0.0328265356314061,-0.0188739478252242,-0.000443519126174079,0.000621875442291463,0.0218170931145041,-0.0309486961938999,1.13584056985283,-0.00140649235141428,0
0.1,0.000663026810349976,0.000377051010128948,-0.0327981935673034,-0.0188721927404875,-0.000442407787112778,0.000621327100152648,0.021791848916785,-0.0309353597182969,1.13583149797222,-0.00125861250787492,0
0.11,0.000661991370309878,0.000377047842356144,-0.0327759807670888,-0.0188720423019958,-0.000441465097748103,0.000620891469791969,0.0217715188456154,-0.0309260385928736,1.13582344614441,-0.00112769141071794,0
0.12,0.000661076536601546,0.000377046754772616,-0.0327564665837599,-0.0188719892995194,-0.000440631475386482,0.000620508134860767,0.0217536231512752,-0.0309179230053776,1.13581629889467,-0.00101150159829626,0
0.13,0.000691692362837447,0.00039462021703826,-0.0342553712062527,-0.0197515771574883,-0.000460986496656765,0.000649349590284845,0.0227420722272804,-0.0323473864090368,1.13580938343274,-0.00106947030815827,0
0.14,0.000717450094186101,0.000410126253977386,-0.0356236455750785,-0.0205276808196032,-0.000477807163498783,0.000674268860587834,0.0236556699452672,-0.0336279509237613,1.13580320168585,-0.00111258067688899,0
0.15,0.000662722070433903,0.000379088598496773,-0.0329000475640671,-0.0189741879011022,-0.000441251700335698,0.000623061509885903,0.0218401866208153,-0.0310715172560365,1.13579758948611,-0.000729203768735747,0
0.16,0.000658414525963151,0.000377169994855775,-0.0327072443638522,-0.0188781551162606,-0.000438151172153791,0.000619508227030961,0.0217056754767502,-0.030903272101322,1.13579329544969,-0.000639070476176241,0
0.17,0.00065767156955514,0.00037705095789484,-0.0326843697364196,-0.0188721914208278,-0.000437525241806347,0.000619088831293891,0.0216873281138207,-0.0308883057705474,1.13578953164218,-0.000576470389730092,0
0.18,0.000657226227818474,0.000377043183835305,-0.0326743684549901,-0.0188718100274752,-0.00043712258645526,0.000618895565842758,0.0216783159256767,-0.0308838175469309,1.1357861939762,-0.000522113852735915,0
0.19,0.000656845904307881,0.00037704233245283,-0.0326662091645186,-0.0188717704694333,-0.000436776209871345,0.000618735811924549,0.0216708417320379,-0.0308804073881162,1.13578323148245,-0.00047394780652765,0
0.2,0.000656509352976667,0.000377041950460437,-0.03265901375974,-0.018871754121554,-0.000436469537682577,0.000618594783059161,0.0216642421663512,-0.0308774172291169,1.13578060180025,-0.000431198414598788,0
0.21,0.000656210694832511,0.000377041634403764,-0.0326526277344426,-0.0188717377112528,-0.000436197385056184,0.00061846965273696,0.0216583857592822,-0.0308747616753317,1.1357782675273,-0.000393251734011903,0
0.22,0.000655945622509723,0.000377041355217567,-0.03264695773496,-0.0188717227002056,-0.000435955837313026,0.000618358594301612,0.0216531862067301,-0.0308724034392917,1.13577619547817,-0.000359567866847565,0
0.23,0.000655710352509158,0.000377041107433087,-0.0326419228045136,-0.0188717076388653,-0.000435741447262664,0.000618260021527749,0.0216485697899412,-0.0308703077346611,1.13577435619511,-0.000329667918527859,0
0.24,0.00065550145057758,0.000377040887451047,-0.0326374472802223,-0.0188716910771723,-0.000435551085732284,0.00061817249553552,0.0216444676942733,-0.0308684419320618,1.1357727235299,-0.000303126816238041,0
0.25,0.000655316000970079,0.000377040692150801,-0.0326334706337153,-0.0188716915534677,-0.000435382095411147,0.000618094795043908,0.0216408164975978,-0.0308667978418248,1.13577127427229,-0.000279567239929829,0
0.26,0.000661917442306555,0.000380816035065816,-0.0329556692724417,-0.0190606484354789,-0.000439776867881342,0.000624301096802959,0.0218533351165534,-0.0311739667071597,1.13577006864858,-0.00029651011954112,0
0.27,0.000641941132434303,0.000369487543482162,-0.0319980145506763,-0.0184936275453318,-0.000426434524596164,0.000605609658552406,0.0212237963081023,-0.0302562004429328,1.13576864643585,-0.000166320695212533,0
0.28,0.000640902214055406,0.000368846276819633,-0.031851230875331,-0.0184615364977181,-0.000425762011482698,0.000604590715677171,0.0211041779836917,-0.0301652599816888,1.13576763117461,-0.000144899758210942,0
0.29,0.000653789842884848,0.000376533735410183,-0.0325747670734598,-0.0188463148911481,-0.000434209053421721,0.000616993768597344,0.0215981413450566,-0.0308191389449061,1.13576693157023,-0.000203721270740211,0
0.3,0.000648766000872775,0.000373940929892347,-0.0323323278910196,-0.0187165394679669,-0.00043074591512596,0.000612525182779864,0.0214329790342304,-0.0305992759101683,1.1357670408818,-0.000178248198506943,0
0.31,0.000654262449929394,0.00037684849737905,-0.0325996632335067,-0.0188620584666876,-0.000434504602409765,0.000617478658618411,0.0216140644124769,-0.0308439218017439,1.13576630649673,-0.000196548053688621,0
0.32,0.00065455890949338,0.000377028089033741,-0.0326164077012218,-0.0188710532394675,-0.000434697315588397,0.000617766776168676,0.0216254362078257,-0.0308591511633162,1.13576558342826,-0.000186897688353376,0
0.33,0.000654503147044073,0.00037703910631903,-0.0326159184568299,-0.0188716078307109,-0.000434641704350733,0.000617753547965156,0.0216247388473719,-0.0308594618987709,1.13576493663364,-0.000176529599123352,0
0.34,0.00065443143523675,0.000377039715086304,-0.0326144118787212,-0.0188716429911435,-0.000434576060580877,0.000617724127542708,0.0216233400509507,-0.0308588712758746,1.13576436215285,-0.000167200846608384,0
0.35,0.000654366539060064,0.00037703968871743,-0.0326130122876168,-0.0188716290684425,-0.000434516905162842,0.000617696975415364,0.0216220609533531,-0.0308582798337595,1.13576385218326,-0.000158911326570691,0
0.36,0.000654308564229852,0.000377039630283585,-0.0326117485415702,-0.0188716292777508,-0.000434464075335822,0.000617672686195126,0.0216209008602175,-0.0308577572180499,1.13576339949996,-0.000151552412492225,0
0.37,0.000654257108657656,0.000377039576247035,-0.0326106239736629,-0.0188716294725092,-0.000434417187114871,0.00061765112630418,0.0216198685573891,-0.030857292144006,1.13576299766916,-0.000145020128451559,0
0.38,0.000654211473851545,0.00037703952814548,-0.0326096246152499,-0.0188716296542807,-0.000434375602885919,0.000617632005259339,0.0216189512002651,-0.0308568788498836,1.13576264097884,-0.000139221653292684,0
0.39,0.00065417096131959,0.000377039485437591,-0.0326087341984646,-0.0188716298246131,-0.000434338686308399,0.000617615030410315,0.0216181338789917,-0.0308565105910136,1.13576232435775,-0.000134074556464689,0
0.4,0.000654134988985181,0.000377039447525658,-0.0326079401250394,-0.0188716299847977,-0.000434305906990545,0.000617599957867726,0.0216174050292275,-0.0308561821566376,1.13576204330436,-0.000129505664804644,0
0.41,0.000654103154758433,0.00037703941387169,-0.0326072369857944,-0.0188716145410591,-0.000434276898051288,0.000617586619428071,0.0216167661941623,-0.0308558772123075,1.13576179382384,-0.000125450024968825,0
0.42,0.000654074865835258,0.000377039383997655,-0.032606608162746,-0.0188716146847493,-0.000434251119911197,0.000617574766371338,0.0216161890488428,-0.0308556171173611,1.13576157236887,-0.000121849980209636,0
0.43,0.000654049720125769,0.000377039357478945,-0.0326060451164409,-0.0188716148213483,-0.000434228206165742,0.000617564230226148,0.0216156723242208,-0.0308553841990766,1.13576137579138,-0.000118654350717235,0
0.44,0.000654027368384001,0.000377039333938911,-0.0326055406125238,-0.0188716149516516,-0.00043420783853086,0.000617554864680668,0.0216152093731925,-0.0308551754697878,1.13576120129697,-0.000115817706026111,0
0.45,0.00065400751957165,0.000377039313042839,-0.0326050892675686,-0.0188716150762996,-0.000434189751684477,0.000617546547855504,0.0216147952369136,-0.030854988714962,1.13576104640436,-0.000113299719156936,0
0.46,0.000653989882650411,0.000377039294493941,-0.0326046846063042,-0.0188716151959545,-0.000434173680461397,0.000617539157783692,0.0216144239750136,-0.0308548212538836,1.13576090891171,-0.000111064593307884,0
0.47,0.000653974282997302,0.000377039278028481,-0.0326043250630584,-0.0188716153110103,-0.000434159465407415,0.00061753262148264,0.0216140941071726,-0.0308546724693461,1.13576078686472,-0.000109080552953054,0
0.48,0.000653960429574019,0.000377039263412656,-0.0326040024490103,-0.0188716154221167,-0.000434146841619476,0.000617526816838935,0.021613798153496,-0.0308545389483505,1.13576067852837,-0.000107319392106421,0
0.49,0.000653948089549918,0.000377039250438324,-0.0326037108025295,-0.0188716155298056,-0.00043413559708966,0.000617521646209009,0.0216135306598717,-0.0308544182122199,1.13576058236176,-0.000105756073337518,0
0.5,0.000653937146509677,0.000377039238921643,-0.0326034493404288,-0.0188716156343465,-0.000434125625479347,0.00061751706095783,0.0216132908737743,-0.0308543099606853,1.13576049699827,-0.000104368371823434,0
0.51,4.65586227398168,0.0238625970110323,7.20798314075612,-1.18557819879933,-0.907250016879238,4.56667497690547,-2.60241125059181,6.82554556835466,0.201239241518336,62.2899853058065,2984.83999936987
0.52,4.62345560892431,-0.0135069974296561,8.82956219393293,0.696492762487054,-3.68083434902695,2.79785323090696,-6.59064438835113,5.91689760356069,0.917932304881013,133.445808964282,2984.83999936987
0.53,4.63889191964242,-0.00215822753829542,8.05914407102281,0.141453266935012,-3.83738015937777,-2.60649888019996,-6.74820875377153,-4.40811646848742,2.16698728717675,208.503658993968,2984.83999936987
0.54,4.61333605020771,0.0497357415150659,9.33852034756129,-2.45523035101841,3.41796871386263,-3.09884382103816,8.61503201506855,-4.36088772358589,-2.29648365656709,286.429343590025,2984.83999936987
0.55,4.58769684209076,0.0561005395760246,10.6221328931276,-2.75291458573198,-0.231864171636725,4.5821772762936,-3.41397397129616,10.4284719704716,0.0627860541479186,357.279795860351,2984.83999936987
0.56,4.58341198245384,0.0219152040678954,10.8382245915503,-1.04493728518406,-0.836046567245644,-4.5065698501707,-0.897664588016653,-10.8514148623244,2.96294215519285,433.715318277431,2984.83999936987
0.57,4.58682344017409,0.0472028774105704,10.6695223404564,-2.28926414469472,-0.49787420257911,4.55996695836412,-3.54020234681227,10.3221317876351,0.119043554484548,506.182719093479,2984.83999936987
0.58,4.55803993743563,0.0415743593399109,12.1107002520907,-1.99192275528764,3.7132150982305,-2.64376438679504,11.0697112905069,-5.30078379146382,-2.18040181094622,579.041716687537,2984.83999936987
0.59,4.53982779826831,0.0206708132874269,13.0234469533925,-0.939498114074889,-3.27405823718072,-3.14499703974435,-8.6971332019083,-9.73923515079305,2.34064443371069,652.772299820499,2984.83999936987
0.6,4.50784941078724,0.0557915539820977,14.6246219687007,-2.68842816210834,-4.02291691151917,2.03468880442284,-14.3146521314911,4.02466744770522,1.1149156958993,726.047499293869,2984.83999936987
0.61,4.48418122492628,0.0526320544452501,15.8103432078721,-2.51543452828022,-1.80127329379937,4.10683161478306,-8.81157433252023,13.3660211356724,0.42507354111657,798.981095495396,2984.83999936987
0.62,4.48368573423246,0.026566045764713,15.8375591910421,-1.19629733104084,-1.17021473597022,4.32836470157788,-5.37691154313986,14.9448396007206,0.269971901557834,872.139421169778,2984.83999936987
0.63,4.46740066063774,0.0710642030081534,16.6543623829218,-3.45306122083047,-2.64590984200213,3.60026108658968,-12.8244218943896,11.172538711107,0.64968686274856,945.796880232973,2984.83999936987
0.64,4.45382037582962,0.109766103916203,17.3360284071646,-5.35082854083242,-4.45265839855777,0.149658689948141,-17.3832651556958,-5.19531900215732,1.5618382816972,1017.41564723473,2984.83999936987
0.65,4.43733017725496,0.0688055504121934,18.1633121738927,-3.32825414144237,-0.676051010675671,-4.38606752532487,0.808582585204902,-18.4480182935515,3.00416499628236,1090.56292704014,2984.83999936987
0.66,4.43646271129072,0.0629176119278678,18.2095211028543,-2.97741042771589,4.29828054395321,1.10042917992802,16.7954834549488,7.63959208105443,-1.30598250021495,1161.9056647532,2984.83999936987
0.67,4.4268349137594,0.108607380141155,18.6938613482479,-5.28079609536166,-4.07974506767882,1.72172677839739,-19.329351405889,1.92962010146011,1.19598292333329,1234.48909306467,2984.83999936987
0.68,4.37160594321822,0.0777777613930593,21.4582876728686,-3.74966639849487,3.8276902210723,-2.11323814901578,20.7206172543136,-6.72117017727031,-2.05745476135546,1306.8284679293,2984.83999936987
0.69,4.34713202126776,0.107418945667143,22.6851140130381,-5.23244618875692,-4.32842237438372,0.416959697278013,-23.0003384256574,-3.60240519764231,1.49946728304452,1378.63023380215,2984.83999936987
0.7,4.37924955736367,0.0828450672249585,21.0824331028502,-3.99204737691248,2.88741099946462,3.29356155415443,10.5446014524314,18.6873435245636,-0.700867295089484,1450.27662929226,2984.83999936987
0.71,4.36348407108227,0.0850758221446,21.8740074391174,-4.08384487235328,2.96115691680994,-3.20605378122872,18.0972182447255,-12.9476129920068,-2.37638838680104,1521.63396586882,2984.83999936987
0.72,4.33712072098146,0.107367337751804,23.1955412721348,-5.16120322378343,-1.73511603478778,-3.97636973122533,-3.96774077197841,-23.4292165210636,2.75489252593752,1592.63533703087,2984.83999936987
0.73,4.25907084710101,0.11430289572212,27.1015406737945,-5.48384368784716,-3.68135346731332,-2.14485110935384,-20.1557261762057,-18.9291508207816,2.12517370983755,1663.86147108602,2984.83999936987
0.74,4.29152833978987,0.0902680400158535,25.4822329978252,-4.32377172656958,-3.90937280690942,-1.77261616456158,-21.1135549231885,-14.9082862531022,2.0175276056952,1735.26269990862,2984.83999936987
0.75,4.27170915945005,0.135050824670938,26.4767881664121,-6.50116314990104,-2.89118516392614,-3.14750476029301,-12.361599599314,-24.2997178843074,2.43021989815594,1805.9363638086,2984.83999936987
0.76,4.26532098278403,0.0889229459195537,26.7999287758673,-4.21379540119894,0.850995047340306,-4.18051166795298,10.0027334366817,-25.2178027962274,-2.91992918284529,1876.83915896983,2984.83999936987
0.77,4.24328702565738,0.0835533514699531,27.905447990365,-3.97962442754594,4.22970769708044,0.34934043841592,27.3545573257988,6.80291346680761,-1.46870309214928,1947.84135316837,2984.83999936987
0.78,4.25590329252659,0.158335277249428,27.278522840912,-7.7285687043674,-1.90297666526451,3.81004759902276,-19.8686547462982,20.2258532866401,0.500404210127546,2018.3993612007,2984.83999936987
0.79,4.01338491641425,0.0855436442238552,31.1158187843718,-4.09376205088756,-3.88260517094592,-1.01978100046655,-28.7956607018218,-12.4805044407951,1.8489598974292,2087.88655559632,2984.83999936987
0.8,3.76772669059425,0.130593690731356,29.9162307482554,-6.35950465631829,3.75746919166117,0.306992509342254,28.9774860643044,9.78414344997256,-1.45462819170618,2153.21659329555,2984.83999936987
0.81,3.51366294460136,0.0464077530393431,29.9823594903446,-2.14873561313486,-3.23141654063093,-1.38055355156681,-26.5433455956985,-14.1070815525652,1.98776013049166,2214.23869510162,2984.83999936987
0.82,3.32910964855752,0.147061509824813,27.3326673884639,-7.15832680469056,1.49297103396277,2.97920050207079,4.62032648059654,27.874162452419,-0.420406623797814,2271.12507753937,2984.83999936987
0.83,3.06969028031579,0.137513921880662,29.2549341113193,-6.64287769070587,1.91426980333364,-2.40363882807323,24.2369816389276,-17.679019059484,-2.4242802796601,2324.29004117514,2984.83999936987
0.84,2.77626968365811,0.0698773633066189,33.5935917255398,-3.37440316875032,-2.23205888864433,-1.65241318075281,-24.4130763830684,-23.3220432913155,2.23323046343554,2374.42570683209,2984.83999936987
0.85,2.66293971816076,0.131029596024225,29.4687836484697,-6.37072712396765,-2.10818414658812,1.63216920129835,-27.8077065535486,11.6501858371488,0.96114760579688,2420.88509939363,2984.83999936987
0.86,2.41743461895139,0.092938994556395,32.7039799502263,-4.55083923065667,0.0470245392514003,2.41876342090788,-5.17094060482279,32.6116821944144,0.0189872604513252,2464.49223542288,2984.83999936987
0.87,2.28630745444755,0.095940259761764,30.6594077020205,-4.62366873145942,1.39632357852703,1.8129221642848,13.8952480533706,27.7182191836396,-0.614369677294573,2505.0938899931,2984.83999936987
0.88,2.09714629926789,0.0890167863839595,32.1577899639236,-4.36694584150917,1.76813833301641,1.13120883311132,23.8217284395316,22.0390318639388,-0.95922235965119,2543.28211332472,2984.83999936987
0.89,1.93280709470944,0.103606661753745,32.8811668330193,-5.00482662059346,1.71465645401576,0.898014949998606,25.7138259650569,21.0954633995515,-1.03479339623775,2578.59504690235,2984.83999936987
0.9,1.8392479759473,0.122981146035897,30.5063213682542,-6.00358229551539,1.47291863559675,1.1083628341921,19.1759797673439,24.4736683757185,-0.858935270184133,2611.75666718209,2984.83999936987
0.91,1.68505287630889,0.12350766385673,31.647934649773,-6.0933884904891,1.68325826288893,-0.145941630127818,31.7262909975386,5.67129706785208,-1.58411673196661,2642.80484720539,2984.83999936987
0.92,1.5591038910899,0.0978507564119508,31.7945002787421,-4.85325396045485,1.32827247572055,0.822235941798498,23.1247640228026,22.3537381855765,-0.953825369038733,2671.77109542719,2984.83999936987
0.93,1.38785623510021,0.085161002031796,34.5853146284212,-4.23764628341778,0.249192623854761,1.36795480984935,-0.105080391100843,34.8438027787102,-0.11890388359891,2698.68981161503,2984.83999936987
0.94,1.28762530414201,0.130885979001079,34.1841656790071,-6.42583036948694,-0.93351687597172,0.896468797918742,-30.8835573933651,16.0016987172597,0.906941584604488,2723.77794624049,2984.83999936987
0.95,1.16666247392387,0.113050254569713,35.1796037761486,-5.52902670055886,-1.05893675882231,-0.502528236953246,-27.3383096236481,-22.8208563604403,2.1104839656028,2747.14545171129,2984.83999936987
0.96,1.13529600111344,0.0765565745170446,31.9990023406702,-3.70506772697308,0.304614874675791,-1.09634287400074,14.1162280632349,-28.9550648924573,-2.80325092980542,2769.0356940122,2984.83999936987
0.97,1.01447007344695,0.0552865252217818,33.592440547734,-2.65068976931269,0.987459099428808,0.239020201543312,31.4082555550277,12.2065433762493,-1.27886434192605,2789.40382243185,2984.83999936987
0.98,0.967811055077479,0.0460081874306338,31.7733630439077,-2.18889563012225,-0.325163929354157,0.912712118188315,-14.0970961928366,28.5588820181995,0.389744450580193,2808.42133441211,2984.83999936987
