t,iq,id,vq,vd,ia,ib,va,vb,theta_e,omega,r
0,0,0,0,0,0,0,0,0,0,0,0
0.01,0.00139585576151545,0.000776085929883094,-0.0668908980453243,-0.038861727176127,-0.00145696503499697,-0.000654198413567837,0.071158182296566,0.0303502746720747,2.50026306042429,-0.00791845582305734,0
0.02,0.00153621905437995,0.000858518185146005,-0.0743665222220125,-0.0429894276642869,-0.00160703182789092,-0.000717266450778231,0.0789399696078207,0.0338666756062117,2.50020756704502,-0.00761031538093806,0
0.03,0.00158290595551489,0.000887572413576993,-0.0769030192396131,-0.0444442773001992,-0.00165828252706216,-0.000737207646316659,0.0816250733254583,0.0350244993899822,2.50015679016151,-0.00680215955557771,0
0.04,0.00154535365597296,0.000870962083775801,-0.0754368057289469,-0.0436125516801368,-0.00162253395393143,-0.000716991242445626,0.0800827744975005,0.0343440759290734,2.50011560196964,-0.00566112288591167,0
0.05,0.00157153744806766,0.000887819506276965,-0.0769180500740949,-0.0444566615196204,-0.00165173501601678,-0.000727821999714862,0.0816467236612343,0.0350227596864826,2.50007873408531,-0.00502468226750849,0
0.06,0.00156752001543311,0.000888176762757124,-0.076950990776265,-0.0444745663343828,-0.00164964002575619,-0.000724337453200007,0.0816818859600226,0.0350358607443017,2.50004719292482,-0.00431014401978844,0
0.07,0.00160844285284912,0.000913152260737414,-0.0790463012995829,-0.0457251599054376,-0.00169415880122966,-0.000742133019335038,0.0839386760215954,0.0359639634254057,2.50002094727892,-0.00400050638269382,0
0.08,0.00156112436909858,0.000888713000893509,-0.0769974343219787,-0.0445014230793147,-0.0016462777757719,-0.000718811226087978,0.0817329276733531,0.0350529611045061,2.49999780100656,-0.00319053526567695,0
0.09,0.00155707305774035,0.000888175282370104,-0.0769417120128212,-0.0444744646267575,-0.00164343605317406,-0.000715855976074637,0.0816786505955905,0.0350228937722751,2.49997870458284,-0.00274749701427467,0
0.1,0.00155456929642979,0.0008881586370226,-0.0769376192920126,-0.0444736658926771,-0.00164193576715632,-0.000713833592970278,0.0816761265534535,0.0350187745570913,2.49996256218552,-0.00237892444619107,0
0.11,0.00155247543422025,0.000888154090166845,-0.0769352771989249,-0.0444734309484915,-0.00164068866832051,-0.000712136472441996,0.0816750147555417,0.0350159235589711,2.49994890665649,-0.00206728597660353,0
0.12,0.00155070466604532,0.000888150448902801,-0.0769333110213879,-0.0444732468869705,-0.00163963413350936,-0.000710701125236196,0.0816740950016517,0.035013515091236,2.49993735461124,-0.00180365588108631,0
0.13,0.00162601105407361,0.000930683955782732,-0.0805329480662807,-0.0466030671756032,-0.00171878921897829,-0.000745552274656165,0.0855351964821753,0.0366214657977492,2.49992571533556,-0.00203426910402844,0
0.14,0.00171888410304835,0.000985816472794624,-0.0855100763501573,-0.0493637774992179,-0.00181855079598431,-0.000786936897197227,0.090726139511044,0.0389554013690605,2.49991617917758,-0.00242387833804853,0
0.15,0.00155057345082539,0.000890266829742265,-0.0771339852142516,-0.0445792087548451,-0.00164127202762135,-0.000709280752517362,0.081880128353499,0.03510843358874,2.49990777114227,-0.00115687404204684,0
0.16,0.00154547583510232,0.000888185730768225,-0.0769325865247804,-0.0444750076933425,-0.00163655744460666,-0.000706434129787078,0.0816762920041363,0.0350090345935269,2.4999025068201,-0.00100911855135697,0
0.17,0.00154469041053459,0.000888139085017477,-0.0769266517331636,-0.0444726674110597,-0.0016360530711466,-0.000705825649239935,0.0816710191992076,0.035005321259672,2.49989810089223,-0.000907861067396319,0
0.18,0.00154411663271134,0.000888136924541088,-0.0769258477494209,-0.0444725438979646,-0.00163571053174877,-0.000705361204260115,0.0816705694555473,0.0350044468250834,2.49989437486639,-0.000822810906889844,0
0.19,0.00154363311836052,0.000888135908473844,-0.0769252428735086,-0.0444725063261093,-0.00163542252911483,-0.0007049693236473,0.0816702876385586,0.0350037273316602,2.4998912228235,-0.000750877398525015,0
0.2,0.00154322434264567,0.000888135066461117,-0.0769247331256989,-0.0444724684552735,-0.00163517905702357,-0.000704638005988573,0.0816700455230937,0.0350031238780354,2.49988855631742,-0.000690024812775745,0
0.21,0.00154287854762435,0.000888134354445147,-0.0769242917659358,-0.0444724332413812,-0.00163497309595116,-0.000704357735657803,0.0816698320908651,0.0350026071650359,2.49988630055609,-0.000638545870399036,0
0.22,0.00154258607081484,0.000888133752050507,-0.0769239101484612,-0.0444723949015539,-0.00163479889119121,-0.000704120680539411,0.081669639749915,0.0350021685603535,2.49988439226895,-0.000594996660607954,0
0.23,0.00154233876315474,0.000888133242401518,-0.0769235823317991,-0.044472359288266,-0.00163465158964106,-0.00070392023487912,0.0816694715063126,0.0350017954296818,2.49988277793215,-0.000558155700089397,0
0.24,0.00154212921557626,0.000888132811225261,-0.0769232774122134,-0.0444723602859237,-0.00163452677726065,-0.000703750397745284,0.0816693375913796,0.0350014390364542,2.49988141226527,-0.000526989661069763,0
0.25,0.00154195233918014,0.000888132446443237,-0.0769230283332938,-0.0444723214688244,-0.00163442142552331,-0.000703607037001982,0.0816691978425508,0.0350011683882907,2.4998802569641,-0.00050062438789513,0
0.26,0.00155776614577617,0.000896798159481745,-0.0776677701889297,-0.0449062633991612,-0.001650829532273,-0.000711086604536666,0.0824626254318663,0.0353379459714195,2.4998794027481,-0.000583767829765678,0
0.27,0.0015006900847752,0.000864877610988285,-0.0750114371845857,-0.0433078600215323,-0.00159109596131162,-0.000684468884924114,0.0795922428910237,0.0341666697194499,2.49987791919643,-0.000183973757557302,0
0.28,0.00149029813641621,0.000858106244589922,-0.0740021292545584,-0.0429688030818609,-0.0015794518489666,-0.000680196088790456,0.0787165195063189,0.0335610299202425,2.49987712855737,-9.98178211086055e-05,0
0.29,0.00154016898982576,0.000887478024213166,-0.0768608222116666,-0.0444395644636223,-0.00163283187832183,-0.000702565169801508,0.081605829448223,0.0349706946004422,2.49987719950519,-0.000422386853118909,0
0.3,0.00153421725888035,0.000884391015093462,-0.0765685627362108,-0.0442849894324841,-0.00162679501314191,-0.000699648519072974,0.081306995228606,0.0348292637794673,2.49987923443795,-0.00042850702963374,0
0.31,0.00154148771844784,0.000888050471127206,-0.0769133239886538,-0.0444682438495445,-0.00163407888696649,-0.000703281036688142,0.0816601842044626,0.0349956916453929,2.49987849848895,-0.000459239528481599,0
0.32,0.00154156987317153,0.000888129896760448,-0.0769220219296294,-0.0444721967425457,-0.00163419218317485,-0.000703298155720612,0.0816685817247751,0.0350002357122606,2.4998777941864,-0.000444387420767241,0
0.33,0.00154148291108104,0.000888131441370941,-0.0769220720575815,-0.0444722845145281,-0.00163414178808199,-0.000703226591327938,0.081668702968433,0.0350001744999472,2.49987719627483,-0.000430773729386081,0
0.34,0.001541405378477,0.000888131319339985,-0.0769219187854967,-0.0444722849376619,-0.00163409563730041,-0.000703163728690667,0.0816686292684818,0.0350000101518045,2.49987669041125,-0.000419230112222237,0
0.35,0.00154133972023575,0.00088813118500936,-0.076921775230743,-0.0444722853083237,-0.00163405652946845,-0.000703110512980763,0.0816685586156226,0.0349998599831558,2.49987626246927,-0.000409463962571467,0
0.36,0.00154128419012746,0.000888131070691836,-0.0769216436358219,-0.0444722856341589,-0.00163402345369002,-0.00070306550637621,0.0816684927783791,0.0349997248056386,2.49987590044717,-0.000401202156909651,0
0.37,0.00154123758248037,0.000888130973967637,-0.0769215399703443,-0.0444722491758025,-0.00163399569350206,-0.000703027727893681,0.0816684122403728,0.0349996385738549,2.49987559419064,-0.000394212985868978,0
0.38,0.00154119776844046,0.00088813089214126,-0.0769214221169234,-0.0444722494330177,-0.00163397197852412,-0.000702995459743139,0.0816683509703795,0.0349995228524815,2.49987533511019,-0.00038830041533494,0
0.39,0.00154116424082791,0.000888130822918567,-0.0769213192775316,-0.0444722496622457,-0.00163395200845217,-0.000702968285130846,0.0816682972681089,0.034999422434447,2.49987511593852,-0.00038329860752547,0
0.4,0.00154113571907417,0.00088813076435801,-0.0769212135141817,-0.0444722498692115,-0.00163393501954587,-0.000702945169346125,0.08166824061614,0.0349993224447013,2.4998749305282,-0.000379067270041439,0
0.41,0.00154111173751797,0.000888130714818027,-0.0769211205284427,-0.0444722500559798,-0.00163392073541828,-0.000702925731844417,0.0816681905966739,0.0349992350353284,2.49987477367878,-0.00037548772089038,0
0.42,0.00154109136483673,0.00088813067290909,-0.0769210267929876,-0.0444722502266757,-0.00163390860058796,-0.000702909220213381,0.0816681392699175,0.0349991490082392,2.4998746409908,-0.000372459559655763,0
0.43,0.00154107401895385,0.000888130637455724,-0.0769209310917962,-0.0444722503839053,-0.00163389826831679,-0.000702895162789918,0.0816680860403623,0.0349990630837684,2.49987452874207,-0.000369897851442733,0
0.44,0.001541059583454,0.000888130607463368,-0.0769208512180983,-0.0444722505281771,-0.00163388967033919,-0.000702883461768422,0.0816680416691296,0.034998991258136,2.49987443378484,-0.00036773074458644,0
0.45,0.00154104712701462,0.000888130582091078,-0.076920760581106,-0.0444722506636374,-0.00163388225039097,-0.000702873367245334,0.0816679903362678,0.0349989120102395,2.49987435345499,-0.000365897455335855,0
0.46,0.00154103676605101,0.000888130560627176,-0.0769206819088662,-0.0444722507897673,-0.00163387607916948,-0.000702864969221451,0.0816679457246088,0.0349988433631069,2.49987428549946,-0.000364346562981836,0
0.47,0.00154102791848659,0.000888130542469424,-0.0769206003756381,-0.044472250909165,-0.00163387080911733,-0.000702857798659468,0.0816678990286597,0.0349987732830879,2.49987422801224,-0.000363034567556792,0
0.48,0.00154102046790602,0.000888130527109101,-0.0769205222684769,-0.0444722510223462,-0.00163386637127749,-0.000702851759972819,0.0816678540685214,0.034998706674569,2.49987417938113,-0.000361924669767819,0
0.49,0.00154101406505817,0.000888130514114979,-0.0769204403354503,-0.0444722482204716,-0.00163386255721192,-0.000702846571415248,0.0816678042209777,0.034998639357936,2.4998741382412,-0.000360985738822656,0
0.5,0.00154100870995338,0.000888130503122558,-0.0769203632514679,-0.0444722483243033,-0.00163385936744564,-0.000702842231328644,0.08166775938179,0.0349985747040408,2.49987410343908,-0.000360191439273302,0
0.51,4.62097297636495,0.0342425741810687,8.95262512336726,-1.69992466876916,-1.49091395402846,4.37398438312998,-4.55602667830333,7.89188579400544,0.335918822642417,102.761588133336,4705.75307102933
0.52,4.61633168268493,-0.0339462794804934,9.18629789657381,1.73540706293222,-4.61118899728746,0.220469013120445,-9.07671965306143,2.23894329057256,1.51566757364843,220.087073950874,4705.75307102933
0.53,4.44726396513291,-0.0280998326776487,17.6414727736962,1.4442213432117,1.97458449367435,-3.98496705802031,6.43452955952139,-16.4895168595353,-2.68786317807555,347.472746667768,4705.75307102933
0.54,4.49856971831797,0.137919811162805,15.078216573361,-6.83393924939642,-1.13632850290988,4.35487186015309,-10.8087925890532,12.5389530449893,0.285890499293024,463.444391416583,4705.75307102933
0.55,4.53529224333948,0.060876638765254,13.244328124239,-2.96874533126254,3.77553450582584,-2.51354747179381,12.7340181574538,-4.69792059000973,-2.14473929827542,585.104307212667,4705.75307102933
0.56,4.42883709705708,0.0396907178283176,18.5695313786487,-1.89989831061824,-2.38388215517001,-3.73273080406459,-8.24393612400313,-16.7473767019395,2.58220442913317,704.974273439261,4705.75307102933
0.57,4.46655160586197,0.000177495237965175,16.686418674869,0.101732419188638,-4.22776681003841,-1.4408577581671,-15.8269593158495,-5.28718039152967,1.89929888127192,823.273011556374,4705.75307102933
0.58,4.34991673626701,0.0427643402305562,22.5208828211336,-1.9987475632102,-3.80570996695465,-2.10717252465791,-18.6088849115056,-12.8411275678971,2.08629667286756,941.063227341672,4705.75307102933
0.59,4.35563749571155,0.0799206736136404,22.2377388697402,-3.892794461719,-0.0777509680228434,-4.35567676659905,3.90387137577074,-22.2357969733802,-3.1410945185253,1060.98601011296,4705.75307102933
0.6,4.32850595555109,0.0058179418244011,23.5973359276299,-0.1130144579545,4.06874188843153,1.47693503615119,22.1316361365325,8.18765638441469,-1.22124735074871,1177.20616632653,4705.75307102933
0.61,4.40258489972956,0.0463712337963527,19.8965744626137,-2.14642657179312,-4.40193717849496,0.0886180976684908,-19.9162562776445,-1.95539209817779,1.56119977191702,1295.0817138892,4705.75307102933
0.62,4.27500037558067,0.099346990598546,26.279173211307,-4.79950035498915,3.82044055900527,1.92086750476533,20.94298457571,16.583773556974,-1.08168679784851,1412.21704035633,4705.75307102933
0.63,4.40916131544595,0.144802882177085,19.5745617598807,-7.04071166337439,1.05169249431923,-4.28434525659458,12.0669002723993,-16.944763398588,-2.86804933613474,1528.66017812708,4705.75307102933
0.64,4.23122070817647,0.0568243215452716,28.4751670590724,-2.60091915535241,-2.63629913792404,-3.31004298162447,-15.3833311681632,-24.1029674867096,2.48244621228125,1644.7887647275,4705.75307102933
0.65,4.29198706460132,0.0450383738176434,25.4405654803951,-2.07261310203008,-2.92605652153854,-3.1402825749577,-15.6157467362414,-20.1907540944499,2.40198692493871,1761.69774720898,4705.75307102933
0.66,4.20136620257116,0.180973207129351,29.9753717212589,-8.78561916062917,-0.0588836450473906,-4.20484981731236,9.65243791991779,-29.707582467535,-3.11254724756787,1876.68899102033,4705.75307102933
0.67,4.19531945356872,0.137040460953672,30.2817170960187,-6.5960391191234,4.19388791712225,0.175469496057079,29.7070487936901,8.83070633152499,-1.49632790326119,1992.01398047058,4705.75307102933
0.68,4.13780864244447,0.130830594892754,33.1612470036544,-6.2901721309546,-3.32547180733231,2.46572793809173,-30.8334790577586,13.7306641306666,0.964386477002216,2107.44549035382,4705.75307102933
0.69,4.15185426142642,0.131095867431324,32.4630684303826,-6.27042015982556,3.69408701050974,-1.89968447205464,32.0137783725421,-8.26359335944155,-2.0142141168969,2222.25568237761,4705.75307102933
0.7,3.98025667783539,0.171884082364768,41.0471518995381,-8.27983743352752,-3.46257210220546,-1.97042680560635,-30.3642984885539,-28.8345931874788,2.13131582374239,2336.88810748945,4705.75307102933
0.71,4.11003941308413,0.212398854678467,34.5622438637576,-10.3963799497728,-2.90130272601713,2.91890043382422,-32.5832868053843,15.5229777399814,0.834006744294842,2451.93946242932,4705.75307102933
0.72,4.00519693109758,0.177268438864677,39.8087462521752,-8.51670781297229,-1.29603626350039,3.7938524694541,-22.4519506964344,33.9585114524547,0.373416032025162,2565.30417706581,4705.75307102933
0.73,4.02667964716413,0.201951396246856,38.7388834394683,-9.77833894178153,3.92531849752525,-0.920221734321668,39.8640541140131,2.67846825482506,-1.7509589569494,2679.52326661245,4705.75307102933
0.74,4.00659878670912,0.0959257288234445,39.7472212900234,-4.48592138677365,2.14445448064887,3.38575701483941,16.6119515407766,36.386922884098,-0.540661902288138,2793.31208653457,4705.75307102933
0.75,3.91719725612132,0.231567431579777,44.2215738218584,-11.2558636479557,-3.89128492230559,0.505924373963137,-44.9025148261649,-8.12442121196858,1.50055370606003,2906.20519888673,4705.75307102933
0.76,3.97150232946127,0.192430959056769,41.5105459597475,-9.22489988235497,3.67596500552352,-1.51563244392772,42.1968227379049,-5.25855061225166,-1.91345335906716,3019.16211961581,4705.75307102933
0.77,3.78116673830507,0.148471792224554,48,-7.1830182719621,-3.72662910833816,-0.656887558747864,-45.384403415982,-17.2003394754505,1.78451856557,3132.47295029233,4705.75307102933
0.78,3.89995839106157,0.29268072869006,45.0958653305925,-14.2376124688708,0.198360596747627,3.90589177200496,-15.3231067532074,44.7386754180149,0.0241653477747481,3244.34946369246,4705.75307102933
0.79,3.83680415160296,0.199932983280372,48,-9.68267301676484,3.16136448381535,2.18330343654564,32.1138741303416,36.9655683723402,-0.914330877866847,3356.6490435338,4705.75307102933
0.8,3.73540718057748,0.166290395333567,48,-8.03841775144327,3.29229558181468,1.77248670016266,37.0888579105134,31.5124226114158,-1.03243477041079,3468.63791997575,4705.75307102933
0.81,3.75516852341506,0.153648630616457,48,-7.38961590204529,1.36523876510801,3.50157416816835,8.60472965127375,47.7971238759013,-0.330869311469441,3580.28360616,4705.75307102933
0.82,3.84402090151746,0.170566415769627,47.9077757905129,-8.15753634988607,3.75976244979116,0.818398383815585,44.2272295426192,20.1408179446177,-1.31212398487011,3691.45744135521,4705.75307102933
0.83,3.79084223022501,0.153068246207779,48,-7.16824409877243,-3.15484720574633,2.10733334118004,-44.6954792850469,18.9129018117138,1.02225064224929,3802.34045407143,4705.75307102933
0.84,3.72017839206937,0.172544580728944,48,-8.30987804611527,3.09711791513437,-2.06817782623073,45.3997824017093,-17.6610823852547,-2.11321831273291,3913.48261262766,4705.75307102933
0.85,3.6265761187333,0.247572499105688,48,-11.8926867404251,-3.55802772447107,-0.74416745371947,-42.9831345635402,-24.4517103900418,1.84513631680662,4023.76663348752,4705.75307102933
0.86,3.04806011786291,0.205273364747679,48,-9.84205739467748,-0.725260040873654,2.96762624154276,-23.8847770514652,42.7829816511417,0.306936364858324,4124.81828164507,4705.75307102933
0.87,2.63261959668711,0.22323563104036,48,-10.802240816326,1.56772901975631,2.12667482433044,15.909986612602,46.5570696311605,-0.550648053550315,4210.0877750599,4705.75307102933
0.88,2.00288911617286,0.278202552457488,48,-13.6144826948913,1.66904205971778,1.14160416728856,26.3547580880765,42.3648541266043,-0.832880394007196,4282.07066208575,4705.75307102933
0.89,1.63221022570817,0.255337215154095,48,-12.495155395868,1.16878164235816,1.16758587985447,18.2162567245526,46.1334683208631,-0.630731199243668,4342.64992668163,4705.75307102933
0.9,1.27257156319743,0.0473579032686225,48,-2.35680631992044,0.701232998203526,-1.06299267950972,29.8208799009868,-37.6864651826162,-2.52124673308795,4393.77930458467,4705.75307102933
0.91,1.01131970643761,0.0707142263210579,48,-3.4859920230772,1.01158124084067,-0.0668688538296217,47.9863999709017,3.66845447260875,-1.56699449174719,4436.89744498678,4705.75307102933
0.92,0.806485372132737,0.0485737315574268,48,-2.26055006581726,0.300937901611318,0.749809603989752,13.0235136727541,46.2547097949566,-0.321515478569803,4473.22833222962,4705.75307102933
0.93,0.547423324381259,-0.0693709060654113,48,3.39203521149735,-0.53083661338018,0.150655595913415,-42.8334258121595,21.9272327499451,1.16820938107696,4503.87116510708,4705.75307102933
0.94,0.593805461314284,0.0566652672641943,46.2685469653982,-2.75620241471406,-0.217025713683542,-0.555621920014808,-10.0127155421984,-45.2561666241315,2.86435545532625,4529.64636660582,4705.75307102933
0.95,0.17561876766,-0.00321569178604631,48,0.0322117542971794,0.175498012394925,0.00726222235343357,47.9879933683047,1.07402517692055,-1.54774786167714,4551.76301462079,4705.75307102933
0.96,0.239019475066234,-0.0258181921554735,48,1.31079210095281,0.225823280651848,-0.0824665654841509,42.4794082107601,-22.3878997227414,-2.02853157197091,4570.19768707425,4705.75307102933
0.97,-0.0425725837343612,-0.0326499877027672,48,1.47237785032417,-0.0275086676801845,-0.0460621296215363,-4.08737232316468,47.8483153729152,0.115881581182804,4585.85677871349,4705.75307102933
0.98,0.0593412517525732,0.0266520995000809,48,-1.31216040488237,-0.0605877086292521,-0.0236822323774878,-32.6858311552588,-35.1761027775683,2.36554431183015,4599.12232863741,4705.75307102933
0.99,-0.15662581762575,0.0484412094447195,48,-2.60462296585177,-0.156970424149808,-0.0473126141914744,48.017503838467,2.25906748837862,-1.57799405578804,4610.47471625468,4705.75307102933
1,-0.152093048028073,-0.0281014531605571,48,1.45005429043763,0.0942170250213745,-0.122658628413685,-34.6988911947281,33.1977349724591,0.837704279105119,4619.90885605691,4705.75307102933
