t,iq,id,vq,vd,ia,ib,va,vb,theta_e,omega,r
0,0,0,0,0,0,0,0,0,0,0,0
0.01,0.000728935555900296,0.000407406445089932,-0.034956656889834,-0.0203822552094799,0.00073980521724879,0.000387318082056544,-0.0361850756919555,-0.0181119983851977,-0.578838966819484,-0.00395458443945082,0
0.02,0.000887185926090241,0.000491593989550941,-0.042720827040692,-0.0245940863062346,0.000896864529088664,0.000473706168925186,-0.0439588979643949,-0.022305905810685,-0.57887023118212,-0.0044856744156104,0
0.03,0.000946347554806653,0.000524044970641724,-0.0456505093709246,-0.0262176033128746,0.000956411067010828,0.000505445048093882,-0.0469214531118726,-0.0238685769824358,-0.578902617887822,-0.00443374984836361,0
0.04,0.000928534923826401,0.000515235017833935,-0.0449193381559127,-0.0257768456507038,0.000939305944667896,0.000495326731238267,-0.0461531831522841,-0.0234963060283348,-0.578932414846446,-0.00397081307736812,0
0.05,0.000948833003406611,0.000528146207931088,-0.0459880403241093,-0.0264227839683022,0.000961232952299804,0.000505226381653414,-0.0472792512312648,-0.0240361346413773,-0.578960185023249,-0.00375141401067752,0
0.06,0.000950288477346357,0.000530386834347021,-0.046155274918118,-0.0265348637513514,0.000963917802660747,0.000505193877575322,-0.0474651894533992,-0.0241135685294143,-0.578985929068734,-0.00344824876595464,0
0.07,0.000963672623301578,0.000539648322710774,-0.0468784027010871,-0.0269982155329556,0.000979005157406899,0.000511306306313729,-0.0482492678003642,-0.0244641868554415,-0.579009098572631,-0.00324478987788216,0
0.08,0.000948909612766316,0.000532379837438714,-0.0462611979152917,-0.0266345930593792,0.000964854102384251,0.00050290586159228,-0.0476077082639692,-0.0241455191256954,-0.579030868268124,-0.00289651684348695,0
0.09,0.00094426836472495,0.000531113665303026,-0.0461157508633697,-0.0265712421933765,0.000961264360715354,0.000499695206011072,-0.0474755646971337,-0.024057517454628,-0.579050454725757,-0.00263282907491257,0
0.1,0.000941721389566897,0.000530891072294295,-0.0460627801354304,-0.0265601081470116,0.000959693128010675,0.000497668168822037,-0.0474376858417513,-0.024018430851437,-0.579068244480549,-0.00240291838072403,0
0.11,0.000939722621821222,0.000530850098072549,-0.0460297064750175,-0.0265580441969618,0.00095857304991325,0.000496002157824134,-0.0474182474263799,-0.0239911108695421,-0.57908443470662,-0.00219551364797704,0
0.12,0.000937963708807207,0.0005308408951978,-0.0460024763513169,-0.0265575827901405,0.000957610058137329,0.00049452093141544,-0.0474033126544233,-0.0239678739878119,-0.579099175410788,-0.00200702808844372,0
0.13,0.000973947915210446,0.000551964562684194,-0.0477628307983819,-0.0276143972971726,0.000994989937234717,0.000513063782393166,-0.049251559053898,-0.0248621574832384,-0.579113237905023,-0.00204365057294595,0
0.14,0.000995002764642753,0.000564933611324715,-0.0489553342275011,-0.0282632341885503,0.00101737418243322,0.000523574502596753,-0.0504475728764304,-0.0255044613156292,-0.579126382951742,-0.00200557916574446,0
0.15,0.000944802493526858,0.000536759790296019,-0.046476899475132,-0.0268537145202356,0.000966326139879836,0.000496967419091162,-0.0479117522321108,-0.0242009951531886,-0.579138540535551,-0.00156997155161989,0
0.16,0.000934301910455739,0.000531861128161169,-0.0460174178953624,-0.0266086397006028,0.000956484248319622,0.000490850488689338,-0.0474554074454151,-0.0239500889489488,-0.579148665173664,-0.00138710967861391,0
0.17,0.000931458320737899,0.000531008351941029,-0.0459169749051386,-0.0265659654042377,0.000954218624890883,0.000488928715677804,-0.0473649344056985,-0.0238889533266353,-0.579157703943657,-0.00126138974234201,0
0.18,0.00093015056294555,0.000530858958275286,-0.0458861615291781,-0.0265584970779153,0.000953381831748685,0.000487908173963675,-0.0473420148472198,-0.0238668644175366,-0.579165899958768,-0.00115469488829855,0
0.19,0.000929204398921357,0.000530831932225054,-0.0458696765729673,-0.0265571446520489,0.000952844985159466,0.000487123998075483,-0.0473320381939011,-0.0238534551247731,-0.579173356442948,-0.00105902640262383,0
0.2,0.000928389552759501,0.000530826270674842,-0.0458568702015484,-0.0265568540800091,0.000952397557466463,0.000486438674288407,-0.047324947523159,-0.0238425750546958,-0.579180144846188,-0.000972196747211015,0
0.21,0.000927656293520477,0.000530824408576876,-0.0458456148657103,-0.0265567716990325,0.000951997661340905,0.00048582013590483,-0.047318865418917,-0.0238329079416674,-0.579186325928862,-0.000893186247212572,0
0.22,0.000926990322380076,0.000530823285106321,-0.0458354409903759,-0.026556721161433,0.000951634937535771,0.00048525803801552,-0.0473133886120832,-0.0238241547105103,-0.579191954195714,-0.000821251907913525,0
0.23,0.000926384558430527,0.00053082236128279,-0.0458262024594042,-0.0265566542067238,0.000951305085086778,0.000484746701303266,-0.0473083979441927,-0.023816217131604,-0.579197079122521,-0.000755752569748221,0
0.24,0.000925832537433849,0.00053082153709169,-0.0458177621838107,-0.0265566312868971,0.000951004505399633,0.000484280726770314,-0.047303870067066,-0.0238089452416224,-0.57920174572919,-0.000696111163514723,0
0.25,0.000925330246245245,0.000530820789380217,-0.0458100886953707,-0.0265565890621363,0.000950731003566854,0.00048385672870312,-0.0472997357419726,-0.0238023454229298,-0.57920599500438,-0.000641803515069261,0
0.26,0.00093202458860734,0.000534913700123365,-0.0461416933318909,-0.026761341162219,0.000957822369218245,0.000487215362415328,-0.0476526881026091,-0.0239676148360741,-0.579209702152353,-0.000635413236100983,0
0.27,0.000914814490007221,0.000525079328337187,-0.0453403649205008,-0.0262693461657217,0.000940173746101072,0.000478191571774828,-0.046802415288874,-0.0235661019735226,-0.579213643054158,-0.000488822962738793,0
0.28,0.000913887763633276,0.000524813862568276,-0.0451698193877067,-0.0262560726401077,0.000939445852794108,0.000477558294379246,-0.0466980310881244,-0.0234304892499757,-0.579216850489729,-0.00044468462626512,0
0.29,0.000921789090061001,0.000529774589757825,-0.0456935969517972,-0.0265042570706389,0.000947923682946081,0.000481452940398642,-0.0471924981019756,-0.0237328584067498,-0.579219551935652,-0.000457401410886101,0
0.3,0.000909627826485212,0.000523462660809118,-0.0451221630393216,-0.0261884653391127,0.000935985243990314,0.000474728936352066,-0.0466154620803598,-0.0234274200286665,-0.579220972403614,-0.000370323990530894,0
0.31,0.000920634213785555,0.000529539196621341,-0.0456527687908096,-0.0264924669181453,0.000947096307750719,0.000480611797811787,-0.0471603701282672,-0.0237049697540618,-0.579223232062944,-0.000406231326987758,0
0.32,0.000922516110582935,0.000530595111752131,-0.0457506496803996,-0.0265452930417905,0.00094901118822888,0.000481606594137509,-0.0472582112173456,-0.0237578618859091,-0.579225508282138,-0.000389500827394572,0
0.33,0.000922676507292733,0.000530778352362784,-0.0457662590100659,-0.0265544575355669,0.000949253355549392,0.000481638519457371,-0.0472744752829395,-0.0237658087492811,-0.579227622654782,-0.000364836466171504,0
0.34,0.000922526042963386,0.00053080992822982,-0.0457664318487326,-0.0265560529066811,0.000949198350967015,0.000481493479057119,-0.0472759509778395,-0.0237649887289696,-0.579229555899373,-0.000340578670457891,0
0.35,0.000922332756209993,0.000530815165742472,-0.0457639200845673,-0.026556308202125,0.000949097781027242,0.000481327181249195,-0.0472748316097862,-0.0237626636364544,-0.579231317773365,-0.000318146973534203,0
0.36,0.00092214593015103,0.000530815847445435,-0.0457611143329029,-0.0265563335872158,0.000948996858620871,0.000481168933661602,-0.0472733551653026,-0.0237602257985831,-0.57923292237433,-0.000297655836726746,0
0.37,0.000921973577281305,0.000530815757669065,-0.0457584470264041,-0.0265563430740934,0.000948903143457281,0.000481023357158009,-0.0472719377828767,-0.0237579193110216,-0.579234383532114,-0.000278984712225626,0
0.38,0.000921816495264203,0.000530815552398755,-0.0457560060177459,-0.0265563217938341,0.000948817627411924,0.000480890748010378,-0.0472706154133941,-0.023755825229881,-0.579235714030138,-0.000261980948556141,0
0.39,0.000921673188003481,0.000530815343999303,-0.0457537636118233,-0.026556322439864,0.000948739591296116,0.000480769781513853,-0.0472694172740592,-0.0237538909812162,-0.579236925544507,-0.00024649736392615,0
0.4,0.000921542939717782,0.000530815150489098,-0.0457517277615887,-0.0265563010640167,0.000948668663579174,0.000480659838633684,-0.0472683111928313,-0.023752146773521,-0.579238028714744,-0.000232398377902291,0
0.41,0.000921424021466912,0.000530814973622889,-0.045749851870798,-0.0265563016165257,0.000948603904057419,0.000480559462257843,-0.0472673086758456,-0.0237505290949524,-0.579239033229031,-0.000219560237084166,0
0.42,0.000921316066715077,0.000530814812450111,-0.0457481539812218,-0.0265562801605654,0.000948545115595638,0.000480468337753326,-0.0472663830395396,-0.0237490766771162,-0.579239947910718,-0.000207870198428983,0
0.43,0.000921217462933152,0.000530814665662017,-0.0457465865576959,-0.0265562777243315,0.000948491418327109,0.000480385108693746,-0.0472655427909207,-0.0237477269003211,-0.579240780793093,-0.000197225590575828,0
0.44,0.00092112770672031,0.000530814531990618,-0.0457451545856539,-0.0265562781631052,0.000948442539187743,0.00048030934752443,-0.0472647773220795,-0.0237464924280583,-0.579241539190938,-0.000187532921917119,0
0.45,0.00092104609957997,0.000530814410266599,-0.0457438505419622,-0.0265562785693086,0.000948398098082015,0.000480240463989208,-0.0472640802403592,-0.0237453682407534,-0.579242229766084,-0.000178707061339043,0
0.46,0.000920971847063476,0.000530814299422925,-0.045742659761438,-0.0265562569894468,0.000948357662183845,0.000480177788045796,-0.0472634252902612,-0.0237443537956314,-0.579242858583737,-0.000170670490859199,0
0.47,0.000920904093346392,0.000530814198487344,-0.0457415622345186,-0.0265562573418632,0.000948320764883833,0.000480120598754151,-0.0472628384045032,-0.0237434080454222,-0.579243431166635,-0.000163352624861996,0
0.48,0.000920842393226023,0.000530814106575379,-0.045740556320682,-0.0265562576699117,0.000948287164174792,0.000480068519237597,-0.0472623004297393,-0.023742541398201,-0.579243952543527,-0.000156689190141244,0
0.49,0.000920786281041084,0.000530814022879758,-0.0457396376491779,-0.026556257975462,0.000948256606696379,0.000480021155883709,-0.0472618090840111,-0.0237417499785477,-0.579244427294382,-0.000150621661397257,0
0.5,0.000920735311588683,0.000530813946666489,-0.045738801188453,-0.026556236309326,0.000948228850148265,0.000479978132552372,-0.0472613433435318,-0.0237410413933003,-0.579244859588579,-0.000145096747207137,0
0.51,4.75493887273202,0.0261806975829347,2.25371386079272,-1.30434787963904,-0.623654094023252,4.71393515901015,-1.60000682083566,2.05439230205126,0.137042155085348,42.2642642067136,5044.68534140009
0.52,4.66720163939154,-0.0120624244206958,6.64138509104269,0.615779877723564,-2.7265797525377,3.78796508667562,-3.36523918679667,5.75867571590739,0.621307251499214,89.9325539518157,5044.68534140009
0.53,4.74399548092229,-0.0101519536793793,2.80260139831223,0.528085781626878,-4.71491748628688,0.524546740225188,-2.72523347175809,0.840566306121946,1.45785940772317,138.607826877053,5044.68534140009
0.54,4.66100235621263,0.0361717901193459,6.95322922367999,-1.78408745938789,-2.18251535023791,-4.11860147489363,-1.62511562428821,-6.99209295615247,2.66205953710565,190.781893754631,5044.68534140009
0.55,4.70419623740606,-0.010127603874214,4.7945644262862,0.535055799004038,4.22786121781328,-2.06270558521956,4.06888637748434,-2.59196766819715,-2.02685707456969,243.114900743974,5044.68534140009
0.56,4.63989460917633,0.0902631854134042,8.0106731396324,-4.47698556264229,0.408667955115336,4.62274376635418,-3.91633107704362,8.29919482679602,-0.0687232797099011,290.891905456579,5044.68534140009
0.57,4.68558889813927,-0.0237033606737747,5.7270423483891,1.22447244531988,-3.64135207262178,-2.94887440473247,-5.23461285226659,-2.62624734487732,2.24644347081803,342.144168023122,5044.68534140009
0.58,4.66408767797889,0.0366568070353166,6.80331281468978,-1.78346212893,4.55173153891332,1.01823258003185,6.22433308042763,3.27467252160335,-1.34285823405893,391.594820783553,5044.68534140009
0.59,4.67188128681982,-0.000794833455935784,6.41494761811145,0.0887725267166804,-4.62810359884746,-0.638069328703883,-6.36709474778439,-0.787107348047191,1.7076309233169,442.135946221488,5044.68534140009
0.6,4.66522897542281,0.041779960371331,6.74886682539883,-2.02243722475579,4.28199887103108,1.85218590500569,5.35047815628353,4.58364911988032,-1.15359137806968,490.703048957306,5044.68534140009
0.61,4.66289543842844,0.00965288037785017,6.86697831281263,-0.418288566637415,-2.28570886171081,-4.06426156236444,-2.98871465489062,-6.19660723180521,2.63135525712071,541.570457437765,5044.68534140009
0.62,4.63278243369994,0.0185064105922349,8.3740944115509,-0.861546341765696,-2.18704939790604,4.08409481970615,-4.74055018267371,6.95664454159691,0.495640465619355,591.4297382658,5044.68534140009
0.63,4.63670938148908,0.0698832580497286,8.1792091775379,-3.40681216746523,4.45503846357982,1.28708579596267,6.82795090470197,5.64667321148381,-1.27447805766775,640.294313174333,5044.68534140009
0.64,4.60812213879768,0.0377815409242925,9.61014993144241,-1.79370006296607,2.01742696671041,-4.14321198165162,5.88404939045424,-7.80706759234107,-2.68026220591609,689.528635487003,5044.68534140009
0.65,4.58001776462875,0.0393567378320461,11.0169879336725,-1.86707054835991,-2.5483337999815,-3.80579906471684,-4.49049922466849,-10.2320766355853,2.56016026571725,739.055348972661,5044.68534140009
0.66,4.54349602782074,0.101616962233527,12.844794993258,-4.97620446723978,-4.35942261704385,-1.2841793518987,-10.7245784116791,-8.64492840978738,1.8796308100603,788.501557205989,5044.68534140009
0.67,4.56699734383804,0.0908298330489297,11.6714582237418,-4.42862485489831,-4.56589049353987,0.135494642689754,-11.7142156868974,-4.31425613690462,1.56101531243188,838.030215180479,5044.68534140009
0.68,4.56539158363986,-0.0158873847362699,11.7535563780675,0.892278225228586,-4.56226755184742,-0.169609865053917,-11.776936779992,0.495991979471312,1.6044759256815,887.835890119211,5044.68534140009
0.69,4.54487604235961,0.0303332319523917,12.7812683801566,-1.41771978657453,-4.12740001268825,-1.90299434592855,-10.9688110615499,-6.71237176375505,2.00948670918453,937.326745116521,5044.68534140009
0.7,4.58919467617501,0.0996745610392851,10.5672471913704,-4.86584217734716,-1.73829269598839,-4.24840926665792,0.754003091113444,-11.6092468591622,2.77492800392269,986.073427189634,5044.68534140009
0.71,4.56193169660618,0.049009671276639,11.9323489597533,-2.3102530372811,3.10227829688893,-3.34506982304267,9.88441649719244,-7.07223665495026,-2.38309151379894,1034.93253893934,5044.68534140009
0.72,4.53291109384041,0.107016355132875,13.3853744747289,-5.23899453488409,3.60946945630785,2.74416940601488,7.19308324616276,12.4448731202468,-0.897150730724188,1084.73870606733,5044.68534140009
0.73,4.52719641991477,0.0714224950486591,13.673147087526,-3.42301238394331,-3.63684183389779,2.69703356903452,-13.1051679839676,5.18907864362651,0.948476514376078,1133.11477922157,5044.68534140009
0.74,4.52320454863405,0.0588350296604112,13.8748626155181,-2.8182823753505,-0.00523981765339643,-4.52358414244831,2.98247440622137,-13.8404976269984,-3.12974434213921,1182.75034548686,5044.68534140009
0.75,4.54073173384256,0.111415559004573,13.0006665120074,-5.40767679291288,2.52925460198808,3.77273498457489,2.40811219345284,13.8730419777633,-0.56605316235255,1231.10992208565,5044.68534140009
0.76,4.55284192059475,0.0474077512973543,12.3974080600934,-2.21526880883469,-3.25153352308657,-3.18718477610762,-7.19553268564406,-10.3357366391415,2.35661319830498,1280.13860762053,5044.68534140009
0.77,4.5485704801894,0.0493644715422494,12.6132417922617,-2.32882228469896,2.77893488031877,3.60131242677566,5.73768715801845,11.4715399062409,-0.646358313245279,1329.32478568731,5044.68534140009
0.78,4.52073612753374,0.0368384078621608,14.0072497720904,-1.70313834368681,-0.712256296635365,-4.4644264100762,-0.410028453617534,-14.104453306055,2.99153415136873,1378.01394507142,5044.68534140009
0.79,4.51515355850371,0.134831730283443,14.2887178599356,-6.55605248212336,-2.82003624790503,3.52876562169573,-14.2466261246388,6.64702386741292,0.704079622890815,1426.45724275176,5044.68534140009
0.8,4.51106990978522,0.145391996454996,14.4952989733858,-7.07765848378373,4.29529351646619,1.38612559712543,11.2547382648193,11.5558560276306,-1.22641996008921,1475.04364571976,5044.68534140009
0.81,4.48613619980828,0.0807294745551985,15.7445175044471,-3.8372525499644,1.42424564576422,-4.25481604676558,8.88183476575633,-13.5546062198004,-2.80058567775127,1523.58312113719,5044.68534140009
0.82,4.4807089862541,0.124978523337297,16.0183773313697,-6.0454683305839,-3.52518981648963,-2.76864757752077,-8.45159600392351,-14.8898161389822,2.2644501557011,1572.22393406211,5044.68534140009
0.83,4.42702905540462,0.0900709086597899,18.7049010435984,-4.34039054996877,-4.34920485005438,0.831333987183813,-19.1679201811041,-1.1415555649588,1.40227121934757,1620.99705572866,5044.68534140009
0.84,4.49676032206889,0.140965059854522,15.2209054960008,-6.88488814249198,-3.4227757205417,2.9198169307515,-16.1857156484848,4.13524579671001,0.895869056741322,1669.67744778062,5044.68534140009
0.85,4.48303197386381,0.120983397240108,15.9098898683002,-5.85940263646191,-2.95069222176914,3.37722194613918,-15.0942189609128,7.72151208233461,0.745075903012152,1717.99206578119,5044.68534140009
0.86,4.47656925954232,0.10807893052256,16.2356701547501,-5.17870785394435,-4.46790269523552,0.298661843243079,-16.4415236050035,-4.48244374827627,1.52818809238727,1766.14680160725,5044.68534140009
0.87,4.41635210875466,0.11640661730916,19.2492675551069,-5.64893883244645,-3.89823381479371,-2.07881927407218,-13.9520232003224,-14.4147792199006,2.08705795805259,1814.88575321119,5044.68534140009
0.88,4.45772897888934,0.107886820721921,17.1831746760874,-5.1746033475692,-0.734714332158831,-4.39808845584484,2.70263857026263,-17.7407372031755,3.00026547582736,1862.89491512989,5044.68534140009
0.89,4.36181023363664,0.096455415651674,21.981942079722,-4.64544725190051,3.89452799109845,-1.96655635261656,21.8382059164732,-5.28003031394305,-2.01628902826082,1911.36240927895,5044.68534140009
0.9,4.45443120372825,0.203603944776419,17.353730262734,-9.94497287755168,1.90583048721113,4.03128045031514,-2.48260003917863,19.846690822715,-0.395943197797911,1959.27243546487,5044.68534140009
0.91,4.38151787391143,0.0833443687174698,21.0022922582298,-3.97043312513531,-4.38198618538449,0.053312609218744,-20.9745866412913,-4.11428420605999,1.57765012448467,2007.75106890541,5044.68534140009
0.92,4.39466407360591,0.176169450713972,20.3479298814006,-8.58648008083841,2.90744419601324,-3.30013276131072,20.2620773350483,-8.7871561216103,-2.37930419205316,2055.67731556158,5044.68534140009
0.93,4.38681280517447,0.109778420347334,20.7434849443782,-5.22951521074706,-1.18910684964033,4.22400317108725,-11.1156397117877,18.2779252316779,0.29942948904083,2103.54829820131,5044.68534140009
0.94,4.38923371332749,0.160897807772172,20.6254862252227,-7.80041079122546,0.664470344045003,-4.34162871013186,11.5273251690847,-18.7983474003676,-2.95308377540877,2151.64531748726,5044.68534140009
0.95,4.39745159627759,0.147033712251528,20.2176898301449,-7.11694536634439,-1.69627337616607,4.05978522676421,-14.8848914821437,15.4222533690859,0.429200023184829,2199.68344295592,5044.68534140009
0.96,4.32442427486856,0.150685318405362,23.8720868366144,-7.30625857069722,3.60974651901746,-2.38601790494052,24.1752104631019,-6.23034054458285,-2.12002977259483,2247.73640818563,5044.68534140009
0.97,4.32110818663498,0.141289976735334,24.0409604820459,-6.82958468285786,-4.04278766049331,-1.53225544550926,-19.5621524804045,-15.5542019458738,1.96576362481819,2295.6879668596,5044.68534140009
