t,iq,id,vq,vd,ia,ib,va,vb,theta_e,omega,r
0,0,0,0,0,0,0,0,0,0,0,0
0.01,0.000506252417133778,0.000269733093266965,-0.0240767163707209,-0.0134939175180319,0.000279441208576336,-0.000500959142452311,-0.0129292409314144,0.02438460190606,-2.14322646446521,-0.00265333590778306,0
0.02,0.000629454146190179,0.000329776130712328,-0.0302281341069095,-0.0164976916520462,0.000350466605530723,-0.000618173096269463,-0.0164723587002873,0.030241946370569,-2.14324667377236,-0.00277114533176696,0
0.03,0.000669539268786939,0.00035314726592698,-0.0323644272726743,-0.0176668834241417,0.000371488780194763,-0.000659539164924159,-0.0176341218487066,0.0323822894378301,-2.14326552757177,-0.00242862825892472,0
0.04,0.000649902262681159,0.000347920289688014,-0.0316572627451981,-0.0174053891391343,0.000357804448682773,-0.000644513347819499,-0.0171808822557165,0.0317796655192972,-2.14328047543881,-0.00184629232347069,0
0.05,0.000656167834965831,0.000356628305137571,-0.0321170263643524,-0.0178410154097742,0.000358345895531075,-0.000655231405554614,-0.0173309659286443,0.0323951050827201,-2.14329239101049,-0.00151457011249439,0
0.06,0.000651235923116293,0.000358299501444239,-0.0320193431204358,-0.017924631642636,0.000353288849633183,-0.00065396769722761,-0.0172032542537663,0.0324126332850118,-2.14330184151506,-0.00119162990897362,0
0.07,0.000654602594585346,0.000364231726226221,-0.0322754431228501,-0.0182214022909719,0.000352900312370046,-0.000660780354396772,-0.0172575144558894,0.0328009439655406,-2.14330889149134,-0.000993305808145355,0
0.08,0.000642037092422626,0.000359757968234169,-0.0317704827646072,-0.0179975960928196,0.000344758323946423,-0.000650214673645658,-0.016954131404225,0.0323393640714339,-2.14331471938928,-0.000736590332704342,0
0.09,0.000636008951154008,0.000358897934519833,-0.0315493816769976,-0.0179545725580096,0.000340154577187518,-0.000646227496296006,-0.0167914567821665,0.0321834917166291,-2.14331902262328,-0.000566679365960705,0
0.1,0.000632309896272922,0.00035873221266198,-0.0314221679130634,-0.0179462724193173,0.000337133076048991,-0.000644085316056637,-0.0166889213954184,0.0321076506889346,-2.14332226639985,-0.000443706786260047,0
0.11,0.000629716911488293,0.000358699982191208,-0.031335635497683,-0.0179446554855171,0.000334969459640177,-0.000642654282602003,-0.0166169848951344,0.0320594529824266,-2.14332472880072,-0.000351656598651691,0
0.12,0.000627798208657054,0.000358693487621726,-0.0312723255676608,-0.0179443357777002,0.000333359041255215,-0.000641609973791436,-0.016563883955643,0.0320249165684568,-2.14332660243729,-0.000281944506989728,0
0.13,0.000652013016306676,0.000372571338750451,-0.0324290989466222,-0.0186386069526685,0.000346192670416901,-0.000666394035718544,-0.0171599994103661,0.0332352004336082,-2.14332846327461,-0.000370584695836385,0
0.14,0.000665319036810265,0.000380893192790899,-0.0331929200390692,-0.0190549280208115,0.000352867193426862,-0.000680598111119649,-0.0175764111477832,0.0339989704809194,-2.14333014674874,-0.000398791275738011,0
0.15,0.000633133216912932,0.000362955690051063,-0.0315910873540719,-0.0181575696818269,0.000335530979736582,-0.000648084458181162,-0.0167161312235246,0.0323769222422532,-2.14333156801367,-0.000160170205934133,0
0.16,0.000624925970761818,0.000359510066757908,-0.0312142351109309,-0.0179851854068794,0.000330498967300643,-0.000640742061711329,-0.0164927526877071,0.0320278703079432,-2.1433320230982,-9.64478965390026e-05,0
0.17,0.000622783436449685,0.000358848179520726,-0.0311168270619894,-0.0179520751219358,0.000329056570022807,-0.000639025037370402,-0.0164288102813206,0.0319472709371201,-2.14333221164348,-7.76500901106648e-05,0
0.18,0.000622186802790792,0.000358721023460703,-0.0310904139183685,-0.017945715079876,0.000328623904097079,-0.000638594957618455,-0.0164100515825587,0.0319276171112304,-2.1433323154319,-7.08246241894154e-05,0
0.19,0.000621993144916491,0.000358696587379815,-0.0310823293043185,-0.0179444933379604,0.000328474323440078,-0.000638469523909807,-0.0164039159177738,0.0319222113692145,-2.1433323844578,-6.75133563797648e-05,0
0.2,0.000621911421170362,0.000358691885402554,-0.0310792053487179,-0.0179442578703372,0.000328408147614933,-0.000638421313096537,-0.0164014161106924,0.0319203218215113,-2.14333243451168,-6.54666454299497e-05,0
0.21,0.000621865669912511,0.0003586909760977,-0.0310775846074052,-0.0179442129371194,0.000328370161018448,-0.00063839577465893,-0.016400076975995,0.0319194066070244,-2.14333247200445,-6.40273644267802e-05,0
0.22,0.000621835052675848,0.000358690796790339,-0.031076543169741,-0.0179442043487756,0.00032834450533425,-0.000638379045908675,-0.0163992053630717,0.0319188356390266,-2.14333250040527,-6.29611452760094e-05,0
0.23,0.000621812700932901,0.000358690758816,-0.0310757918837475,-0.0179442030188703,0.000328325724818839,-0.000638366911676703,-0.0163985739161242,0.0319184278544829,-2.14333252200023,-6.21565261232676e-05,0
0.24,0.000621795995334233,0.000358690748832261,-0.0310752321419189,-0.0179442031325933,0.000328311678181743,-0.000638357858165015,-0.0163981028501608,0.0319181249708292,-2.14333253844058,-6.15454973427653e-05,0
0.25,0.000621783306064164,0.000358690744866129,-0.031074804818882,-0.0179442032381759,0.000328301006629619,-0.000638350984332819,-0.0163977432156169,0.0319178937559994,-2.14333255096212,-6.10805084037393e-05,0
0.26,0.000626409174872742,0.000361315433320754,-0.0312894170755771,-0.0180755076389522,0.000330767283773983,-0.000643063216725459,-0.016506998130917,0.0321445269064757,-2.14333245282741,-9.20839390708463e-05,0
0.27,0.000616236206399799,0.000355164321314824,-0.0308186809439396,-0.0177677896488129,0.000325548868510673,-0.000632381760825259,-0.0162780317485744,0.0316308571891628,-2.14333275852807,-2.11146559674136e-05,0
0.28,0.000615644808322595,0.000354960232655535,-0.030675910074024,-0.0177575796262612,0.00032516235386971,-0.000631889816666914,-0.0161635602897717,0.0315449268791597,-2.14333275114768,-1.7769122581002e-05,0
0.29,0.000620246303838741,0.000357974155780912,-0.0310035679037705,-0.0179083550878537,0.000327397307952851,-0.000636915988477211,-0.0163572864682762,0.0318491692844745,-2.14333259183928,-5.05227457561885e-05,0
0.3,0.000611009796959002,0.000353532359471352,-0.0305605278252321,-0.0176861508250758,0.000322040688909838,-0.000628178235741846,-0.0161053071030097,0.0314223626591296,-2.14333175426687,-2.06754013226098e-05,0
0.31,0.000619707817635688,0.000357700025688591,-0.0309661429057142,-0.01789464740661,0.000327093765158862,-0.000636393554658283,-0.0163332838248022,0.0318173577118286,-2.14333171729178,-7.43947134097442e-05,0
0.32,0.00062174005008606,0.000358500553116377,-0.031063110943,-0.017934682266266,0.000328368125231231,-0.000638167462973388,-0.0163930941573674,0.0319035445271639,-2.14333186588585,-8.20680192004399e-05,0
0.33,0.000622130571492515,0.000358654297341435,-0.031083548794903,-0.0179423742228363,0.000328612976242372,-0.000638508312265559,-0.0164061005175434,0.0319210849478159,-2.1433320236186,-7.95360675142025e-05,0
0.34,0.000622136451659578,0.000358683807869103,-0.0310856565247925,-0.0179438525863827,0.000328601847033756,-0.000638536345588138,-0.0164070670077064,0.0319234716067009,-2.14333215499801,-7.54965383897936e-05,0
0.35,0.000622067475810484,0.000358689459558286,-0.0310838694950538,-0.0179441365335443,0.000328540743176171,-0.00063850376109518,-0.0164054078379895,0.0319227438104754,-2.14333225790802,-7.18874775885276e-05,0
0.36,0.000621996404300024,0.000358690532217639,-0.0310816505334177,-0.0179441905924913,0.000328480373816495,-0.000638466184603466,-0.0164035109221042,0.0319215883898274,-2.14333233701572,-6.90041590298843e-05,0
0.37,0.000621937498155449,0.000358690728370372,-0.0310797373567276,-0.0179442009764308,0.000328430716591878,-0.000638434456016961,-0.0164018952851534,0.0319205616163089,-2.14333239745806,-6.67739322730581e-05,0
0.38,0.000621891572313375,0.000358690758508382,-0.0310782293494864,-0.017944204059234,0.000328392068804992,-0.000638409615450533,-0.0164006246189313,0.0319197479771945,-2.14333244354725,-6.50664747999921e-05,0
0.39,0.000621856240263229,0.000358690758551753,-0.0310770618968962,-0.0179442042104587,0.000328362348722723,-0.000638390485334836,-0.0163996421373784,0.0319191161947834,-2.14333247866884,-6.376361764865e-05,0
0.4,0.000621829290116248,0.000358690754182845,-0.0310761686024467,-0.0179442043448028,0.000328339681609701,-0.000638375889788435,-0.0163988903700256,0.0319186327903877,-2.14333250542662,-6.27705817886191e-05,0
0.41,0.000621808684604301,0.000358690750008656,-0.0310754819078281,-0.0179442044663521,0.000328322351314399,-0.00063836472961661,-0.0163983124663424,0.0319182611993542,-2.14333252581099,-6.20139667988534e-05,0
0.42,0.000621793026743528,0.000358690746666097,-0.0310749582797745,-0.0179442045779186,0.000328309182316023,-0.000638356249015974,-0.0163978717853424,0.0319179778641347,-2.14333254133986,-6.14375552460776e-05,0
0.43,0.000621781094173051,0.000358690744088927,-0.0310745566628661,-0.0179442046819678,0.000328299146481659,-0.000638349786077758,-0.0163975337804837,0.0319177605633592,-2.14333255316934,-6.09984454501242e-05,0
0.44,0.000621771955570295,0.000358690742119512,-0.0310742457922642,-0.0179442047803773,0.00032829146052961,-0.000638344836400586,-0.0163972721435843,0.0319175923748549,-2.14333256218097,-6.06639364103037e-05,0
0.45,0.000621765028858652,0.000358690740617871,-0.0310740082276522,-0.0179442048743244,0.000328285634854567,-0.000638341084738191,-0.016397072193479,0.0319174638620577,-2.14333256904591,-6.04091121924516e-05,0
0.46,0.000621759790169174,0.000358690739474064,-0.0310738266585727,-0.0179442049648619,0.000328281228862254,-0.000638338247351946,-0.0163969193633225,0.0319173656560296,-2.1433325742755,-6.02149910151102e-05,0
0.47,0.000621755715632913,0.000358690738602311,-0.0310736816517067,-0.0179442050530493,0.000328277802023036,-0.00063833604048353,-0.0163967973058237,0.0319172872357477,-2.14333257825938,-6.00671125534001e-05,0
0.48,0.000621752688834548,0.000358690737938424,-0.0310735725485957,-0.0179442051391217,0.000328275256331796,-0.000638334401106579,-0.0163967054579334,0.0319172282495442,-2.14333258129418,-5.99544610836598e-05,0
0.49,0.000621750302320453,0.000358690737432542,-0.0310734829020576,-0.0179442052239026,0.000328273249194293,-0.000638333108509105,-0.016396629987641,0.0319171797913035,-2.1433325836061,-5.98686449811627e-05,0
0.5,0.000621748556090627,0.000358690737047215,-0.031073415700533,-0.0179442053073924,0.000328271780520952,-0.000638332162716135,-0.0163965734013259,0.0319171434828825,-2.14333258536725,-5.98032716378112e-05,0
0.51,4.68042213210204,-0.0163011365681075,5.97961094115325,0.825547047189093,-0.642625162190927,4.6361244550425,0.0177524608943476,6.03630348680502,0.134252111064104,41.5763460456381,2886.05817592883
0.52,4.70037326198218,-0.00795105343366231,4.98291605247253,0.421105976176608,-2.70973369865319,3.84069203446345,-2.52122527062004,4.3185883994596,0.612737943543778,89.1419966925866,2886.05817592883
0.53,4.65083468569692,0.0106310403663499,7.46092922214621,-0.495871833778263,-4.61478370400711,0.578055064791657,-7.46568398638447,0.418230019071192,1.44846962291037,139.819035425304,2886.05817592883
0.54,4.67598452774464,0.0268738716573003,6.2046658793818,-1.30463915610296,-2.16834595617535,-4.14292521330317,-1.68618740004771,-6.11201554761783,2.66515948990992,190.804088066701,2886.05817592883
0.55,4.64148712877345,0.00323719425732449,7.93081897201938,-0.0980026788795294,4.1250456292967,-2.12777155780795,7.09578373704342,-3.54363475108824,-2.04632042677011,238.589072697426,2886.05817592883
0.56,4.64751217608533,0.0293904503339357,7.63107228517567,-1.40473676588778,0.533300258984257,4.61690632991396,-0.56876036715385,7.7384146469266,-0.108676815954468,288.673931696858,2886.05817592883
0.57,4.60003880702338,0.011760552137253,10.0063582287539,-0.523968126106655,-3.76333210999382,-2.64534057667385,-7.8691124948358,-6.203129544266,2.18603935948074,338.386347938786,2886.05817592883
0.58,4.56648128507107,0.0275106695032266,11.6859817737898,-1.30565338068086,4.53230581228287,0.558311909050615,11.4220617888609,2.79345758143454,-1.44220444033746,387.099691074494,2886.05817592883
0.59,4.59589411463278,0.0526530194954175,10.2172887753219,-2.55397919200032,-4.59592732945983,0.0496692631560861,-10.2156285283573,-2.56061191946426,1.57144554659375,435.734427088937,2886.05817592883
0.6,4.52126795677945,0.0324422457180527,13.9506799723903,-1.5358269880879,4.40975860211168,0.99847158567978,13.2339035657016,4.67376001128656,-1.34095233852427,484.489324959643,2886.05817592883
0.61,4.50267460335779,0.0905536323392724,14.8825829289849,-4.42481670731347,-3.1543319693294,-3.21441571227487,-6.98826717973431,-13.8648620388405,2.38573672934955,532.774811341856,2886.05817592883
0.62,4.47203076871351,0.0611297104496442,16.4171018167804,-2.9166857073475,-0.755222555533887,4.40822355710698,-5.86091995650176,15.6101859323154,0.183342544469714,580.533135723045,2886.05817592883
0.63,4.45859060189868,0.0386970649060849,17.0916325767164,-1.82604702004469,4.43489937335646,-0.460646465713205,17.1877422448668,0.19967068114352,-1.66561472218414,629.284382239415,2886.05817592883
0.64,4.45875373734239,0.121134710073939,17.0860363531078,-5.89773243565006,-0.20822320600958,-4.45553606255505,5.56279322430862,-17.19800039789,3.12205419851122,676.839265673107,2886.05817592883
0.65,4.45382657601237,0.076071514986082,17.3351437731548,-3.66831376017602,-4.11973720565015,-1.69414385486247,-14.4646537693462,-10.2341353719786,1.97802121499713,725.232764357698,2886.05817592883
0.66,4.44113575789292,0.104496304157372,17.9725346360908,-5.09480916561395,-4.07459392845665,1.76982784919942,-18.567781215554,2.05099546826112,1.18455194318504,773.013337338214,2886.05817592883
0.67,4.364231518451,0.0686298352072452,21.8206761042822,-3.26552645283812,-2.89592933611345,3.26570361195857,-17.1413373291115,13.8917285904881,0.741181899486926,820.508851962789,2886.05817592883
0.68,4.36027232233639,0.0763790742222052,22.0217106539663,-3.64607029959891,-2.56774948191318,3.52483632046176,-16.1852524787127,15.3716352727013,0.647096390566932,868.071198668205,2886.05817592883
0.69,4.35384824915764,0.0999227213664502,22.3461206213559,-4.84651753111447,-3.35163301809639,2.78074364854878,-20.528770797298,10.070124555118,0.901171336032458,915.669076853333,2886.05817592883
0.7,4.36584071393564,0.0875592575430291,21.7497763299684,-4.20298113250681,-4.34975451104706,0.384535377651178,-21.9854234601499,-2.71274327604993,1.50267446976551,962.982281501742,2886.05817592883
0.71,4.36500859493866,0.161767824115119,21.7947396116806,-7.85682840100936,-2.9061123532729,-3.26097835824802,-7.83272776583622,-21.8034126459636,2.45071617543924,1009.89333964706,2886.05817592883
0.72,4.26185345775629,0.0872417479096801,26.9560096931419,-4.19442675710186,2.34444521268193,-3.56013801174903,18.7381730267228,-19.8267633772649,-2.53877922576538,1057.34112706065,2886.05817592883
0.73,4.28532996066967,0.167013811970142,25.7857710424591,-8.10061535485888,3.46049619652631,2.53316256071908,15.1620679689419,22.3749335705536,-0.899946496283379,1104.00533371118,2886.05817592883
0.74,4.26372851127425,0.109378788770862,26.8696376181969,-5.26304018862596,-3.71446740661273,2.09620524340953,-26.1997658769491,7.9529419558656,1.08266144573554,1151.08211762836,2886.05817592883
0.75,4.23646056354302,0.0932634259501601,28.236895567366,-4.47541392065839,1.02528128498,-4.11158053061654,11.7509617140524,-26.0627416024951,-2.87520149952793,1197.85446870152,2886.05817592883
0.76,4.23398604557007,0.176960772763088,28.3646016840016,-8.65553002815803,1.04669375533276,4.10638346135945,-2.61723042452808,29.5401241308383,-0.20780873404939,1244.35590375234,2886.05817592883
0.77,4.14490338843943,0.129431400427286,32.8228722630384,-6.27676828634458,-1.50868735110497,-3.86275019429539,-5.06611669301673,-33.031397569115,2.80045549960867,1290.78588512148,2886.05817592883
0.78,4.16270446786708,0.158856956965659,31.9370864310228,-7.74063494758356,-3.83741061039228,-1.62099470289872,-25.6428317516496,-20.5509147935308,2.00862216458812,1337.14388814732,2886.05817592883
0.79,4.16447368352813,0.115001102835464,31.8529527337617,-5.50574894777841,2.40357890575832,3.40277456764996,13.0691650164243,29.5655339053549,-0.587372928636689,1383.2887599654,2886.05817592883
0.8,4.15362310328895,0.163176995263055,32.3999600171337,-7.84115988855131,1.05703379489644,-4.02018546492642,16.9619398843268,-28.6972784923967,-2.84521532057879,1429.14106786308,2886.05817592883
0.81,4.15949802667446,0.21905329350253,32.1108717566044,-10.732799684288,-4.14177328198722,0.441726453724341,-32.640074635035,-8.99592140091769,1.51716122233726,1475.2966398869,2886.05817592883
0.82,4.15099016009786,0.202599697517601,32.5410575031398,-9.79481644009341,0.483677285153965,4.12768969648756,-7.56513819414675,33.1304623665478,-0.0678778897820173,1520.76136794548,2886.05817592883
0.83,4.08167806050452,0.143201681004644,36.0115520468102,-6.89434123315015,3.9877652998573,0.882230369178303,33.1426205096142,15.6821722862279,-1.31799939490955,1566.58025207828,2886.05817592883
0.84,3.98831068726608,0.0967215847240059,40.6848848692744,-4.60819079099587,3.08311503238147,-2.53187260742237,34.8957832801862,-21.4191407029929,-2.23408816440286,1612.16211261022,2886.05817592883
0.85,3.93119430528736,0.107294849073641,43.5457994844494,-5.13495312723151,1.15168441311379,-3.76024252717192,18.7506461289275,-39.6360652197777,-2.81709862449382,1657.45510225973,2886.05817592883
0.86,3.93622599642159,0.146995262121074,43.2993532585358,-7.10508181145171,0.142631547717579,-3.93638653381332,10.2674628296685,-42.660231916813,-3.06804749933914,1702.64486201844,2886.05817592883
0.87,3.94846558936488,0.0694059330112748,42.6925895069747,-3.22996598839399,0.534989415561442,-3.91266967928203,9.71817980578671,-41.6970845546739,-2.98812660976793,1747.78038023805,2886.05817592883
0.88,4.00418837228668,0.0815770933458906,39.9116903456235,-3.80229550609202,2.06900721349708,-3.42919647926619,24.5252455766393,-31.7161284958634,-2.5783431106257,1792.65638795691,2886.05817592883
0.89,3.98180325624772,0.14522302067472,41.0362925701681,-6.89847893564851,-1.04954007214665,3.84373679303842,-18.829195925834,37.108323868326,0.303009796444052,1837.25159248341,2886.05817592883
0.9,3.91355874149286,0.319543896002311,44.4538371387476,-15.7277505838977,-3.76951239601269,1.09946651649525,-46.7075562406622,-6.47379060620312,1.36846574692954,1881.90733953211,2886.05817592883
0.91,3.96503061807521,0.278784480601194,41.8855848054894,-13.5873654194907,-1.73472373397005,-3.57630006510905,-2.98093706854952,-43.9332758593525,2.76016278023174,1926.27567588579,2886.05817592883
0.92,3.84112523810282,0.0515075608900433,48,-2.31557291240706,3.72263306102362,-0.948102956747407,47.2111245395492,-8.97059628028396,-1.8067718718715,1970.53384005563,2886.05817592883
0.93,3.86415336554662,0.318221514949937,46.9400792271956,-15.4939735798312,-0.579535841059012,3.833677656503,-25.8799798280936,42.1148536652494,0.23220047848919,2014.29716791852,2886.05817592883
0.94,3.87839986611405,0.290807185022969,46.2330056196237,-14.1275915547754,-2.27288775236363,-3.15603162301804,-12.0883145099464,-46.8076094675998,2.59229706568463,2057.99917904427,2886.05817592883
0.95,3.88561339230697,0.113478355949051,45.8775556259143,-5.26239641247065,3.35227735449692,1.96802065798896,36.0731196868094,28.8300704520813,-1.01074216429567,2101.54751817045,2886.05817592883
0.96,3.83616825750058,0.307858264414618,48,-14.9761373444753,-3.63242975590022,-1.27138415881042,-37.8290161733765,-33.1247675480902,1.98755930536406,2144.8756736946,2886.05817592883
0.97,3.79797088026118,0.289992631912165,48,-14.0563076365922,3.31686726523693,1.8727172981192,32.0573524723197,38.3914826079949,-0.980603080076127,2187.94106493501,2886.05817592883
0.98,3.69793326652566,0.0562464602470789,48,-2.54193521370601,3.69052737360436,0.240586393306843,47.64138488009,6.38434658659876,-1.49048912294778,2230.94538340073,2886.05817592883
