t,iq,id,vq,vd,ia,ib,va,vb,theta_e,omega,r
0,0,0,0,0,0,0,0,0,0,0,0
0.01,0.000688503131794287,0.000393876482966769,-0.0338968992417328,-0.0197152615462374,-0.000599265499578126,0.000519669228779415,0.0294408549773384,-0.0259022658129373,1.37604873518458,-0.00119348931690632,0
0.02,0.000769095887840364,0.000439741846933746,-0.037926121239631,-0.0220110175023346,-0.000669453702624521,0.000580269865390216,0.032949376471427,-0.0289346531673605,1.37603967621651,-0.00130160559061391,0
0.03,0.000801170520178064,0.000458056588488647,-0.0395091193390979,-0.0229277454333688,-0.0006973718498062,0.000604452267559752,0.0343247512985098,-0.0301407277600241,1.37603025256569,-0.00132247178021711,0
0.04,0.000783208163909139,0.00044792241503705,-0.0386409007000057,-0.0224204942079657,-0.000681705137136408,0.000591039443614704,0.0335708552272239,-0.0294753362448997,1.37602126983466,-0.00125646861369468,0
0.05,0.000801626324736681,0.000458506357825001,-0.0395544667917457,-0.0229502755461644,-0.000697721126640214,0.000604994276102425,0.0343643392060077,-0.0301722253365347,1.3760122971865,-0.00125488537737644,0
0.06,0.000802505593064624,0.000459091387300905,-0.0396088111837539,-0.022979545850207,-0.000698465201210678,0.000605744576114059,0.0344117246201181,-0.0302117635953479,1.3760034961194,-0.00122291715638991,0
0.07,0.000822838481551979,0.000470865817854656,-0.0406154946566755,-0.0235689101765223,-0.000716129189719493,0.000621238093470131,0.0352850277057887,-0.0309851376133322,1.3759950248473,-0.0012266322031945,0
0.08,0.000803386966845695,0.000459773129305311,-0.0396735980370136,-0.0230136750337613,-0.000699187705311674,0.000606595830573966,0.0344681692230418,-0.0302583695888238,1.37598661365795,-0.00116017054264082,0
0.09,0.000802121044449302,0.000459156229915918,-0.0396219724095273,-0.0229827939396936,-0.000698060243145055,0.000605751195095235,0.034423253407405,-0.0302183576612849,1.37597851691631,-0.00112708908039784,0
0.1,0.000801896235655382,0.00045912031662834,-0.0396210424134663,-0.0229809918563152,-0.000697841874545113,0.000605677930942297,0.0344224521493433,-0.030216680437399,1.37597064983144,-0.00109672482426402,0
0.11,0.000801734887569503,0.000459116669266875,-0.0396229390120618,-0.0229808225514404,-0.000697679652978528,0.000605648452292709,0.0344241145395078,-0.0302171447900891,1.37596300168416,-0.00106730706426852,0
0.12,0.000801581442110998,0.00045911485710687,-0.0396249496917419,-0.0229807214607896,-0.00069752495844534,0.000605622153408241,0.0344258820645238,-0.030217690861662,1.375955566142,-0.0010387128501631,0
0.13,0.000839090719983364,0.00048066622612394,-0.0414715912775727,-0.0240594731313357,-0.000730147206182352,0.000634033370259433,0.0360284889272449,-0.0316338286660167,1.37594810350963,-0.00107666648697444,0
0.14,0.000873225149608072,0.000500493789633927,-0.0432273059820535,-0.0250519183747994,-0.000759791948996037,0.000660100287540441,0.0375585860090472,-0.0329477042254039,1.3759408357996,-0.00110938985644173,0
0.15,0.000805232537208642,0.000461404702001418,-0.0398317596786349,-0.0230953433626435,-0.000700650333816265,0.000608590870562187,0.0346059232974658,-0.0303709406648006,1.37593371540211,-0.000961942877404853,0
0.16,0.000801227777763457,0.000459235570850968,-0.0396441207684617,-0.0229867693951096,-0.000697137359016069,0.000605691971268137,0.034442658281169,-0.0302283173407808,1.37592707675219,-0.000929568693401597,0
0.17,0.000800874572812727,0.000459113886762165,-0.039635066150121,-0.0229806769530925,-0.000696810503658358,0.000605508682338424,0.0344347602104797,-0.0302208085794148,1.37592063881266,-0.000904420964075801,0
0.18,0.000800733073304519,0.000459105783146442,-0.0396361491866858,-0.0229802677311243,-0.000696669462603586,0.000605477691313097,0.0344357128673715,-0.0302208323290295,1.37591438074627,-0.000880332921178782,0
0.19,0.000800606721687899,0.000459104015759312,-0.0396377502563198,-0.0229801918910023,-0.000696542161393002,0.000605455727118124,0.0344371144485919,-0.0302212774909376,1.37590829668323,-0.000856934997382445,0
0.2,0.000800484838415054,0.000459102636297523,-0.0396393532139965,-0.0229801158909339,-0.000696419271488322,0.000605434889552449,0.0344385230199639,-0.0302217170555901,1.37590238173761,-0.000834188620412646,0
0.21,0.000800366389391307,0.000459101313885442,-0.0396409131240159,-0.0229800399062477,-0.0006962998395728,0.0006054146571479,0.0344398943206489,-0.0302221426537075,1.37589663120541,-0.000812074574333441,0
0.22,0.000800251039032084,0.000459100029190929,-0.0396424192467212,-0.0229799830156719,-0.000696183537370783,0.000605394949243009,0.0344412139815199,-0.0302225710787904,1.37589104051647,-0.000790575219706847,0
0.23,0.000800138890092585,0.000459098780185339,-0.039643882532109,-0.0229799261338721,-0.00069607046337504,0.000605375786948171,0.0344424963074548,-0.0302229858791092,1.37588560522804,-0.000769673466830913,0
0.24,0.00080002988436515,0.000459097565826776,-0.0396453056779384,-0.0229798692601161,-0.000695960558047229,0.000605357161077636,0.0344437438150352,-0.0302233877239702,1.37588032102018,-0.000749352704419008,0
0.25,0.000799924182809743,0.000459096385152629,-0.0396467022263911,-0.0229797933225946,-0.000695853976925041,0.000605339104883907,0.0344449733573835,-0.0302237606691562,1.37587518369362,-0.000729596783106716,0
0.26,0.000807913974308022,0.000463724971810469,-0.0400443630485352,-0.0232114743286211,-0.000702792925624778,0.000611431061571596,0.034790078139202,-0.030528249467327,1.37587022388747,-0.000724843872405121,0
0.27,0.000783139161014889,0.000449530459082528,-0.0388373214839287,-0.0225009771616683,-0.000681233747119727,0.000592710014208692,0.0337433676251794,-0.0295975785257501,1.37586525775636,-0.000662083936726704,0
0.28,0.000781443830662917,0.000448568277274934,-0.038689928919772,-0.0224528320761624,-0.000679754102491811,0.000591440884623382,0.0336079526294165,-0.0295219543410705,1.37586053087289,-0.000641078915939488,0
0.29,0.000798492556093315,0.000458508326695546,-0.0396010985327295,-0.022950369755712,-0.000694551777075325,0.000604498202434957,0.0344053537973814,-0.0301867207062951,1.37585601968555,-0.000654066375094166,0
0.3,0.000793148119928457,0.000455553307030394,-0.0393445775091454,-0.0228024490513143,-0.000689878525049675,0.000600566712670341,0.0341822223243282,-0.0299920512649791,1.37585193279659,-0.000629040885282122,0
0.31,0.000798996587955991,0.000458893860717165,-0.0396365431607761,-0.0229696695834156,-0.000694966494051885,0.000604979912984268,0.0344361344946491,-0.0302128104547358,1.37584761089828,-0.000622928580726433,0
0.32,0.000799248015151147,0.000459078195800946,-0.0396542605565102,-0.0229788879502526,-0.00069517489192977,0.000605212400082262,0.0344516027826028,-0.0302254319642188,1.37584338429251,-0.000607273938468335,0
0.33,0.000799182504830652,0.000459087526976354,-0.0396563060632642,-0.0229793652270291,-0.000695106327206712,0.00060521172107772,0.0344533928360267,-0.0302264380783927,1.37583927375469,-0.000591500748688178,0
0.34,0.000799101264176666,0.000459087177973283,-0.0396574345931684,-0.0229793360532962,-0.000695024274600891,0.000605198417962013,0.0344543848419119,-0.030226765773519,1.3758352773934,-0.000576134429186796,0
0.35,0.000799021201309642,0.000459086316198783,-0.039658478004105,-0.0229792997450754,-0.000694943544149838,0.000605184762124539,0.0344552980791859,-0.0302270661601577,1.37583139211197,-0.000561193436347931,0
0.36,0.000798943233915834,0.000459085449368777,-0.0396594852178891,-0.0229792619827061,-0.000694864935922479,0.000605171431635261,0.0344561793494386,-0.0302273543939447,1.37582761482619,-0.000546667644616735,0
0.37,0.000798867697574427,0.000459084604991379,-0.0396604768729117,-0.0229792051739566,-0.000694788771985452,0.000605158520629846,0.0344570522178113,-0.0302276173171585,1.37582394253506,-0.000532545609700243,0
0.38,0.000798794037545723,0.000459083783961268,-0.039661429046604,-0.022979167413508,-0.000694714506160997,0.000605145924587017,0.0344578857465317,-0.0302278877680164,1.37582037231987,-0.000518816114186576,0
0.39,0.00079872247299209,0.000459082985716057,-0.0396623564206437,-0.0229791296528707,-0.000694642351842686,0.000605133687430333,0.0344586979438548,-0.0302281500005508,1.37581690134323,-0.000505468247266122,0
0.4,0.000798652887498207,0.000459082209628411,-0.0396632567613228,-0.0229790918920443,-0.000694572193265543,0.000605121787947535,0.0344594865351509,-0.0302284036765323,1.37581352684692,-0.000492491401112074,0
0.41,0.000798585281064072,0.000459081455084561,-0.0396641335652415,-0.0229790541309337,-0.000694504028918084,0.000605110227439009,0.0344602548698349,-0.030228649565267,1.37581024614903,-0.000479875262737536,0
0.42,0.000798519479066705,0.000459080721487337,-0.0396649815068604,-0.0229790163696909,-0.000694437686017307,0.000605098973333474,0.0344609976445582,-0.0302288867244537,1.3758070566423,-0.000467609805817694,0
0.43,0.000798455597921425,0.000459080008256011,-0.0396658097216728,-0.0229789786078394,-0.000694373277344617,0.000605088049412724,0.034461723745281,-0.0302291170105815,1.37580395579215,-0.000455685282722105,0
0.44,0.00079839346300525,0.000459079314825387,-0.0396666126799208,-0.0229789408457013,-0.000694310630197975,0.000605077423032915,0.0344624276725685,-0.030229339437078,1.37580094113382,-0.000444092216767355,0
0.45,0.000798332855156901,0.000459078640647051,-0.0396673825567218,-0.0229789206615722,-0.000694249528220493,0.000605067052884998,0.0344630982714657,-0.0302295698150577,1.3757980102718,-0.000432821394686102,0
0.46,0.000798274154491609,0.000459077985186759,-0.0396681414456537,-0.0229788828967992,-0.000694190343012088,0.000605057013744314,0.0344637639589824,-0.0302297780130246,1.37579516087689,-0.000421863859304776,0
0.47,0.000798217083640101,0.000459077347925336,-0.039668878361568,-0.0229788451313898,-0.00069413280118527,0.000605047252957783,0.0344644104834521,-0.0302299792270089,1.37579239068471,-0.000411210902426641,0
0.48,0.000798161423444171,0.000459076728358249,-0.0396695852755508,-0.0229788263948495,-0.000694076686496055,0.000605037729118769,0.0344650262142491,-0.0302301906456104,1.37578969749325,-0.000400854057909645,0
0.49,0.000798107612220589,0.000459076125994575,-0.0396702868959495,-0.0229787886263815,-0.000694022427749204,0.000605028528189984,0.0344656427019058,-0.0302303797906581,1.37578707916267,-0.000390785094938551,0
0.5,0.000798054978822484,0.000459075540357382,-0.0396709523217887,-0.0229787698846187,-0.000693969365347554,0.00060501952112051,0.0344662221935212,-0.030230578083039,1.37578453361197,-0.000380996011483801,0
0.51,4.6402983641536,0.0449408256236581,7.98613181042123,-2.2454175366221,-0.274249977086619,4.63240494087491,-2.78925912688078,7.8128250159788,0.0688180803828598,21.2692459853805,2961.46761483962
0.52,4.62703246255788,-0.0181424974128346,8.65063987288323,0.917339122553112,-1.4412085982313,4.39689394188227,-1.78937246009678,8.51312090100516,0.312822208637042,45.307725736164,2961.46761483962
0.53,4.66087499438908,-0.00531665286448801,6.95970190145259,0.280717653256812,-3.12593841840399,3.45720884305028,-4.45337528672886,5.35571671333403,0.733978894860103,69.690324014763,2961.46761483962
0.54,4.70108594746881,0.00405250015309999,4.95044051786083,-0.182463585756186,-4.572311424582,1.09279172072411,-4.85808555179514,0.969102188855504,1.33705721010292,95.1106609382865,2961.46761483962
0.55,4.62577420775541,0.0526221946186016,8.71728286951739,-2.6123849549153,-3.93993429737027,-2.42435019106298,-5.97761671292736,-6.86175445590854,2.13378530773257,122.409029895028,2961.46761483962
0.56,4.65223002137876,0.0266654918067015,7.3958155029507,-1.30730896309364,-0.0992783791104436,-4.65124703963489,1.1917092452564,-7.41532013829756,3.12598313202403,147.847626607391,2961.46761483962
0.57,4.63000214710044,0.00460495067557609,8.50853309013941,-0.195328343026531,4.23630071559365,-1.86834079728142,7.86707983627738,-3.24689749718477,-1.9851722267083,171.945707147716,2961.46761483962
0.58,4.63193696599762,0.0621488674358383,8.4132586110829,-3.07596481425829,2.78192389479416,3.70399810775763,2.47772631437023,8.60844656756333,-0.630762340982296,198.177330740571,2961.46761483962
0.59,4.60664392272806,0.0170982939298687,9.67935541722796,-0.81337124657342,-3.64367957019297,2.81869824071699,-8.17316584408426,5.24889075547083,0.916082127790321,223.270883564512,2961.46761483962
0.6,4.63150774401332,0.0557790349132272,8.43757625254529,-2.74119526050154,-2.26564092271974,-4.03990674309307,-1.63141895493513,-8.72039658887087,2.64252680125367,248.359695126461,2961.46761483962
0.61,4.61010458843129,0.0507962041845662,9.50922798737914,-2.49072888534261,4.54851470147511,-0.752767282166026,9.77773333615841,1.01246140825778,-1.72378910453679,273.866348339612,2961.46761483962
0.62,4.585112167673,0.00804400727209442,10.7603520081169,-0.350916742775876,-1.66978844686235,4.27026051183309,-4.26282742766845,9.88618329897152,0.374501814900941,299.361807341641,2961.46761483962
0.63,4.64575797555423,0.0220341253333842,7.72961631387905,-1.03713683679616,-2.1676832832344,-4.10909988363523,-2.65448175334157,-7.33323583414589,2.66090531901934,324.014181807644,2961.46761483962
0.64,4.60271894955459,0.0671747867781634,9.88310763501592,-3.29916245797894,4.23155637817009,1.81203333273304,7.68460658328247,7.03612898614142,-1.1516086697062,349.877956800004,2961.46761483962
0.65,4.60163468393826,0.0612785427760392,9.93896504475062,-3.00299128067675,-4.58695399301028,0.372357207846722,-10.1193070664947,-2.32392067131927,1.50311239628331,375.143232453862,2961.46761483962
0.66,4.57518649110488,0.0244782959079914,11.2629601277246,-1.14397764007604,4.25874449430635,-1.67213215613315,10.918072373917,-2.99310061936073,-1.939587310576,399.856345463404,2961.46761483962
0.67,4.61729801878386,0.0210432378306524,9.15907080438947,-0.967573384575773,-4.07565731781088,2.17000028569086,-8.55492891930238,3.41144653190444,1.08610036963044,424.984093180367,2961.46761483962
0.68,4.62735659045118,0.0465727827484166,8.6578194312178,-2.24301826301351,4.21350846231394,-1.91335947414325,8.82554942355627,-1.44867028828173,-1.98699129629276,450.299387215657,2961.46761483962
0.69,4.5717740763225,0.1120516336322,11.4386814231629,-5.51898867300586,-4.49281904578651,0.85337611599578,-12.1834009273927,-3.5871172988607,1.40759466435367,475.555673141536,2961.46761483962
0.7,4.62805882376187,0.100808225407679,8.62616258532829,-4.95079869486488,4.4825514903017,1.15577805451738,6.96390186111865,7.10106749258881,-1.29667466878708,500.74551973573,2961.46761483962
0.71,4.58666033120351,0.0567440993747939,10.6978881558547,-2.74012716727088,-2.91057614207506,-3.54530949394171,-4.54608343087494,-10.0641061862202,2.46656899000494,525.822924162244,2961.46761483962
0.72,4.60013165429809,0.0531701022374477,10.0260703430003,-2.55350342195455,-0.547291301605253,4.56776865962304,-3.83941582407073,9.60735928226893,0.130805305420233,550.890629890588,2961.46761483962
0.73,4.59574330537213,0.033916696559267,10.2472729064676,-1.58213172869792,4.12372676125409,-2.02901071207007,9.91568188257423,-3.03133561819981,-2.02067036388425,575.992967957556,2961.46761483962
0.74,4.56018425094118,0.0640865630036105,12.0270998862198,-3.09955913651573,-3.45778641976347,-2.97373512024674,-6.95374592833295,-10.2909579766929,2.29512636239006,601.315948853462,2961.46761483962
0.75,4.60853355915343,0.0786308631508308,9.6115225745754,-3.8291298155451,-2.18934745733298,4.05604759458673,-8.0471199696985,6.50288101837552,0.512018327512145,626.593037997475,2961.46761483962
0.76,4.54807134672899,0.0710230939094427,12.6365467399643,-3.43513594820965,4.05992771629982,2.05109341406633,9.59186922826254,8.9150724731712,-1.08737903645197,651.402664946303,2961.46761483962
0.77,4.55558125255928,0.10858772273152,12.2629831341649,-5.30148559021998,2.626156739288,-3.72403176985506,11.5625583216854,-6.69281330008139,-2.50355905673556,676.342614716969,2961.46761483962
0.78,4.55147091456833,0.072576594340928,12.470483151058,-3.51488035529707,-2.60787430378626,-3.73097124940127,-4.06786184909982,-12.3012127007671,2.5474959711318,701.705610114979,2961.46761483962
0.79,4.52958567231164,0.109269928583481,13.566776493275,-5.32968706930484,-4.50986297851044,0.436144695215327,-13.9162920624431,-4.33587406505038,1.49850598790278,726.355432469123,2961.46761483962
0.8,4.58847253567537,0.00897622498882233,10.6244496406162,-0.323821221778719,-2.70623305084625,3.70546400033378,-6.54407976509719,8.37608562382868,0.632753043475389,751.71076886604,2961.46761483962
0.81,4.54475424562923,0.123666665158954,12.8123701903124,-6.03958279367634,0.348686693131966,4.5330455752473,-5.39737071843262,13.0958687968032,-0.0495657454706797,776.376080301152,2961.46761483962
0.82,4.56811093275655,0.0725892208252805,11.6465776490811,-3.49593261200808,2.44410082904348,3.85995826744525,3.09045869678968,11.7606709335486,-0.548580562200652,801.652884356953,2961.46761483962
0.83,4.55654704111717,0.10937304098661,12.2268965492362,-5.32905594831116,3.53822031206573,2.87316557533564,5.84631515737541,11.9881789946012,-0.864759880385765,826.49509319018,2961.46761483962
0.84,4.54605898343084,0.0928656430516521,12.7534269561423,-4.48618722100402,3.87013691686735,2.38690522501253,8.28347730497666,10.6845579527416,-0.99772704176858,851.293746001943,2961.46761483962
0.85,4.55008356816681,0.051460996566663,12.554336058912,-2.42218407413806,3.72590546193903,2.6121901156237,8.78466959735677,9.29020503726273,-0.948030663879234,876.413032271211,2961.46761483962
0.86,4.48777282594931,0.0951163205292491,15.6720420236259,-4.61560940576592,3.01608765608038,3.32451008459888,6.79860178212073,14.8558326991467,-0.715602612380183,901.442919124631,2961.46761483962
0.87,4.51416256655001,0.0930922088989432,14.3547724175525,-4.51201314727588,1.42528952150749,4.28425951787237,-0.0601867944424077,15.0470638780691,-0.300543541418631,926.301093302359,2961.46761483962
0.88,4.48198179796194,0.0675359623253695,15.9660530749627,-3.21446738212663,-1.24706291161449,4.30552622079403,-7.74616946650369,14.3263571761801,0.296994709394993,951.080283745774,2961.46761483962
0.89,4.50263653118844,0.0904223170560838,14.9355131161823,-4.33990150429268,-3.92199680985555,2.21356114686207,-15.2084592017551,3.25684906300012,1.07704677686085,975.934675470405,2961.46761483962
0.9,4.52788403692325,0.0963947885491801,13.6754194952309,-4.63344932044939,-4.08306304580584,-1.95949533580935,-10.1072354642035,-10.3116314056924,2.03952760082133,1000.79811426143,2961.46761483962
0.91,4.47727791479871,0.128731146885717,16.2080354889183,-6.26581455465514,-4.38197340645447,-0.927846053851925,-14.2798348555568,-9.90187673834552,1.80820015542723,1025.7000499954,2961.46761483962
0.92,4.47684835281075,0.0913721190300116,16.2318309576738,-4.409575818705,-0.120678864511081,-4.47615422543288,4.30321595673863,-16.260351397466,3.13504587991239,1050.63583545761,2961.46761483962
0.93,4.53065237008474,0.10271317428804,13.5439845517779,-4.96862766074276,4.51302862590569,-0.412229931570503,13.8519939438622,4.03101006561639,-1.63921890691823,1075.48981562383,2961.46761483962
0.94,4.51000883581498,0.0674896282973698,14.578544418971,-3.19084377463249,-0.165426957349628,4.5074791703167,-3.93919791830821,14.3943794979297,0.0516473786730302,1100.20767135862,2961.46761483962
0.95,4.5084305945747,0.10176050071781,14.6598472277664,-4.88550164045286,-4.26501155608312,-1.46491571500921,-12.0629179774556,-9.65739389739785,1.92421185570728,1124.8728354339,2961.46761483962
0.96,4.4942916037437,0.141750681115333,15.3692149242811,-6.89907738520261,3.24245019243957,-3.11532775557026,16.0336089619699,-5.17043710051639,-2.30467265504211,1149.76560131245,2961.46761483962
0.97,4.49870456182989,0.0893537071642316,15.150991544477,-4.28136944164687,0.39728516112502,4.48201866577583,-3.23353858926201,15.4086630590858,-0.0685492372814623,1174.62949339895,2961.46761483962
0.98,4.46450740713863,0.105707603198428,16.8632189227337,-5.07017877523231,-3.25273262397273,-3.05985799714842,-8.44531357812975,-15.4515870969916,2.34932293917242,1199.2567836634,2961.46761483962
