t,iq,id,vq,vd,ia,ib,va,vb,theta_e,omega,r
0,0,0,0,0,0,0,0,0,0,0,0
0.01,0.000558404967488133,0.000306581809647837,-0.0252779553098221,-0.0153389741135047,-0.00059018283720324,0.00023977642167882,0.0268858118188369,-0.0123049694978176,1.68699154898642,-0.00619078529767346,0
0.02,0.000670231961342056,0.000364448842390067,-0.0308039207115767,-0.0182341865361502,-0.000707951052360406,0.000284322261150395,0.0327094794782168,-0.0145415625743706,1.68694415683854,-0.00661443443530591,0
0.03,0.000709292800819162,0.000386629837985183,-0.0328729618474889,-0.0193439550504928,-0.000749305229117363,0.000301861860015002,0.0348924747425336,-0.0154056945303873,1.68689786429443,-0.00617269366681621,0
0.04,0.000691553112720559,0.000379370605240279,-0.0324046884739556,-0.0189807584984874,-0.000730832244670112,0.00029673556238563,0.0343846799870469,-0.0151005566275017,1.68685806983559,-0.00516727581168323,0
0.05,0.00070430493637974,0.000388902044554229,-0.033234113108907,-0.0194576475868646,-0.000744591372577111,0.000304752246178864,0.035263207517583,-0.0154794224479506,1.68682308888897,-0.00462907515577892,0
0.06,0.00070298643943751,0.000390355693196915,-0.0334130662316703,-0.0195303658158574,-0.000743440667678431,0.000306371465522036,0.0354489014157834,-0.0155320176512026,1.68679254666896,-0.00400734119242245,0
0.07,0.000711868827556313,0.000397618267995644,-0.0340005246808404,-0.0198937256654284,-0.000753095896384818,0.000312576527491433,0.0360740603487467,-0.0158258702566002,1.68676691088354,-0.00360727676958948,0
0.08,0.00069863153617532,0.000391682272250722,-0.0335984978373853,-0.0195967425882027,-0.000739253598681745,0.000308229042386122,0.0356400128144057,-0.0155782175997787,1.68674399523393,-0.00299146208318985,0
0.09,0.000694027833924843,0.000390771902275882,-0.0335454982716615,-0.0195511895746613,-0.000734569585286063,0.00030787146383415,0.0355818011993831,-0.015539784151846,1.6867248201153,-0.00255508459687449,0
0.1,0.000691296698424399,0.000390630502238641,-0.0335521616202227,-0.0195441168410043,-0.000731835406410072,0.000308058845768616,0.0355873486307994,-0.015532568039906,1.68670852530726,-0.00219865675457264,0
0.11,0.000689180406895593,0.000390607020730765,-0.0335671262630376,-0.0195429418646438,-0.000729726317212779,0.000308290414803985,0.0356018612144116,-0.0155301648527416,1.68669463259816,-0.00189735937709991,0
0.12,0.000687412827014653,0.000390601842821196,-0.0335815476791381,-0.0195426817688711,-0.000727966340167582,0.000308498301360976,0.0356159717472485,-0.0155286609771992,1.68668277969739,-0.00164076365389503,0
0.13,0.000714892961488728,0.000406645025216018,-0.034871146432521,-0.0203453681561807,-0.00075711360015832,0.000321264874168291,0.0369895526220152,-0.0161772635433816,1.68667161976666,-0.00175451183924075,0
0.14,0.000731169731642296,0.000416848364039551,-0.0359336046372862,-0.0208558652556045,-0.000774457592615825,0.0003295256777734,0.0381037420054748,-0.0165618810214583,1.68666161755625,-0.00175462057347112,0
0.15,0.000691357102806061,0.000394611056534013,-0.033986455756306,-0.019743273422381,-0.00073233837957427,0.000312046514708645,0.0360408876817966,-0.0156821693465657,1.68665279859075,-0.00109432169125867,0
0.16,0.000683571330233017,0.00039120936464633,-0.0336923164631607,-0.0195730794569405,-0.000724209704861388,0.000309572017288551,0.0357289523558942,-0.0155473339075136,1.68664675826171,-0.000879613291760508,0
0.17,0.000681613492357408,0.000390688466122487,-0.0336444248048247,-0.0195470252393363,-0.000722203267290833,0.000309284450367699,0.0356782941715633,-0.0155271646208232,1.68664186961973,-0.000758800574671036,0
0.18,0.000680781371944292,0.000390608246460038,-0.0336398962652361,-0.0195430127513674,-0.000721366176338475,0.000309303925328708,0.0356732681738755,-0.0155238495847748,1.68663774554585,-0.000666874063113011,0
0.19,0.000680221378453414,0.000390595504680941,-0.0336425284285262,-0.0195423718545994,-0.000720807377205597,0.00030935852493185,0.035675754123309,-0.0155230339979282,1.68663423485632,-0.000590428518166659,0
0.2,0.000679770467060783,0.000390593152109294,-0.0336459342654795,-0.0195422455826441,-0.000720358289332121,0.000309410460962795,0.0356790760623871,-0.0155226217612791,1.68663124059994,-0.000525552740113989,0
0.21,0.000679390324565041,0.00039059244755953,-0.0336490313054779,-0.0195422152427488,-0.000719979822280728,0.000309455535920343,0.0356821091848169,-0.0155223248424249,1.68662868578143,-0.000470256227055863,0
0.22,0.00067906681814474,0.000390592045527821,-0.033651703392948,-0.0195421962929939,-0.000719657762522655,0.00030949409425014,0.0356847273374409,-0.0155220749918737,1.68662650572526,-0.000423081463112488,0
0.23,0.000678790983803845,0.000390591732856243,-0.0336539847145113,-0.0195421800418588,-0.000719383164549787,0.000309527000488436,0.0356869626188572,-0.0155218615827251,1.68662464542507,-0.000382827837048401,0
0.24,0.000678555661994602,0.000390591470642599,-0.0336559250407216,-0.0195421636100253,-0.00071914889783256,0.000309555077667763,0.0356888634048568,-0.0155216776727628,1.68662305797549,-0.000348478548443593,0
0.25,0.000678354670939604,0.000390591247554565,-0.0336575625816685,-0.0195421631966913,-0.000718948808359208,0.000309579058094512,0.0356904689000899,-0.015521536361996,1.68662170335658,-0.00031916731132257,0
0.26,0.000683826801016151,0.000393783022592099,-0.0339042048617529,-0.0197018459747216,-0.000724752850066657,0.000312117716559009,0.035953898253413,-0.0156516785841835,1.68662078651265,-0.000367703482703761,0
0.27,0.000670204991580278,0.000385878095656454,-0.0333205389139983,-0.0193063424330526,-0.000710308264794,0.000305841142444749,0.0353284109745743,-0.0153263351677151,1.68661913212631,-0.000168813015335651,0
0.28,0.000669701245890869,0.000385706398000726,-0.0330425420373589,-0.0192977587763099,-0.000709787800956049,0.000305729393124791,0.0350512720957384,-0.0153499642523944,1.68661831062688,-0.000146381098732765,0
0.29,0.00067634215055983,0.000389843636607595,-0.033598163412298,-0.0195047566415778,-0.00071686221865969,0.000309071715117441,0.0356270868871376,-0.0154913781266549,1.68661796666614,-0.000220530642409391,0
0.3,0.00066766028620925,0.000385453622841954,-0.0332076588557001,-0.0192851041578123,-0.000707731607665208,0.000305713468225763,0.0352138354633505,-0.0153182780042114,1.68661930414112,-0.000141197400041068,0
0.31,0.00067608888528547,0.000389805105230946,-0.0335797829932199,-0.0195028213713035,-0.000716606485532341,0.000309062041932756,0.0356086204096618,-0.0154915467217876,1.68661889886805,-0.000235927150253353,0
0.32,0.000677507994210464,0.000390470514001671,-0.0336470752410405,-0.0195361189261533,-0.000718092775262296,0.00030955947835579,0.0356792993484152,-0.0155168686589538,1.68661822562093,-0.000239879576299402,0
0.33,0.000677686073045837,0.000390572193447226,-0.0336597191488872,-0.0195411960724435,-0.00071828121535796,0.000309640351954259,0.0356924354488438,-0.0155204732161671,1.68661759253075,-0.000229494776678721,0
0.34,0.000677653012606493,0.000390587669435393,-0.0336624787255973,-0.0195419747575682,-0.000718249994324791,0.000309659940357265,0.0356952579760916,-0.0155209474387677,1.68661704181174,-0.000218171333974704,0
0.35,0.000677591720168744,0.000390589972481003,-0.0336633906743484,-0.0195420929929856,-0.000718189232565341,0.000309669649903175,0.0356961701554325,-0.0155209763376764,1.68661656999069,-0.000208068182270075,0
0.36,0.000677533454337182,0.000390590270221046,-0.033663901050713,-0.0195421122716046,-0.00071813126671691,0.000309676968308899,0.0356966730860592,-0.0155209508914632,1.68661616703515,-0.000199368027696067,0
0.37,0.000677482697259931,0.000390590269258803,-0.0336642827565527,-0.0195421140531732,-0.00071808074307749,0.000309683079853477,0.035697047102635,-0.0155209208274709,1.68661582312124,-0.000191929813695377,0
0.38,0.000677439460735817,0.000390590229431079,-0.0336646045073271,-0.0195420996479105,-0.000718037700729329,0.000309688247468961,0.0356973604780158,-0.0155208798135353,1.68661552963812,-0.000185580033350646,0
0.39,0.00067740226603783,0.000390590189478034,-0.0336648553369895,-0.0195420984544223,-0.000718000673042672,0.000309692685835399,0.0356976056022698,-0.0155208585821648,1.68661527919813,-0.000180161119173861,0
0.4,0.000677370542862783,0.000390590154470938,-0.0336650611995934,-0.0195420986894215,-0.000717969092167475,0.000309696470435271,0.035697806795912,-0.0155208426549977,1.68661506548949,-0.000175536912500726,0
0.41,0.000677343534508248,0.00039059012445842,-0.0336652309089948,-0.0195420989013975,-0.000717942204808976,0.000309699692635617,0.0356979725624007,-0.0155208297639664,1.68661488312541,-0.000171590920495375,0
0.42,0.000677320426066975,0.00039059009882569,-0.0336653636851574,-0.019542099094339,-0.000717919200025112,0.000309702449301767,0.0356981020560286,-0.0155208201672543,1.68661472750858,-0.000168223681768074,0
0.43,0.00067730075187768,0.000390590076948925,-0.033665470231569,-0.0195420992705244,-0.00071789961398772,0.000309704796445454,0.0356982058479525,-0.0155208127702417,1.68661459471626,-0.000165350313103043,0
0.44,0.000677283929863756,0.000390590058279722,-0.0336655504294205,-0.0195420994327894,-0.000717882867419776,0.000309706803192648,0.0356982837685195,-0.0155208077089803,1.6866144814003,-0.000162898379311954,0
0.45,0.000677269552571579,0.00039059004234845,-0.0336656087994898,-0.0195420995831322,-0.000717868554658733,0.000309708518214226,0.0356983402641201,-0.0155208045649844,1.68661438470453,-0.000160806068907579,0
0.46,0.000677257328962846,0.000390590028753873,-0.0336656517496021,-0.0195420997229684,-0.000717856385814827,0.000309709976495292,0.0356983816619754,-0.0155208026861972,1.68661430219103,-0.000159020636188199,0
0.47,0.000677246909791592,0.000390590017152845,-0.0336656800273912,-0.0195420998540044,-0.000717846013298015,0.00030971121954793,0.0356984086726196,-0.0155208020621747,1.68661423177952,-0.000157497071629231,0
0.48,0.000677238004019514,0.000390590007253552,-0.033665694357678,-0.01954209997766,-0.00071783714743663,0.000309712281988794,0.0356984219886433,-0.015520802673902,1.68661417169575,-0.000156196967207647,0
0.49,0.000677230378815971,0.000390589998805723,-0.0336656962954469,-0.0195421000950713,-0.00071782955646157,0.000309713191563523,0.0356984231312199,-0.0155208043969195,1.68661412042403,-0.0001550875481833,0
0.5,0.00067722385955798,0.000390589991597258,-0.0336656883287113,-0.0195421002070889,-0.000717823066495176,0.000309713969168352,0.0356984145517436,-0.0155208069906721,1.68661407667258,-0.000154140846861398,0
0.51,4.71694153416168,0.0234894434911948,4.15368055022042,-1.15923643011404,-1.41224846124446,4.50062700902527,-2.36763237817669,3.60433185708424,0.309038765293734,95.5837573523273,5502.78409680527
0.52,4.68599454115377,0.0457982757393973,5.70196789120618,-2.2553354148931,-4.61991221248053,0.785527511139422,-5.98666538646898,-1.32620255484277,1.41214933164096,206.55525846344,5502.78409680527
0.53,4.67606728705889,0.0458392276266033,6.19936523373466,-2.24387330790565,1.00701109855984,-4.56657805750312,3.58066118816467,-5.53587953072867,-2.91474601181256,326.233269272385,5502.78409680527
0.54,4.64192059471623,0.00237959670216453,7.90776298545709,-0.0431525284968189,0.567139655865909,4.60714500323958,0.919297509167372,7.85426442542646,-0.121971180700015,436.978606787003,5502.78409680527
0.55,4.63452373722814,0.0533284510838321,8.27884504309804,-2.57435898688088,1.61689986886039,-4.34364927321548,5.37935894419468,-6.79919824615197,-2.77373361233174,550.620809867609,5502.78409680527
0.56,4.63677806259569,0.0679625026164579,8.16748744390096,-3.28704788215112,-4.61324804712091,-0.471457484048781,-7.73005295467683,-4.21412105233417,1.68729540617638,664.192854488472,5502.78409680527
0.57,4.6318543793735,0.064238843596181,8.41514401378378,-3.08196518250199,-2.91539557850405,3.59981530659381,-7.75425654983399,4.49273452567945,0.694600569769316,778.090990343076,5502.78409680527
0.58,4.65335469006108,0.0956985046642317,7.34171674147512,-4.65148914072733,-2.27961493902696,4.05785951026813,-7.73436987030454,3.96442664803949,0.532403180266371,891.776212606074,5502.78409680527
0.59,4.61177007965465,0.0790968966928433,9.42259716065776,-3.78668778229043,-4.26001449227726,1.76832013850773,-10.1548438178703,-0.059064771603714,1.19449265012527,1003.57116753329,5502.78409680527
0.6,4.57378929583241,0.0933412691709185,11.3233781112741,-4.48462863317674,-2.10800757573217,-4.06011886228191,-0.990117886192486,-12.1387994628724,2.68310951279067,1115.73862552298,5502.78409680527
0.61,4.54762505931178,0.0975136462164854,12.6335039084772,-4.67785309985326,4.39557737176618,1.1701718506681,10.8357867043025,8.00458975389592,-1.28917550126192,1227.89545093169,5502.78409680527
0.62,4.51256299606299,0.122542357922218,14.3885785886935,-5.90879850041793,-4.38018827505337,-1.09187549565282,-12.2774318922367,-9.55038007898325,1.84224254386583,1339.76840287374,5502.78409680527
0.63,4.49677711040849,0.10538948290821,15.1799754086366,-5.06896789950306,2.20985345560272,3.91773646747227,2.67384851463498,15.7789930950549,-0.490144243341668,1452.32851177857,5502.78409680527
0.64,4.51819598070998,0.133971723195162,14.1111972867099,-6.44963879441259,4.04213351890339,-2.02316582564983,15.5150209595795,-0.0886231721919373,-2.00521637596584,1562.87784610882,5502.78409680527
0.65,4.55375431882401,0.163032914611855,12.3355261600788,-7.90669994969647,1.78047558452809,-4.19442067756139,12.3860937189931,-7.82724677807204,-2.70437031416107,1674.70309792417,5502.78409680527
0.66,4.52079172139037,0.11898672798963,13.9859823659198,-5.69654973678759,2.27141514704803,-3.91054840903295,12.1893213548213,-8.91508982301426,-2.58906438825462,1785.87603823478,5502.78409680527
0.67,4.53502821659856,0.162390695562216,13.2765710968454,-7.84563836278188,4.50227846735092,-0.567750179021154,13.925660152108,6.62550909267644,-1.6604442672879,1896.56252541276,5502.78409680527
0.68,4.46196798430175,0.168178885445824,16.9320906611657,-8.09905617605854,-0.187466674763147,4.46119924194122,-9.42093032831534,16.2338066038103,0.0796706846436949,2006.668855601,5502.78409680527
0.69,4.43461297234972,0.121395962199959,18.3024021527994,-5.78558887741231,-2.2780506853202,-3.806706485833,-3.92112988404913,-18.7903087695133,2.62969553355667,2117.6261567036,5502.78409680527
0.7,4.50000867469618,0.18156407539284,15.0353153409071,-8.72525154532276,1.4812587121978,4.25310665435893,-3.98013343236526,16.9218574568586,-0.29481329940013,2227.19620794038,5502.78409680527
0.71,4.44986817065215,0.170572191980749,17.5450761131752,-8.17925308872743,2.83736068777732,-3.43217218919973,17.7885451930673,-7.63528236680019,-2.41247149641723,2337.43060594629,5502.78409680527
0.72,4.41220690726323,0.235096110438664,19.4309580617094,-11.394415106152,-3.22568561627897,3.01956822717682,-22.2052355892509,3.78448665383801,0.871622804470108,2447.25409413165,5502.78409680527
0.73,4.3680502093923,0.213682748472372,21.6416711325823,-10.2920428957071,-1.35539648654333,4.15793498181884,-17.3224200763188,16.5596448958747,0.36399697716318,2556.76222876865,5502.78409680527
0.74,4.37986626266242,0.158768380520687,21.0538264504609,-7.58959797738956,-2.5586400412233,3.55834189151499,-18.8997875585525,11.9859766354731,0.659633492648215,2666.74883792979,5502.78409680527
0.75,4.38842295823067,0.232136093560186,20.6290672721688,-11.1872089935606,-4.35542997641311,-0.585126436611369,-18.1985931888853,-14.8163176103486,1.75718899337234,2775.51775316604,5502.78409680527
0.76,4.39466510171236,0.210221667986876,20.3201145647968,-10.1095034304007,1.97247546207535,-3.93276175955401,18.7771393398011,-12.748653017062,-2.62890684221489,2884.83981011055,5502.78409680527
0.77,4.34009859537543,0.219295270475822,23.0516276091993,-10.5653978662907,-0.0721212618455166,4.34503679579617,-12.0868199159525,22.2915668320007,0.0670817967929853,2993.83674503358,5502.78409680527
0.78,4.33194669649686,0.254340249065019,23.4625472138837,-12.2912023801753,1.52804016658368,-4.06147071796553,20.7652951034442,-16.4428494179392,-2.72310019891989,3102.31862714965,5502.78409680527
0.79,4.34395311909319,0.297275173113495,22.8655889549805,-14.382958354862,-4.34237700599882,0.319473265238049,-22.9388017023112,-14.2659043091514,1.56568529751506,3210.54556548208,5502.78409680527
0.8,4.2879854478442,0.232175260505045,25.6673863954525,-11.1896488358207,-1.31806771685509,4.08698202177335,-19.6357491723555,19.9614708847516,0.366065337930423,3319.33108816671,5502.78409680527
0.81,4.2671768079614,0.276169510334673,26.7112799988015,-13.2967513941663,4.17265250428642,-0.934900308757239,28.450870483566,8.9913316889095,-1.72658100304294,3427.18396099599,5502.78409680527
0.82,4.29683557258362,0.314081523431426,25.2318687406195,-15.1900448926213,4.25436298869163,0.679587155287538,21.076335195186,20.5711632807643,-1.3394294443647,3535.31434402456,5502.78409680527
0.83,4.30474572229114,0.300199921284225,24.8399617549901,-14.4780975100375,0.984510447827933,4.20139201984778,-10.3208956424769,26.8350166878395,-0.160552287580331,3643.23441014394,5502.78409680527
0.84,4.24525797196647,0.296158320681455,27.8180298862011,-14.2529718192807,-4.19556525680462,-0.712149686054653,-23.6779843915812,-20.4044859671305,1.80858179464811,3750.95590093284,5502.78409680527
0.85,4.24024815546028,0.24138563905946,28.0723174928491,-11.5884269659189,4.16036808891485,-0.853995791188389,29.4565394777357,7.393167856904,-1.71638746874797,3858.73305313646,5502.78409680527
0.86,4.21741874228336,0.35981156646556,29.21762451183,-17.4151081835688,-4.16958129475281,-0.72847583183855,-23.8053296402457,-24.2953052230042,1.82887201658603,3965.72741663317,5502.78409680527
0.87,4.20567454632272,0.340142878903134,29.8088105645475,-16.4609388319341,4.00478600489595,-1.32856487332943,32.8638368242635,8.91604865901566,-1.81041458249604,4072.88281815263,5502.78409680527
0.88,4.24059299842399,0.324398220372917,28.0669331603693,-15.6734994791413,0.366692980516363,-4.23714519950682,20.0122987270093,-25.1578858931394,-2.97891566661792,4179.79069438304,5502.78409680527
0.89,4.21126808590798,0.323772387685011,29.5372974316626,-15.6149980099675,-1.24954708636485,-4.03463003624514,8.67645001677998,-32.2645210335456,2.91798714292296,4286.35512633801,5502.78409680527
0.9,4.14831436435118,0.400570908522628,32.6891961076865,-19.4074511239623,0.311056247450486,-4.15598521762999,24.6861768100038,-28.9106446797888,-2.97062269863894,4392.62440619268,5502.78409680527
0.91,4.11470013119078,0.265009156230989,34.3742232763059,-12.7181196224569,3.9504251874775,-1.18115530759128,36.3510132083577,4.68418950366616,-1.79701373806469,4499.08622202254,5502.78409680527
0.92,4.12832516240718,0.373911867804683,33.6973468119588,-18.0437601856439,-0.265271068726888,4.136726966038,-23.0102349877534,30.5224106127093,0.154363990730261,4604.80893065786,5502.78409680527
0.93,4.17070761997208,0.419915950348408,31.5827172148183,-20.3511849619123,-3.72500252466226,1.92236511826187,-36.8499572342407,-7.3293524857097,1.19471890930687,4710.58125392618,5502.78409680527
0.94,4.12659351295639,0.395642083692649,33.7930002166421,-19.135726308495,4.11977892068717,-0.461224808769114,34.0930762269928,18.5958338983779,-1.58670182778411,4816.1216078696,5502.78409680527
0.95,4.09242612653655,0.388717732152276,35.5059825814442,-18.7550913867759,-2.14205592708727,-3.50865351405334,1.30729876048844,-40.1337666055774,2.68818409949377,4921.49866891678,5502.78409680527
0.96,3.37599493858741,0.231048099484192,40.8431713579653,-11.0986003541143,-3.315903572162,0.67491373505535,-41.951230333234,-5.6069465776313,1.43833274646959,5020.3799548245,5502.78409680527
0.97,2.84172024506802,0.282819536821064,34.548438691086,-13.6961214651308,-1.94343332848524,2.09246929233619,-34.9657133058506,12.5927460147662,0.847684795754746,5101.68561456359,5502.78409680527
0.98,2.28179935427509,0.287059281320353,35.2883404834976,-14.086483015253,1.9512353970544,1.21724761221549,18.4853423270108,33.1962060614084,-0.887889232009284,5168.78414586962,5502.78409680527
