t,iq,id,vq,vd,ia,ib,va,vb,theta_e,omega,r
0,0,0,0,0,0,0,0,0,0,0,0
0.01,0.000548061949798585,0.000305221055259969,-0.0260459379320848,-0.0152704553917438,0.00060802495340904,-0.000154393812774251,-0.0290919269996214,0.00807697183862574,-1.31133461067106,-0.00302795845329925,0
0.02,0.000661760789809225,0.00036537799386541,-0.0316334631889781,-0.01828016409682,0.0007333476287565,-0.000183383959841802,-0.0352643732910738,0.00955323867193211,-1.3113583092042,-0.00337493093693832,0
0.03,0.000703586177233844,0.000388479710530066,-0.0337266693763926,-0.0194359576718811,0.000779695040047694,-0.000195001637975385,-0.0375837881267709,0.0101342758937009,-1.31138248966652,-0.00329138617108097,0
0.04,0.000689007639626165,0.000381527098587539,-0.0331652243770284,-0.0190881045338715,0.000763816643162907,-0.000192037991155898,-0.0369516817481446,0.00994288985448816,-1.31140439874093,-0.00290617360358607,0
0.05,0.000703680515467727,0.000391101379351959,-0.0339644117615846,-0.0195671219398909,0.000780450401381265,-0.000197544242547723,-0.0378467918258557,0.0102016604438379,-1.31142458635456,-0.00271700733397279,0
0.06,0.000704209749473523,0.000392656650553286,-0.034091679062927,-0.0196449248017466,0.000781357140468222,-0.000198926206208761,-0.0379895671228373,0.0102449227237366,-1.31144307808647,-0.0024675776159238,0
0.07,0.000714208114383188,0.000399746288543094,-0.0346509474215113,-0.0199996310809785,0.000792835961003498,-0.000203227618188145,-0.0386209262479779,0.0104449727779364,-1.31145949386945,-0.00230235349461221,0
0.08,0.000702480455997603,0.000394058692889802,-0.0341862254262906,-0.0197150717461677,0.000780038881958324,-0.000200749563222008,-0.0380986150132033,0.0102896840053237,-1.31147476576791,-0.00202460298069398,0
0.09,0.000698814181745166,0.000393131087162752,-0.0340895533791694,-0.0196686740435762,0.000776254611249749,-0.000200803612555735,-0.0379931386258931,0.0102701414584882,-1.31148831277458,-0.00181796030022092,0
0.1,0.000696762212300178,0.000392978298677636,-0.0340607400741303,-0.0196610283703371,0.000774229623325821,-0.000201191486116497,-0.0379632034190649,0.0102706006221334,-1.31150046014072,-0.0016399542554119,0
0.11,0.000695142498526986,0.000392951782586527,-0.0340453502325925,-0.0196596898127061,0.000772655056074378,-0.000201589585591543,-0.037947872694405,0.0102736670162575,-1.31151137639124,-0.0014813107177207,0
0.12,0.000693726544974384,0.000392945980217234,-0.0340333946090714,-0.0196594086494909,0.000771282963152214,-0.000201954582325134,-0.0379361437600366,0.0102768328624283,-1.31152119063686,-0.00133892165698533,0
0.13,0.000720838433949304,0.000408848856569403,-0.0353549982256358,-0.020455047455711,0.000801563884124744,-0.000210382449466318,-0.0394174602332915,0.0107074130725859,-1.31153051366873,-0.00137150838900474,0
0.14,0.000736897340462556,0.000418785197356726,-0.0362900976544391,-0.0209521693436406,0.000819631603984251,-0.000215876737181439,-0.0404486603556127,0.0109485370442634,-1.31153914214532,-0.00134838606122625,0
0.15,0.000698297522084585,0.00039714602850874,-0.0343907093644615,-0.0198695354563985,0.000776772672937915,-0.000204862421850919,-0.0383351193992963,0.0103893190578419,-1.31154704158474,-0.00101282275366152,0
0.16,0.000690605608941799,0.000393623630442543,-0.0340657211382488,-0.0196933187346319,0.000768433521061822,-0.000203434493764383,-0.0379757516628191,0.010302545563919,-1.31155341894514,-0.000880354921970484,0
0.17,0.000688577087423643,0.000393049563560418,-0.0340017266560974,-0.0196645838097191,0.000766324482911854,-0.00020340391252319,-0.0379064717727264,0.0102913881351802,-1.31155902190996,-0.000791866178155379,0
0.18,0.000687636936981881,0.000392955379539435,-0.0339854483938358,-0.0196598864251384,0.000765390582757043,-0.000203557714758343,-0.0378894816911317,0.0102912105195072,-1.31156403607028,-0.000717840965433894,0
0.19,0.000686951812243045,0.000392939366055353,-0.0339782897708802,-0.0196590772011631,0.000764723327588423,-0.000203721304683817,-0.0378823084648964,0.0102924339942325,-1.31156854025387,-0.000652283372845387,0
0.2,0.000686364580744204,0.000392936142616754,-0.0339731937054958,-0.0196589214048714,0.000764154064764281,-0.000203871810652988,-0.0378773010515866,0.0102937430705027,-1.31157258941037,-0.000593518602758675,0
0.21,0.000685841843471674,0.000392935062601614,-0.0339688542288314,-0.0196588687477398,0.000763647772979867,-0.000204007540304881,-0.037873055582389,0.0102949423948717,-1.31157623006602,-0.00054071309803221,0
0.22,0.000685372831893232,0.000392934387216107,-0.0339649959922334,-0.019658833411754,0.000763193589665825,-0.00020412960600373,-0.0378692834877227,0.0102960211727649,-1.3115795035338,-0.000493238998282129,0
0.23,0.000684951259559664,0.000392933827905389,-0.0339615295890587,-0.0196587994060924,0.000762785357127994,-0.000204239369456211,-0.0378658938697986,0.0102969882761243,-1.31158244686523,-0.000450553767636864,0
0.24,0.000684572165941529,0.000392933332676606,-0.0339584072034333,-0.0196587830630797,0.000762418260640285,-0.000204338078077638,-0.0378628443553548,0.0102978730152202,-1.31158509335899,-0.000412173566133985,0
0.25,0.000684231444049872,0.000392932888535744,-0.0339556029973617,-0.0196587502866728,0.000762088321139131,-0.000204426795462232,-0.0378601009232502,0.0102986501945403,-1.31158747295173,-0.000377664069566283,0
0.26,0.000689403727811448,0.000396058350907249,-0.0342090372146957,-0.019815122231667,0.0007678885044648,-0.000206123656950151,-0.0381451283376108,0.0103849159996382,-1.31158949132631,-0.00038060622910123,0
0.27,0.00067609038868375,0.000388429131184368,-0.0335978193497037,-0.0194334304353843,0.00075306398696757,-0.000202163387277951,-0.0374564733002318,0.010172722912341,-1.31159173602873,-0.000271422292374923,0
0.28,0.000675463722209947,0.000388246720343657,-0.0334477616885199,-0.0194243038619029,0.000752411151727453,-0.000202148991180983,-0.0373090715774285,0.0102024271877762,-1.31159346267329,-0.000244144406926992,0
0.29,0.000681744632671426,0.000392169087360877,-0.033879840121293,-0.019620540815642,0.000759487305775103,-0.000204331518920198,-0.0377769995623401,0.0102814149128222,-1.31159484507547,-0.000262311174050602,0
0.3,0.000672943993385135,0.000387627784705435,-0.0334700717255835,-0.0193933400841501,0.000749816585836724,-0.00020219793597595,-0.0373226813974406,0.0101668478025565,-1.31159529329001,-0.000204280770626275,0
0.31,0.000681106739853025,0.000392068120439392,-0.0338587945847815,-0.0196154868915586,0.000758844515581348,-0.000204398638229815,-0.0377553452131047,0.0102819844663676,-1.31159644736647,-0.000236665416660419,0
0.32,0.000682441741518961,0.000392790533282582,-0.0339279397488441,-0.0196516246647198,0.000760319836160249,-0.000204755660105159,-0.0378314306331348,0.0102992380210638,-1.31159764628809,-0.000228164852702166,0
0.33,0.000682555604606165,0.000392907925390934,-0.0339393747873941,-0.0196575084604086,0.000760459757244052,-0.000204840788971858,-0.0378439803383546,0.0103020363026185,-1.31159875346643,-0.00021371591080288,0
0.34,0.000682461671765615,0.000392926875998532,-0.0339404871486554,-0.0196584500359409,0.000760373614229484,-0.000204883942988891,-0.0378452865619034,0.0103026991973481,-1.31159975426186,-0.000199492945896633,0
0.35,0.00068234147318322,0.000392929822066624,-0.0339398143244439,-0.019658606261956,0.00076025800123027,-0.000204918282884936,-0.0378446669727549,0.0103030567435891,-1.31160065508088,-0.000186481639616007,0
0.36,0.000682227108044414,0.000392930177509682,-0.0339389125474838,-0.0196586152480188,0.000760147381357598,-0.000204948554431647,-0.0378437892743469,0.0103033272166916,-1.31160146522453,-0.000174742237314455,0
0.37,0.000682123032751465,0.000392930123858586,-0.0339380397321652,-0.0196586186366619,0.000760046619458414,-0.000204975730991298,-0.0378429389766474,0.0103035817642932,-1.31160219369582,-0.000164179472057808,0
0.38,0.000682029389504349,0.000392930014869516,-0.0339372487828474,-0.0196586042703911,0.000759955941980896,-0.000205000124343773,-0.0378421640163584,0.010303795386543,-1.31160284870581,-0.000154680650185728,0
0.39,0.000681944988394032,0.000392929906979188,-0.0339365240120815,-0.0196586032205432,0.00075987421171985,-0.000205022099680856,-0.0378414571174657,0.0103040024181063,-1.31160343765856,-0.000146139552483195,0
0.4,0.000681869085604426,0.000392929808354835,-0.0339358680455697,-0.0196586035931229,0.000759800710440636,-0.000205041860630185,-0.0378408177009451,0.0103041909416364,-1.31160396721529,-0.000138459787223909,0
0.41,0.000681800866226038,0.000392929719409729,-0.033935276042381,-0.0196586039360875,0.00075973464933849,-0.000205059621028877,-0.0378402406537467,0.0103043610211932,-1.31160444336569,-0.000131554523789713,0
0.42,0.000681739702851232,0.00039292963938815,-0.0339347489086285,-0.019658587998629,0.00075967542067005,-0.00020507554506369,-0.0378397226311949,0.0103044969205558,-1.31160487149632,-0.000125345659532906,0
0.43,0.000681684521988852,0.000392929567426237,-0.0339342620049624,-0.0196585882926584,0.000759621985591473,-0.000205089910729434,-0.03783924809988,0.0103046365640621,-1.31160525644918,-0.000119762963273777,0
0.44,0.000681634870851985,0.000392929502717772,-0.033933818815835,-0.0196585871100462,0.000759573905343685,-0.0002051028366171,-0.037838815844433,0.010304762106923,-1.3116056025795,-0.000114743285743573,0
0.45,0.000681590283783859,0.000392929444532863,-0.0339334195208278,-0.0196585873629758,0.000759530728836745,-0.000205114444352873,-0.0378384267445076,0.0103048764662554,-1.31160591380234,-0.000110229846152888,0
0.46,0.00068155012049795,0.000392929392213962,-0.0339330532253502,-0.0196585875987368,0.000759491836282829,-0.000205124900088069,-0.037838069860832,0.0103049811634206,-1.31160619363815,-0.000106171590062009,0
0.47,0.000681514277455406,0.00039292934517012,-0.0339327337224033,-0.0196585715698862,0.000759457126802695,-0.000205134232199258,-0.0378377543289126,0.0103050570783824,-1.31160644525206,-0.000102522611903471,0
0.48,0.000681481855788376,0.000392929302869633,-0.0339324331168093,-0.0196585717764012,0.000759425730833854,-0.00020514267271792,-0.0378374614856766,0.0103051428827841,-1.31160667149079,-9.92416357136864e-05,0
0.49,0.000681452751958008,0.000392929264833974,-0.0339321616191386,-0.0196585719699711,0.000759397547649544,-0.000205150249665867,-0.0378371970098773,0.0103052203509487,-1.31160687491294,-9.62915482393821e-05,0
0.5,0.000681426500303016,0.000392929230633367,-0.0339319096964296,-0.0196585721524121,0.000759372126561197,-0.000205157083726768,-0.0378369516637312,0.010305292015014,-1.31160705781993,-9.36389791261217e-05,0
0.51,4.73512025353881,0.0293186325578575,3.2446943466383,-1.45841245706938,-0.653157201433981,4.68994766153136,-1.91064864865997,3.00073824906731,0.144569093356485,44.7465822919649,5231.06667918682
0.52,4.73286371085679,0.000662531122236132,3.35833317880301,-0.0140039245251121,-2.89716221142322,3.74251926717738,-2.06720499158368,2.64674543024499,0.658900568075905,95.7507922752239,5231.06667918682
0.53,4.71991756852159,0.0202478335850296,4.00655774968501,-0.982501111818439,-4.71893633959932,0.0983445535481682,-4.02226646284753,-0.916070924185177,1.55424878009702,149.330462282858,5231.06667918682
0.54,4.67698711133961,-0.0145002722559719,6.15406473067531,0.760448892196002,-1.29011591418939,-4.49555554136389,-2.44617296107525,-5.69798500098835,2.85902668847231,205.821373459688,5231.06667918682
0.55,4.66443960975839,0.0773357176733029,6.78247946279569,-3.81925449646957,4.59543876887888,-0.803069242217622,7.29467118807051,2.71597217032546,-1.72722452437417,256.87159846981,5231.06667918682
0.56,4.62820243785216,0.0176915962379298,8.59547923871429,-0.833532375556613,-1.5958104948875,4.34441706822964,-3.7758442941661,7.7665976740451,0.355847020475612,312.04491627192,5231.06667918682
0.57,4.68615324724796,0.0348922552221436,5.69917992267254,-1.67248358791513,-1.46518639306929,-4.45134570211433,-0.149030630911881,-5.93764625199997,2.83105223421019,363.513528876416,5231.06667918682
0.58,4.65495198170374,0.0279991914099447,7.26054896719915,-1.32187256665858,2.59627290412528,3.86377133303617,2.91154081380373,6.78128663876821,-0.585638625140689,416.991198561484,5231.06667918682
0.59,4.62873147452462,0.0726280056248392,8.57296353151068,-3.55072309639951,-2.17538866989683,-4.08633258868394,-0.749312029619546,-9.24888478153904,2.66808498842882,470.548115713135,5231.06667918682
0.6,4.6051376485609,0.0721214441600047,9.75410688132017,-3.51864568218235,-0.0510879712416709,4.60541901286899,-3.77830089035096,9.65649578630526,0.0267523606971608,523.61394476307,5231.06667918682
0.61,4.62271970439234,0.0260929856273264,8.87647571316479,-1.20467915464311,3.64822171593776,-2.8391365977417,7.77029562777258,-4.4570818714776,-2.22647351192682,576.385676045874,5231.06667918682
0.62,4.60012952642362,0.0255348703568963,10.007569841275,-1.16192143537835,-3.75871366575468,-2.65215294965196,-7.46965160770585,-6.76060799111189,2.19082246119996,628.791309564231,5231.06667918682
0.63,4.59200202969306,0.0736741057900594,10.4156348443894,-3.55341622881786,-2.940384565944,3.52789584865079,-9.48883406359849,5.574427703395,0.710859751321435,681.216108909703,5231.06667918682
0.64,4.57071510520876,0.0663325300378661,11.4817402392119,-3.20249307409659,1.76826693718955,4.21533730754338,1.31650007114784,11.8470734096249,-0.382677874276473,734.614991198424,5231.06667918682
0.65,4.63485739630399,0.0387568166885561,8.27644420164934,-1.79252008492771,4.1288226986447,2.10623557516009,6.51298029577259,5.41236958685955,-1.09071590659234,786.523737399539,5231.06667918682
0.66,4.5807468415261,0.0600797163482705,10.9838198541972,-2.87338347150824,4.53434637963575,0.653111099241151,10.4032460753278,4.54676833146017,-1.41462880337155,839.552184084205,5231.06667918682
0.67,4.54776795988776,0.0652002791571324,12.6346157872132,-3.09170775389654,4.45477013144542,0.91731541432901,11.6702763334289,5.74428613732021,-1.35338154784028,891.362929439887,5231.06667918682
0.68,4.55006546024848,0.0537140018187698,12.5216956406599,-2.5200393050318,3.61897167761025,2.7584460993814,8.31715069012724,9.69373324441839,-0.907716758700164,943.978059542725,5231.06667918682
0.69,4.58041914655098,0.123674026615411,11.0060945758045,-6.02137433354196,0.485440849842637,4.55630135134345,-5.13231941603545,11.4477230962308,-0.0791483000140561,996.432834486119,5231.06667918682
0.7,4.56121689404447,0.118721608484298,11.9683158167591,-5.76982708484447,-4.07882047838365,2.04499825915719,-13.2857830969436,-0.139483259424423,1.13207593033596,1048.67276949932,5231.06667918682
0.71,4.52523859017756,0.085035821121981,13.7693931098634,-4.07491706017525,-1.90604215545539,-4.10512103238541,-1.83547072095689,-14.2419164052374,2.72569302487562,1100.74190033054,5231.06667918682
0.72,4.53089451389148,0.133858548693303,13.4888122282537,-6.49830913126228,4.52909849747295,-0.184905400836313,13.5611805504493,6.34590095830763,-1.58206483702883,1152.61850308107,5231.06667918682
0.73,4.5073297367617,0.121652420194245,14.6693773544984,-5.86289461739623,-3.06462572283791,3.30739925714385,-14.4485066620902,6.38786509711186,0.774300037947532,1204.33192725594,5231.06667918682
0.74,4.50718033062157,0.0881108890303229,14.6791959434769,-4.21761743767504,1.54671282195821,-4.23439694737016,9.23753737894415,-12.1628530193446,-2.77182999376839,1256.6415443065,5231.06667918682
0.75,4.52000746358952,0.0950945169445911,14.0401683562602,-4.53245480701686,-1.44417540207802,4.2841414362846,-9.02738396925861,11.6694392633645,0.346170368546774,1308.3824988899,5231.06667918682
0.76,4.45293371352752,0.101755482885854,17.3963377094898,-4.88794091578649,2.7990213050447,-3.46474422855039,14.969474124634,-10.1212339430896,-2.43923122783242,1360.28272319372,5231.06667918682
0.77,4.45779466689547,0.17036629717453,17.1557906032815,-8.27025971490339,-4.3960974654892,0.758475471807816,-18.0989266912787,-5.92850736689401,1.43814358785905,1411.72763430644,5231.06667918682
0.78,4.45055361000173,0.10959091792573,17.5203880926779,-5.24702847575878,2.56211557624521,3.64074187203005,5.36337145578212,17.4851237733902,-0.588608795750487,1463.67131894936,5231.06667918682
0.79,4.45586948178663,0.107175730945792,17.2572349058181,-5.13315360949257,3.4366692894354,-2.83823249066612,16.7390745769954,-6.63059611792328,-2.23706408665803,1515.36309431905,5231.06667918682
0.8,4.41447816805147,0.115907380230717,19.3294673442772,-5.5692099066063,3.51109597472449,-2.67829368689628,18.9313088726072,-6.80073166411272,-2.1961944151682,1566.90543167294,5231.06667918682
0.81,4.48977199474612,0.157845549753994,15.5675289074073,-7.6546452704483,0.0780963515550883,-4.49186695509311,8.46142192977256,-15.1441701464862,-3.08906601514051,1618.35322262498,5231.06667918682
0.82,4.48491673419025,0.113112385988683,15.8130815525395,-5.40012823825903,-2.10552929226961,-3.9615677356166,-2.23612985326411,-16.5594280232214,2.67828767743576,1669.71729196245,5231.06667918682
0.83,4.48430276638823,0.200667303078529,15.8465884447125,-9.74771489674497,-2.70657037213706,-3.58102157042258,-0.94878654377364,-18.5804228998878,2.53910277352641,1720.91579550747,5231.06667918682
0.84,4.38036581402805,0.166544558839272,21.0463345738702,-8.01467160023823,-1.72080361603997,-4.0316468929965,-0.0350616218628375,-22.5207000454609,2.77618047628736,1772.11027362003,5231.06667918682
0.85,4.37046006712401,0.134880835450289,21.5445386340026,-6.47988059801226,0.940353369430424,-4.2702282818016,11.5624361305449,-19.2993799963521,-2.8939884849014,1823.65448888347,5231.06667918682
0.86,4.38286282769619,0.230805280206069,20.9274046020975,-11.2144998431408,4.06364848438402,-1.65816725306452,23.4503460232946,3.71517718277962,-1.90560983540554,1874.51615780361,5231.06667918682
0.87,4.40715888329482,0.194990639181481,19.7155996786148,-9.45657422389558,2.44063301651876,3.67483077850551,2.06996676729657,21.7680248144321,-0.542041935324788,1925.90572882142,5231.06667918682
0.88,4.36444129365059,0.122618151271415,21.854547461461,-5.85547283141207,-4.01693255142699,1.7110335747816,-22.4815627021809,2.54698749360208,1.19620426061635,1977.04777498236,5231.06667918682
0.89,4.35306667871897,0.199712017949616,22.4264015245813,-9.63439857392728,0.527149943236452,-4.32564299692343,13.2305393843926,-20.5114102104431,-2.97447804939717,2027.87164118175,5231.06667918682
0.9,4.38076528786451,0.220590799091972,21.0446596478859,-10.668620195456,2.24925335783366,3.76571694903861,0.446493946711136,23.5902055888837,-0.488118102297713,2078.7714488763,5231.06667918682
0.91,4.34245824927672,0.223716516683549,22.9632302738853,-10.8199580502318,-3.1840161170648,-2.96125549266187,-8.2215574371574,-24.0163991915479,2.37143414204549,2129.69141263987,5231.06667918682
0.92,4.32616726720858,0.189923717074506,23.7810668773736,-9.12173617807434,-2.40312726704863,3.60232891065512,-21.411203197009,13.7951292268285,0.63217814454891,2180.58048293592,5231.06667918682
0.93,4.33236545403057,0.206673352264074,23.4744832448421,-10.0314377926112,3.75805372020447,-2.16544141871142,25.4633086586365,-1.81687092398172,-2.04587376446896,2231.55794725376,5231.06667918682
0.94,4.35385227111093,0.135313939764746,22.4035283732917,-6.42688513232955,-4.12147495813523,-1.40988780774099,-18.693988976082,-13.9196879361274,1.93147021264289,2282.25318639776,5231.06667918682
0.95,4.3021603041393,0.227188067798417,24.9915628251696,-10.9669459528406,0.239301076861465,4.30150353891228,-10.8965318920416,25.0223441887975,-0.00281577738989881,2332.73228496817,5231.06667918682
0.96,4.27741936116461,0.17028995235339,26.2320953055186,-8.18880454867558,4.27820622736248,-0.149219755043583,26.19144372253,8.31790958016277,-1.56587087640094,2383.58477028431,5231.06667918682
0.97,4.28183137216031,0.221150241156888,26.0149988020793,-10.6476610382695,1.39734839774195,-4.05344357110198,19.6097463338447,-20.1397789704935,-2.75801668179093,2433.95230828275,5231.06667918682
0.98,4.35653168593699,0.223160159193347,22.2835710696258,-10.7748750936978,-2.05002264916398,-3.85052930454228,0.305371264005164,-24.749994369514,2.70354161943591,2484.55188989224,5231.06667918682
