t,iq,id,vq,vd,ia,ib,va,vb,theta_e,omega,r
0,0,0,0,0,0,0,0,0,0,0,0
0.01,0.0013683347008265,0.000766774901700133,-0.0660962218641272,-0.0383812436591087,0.00113806120859078,-0.00107939811416553,-0.0546432051641743,0.0534410941029256,-1.81897496004187,-0.00431207656609387,0
0.02,0.00152577941574632,0.000855002190933755,-0.0741228149858453,-0.0427975032202065,0.001268971945016,-0.00120363689490602,-0.0613371830154543,0.0596956276710288,-1.81900657418561,-0.00440435049460525,0
0.03,0.00158590706835425,0.000890194071048537,-0.0771863846840176,-0.0445590353204194,0.00131857287452327,-0.00125256228913272,-0.0638722022955407,0.0621577620510348,-1.81903728042957,-0.00417852067709523,0
0.04,0.00154622307185611,0.000870586611539662,-0.0754717389242838,-0.0435775693001528,0.00128488992273992,-0.00122384015401263,-0.0624496253666136,0.0607867766371477,-1.81906421347001,-0.00366625545608074,0
0.05,0.00157963967344716,0.00089100077841745,-0.0772266811430684,-0.0445994102575964,0.00131223424723943,-0.00125187266342896,-0.0638981061266851,0.0622101254549566,-1.81908931988608,-0.00342808376137586,0
0.06,0.0015783214487122,0.000892072430428674,-0.0773126551552919,-0.0446530493762357,0.00131066446136718,-0.00125261745409561,-0.0639668382892013,0.0622847097210929,-1.81911217516844,-0.00310337340568616,0
0.07,0.0016158881053241,0.000915143394847795,-0.079233484433113,-0.045807900965636,0.00134138266729589,-0.00128424076478658,-0.0655436280106796,0.0638775521876624,-1.81913242286911,-0.00294738696861648,0
0.08,0.00157484136965502,0.000893335813656083,-0.0774010939414339,-0.0447163140032227,0.00130693165736224,-0.00125303785199086,-0.0640345786498987,0.0623702719129508,-1.81915125135533,-0.00254404218881649,0
0.09,0.00157004585204173,0.00089217742917405,-0.0772809391741398,-0.0446583282378125,0.00130254721357956,-0.00125075788985606,-0.0639313279250216,0.0622855934416351,-1.81916788449591,-0.00229469040908621,0
0.1,0.00156762133799243,0.000892111237051798,-0.0772626508147457,-0.0446550199090072,0.00130019469932622,-0.00125011713949024,-0.0639134838984968,0.0622788454449161,-1.81918281963329,-0.00207719011983294,0
0.11,0.00156555282481461,0.000892103282157482,-0.0772514841158398,-0.0446546012052726,0.00129817484783534,-0.00124961833283961,-0.0639019267846492,0.0622765522497121,-1.8191962445423,-0.00188205957299331,0
0.12,0.00156369941042734,0.000892098853753463,-0.0772417266580397,-0.0446544084434293,0.00129636433370413,-0.00124917401723655,-0.0638917646611802,0.0622747375669163,-1.81920831278493,-0.00170667022840642,0
0.13,0.00163689124874297,0.000934090067223562,-0.080803829629032,-0.0467562809080215,0.00135696997766859,-0.00130788749271607,-0.0668269844505056,0.065188671073426,-1.81922003698059,-0.00179121193371091,0
0.14,0.0017027383997147,0.000973439904348813,-0.0843502741098776,-0.0487259577988622,0.00141110611095346,-0.00136223450582909,-0.0697795421253778,0.067970605460012,-1.81923060357661,-0.0018670064254387,0
0.15,0.00156716206520616,0.000896388157441119,-0.0776146777571928,-0.0448690846040711,0.00129862600024206,-0.00125422453289561,-0.0641984851742042,0.0625765727560855,-1.8192402926061,-0.00127036533490894,0
0.16,0.0015581029347377,0.000892312189410526,-0.0772331690636544,-0.0446650865275462,0.00129083769688434,-0.00124805602394731,-0.0638783741177388,0.0622855174033452,-1.81924797393666,-0.00113194603969012,0
0.17,0.00155658947829857,0.000892094430902677,-0.0772055905532101,-0.0446541581318249,0.0012894157211318,-0.00124748161336973,-0.0638539035474022,0.0622685799813277,-1.81925481861208,-0.00103089826137357,0
0.18,0.00155561822154082,0.000892080871051815,-0.0771993074129958,-0.044653477016897,0.00128846995379221,-0.00124723755149574,-0.063847597933127,0.062266767323465,-1.81926096807068,-0.000941435652736657,0
0.19,0.00155476772800324,0.00089207831283008,-0.0771947274313105,-0.044653373965984,0.00128763931367805,-0.0012470330397118,-0.0638428397445609,0.0622658940599961,-1.81926649590868,-0.000861094122484627,0
0.2,0.00155400508828355,0.000892076521868853,-0.0771906956279721,-0.0446532598189783,0.00128689433936329,-0.00124685014921421,-0.063838650421163,0.0622651091414442,-1.8192714651384,-0.00078887596722098,0
0.21,0.00155331932246357,0.000892074938436732,-0.0771870545485504,-0.0446531854367634,0.00128622445477938,-0.00124668571230005,-0.0638348613175208,0.0622644267628295,-1.81927593221904,-0.000723955841652153,0
0.22,0.00155270294017815,0.000892073516136969,-0.0771837789107682,-0.0446531137695647,0.00128562234726917,-0.00124653790910383,-0.0638314538773328,0.06226380804424,-1.8192799478946,-0.000665596006731471,0
0.23,0.00155214841421026,0.00089207223739639,-0.0771808058383938,-0.0446530760196069,0.00128508066786905,-0.00124640493160853,-0.0638283566396626,0.0622632706863097,-1.81928355778023,-0.000613133520041506,0
0.24,0.00155165042630032,0.000892071087683334,-0.0771781514722787,-0.0446530010886184,0.00128459421381236,-0.00124628551173409,-0.0638256001806547,0.062262752368309,-1.81928680288128,-0.000565972444980476,0
0.25,0.00155120242035048,0.000892070053992364,-0.0771757413607013,-0.0446529629930032,0.00128415658737208,-0.00124617807284514,-0.063823091835441,0.0622623088810015,-1.81928972006016,-0.000523577066059439,0
0.26,0.00156693098796692,0.000901085463829641,-0.0779411028303466,-0.045104203258058,0.00129718159590956,-0.0012587881638344,-0.0644538070318938,0.0628880864794778,-1.81929222742761,-0.000541913565208716,0
0.27,0.0015176722723905,0.000873180580442122,-0.0756130161309639,-0.0437074268874272,0.00125629566752424,-0.00121962889774063,-0.0625405944866359,0.0609618029162472,-1.81929499445366,-0.000335691251641453,0
0.28,0.00151433676346743,0.0008711420465029,-0.0751458774140298,-0.0436053874228291,0.0012535613996548,-0.00121683528699236,-0.0621127720860282,0.0607481378184429,-1.81929712455919,-0.000294507199335833,0
0.29,0.00154772084960771,0.000890960612313786,-0.0770682881035348,-0.0445974055961869,0.00128104361280118,-0.00124425797289239,-0.0637320431838838,0.0621826043900367,-1.81929872463422,-0.000385575876610906,0
0.3,0.00153697527211189,0.000885388489064581,-0.0765587804538847,-0.0443184954953345,0.00127199816703678,-0.00123621455528826,-0.0633067638028138,0.0617869692117266,-1.81929907324791,-0.000344162864877634,0
0.31,0.001548772798415,0.000891713123608973,-0.0771308741546312,-0.0446350690098893,0.00128187576504938,-0.00124524856912416,-0.0637833233199061,0.0622346270145765,-1.8193006523621,-0.000362142353484443,0
0.32,0.00154924779968921,0.000892046977983839,-0.0771632728345434,-0.0446518065757484,0.00128225217858985,-0.00124569093529396,-0.063810515947923,0.0622589155019271,-1.81930216426267,-0.000342575031160379,0
0.33,0.00154908012324951,0.000892064172149295,-0.0771641048199532,-0.044652655091335,0.00128208372422212,-0.00124566810971617,-0.063811028721365,0.0622600296570085,-1.81930352881058,-0.000322885376893999,0
0.34,0.00154889451751087,0.000892064671607976,-0.0771631872811937,-0.0446526655541674,0.00128190216897087,-0.00124562451561217,-0.0638100604039623,0.0622598924166079,-1.81930475578766,-0.000305062007863287,0
0.35,0.00154872501680755,0.000892064329839343,-0.0771622280399138,-0.0446526692303485,0.00128173658544005,-0.00124558390797318,-0.0638090610530947,0.0622597304282713,-1.81930585879567,-0.000289032466055616,0
0.36,0.00154857305501688,0.000892063980784901,-0.0771613796338719,-0.0446526300958097,0.00128158814273454,-0.00124554746394521,-0.0638081866021874,0.0622595470913188,-1.81930685034424,-0.00027462230702862,0
0.37,0.00154843603418354,0.000892063664778624,-0.0771605894213815,-0.0446526307336287,0.00128145429873684,-0.0012455145981582,-0.0638073650133073,0.0622594102232537,-1.81930774169518,-0.00026166829079526,0
0.38,0.00154831298318878,0.000892063380576729,-0.0771598783027968,-0.0446526313145784,0.0012813340998368,-0.0012454850836009,-0.0638066257106467,0.0622592870055506,-1.81930854297373,-0.000250023295542815,0
0.39,0.00154820258167223,0.000892063125077861,-0.0771592429385722,-0.0446525949337165,0.00128122625564688,-0.00124545860423433,-0.0638059739677374,0.0622591414267543,-1.81930926328186,-0.000239555044157226,0
0.4,0.0015481030465724,0.000892062895389046,-0.0771586503956813,-0.0446525954213696,0.00128112902839078,-0.00124543472922154,-0.0638053591943067,0.0622590374711414,-1.81930991080178,-0.000230144625016983,0
0.41,0.00154801363960077,0.000892062688904596,-0.0771581143618513,-0.0446525929571821,0.00128104169393123,-0.00124541328390841,-0.0638048039939188,0.0622589403778599,-1.81931049288866,-0.000221685142616143,0
0.42,0.00154793350606744,0.000892062503281009,-0.0771576375197601,-0.0446525564615501,0.00128096341616827,-0.00124539406430444,-0.0638043181996045,0.0622588211040511,-1.81931101615481,-0.000214080503392466,0
0.43,0.00154786132856815,0.000892062336410512,-0.077157194913202,-0.0446525568389215,0.00128089291127922,-0.0012453767519725,-0.0638038598117882,0.0622587426169581,-1.81931148654399,-0.000207244324180999,0
0.44,0.00154779613598815,0.000892062186399299,-0.0771567747155693,-0.044652557187531,0.00128082923178902,-0.0012453611130825,-0.0638034261109967,0.0622586665805928,-1.8193119093997,-0.000201098950968568,0
0.45,0.00154773792832743,0.00089206205154438,-0.0771564099266539,-0.0446525575073694,0.00128077237213091,-0.00124534715215277,-0.0638030487841858,0.0622586014182907,-1.81931228952477,-0.000195574576787472,0
0.46,0.00154768530860214,0.000892061930314369,-0.0771560603990523,-0.0446525578041829,0.0012807209732334,-0.00124533452963419,-0.0638026886470369,0.0622585375363682,-1.8193126312378,-0.000190608448770068,0
0.47,0.0015476384698504,0.000892061821333615,-0.0771557625301026,-0.0446525211801257,0.00128067521770591,-0.00124532329665668,-0.0638023898126655,0.06225844837077,-1.81931293842028,-0.000186144155314827,0
0.48,0.0015475960946734,0.000892061723364016,-0.0771554743974333,-0.0446525214357912,0.00128063382457966,-0.00124531313246187,-0.0638020932769387,0.0622583953659873,-1.81931321456111,-0.000182130985302341,0
0.49,0.00154755791044797,0.000892061635292738,-0.0771552039759378,-0.044652521674127,0.0012805965259716,-0.00124530397294023,-0.0638018156498256,0.0622583449202806,-1.81931346279787,-0.00017852335204186,0
0.5,0.00154752368434347,0.000892061556120924,-0.0771549589324591,-0.044652521896069,0.0012805630929377,-0.00124529576347095,-0.0638015641868855,0.0622582991002413,-1.81931368594954,-0.000175280275444798,0
0.51,4.70534271679656,0.0228938791381729,4.73385143537644,-1.13930057495112,-0.618545125452757,4.66456601839775,-1.7737824130126,4.53442953011586,0.136701395081547,41.9386832574002,1465.803747572
0.52,4.67770129554421,-0.0888936259753337,6.11702816520513,4.46525649582304,-2.77810894480301,3.76442587626328,0.104435988275905,7.57269055697878,0.616768934095602,89.1265145151187,1465.803747572
0.53,4.63253505818574,-0.07021796484204,8.37656684831487,3.54042105312128,-4.60555608953762,0.504147532007742,-7.87350970250523,4.55074701145077,1.44660895553188,137.736713255338,1465.803747572
0.54,4.65702480836757,0.0764375096783092,7.15351071839348,-3.80310759064926,-2.27843992309616,-4.06231882986533,-0.0494204461757954,-8.10147520910385,2.64685283886437,190.29223531163,1465.803747572
0.55,4.72488448376669,-0.026715830099997,3.76195701110206,1.37247125916089,4.18964938757484,-2.18451027228323,2.68445031255547,-2.97148522291857,-2.05707630648542,239.593042889549,1465.803747572
0.56,4.52602309316684,0.00773949115483052,13.7065314925723,-0.335336316792547,0.587475858148394,4.48774075183668,1.4232834747081,13.6365582223983,-0.128456650615095,287.193522862113,1465.803747572
0.57,4.66936449042618,0.0421666540816075,6.54112860114976,-2.06523389200264,-3.88686439888466,-2.58786164928737,-4.25174926073698,-5.38276719070018,2.16722667779357,338.27655851266,1465.803747572
0.58,4.56789086135335,0.0700184919827729,11.6165107381737,-3.43476272064106,4.54929370525709,0.41767965447597,11.1838036534587,4.65440141351111,-1.46391381912901,386.108511172245,1465.803747572
0.59,4.60416550523542,-0.0116597446352261,9.80466439707265,0.65341763844799,-4.60360389315044,0.072850149037345,-9.79101942858806,0.833268923259511,1.55244062800085,435.379832373421,1465.803747572
0.6,4.53001299212365,0.110124491454016,13.5144157318578,-5.45172621309755,4.45219100496167,0.843291389595251,12.0688287670721,8.16725923839524,-1.35929828946195,484.945591554777,1465.803747572
0.61,4.53394922793227,-0.0290357262618655,13.3196614415749,1.51533302475569,-3.14346195950279,-3.26744327938926,-10.3811024361328,-8.48188229726221,2.36912722620545,533.62929511966,1465.803747572
0.62,4.41780355923162,-0.0201218298421892,19.1291756518419,1.08771931451296,-0.776572512944667,4.34906062364444,-2.20509142556624,19.0327629689197,0.172144045146669,581.772798084129,1465.803747572
0.63,4.40492954113472,0.0478456167707326,19.775176576959,-2.29336813939031,4.37924803849535,-0.477367869404904,19.9045834102478,0.35313642854572,-1.66851302662069,630.155068875019,1465.803747572
0.64,4.41517994916219,-0.0171090589443656,19.2649772395794,0.944215067284181,-0.0365032015466141,-4.41506219884371,-1.17806903309711,-19.2520919249846,3.12944992843028,678.845950133744,1465.803747572
0.65,4.45075606225658,-0.008430571028339,17.4886519519982,0.503537903802197,-4.04467002312146,-1.85740275769802,-16.1160289739901,-6.81029423947358,1.99939883101343,727.506294811011,1465.803747572
0.66,4.4029332947868,-0.0179850012374283,19.8823538206318,0.99572544194256,-4.14687578375123,1.47971831533887,-18.3600028046034,7.69478782160239,1.2239675577844,775.678557560268,1465.803747572
0.67,4.42787729205503,0.0383046851024069,18.6377779978901,-1.78825481430972,-3.15322620829016,3.10881473261908,-14.6291531347012,11.6855681308612,0.801140802335311,823.312632301539,1465.803747572
0.68,4.43674212147964,0.067659252136441,18.1972894059604,-3.24211944491989,-2.90968899401728,3.35006990748044,-14.5558516710313,11.3920964861759,0.730411362008713,871.478173163322,1465.803747572
0.69,4.33198775982377,0.0562712458233159,23.4378119635418,-2.70086083276991,-3.64488426472781,2.34181619712332,-21.3118205049827,10.1208688184233,1.01270483189589,919.755133450881,1465.803747572
0.7,4.4053989209396,0.0317598468747347,19.7701459539099,-1.42220484238877,-4.39548157701092,-0.297136410840079,-19.608852091906,-2.89383090217266,1.64550323278105,967.222402060875,1465.803747572
0.71,4.37779856344385,0.0555340509621687,18.2410312228927,-2.63984457283038,-2.19298529401456,-3.78932972874402,-6.6344145672685,-17.1955966105531,2.6296470693918,1015.21999536549,1465.803747572
0.72,3.89321319806328,-0.0264725235406909,21.5665841206573,1.42224515078367,2.84464628558181,-2.65815675045742,14.67908156503,-15.8639495810315,-2.32911709386083,1060.1271036264,1465.803747572
0.73,3.47272538479667,0.143594910664191,23.5351836908819,-7.0324307249569,2.32606796124493,2.58260506780454,9.5993081173777,22.6100251422354,-0.691857858949814,1100.19815635918,1465.803747572
0.74,3.14886327780871,-0.0116888224111764,22.3103188025255,0.717610995196352,-2.96960099729022,1.04735213170857,-20.7711789368009,8.17455908206353,1.22801395902843,1136.88012248691,1465.803747572
0.75,2.94563399097578,0.0322351305445188,16.7412717710709,-1.50804141687668,0.730903371932384,-2.85369566936122,5.78770239363201,-15.7812189146028,-2.87991453488942,1170.23127864736,1465.803747572
0.76,2.64328309004952,0.10409411967692,17.6812289883052,-5.13079695158526,1.29793789721432,2.30502457576224,3.49601453749796,18.0756415722619,-0.473477788579231,1200.30620911435,1465.803747572
0.77,2.28678379363491,0.0363831699833577,22.7466670371115,-1.76259347911508,-1.94368075037534,-1.20532526502587,-18.1855909016469,-13.7768603327381,2.14179128003876,1227.2804258931,1465.803747572
0.78,2.09196852033672,-0.0510805900311473,20.8693994436624,2.60599319904658,2.02345727589712,0.533443689040133,20.9063796578651,2.29048538389095,-1.33744392211859,1251.88347612531,1465.803747572
0.79,1.87415543036412,0.0959814856275798,21.260198814155,-4.76256087385535,-1.87637414200553,-0.0298513309522939,-20.8931746395739,-6.17683520703296,1.63787252578198,1274.00774548003,1465.803747572
0.8,1.65248247901597,0.00496261975735168,22.8003436740661,-0.208737318050004,1.65020360811752,0.08689662137009,22.7534922321268,1.4757486798288,-1.51518367542665,1294.07194105504,1465.803747572
0.81,1.49444466712659,-0.0751479855545393,22.0906601084301,3.80736121590652,-1.45540918236081,-0.347557469687885,-22.4143199541113,-0.302530079999022,1.75496752547479,1312.17007372605,1465.803747572
0.82,1.364770372404,0.0798649471979198,20.7966080425135,-3.9397853367143,1.26944137931451,0.507439812851483,17.1534188063018,12.4008482705394,-1.13206634634441,1328.52631043792,1465.803747572
0.83,1.23052400738696,0.0627180307710754,20.4482436528603,-3.0666415823965,-0.895539400106911,-0.846245866752457,-11.9112280213477,-16.9014084059609,2.37882595063504,1343.3808480913,1465.803747572
0.84,1.13542549477227,0.00426520457427371,18.8177204429624,-0.130168647105805,-1.1342611189529,0.051584495544916,-18.8067943711129,0.654241567657019,1.52910560472189,1356.80147727734,1465.803747572
0.85,0.870059011643741,-0.00655372049755898,26.3310856461064,0.349296208755468,0.749769743735524,0.441464569782911,22.9650014470157,12.8863023277668,-1.04618504119953,1368.94804650361,1465.803747572
0.86,0.736423551117641,-0.0336293477592718,27.7181579355942,1.66461512887727,-0.252511487415927,-0.692595501280817,-12.2087100404508,-24.9402209697113,2.74634800948935,1379.99452535659,1465.803747572
0.87,0.748538287784997,0.063461748936731,22.3913172463226,-3.16886418800392,-0.183984761939557,0.72834508938569,-10.2941041622985,20.1356452035495,0.33200904720081,1389.7566292682,1465.803747572
0.88,0.61255271604893,0.0584393577742516,24.9300743176135,-2.88510377162042,0.528434019227498,-0.3152673084845,23.7618436188978,-8.07509858056211,-2.01360195099102,1398.66894492594,1465.803747572
0.89,0.51167901240157,0.0691985055881325,26.0720107999574,-3.40608992926663,-0.496058205992806,-0.143283289936669,-22.4772616809379,-13.6427234482704,1.9864093989154,1406.80026754338,1465.803747572
0.9,0.5705290794782,-0.0257221278755781,19.5692291263702,1.25741264368768,0.110677927536674,0.560281585230923,5.87458410217899,18.7089571270904,-0.240083076279052,1414.21764716632,1465.803747572
0.91,0.550891979207235,0.00239605674252802,17.3431556922123,-0.125438323097366,0.363952286572667,-0.413553439039389,11.6081422698243,-12.8861094664269,-2.41555399476896,1420.81181803562,1465.803747572
0.92,0.366677586821019,0.0201459336098083,23.6842328646249,-0.975788747372327,-0.364911716879382,-0.041203764415866,-23.1909424485026,-4.90665246532876,1.73812106491871,1426.7002998728,1465.803747572
0.93,0.303733787512923,0.0837162205196677,24.237453219354,-4.14357333265359,0.182800903467454,0.256605629218312,4.41960153728883,24.1886432189787,-0.350040998113127,1432.03203165736,1465.803747572
0.94,0.342108978510965,0.00584933022927317,19.994108809691,-0.329752704565789,0.22641466182488,-0.256532977904737,13.7283732239372,-14.5397693435699,-2.40138116204332,1436.82928185243,1465.803747572
0.95,0.298113895313429,0.0821970957609549,20.0929999798313,-4.10830937415729,-0.309149787607502,-0.00739364272317032,-18.050567474394,-9.73570069155975,1.86374681810753,1441.08532936134,1465.803747572
0.96,0.168683784074025,0.0921820464380025,24.6269311955259,-4.57340215708814,0.112358574952587,0.155972110743088,-1.48898656080064,25.0036930556544,-0.124135202308157,1445.05644452729,1465.803747572
0.97,0.219434588400514,0.046804963272064,20.326656724067,-2.391208215728,0.168107955911425,-0.148599994389922,18.877943311421,-7.90658628232171,-2.08452734409287,1448.61804787328,1465.803747572
0.98,0.214502089404754,-0.0112921405723744,19.0109572323897,0.553818649567455,-0.15796398539922,-0.14555424457743,-14.991979209054,-11.7031521131553,2.26273599027104,1451.75780228365,1465.803747572
