t,iq,id,vq,vd,ia,ib,va,vb,theta_e,omega,r
0,0,0,0,0,0,0,0,0,0,0,0
0.01,0.00152117293633201,0.000843094935711073,-0.0745296608753376,-0.0422447762898666,0.000708281142057496,-0.00158843130057813,-0.0341383435189088,0.0785739459093069,-2.21606102996169,-0.00631332957568645,0
0.02,0.00169224684891505,0.00094778953453293,-0.0834647968161601,-0.0474906809636472,0.000781919916737221,-0.00177499454738394,-0.0381183354679412,0.0881403970214981,-2.21610314151276,-0.00577033016561549,0
0.03,0.00172329875849225,0.000969840096834829,-0.0852063419584235,-0.0485955745965246,0.000793401045333987,-0.00181131532476056,-0.0388419415415189,0.0900719387910986,-2.2161387771957,-0.00472682567095628,0
0.04,0.0016927305464709,0.000958664495108565,-0.0839186702576344,-0.0480355696603481,0.000775656457205657,-0.00178402112586499,-0.0381477826275978,0.088851031794804,-2.21616436223742,-0.00370614283708561,0
0.05,0.00170789371145688,0.000969872883660697,-0.0847996569413294,-0.0485972170350096,0.000780989026085395,-0.00180211278260503,-0.0385118034448444,0.0898304642999281,-2.21618611196405,-0.00304979724503651,0
0.06,0.00170247735864903,0.000969916824954277,-0.0846584505089427,-0.04859940963779,0.000776605248947307,-0.0017989030244428,-0.0383961625110853,0.0897479279100033,-2.21620301640399,-0.00245132539937261,0
0.07,0.00174528026189565,0.000995095629624319,-0.0868039343199102,-0.0498610414011124,0.000795629165386308,-0.00184477444037114,-0.0393500065939162,0.0920468546126237,-2.21621589922598,-0.00223625463167368,0
0.08,0.00169512222355832,0.000970020425950711,-0.0844684937725152,-0.0486046119674412,0.000770625520813125,-0.00179457941764481,-0.0382392012699125,0.0896387094448715,-2.21622626531085,-0.00162872111956905,0
0.09,0.00169232405396661,0.000969907541424851,-0.0843883986993831,-0.0485989612415808,0.000768444291634956,-0.00179281195701067,-0.0381779255541411,0.0895863096080488,-2.21623398546398,-0.00135373574444447,0
0.1,0.00169037083116705,0.000969905131580177,-0.0843364392726075,-0.0485988153520291,0.000766874771087913,-0.00179163963915593,-0.0381359731639733,0.0895551639696983,-2.2162399377743,-0.001142766982627,0
0.11,0.00168886557671187,0.000969903644981686,-0.0842964098931344,-0.048598732299136,0.00076566499810072,-0.00179073647626738,-0.0381036353447559,0.089531192751288,-2.21624452825741,-0.00098007163076447,0
0.12,0.00168770444812234,0.000969902499659612,-0.0842655158361882,-0.0485986946794172,0.000764731805303442,-0.00179003978419901,-0.0380786619727747,0.089512712985616,-2.21624806849234,-0.000854599059406828,0
0.13,0.00176643843772325,0.00101329659207547,-0.0880777897471639,-0.0507730266260613,0.00080151406733347,-0.00187207102900624,-0.0398155970978946,0.0935431211113595,-2.21625262953223,-0.00110498442427041,0
0.14,0.00192238082124946,0.00110427093390272,-0.0960589109566592,-0.0553314652543744,0.000871352085081876,-0.00203855533679947,-0.0434486351895215,0.101985790782556,-2.21625553036986,-0.00180793779444378,0
0.15,0.00168581760721606,0.000970490938249933,-0.0842442653130153,-0.0486281765664669,0.000762852891193191,-0.00178938233265647,-0.0380430672203215,0.089523856210394,-2.21625794445276,-0.000511516984875905,0
0.16,0.00168431652085334,0.000969901752369378,-0.0841755144784977,-0.0485986611789171,0.000762007369177736,-0.00178800903828463,-0.0380058601979647,0.0894589386071382,-2.2162584231414,-0.000487649234183124,0
0.17,0.0016841903265266,0.000969899041827318,-0.0841719527349937,-0.0485985334977581,0.000761907547009563,-0.00178793123388826,-0.0380030594887575,0.0894567077129976,-2.2162587844274,-0.000474805109775351,0
0.18,0.00168409882408106,0.000969898940165414,-0.0841694749046309,-0.048598530878378,0.000761834015960773,-0.00178787631997582,-0.0380010567993114,0.0894552256237357,-2.21625906300964,-0.000464931276315291,0
0.19,0.00168402873988472,0.000969898870517592,-0.084167578100422,-0.0485984909694432,0.000761777688989794,-0.00178783426758366,-0.0379995463805508,0.0894540608506403,-2.21625927785456,-0.000457316638271265,0
0.2,0.00168397449034481,0.000969898816841929,-0.0841660952900755,-0.0485984911758983,0.000761734089367184,-0.00178780171611378,-0.0379983469342711,0.0894531752997886,-2.21625944354473,-0.000451444139113533,0
0.21,0.001683932580829,0.000969898775446676,-0.0841649381528757,-0.0485984913536408,0.000761700407613145,-0.00178777656893482,-0.0379974110512187,0.0894524841998925,-2.21625957132583,-0.000446915197332689,0
0.22,0.00168390021736956,0.000969898743521824,-0.0841640336412193,-0.048598491509168,0.000761674398026157,-0.00178775714965259,-0.037996679599518,0.0894519439427592,-2.21625966987117,-0.000443422423111949,0
0.23,0.00168387530449072,0.000969898718901424,-0.0841633283798542,-0.0485984916473522,0.000761654376037687,-0.00178774220106339,-0.0379961093405443,0.0894515226776735,-2.21625974586957,-0.000440728753740728,0
0.24,0.00168385597954732,0.000969898699913822,-0.0841627689018863,-0.0485984917725285,0.000761638845508875,-0.00178773060525452,-0.0379956570997056,0.0894511884401679,-2.2162598044797,-0.000438651363614566,0
0.25,0.00168384107838614,0.000969898685270553,-0.0841623275408065,-0.0485984918874059,0.000761626870152396,-0.00178772166390968,-0.037995300418934,0.0894509247402798,-2.21625984967933,-0.000437049255432984,0
0.26,0.00169742858801733,0.000976932270197786,-0.0848150126024704,-0.048950920912305,0.000768249588228237,-0.00180151409713037,-0.0383046644088101,0.0901250892118748,-2.21625989688875,-0.000505235973639363,0
0.27,0.00163164771922952,0.000941102298753256,-0.0816592025591163,-0.0471556057411441,0.000737255987079107,-0.00173332092409385,-0.0368637098828096,0.0867925308369392,-2.21626027548554,-0.00015462182797587,0
0.28,0.00159543008804479,0.000918439609564349,-0.079497180175238,-0.0460200540023332,0.000721957360842925,-0.00169343026174095,-0.0358197341734147,0.0845848312047605,-2.21626051441102,3.9447892632231e-05,0
0.29,0.00168332860756881,0.000969672101546684,-0.0841377593661149,-0.0485871404140168,0.000761353749519814,-0.00178723240057627,-0.0379825008412887,0.0894270786428984,-2.2162598798203,-0.000433397696239299,0
0.3,0.00168166056215304,0.000968612459154789,-0.0840433748240486,-0.0485340515663955,0.000760662377723116,-0.00178538093678839,-0.037939223706994,0.0893278137971356,-2.21625783538419,-0.000493846976046009,0
0.31,0.00168432816200465,0.000969893516460607,-0.0841747834525199,-0.0485982490918041,0.000762021817253073,-0.0017880093793447,-0.0380055338636154,0.0894581655289736,-2.21625831440992,-0.000491376756439559,0
0.32,0.00168421780053984,0.000969899032624831,-0.0841721561064895,-0.048598531723015,0.000761929649600533,-0.00178794769000702,-0.0380032305298537,0.0894568254441377,-2.21625870041019,-0.000477778743498266,0
0.33,0.00168412001166961,0.000969898961001881,-0.0841695112284913,-0.0485985320284485,0.000761851044414112,-0.00178788903301735,-0.0380010909220334,0.0894552459305692,-2.21625899819189,-0.000467225142179022,0
0.34,0.0016840452708604,0.000969898886717137,-0.0841674953795111,-0.048598492129949,0.000761790973951247,-0.00178784418693823,-0.0379994840767968,0.0894540101150418,-2.21625922784451,-0.000459085698348993,0
0.35,0.00168398706319955,0.000969898829343381,-0.0841659023690502,-0.0485984923456151,0.000761744194302599,-0.00178780926013694,-0.03799819557322,0.0894530587126154,-2.21625940495433,-0.000452808459478472,0
0.36,0.00168394235971602,0.000969898785094837,-0.0841646731729995,-0.0485984925298589,0.000761708266637187,-0.00178778243662672,-0.0379972013362886,0.0894523246042389,-2.21625954154256,-0.000447967377557971,0
0.37,0.00168390766795015,0.000969898750969703,-0.0841637043992725,-0.0485984926908032,0.0007616803863294,-0.00178776162012585,-0.0379964179398525,0.0894517459514694,-2.21625964688012,-0.000444233877119803,0
0.38,0.0016838811252568,0.000969898724652377,-0.084162957874898,-0.0485984928327833,0.000761659054066489,-0.00178774569372631,-0.0379958142482844,0.0894513000659007,-2.21625972811661,-0.000441354556802796,0
0.39,0.00168386063616018,0.000969898704356148,-0.0841623711781003,-0.048598492960668,0.000761642587152165,-0.0017877333996314,-0.0379953399014781,0.0894509496100493,-2.21625979076662,-0.000439133990441694,0
0.4,0.00168384457084579,0.000969898688703664,-0.0841618955088781,-0.0485984930782572,0.000761629676882338,-0.00178772375953558,-0.0379949555343083,0.0894506653919951,-2.21625983908203,-0.000437421463032676,0
0.41,0.00168383246365233,0.000969898676632626,-0.0841615328112152,-0.048598493186624,0.000761619946052072,-0.00178771649496189,-0.037994662405633,0.0894504487066754,-2.21625987634253,-0.000436100741349917,0
0.42,0.00168382291759595,0.000969898667323349,-0.0841612326592184,-0.0485984932890317,0.00076161227469261,-0.00178771076680052,-0.0379944200059823,0.0894502693181645,-2.21625990507725,-0.000435082184945622,0
0.43,0.00168381569984601,0.000969898660144361,-0.0841609983522278,-0.0485984933860217,0.000761606473706467,-0.00178770643596932,-0.0379942307961241,0.0894501292857967,-2.21625992723678,-0.000434296662031985,0
0.44,0.00168381011191057,0.000969898654607803,-0.0841608065713054,-0.0485984934792111,0.000761601982726996,-0.00178770308303382,-0.0379940760128288,0.0894500146400938,-2.21625994432581,-0.000433690857344911,0
0.45,0.00168380592095899,0.00096989865033849,-0.0841606546071307,-0.0485984935691509,0.000761598613917061,-0.00178770056851381,-0.0379939533877876,0.0894499237957091,-2.21625995750379,-0.000433223653502265,0
0.46,0.00168380242849933,0.00096989864704652,-0.0841605143849076,-0.0485984936574634,0.00076159580788024,-0.00178769847266874,-0.0379938404131911,0.0894498398990391,-2.21625996766615,-0.000432863340295194,0
0.47,0.00168379986736226,0.000969898644507387,-0.0841604028373665,-0.0485984937436067,0.000761593749508291,-0.00178769693590841,-0.037993750553875,0.0894497731620663,-2.21625997550276,-0.00043258546242503,0
0.48,0.00168379800471711,0.000969898642550047,-0.0841603124426561,-0.0485984938281252,0.000761592251963889,-0.00178769581843733,-0.0379936777533551,0.0894497190805093,-2.21625998154514,-0.000432371159679449,0
0.49,0.00168379637490261,0.000969898641040291,-0.0841602230127593,-0.0485984939121026,0.000761590942612642,-0.00178769484033416,-0.0379936058475843,0.0894496655263756,-2.21625998620451,-0.00043220588683637,0
0.5,0.00168379521074939,0.000969898639876641,-0.0841601486582851,-0.0485984939949966,0.000761590006940922,-0.00178769414182205,-0.0379935460804856,0.0894496209997359,-2.21625998979672,-0.000432078426436779,0
0.51,2.23620261585517,-0.066192874178185,6.20558499997088,3.32104841696463,-0.502830574941469,2.17994152413626,2.04149442533288,6.73579603989177,0.19710549981471,59.1627442676315,568.23288723577
0.52,1.97443621221333,0.00537863091795959,7.50806259962255,-0.259306671256804,-1.48488789100394,1.30135899617274,-5.83030465682062,4.7376989729472,0.853896847727293,118.933341047952,568.23288723577
0.53,1.81330362581859,-0.0130270985030476,4.72823403057792,0.670492585918201,-1.69404930668755,-0.64686682649034,-4.66383971200591,-1.02681862877676,1.9283718145136,173.901159173541,568.23288723577
0.54,1.43967171638469,-0.0149425004529319,12.8582166350464,0.74626971348569,0.380480804432111,-1.38856482986446,2.54738994348817,-12.6254290222101,-2.8845256963869,226.146251076517,568.23288723577
0.55,1.43685864384435,-0.0333186372296908,4.45852878245106,1.67775227091915,1.24156129019022,0.724015508589598,4.71386979706551,0.687577721303186,-1.06604362587468,268.613107532079,568.23288723577
0.56,1.24274922888589,0.0606672351491776,6.83257172944367,-3.01392802795166,-1.04092301735492,0.681605040516762,-7.41800098802927,0.860848382273078,1.03982658093343,305.665713618622,568.23288723577
0.57,1.05936641591867,-0.0268882229631719,8.87721647333149,1.343386392517,0.310166967125809,-1.013299872799,1.08794722989198,-8.91212826091266,-2.86992865885617,340.91097649954,568.23288723577
0.58,0.903700718974793,0.0420636824353881,10.8901348052434,-2.08260586508865,0.275765852852846,0.861624940015043,0.822847535646478,11.0569075784668,-0.26323877655812,369.788448270289,568.23288723577
0.59,0.747298605488852,-0.0222047620318548,13.1507421519622,1.10402562443353,-0.398535482788504,-0.632548595904701,-8.25377972553453,-10.2973788882976,2.5496674758692,397.196754848135,568.23288723577
0.6,0.74747091197575,-0.00834592231371334,8.61685696369119,0.447197880457746,0.497036559673117,0.558334198323403,6.1316687372264,6.07065469071661,-0.738546812211956,419.749707794623,568.23288723577
0.61,0.598194319969337,0.0404152532641227,11.8243006968177,-2.02840264662129,-0.426433236378758,-0.421455255100135,-6.31071301379917,-10.2031076404716,2.41778308784936,440.598046085417,568.23288723577
0.62,0.468687318539654,-0.00428390400171508,14.6958445312095,0.230804391840371,0.249246168469173,0.396941433837315,8.12262932736553,12.249245281363,-0.569833955530706,458.444475252019,568.23288723577
0.63,0.457829797967896,0.0242028708828972,11.9740391840502,-1.19711184545478,-0.154376722024538,-0.431696340687823,-2.28418565994148,-11.8149560736642,2.85097418581491,474.399958830716,568.23288723577
0.64,0.323845838117594,0.019986438221835,15.789624520025,-1.01867824144464,-0.0116810374660725,0.324251658349804,-2.55318225341914,15.6150955240047,0.0976467574854537,488.483605845426,568.23288723577
0.65,0.393376415979998,0.0979914128702931,9.83365137091467,-4.87948121577333,0.134349181343237,-0.382488717634896,9.48123612300891,-5.53319056237247,-2.55966998713253,500.60894098961,568.23288723577
0.66,0.380684892349933,0.0382493547029299,8.18775932976617,-1.90267805901191,-0.332223674889563,0.189766778550789,-8.25384746880451,1.59172503910934,1.15196017217846,511.53773513991,568.23288723577
0.67,0.255105783192825,-0.0402289115396942,12.5077532553752,1.99834059318045,0.23969093920686,0.0961539370188582,12.6382446734464,0.843817633026201,-1.3456990873466,521.012820926987,568.23288723577
0.68,0.256581805911644,-0.0202837900170432,10.6770511541181,1.03238513207581,-0.136135753333088,-0.218432396696939,-7.17428380871942,-7.97464057124409,2.50537031165517,529.465745307403,568.23288723577
0.69,0.161745860917189,0.0673041165968668,13.8559814267401,-3.35131121290794,0.0455349135937356,0.16916896665387,-5.13760317618932,13.2975389357557,0.131380520206539,536.946427493273,568.23288723577
0.7,0.256983961249064,0.0287757169443957,7.71178875186538,-1.44768292593152,0.192321085672637,-0.172862367884461,7.11545372229677,-3.30723297233262,-2.19144980536677,543.514058682915,568.23288723577
0.71,0.0869373381670093,0.0895537228701128,14.9574854887346,-4.51461054379941,-0.106004110490903,0.0658870139442847,-13.4229221598944,-7.99582648619306,1.81490221329032,549.280756569289,568.23288723577
0.72,0.0930936246539253,0.092196492870221,13.5457278740284,-4.59033730752049,0.122268127999215,0.0470863156802729,1.36958464672089,14.2366491187186,-0.422637841102955,554.413125490724,568.23288723577
0.73,0.166254791595674,0.0440034729434125,8.95347479762868,-2.18878706773906,0.04366467934146,-0.166344092584047,6.31778207129365,-6.71126884272372,-2.62614599771173,558.737978634194,568.23288723577
0.74,0.0365815222500599,0.032448946612139,14.6232721130929,-1.63929042232915,-0.0336161392663547,0.0355119288013777,-14.7104801861703,-0.359350907318751,1.48358428946462,562.40170786614,568.23288723577
0.75,0.0538927458399424,-0.038605542043573,12.9686597032713,1.90585492089389,0.0027574275915365,0.0662360364433451,9.48604580358298,9.04617888896047,-0.663214886543329,565.875709322618,568.23288723577
0.76,-0.0410549512382978,-0.00240989524450886,17.079092077011,0.148833764753583,-0.0119900596816307,0.039338976665636,5.78855343388082,-16.0689199017127,-2.78711675586738,568.792660011201,568.23288723577
0.77,0.0822597975401712,0.0121025512346242,10.2964698894542,-0.588907784612097,-0.0788050462886496,0.0265124634310066,-10.2374858485895,1.24819392048803,1.39233840193701,571.501525501293,568.23288723577
0.78,0.0736230244536874,0.00395451723693084,10.098397813379,-0.207033431956458,0.0499959173909404,0.0541885244357484,6.28033344017921,7.91062027399699,-0.691516220679971,574.211718530613,568.23288723577
0.79,0.0644217263702778,0.0249081682029772,10.0803591528555,-1.27630011641216,0.00101553986476681,-0.0690618878292349,4.9566042738183,-8.86987354534875,-2.75795053411365,576.125964793011,568.23288723577
0.8,0.0236754539953133,0.0414178276921924,11.7082207490323,-2.04856161384057,-0.019439508146071,0.0435668348134585,-11.8538988455318,-0.874139550455795,1.47119145619758,577.833991157706,568.23288723577
0.81,0.0203481202238518,-0.0384158607404295,11.5379074042391,1.94862941871149,-0.0212970090275566,0.0378980442708139,7.88159435779266,8.64875333556659,-0.571711830363215,579.097653386312,568.23288723577
0.82,-0.0322844434798005,-0.0382145290091295,13.9138709877973,1.91448738592518,0.0164400692225587,0.0472478533072933,5.43997238954184,-12.9486589350773,-2.60712687066313,580.117156366966,568.23288723577
0.83,-0.0823897968304775,0.0435193281354309,16.1757981852822,-2.20565068876712,0.0787279423638279,0.0498389569943478,-15.953340203126,-3.46587337552324,1.64920347141546,580.946184058098,568.23288723577
0.84,-0.0240348439511936,0.018632151139626,12.9654699984895,-0.964032531420901,0.00864309425021565,-0.0291569494568616,3.80541651218778,12.4318774194463,-0.371262346851466,581.875436909757,568.23288723577
0.85,-0.0830184738977548,-0.0658830085288803,15.6947934833708,3.32827225222335,-0.00896148989899418,0.105604590430146,8.33814538993328,-13.7069059282871,-2.38611360517032,582.668372020989,568.23288723577
0.86,-0.0381921173783045,0.0088208130041783,13.2634861525874,-0.430007427463179,0.0335577199950339,0.020256455776561,-12.4726486746589,-4.5318877243463,1.88690186396999,583.403495033703,568.23288723577
0.87,0.00972164293676622,-0.011336648623538,10.6492298170458,0.555624529348489,-0.0101203229775419,0.0109822131755753,1.79875644140051,10.510912880354,-0.117362599674105,584.066161908325,568.23288723577
0.88,0.0403508525361903,-0.0129381364883687,9.0151471617518,0.618965771134823,0.0411862251548548,-0.00996401192706217,7.37440481425217,-5.22246595100557,-2.11844572632233,584.173261078811,568.23288723577
0.89,-0.0182378080335874,0.0808379926211498,11.7302272834561,-4.02671336956964,-0.0302596104794731,0.0771476160779944,-7.45057629196352,-9.9147146000195,2.16648091279327,584.834874686094,568.23288723577
0.9,-0.00162044144853995,-0.0186425989466801,10.7668152448316,0.957963278355408,-0.0180942614070099,-0.00477179527114232,-0.889732276155482,10.7726682226727,0.171144620354412,585.265814145224,568.23288723577
0.91,-0.113016275585979,-0.0336453478739908,16.2952228157926,1.68610142412178,-0.101064988509414,0.0607499471479594,15.3608309677145,-5.69404044682312,-1.82267403576652,585.05631318438,568.23288723577
0.92,-0.077151413400921,-0.0829922969683996,14.4759978383905,4.13519196119547,0.113008797979443,0.00831104837504679,-12.2790068546583,-8.71093087082413,2.46606230688388,585.014190085082,568.23288723577
0.93,-0.153190672747601,-0.0311501606172502,18.1294322720843,1.52708733571641,0.0420638297819843,-0.150560117386429,-6.90032970352697,16.83430308096,0.473043145617956,585.275895739805,568.23288723577
0.94,-0.124602153200251,0.0115173930012866,16.5741097539349,-0.550415152221505,-0.123842749127658,-0.0179254124691449,16.5236981215825,1.40409093796905,-1.51922272646753,585.542089535083,568.23288723577
0.95,-0.0598116780658321,0.135100593904378,13.3510327496617,-6.75429781793338,-0.104289921632238,0.104657630167647,1.4636944560062,-14.8905410591871,2.77121773584487,585.274549545604,568.23288723577
0.96,-0.0194602141970376,0.0342904314759952,11.2298432453786,-1.72712973051731,0.0380772433062381,0.0102302086783238,-9.1164788097142,6.78101545005202,0.778659946855334,585.436408012624,568.23288723577
0.97,-0.125543223941234,0.0185355494908918,16.4883509310817,-0.959327081644834,-0.111094099213626,-0.0613414117248791,15.107404510851,6.67475496341238,-1.2128821867789,585.200956370651,568.23288723577
