t,iq,id,vq,vd,ia,ib,va,vb,theta_e,omega,r
0,0,0,0,0,0,0,0,0,0,0,0
0.01,0.000961911550828078,0.000527568738253885,-0.0468547436746124,-0.026402109056907,-0.00108830804252391,0.000138521513769732,0.0532694949914782,-0.00740265295818462,1.94585462096549,-0.00303484481830525,0
0.02,0.00109504463398789,0.000599433874227044,-0.0536163935847759,-0.0299986014510656,-0.00123850921053038,0.000156648189992474,0.0608784260357406,-0.00827351155606487,1.94583252463471,-0.00300409447936172,0
0.03,0.00114083480442005,0.000627725040600091,-0.0560029660396217,-0.0314144435718067,-0.00129147653408079,0.000166226169694152,0.0636175715960851,-0.0087180304185195,1.94581205761552,-0.00270085431421985,0
0.04,0.00110675609241861,0.000613697960260063,-0.0545081704800661,-0.0307124490396334,-0.00125462550358809,0.00016567763964822,0.0619693851141301,-0.0086133897898943,1.94579524031479,-0.00219756663153803,0
0.05,0.00112811766245793,0.000628942392872966,-0.0556659463550365,-0.0314753567462918,-0.00128008370406844,0.000172057270932483,0.0633260062104864,-0.00890014625371866,1.94578063256,-0.00194101889946699,0
0.06,0.00112479245852853,0.000630254168847511,-0.0556151098405174,-0.0315409972117005,-0.00127746783055915,0.000174511701610011,0.0633026315584838,-0.00898063391148792,1.94576816783269,-0.00164572270539953,0
0.07,0.00114533823405246,0.000644814054279302,-0.056694812720932,-0.0322696530018757,-0.00130191670678404,0.000180548396766973,0.0645740875013253,-0.00926388243093593,1.94575797099518,-0.0014866103346617,0
0.08,0.00111806109444723,0.000631616698291982,-0.0554591351174911,-0.0316091905614664,-0.00127169977581339,0.000178269303790604,0.0631822951613121,-0.00910242682365915,1.94574897565114,-0.00118533805202144,0
0.09,0.00111201856296928,0.000630471747615088,-0.0552320594608924,-0.0315518921676723,-0.00126565642470818,0.000179426094880312,0.0629499445521435,-0.00913273083661369,1.94574166780203,-0.000997705023631335,0
0.1,0.00110870212723952,0.00063036959260086,-0.05512562112115,-0.0315467741633498,-0.00126253187983127,0.00018055326812584,0.062848970642116,-0.00916733076377267,1.94573558424711,-0.000847580131882749,0
0.11,0.00110611047969629,0.000630358123649722,-0.0550453030130803,-0.0315462151155457,-0.00126011515228337,0.000181498100075504,0.0627739807940614,-0.00919654321932574,1.94573050428751,-0.000722851368147895,0
0.12,0.00110396400489358,0.000630354927418797,-0.0549790970640007,-0.0315460478613179,-0.0012581158453488,0.000182286528037878,0.0627122736786901,-0.00922089907169817,1.94572626074336,-0.000618724397881133,0
0.13,0.00115384950093358,0.000658833316216152,-0.0574195485018758,-0.0329712318767395,-0.00131496416874001,0.000190523605600314,0.0655050679876921,-0.00965363918720959,1.94572213643967,-0.000701713941124979,0
0.14,0.00118974524266679,0.000680913556152109,-0.05933953405064,-0.0340762332853496,-0.00135645156288148,0.00019792971216158,0.0676963012525442,-0.00997901663438933,1.94571858225679,-0.000748090765966981,0
0.15,0.00110779128551413,0.000634720866866258,-0.0552581235833817,-0.0317645362474176,-0.00126327410344652,0.000184961213928439,0.0630518287394127,-0.00932270763166831,1.94571548546143,-0.000387202891780305,0
0.16,0.00109854131531283,0.000630725598555073,-0.0548285949665576,-0.0315645948242004,-0.00125320326270376,0.000184633107731363,0.0625789011136322,-0.00929406304223351,1.94571362977545,-0.000312212422209334,0
0.17,0.00109693687040591,0.000630379356768138,-0.0547642023869162,-0.0315472571603919,-0.0012515832010311,0.000184900302844749,0.0625126186853155,-0.0093016021481981,1.94571215516958,-0.000272985860642115,0
0.18,0.00109622948002967,0.000630348778290154,-0.0547408439591621,-0.0315457382536295,-0.00125091352281461,0.000185132421843287,0.0624903151608515,-0.00930881895974438,1.94571093111128,-0.000242637896317129,0
0.19,0.00109570416549477,0.000630345600735876,-0.0547244850819475,-0.0315455805569357,-0.00125042334425283,0.000185323109182948,0.0624750253244466,-0.00931472655895843,1.94570990934768,-0.000217535771794006,0
0.2,0.00109527198342248,0.000630344880279108,-0.0547111372081154,-0.0315455447152225,-0.00125002075973002,0.000185481767320355,0.062462583524497,-0.00931963440434067,1.94570905585524,-0.000196591477040179,0
0.21,0.00109491174603333,0.000630344445575893,-0.0547000234492145,-0.0315455173162124,-0.00124968525305389,0.000185614169636292,0.0624522250508918,-0.00932372319863886,1.94570834286061,-0.000179097396437029,0
0.22,0.00109461088045782,0.000630344096826638,-0.0546907407284449,-0.0315454896785058,-0.00124940504731613,0.000185724763458775,0.0624435714331614,-0.0093271339196114,1.94570774722953,-0.000164483206725321,0
0.23,0.00109435930694829,0.000630343806689235,-0.0546829724358761,-0.0315454908423238,-0.00124917074938126,0.00018581723877528,0.0624363385094009,-0.00933001074197807,1.94570724964229,-0.000152274615091262,0
0.24,0.0010941495945742,0.000630343564387274,-0.0546765034356608,-0.0315454657405604,-0.00124897543757612,0.000185894326978748,0.0624303057730563,-0.00933238221577946,1.94570683396057,-0.000142075622273775,0
0.25,0.0010939740402645,0.000630343361957166,-0.0546710792368394,-0.031545463670723,-0.00124881193849567,0.000185958858371404,0.0624252543375392,-0.00933438825072194,1.94570648670223,-0.000133555435502794,0
0.26,0.00110477802352484,0.000636398276292874,-0.0551934949103358,-0.0318484882155028,-0.00126108268854989,0.0001876371497646,0.0630223456778411,-0.00942507439190762,1.94570629059188,-0.00016738542157331,0
0.27,0.00107505182488782,0.000619423802685303,-0.0537657059286407,-0.03099899196553,-0.00122720529075982,0.000182727797170695,0.0613826489901224,-0.00915745815384852,1.94570573263801,-4.93423178131923e-05,0
0.28,0.00107428669796139,0.000618902536502713,-0.0535792886774213,-0.0309729117459439,-0.00122630239282153,0.000182523150494574,0.0611996281195235,-0.00920146484167091,1.94570554320644,-4.23221667346615e-05,0
0.29,0.00109153104652434,0.000629353575407636,-0.0545612224813489,-0.0314959295165579,-0.00124617601694876,0.000185933545081654,0.0623048808872698,-0.00932857933419461,1.94570558318678,-0.000104346933000903,0
0.3,0.00108106175692116,0.000624073710935851,-0.0540494618737346,-0.0312317044791929,-0.00123450064312741,0.000184853133802804,0.0617319182627593,-0.00927005723369227,1.94570640201359,-8.58670571299752e-05,0
0.31,0.00109251996588986,0.000629801076345293,-0.0546030832521608,-0.0315183333433685,-0.00124726023904008,0.000185987009609152,0.0623520442174671,-0.00933405695767545,1.94570624294011,-0.000122858111274036,0
0.32,0.00109359289243391,0.000630296201004828,-0.0546568702133591,-0.0315431173940244,-0.00124843990556585,0.000186055146593191,0.0624111685876709,-0.00933743819120167,1.94570600507509,-0.0001212505125123,0
0.33,0.00109361065931109,0.000630338905155846,-0.0546595550686845,-0.0315452361017779,-0.00124847203713861,0.000186088640155372,0.0624144408441846,-0.0093384396518501,1.94570579550902,-0.000116545931361228,0
0.34,0.00109353429117962,0.000630342505698765,-0.054657409337905,-0.0315454198534512,-0.00124840225916183,0.000186120175682174,0.0624125097963724,-0.00933940737839057,1.94570561931621,-0.000112268148712575,0
0.35,0.0010934611823882,0.000630342740032505,-0.0546551672683672,-0.0315454377130102,-0.00124833428683505,0.000186147349198215,0.0624104286231762,-0.00934025421013961,1.94570547200969,-0.000108658567920372,0
0.36,0.0010933991330219,0.000630342695955947,-0.0546532454295834,-0.0315454380632972,-0.00124827650830968,0.000186170183542502,0.062408639252261,-0.00934096597107318,1.94570534893855,-0.000105639425775716,0
0.37,0.00109334709537324,0.000630342638393828,-0.0546516280828018,-0.031545438370087,-0.00124822804492569,0.000186189313870012,0.0624071333967627,-0.00934156492567059,1.94570524612433,-0.000103116865374932,0
0.38,0.00109330367245837,0.000630342588511867,-0.0546502774849576,-0.0315454386393648,-0.00124818760386455,0.000186205275601094,0.0624058759063336,-0.00934206510874761,1.94570516023367,-0.000101009491420507,0
0.39,0.00109326746729342,0.000630342546684823,-0.0546491507621387,-0.0315454388772037,-0.00124815388479561,0.000186218584123324,0.0624048268612921,-0.00934248239979718,1.94570508848126,-9.92489977583362e-05,0
0.4,0.00109323750017505,0.000630342511728365,-0.05464822148568,-0.03154541302384,-0.0012481259751987,0.000186229599997725,0.0624039521042081,-0.00934280237232321,1.94570502853957,-9.77782898217826e-05,0
0.41,0.00109321212163499,0.000630342482524727,-0.0546474260110496,-0.0315454132149352,-0.00124810233940527,0.000186238928627186,0.0624032114845258,-0.00934309696790636,1.94570497846464,-9.65496677969869e-05,0
0.42,0.0010931909340465,0.000630342458127333,-0.0546467602080044,-0.03154541338787,-0.00124808260675871,0.000186246716765289,0.0624025915999159,-0.00934334354804783,1.94570493663228,-9.55232831597828e-05,0
0.43,0.00109317323891765,0.000630342437746104,-0.0546462022951262,-0.0315454135455049,-0.00124806612674195,0.000186253221150015,0.062402072170257,-0.0093435501761814,1.94570490168581,-9.46658466185533e-05,0
0.44,0.00109315857058715,0.000630342420719246,-0.0546457399713553,-0.0315454136898874,-0.00124805246558483,0.000186258613100106,0.0624016417390749,-0.0093437214294548,1.9457048724918,-9.39495484639968e-05,0
0.45,0.00109314623056309,0.000630342406495202,-0.0546453474893886,-0.0315454138240813,-0.00124804097293372,0.000186263149063664,0.0624012763397245,-0.0093438667981679,1.94570484810323,-9.33511566043349e-05,0
0.46,0.00109313586959948,0.000630342394612408,-0.0546450150543231,-0.0315454139496126,-0.00124803132348467,0.000186266957487944,0.062400966850819,-0.00934398991986802,1.94570482772928,-9.28512630670949e-05,0
0.47,0.00109312737128102,0.000630342384685508,-0.0546447432543677,-0.0315454140669841,-0.00124802340864429,0.000186270081469492,0.0624007138137204,-0.00934409062089003,1.94570481070884,-9.24336545324446e-05,0
0.48,0.0010931201535311,0.000630342376392711,-0.0546445083283558,-0.0315454141787476,-0.00124801668654581,0.000186272734546652,0.062400495113467,-0.00934417763907846,1.94570479649022,-9.20847864719188e-05,0
0.49,0.00109311409993439,0.000630342369464877,-0.0546443089214217,-0.031545414285413,-0.00124801104867553,0.000186274959674599,0.0624003094851782,-0.00934425149983031,1.94570478461212,-9.17933438564208e-05,0
0.5,0.00109310909407557,0.000630342363677372,-0.0546441429610369,-0.0315454143874914,-0.0012480063865502,0.000186276799755078,0.0624001549968686,-0.00934431298660131,1.94570477468923,-9.15498741676712e-05,0
0.51,4.70045613836717,-0.0155571829150624,4.9781201222105,0.792233451175407,-0.570487426087944,4.66573402921013,0.198864677218114,5.0368409377777,0.118358107983684,36.3483829000517,1277.03172208999
0.52,4.64030471455647,0.0655060302627957,7.98683981404324,-3.24725553563125,-2.31320789032402,4.0231564896333,-6.87037845237485,5.208855790864,0.53593008916325,77.8778549820334,1277.03172208999
0.53,4.61236425176856,0.0141296706359868,9.38524413965926,-0.669953571650281,-4.40182813134047,1.37768383191664,-9.16349895241148,2.13586804328573,1.27053771627942,123.070650667854,1277.03172208999
0.54,4.67446381222142,-0.0312274093800051,6.28170117972983,1.62681997163018,-3.37867129169597,-3.23050574763978,-5.68555393037767,-3.12742536861889,2.32709976477058,164.611520290299,1277.03172208999
0.55,4.57825586476954,0.0271967337077326,11.0937276257179,-1.29421041973317,2.38029772906091,-3.91092689098742,6.92540004119864,-8.76268266648566,-2.58891318443271,208.3437607132,1277.03172208999
0.56,4.6571583084824,0.015705524713757,7.1504067174134,-0.709072410785352,3.68492403053141,2.84792996103931,5.20737200347933,4.95119952390805,-0.909452366442153,250.972592770075,1277.03172208999
0.57,4.52782344927243,0.00835311409876116,13.6190551232771,-0.331180577459235,-3.99474939259287,2.13148592598575,-12.1827948174415,6.09654438693478,1.0824981414872,293.381431808957,1277.03172208999
0.58,4.53105070301582,-0.0135432686767116,13.4597887364119,0.783735772511734,1.10749393937704,-4.39363870472638,2.49031116107735,-13.2506039451403,-2.8976579497248,335.527860916417,1277.03172208999
0.59,4.48594269120812,0.0237381898667572,15.7173633355113,-1.04856231517033,1.28472474763572,4.29810745017781,3.41524991333482,15.3776155882093,-0.285160044149111,377.241282171419,1277.03172208999
0.6,4.49371950022045,0.0353281650231977,15.3309268081376,-1.64709184212947,-2.20856982247103,-3.91369165433044,-5.9886350817137,-14.2086761589864,2.63568413176635,419.762930912191,1277.03172208999
0.61,4.46519104865922,0.0919613494904044,16.7598372510978,-4.42787480766164,1.89820989362733,4.04267079918237,2.76348677548993,17.1131925962779,-0.418394682247734,461.189741682308,1277.03172208999
0.62,4.48940707835311,0.123935575839629,15.5516229856175,-6.02995541949117,-0.23072497491137,-4.48518694460753,5.65820054963585,-15.690701271388,3.11779561960882,503.258731607844,1277.03172208999
0.63,4.41726992629369,0.0745925264217822,19.1612411163547,-3.55708746495015,-2.70851502092981,3.4902412564369,-14.7742000662876,12.7094077263142,0.67683518637163,545.035485326639,1277.03172208999
0.64,4.47334798058205,0.0802796973098337,16.3601420748838,-3.81651671057959,4.45414535206573,0.42175368148828,15.829109254787,5.62666408385391,-1.45844559969962,586.587892891257,1277.03172208999
0.65,4.39855697555468,0.0623690281260969,20.102611195076,-2.88687989286558,-0.707733749860663,-4.34169394386319,-0.0970134497909614,-20.308610015626,2.99418368596411,627.983073676672,1277.03172208999
0.66,4.39207183418807,0.057465026928052,20.4299129617486,-2.68994683312062,-4.36278946899439,0.509573621000616,-20.5983220890234,-0.571213363369316,1.46760626379688,669.776058502385,1277.03172208999
0.67,4.13045631528349,0.129961692507235,21.7024903068974,-6.26049272932953,-0.866101631040289,4.04072114587161,-11.2907400268968,19.5630019265959,0.24260228871864,709.824252137959,1277.03172208999
0.68,3.79889380713154,0.0731995455264245,24.2326051345785,-3.46939924916128,2.49287999152444,2.86749048458487,12.8818476584348,20.8161928234574,-0.696360152541946,747.750840279534,1277.03172208999
0.69,3.57864768721834,0.0811539781080042,22.249409455682,-3.89236109214664,3.52198619229908,0.639467355422137,21.0137690647942,8.28300704392707,-1.36851509725917,782.919244085556,1277.03172208999
0.7,3.28960318343854,0.070891128017168,24.5059573327873,-3.39314531371859,3.19408126623434,-0.790164236859267,24.6538027048299,-2.06043493168841,-1.79176453420888,815.694235202498,1277.03172208999
0.71,3.08189031352489,0.142240359931942,23.5102676327255,-6.96900410764516,2.76696585464654,-1.36461722977993,24.3334837472324,-3.03006124326464,-1.98285364280691,846.264014538068,1277.03172208999
0.72,2.90121860088294,0.103707799818983,21.9048751826323,-5.02737543431368,2.64771236503485,-1.19056453411566,22.1828858657818,-3.60799600747287,-1.95763457243808,874.728330886806,1277.03172208999
0.73,2.60956398302015,0.147953495064612,26.5974359621641,-7.21142926170556,2.552804707932,-0.561161778222691,27.4058883340457,2.88887458707032,-1.73054052149923,901.186063284273,1277.03172208999
0.74,2.43343413190245,0.0927898459383229,26.2382118462634,-4.50351697880004,-0.382636398598256,-2.40495343328823,1.33891822846281,-26.5882064841769,3.02192444964732,926.022968514428,1277.03172208999
0.75,2.33202972806411,0.0193612080773772,22.6462255295447,-0.819140916915541,1.04177472089753,-2.08649057986176,11.0139388783434,-19.804435689029,-2.67020693929648,949.212399331736,1277.03172208999
0.76,2.14148243851484,0.0433283373304028,24.210165114342,-2.02949799747701,2.00085681491744,-0.764458230043814,23.4717154501343,-6.27132608093321,-1.91551680675252,970.742927896454,1277.03172208999
0.77,1.9932905617028,0.115782529492651,24.0869624220094,-5.63675315484424,1.74738232022486,0.966057909483058,17.3598368065979,17.6235867772775,-1.00773900623547,990.886861851953,1277.03172208999
0.78,1.82530260175495,0.019492800571455,25.5322546279278,-0.886898761931999,-0.0583159656979501,1.82447493964489,-1.97423091168107,25.4712588637982,0.0426310813923992,1009.75312624903,1277.03172208999
0.79,1.56441132839548,0.0564336663893914,32.0765294208543,-2.7672426840592,-1.45323158787991,0.581966936433943,-31.1235550869002,8.23927730520689,1.22594779714322,1027.22465957204,1277.03172208999
0.8,1.55454399740471,0.147174203593877,26.4781772291877,-7.2066596891732,-1.00905046356108,-1.19167296187237,-9.21537911762008,-25.847758142136,2.53337994335783,1043.53274764246,1277.03172208999
0.81,1.39039299421488,0.113194850657933,29.0392864208787,-5.52755374134959,0.933855724742452,-1.03630074686022,24.9187111184815,-15.9025734518349,-2.32691314632351,1058.71673336195,1277.03172208999
0.82,1.3134146888618,0.103910897461025,27.6191238618632,-5.07947813312324,1.01150365815693,0.84422507014672,16.1901123595137,22.9455303444514,-0.796346298247591,1072.91717510618,1277.03172208999
0.83,1.2762133193704,0.0908987153542127,24.5717466664685,-4.4347328146656,-0.884624225813817,0.924350037645245,-21.1854538377588,13.2141641834347,0.834546537700531,1086.14429535133,1277.03172208999
0.84,1.09048059799902,0.0882714169550384,29.2698610628385,-4.31379212415916,-0.673464582307991,-0.862197908858676,-12.4950463577231,-26.8180421665467,2.55925267259549,1098.51830884757,1277.03172208999
0.85,1.03804748008249,0.0949129720003806,27.6481238339283,-4.63893102335886,-0.75311677872257,-0.720670632651346,-14.653162329604,-23.9002775364218,2.4253631616144,1109.97771061535,1277.03172208999
0.86,0.917578780046776,-0.00262989215509346,29.6924799531255,0.244749692643698,0.848382741658865,-0.349577541584502,27.3267845325402,-11.6168031441928,-1.96451483824628,1120.71059880314,1277.03172208999
0.87,0.786766300478376,0.0815614179238616,32.5327195647075,-3.99532821136278,0.07778958186479,0.787148180087766,-4.15120868345644,32.5131966478046,0.00479292729693012,1130.70673076846,1277.03172208999
0.88,0.790465629165459,0.0737345265442223,28.8947091024948,-3.69910811907059,-0.736924990569696,-0.295320587786391,-24.0179483438021,-16.4841066591073,2.04495735155067,1140.07433110108,1277.03172208999
0.89,0.782046197474238,0.0144462727086185,26.0640604865647,-0.705323272958251,0.654508563685382,-0.428279686468534,22.4448521582519,-13.2688108570775,-2.13175531349484,1148.83428637304,1277.03172208999
0.9,0.670098855082474,0.0779440198671348,28.6097174187836,-3.83913802854636,0.0531057957186685,0.672523248874697,-4.89469635032853,28.4481433352506,0.0369953557215458,1157.03678318928,1277.03172208999
0.91,0.661668139151989,0.108879427665879,26.2011503319446,-5.35386853020549,-0.578618650753658,-0.338909889406788,-16.7382162540569,-20.8565649997383,2.26374277965407,1164.6931638469,1277.03172208999
0.92,0.528171735619117,-0.0375022998328158,30.2397448154658,1.8454374300597,0.52703031254575,-0.0510965209930212,29.5086231275372,-6.86214011294836,-1.73833105095154,1171.82774287184,1277.03172208999
0.93,0.567344295101609,-0.000850182701808144,25.8433861055486,0.0735171282144648,-0.317706772336716,0.470045400792683,-14.3789329555999,21.4739911806578,0.592873676930098,1178.39809267047,1277.03172208999
0.94,0.38217781769387,0.0591452825050525,32.8177474288449,-2.8891550307802,-0.123256108231639,-0.366559654849578,-2.73205179485851,-32.8311994311135,2.97075886026802,1184.57064695285,1277.03172208999
0.95,0.431211621529163,-0.00979285310725068,28.2446544786551,0.453516577284662,0.138779864445923,-0.408386473500484,8.04571491036318,-27.078269063691,-2.83671735591466,1190.3437960466,1277.03172208999
0.96,0.407533697955191,0.0591821115893209,27.434499333042,-2.91956430141081,0.204050795443437,0.357700307771889,7.31047838998488,26.6032425669188,-0.374197444207247,1195.71147867449,1277.03172208999
0.97,0.301353383683574,0.0646656257766821,30.9146853398044,-3.27937220960206,-0.290156790507945,-0.103944898560525,-24.5392530777056,-19.0865688413749,2.12616884484938,1200.68909660757,1277.03172208999
0.98,0.300678003519882,-0.000641610434706797,29.2294581381545,0.0277151790349309,0.300325792288283,-0.0145633770488581,29.1906636614554,-1.50570454773259,-1.62138417606424,1205.3499987747,1277.03172208999
