t,iq,id,vq,vd,ia,ib,va,vb,theta_e,omega,r
0,0,0,0,0,0,0,0,0,0,0,0
0.01,0.000703477156723998,0.000386570261727792,-0.0336234008199671,-0.0193385793693795,-0.00052010709835504,0.000611396175589507,0.0245525926148528,-0.0300280523946364,1.2073627665928,-0.00421357032730543,0
0.02,0.000876694675533457,0.000475143518877298,-0.0421436958403636,-0.0237695428775751,-0.00065049869386664,0.00075578195725858,0.0309399757344085,-0.0371994646365801,1.2073295016828,-0.00473315088410234,0
0.03,0.000940661749746993,0.00050979486782767,-0.0453732938025989,-0.0255030297866247,-0.000697940342793398,0.00081093440708971,0.0333409538206072,-0.0399690019530957,1.20729581347921,-0.00453248061569195,0
0.04,0.000923000691566432,0.000502701682279106,-0.0447272558192585,-0.0251481876532839,-0.000683931500476792,0.000798045713386094,0.0328621193028834,-0.0394086268510999,1.20726603645668,-0.00387119242930631,0
0.05,0.000939635192412816,0.000515283245499421,-0.045678174158908,-0.0257775802914309,-0.000694983628769106,0.000815738238441727,0.0335260295192321,-0.0403358969758734,1.20723960376496,-0.00349490083652485,0
0.06,0.000938612022888933,0.000517789294424438,-0.0457766556411413,-0.025902946961651,-0.000693117088939195,0.00081773283164654,0.0335725481634613,-0.0404888734444145,1.20721625368662,-0.00305998746418799,0
0.07,0.000947684864524046,0.000526182388623537,-0.0463295677072511,-0.026322829087013,-0.000698595587934434,0.000828817659720202,0.0339391801117616,-0.0410786103516936,1.20719637657059,-0.00275461177480875,0
0.08,0.000932636082362343,0.000519957526152775,-0.0457318953112206,-0.0260114103729216,-0.000686729861739519,0.000817660068807517,0.0334906102081529,-0.0405755929868011,1.20717850654789,-0.00232873272520962,0
0.09,0.000926037649192568,0.000518713503206297,-0.0455160072289242,-0.0259491799744668,-0.000680992943692805,0.000814160940337507,0.0333103563933432,-0.0404411549335477,1.20716332300803,-0.00200723466592115,0
0.1,0.000921821335928525,0.000518463333385413,-0.0453990459670621,-0.0259366677366601,-0.000677130713717322,0.000812436335954291,0.033204966613452,-0.0403882940986725,1.2071502802985,-0.00174053395906002,0
0.11,0.000918525455388583,0.000518411683271579,-0.0453141572461461,-0.0259340905108285,-0.000674059618803,0.000811223345231404,0.0331260922887596,-0.040356064070086,1.20713904330967,-0.00151295381918237,0
0.12,0.000915761769508879,0.000518399869542847,-0.0452446460144344,-0.0259334913678952,-0.00067147302365003,0.000810235781576178,0.0330609492848425,-0.0403310996612446,1.20712935432736,-0.00131723331388313,0
0.13,0.00094913048069968,0.000538225454770667,-0.04687559633512,-0.0269252914837605,-0.000695599757741825,0.000840640402660859,0.0342320688086281,-0.0418384789200077,1.20712032961325,-0.00136933900767905,0
0.14,0.000967663217285482,0.00055001981752857,-0.0479450882209676,-0.0275153145581587,-0.000708717933820368,0.000858261493976539,0.0350213820103539,-0.0427706303651892,1.20711212901103,-0.00133980381431886,0
0.15,0.000921952881665249,0.000524700933776011,-0.0456907268430191,-0.0262487192823979,-0.000674997857007231,0.000818343496920408,0.0333647283464795,-0.0407852017988773,1.20710484104717,-0.000908036374717644,0
0.16,0.000910372663738687,0.000519649725072167,-0.0451775856789554,-0.0259960160252477,-0.000665967671657124,0.000809506815263368,0.0329748316543293,-0.0403666641467057,1.20709955540414,-0.000735575247497743,0
0.17,0.000906819516736812,0.000518641476541049,-0.0450371254667858,-0.0259455796980583,-0.000663002114686466,0.000807303420681926,0.0328613267256383,-0.0402697030285816,1.20709522771705,-0.000633033531207994,0
0.18,0.000905242221614901,0.000518439782059714,-0.0449858063702911,-0.0259354846797747,-0.000661596778236379,0.000806556253737858,0.0328168076851417,-0.0402421330661854,1.20709154853739,-0.000555269942060056,0
0.19,0.00090422522924678,0.000518399052611571,-0.0449576626926105,-0.0259334557144439,-0.00066065825297228,0.000806158492937078,0.03279109963521,-0.0402303286686711,1.20708838761925,-0.000490667103719637,0
0.2,0.000903427565449203,0.000518390499523211,-0.04493711647743,-0.0259330353099133,-0.000659913616987533,0.000805868534020178,0.0327719374801282,-0.0402227158641717,1.20708566420603,-0.000435517946870945,0
0.21,0.00090275784251158,0.000518388423537534,-0.0449202476792613,-0.0259329346167523,-0.0006592865518652,0.000805629891701883,0.0327561135663305,-0.0402166976942736,1.20708331594386,-0.000388084036859355,0
0.22,0.000902184627956369,0.000518387690288511,-0.0449059016682378,-0.0259328947397277,-0.00065874946534179,0.000805426621285474,0.0327426387866529,-0.0402116231891479,1.20708129073884,-0.00034720313311196,0
0.23,0.000901691274334942,0.000518387268663086,-0.0448935726685518,-0.0259328720790568,-0.000658287129567284,0.000805251867163195,0.032731054161716,-0.0402072731564586,1.20707954405145,-0.000311950726256592,0
0.24,0.000901265907261075,0.000518386946986084,-0.0448829409445473,-0.0259328492087605,-0.000657888491123144,0.000805101233165367,0.0327210655238265,-0.0402035188373043,1.20707803755612,-0.000281547440220572,0
0.25,0.000900899213509036,0.000518386677857399,-0.0448737754390181,-0.02593282615637,-0.000657544836106713,0.000804971384081836,0.0327124555882895,-0.0402002791531616,1.20707673821797,-0.000255325230592995,0
0.26,0.00090706063418054,0.000522098431827452,-0.0451703539831291,-0.0261185196777813,-0.00066198194506984,0.000810632882998364,0.0329235327877022,-0.040479364346503,1.20707579523558,-0.000278214862028957,0
0.27,0.000892309415533189,0.000513482048034077,-0.044483321981947,-0.0256874703464942,-0.000651259933266568,0.000797333309240293,0.0324347374338212,-0.0398321462508696,1.20707437332714,-0.000155933726601631,0
0.28,0.000891354846511076,0.000513171224680831,-0.0443044158506599,-0.0256719284037473,-0.000650477727766972,0.000796703767983009,0.0322730315711879,-0.0397540011198928,1.20707354220367,-0.000134466602660241,0
0.29,0.000897863160555412,0.000517345708550335,-0.0447535316740227,-0.0258807668880049,-0.000655074775411435,0.000802920840343342,0.0326184508348854,-0.0401089685374876,1.20707305901586,-0.000168050187698349,0
0.3,0.000884995904466669,0.000510832306646928,-0.0441420343428463,-0.025554921201168,-0.000645367054789558,0.000792255489743839,0.0321629080468525,-0.0395868733230176,1.20707376452261,-9.70725760031006e-05,0
0.31,0.000896474817212292,0.000516879215884878,-0.0446858601071439,-0.0258574276725555,-0.000653943488777993,0.000801990732611322,0.0325635230794452,-0.0400630705764188,1.20707339789966,-0.000165210667160729,0
0.32,0.000898987201888793,0.000518085309966906,-0.0448080117912,-0.0259177699738305,-0.000655861967474935,0.000804012100147289,0.0326561929621033,-0.0401629404092701,1.20707281631378,-0.000170930071488324,0
0.33,0.000899447131824719,0.000518325802169424,-0.0448332160918271,-0.0259297857740191,-0.000656205798650417,0.000804400851540983,0.0326754510421423,-0.0401831551102642,1.2070722533729,-0.00016360345282931,0
0.34,0.000899448939619864,0.000518373694482697,-0.0448364084692323,-0.0259321866158518,-0.000656190048159152,0.000804446581701873,0.0326775603712359,-0.0401865509254457,1.20707175366818,-0.000154451143053155,0
0.35,0.000899359358697399,0.000518383179015493,-0.0448348780608454,-0.025932664252541,-0.000656102604247218,0.000804423861569772,0.0326759427103054,-0.0401864670499751,1.20707131940162,-0.000145902612475239,0
0.36,0.000899260987885002,0.000518385011622931,-0.044832562219125,-0.0259327607073227,-0.00065600971518017,0.000804390824286583,0.0326737289787314,-0.0401857455779955,1.20707094409345,-0.000138378265988675,0
0.37,0.000899171289904173,0.000518385326016607,-0.0448303323039953,-0.0259327785610872,-0.000655925513062711,0.000804359419743871,0.0326716255826266,-0.0401849795343196,1.2070706202184,-0.000131853611514647,0
0.38,0.00089909295691105,0.000518385344597418,-0.0448283593303031,-0.0259327603898285,-0.000655852073456787,0.000804331752700882,0.0326697769229806,-0.040184269776689,1.207070340838,-0.000126218069553235,0
0.39,0.000899024970367369,0.000518385310237277,-0.0448266325092745,-0.0259327636196377,-0.00065578835315312,0.000804307691796221,0.0326681522422693,-0.0401836663353341,1.20707009986577,-0.000121355593240657,0
0.4,0.000898966297041216,0.000518385270549816,-0.0448251368809262,-0.0259327609959752,-0.00065573336532934,0.000804286917419934,0.0326667470431729,-0.0401831385892826,1.20706989202677,-0.000117161315630247,0
0.41,0.000898915714584008,0.000518385234313295,-0.0448238434082147,-0.0259327612542108,-0.000655685960816223,0.00080426900591073,0.0326655308975411,-0.0401826845212442,1.20706971276701,-0.00011354368576486,0
0.42,0.00089887200063077,0.000518385202658572,-0.0448227187730001,-0.0259327614882521,-0.000655644993652841,0.000804253526042191,0.0326644735428638,-0.0401822896905786,1.20706955815648,-0.00011042348654984,0
0.43,0.000898834398481913,0.000518385175276046,-0.044821749149256,-0.0259327617007561,-0.000655609754027255,0.000804240210549461,0.0326635619204764,-0.0401819492918679,1.20706942480632,-0.00010773233492509,0
0.44,0.000898801918607204,0.000518385151642436,-0.0448209057682534,-0.0259327618952164,-0.000655579314980115,0.000804228708829489,0.0326627690250151,-0.040181653189225,1.20706930979299,-0.000105411237430832,0
0.45,0.000898773920722374,0.000518385131254892,-0.0448201744545173,-0.0259327620738968,-0.000655553076265826,0.000804218794281277,0.0326620815062373,-0.040181396424149,1.20706921059473,-0.000103409309545693,0
0.46,0.000898749764543155,0.000518385113669924,-0.0448195386079057,-0.0259327622390478,-0.000655530437897403,0.000804210240130649,0.0326614837618328,-0.0401811731641581,1.20706912503717,-0.000101682663054716,0
0.47,0.0008987289262006,0.000518385098502723,-0.0448189853205494,-0.0259327623925139,-0.000655510908906549,0.000804202860877697,0.0326609636523575,-0.0401809788801814,1.20706905124457,-0.000100193444566788,0
0.48,0.000898710940033422,0.000518385085420608,-0.0448185027728826,-0.025932762535949,-0.000655494052913367,0.000804196491609791,0.0326605100658953,-0.0401808094217172,1.20706898759884,-9.8909005797701e-05,0
0.49,0.000898695398587996,0.000518385074137321,-0.0448180804737451,-0.0259327626707879,-0.000655479488100612,0.000804190988018986,0.0326601131410762,-0.0401806611033542,1.20706893270503,-9.78011878663921e-05,0
0.5,0.000898682010826019,0.000518385064405826,-0.0448177124206927,-0.0259327627980508,-0.000655466941590056,0.000804186247124326,0.0326597672194142,-0.0401805318299492,1.20706888535937,-9.68457039607347e-05,0
0.51,4.68478884525144,-0.0691167404699133,5.76120857434579,3.4650274328093,-0.738246706905299,4.62677160103554,2.60567663206912,6.19745017215349,0.14347364377659,44.1782099034172,4343.68463372835
0.52,4.74094847011312,0.0206549603992001,2.9539935426315,-1.01761405904707,-2.85390111201502,3.78579812806975,-2.59836667424186,1.73496595046362,0.650313404667026,94.1554010612874,4343.68463372835
0.53,4.66903439852043,0.0266704420240285,6.55054800570895,-1.30892624549471,-4.66361760910039,0.226416260753347,-6.60055333023203,-1.02745453719628,1.52799706098784,145.809645396071,4343.68463372835
0.54,4.68737778408591,0.00579306377375177,5.63439822403047,-0.263377798801723,-1.57663277760425,-4.41426926397948,-1.64046790402783,-5.39672829293025,2.79978289195446,201.671518177358,4343.68463372835
0.55,4.6945377049622,0.0372636801425643,5.27753561278368,-1.82656237040427,4.54965170326641,-1.15790423789472,5.56110788628848,0.512631753051796,-1.81207196893284,253.313930238466,4343.68463372835
0.56,4.73484319346155,0.00680579267180448,3.26341800763071,-0.28706945454924,-1.06465617430333,4.61359877059123,-1.01799222578961,3.11383971849797,0.22823202054767,304.26661641665,4343.68463372835
0.57,4.63588188400896,0.0709153405937228,8.21276889782073,-3.49693647486271,-2.20999336242576,-4.07582619428848,-0.704553223347679,-8.89841235466795,2.66003826105833,357.800203763203,4343.68463372835
0.58,4.67202495463566,0.0491671633940347,6.40694338477924,-2.40190304505749,3.43640429339794,3.16565318994529,3.02040055876294,6.13964512315227,-0.81586195702672,409.525925573465,4343.68463372835
0.59,4.69181205007886,-0.000762140465436212,5.41901279397207,0.115102336759209,-3.24339031850421,-3.39020945311001,-3.82988867501657,-3.83547923291734,2.37816108568361,460.737849310299,4343.68463372835
0.6,4.64486658071651,0.0648901759679879,7.76780256558922,-3.17127595049878,1.57546551031453,4.370000539291,-0.465928372919124,8.37727035516315,-0.332045019133166,513.434455239304,4343.68463372835
0.61,4.64925695624091,0.0568965207139163,7.54993443757158,-2.77066176085452,2.08862820758187,-4.1540895115196,5.93373252885856,-5.42852603205111,-2.66347962174954,565.571095705791,4343.68463372835
0.62,4.64239326036444,0.0377461072429262,7.89479431880259,-1.80846189996898,-4.62425883371462,-0.411667573779512,-7.68274173925921,-2.56394055073072,1.66771629849662,617.31486459705,4343.68463372835
0.63,4.60316892396173,0.037938141243957,9.85778264473639,-1.81218729259157,-0.397433494674649,4.5861367252186,-2.73606349658957,9.64229526601039,0.0946853513345761,668.865724725486,4343.68463372835
0.64,4.58193891093415,0.0449352964314991,10.9210557162528,-2.15230804415944,4.10334773509782,2.0392941742832,8.75498665824251,6.87401603783749,-1.09975847450088,720.313593353461,4343.68463372835
0.65,4.59273910405428,0.0231156947212581,10.3829480203634,-1.04287572189461,4.31288790451777,-1.57885551470553,10.1215707902701,-2.53909513457785,-1.91668950282849,771.368198905786,4343.68463372835
0.66,4.54816296934841,-0.00871778439963955,12.613677362843,0.570666615586961,3.21929134776582,-3.21279093837697,8.50724331144843,-9.33045166322935,-2.35710063578409,822.399866259433,4343.68463372835
0.67,4.52688783595454,0.0450018096277951,13.6794937348043,-2.1454535286509,2.95280167256608,-3.43157411761336,10.6373369718935,-8.86445609332796,-2.42110497971588,874.391055255111,4343.68463372835
0.68,4.56137678816482,0.0892957084968746,11.9571904553879,-4.33327488996577,3.87157209389001,-2.41351640743892,12.4888284003387,-2.40433775608201,-2.1086662471738,925.265265098202,4343.68463372835
0.69,4.53874901755966,0.0567472927044643,13.0907954007818,-2.70263289966839,4.49726531880786,0.614871980070716,12.5474004974648,4.60824148365942,-1.4224152937833,976.398332053193,4343.68463372835
0.7,4.48474425187078,0.0586564467699695,15.7933496202023,-2.78274949401919,1.63861924903834,4.17508066270781,2.97380300263607,15.7584923985107,-0.360925089539794,1027.23335898603,4343.68463372835
0.71,4.53389090918079,0.0477727726489852,13.3384170932023,-2.25745399571906,-3.96164583646347,2.20540501509143,-12.7991536493381,4.38076876308893,1.07336847364769,1078.58599800815,4343.68463372835
0.72,4.54609654268453,0.120089842165188,12.7305528900911,-5.8298045405152,-1.28883647558056,-4.36122871273826,2.34820855501935,-13.8036051251169,2.88065959382254,1129.05451030625,4343.68463372835
0.73,4.51287297362154,0.127049453419012,14.3941622929977,-6.16657766223328,4.28470089271941,1.42249861145355,11.421014561726,10.7134968410111,-1.22210565219791,1179.70033609761,4343.68463372835
0.74,4.47832342429428,0.0513294114038905,16.1241949745274,-2.3787688210226,-4.33738423189563,1.11584650645198,-16.2269625025821,1.52770829029532,1.33045533898703,1230.48606544508,4343.68463372835
0.75,4.44391817789057,0.120946940933751,17.8470876280674,-5.8583149670172,3.93247416364509,-2.07332676791946,18.5980635298436,-2.63636567960415,-2.02878199320102,1281.15909656639,4343.68463372835
0.76,4.4413614362742,0.0906340302896785,17.9775235560481,-4.32971309468754,-4.21001991598903,1.41761709994128,-18.4487527936746,1.25749316040228,1.26640076115926,1331.79703172016,4343.68463372835
0.77,4.4356879524442,0.0851593145697582,18.2638791549719,-4.04087023527099,4.34707943589244,0.886273151098262,16.9393150097137,7.93457755948002,-1.35047856073951,1382.36782807961,4343.68463372835
0.78,4.37716673474884,0.0996412169408533,21.1926927955631,-4.82121145847544,-2.01365559518673,-3.88776389970873,-4.98568674253862,-21.1546031766073,2.68645068721381,1433.19528915444,4343.68463372835
0.79,4.463321393953,0.0824310634582233,16.8877474233944,-3.93949447455338,-3.1774219366777,3.13560561650549,-14.9521451227635,8.78344954896538,0.810488328706781,1483.75007971234,4343.68463372835
0.8,4.4133049856243,0.143393383859942,19.3914026752694,-6.94098136936831,2.93961709550081,3.2949163707916,7.10608836751032,19.3315086891194,-0.695991096472811,1533.7734274246,4343.68463372835
0.81,4.3336161013101,0.0625620960777336,23.3787734394431,-2.95375534014473,4.16887760994163,-1.18515906220521,23.3442602265578,-3.21515670177934,-1.83334076117861,1584.48149815287,4343.68463372835
0.82,4.37349675908176,0.123208323834538,21.3876965321178,-5.92108100014236,2.14128781109317,-3.81543453656652,16.0682990286917,-15.3069438322859,-2.60201400095332,1634.37736193353,4343.68463372835
0.83,4.43208108041814,0.128164188407778,18.461604174532,-6.21112561969165,-3.9467129317603,-2.02069933361366,-13.1936431799127,-14.3295739574431,2.07290356165255,1684.82526052649,4343.68463372835
0.84,4.39560974534793,0.105977648006976,20.2882696697913,-5.04918872515623,-3.96994941302683,-1.89000474953972,-15.8231082486436,-13.6651907534481,2.03922889270059,1734.71508127378,4343.68463372835
0.85,4.43456514744076,0.14761003758329,18.3436643158263,-7.11139486043108,-3.18964026006162,-3.08437218595384,-7.64440782054722,-18.1280166169893,2.37269159836455,1784.60651604207,4343.68463372835
0.86,4.37824867006875,0.117312710170273,21.1626296894763,-5.61172643683419,-0.417402171714242,-4.35988521821097,4.14666161784993,-21.4977572412291,3.07293461451293,1834.77874403964,4343.68463372835
0.87,4.3890141248793,0.152597124469786,20.6276348173271,-7.3824777789293,3.60605551959449,-2.50661015325251,21.3369785717438,-4.97329284703182,-2.14347980952018,1884.76932151885,4343.68463372835
0.88,4.3526551888072,0.12576816328266,22.4488775274452,-6.03635478823939,2.93566100770055,3.21610311890218,10.0752251253111,20.9494515452323,-0.710955890074706,1934.66028624094,4343.68463372835
0.89,4.34181405338848,0.13239492109684,22.994288697701,-6.34918471073039,-3.78230272379962,2.13613290664974,-23.309488765011,5.07121215470429,1.08716733803132,1984.41721532682,4343.68463372835
0.9,4.30118846454359,0.142849855486136,25.0290275530385,-6.84642055688265,0.323139667065917,-4.29141107845704,9.51302969739175,-24.1418301019001,-3.03323580743238,2034.03530301177,4343.68463372835
0.91,4.23867348585988,0.17923571543431,28.1582273058409,-8.67618423156989,2.21161666859755,3.62039087290313,6.06225236659767,28.8341990364086,-0.506118937836402,2083.88174749286,4343.68463372835
0.92,4.30032051046689,0.174355492184967,25.0794005571983,-8.48294055589536,-3.07793973977198,-3.00822926133127,-11.0407347780469,-24.0632248118177,2.38526364519255,2133.70359200842,4343.68463372835
0.93,4.34194700984191,0.114437821968169,23.0016190545309,-5.40955109027804,2.69429511448037,3.40681283422778,9.45792577181674,21.6537609255965,-0.642789584169389,2183.04914143201,4343.68463372835
0.94,4.27871482324775,0.182780408776133,26.1668204496477,-8.9078144082947,-0.886180931369035,-4.18992751409739,4.46872953574917,-27.2778684341912,2.9758542502468,2232.87285793918,4343.68463372835
0.95,4.25562117139671,0.19254012097092,27.325156550292,-9.30816361631125,-2.50734236535421,3.44392472558902,-24.3348527185245,15.5280724358726,0.674516026425341,2282.10411243401,4343.68463372835
0.96,4.22309763162183,0.142516908415653,28.9550402481559,-6.87137831196803,2.51043792119513,-3.39890660642798,23.364772917494,-18.4308866360913,-2.47169230381944,2331.78624862174,4343.68463372835
0.97,4.18506467334646,0.207026231086283,30.8604381447292,-10.0838624733125,-3.42324736447195,-2.41640304214469,-18.0868215180838,-26.9614133946705,2.23488551849311,2381.07190369854,4343.68463372835
0.98,4.2905568161003,0.226415306040137,25.5895934533688,-10.9679148044655,-3.53832380427351,2.43729488144242,-27.5466641401338,4.03778937258705,1.0203297886826,2430.28792698847,4343.68463372835
