t,iq,id,vq,vd,ia,ib,va,vb,theta_e,omega,r
0,0,0,0,0,0,0,0,0,0,0,0
0.01,0.000677842465005083,0.000378127033509237,-0.0323741919112453,-0.0189276928915576,9.03383774559336e-06,0.0007761242494667,-0.0011944549226824,-0.0374822509668368,0.497202634346937,-0.00414569370933003,0
0.02,0.000754464894098285,0.000421171870866101,-0.0363350223806547,-0.0210823630272986,1.03463159438526e-05,0.000863999985521978,-0.00120030956018816,-0.0419911793020535,0.497172538584471,-0.00416032284318066,0
0.03,0.000783268193648437,0.00043831588417216,-0.0378345597803512,-0.0219405200564895,1.17030394811384e-05,0.000897492571760798,-0.00124063590276865,-0.0437184304004495,0.497143826729745,-0.00387793405716493,0
0.04,0.000763031447966815,0.000428711926458415,-0.0370167159042848,-0.0214597916928998,1.2934464040813e-05,0.00087512490886387,-0.00120919781489724,-0.0427702905821977,0.497119192917933,-0.00333494142681474,0
0.05,0.000778979049972648,0.00043868935115287,-0.0378821110434979,-0.0219592199735732,1.41190680741327e-05,0.000893900083358276,-0.00123646067074762,-0.0437690854824427,0.497096612703028,-0.00306800543480575,0
0.06,0.000777848578570899,0.000439189738988162,-0.0379352411341334,-0.0219842626974871,1.51160003806635e-05,0.000893144750054407,-0.00123401991463795,-0.0438277026674596,0.497076445965351,-0.00272674970966949,0
0.07,0.00079620901774318,0.000450638506297824,-0.0388867080167316,-0.0225573562702042,1.64399190386381e-05,0.00091474236392325,-0.00128482930187545,-0.0449372851421234,0.497058959710852,-0.00256024505833648,0
0.08,0.000775442787186182,0.000439787634072603,-0.0379986231579661,-0.0220141994858036,1.6818609263341e-05,0.000891314654689745,-0.00123157969393305,-0.0438976485971557,0.497042955745143,-0.00215650378580328,0
0.09,0.000772858789764001,0.000439238180501687,-0.0379503098344005,-0.0219866944343943,1.75800477379025e-05,0.000888781092309823,-0.00123104590881488,-0.0438420491611513,0.497029135873013,-0.00191054350638294,0
0.1,0.000771480548324607,0.000439208666743039,-0.0379497174675585,-0.0219852215363174,1.82220660581727e-05,0.000887555319793649,-0.00123056680204585,-0.0438408112061601,0.497016975404005,-0.00170010816207537,0
0.11,0.000770317734486551,0.000439205595639653,-0.0379515990921041,-0.0219850609757569,1.87833005256321e-05,0.000886531530700989,-0.00122999820597737,-0.0438423754393947,0.49700626186387,-0.00151505482764103,0
0.12,0.000769296097428885,0.000439204045661781,-0.0379533875888585,-0.021984984177165,1.92774106397571e-05,0.000885632576571128,-0.00122949181658918,-0.0438438993317571,0.496996822330771,-0.00135202683795621,0
0.13,0.000805513536022626,0.000459929508996911,-0.0396971871954347,-0.0230224265442324,2.02359447250619e-05,0.000927349835015297,-0.00131042098768116,-0.0458713591694099,0.496987651156405,-0.00144257375431828,0
0.14,0.000838468291288475,0.000479703009882399,-0.0415109820853038,-0.0240122072384923,2.19129581932267e-05,0.000965745243555292,-0.0013160680418741,-0.0479376229600496,0.496979556994267,-0.00152911360421448,0
0.15,0.000770699161782091,0.000441243474073567,-0.0381482579356046,-0.0220870633811774,2.04229632747902e-05,0.000887837768939351,-0.0012273925178743,-0.0440638339223068,0.496972244019557,-0.00095472316213936,0
0.16,0.000766278491418042,0.000439302410333027,-0.037969942674008,-0.0219899080418798,2.08291525688803e-05,0.000883026319277959,-0.00122724398030394,-0.0438607623573803,0.496966789591818,-0.00083489636950887,0
0.17,0.000765545547238371,0.00043920378126666,-0.0379605713623934,-0.0219849713582111,2.10960843752505e-05,0.000882334914643788,-0.00122758061067482,-0.0438501652177619,0.496962040310468,-0.000751407839922835,0
0.18,0.000765080596073442,0.000439198185684004,-0.037960758904913,-0.0219846873963663,2.13165221027869e-05,0.00088192344944539,-0.00122742493711182,-0.0438501895614675,0.496957859003982,-0.000679110246387157,0
0.19,0.000764681303404245,0.000439197357147691,-0.0379614036987397,-0.0219846390200645,2.1509405644382e-05,0.000881571982183166,-0.00122723654734426,-0.043850728774766,0.496954175084437,-0.000615481852001546,0
0.2,0.000764329880599387,0.000439196833939827,-0.0379619843162191,-0.0219846204083259,2.16793471197303e-05,0.000881262748122433,-0.00122708571188272,-0.043851226304161,0.496950929233107,-0.0005594236847152,0
0.21,0.000764020425517797,0.000439196383286187,-0.0379624996792429,-0.02198460169361,2.18290024452012e-05,0.000880990447367229,-0.00122694897355484,-0.0438516668980723,0.49694806934887,-0.000510031668536111,0
0.22,0.000763747699469998,0.000439195986668942,-0.0379629452746602,-0.0219845828879096,2.19608939056245e-05,0.000880750465393397,-0.00122683050615593,-0.0438520465382333,0.496945549535497,-0.000466512904170152,0
0.23,0.000763507453298436,0.000439195637179469,-0.0379633352806307,-0.0219845654562965,2.20770772715624e-05,0.000880539063085158,-0.00122672661070144,-0.0438523783363498,0.496943329354764,-0.000428168986517978,0
0.24,0.000763295845294132,0.000439195329202508,-0.0379636773283752,-0.0219845464971044,2.21794108464598e-05,0.000880352860148183,-0.00122663266020549,-0.0438526675732874,0.496941373177599,-0.000394384570312566,0
0.25,0.000763109383000825,0.000439195057810666,-0.0379639728195985,-0.0219845289290986,2.22695832116006e-05,0.000880188783666774,-0.00122655192836076,-0.0438529168339875,0.496939649610631,-0.000364617482094457,0
0.26,0.000770951090508811,0.00044364145741721,-0.0383384956355988,-0.0222071105452994,2.24409905633159e-05,0.000889201736749613,-0.0012437247753462,-0.0442882507563255,0.496938237339233,-0.000393712212045537,0
0.27,0.000746403315708051,0.000429752002817134,-0.0371982792802761,-0.0215118499588945,2.19358241852951e-05,0.000861001459489252,-0.00117621548443768,-0.0429544897211174,0.496936505289594,-0.000200823667480041,0
0.28,0.000744705421624043,0.000428662044318355,-0.0369098909822243,-0.0214572814888498,2.1788164983338e-05,0.000858989283461729,-0.00126578266832323,-0.0426749666133202,0.496935317284807,-0.000169805996436422,0
0.29,0.000761535020419727,0.000438662906637727,-0.0379167720805733,-0.0219578955490372,2.25568109479813e-05,0.000878551036232609,-0.00122586443919802,-0.0437987218800878,0.496934578651595,-0.000270176714663446,0
0.3,0.000756370094872753,0.000435998930828839,-0.0376728698420903,-0.0218245430005883,2.26769916018839e-05,0.000872740821867292,-0.00122490007899562,-0.0435207469963474,0.49693497699949,-0.000242213880512707,0
0.31,0.000762152975148765,0.000439032978257305,-0.0379481539611215,-0.0219764230254746,2.2587937744594e-05,0.000879270662875795,-0.00122721091607666,-0.0438351401437141,0.496934106051973,-0.000266491509714099,0
0.32,0.000762396734855194,0.000439185917314967,-0.0379640177961557,-0.0219840681793961,2.26069216222199e-05,0.000879557831174515,-0.00122640602386286,-0.0438527288684273,0.496933251889759,-0.000253988179325001,0
0.33,0.000762333929254892,0.000439193520480908,-0.0379650200863987,-0.0219844540489809,2.26442128877945e-05,0.000879506229510803,-0.00122630061993086,-0.0438537929577587,0.496932494333791,-0.000241033294912205,0
0.34,0.00076226268310091,0.000439193804870542,-0.0379651546288727,-0.0219844732603123,2.2679015407136e-05,0.000879443721078856,-0.00122628265082482,-0.0438539195669884,0.496931826575945,-0.000229508035329736,0
0.35,0.000762199062129405,0.000439193731820522,-0.0379652287441241,-0.0219844749875477,2.27097986696235e-05,0.000879387746915868,-0.00122627463853903,-0.0438539848198844,0.496931238205119,-0.000219346912992739,0
0.36,0.000762143101410955,0.000439193651126811,-0.0379652938839981,-0.0219844570661459,2.27368617558541e-05,0.000879338504408799,-0.00122625056486136,-0.043854032901704,0.496930719797398,-0.000210393694125531,0
0.37,0.00076209362489927,0.000439193579202556,-0.0379653377076758,-0.0219844572967232,2.27607870853353e-05,0.000879294967400654,-0.00122624990644885,-0.0438540709747254,0.496930263033674,-0.000202505087895441,0
0.38,0.000762050027359555,0.000439193515787019,-0.0379653710040053,-0.0219844560542103,2.27818694223098e-05,0.000879256603576957,-0.0012262505899338,-0.0438540991580258,0.496929860584339,-0.000195554520038233,0
0.39,0.000762011668511085,0.000439193459908942,-0.0379653980007425,-0.0219844562509501,2.28004188444593e-05,0.000879222849495139,-0.00122625344315174,-0.0438541225484889,0.496929505990521,-0.000189430448887025,0
0.4,0.000761977791652496,0.000439193410673923,-0.0379654127732875,-0.0219844564340402,2.28168003192395e-05,0.000879193039425472,-0.00122626026288903,-0.0438541352384695,0.496929193561888,-0.000184034595216039,0
0.41,0.000761947989330163,0.000439193367292627,-0.0379654229942653,-0.0219844566047228,2.28312118128311e-05,0.000879166814708831,-0.00122626761234527,-0.043854143967034,0.496928918284644,-0.000179280366190469,0
0.42,0.000761921947349189,0.000439193329068989,-0.0379654377253369,-0.0219844385988261,2.28438063889196e-05,0.000879143898722358,-0.00122625539809208,-0.0438541480350564,0.496928675740636,-0.000175091465786434,0
0.43,0.000761898780700189,0.000439193295390123,-0.0379654345541359,-0.0219844387498551,2.28550088434111e-05,0.000879123513119083,-0.0012262664144027,-0.0438541450573536,0.496928462037957,-0.000171400670392483,0
0.44,0.000761878408018907,0.000439193265715598,-0.0379654286473937,-0.0219844388923124,2.28648605085288e-05,0.00087910558604145,-0.00122627761289242,-0.0438541397020427,0.496928273746622,-0.00016814875000071,0
0.45,0.000761860421851719,0.000439193239569354,-0.0379654165599065,-0.0219844390274447,2.28735578686144e-05,0.000879089759022328,-0.00122629076956333,-0.043854128937503,0.496928107845616,-0.000165283517683178,0
0.46,0.00076184458936798,0.000439193216531894,-0.0379654015762798,-0.0219844391559716,2.28812138946405e-05,0.000879075827131883,-0.00122630443596421,-0.043854115648148,0.496927961672035,-0.000162758992098798,0
0.47,0.000761830677737048,0.000439193196233762,-0.0379653852082208,-0.0219844392786032,2.28879413222539e-05,0.000879063585471123,-0.00122631799491767,-0.0438541011603079,0.496927832880131,-0.000160534659577407,0
0.48,0.000761818337712958,0.000439193178349039,-0.0379653615773405,-0.0219844393964194,2.2893908178383e-05,0.000879052726832916,-0.0012263343404129,-0.0438540803045573,0.496927719402769,-0.000158574823955366,0
0.49,0.000761807569295709,0.000439193162590936,-0.0379653408926582,-0.0219844395094192,2.28991158119603e-05,0.000879043251039387,-0.00122634868535718,-0.0438540620529157,0.496927619419715,-0.000156848033726617,0
0.5,0.000761798023239337,0.000439193148706403,-0.0379653146838091,-0.0219844396186696,2.29037319075571e-05,0.000879034850928399,-0.00122636513914711,-0.0438540389580374,0.496927531325506,-0.000155326577303873,0
0.51,4.67605359111692,0.0502529694090316,6.19849494561889,-2.50363610047389,-1.19119995163169,4.52206205432483,-4.05731822399996,5.31297488641315,0.268314953214093,82.7529710641155,3170.61118810317
0.52,4.65820161805776,0.0431232352351696,7.09245391221059,-2.13115809978763,-4.36059445847267,1.63887702303453,-7.39312027226933,0.431868015581091,1.22054841089621,177.603487235239,3170.61118810317
0.53,4.63473576950892,0.0474495719607217,8.26733100322119,-2.34176676557749,-1.18726293969621,-4.48033858397651,0.233880868424362,-8.58940820083495,2.89278996750797,280.544168354193,3170.61118810317
0.54,4.57968996632518,0.0648322999260691,11.0212506472834,-3.19276860933959,3.81330020132769,2.53702680106604,7.28266033461748,8.86705112614212,-0.969577997463437,377.657537743372,3170.61118810317
0.55,4.64090539298914,0.0345349018351819,7.96223968822883,-1.67203193015055,-3.88846871485657,-2.53357584842099,-5.71542243154824,-5.7902416233871,2.15570963778162,477.509316716394,3170.61118810317
0.56,4.57525210903266,0.0432718758585988,11.2467943901384,-2.07741800397756,1.29728961605472,4.38769232838,1.08903829840767,11.3850799383184,-0.278018007505818,573.138693007902,3170.61118810317
0.57,4.54958584822391,0.0305440784023756,12.532137828107,-1.42646785970486,4.13475772512697,-1.89827365929878,12.010506920799,-3.85188429250927,-1.99447977578611,670.54787427382,3170.61118810317
0.58,4.49834994044005,0.0816270345331422,15.0961059659698,-3.96964054197013,0.562934504463064,-4.46373385218122,6.08906309183472,-14.3726744912663,-2.99799800918383,768.035545346654,3170.61118810317
0.59,4.48906146511665,0.0437448051752689,15.5627872812934,-2.08165888649768,-0.701729096367556,-4.43409096894575,-0.223612708634791,-15.6997977387946,2.9943810961206,866.145633156291,3170.61118810317
0.6,4.47372331398556,0.0445159276757856,16.3320552795103,-2.11311798083664,1.17026519029779,-4.31817801188094,6.46261345414286,-15.1471424564585,-2.86699039414617,963.542320525584,3170.61118810317
0.61,4.48790107677212,0.0940402079935034,15.625644654697,-4.54937947146704,4.41032557859056,-0.836138700480759,16.1633649797771,1.89822469185836,-1.73720816560037,1058.91214772655,3170.61118810317
0.62,4.4637533175661,0.075865733836169,16.8356576198207,-3.65693254307588,-0.371833937769558,4.44888624403633,-5.32564458525636,16.3844448446679,0.10037962027625,1156.32389690249,3170.61118810317
0.63,4.41456993096739,0.0499484507017585,19.2975265592862,-2.36300615405118,-2.15549236504749,-3.85289179543767,-7.15547541010667,-18.0769881630154,2.64283866980318,1252.55819891729,3170.61118810317
0.64,4.38050939903827,0.0667642076371313,21.0033680726334,-3.15812434955283,1.74097625934846,4.02023901265448,5.13501490511675,20.6093872234471,-0.393431708565748,1347.95132839367,3170.61118810317
0.65,4.38024875051056,0.061253615600422,21.019318900811,-2.87402498954476,1.70805833437011,-4.03396428444306,11.0960613248934,-18.0817369123854,-2.72707849645341,1443.69835279892,3170.61118810317
0.66,4.36873952570709,0.0576444160445773,21.5978138295776,-2.72005224899346,-4.12019439799591,-1.45368705191305,-19.3319465561459,-10.0070019888409,1.92317517930049,1539.62036235832,3170.61118810317
0.67,4.35246822234493,0.153851323279495,22.4145067139996,-7.50618675956532,-3.55356565991093,2.51790010860223,-22.8557770934956,6.0304563968118,0.989684514593073,1634.69181020489,3170.61118810317
0.68,4.34240453275235,0.16636719404512,22.9208833257642,-8.07865664532621,-2.84955065299088,3.28088650296865,-21.5735332853938,11.1899172119535,0.753447703050894,1729.22655196216,3170.61118810317
0.69,4.3819136027206,0.120137088424985,20.9487354487943,-5.79841728963831,-4.0638447921781,1.64340051320728,-21.6544756504335,1.88542946649556,1.21391619978452,1824.74006670088,3170.61118810317
0.7,4.30170681330356,0.0968364385262526,24.9624113089728,-4.64627312090929,-3.07094496735128,-3.01386061571344,-14.0896330851476,-21.1232590240789,2.36932067198428,1919.55410764974,3170.61118810317
0.71,4.26521081460696,0.194157190187402,26.7906931346434,-9.43409833887982,3.66442247903101,-2.1912846010306,28.0632922681661,-4.38121868591085,-2.06424617188802,2013.6010670482,3170.61118810317
0.72,4.24160122990581,0.138186486808221,27.9747575025254,-6.62056841573988,-1.82665449099482,3.83061481608414,-18.7367651732857,21.8025827441095,0.47752950893179,2107.85235746763,3170.61118810317
0.73,4.27353691650936,0.141444590607595,26.3816495990906,-6.78061404862602,2.17968606284772,-3.6785993280606,19.9077637341262,-18.5916407439428,-2.57359707509137,2202.15839033894,3170.61118810317
0.74,4.22706441455023,0.0946560158360481,28.7090391048563,-4.50248255291978,-4.10140082976432,1.02739698252397,-28.9937930587924,1.95990804055648,1.34773713878571,2296.45817414698,3170.61118810317
0.75,4.22286270076724,0.142243663777868,28.9229680149,-6.81995870018728,3.19477687229994,2.76517691760103,16.5851209534465,24.6573250459724,-0.823683354275328,2389.7912120094,3170.61118810317
0.76,4.19057707517915,0.141332237525065,30.5412114761849,-6.82584855251296,4.03569484514197,-1.13757555409537,31.287691427078,-0.661945661545244,-1.81183267808471,2483.54616189243,3170.61118810317
0.77,3.74497169213188,0.204436729792609,29.1331515282263,-9.92528419249412,3.07835958267712,-2.14250078905409,30.0007313022866,-6.8708009428571,-2.12428894731449,2572.03438475951,3170.61118810317
0.78,3.24136039589402,0.16350725131234,28.9712417914334,-7.95268833750233,3.09279183444694,-0.98376344010148,30.041330853616,0.310714136660478,-1.82835775954469,2649.65236480881,3170.61118810317
0.79,2.79821733096163,0.125027714814912,29.11246905836,-6.08371034955991,2.42605454776237,1.39996838966006,21.2678640733709,20.7900299193611,-1.00276706901877,2717.17173739811,3170.61118810317
0.8,2.40450953669889,0.106273196108961,29.5959408956669,-5.18199920392754,-0.572121890854108,2.33787010894375,-13.2717469155721,26.9561415461916,0.284171139650015,2775.75327776028,3170.61118810317
0.81,2.08064993612103,0.0367124824984804,29.0346417374261,-1.72092589244747,-1.92930833474686,-0.779885448337097,-26.0493850682229,-12.9383748714986,1.97258732405954,2826.86924668315,3170.61118810317
0.82,1.80339167137095,0.104079082939936,28.2607391371977,-5.09784387410191,1.31076460853574,-1.24296022337237,24.8818800016966,-14.336995373042,-2.27200053795492,2871.38613925457,3170.61118810317
0.83,1.55488559405627,0.0786178193528481,27.9519749118523,-3.80952628778453,-0.032661178945754,1.55652922218421,-5.79663012407057,27.6084130513664,0.0714990413866038,2910.10396151432,3170.61118810317
0.84,1.31291404243518,0.137257746220568,28.9723473373555,-6.72817265943027,-0.70687413245456,-1.11485960218659,-6.85985238346029,-28.9414519823835,2.68067954501847,2943.85394039482,3170.61118810317
0.85,1.0845945861997,0.0383349470780113,30.7988397840341,-1.87239705087318,0.776841966910275,0.757846648754316,19.9184677594156,23.5654205325481,-0.762444594488535,2973.278727044,3170.61118810317
0.86,0.97732875287833,0.0368611422971871,27.7448911851179,-1.8201751149675,-0.963324366763539,-0.168927201521223,-26.7461334780687,-7.5984451236101,1.78208825266274,2998.99913871113,3170.61118810317
0.87,0.819930948991429,0.0414672525132508,28.2626215065218,-1.99438760688241,0.798112733354872,0.192411951296686,26.5410481172081,9.91595286331257,-1.28369591635581,3021.28029358297,3170.61118810317
0.88,0.666872538182074,0.0544653504611958,29.5855169646478,-2.69191329025715,-0.607080680001665,-0.28131566709122,-24.4149950834739,-16.9250473057439,2.0862220936055,3040.69034930709,3170.61118810317
0.89,0.586208096992339,-0.0142000236552454,28.0412533405776,0.713866408074307,0.363901934604825,0.459800995694936,18.4783825186817,21.1038118275422,-0.693714410372157,3057.67651308289,3170.61118810317
0.9,0.462297301790532,0.0661492317134579,29.4325928128348,-3.23918189359709,-0.163783117003536,-0.437343808328977,-3.15023185043994,-29.4422461492736,2.92538806359248,3072.28490496066,3170.61118810317
0.91,0.379762794888196,-0.0277388608506078,29.3729968193413,1.34432815053872,-0.160284639567005,0.345395511119439,-9.13315489414221,27.9493406363186,0.361572349612679,3085.12954264851,3170.61118810317
0.92,0.317509027574528,0.00968283776770584,28.8192842969411,-0.444667689390326,0.266725475368856,-0.172520319753401,24.8944360081244,-14.5263874579781,-2.11443791829791,3096.27462352507,3170.61118810317
0.93,0.234194275837189,0.0199161561809323,29.8203975486391,-1.06113731987119,-0.233531989903249,-0.0265785967228805,-29.0279192720256,-6.91100753199329,1.76895713766864,3105.95393497616,3170.61118810317
0.94,0.215124024394104,0.00860945470163296,27.9848776890057,-0.414891647312811,0.122345863323185,0.177155181435596,14.6188001279702,23.8666335532701,-0.564399333877956,3114.44782993952,3170.61118810317
0.95,0.11623182779387,-0.0159291889854788,30.5276490538628,0.722727333030596,-0.00692864889370238,-0.117113494860954,-6.63294694586945,-29.8071083194429,2.94630145052644,3121.80190917295,3170.61118810317
0.96,0.099196054470445,0.0544444927092907,29.2565448830028,-2.72561883535916,-0.0246476531027337,0.110438006163652,-21.3716920877051,20.1649496363156,0.721547903209743,3128.25711556183,3170.61118810317
0.97,-0.00686037549114551,0.041562935505588,32.7341384502799,-2.1670936643183,-0.00219347965939671,-0.0420681709455616,32.2897908699888,5.79564669423603,-1.45930526082075,3133.82917935382,3170.61118810317
