t,iq,id,vq,vd,ia,ib,va,vb,theta_e,omega,r
0,0,0,0,0,0,0,0,0,0,0,0
0.01,0.000692019596418585,0.00038567467603357,-0.0341105626622939,-0.0192997008826551,0.000709690984150062,-0.000352100531918168,-0.0349954588986318,0.0176444550999006,-1.52290095356867,-0.0014530435267687,0
0.02,0.000797116290937357,0.000442469365807362,-0.0393672583832966,-0.0221417836586325,0.000817381900273599,-0.000403807317988195,-0.0403819755385723,0.0202320455665033,-1.52291190011983,-0.00153012525312445,0
0.03,0.000835555191508096,0.000464587449090186,-0.0412976837207842,-0.0232485982485508,0.000856830878450457,-0.000424069359470918,-0.0423629381599656,0.0212456459463903,-1.52292267494828,-0.00145897875132293,0
0.04,0.000814258874390613,0.000454398395019284,-0.04029214910808,-0.0227387325576672,0.000835067409738518,-0.000414919072967936,-0.0413339579132926,0.0207848781882171,-1.5229321958889,-0.00127113715322887,0
0.05,0.000832141431032858,0.000465791901948432,-0.0412056686427212,-0.023308874783312,0.000853470893646196,-0.000425451396590626,-0.042273523604025,0.0213110293992992,-1.52294095020618,-0.00118314511698967,0
0.06,0.000831838348494199,0.000466945490720481,-0.0412236147094131,-0.0233666004617583,0.000853219951449959,-0.000426624945095193,-0.042294040711596,0.0213681666769857,-1.52294889869775,-0.00106584838045096,0
0.07,0.000847447493600298,0.000477204285028459,-0.0420182817013969,-0.0238799625967597,0.000869298852500444,-0.000436131504365783,-0.0431121991858261,0.0218432344702483,-1.52295589093083,-0.000998566564442717,0
0.08,0.000829624794109376,0.000468099119350754,-0.0411705852325753,-0.023424336558055,0.000851058343786942,-0.000427894589833295,-0.0422435447478695,0.0214289420810392,-1.52296236885025,-0.000863223849343176,0
0.09,0.000825938297103239,0.000467173139145179,-0.0410131883607376,-0.0233779927655175,0.000847329357841721,-0.000427150760153949,-0.0420839902998802,0.0213904166789131,-1.52296805596083,-0.000771451721874124,0
0.1,0.000824035086550799,0.000467077440635774,-0.0409407262523916,-0.0233732054204347,0.000845421583678972,-0.000427150448047743,-0.042011273777369,0.0213893121278374,-1.52297312371932,-0.000692799414625306,0
0.11,0.000822493242018813,0.000467066187355145,-0.0408837496839204,-0.0233726512751772,0.000843879031053489,-0.000427216733620434,-0.0419542390734823,0.0213916722023687,-1.52297764823271,-0.000622934148808565,0
0.12,0.000821134228069079,0.000467063667665147,-0.0408337437813578,-0.0233725262861623,0.000842519723720652,-0.000427282582492076,-0.0419041979156139,0.0213941069747718,-1.52298168872019,-0.000560583393313302,0
0.13,0.000856859054991658,0.000487736793905264,-0.042602475092434,-0.0244070356526188,0.000879190094193058,-0.000446227966988831,-0.0437202670667645,0.0223430642697113,-1.52298556100505,-0.000584565540187328,0
0.14,0.000881634496028213,0.000502833042891112,-0.0438902592460183,-0.0251624629294591,0.000904657089860712,-0.000460126073348168,-0.0450426022235673,0.0230362406283792,-1.52298908685984,-0.000588867915008495,0
0.15,0.000824726924953095,0.00047068989417997,-0.0410537820875384,-0.0235539791477005,0.000846277065113292,-0.000430741925390334,-0.0421324287358715,0.02156528242797,-1.52299229852348,-0.000413052736633579,0
0.16,0.000817539502768596,0.000467426940056942,-0.0407115284283399,-0.0233907062126871,0.000838940853380433,-0.000427828268593171,-0.041782709991591,0.0214186561170016,-1.52299481700422,-0.000359850475520157,0
0.17,0.000816077629975172,0.000467095038511512,-0.0406489117015959,-0.0233740811600061,0.000837463846420126,-0.000427568449592778,-0.041719323097649,0.0214051342642989,-1.52299702641773,-0.000324130008731572,0
0.18,0.000815334772230275,0.000467060681101666,-0.0406205769747515,-0.0233723815831482,0.000836719353789325,-0.000427571273161938,-0.0416908973883987,0.0214048725663109,-1.52299899502941,-0.000293569204509806,0
0.19,0.000814735562563616,0.000467056592378536,-0.0405984184461153,-0.023372171157173,0.000836119881581746,-0.000427597288361174,-0.041668716490537,0.0214057943313793,-1.52300075259188,-0.000266428933053305,0
0.2,0.000814207715643166,0.000467055639711837,-0.0405789844329086,-0.0233721162954355,0.000835591920772336,-0.000427622867418821,-0.0416492684510098,0.0214067334086572,-1.5230023221303,-0.000242208509445062,0
0.21,0.000813736980369575,0.00046705506266549,-0.0405616588626666,-0.023372095284381,0.000835121096050311,-0.000427645951359517,-0.0416319316548435,0.0214075985192166,-1.52300372380512,-0.000220580345250361,0
0.22,0.000813316652931584,0.000467054574988667,-0.0405461871593289,-0.0233720756177925,0.000834700689924976,-0.000427666589988565,-0.0416164498799827,0.0214083701208201,-1.52300497557469,-0.000201265466449611,0
0.23,0.000812941659343227,0.000467054142174854,-0.040532386973074,-0.0233720364691593,0.000834325625716338,-0.00042768500498784,-0.0416026396473169,0.0214090368028603,-1.5230060934712,-0.000184016276959408,0
0.24,0.000812606489712455,0.000467053755844876,-0.040520046480651,-0.0233720166208222,0.000833990393313359,-0.000427701463444576,-0.0415902909221657,0.0214096480290481,-1.52300709181252,-0.000168611835519162,0
0.25,0.000812307011297495,0.000467053410788567,-0.0405090158959586,-0.0233720175123802,0.000833690858986375,-0.000427716168474917,-0.0415792538848292,0.0214102129330594,-1.52300798338419,-0.000154854849726659,0
0.26,0.000819750834773773,0.000471397855007149,-0.0408772973450243,-0.0235894139553551,0.000841333396715879,-0.000431700688426785,-0.041957483814678,0.0216097996504286,-1.52300873000766,-0.000160735445010272,0
0.27,0.000799096294266001,0.000459617901696765,-0.0398674568799311,-0.0229999263263982,0.000820139351874886,-0.000420921544442708,-0.0409206185801789,0.0210692596953104,-1.52300959082591,-0.000101395887428147,0
0.28,0.00079847018387722,0.000459342460473015,-0.0397842411432292,-0.0229861354576529,0.000819500532921924,-0.000420676843996681,-0.0408368257597352,0.0210594854754148,-1.52301022286543,-9.07071699000662e-05,0
0.29,0.000809909539050663,0.000466269885263346,-0.0404025202257365,-0.0233328033457303,0.000831257535555209,-0.000427050321310535,-0.0414709485080902,0.0213762434118089,-1.52301069761762,-0.000109612649460095,0
0.3,0.000801626467354305,0.000461995255248154,-0.0399963266439398,-0.0231188956347344,0.00082277971019009,-0.000423176272414064,-0.0410549997381349,0.0211819847247659,-1.52301074670471,-9.01602298461773e-05,0
0.31,0.000810124097312972,0.000466538941099128,-0.040415042815091,-0.0233462574899928,0.000831484492184562,-0.000427309227452012,-0.0414840890201954,0.0213891042986653,-1.52301118630645,-0.000102928175165352,0
0.32,0.000810956085300396,0.00046699991134788,-0.0404576879507286,-0.0233693325559314,0.000832337358526079,-0.000427730301810031,-0.0415277781376657,0.0214101345483175,-1.52301163304568,-9.82558085931614e-05,0
0.33,0.000810931582503499,0.00046704655457277,-0.0404581389997381,-0.0233716753582847,0.000832314938384061,-0.000427778399387651,-0.041528331904846,0.0214124699550549,-1.52301203815854,-9.22571680320076e-05,0
0.34,0.000810822608109203,0.000467051163759903,-0.0404542696034831,-0.0233718935885876,0.000832206153474329,-0.000427788510259394,-0.0415244695874584,0.0214128878143001,-1.52301240064476,-8.66926476114667e-05,0
0.35,0.000810715331416653,0.000467051520331043,-0.0404503236246388,-0.0233719172530331,0.000832098877743772,-0.000427794260007199,-0.0415205223095027,0.0214131133786456,-1.52301272444355,-8.16996740381579e-05,0
0.36,0.000810618357457019,0.000467051457201712,-0.0404467400744169,-0.0233719205175277,0.000832001887746369,-0.000427799069549054,-0.0415169368132771,0.0214132998150082,-1.52301301362215,-7.72380065851833e-05,0
0.37,0.00081053185095378,0.000467051362093972,-0.0404435425447787,-0.02337190151823,0.000831915364957892,-0.000427803321388898,-0.0415137364957312,0.0214134442888611,-1.52301327187497,-7.32531960696137e-05,0
0.38,0.00081045437655557,0.000467051273223341,-0.040440673846437,-0.0233719003640353,0.00083183787607685,-0.000427807125024324,-0.0415108660778797,0.0214135897327987,-1.52301350250856,-6.96945136540439e-05,0
0.39,0.000810385225854517,0.000467051193454204,-0.0404381116806865,-0.0233719006412971,0.00083176871237767,-0.000427810519622724,-0.0415083024392376,0.0214137209400682,-1.52301370847676,-6.65164169227702e-05,0
0.4,0.000810323409318728,0.000467051122172687,-0.0404358182929647,-0.0233719008976217,0.000831706884300611,-0.000427813554039214,-0.0415060077424967,0.0214138383731108,-1.52301389241725,-6.36782069411353e-05,0
0.41,0.000810268228456272,0.000467051058507878,-0.0404337692411682,-0.0233719011350053,0.000831651693101896,-0.000427816262734066,-0.0415039575231132,0.0214139432994513,-1.52301405668585,-6.11435343122091e-05,0
0.42,0.000810219207686413,0.000467051001649476,-0.0404319500862292,-0.0233718820382524,0.000831602662805159,-0.000427818669369567,-0.0415021363908906,0.02141401720316,-1.52301420338638,-5.88799367397656e-05,0
0.43,0.000810175202694835,0.000467050950870228,-0.0404303119641038,-0.0233718822447886,0.000831558649563737,-0.000427820829443981,-0.0415004973428044,0.0214141010896769,-1.52301433439791,-5.68584236266418e-05,0
0.44,0.000810135854316123,0.000467050905520407,-0.0404288443827028,-0.0233718824379264,0.000831519293873625,-0.000427822760862315,-0.0414990289401813,0.0214141762352663,-1.52301445139798,-5.50531048206945e-05,0
0.45,0.000810100696888989,0.00046705086501981,-0.0404275307255531,-0.0233718826190151,0.000831484129936243,-0.000427824486536182,-0.0414977145534884,0.0214142434972557,-1.52301455588535,-5.34408590379694e-05,0
0.46,0.000810069381167469,0.000467050828849516,-0.0404263594826624,-0.0233718827890559,0.000831452808307093,-0.000427826023743664,-0.0414965426572681,0.0214143034820268,-1.52301464919812,-5.20010377417371e-05,0
0.47,0.000810041383280942,0.000467050796547278,-0.040425309756102,-0.0233718814943649,0.000831424805180169,-0.000427827398040689,-0.0414954922824208,0.0214143557853835,-1.52301473253145,-5.07152006891661e-05,0
0.48,0.000810016412194452,0.000467050767698744,-0.0404243717469346,-0.0233718816461649,0.000831399829376442,-0.000427828623803015,-0.0414945537573952,0.0214144038275956,-1.52301480695241,-4.95668797620174e-05,0
0.49,0.000809994060452698,0.000467050741935415,-0.0404235293154285,-0.0233718817904339,0.000831377473480221,-0.000427829720917931,-0.0414937108710172,0.0214144469667968,-1.52301487341438,-4.8541368054127e-05,0
0.5,0.000809974153432698,0.000467050718926935,-0.0404227775233275,-0.0233718819276689,0.000831357562688018,-0.000427830698104544,-0.0414929586724688,0.0214144854746997,-1.52301493276836,-4.76255315160113e-05,0
0.51,4.72648200062211,0.0113038127281195,3.67673694406654,-0.558412502599647,-0.319848991943524,4.7156607703205,-0.81462308536845,3.62858213462341,0.0701148323729698,21.6153117723752,2963.0707001419
0.52,4.72136093843335,0.0596981912096332,3.93379390652123,-2.97116706622132,-1.42032584225788,4.50305312946809,-4.05267803359893,2.80684324292727,0.318180979399003,46.1063107048968,2963.0707001419
0.53,4.63557773849272,-0.0118488693471972,8.22416133370047,0.619517473424632,-3.16164691726286,3.39008998934783,-5.13965001211951,6.45016505955718,0.747988658107245,71.4130355276233,2963.0707001419
0.54,4.65357820172031,0.00700469616447696,7.32538322101617,-0.323818596721391,-4.559974226975,0.92869488779604,-7.24436702924261,1.13368609586184,1.37138703410828,98.8107715778286,2963.0707001419
0.55,4.60812310753161,0.0516390486684488,9.59943733524895,-2.54517640829909,-3.7836862542494,-2.6308142266071,-6.34331650399553,-7.6412993550097,2.18956964098091,123.950221772213,2963.0707001419
0.56,4.6504606268349,0.000286485650495438,7.48406142800084,0.0405812846391592,0.217966139483075,-4.645349813077,0.310700399240907,-7.47771940906213,-3.09464407685879,149.147906614676,2963.0707001419
0.57,4.64967355333146,-0.00412687277015045,7.52497145514011,0.261712237703783,4.39581178008151,-1.51536133569703,7.02642915731752,-2.70610088378751,-1.90365474291824,175.009484593185,2963.0707001419
0.58,4.6034557804941,0.0275705968769417,9.8375160660306,-1.3267920062077,2.34772674591456,3.95989196661906,3.82087979667748,9.16176713066255,-0.529176104037308,200.716785355025,2963.0707001419
0.59,4.59516665675206,0.00679293941816494,10.2537043535435,-0.258196325644641,-3.94464561383038,2.35698403232618,-8.94198817170992,5.0245363815434,1.0336844804906,225.48246544487,2963.0707001419
0.6,4.58640928029717,0.0479943188525489,10.6933961492428,-2.31822372131978,-1.65562927016938,-4.27742273580675,-1.58482814861369,-10.826412248113,2.78275302261063,251.050554608441,2963.0707001419
0.61,4.57239449477436,0.0673569403782546,11.3960712923662,-3.28600964398435,4.57266487604246,-0.0454346197030017,11.3801861199696,3.3406083511692,-1.56600198314012,276.569096301293,2963.0707001419
0.62,4.57947168763539,0.0860944824639613,11.0442003156048,-4.21833740190097,-2.33544218246461,3.94013743543671,-9.39662914198211,7.17440532835539,0.553855488185564,301.905395333135,2963.0707001419
0.63,4.58971759606682,0.0755087721330043,10.5339902104186,-3.67812331246472,-1.35294955428953,-4.38642641450443,0.593319652360695,-11.1418810191553,2.8588610398991,327.071177796534,2963.0707001419
0.64,4.50825252359509,0.0586560227457764,14.6094026707958,-2.82043848289265,3.66104382415496,2.63145196861403,10.0752104120417,10.9489567898647,-0.934573102228421,352.10838636949,2963.0707001419
0.65,4.52395419657157,0.0723603318768147,13.8265688330623,-3.48769548770658,-4.47190330980508,-0.688097651544586,-13.0448850273961,-5.75925343533308,1.73946380282755,377.170659246549,2963.0707001419
0.66,4.52655646320212,0.0408336521776981,13.6988052690067,-1.94149324370515,4.49221075913332,-0.558053131192643,13.8309480174793,0.362682714369961,-1.68536931637111,402.628840571334,2963.0707001419
0.67,4.53217529536706,0.0739660869088748,13.4202539420465,-3.57168390296749,-4.41343054589272,1.03330281453656,-13.8724328455074,-0.644785792816442,1.35713070191051,427.532400067131,2963.0707001419
0.68,4.47760530555568,0.0421222295876754,16.1511727712308,-1.95159206004132,4.43457902802684,-0.620670926296949,16.2679347469888,-0.152946143064292,-1.70044760508398,452.514393085852,2963.0707001419
0.69,4.45139823252269,0.145057618518549,17.4640916049478,-7.11709480809901,-4.42893149542336,-0.469631500267437,-16.3169577521461,-9.45539125621758,1.70901421539102,477.538561272398,2963.0707001419
0.7,4.44461486047422,0.103553731386262,17.8058553697914,-5.05907258129556,3.75429391208468,2.38130255425811,12.0014600203429,14.0928229327149,-0.982251575543009,502.627815973133,2963.0707001419
0.71,4.42935097427805,0.0687942854050689,18.5717185857142,-3.2611279818944,-1.57874540527751,-4.13901505824241,-3.28373244192532,-18.5677351389744,2.79272669704669,527.257474362544,2963.0707001419
0.72,4.41474269524428,0.0743274567039247,19.3049115006956,-3.54378063333455,-1.92084879291667,3.97565309738958,-11.8542334611758,15.643373621915,0.466914019042455,552.157260962318,2963.0707001419
0.73,4.42079505344164,0.0641559592111212,19.0051555930349,-3.04081013350503,4.38909064873675,-0.532379722386164,19.2204045027153,1.00921560406859,-1.67699149590989,577.048767976885,2963.0707001419
0.74,4.43035291437844,0.0966772803374407,18.5301603356035,-4.66617547276877,-2.19966491604042,-3.84692704630798,-4.74458531781651,-18.5102389441034,2.64398625801549,601.862351533316,2963.0707001419
0.75,4.38761836077584,0.129993970459589,20.6698847465928,-6.32372118086445,-3.25005257199269,2.95046633457439,-19.8188946848134,8.62815151020295,0.863295727249807,626.562527469653,2963.0707001419
0.76,4.45200086955242,0.156581093013769,17.4538072039315,-7.62936431173816,3.10561008023496,3.19374629717639,6.06720075765406,18.0563468254118,-0.73625131407911,651.190374505165,2963.0707001419
0.77,4.37021357240939,0.165518933041094,21.5462503524415,-8.05613131653923,3.55445827959263,-2.54793828895083,22.4167421847019,-5.16060324613487,-2.1548715244514,675.83633448143,2963.0707001419
0.78,4.35331882528555,0.125561581692128,22.3941931103651,-6.11978371117995,-1.20300075165808,-4.18568270380026,0.365200632760801,-23.212459288791,2.8905620871496,700.654894077993,2963.0707001419
0.79,4.36776198348942,0.089570928090807,21.6752675772227,-4.27808861034806,-4.24139040671499,-1.04688830034561,-19.8226761693272,-9.75606356007273,1.83329051854556,725.17580194034,2963.0707001419
0.8,4.31718358109777,0.112587214661023,24.2074496214423,-5.38622815571101,-3.46187986415783,2.58188647309363,-22.8821401307908,9.56136674094743,0.956058531864762,749.686707612969,2963.0707001419
0.81,4.3633554763375,0.10259986813197,21.9021975247676,-4.9205237945844,-1.01842116227494,4.2440801220118,-10.3662542231236,19.9112677699985,0.259019415859461,774.306071412858,2963.0707001419
0.82,4.33882970554634,0.0752355530115574,23.1319005418244,-3.57977842713038,-4.11413841239506,1.38020604469902,-23.1345158225942,3.56283790233899,1.26445445366102,798.836972889672,2963.0707001419
0.83,4.35721712916481,0.131785570979675,22.2159899476714,-6.32581257941901,-3.40474826017831,2.72220459044107,-21.5623355186971,8.28443124928344,0.926577057894627,823.159292576129,2963.0707001419
0.84,4.30411603328935,0.0994108260801014,24.8745438271576,-4.73217980571939,-2.91887671843782,3.16472053156705,-20.685647115231,14.6027552108148,0.768101793528142,847.689178705345,2963.0707001419
0.85,4.30159984514796,0.112424328373302,25.0039080255664,-5.40194021656962,-2.972334047215,3.11153190071283,-21.5451657704293,13.7906564955805,0.788651839320932,872.177240511384,2963.0707001419
0.86,4.27335490884576,0.12579096795773,26.4197739273701,-6.07676211191634,-3.49889054503376,2.45665433027304,-25.4036931860928,9.46487531059056,0.988074031805814,896.584986378186,2963.0707001419
0.87,4.25465292495937,0.0904285713683687,27.358518203195,-4.30013338204566,-4.14757011156785,0.952843643004504,-27.6616107034117,1.34720401975135,1.36623010972751,920.9516734024,2963.0707001419
0.88,4.27975811882768,0.123986554742933,26.1069861960718,-5.95520319770326,-4.05993703133625,-1.35963727626637,-22.4513582787451,-14.5936864707736,1.92291068333917,945.238773212797,2963.0707001419
0.89,4.25988885210267,0.197364396483466,27.1042367810622,-9.58895169518723,-2.156209110254,-3.6791803448765,-4.11915618839951,-28.45382572506,2.65778627743551,969.456546642747,2963.0707001419
0.9,4.2516834680701,0.130458742210995,27.5183339289091,-6.20817377514829,1.64999885872567,-3.92062948546325,17.0927375191524,-22.4418904717662,-2.71256752166662,993.714076836974,2963.0707001419
0.91,4.20245101512438,0.165798512418693,29.9838472021581,-8.0710919628906,4.18852120500912,-0.37996552005297,30.3565435870529,6.53099379598204,-1.62183225299655,1018.09309123025,2963.0707001419
0.92,4.22344250845994,0.211447470476772,28.9382245505002,-10.2726477120711,1.66076604426889,3.88896294675597,0.3829019444689,30.705073151719,-0.353578917584261,1042.16653113125,2963.0707001419
0.93,4.17044324362419,0.158385864189315,31.5921976089618,-7.69813149643614,-3.62832270333328,2.06226993643943,-31.5855826773487,7.72522784340275,1.09191051780267,1066.45553784294,2963.0707001419
0.94,4.20765484548178,0.164762909379371,29.7356585579573,-7.91071704069103,-1.89243103707243,-3.76167660557609,-5.11350810111877,-30.3420643475867,2.71462054507728,1090.47609091449,2963.0707001419
0.95,4.23553032705594,0.208985595052014,28.3459786551456,-10.1838993401311,4.1114910443722,-1.03876538371137,29.7961631635528,4.40397234537524,-1.76896581486064,1114.70686076667,2963.0707001419
0.96,4.15916458210377,0.157163650317205,32.1684565900382,-7.62430205254805,-4.13139163225992,-0.504929316736668,-30.5506764156337,-12.6331212184837,1.73018026853791,1138.79621678549,2963.0707001419
0.97,4.10282284599773,0.213055633491064,34.9897690688303,-10.3062447529329,2.61291460565384,-3.17036674095664,31.2264192693165,-18.8524099259031,-2.40040547131474,1162.76135914066,2963.0707001419
0.98,4.11980865199644,0.228614937639506,34.1447501676887,-11.0740536798343,0.522492450150107,4.09293168258557,-8.60524396253461,34.8489369316051,-0.0715357278469525,1186.7562608942,2963.0707001419
