t,iq,id,vq,vd,ia,ib,va,vb,theta_e,omega,r
0,0,0,0,0,0,0,0,0,0,0,0
0.01,0.000654305657904779,0.000361775523631617,-0.031326168944885,-0.0181032558965047,0.000282093476302602,0.000692402118781167,-0.0142828613041851,-0.0332423917277807,0.118198258620003,-0.00259327351396438,0
0.02,0.000757560280933562,0.000416865626550395,-0.0365275173362344,-0.020859972364028,0.000324638646508905,0.00080142640275964,-0.01640773582944,-0.0387322110746111,0.118178836744242,-0.00269175396749353,0
0.03,0.00079414756380083,0.000438229620201146,-0.0384242746034545,-0.0219290280476507,0.000341555604793296,0.000840270981259451,-0.0172464639951107,-0.0407414608179638,0.118160077027079,-0.0025130092633413,0
0.04,0.000772803113044856,0.000428732151301369,-0.0375661095808712,-0.0214537603869214,0.00033465377191825,0.000817950342033187,-0.0168763188747481,-0.0398329798661773,0.118143920910397,-0.00212984494806457,0
0.05,0.000788714484986971,0.000439505634823843,-0.038448924535269,-0.0219928710911557,0.000343488784592245,0.000835015686517034,-0.0173082051691721,-0.0407729347799842,0.118129440254903,-0.00193839490073183,0
0.06,0.000787620844991041,0.000440667129928184,-0.0385148771320224,-0.0220509945903687,0.00034478177080292,0.000834062135206692,-0.0173586745042485,-0.0408450552989564,0.118116617571167,-0.00170301541051256,0
0.07,0.00080116638157789,0.000450139688046829,-0.03925379258713,-0.0225250020061163,0.000352601386216304,0.000848625696148689,-0.0177427597852808,-0.0416344859827858,0.118105665618371,-0.00156477412106945,0
0.08,0.00078417190516501,0.000441811918766929,-0.0385436592483318,-0.022108286882424,0.000346342365240871,0.000830764897220625,-0.0174130296880902,-0.0408800246356184,0.118095731381205,-0.00131238637287358,0
0.09,0.000780046620425733,0.000440910368657093,-0.0384266806804232,-0.0220631615889597,0.000345940131895654,0.000826559198346349,-0.0173823459847524,-0.0407583971162032,0.118087274175024,-0.00114237830276167,0
0.1,0.000777785101105519,0.000440811461563994,-0.0383871934824138,-0.0220582246119009,0.000346114388544833,0.000824299240682741,-0.0173823937844922,-0.0407184759391384,0.11807994855166,-0.00100080783319076,0
0.11,0.000775985207542423,0.000440799476040758,-0.0383606326040636,-0.0220576075919964,0.000346319756602971,0.000822508265362071,-0.0173851689435738,-0.0406919167313343,0.118073587138968,-0.000878580598611723,0
0.12,0.000774441705792198,0.000440797051643372,-0.0383385019906478,-0.0220574958859137,0.00034650370949595,0.000820973309988434,-0.0173878897347821,-0.0406698309587717,0.118068061035799,-0.000772491111805268,0
0.13,0.000807876177163031,0.000460128987457919,-0.0399629720684969,-0.0230248742731187,0.00036176719258932,0.000856450291080951,-0.0181574039762218,-0.0423968472021761,0.118062791433283,-0.000822714247793413,0
0.14,0.000830279512207163,0.000473927212603358,-0.0412249716712137,-0.0237153376761495,0.000372834650815574,0.000880321188196775,-0.0186946175402746,-0.0437313023520798,0.118058080893134,-0.00083515073071677,0
0.15,0.000777775868658698,0.00044437366790266,-0.0386256456321888,-0.0222364719366369,0.000349674379116545,0.000824700604572662,-0.0175323771938257,-0.0409758091393652,0.118053876865384,-0.000531826238896645,0
0.16,0.000770550644827969,0.000441179724767862,-0.038312762984401,-0.0220766447509816,0.000347356126515319,0.000817148436432034,-0.0174106367826499,-0.0406462271039093,0.118050849240605,-0.000446033736786844,0
0.17,0.000769046031432067,0.000440834088605755,-0.0382652129995923,-0.0220593431831203,0.000347192186491358,0.000815612700843745,-0.0173991595464782,-0.040596925926122,0.118048296660153,-0.000393595698693084,0
0.18,0.000768332031944386,0.000440796288498908,-0.0382517752516036,-0.022057458428676,0.000347240539459969,0.000814898451969171,-0.0173989601340553,-0.0405833213091969,0.118046088775646,-0.000350787131498268,0
0.19,0.000767785497555569,0.000440791810301496,-0.0382435652087429,-0.0220572393271544,0.00034730201996662,0.000814354527962256,-0.0173997872493637,-0.0405751092455414,0.118044171890117,-0.000313938923358946,0
0.2,0.000767319988410358,0.000440790984199281,-0.0382368679047336,-0.0220571990162484,0.000347357377963938,0.000813891582669007,-0.017400603513754,-0.0405684248272418,0.118042506757678,-0.000281969731095222,0
0.21,0.000766916586858261,0.000440790597540859,-0.0382310948373044,-0.0220571774824208,0.000347405678775993,0.000813490440283685,-0.0174013206917582,-0.0405626642262631,0.118041060203138,-0.000254201980188718,0
0.22,0.000766566387112492,0.000440790297329392,-0.0382260899705762,-0.0220571601940953,0.000347447644533189,0.00081314220550822,-0.0174019439006369,-0.0405576702825206,0.118039803520697,-0.000230079583025061,0
0.23,0.000766262287832411,0.00044079004032546,-0.038221746929866,-0.0220571413456444,0.000347484089241793,0.000812839812711018,-0.0174024809188259,-0.0405533362447821,0.11803871178646,-0.000209123488754744,0
0.24,0.000765997850427714,0.000440789817425173,-0.0382179595344698,-0.0220571406683108,0.0003475157799875,0.000812576859543314,-0.0174029647267668,-0.0405495586185464,0.118037763349176,-0.000190918028136149,0
0.25,0.000765768315162513,0.000440789623791152,-0.0382146771653238,-0.0220571230972993,0.000347543287991563,0.000812348612309267,-0.0174033672305136,-0.0405462826806505,0.118036939400633,-0.000175102153754681,0
0.26,0.000772768234418474,0.000444828471148047,-0.0385504019536861,-0.0222592343014965,0.000350730213754469,0.000819775231407914,-0.0175645617435709,-0.0409034616290109,0.118036312950729,-0.000194193515616013,0
0.27,0.00075389938687227,0.000434022458229635,-0.0376690455546439,-0.0217184933251328,0.000342222146895146,0.000799764829152018,-0.0171314097183247,-0.0399645436152418,0.118035419383604,-9.62866513257964e-05,0
0.28,0.000753392618516044,0.000433790559991469,-0.037494410403069,-0.0217068950222345,0.000342051964981547,0.000799234096385056,-0.0171404785748572,-0.0397897486446564,0.118034887699679,-8.45259711523387e-05,0
0.29,0.000763644603748267,0.000440032852629981,-0.0381360857316945,-0.0220192632801013,0.000347043784911677,0.000810149741456296,-0.0173751212929845,-0.0404637387099567,0.118034584825698,-0.000123541266303799,0
0.3,0.000755470859734552,0.000435861164049059,-0.0377469966869369,-0.0218105073823506,0.00034386334033388,0.000801541750259268,-0.0172136209059413,-0.0400527807582162,0.118034994513176,-9.54604270329796e-05,0
0.31,0.00076391819178223,0.000440256600608309,-0.0381483482630158,-0.0220304593973165,0.000347233703130949,0.00081044779814926,-0.0173847927162915,-0.04047723556105,0.118034652694112,-0.000125948455812863,0
0.32,0.000764868609515159,0.000440731455259768,-0.0381968151299732,-0.0220542071059961,0.000347593657130376,0.000811447382767223,-0.0174026839406566,-0.0405281547668918,0.11803425179662,-0.000122859033943262,0
0.33,0.000764899986227714,0.000440782690010287,-0.038201591479713,-0.0220567752831765,0.000347641133566105,0.000811484449017192,-0.0174046864244371,-0.0405331940259146,0.118033890597352,-0.000116498327921482,0
0.34,0.000764828449313759,0.000440788161089338,-0.0382010961932771,-0.022057053473649,0.000347655246682019,0.000811413944476353,-0.0174050337880778,-0.0405327294558766,0.118033575201389,-0.000110515414715553,0
0.35,0.000764754059954761,0.00044078869578272,-0.0382000889584775,-0.0220570828564897,0.000347664760190834,0.000811340040345952,-0.0174051926918478,-0.0405317279169455,0.118033301003618,-0.00010526097309105,0
0.36,0.000764687819639892,0.000440788704492906,-0.0381991360097412,-0.0220570860262553,0.000347672762533493,0.000811274179119782,-0.0174053177140017,-0.0405307778254377,0.11803306277106,-0.000100689146742038,0
0.37,0.000764630404427243,0.000440788662806994,-0.0381983134757883,-0.0220570680322813,0.000347679650200478,0.000811217086525068,-0.0174054050944703,-0.0405299552932478,0.118032855805233,-9.67165240804386e-05,0
0.38,0.00076458022942361,0.000440788621269407,-0.0381975824337936,-0.022057068249611,0.000347685663357489,0.000811167193223264,-0.0174054986842277,-0.0405292262337662,0.118032676004601,-9.32652247730266e-05,0
0.39,0.000764536690093312,0.000440788584607263,-0.0381969480936718,-0.0220570684487996,0.000347690880788,0.000811123898202843,-0.0174055799117635,-0.0405285936119291,0.118032519803745,-9.02669173483931e-05,0
0.4,0.000764498855113775,0.000440788552694341,-0.038196394744825,-0.0220570686323955,0.000347695414556008,0.00081108627553015,-0.0174056507552748,-0.0405280417728528,0.118032384105553,-8.76621555648452e-05,0
0.41,0.000764466025993068,0.000440788524962788,-0.0381959142541972,-0.0220570688023052,0.000347699348538428,0.000811053630571035,-0.017405712283535,-0.040527562593455,0.118032266218579,-8.53992854779887e-05,0
0.42,0.000764437504239263,0.000440788500869931,-0.0381954949850965,-0.0220570689604341,0.000347702766349212,0.000811025268817082,-0.0174057659635542,-0.0405271444775456,0.118032163804885,-8.34334317648465e-05,0
0.43,0.000764412707775751,0.000440788479938978,-0.0381951280874767,-0.0220570691083654,0.000347705737708547,0.000811000611479748,-0.0174058129213978,-0.0405267786015032,0.118032074833972,-8.17256091198893e-05,0
0.44,0.000764391054525924,0.000440788461754768,-0.038194802015153,-0.0220570692477035,0.000347708332181871,0.000810979079869937,-0.0174058545898789,-0.0405264534689469,0.118031997540721,-8.02419492926439e-05,0
0.45,0.000764372428074459,0.000440788445957323,-0.0381945262272704,-0.022057069378773,0.000347710564364552,0.000810960557807345,-0.0174058899175426,-0.0405261784465799,0.118031930392971,-7.89530294551731e-05,0
0.46,0.000764356129929428,0.000440788432233242,-0.0381942790458153,-0.0220570695034833,0.000347712517279545,0.000810944351160087,-0.0174059215130344,-0.0405259319842639,0.118031872058954,-7.78332887209616e-05,0
0.47,0.000764342043675508,0.000440788420310244,-0.0381940661927537,-0.0220570696221499,0.000347714205304631,0.000810930343888439,-0.017405948749773,-0.0405257197440477,0.118031821381351,-7.68605212322763e-05,0
0.48,0.000764329703651413,0.000440788409952239,-0.0381938743926302,-0.0220570697360458,0.000347715683855745,0.000810918073194087,-0.0174059732330235,-0.0405255285255118,0.118031777355835,-7.60154357972577e-05,0
0.49,0.000764318993441821,0.000440788400953632,-0.0381937065180774,-0.0220570698454875,0.000347716967146497,0.00081090742314374,-0.0174059946602382,-0.0405253611661328,0.118031739108718,-7.5281273314717e-05,0
0.5,0.00076430979663141,0.000440788393136048,-0.03819356430462,-0.0220570699507905,0.000347718069323601,0.00081089827784752,-0.0174060128580824,-0.0405252193762042,0.118031705882001,-7.46434744274566e-05,0
0.51,4.69501168312915,-0.00622028643343747,5.25027048620607,0.319984340834042,-0.617052665103885,4.65429042982609,-0.365867843891171,5.24727270851363,0.130483635461297,40.2633620026605,1720.17359125042
0.52,4.64827471046479,0.0175212952679558,7.58817827913342,-0.857152358031197,-2.58234227332302,3.86500623067328,-4.95023522717892,5.81466516287804,0.592787198906005,86.0010180476475,1720.17359125042
0.53,4.64438717583186,-0.0227508086528485,7.78373195983318,1.17060736168901,-4.57823745300843,0.78140364869682,-7.4636708927727,2.50008432300722,1.39684892869997,134.066719819327,1720.17359125042
0.54,4.65947756458746,-0.00346455322822203,7.03055704999189,0.206404344259672,-2.5273413654176,-3.91449726027137,-3.99114531249084,-5.79155370182323,2.56754765931522,184.558519421566,1720.17359125042
0.55,4.61509102766587,0.0685423711441482,9.2513194913215,-3.37813102114229,3.70576397502173,-2.75155894207543,9.48211374938196,-2.66236743713006,-2.19463450813595,230.172280015928,1720.17359125042
0.56,4.64846791694751,0.0520442372590217,7.58407954828452,-2.55532627312091,1.54838404795072,4.38331717054264,0.0270529534723223,8.0029508991695,-0.328367060215779,279.425025317947,1720.17359125042
0.57,4.63137359127033,0.0348062743032473,8.44038625960976,-1.66501730520493,-4.41139427829593,-1.41082718291967,-7.50061832294297,-4.21344604944377,1.8878460375223,325.503888730901,1720.17359125042
0.58,4.64972805472969,0.00857124794467978,7.52444326889948,-0.347350866977351,4.49285198807032,-1.19763327547471,7.36297414817699,-1.58887092772005,-1.8294596215449,373.14963026437,1720.17359125042
0.59,4.53946738139084,0.04345181095661,13.0393495118036,-2.09292524447032,-3.98750054236609,2.16990589455325,-12.4952137804796,4.27488062406742,1.08200648946298,420.915136666358,1720.17359125042
0.6,4.59338053974647,-0.00174936510254464,10.3456667207546,0.176078421270411,4.27824014938798,-1.6720673034793,9.57028271781143,-3.93363854573932,-1.94375401518974,468.209492315913,1720.17359125042
0.61,4.51428783384614,0.0230522090728481,14.3023840304948,-1.05529002887943,-4.49862333120178,-0.376449432356284,-14.152924027405,-2.3165853049926,1.65938930237027,515.14025350984,1720.17359125042
0.62,4.54427375471315,0.0426933251165458,12.8052672716101,-2.01844937714894,2.87777137505977,3.51719754785978,6.44130514246317,11.2498264807578,-0.676345764348798,561.774408044016,1720.17359125042
0.63,4.50361308379179,0.0437439634963814,14.8405569879399,-2.05078856810205,2.01325653939796,-4.02880161455169,8.5880065377203,-12.2757488232459,-2.6684595112888,608.509433158323,1720.17359125042
0.64,4.45060798155345,0.042429472698907,17.4931802096933,-2.01734979585098,-4.12324412137671,-1.67587874894134,-15.36482637107,-8.60250920571992,1.96638089654562,655.998443701792,1720.17359125042
0.65,4.48412661372963,0.123271547269165,15.8196938607489,-6.02119312403349,-2.65494069088876,3.61578169835896,-14.4633901091009,8.79362422648855,0.660837918579231,702.107912547424,1720.17359125042
0.66,4.46836222305083,0.0236416669175208,16.6104984311594,-1.06233853235285,1.35770447249926,4.25716554178457,3.94939619516801,16.1690906046835,-0.303434073874347,749.187516291397,1720.17359125042
0.67,4.4427349259376,0.0622085053083681,17.8944421573365,-2.9362115555325,3.58880164430626,2.61959276951651,12.5402662051791,13.0986305362182,-0.926259436694067,795.143535292432,1720.17359125042
0.68,4.43661736360795,0.0769971434755417,18.2029937018432,-3.68551354418858,4.17516769666085,1.50249023155916,15.7102582869559,9.90554260759473,-1.20800846039744,841.784697344518,1720.17359125042
0.69,4.4650085630354,0.0738106849781451,16.7862690719995,-3.53395855643223,4.10584529196927,1.75607059186417,13.8794470690525,10.0811031883181,-1.15011145301325,888.29067607066,1720.17359125042
0.7,4.43165921971874,0.12212664103057,18.4566187230484,-5.95179041493589,3.11987711060357,3.14974366749096,8.28000318142563,17.536023812338,-0.753083709012875,934.593225650183,1720.17359125042
0.71,4.38010738189745,0.0706816619590191,21.0370890564045,-3.36767597421996,0.144760769936514,4.37828515446141,-3.01135322941095,21.0910433398196,-0.0169157390997174,980.789730066395,1720.17359125042
0.72,4.42435083044223,0.087409561885619,18.8279331062883,-4.17758395517168,-3.81156855505338,2.2482139249796,-18.4537543044319,5.60376880581609,1.05763513768072,1026.73037866292,1720.17359125042
0.73,4.34880832310704,0.15490299735969,22.6081390309599,-7.52389202368983,-2.82801817599772,-3.30733154762908,-8.18288421732294,-22.3780541493947,2.46976395989276,1072.57780750867,1720.17359125042
0.74,4.36780461142044,0.11850103093879,21.6615349710399,-5.75960142315602,3.79079077425983,-2.17293923607306,21.8059582753054,-5.18606686717821,-2.06416439910097,1118.83484836485,1720.17359125042
0.75,4.3429551028588,0.0892610795030728,22.9072896655184,-4.24963855189824,-0.00402912718682895,4.34387043221773,-4.74061704549103,22.8107408400022,0.0214777239653175,1164.49880812588,1720.17359125042
0.76,4.30017897367392,0.0696141524302685,25.0494344676153,-3.3020604435901,-2.82033550523165,-3.24685893961773,-13.5910037651196,-21.2993517971083,2.44256621778241,1210.37175471147,1720.17359125042
0.77,4.29209989804926,0.170425068368663,25.4567771893278,-8.27555423943823,3.87335356807381,1.85695944367475,18.6295470871647,19.2216616910213,-1.08406279193097,1255.86043079888,1720.17359125042
0.78,4.00246086650867,0.127222554187934,24.0888317888088,-6.16570882569404,-3.68500150353997,-1.56736801203022,-19.2639552891238,-15.722207506944,2.00472788748729,1300.39474164715,1720.17359125042
0.79,3.56609666970942,0.0628104386226704,25.597772887345,-2.98576489703153,2.78964988376838,2.22235103773091,17.8360286964471,18.6020657227082,-0.880495173667256,1340.45876272118,1720.17359125042
0.8,3.14924844916583,0.0539105211881064,28.0381791502792,-2.56547205900622,-1.45643671195556,-2.79275209120614,-10.2428394648828,-26.2260438618815,2.67800557585456,1376.49769646139,1720.17359125042
0.81,2.88544045181012,0.0897069494301719,24.6505725847451,-4.36960622827744,-0.830005939260355,2.76494196657196,-11.9616726434253,21.992329911074,0.32270994316952,1408.96434492757,1720.17359125042
0.82,2.53335292072301,0.0642479754192351,27.3245212261731,-3.11697438042819,2.44829543316597,-0.654105721745279,27.2968664250954,-3.35053322597008,-1.80651111793331,1438.22960205648,1720.17359125042
0.83,2.27162381057184,0.0982140642950521,26.9809098357762,-4.83025048460691,-1.34653187462492,-1.8321497345472,-11.0122541402957,-25.1004197984789,2.55100392816565,1464.56131074439,1720.17359125042
0.84,2.06932706006824,0.0217280467454526,24.9563375985601,-0.998706877680803,-1.48174346032906,1.44465321351461,-18.7405959873686,16.5107923431632,0.808571527665618,1488.2832746909,1720.17359125042
0.85,1.86875211978672,0.0682462774751683,24.074757401046,-3.30416773441329,1.34807304649463,1.29599039383449,14.3595642444694,19.603937947395,-0.768590091716217,1509.58543697594,1720.17359125042
0.86,1.70419926491165,0.0763099875708441,22.5294160227757,-3.67949603288009,1.33589947060861,-1.06089158407262,20.4089892898533,-10.2267508794307,-2.19720631471715,1528.78109379598,1720.17359125042
0.87,1.39971457966917,0.0454310828716904,28.9425478676729,-2.23160187152595,-0.522782082245048,-1.29921660330865,-7.83117791958477,-27.9521694395505,2.79148004809061,1546.19598794533,1720.17359125042
0.88,1.30664852170029,0.0522874896329472,25.6147415053015,-2.57648495703055,-1.30766221008912,-0.00915888303764054,-25.4654086012426,-3.77706524817595,1.61779537760465,1561.86743045983,1720.17359125042
0.89,1.20367445131174,0.0849592960065264,23.5927294145792,-4.15427273903979,-0.559986232642728,1.06886186477447,-15.9280243693081,17.8933759506306,0.553057682010965,1575.88989181638,1720.17359125042
0.9,1.00300139458719,0.0467323706015829,27.2069990840048,-2.33771712954273,0.446009676468701,0.89959495357754,8.7970836515266,25.8514417347048,-0.413714632869086,1588.62218836329,1720.17359125042
0.91,0.901138260823105,0.0853555291352398,26.4438900950396,-4.2404424792677,0.889827314416673,0.165961085773921,24.2554910257859,11.3548153167073,-1.29196765672415,1600.0967197759,1720.17359125042
0.92,0.778853953645527,0.0138908896478337,27.353253219148,-0.608623018737966,0.669111108369995,-0.398869355278584,24.0436525258943,-13.0565560874155,-2.09052357707586,1610.3528895531,1720.17359125042
0.93,0.707225861091274,0.0347586237600443,26.224308377793,-1.7483777998497,0.110667363629343,-0.699377805731149,7.07660615132522,-25.3119106391362,-2.93554864577253,1619.67221553263,1720.17359125042
0.94,0.617102802866177,0.0332906567990865,26.5032000184148,-1.59807460739783,-0.30183782837247,-0.539275497773446,-10.2453105129137,-24.4950416648123,2.68521966538112,1627.98756451678,1720.17359125042
0.95,0.538122833320938,-0.0287045196649364,26.6302540559624,1.40608825977757,-0.455524183156399,-0.287919870363691,-23.9234635423198,-11.7819950525658,2.0811669228346,1635.57565325722,1720.17359125042
0.96,0.536041710134126,0.0373620719509575,23.3191691931424,-1.81217230654433,-0.534041456503014,0.0594673201021031,-23.3741135678852,-0.84760559378328,1.52948719250994,1642.30068174108,1720.17359125042
0.97,0.380430982622046,-0.0227047487006989,27.9930964348121,1.09295277693844,-0.336950295472758,0.178066663171854,-23.3591392966564,15.4647536385391,1.02502542095643,1648.44815955694,1720.17359125042
