t,iq,id,vq,vd,ia,ib,va,vb,theta_e,omega,r
0,0,0,0,0,0,0,0,0,0,0,0
0.01,0.00127671224072727,0.000723275709554323,-0.0629497781637495,-0.0362038215950584,-1.58914836685086e-05,0.00146726594671892,0.000314995437145527,-0.0726174362452068,0.526263902475499,-0.0028247639188998,0
0.02,0.00142457153699778,0.000806571758832459,-0.0703640460443245,-0.0403732434348846,-1.81023796864524e-05,0.00163695887853666,0.000432261865554125,-0.0811228137508793,0.526242816407719,-0.00298702451257676,0
0.03,0.00148259017274204,0.000839801573339326,-0.0732509235863137,-0.0420365508876749,-1.84744165220621e-05,0.00170381894543659,0.000442249147594463,-0.0844545666762402,0.526221570933014,-0.00293969080165782,0
0.04,0.00144804836610716,0.00082129948256,-0.0715936673781225,-0.0411104409534354,-1.70916324161729e-05,0.00166465755840061,0.000409068066793444,-0.0825563699986371,0.526202081203697,-0.00269285053066266,0
0.05,0.00148098552010236,0.000840570700536997,-0.0732455330886605,-0.0420750760287091,-1.69380751070129e-05,0.0017028183446762,0.000402989292461221,-0.0844692709800071,0.526183222578731,-0.00260781036177382,0
0.06,0.00148148101356962,0.000841587404893405,-0.0733039923501035,-0.0421259594627374,-1.62773067805805e-05,0.00170375773011495,0.000386838294773102,-0.0845453849198992,0.52616535137972,-0.0024560271765811,0
0.07,0.00151823988339952,0.00086334049219374,-0.0751388769647765,-0.0432148189538793,-1.58987095910539e-05,0.00174646969055854,0.000365340758864616,-0.0866789359352911,0.526148788006932,-0.00239948591221025,0
0.08,0.00148110156642137,0.000842785044968922,-0.0733474192547911,-0.0421859007933382,-1.49956965586273e-05,0.00170403157575317,0.000354063838208338,-0.0846130532239674,0.526132841724896,-0.00217694903132766,0
0.09,0.00147787451520257,0.000841689784580782,-0.0732173125001821,-0.0421310850504842,-1.42971158714894e-05,0.00170069114439707,0.000334880111756732,-0.0844730195541227,0.526118076647395,-0.00204311892482181,0
0.1,0.00147663459201496,0.000841627253866965,-0.0731829140292667,-0.0421279453882257,-1.37050073939153e-05,0.00169958769281234,0.000319152491784998,-0.0844417007771359,0.526104239252885,-0.0019218329235599,0
0.11,0.00147557273375017,0.000841619786708749,-0.0731556050975068,-0.042127585230831,-1.31561888464325e-05,0.00169866585079634,0.000304654733553664,-0.0844179079346119,0.526091261748129,-0.0018083179055419,0
0.12,0.00147458247101187,0.000841615497311277,-0.0731302656141278,-0.0421273678102888,-1.264196583698e-05,0.00169780749492684,0.00029109112275965,-0.0843958893156206,0.526079090159991,-0.0017018655121479,0
0.13,0.00154351775056808,0.00088122246424011,-0.0765349135377265,-0.0441099021073192,-1.29848657831626e-05,0.0017773101786297,0.00028520366713234,-0.0883356955766626,0.526067109976746,-0.00175912186112455,0
0.14,0.00160644702470036,0.000918287311879809,-0.0797711104946596,-0.0459651787343683,-1.25098399762512e-05,0.00185034243701858,0.000304756569637556,-0.0920659266453495,0.526055852952322,-0.00180864559529537,0
0.15,0.00147938513672619,0.000845672147356568,-0.0734306318441361,-0.042330409097647,-1.14876831212581e-05,0.00170399817978704,0.000263457197816355,-0.0847576062528203,0.526045167544914,-0.00142270622083715,0
0.16,0.00147149066422045,0.000841816639642233,-0.0730611846385132,-0.0421374412158849,-1.08421251757487e-05,0.00169523522792212,0.000244041426432258,-0.0843412182552947,0.52603581805055,-0.00132440190688094,0
0.17,0.00147037775202253,0.000841609293525324,-0.0730232423832629,-0.0421270369588349,-1.04478440898859e-05,0.00169416875757549,0.000233251880572286,-0.0843031835973945,0.526027087154333,-0.00124710760347223,0
0.18,0.00146968913204398,0.000841595670233765,-0.0730050725204758,-0.0421263547098928,-1.01000039992952e-05,0.0016935664754959,0.000224028757242742,-0.0842871294206866,0.526018900581361,-0.00117545577159719,0
0.19,0.00146906309157659,0.000841592487091554,-0.072988999046624,-0.0421262196125644,-9.77542622629217e-06,0.00169302354455088,0.000215428133591683,-0.0842731626996005,0.526011222502713,-0.00110830103571301,0
0.2,0.00146847761620064,0.000841590010184947,-0.0729740034167217,-0.0421260785676904,-9.47141998835772e-06,0.00169251604031655,0.000207414208589239,-0.0842601249079362,0.526004021227037,-0.00104531919214601,0
0.21,0.00146792817704696,0.000841587713682341,-0.0729599191844758,-0.0421259754223667,-9.1861146009662e-06,0.00169203978324625,0.000199862959881551,-0.084247894142752,0.525997267139575,-0.000986248570578853,0
0.22,0.00146741296399492,0.000841585560857535,-0.0729467112776637,-0.0421258722407695,-8.91858476972289e-06,0.00169159319045389,0.000192787214622195,-0.0842364210502936,0.525990932469901,-0.000930846146939262,0
0.23,0.00146692976514942,0.00084158354147559,-0.0729343208854886,-0.042125766113126,-8.66768365844048e-06,0.00169117434477464,0.000186157739931317,-0.0842256533304496,0.525984991173089,-0.000878884124044353,0
0.24,0.0014664767178732,0.000841581647216021,-0.0729227035576883,-0.0421256628596248,-8.43244101536686e-06,0.00169078163194823,0.000179945103108488,-0.0842155554828508,0.525979418821137,-0.000830148858192435,0
0.25,0.00146605155774489,0.000841579870339087,-0.0729117916979408,-0.0421255916130132,-8.21168706810883e-06,0.00169041309043727,0.00017408822040596,-0.0842060836913925,0.525974192503345,-0.000784439973033321,0
0.26,0.00148067910128095,0.000850082934425838,-0.0736385612065568,-0.0425511939832119,-8.19354486597784e-06,0.00170733255758646,0.000170480884906087,-0.0850482965275415,0.525969369137384,-0.000777067405800753,0
0.27,0.00143441255574615,0.000823779124508075,-0.071378073195818,-0.0412345594767003,-7.70583688064475e-06,0.00165411367388564,0.000173873686686567,-0.0824323237348442,0.525964507825304,-0.000628232063807089,0
0.28,0.00143104937962585,0.000821867452151203,-0.0711010664613372,-0.0411388749711354,-7.6635188035459e-06,0.00165024534730827,0.000117199806117803,-0.0821447195505326,0.525960184075139,-0.000583436983144969,0
0.29,0.00146268475497235,0.000840528222473266,-0.0727805766875534,-0.0420729416186703,-7.40073736271881e-06,0.00168697350728726,0.00015224312874524,-0.0840661738242596,0.525956332629441,-0.000623802205197684,0
0.3,0.00145274060995402,0.000835258986960859,-0.0722982757069806,-0.0418091684909532,-6.96058005038454e-06,0.00167572802251255,0.00013798886576756,-0.0835166342663569,0.525953430302261,-0.000575916984585022,0
0.31,0.0014634173343148,0.000841236626305146,-0.0728287899293673,-0.0421084055477478,-7.14497055659153e-06,0.00168796276771914,0.000145234493380109,-0.0841256760287336,0.52594987975643,-0.000570280079168068,0
0.32,0.00146376170376941,0.000841552676459822,-0.0728521116296902,-0.0421242153935711,-7.03879962048951e-06,0.00168841928678232,0.000142984537815125,-0.0841537833187003,0.525946491267667,-0.000542081454443592,0
0.33,0.00146353789092783,0.000841568422905821,-0.0728471628551593,-0.0421250224934487,-6.90744925688767e-06,0.00168823364963456,0.000139534363821837,-0.0841499090093446,0.525943309895849,-0.000514338694275496,0
0.34,0.00146329736556048,0.000841568300317186,-0.0728410166581669,-0.0421249973928021,-6.78176748662555e-06,0.00168802558978967,0.00013621941521251,-0.0841445812718196,0.525940325895204,-0.000488245494171859,0
0.35,0.00146306970970822,0.000841567395231887,-0.0728351468394851,-0.0421249634912581,-6.66353724727267e-06,0.00168782826539149,0.000133066448722061,-0.0841394880991643,0.525937527185896,-0.000463768500207428,0
0.36,0.00146285642545603,0.000841566504374368,-0.0728296496268761,-0.0421248946677382,-6.55280396462995e-06,0.0016876433756997,0.000130145391640024,-0.0841346996055647,0.525934902271034,-0.000440811253829515,0
0.37,0.00146265612720335,0.00084156566655849,-0.0728244772300369,-0.0421248606824261,-6.44882006777025e-06,0.00168746974203844,0.000127371007022432,-0.0841302094848726,0.525932440359629,-0.000419279601950235,0
0.38,0.00146246840180507,0.000841564880603413,-0.0728196291117833,-0.0421248266554628,-6.35136192278496e-06,0.00168730700666626,0.00012477233527116,-0.0841259997657967,0.525930131328464,-0.000399085029947782,0
0.39,0.00146229220151852,0.000841564143405653,-0.072815071773788,-0.0421247896798984,-6.25989006425483e-06,0.00168715426202359,0.000122334271361525,-0.0841220400211718,0.525927965684637,-0.000380144508040527,0
0.4,0.00146212706069193,0.000841563451949273,-0.0728107996585021,-0.042124755577727,-6.17415818463972e-06,0.00168701110400469,0.000120048237781598,-0.0841183283703045,0.525925934523904,-0.00036238016179714,0
0.41,0.00146197216441331,0.00084156280339839,-0.0728067886508557,-0.0421247214407917,-6.09374543703977e-06,0.00168687682651984,0.000117903938147847,-0.0841148424998587,0.52592402949506,-0.00034571895262365,0
0.42,0.00146182681419072,0.000841562195092406,-0.072803019452486,-0.0421246872715112,-6.01829015826438e-06,0.00168675082424148,0.000115891020934379,-0.0841115657231093,0.525922242765207,-0.000330092377498577,0
0.43,0.00146169066077333,0.000841561624535669,-0.0727994892005225,-0.0421246501602901,-5.94760670114545e-06,0.0016866327939589,0.000114009945243222,-0.0841084941056265,0.525920566988769,-0.000315436187326306,0
0.44,0.00146156260391977,0.000841561089387267,-0.0727961565935215,-0.0421246507765141,-5.88113305956598e-06,0.00168652178302605,0.000112204222372334,-0.0841056123456946,0.525918995275047,-0.000301690122778009,0
0.45,0.00146144274865191,0.000841560587451194,-0.0727930397258901,-0.0421246165165014,-5.81891288968799e-06,0.00168641788124748,0.00011054518288809,-0.0841028996465631,0.525917521162406,-0.000288797666530501,0
0.46,0.00146133046037962,0.000841560116666984,-0.0727901189813193,-0.0421245822303108,-5.76061912303208e-06,0.00168632053882563,0.000108992327441229,-0.0841003565394666,0.525916138589801,-0.000276705810894558,0
0.47,0.00146122475526778,0.000841559675102556,-0.0727873564375532,-0.0421245827579487,-5.70574990202248e-06,0.00168622890397009,0.00010749600754742,-0.0840979677180552,0.52591484187293,-0.000265364839871912,0
0.48,0.00146112597116749,0.000841559260945132,-0.0727847796404486,-0.0421245455115799,-5.65446736102142e-06,0.00168614326802366,0.000106132380455856,-0.0840957205675987,0.52591362568008,-0.000254728124746958,0
0.49,0.00146103335708384,0.000841558872494209,-0.0727823610091803,-0.0421245111538462,-5.60638749560799e-06,0.00168606298067559,0.000104852011203103,-0.0840936116484297,0.525912485010662,-0.000244751932371905,0
0.5,0.00146094616200812,0.000841558508155131,-0.0727800722781158,-0.0421245116071856,-5.56112673427548e-06,0.00168598739165036,0.000103612706432721,-0.0840916325406918,0.52591141517502,-0.000235395245354943,0
0.51,4.63021846371079,0.0131198776855157,8.48997123479522,-0.652240207222265,-0.418220471250769,4.61131074536358,-1.44020593310109,8.39230812862755,0.0932805657229171,28.6054686799949,1134.99272576299
0.52,4.6955398681431,0.0647741558146294,5.22492796748444,-3.23225638463893,-1.85807661319354,4.31275337158132,-5.08390952919468,3.44981412548614,0.420594837149295,60.7102122738723,1134.99272576299
0.53,4.60005013476673,0.0206222355538344,10.0005687910065,-1.01579782104189,-3.81999022984436,2.56292043631094,-8.89167911920721,4.68841804854698,0.984335628295817,93.2412328674204,1134.99272576299
0.54,4.65096813331013,-0.0537842790350571,7.45593723827932,2.71592348819412,-4.52623496808924,-1.07125829722985,-7.86977944678405,1.01676543699128,1.79163387909641,127.366901466791,1134.99272576299
0.55,4.64678239054893,0.0261201488433822,7.66655872239565,-1.28665235142401,-1.32342622648937,-4.45441487406947,-0.906686562890131,-7.72071994013772,2.85841555871998,163.586293731112,1134.99272576299
0.56,4.61072476858383,0.0135330395903024,9.47071758283562,-0.648498557629596,3.96893658365339,-2.34659507153039,8.49492887878121,-4.23688862935154,-2.10181482511425,196.807182223117,1134.99272576299
0.57,4.6594055864962,0.0482300490531746,7.03808918536941,-2.37278751183253,2.44439215512727,3.96703082280135,1.59700378485523,7.25357834924807,-0.541878584542041,229.041221608981,1134.99272576299
0.58,4.64590345372739,-0.0147473786231499,7.71472066841733,0.771851145422303,-4.43601298706077,1.38073356052518,-7.12711018497896,3.05237114282724,1.26587134935213,264.417148588285,1134.99272576299
0.59,4.62231351744722,-0.0685604037734322,8.89585205494785,3.48207349061031,0.904571098026813,-4.5334571698821,-1.81336774936487,-9.37937721723006,-2.95947825288288,296.678754972059,1134.99272576299
0.6,4.61441326870889,-0.00480171124802387,9.29262306017732,0.281738186051417,2.82822913429784,3.64608733230246,5.92563039049362,7.16373674971919,-0.660780850723332,331.175963606149,1134.99272576299
0.61,4.49319891533285,0.0565649736240499,11.7293708589771,-2.76949704055348,-4.28910189951565,-1.34001529265924,-10.2916789607058,-6.2713314993565,1.88619965676377,363.311705147041,1134.99272576299
0.62,4.4250561180461,-0.0275922137422446,8.76710195982901,1.43237607013433,4.42266017585925,-0.148188889546597,8.70329098796283,-1.77946732455982,-1.61052589659587,396.661785990069,1134.99272576299
0.63,4.28155237170949,0.102902639679645,10.2109175900718,-5.09100388605638,-4.20892923924649,0.791956011379533,-10.8982174714428,-3.37787130367897,1.40883930618636,427.753280909803,1134.99272576299
0.64,4.11115511633361,-0.00525653072681198,12.8689073931216,0.335568730695682,4.10545335734105,-0.21651039782985,12.8320710888699,-1.02924022266384,-1.62476338705218,458.023122130536,1134.99272576299
0.65,3.99170637300087,0.047926314265033,12.9458837386955,-2.33525380483038,-3.85480309388118,-1.03754990591242,-11.8257027334225,-5.76212382455628,1.84572881548904,488.210463856526,1134.99272576299
0.66,3.83456057866182,0.0257307848284725,15.0964276588377,-1.23298031659795,2.6393930422083,2.78174788100172,9.41706601035966,11.8634411650316,-0.752434864110761,517.475363599326,1134.99272576299
0.67,3.85375638464885,0.040954991153811,8.65867406710061,-1.99648135996112,-0.0409873494632237,-3.85375604063181,1.99640865678263,-8.65869083037824,3.14158425702612,545.570233508856,1134.99272576299
0.68,3.55857288589005,-0.022139608505394,18.0580751013027,1.15842602473555,-2.9192609504103,2.03515273379325,-14.0806544597334,11.3653507295052,0.955766585172407,572.750252583976,1134.99272576299
0.69,3.47040977478614,-0.041035976763671,17.1992143070752,2.10559847590956,2.95914175199532,1.81353468340648,15.8485452498512,7.00500757928717,-1.03279976059784,599.094914618408,1134.99272576299
0.7,3.46176437639355,0.0316470900403678,12.4263872690164,-1.53009257578311,1.03046291930624,-3.30499021298253,5.26361206146293,-11.3600471793237,-2.83021310152688,624.808362858867,1134.99272576299
0.71,3.3078418124365,0.0309816514133578,15.022635606078,-1.49977974427633,-3.19605521647274,-0.853234066411369,-14.0769960729409,-5.45592351456201,1.84104283551421,649.757715592507,1134.99272576299
0.72,3.16690632785617,0.013301771735212,17.0320456263091,-0.616213849627062,-1.24772995495661,2.91078040842155,-7.34143930314031,15.3809481724455,0.409165326504795,674.02445783308,1134.99272576299
0.73,3.08747067198782,-0.0657164154094274,16.091227393747,3.34300683472827,2.27252824141738,2.09103065247729,14.2811387492992,8.1334107087727,-0.848249795238227,697.458007439749,1134.99272576299
0.74,3.06451266573639,0.0188750381179163,12.4869430044366,-0.880080094493221,2.85491362578167,-1.11402977287363,11.9752781443834,-3.64568236869662,-1.93667974509518,720.003442137704,1134.99272576299
0.75,2.9306623187335,0.0418546701503335,14.5534547671418,-2.01626676190367,0.770491857659067,-2.82787477394931,5.96352662300729,-13.4277595871792,-2.86130572486445,741.846845656381,1134.99272576299
0.76,2.78245523594512,0.109285421961496,17.4251741907361,-5.38179451832777,-1.39492830877555,-2.41001565490108,-3.37037429127594,-17.9231968396183,2.65616020309126,763.199496199289,1134.99272576299
0.77,2.68683951424048,0.0183478885898667,17.6716200282222,-0.874603445506959,-2.39871954396282,-1.21061462477145,-15.3221337628321,-8.84778517837309,2.04501920032211,784.202962026938,1134.99272576299
0.78,2.71199362009958,0.0650521253646248,11.9763739244306,-3.19684275215311,-2.71260150909617,0.0305651324954386,-11.9347594735905,-3.34885835282965,1.58351120317777,804.192223585828,1134.99272576299
0.79,2.60238538798737,0.0457249543390571,13.2520938602774,-2.20321941491959,-2.46861321412479,0.824893495008877,-13.3022329646857,1.87690320078337,1.26587721727967,823.30169735194,1134.99272576299
0.8,2.54672349467241,-0.033106518852773,11.8497067204157,1.7004897017011,-2.2707751630755,1.15346294204297,-9.70443486538982,7.00936220556927,1.08780209816447,842.281104005558,1134.99272576299
0.81,2.40263223035089,-0.00701487922745717,14.9046169489672,0.411995838551704,-2.08209021427985,1.19899590593612,-12.6876826713895,7.83198923623788,1.04539507949215,860.372351380951,1134.99272576299
0.82,2.25864217764961,0.127539206039242,18.1665037767213,-6.29815746878131,-1.99205011601735,1.07213202125958,-19.124174993237,1.98861202833633,1.13346088864473,877.818666720872,1134.99272576299
0.83,2.21850028927341,-0.0142928625233786,16.184365210124,0.759761854326583,-2.16705151225329,0.475221593223691,-15.618524636879,4.309594354132,1.34847695154153,895.012272174832,1134.99272576299
0.84,2.23343301053752,0.104512562644887,11.6747361931152,-5.1451194516608,-2.23068622781022,-0.152265693336039,-11.0077892542797,-6.44982907401864,1.68571065167745,911.207755680847,1134.99272576299
0.85,2.16179276537467,-0.0202194225610504,11.4585394476206,1.05354751933457,-1.80827315087397,-1.18486497007182,-10.2117633533224,-5.30358160717032,2.14149824939876,927.293501106451,1134.99272576299
0.86,1.98027787998814,0.0140679888225683,16.9355924825591,-0.622274466556825,-0.838643352500515,-1.79398319880275,-6.49725938600937,-15.6520649985219,2.71140536703969,942.389751588555,1134.99272576299
0.87,2.01381725401317,0.0421624343157873,11.6510722573652,-2.06707038012421,0.45720383964487,-1.96168352504744,4.88439308534367,-10.7778925996959,-2.89167973063679,957.317493125856,1134.99272576299
0.88,1.932711029656,0.0625888386043772,12.2974163795339,-3.05035197607655,1.63105096864599,-1.03873096832181,12.1353656672376,-3.64197706088522,-2.10549732155382,971.432355902718,1134.99272576299
0.89,1.77667284442393,0.0106035322611897,16.6617725081519,-0.476524739950632,1.67005260953617,0.606302822351393,15.4621032973772,6.22616258721438,-1.21658035133687,985.237501938269,1134.99272576299
0.9,1.71258086090988,0.022060656209001,16.5878924367905,-1.08350299974607,0.410064091757583,1.66290929348483,2.70849267402402,16.4011042823265,-0.228890002976256,998.537208332274,1134.99272576299
0.91,1.73616929159284,0.00367355037002215,12.1856388593823,-0.106808410379552,-1.30685570624959,1.1429897055902,-9.25949770726638,7.9223042517278,0.854302869882923,1011.19745375324,1134.99272576299
0.92,1.63220387393519,0.0569844451068071,14.2027694087379,-2.81213333479573,-1.48869632717808,-0.671654642297408,-11.4892318611912,-8.81046559554258,2.02952093563274,1023.5907497438,1134.99272576299
0.93,1.56508984861071,-0.0184477353780267,14.5069020249749,0.939276649866792,-0.555488093282172,-1.46331115330493,-6.18212888531592,-13.1572690719825,2.76699968354306,1035.51555635828,1134.99272576299
0.94,1.45203454053166,0.0264695097163664,17.1669571684204,-1.25427693617927,1.18681301614827,-0.837006455496413,14.911083867096,-8.59867472134165,-2.16681356042552,1046.82780478302,1134.99272576299
0.95,1.42141385392388,-0.00585539267060164,15.7511324075373,0.33746649352928,0.949114717242362,1.05812706385576,10.8158441668224,11.455547595512,-0.735261331473924,1057.86460620506,1134.99272576299
0.96,1.37446611399828,0.0344061708678201,15.2539516431009,-1.70783360483815,-0.937331261527296,1.00585833460133,-11.8952421316916,9.70066755333387,0.775174681072917,1068.50963868131,1134.99272576299
0.97,1.24818305403905,-0.00861690744436026,18.8300427511069,0.463301198007542,-0.871816474067349,-0.893292350257702,-13.5739159993319,-13.0588652819328,2.36145732393873,1078.59735224506,1134.99272576299
