t,iq,id,vq,vd,ia,ib,va,vb,theta_e,omega,r
0,0,0,0,0,0,0,0,0,0,0,0
0.01,0.000558320658573807,0.000266055238089001,-0.0166069224417789,-0.0133080529273957,0.000228031818277964,0.000574898980132797,-0.0121649357542261,-0.0174616288988507,0.0670817179608763,-0.0236036300462129,0
0.02,0.000733384098060678,0.000340633455261935,-0.02692032926551,-0.0170384546602367,0.000290834086467313,0.000754518999284102,-0.0152003207713589,-0.0279993448748397,0.0669140163321604,-0.0207525517197624,0
0.03,0.000763299081641463,0.000371484470603519,-0.031894623444945,-0.0185816084196922,0.000319711235312851,0.000786391076976976,-0.0164114310935749,-0.0330636977003247,0.0667926885069092,-0.0130145387773572,0
0.04,0.000708363672689097,0.000369409723818163,-0.0330456461061226,-0.018477830057116,0.000321350753844601,0.000731420761149493,-0.0162330761332883,-0.0342042712163499,0.0667337860349086,-0.00518304118642683,0
0.05,0.000688719089541814,0.000378854688799083,-0.0335121220150282,-0.018950269361538,0.000332100759351308,0.000712442239878181,-0.0166741404138397,-0.0347008367663453,0.0667112169868489,-0.00226472893817197,0
0.06,0.000673191632306748,0.000381274903341878,-0.033477914724796,-0.0190713256850896,0.000335555421214708,0.000697108373941672,-0.0167974437190894,-0.0346746610972839,0.0667044126684376,-0.00082141965616468,0
0.07,0.000672395622958741,0.000386619540603702,-0.0333842447895797,-0.019338665765727,0.000340939726480303,0.000696671117427891,-0.0170703581325418,-0.0345990558685616,0.0667065714336287,-0.000943635709980394,0
0.08,0.000665392978441227,0.000383265052740896,-0.0332944221414996,-0.0191708807538241,0.00033806018700296,0.000689460097739451,-0.0169089692163544,-0.0344982314713972,0.0667055390963102,-0.000452056405680108,0
0.09,0.00066239508518894,0.000382405525770527,-0.0332052904832709,-0.0191278816659564,0.000337401750851534,0.000686411897875186,-0.0168719744151462,-0.0344064478323451,0.0667064839744301,-0.000350111085815829,0
0.1,0.000661613335212239,0.000382185359708776,-0.0331518804350847,-0.0191168625737378,0.000337233449245505,0.000685617572132139,-0.0168645031915751,-0.0343524401338054,0.0667075550265041,-0.00038805114458587,0
0.11,0.000661707734943843,0.000382128994748907,-0.0331288494568215,-0.0191140538656214,0.000337170453856451,0.000685708232529373,-0.0168632127375183,-0.0343292845494895,0.0667082306577262,-0.000446457682070424,0
0.12,0.000661987537794434,0.000382114571987218,-0.0331227169270111,-0.0191133309452438,0.000337137202450246,0.000685986554565127,-0.0168628897341326,-0.0343231226181973,0.0667085359265371,-0.000486759872338396,0
0.13,0.000689209998440286,0.000395454015083784,-0.0337553222158224,-0.0197805610700025,0.00034863503957064,0.000714036350040754,-0.0174865986561877,-0.0349987319995383,0.0667047722395422,-0.00178928220951333,0
0.14,0.000702703364905636,0.000403114476206037,-0.0352159895682334,-0.0201637373816499,0.000355382713210836,0.000728008535064992,-0.0177717446467755,-0.0364816024685851,0.0666997537393904,-0.00218820904577975,0
0.15,0.000674285633869303,0.000387491251489523,-0.0338030810881815,-0.0193822744079531,0.000341690883459735,0.000698611427178192,-0.0170863206835923,-0.0350196872883927,0.0666960255460009,-0.000229369859620185,0
0.16,0.000662286307367733,0.000383488024429148,-0.0334365382480261,-0.0191820231144619,0.000338493487118044,0.000686373351016795,-0.0169108029408958,-0.03464068193136,0.0667000817312431,0.000157211531146458,0
0.17,0.000659256366807174,0.000382462544845812,-0.0332199774122566,-0.0191307319022567,0.000337669216026229,0.000683283291127451,-0.0168739075997001,-0.0344212586159141,0.0667045004830478,-1.07793466739851e-05,0
0.18,0.000659719375733925,0.000382199976024822,-0.0331280180062953,-0.0191175953956518,0.000337374490930502,0.000683728695654584,-0.0168668355588816,-0.0343286744423218,0.0667072476655108,-0.000252892146155449,0
0.19,0.000660886716242228,0.000382132775097404,-0.033104453212629,-0.0191142431948508,0.000337228788123524,0.000684889373526716,-0.0168650195661907,-0.0343049592690481,0.066708472692792,-0.000417228438494763,0
0.2,0.000661767454718172,0.000382115569304032,-0.0331076792196695,-0.0191133791915311,0.000337152672443019,0.000685767123660243,-0.0168639304851114,-0.03430812638465,0.0667088212118172,-0.000496165360165753,0
0.21,0.000662223627739114,0.000382111151167528,-0.0331164053907494,-0.0191131588542074,0.000337117865362215,0.000686221982915259,-0.0168631294284268,-0.0343168182276671,0.0667088074720385,-0.000521851864960947,0
0.22,0.000662389577674349,0.000382110007397626,-0.0331230154476304,-0.019113102855475,0.000337105730990244,0.000686387453628451,-0.0168626363809824,-0.0343234081552327,0.0667087069931548,-0.000523728661781651,0
0.23,0.000662415480055633,0.000382109706664602,-0.0331264213747541,-0.0191130882624394,0.000337103760889578,0.000686413250555921,-0.0168623976142196,-0.0343268041437814,0.0667086245405457,-0.000518794927363541,0
0.24,0.000662395340196737,0.000382109626014372,-0.0331276187939603,-0.0191130840733154,0.000337105053779105,0.000686393134962596,-0.0168623151585454,-0.0343279978624659,0.0667085795891812,-0.000514096840034622,0
0.25,0.0006623714750531,0.000382109604221872,-0.0331277430131056,-0.0191130828118986,0.000337106634850325,0.000686369315560147,-0.0168623062190597,-0.0343281214267766,0.0667085621264221,-0.00051133411524728,0
0.26,0.000666409559486249,0.000384408814030682,-0.0331658817103131,-0.0192280840277116,0.000339130888581892,0.000690552009401745,-0.0169744761509803,-0.0343738575722746,0.0667095282120285,-0.000823811232839974,0
0.27,0.000659516314431007,0.000379422944244388,-0.0331494788425015,-0.0189786947299948,0.000334617654942805,0.000683340738299947,-0.016726837602378,-0.0343408168948769,0.0667065397175457,-0.000185586052808107,0
0.28,0.000657885422118484,0.000379108942442535,-0.0321015376621018,-0.018962985940661,0.000334412802143779,0.00068169267022483,-0.0167810037563724,-0.0332941656898872,0.066706920935044,-0.000119736921877231,0
0.29,0.000660081163177667,0.000381340663394264,-0.033080975968035,-0.0190746200550879,0.000336491984847193,0.000684032884935772,-0.0168270419712144,-0.0342788967112808,0.0667086930688922,-0.000387213697016953,0
0.3,0.00064705115800634,0.000376125759916352,-0.0325664424823834,-0.0188137708933865,0.000332152153600541,0.00067068676385368,-0.0166008149274536,-0.0337482458052512,0.0667162925185827,-0.000217413193043794,0
0.31,0.000659410924690113,0.000380576757360092,-0.0328229056764989,-0.0190364148366787,0.000335769854329804,0.000683315476750479,-0.0168058954266115,-0.0340189668536871,0.0667154266360072,-0.000874755803872465,0
0.32,0.000663730229772423,0.000381717090704032,-0.033009503833922,-0.0190934417991779,0.000336621735612705,0.000687700198024105,-0.0168504570272369,-0.0342089017811672,0.0667124670030758,-0.000896565001800619,0
0.33,0.000664278232028694,0.000382009115049162,-0.0331037878891734,-0.0191080474289945,0.000336878169634544,0.000688265669891714,-0.0168588241944714,-0.034303910796584,0.0667101557725816,-0.00074787753729257,0
0.34,0.00066364744273865,0.000382083856856121,-0.0331369060510463,-0.0191117941689247,0.000336995635420098,0.000687640853666652,-0.0168603969351633,-0.0343371844241771,0.0667089321997101,-0.00061513863432008,0
0.35,0.000662968335782047,0.000382102982632732,-0.0331412009106537,-0.0191127534012263,0.000337060302372752,0.000686964377643292,-0.0168610834782314,-0.0343415259462435,0.0667084739395106,-0.000539446272123476,0
0.36,0.000662548076937595,0.000382107884062596,-0.0331364160548819,-0.0191129999177436,0.00033709326220932,0.000686545353119208,-0.0168616511644695,-0.0343367668079807,0.0667083934347287,-0.000508491249455,0
0.37,0.000662361405086251,0.000382109147442642,-0.0331311955730471,-0.0191130619951588,0.000337106933319424,0.000686359196787767,-0.0168620594546093,-0.0343315628813997,0.0667084412313228,-0.000501281794376488,0
0.38,0.000662308727183838,0.000382109477438313,-0.0331279179847008,-0.0191130783306777,0.000337110731911787,0.000686306678739145,-0.0168622921274642,-0.0343282947068995,0.0667085026097207,-0.000502995221385119,0
0.39,0.000662311230121557,0.000382109565480528,-0.0331264145569447,-0.019113082763769,0.000337110625233231,0.000686309195575659,-0.0168623953832097,-0.0343267955986799,0.066708542943623,-0.000506296228521435,0
0.4,0.000662326771569721,0.000382109589429173,-0.0331259316354628,-0.0191130842248688,0.000337109600195662,0.000686324710416011,-0.0168624283842532,-0.0343263141669801,0.066708561818568,-0.000508683704667994,0
0.41,0.000662339344424421,0.000382109595867533,-0.0331258662537191,-0.0191130842450242,0.000337108764491497,0.000686337257716378,-0.0168624325609434,-0.0343262490310886,0.066708567694781,-0.000509885590967711,0
0.42,0.000662346212928378,0.00038210959742199,-0.0331259059323715,-0.0191130842923569,0.000337108308043183,0.000686344111121252,-0.0168624299556754,-0.0343262886283532,0.0667085679147902,-0.000510305889309653,0
0.43,0.000662348890480768,0.000382109597661974,-0.0331259258475773,-0.0191130843596482,0.000337108130697782,0.000686346782292994,-0.0168624287402184,-0.0343263084816773,0.0667085666058467,-0.000510359441117226,0
0.44,0.000662349472557375,0.000382109597612195,-0.0331259039810366,-0.0191130844369139,0.000337108092655133,0.00068634736267491,-0.0168624303153129,-0.034326286649078,0.0667085654290041,-0.000510298251750311,0
0.45,0.000662349239726732,0.00038210959754436,-0.0331258469405885,-0.0191130845180582,0.000337108108570936,0.000686347130130096,-0.0168624342217079,-0.0343262297295276,0.0667085647541188,-0.000510232277598337,0
0.46,0.000662348890480768,0.000382109597508266,-0.0331257727520657,-0.0191130845997568,0.000337108132006592,0.000686346781564582,-0.0168624392581298,-0.0343261557067616,0.0667085644754723,-0.000510191420773206,0
0.47,0.000662348657650125,0.000382109597496848,-0.0331256934187052,-0.0191130846809016,0.000337108147562219,0.000686346549228081,-0.0168624446297221,-0.0343260765541144,0.0667085644073742,-0.000510173267341903,0
0.48,0.000662348541234804,0.000382109597496444,-0.0331256132600648,-0.0191130847614925,0.000337108155314047,0.000686346433075548,-0.0168624500530409,-0.0343259965793286,0.0667085644188985,-0.000510168140071401,0
0.49,0.000662348483027143,0.000382109597499359,-0.0331255331629749,-0.0191130848418064,0.000337108159179223,0.00068634637500629,-0.0168624554714857,-0.034325916666181,0.0667085644448361,-0.000510168375635833,0
0.5,0.000662348483027143,0.000382109597501698,-0.0331254552422207,-0.0191130849218433,0.000337108159169202,0.000686346375012514,-0.016862460744854,-0.0343258389243761,0.0667085644628368,-0.00051016988240542,0
0.51,4.70929400328665,0.0110632893633402,4.5359751265804,-0.50596462709315,-4.15411607682439,2.2183083703652,-4.24351151003019,1.68038109280809,1.08266740930771,335.728841831889,2027.15182705112
0.52,4.70023905088287,0.0573249129339861,4.98970909485887,-2.77077412572963,4.46454620806234,1.47083664530205,3.82073791093652,4.23985234684682,-1.24035090678677,742.158196701826,2027.15182705112
0.53,4.63572470642149,0.0858983184590016,8.21675533363964,-4.13975748743351,2.86034271147236,3.64907682130257,1.64350367304055,9.05270986745734,-0.646290340177369,1133.6347676249,2027.15182705112
0.54,4.5961317256345,0.118194744979375,10.1980824542677,-5.71311198705232,-1.48151740127298,-4.35241347149487,2.41702146719647,-11.4367190027453,2.83921519703686,1528.56978544325,2027.15182705112
0.55,2.11135929228062,0.0477035442078834,10.6163767787347,-2.26265258974586,-1.09007993037587,-1.80882266533274,-3.30914653761402,-10.3381140370252,2.62181967667772,1802.78223785703,2027.15182705112
0.56,0.907952042482078,0.0293211005276624,9.61530588805549,-1.43033580974636,0.51146688340145,-0.750758460203505,6.82280792507626,-6.92454040836169,-2.51126774760272,1922.86539057923,2027.15182705112
0.57,0.37110985718482,-0.031605416996046,10.2353743993949,1.5894044642524,0.235493695211399,0.288555277198169,8.26281201826875,6.24620150151494,-0.7694485510232,1974.2441762664,2027.15182705112
0.58,0.196079084448932,-0.00359817599720318,7.53456870206709,0.20420371050968,-0.18591213129579,0.0624230219221656,-7.02894485945122,2.72127889867046,1.22850915745124,1996.66843019727,2027.15182705112
0.59,0.0467524361621291,-0.0175501521067446,10.0264630766671,0.87325386922105,0.0263735979661354,-0.0424055592627251,1.10895859392307,-10.0031367572798,-2.94430673248045,2006.52644111682,2027.15182705112
0.6,0.000240239338299511,0.0172379192458851,10.0686168847038,-0.885664931900691,0.0123744875721675,-0.0120031509277188,6.48328569481021,7.75425399003737,-0.784102442684734,2010.891830883,2027.15182705112
0.61,0.0139041482516449,0.0167770444100588,8.60293879826919,-0.821219644202042,-0.0108012493196263,0.0189242587933075,-8.61562168313369,0.675293035581719,1.3974065089056,2012.76810876472,2027.15182705112
0.62,-0.00698924062336237,0.044387578455728,9.15396179510929,-2.21192121095107,-0.0430327936393106,-0.0129338809817927,5.95987027735397,-7.29160875711859,-2.69344627686094,2013.82390586467,2027.15182705112
0.63,-0.0118614814794879,0.00426287121881092,9.44760578147326,-0.225380111593687,-0.00191840903931451,-0.0124573881963386,4.31323643652479,8.40856959532737,-0.497810834766862,2013.68673713919,2027.15182705112
0.64,-0.0518127192447642,-0.0430288205954459,11.0380651556387,2.12544720681144,0.0569384693630716,-0.0359728784497764,-11.2201711127076,0.681299061080021,1.70037773631737,2014.42342158647,2027.15182705112
0.65,-0.0125906127297132,0.00297647666988455,9.29505786818788,-0.132138090618756,-0.0108210494216901,0.00709139137894127,6.48962381095747,-6.65585036191527,-2.38305396453444,2014.29306108908,2027.15182705112
0.66,-0.022068883179658,-0.018705878427081,9.70961565357884,0.940835879792202,-0.0224271617514353,-0.0182747888715871,2.70107173996294,9.37368762806299,-0.183958621162678,2014.45039984214,2027.15182705112
0.67,-0.055725485952304,0.0183591399453067,11.3673585809797,-0.935895184838518,0.0423515120420469,0.0406046454473395,-9.85119875820919,-5.74861930656696,2.01688227221199,2014.63509392877,2027.15182705112
0.68,-0.022170241755796,-0.0417729206393358,9.94113309549933,2.06413986787243,0.000393063192186606,0.0472899780035647,7.75922881923168,-6.54837145765091,-2.06703807973295,2014.19748840901,2027.15182705112
0.69,-0.0115566076476114,0.0057706692620108,9.2086418055473,-0.272199344616087,0.00652913180646371,-0.0111456826577007,-0.886210795896464,9.16994039300799,0.0667933087773392,2014.77824527679,2027.15182705112
0.7,0.0096500143628275,0.026276615299321,8.065411693799,-1.31033389059002,-0.0243000232321731,0.0138957604940188,-5.32845279363662,-6.19479067614754,2.27017888455133,2015.0920398088,2027.15182705112
0.71,0.00225808331347068,-0.0146375205287075,8.39579756095279,0.715793225375981,0.0056426132396978,0.0136936796846609,7.99091453485373,-2.67339887084931,-1.80859534068292,2015.30986290731,2027.15182705112
0.72,-0.0575005472944365,-0.0202930164021171,11.4423322006063,0.988001723873565,0.00350178717948342,-0.0608757500192476,-3.51013488122489,10.9353585542961,0.396732790724269,2015.11948424709,2027.15182705112
0.73,-0.0747774671107846,0.0201634490250341,12.2379268066088,-0.996470360347075,0.0210725835056256,0.0745263744488356,-5.42562670469204,-11.0146439145484,2.60265067144339,2015.4140456022,2027.15182705112
0.74,-8.16851154100667e-05,0.0270985186867945,8.57442334590512,-1.3545346531088,0.00253717509879065,-0.0269796058161476,8.40341373911297,2.17672629665806,-1.4740172370335,2015.4249084979,2027.15182705112
0.75,-0.0441074682462254,0.0281128769861874,10.8300500907465,-1.42752887535386,0.0504076942359262,-0.0139594759697368,-8.30864443692192,7.09184399707535,0.733188551701572,2015.31352656501,2027.15182705112
0.76,-0.00214683150972086,-0.0129404169022235,8.80422890622006,0.62519381343523,0.0131079555019911,-0.000494750131179548,-2.37997298952878,-8.49947307229054,2.93946243011577,2015.16228123812,2027.15182705112
0.77,-0.0130115023534762,0.0420980006252025,9.28007260310404,-2.09127525258902,0.00588568470412926,-0.0436680611625665,7.54185802282687,5.79772000570012,-1.13705843111634,2015.53327158882,2027.15182705112
0.78,-0.0107272503989415,0.0119329340475157,9.23978448920127,-0.599023442598283,0.0151375203616702,0.00532205725297735,-8.39401321877841,3.90806711490988,1.07032330515361,2015.3926282738,2027.15182705112
0.79,0.0085332685631861,0.00883940693092078,8.20746278710246,-0.462079352869045,-0.00759588800860262,-0.00965682518339425,1.57472463100145,-8.06822192719913,-3.00508019896465,2015.55662270866,2027.15182705112
0.8,-0.0746951081966176,0.0243010399174401,12.277857315884,-1.22792418987947,-0.0363330533321324,-0.0696405698220358,7.90870639026152,9.47132204699714,-0.795410380306122,2015.65663749807,2027.15182705112
0.81,-0.0130695405990063,0.0397818793788097,9.07619245778104,-1.97657606693356,0.0190556852251745,0.0372866152791897,-9.27254601169158,-0.551373684644666,1.41576151775173,2016.29761448964,2027.15182705112
0.82,-0.055275151869581,-0.0166648812123743,11.3264153016023,0.826723054406252,-0.0110908693535972,0.0566573322440196,4.56086295613789,-10.4004655515216,-2.65546080837747,2016.04636166469,2027.15182705112
0.83,-0.018513138408782,-0.0108837110292652,9.45168443498872,0.52181913713826,-0.0177723841835342,-0.0120554477288956,4.52540502551913,8.31428549097864,-0.443297736623133,2016.07935696416,2027.15182705112
0.84,0.00154167354028287,-0.00347113022009772,8.40930917593484,0.17851553550799,-0.00107112661627575,-0.00364392509275227,-8.35957892071888,-0.930477770369683,1.70287195716242,2016.43428606027,2027.15182705112
0.85,0.00945536964717954,-0.0149145768245053,7.8966116730427,0.759688937728718,0.017264058150519,0.00371495803399915,4.99483049769628,-6.16321924778154,-2.36461764805391,2016.79907974025,2027.15182705112
0.86,-0.0213663158713296,0.0248685962545132,9.54463386419108,-1.25120843462375,0.0214458194049422,-0.0248000678151094,0.170013407231038,9.62479369076026,-0.148009257121765,2016.427661468,2027.15182705112
0.87,-0.0163085524981533,-0.0229841218453186,9.48581998780409,1.12620419593838,0.0252687300788578,-0.0124791835384892,-8.88234013107926,-3.51470489910486,2.06575856843964,2016.20898562115,2027.15182705112
0.88,-0.0250284294457683,0.0307293200899024,9.70952104899559,-1.52268312515168,-0.0355731499598148,-0.0174718171821367,9.45839997409503,-2.67058660794764,-2.00154030537462,2016.67840493437,2027.15182705112
0.89,-0.0381369391306771,0.0118973691381744,10.4826547114261,-0.585785674895808,0.0197261771869045,-0.0347397675907281,-2.79893168741183,10.1190501562696,0.21402996509419,2016.53441597306,2027.15182705112
0.9,-0.028929094952481,0.0225351256052966,10.0070148549069,-1.13701474785939,0.00184328410087211,0.0366241276283767,-5.67793797967049,-8.31830326101378,2.42951480884574,2016.73647760957,2027.15182705112
0.91,-0.00288033808374129,-0.0653910208598696,8.7255402202197,3.24762182367641,0.00147419334286153,0.0654378232413061,8.49027900940044,-3.8206363327102,-1.63734013045804,2016.60443190601,2027.15182705112
0.92,-0.00314540666523747,-0.00727060082385759,8.78924058173501,0.380269955955462,-0.00436447061728509,-0.00661109791641707,-4.49103641725267,7.56478335062745,0.578995548292683,2016.72289531932,2027.15182705112
0.93,-0.0219095800047467,0.0382128595968853,9.75110422792812,-1.90295787799469,-0.0284998984344058,0.0335858321883532,-1.52204141066503,-9.81777328591166,2.79505712015355,2016.67923452596,2027.15182705112
0.94,-0.0306419879334832,0.0117224334263755,10.1184969589516,-0.598257085932775,-0.025820212768759,-0.0202401453188348,9.4917093870544,3.55659179002665,-1.27134057791411,2016.88304025379,2027.15182705112
0.95,-0.0553404583337692,-0.0297089118364049,11.4537379820882,1.45882670904757,0.0274637203382296,-0.0564883159270874,-8.43043067344595,7.88949477403857,0.945216530656321,2016.69370043653,2027.15182705112
0.96,-0.0377680596863056,0.0527653890075722,10.485518445081,-2.62486378377311,-0.0535569554823625,0.0366369366766519,2.84734732797636,-10.4273016710635,-3.12031621646101,2017.01501148883,2027.15182705112
