t,iq,id,vq,vd,ia,ib,va,vb,theta_e,omega,r
0,0,0,0,0,0,0,0,0,0,0,0
0.01,0.000738919654031812,0.000415072797346962,-0.0360052603044613,-0.0207831052994154,-0.000842365999351177,9.33124072619398e-05,0.0412638946798902,-0.00506035881391159,1.9722757215489,-0.00269220765525551,0
0.02,0.000815397967556389,0.000459095035739877,-0.0399288684249225,-0.0229873356202271,-0.000929964073544456,0.000103965952372354,0.0457367753387187,-0.00555693388725339,1.97225634452133,-0.00270908064040014,0
0.03,0.000842566940610801,0.000475132361597957,-0.0413168228837955,-0.0237903480783839,-0.000961237657029708,0.000108129446294401,0.0473280557530936,-0.00575462019021725,1.97223772940949,-0.0025416329631839,0
0.04,0.000823866821142694,0.000465933589354487,-0.0404880287740903,-0.0233297376641139,-0.000940428121308492,0.000106984098447869,0.0463850794281471,-0.00565522235923799,1.97222164982047,-0.00222973116023299,0
0.05,0.000839313390124197,0.000475298607098463,-0.0412966279036176,-0.0237986633184074,-0.000958304318134481,0.000109583605508849,0.0473125358668323,-0.00577163770540578,1.97220661195367,-0.00206867428801037,0
0.06,0.000838224638625115,0.00047553179894991,-0.0413036872406282,-0.0238103357613849,-0.000957391726367816,0.000110236649500953,0.0473235162328541,-0.00578026643852245,1.97219303891093,-0.00186368597405775,0
0.07,0.000860462961612343,0.000488832823621551,-0.0424254102013966,-0.0244763296289785,-0.000983057868712294,0.000113803622610817,0.0486162157901208,-0.00595564481073082,1.97218106036252,-0.00177479847342739,0
0.08,0.000836235280267611,0.000475868150125316,-0.0413087373817301,-0.0238271874375332,-0.000955689340142707,0.000111345522611095,0.0473346155757119,-0.00579489547409207,1.97217001335691,-0.00151537647068224,0
0.09,0.000834464565068766,0.000475539884056878,-0.0412660948533431,-0.0238107482363367,-0.000953930018930442,0.000111744398819813,0.0472888832365283,-0.0057968817705139,1.97216030125525,-0.00136476458587451,0
0.1,0.000833440837950511,0.000475529958697748,-0.0412548546359982,-0.0238102387701494,-0.000952982797431551,0.000112143478554339,0.0472782868991934,-0.00580121445961346,1.97215162066544,-0.00123236607948619,0
0.11,0.00083254075564281,0.000475528222915216,-0.0412455395272181,-0.0238101691787357,-0.000952152691136074,0.000112500903807641,0.0472696397907294,-0.00580515643768652,1.9721438579654,-0.00111402986675052,0
0.12,0.000831736652025556,0.000475526849754086,-0.0412372461702355,-0.0238100898968037,-0.000951411165675279,0.000112820374880307,0.0472619341673705,-0.00580865142331799,1.97213691598217,-0.00100820658958437,0
0.13,0.000871670063388096,0.000498319903142117,-0.0431872867881974,-0.0249513700953656,-0.000997074756369335,0.000118208948415962,0.0495028235773316,-0.00609779202937414,1.97213009972272,-0.00106582864502671,0
0.14,0.000919223541856125,0.000526409297311455,-0.0456737291575552,-0.0263578323572364,-0.00105182194079769,0.00012549610772862,0.052341086090555,-0.00642149270738482,1.97212408580257,-0.0011655377204076,0
0.15,0.000832116691110984,0.000476804364184619,-0.0413357048477124,-0.0238740609717944,-0.000952257983786145,0.000113865366317142,0.0473774527601422,-0.00582994446822963,1.97211858690895,-0.000738728939393003,0
0.16,0.000829186803568176,0.000475554643222624,-0.0412135684506579,-0.0238114882891292,-0.00094907221551076,0.000113863530806413,0.047240552582345,-0.00582025692689712,1.97211429850257,-0.000663705999326093,0
0.17,0.00082867613492963,0.000475522446675612,-0.0412057006446797,-0.0238098755037423,-0.000948589108744835,0.000114036996913064,0.0472326576679137,-0.00582202600031451,1.97211048119112,-0.000605243549678487,0
0.18,0.000828278797900963,0.000475520980997162,-0.0412015128348819,-0.023809796204944,-0.000948222378461187,0.000114194095320981,0.0472287517322513,-0.00582375008197237,1.97210706796358,-0.000553204844824771,0
0.19,0.00082792500598519,0.000475520358158535,-0.0411978382448099,-0.0238097744174965,-0.000947896103111008,0.000114334615343576,0.0472253427977962,-0.00582530956158,1.97210401561444,-0.000506674775452292,0
0.2,0.000827608926885163,0.000475519818386058,-0.0411945643480958,-0.0238097357409004,-0.000947604612910726,0.000114460172672565,0.0472222979964999,-0.00582668171523712,1.97210128597617,-0.000465064300579237,0
0.21,0.00082732603190101,0.000475519336032434,-0.0411916217748647,-0.0238097152864427,-0.000947343725266386,0.000114572545577922,0.0472195669887041,-0.00582792757884494,1.97209884492979,-0.000427853108143446,0
0.22,0.000827073172071007,0.000475518904619082,-0.0411889934902864,-0.0238096962308106,-0.000947110535551526,0.000114672987477569,0.0472171273455288,-0.00582903976504271,1.97209666196346,-0.000394576077747542,0
0.23,0.000826846971349496,0.000475518518763194,-0.0411866362395273,-0.0238096771245137,-0.000946901930852184,0.000114762838344919,0.0472149385249304,-0.00583003512749058,1.97209470979202,-0.000364817269063194,0
0.24,0.000826644752182694,0.000475518173658716,-0.0411845284185904,-0.0238096565167894,-0.000946715441775459,0.000114843163030307,0.0472129799315789,-0.00583092192449003,1.97209296401445,-0.000338204717286001,0
0.25,0.000826463953436273,0.000475517865006015,-0.0411826423699574,-0.0238096373225704,-0.000946548706565627,0.000114914978868432,0.0472112271176001,-0.00583171467533567,1.97209140280973,-0.000314405783682929,0
0.26,0.000834793230235836,0.000480224038240495,-0.0415890296801939,-0.0240452932471627,-0.000956054397747749,0.000115995054630702,0.047677371191117,-0.00588997397163587,1.97209005747268,-0.000327554630249825,0
0.27,0.000804904812469358,0.000463377480383454,-0.0401582322427514,-0.0232017647909556,-0.00092195982985255,0.000112162910987137,0.0460307427262023,-0.00567240957193305,1.972088582542,-0.000187195288774522,0
0.28,0.000799886158800367,0.000460271612470249,-0.0397607652218392,-0.0230462428211804,-0.000916126567807566,0.000111265160960193,0.0456040969922393,-0.00568454894617493,1.97208743551813,-0.000150330226190305,0
0.29,0.000825178232304025,0.00047513308932617,-0.0411415184589663,-0.0237903793459847,-0.000945214283821905,0.000115067481505717,0.0471658201676975,-0.0058302743026156,1.97208664884006,-0.000239021398567121,0
0.3,0.000821654134555429,0.000473306224668169,-0.0409722189241324,-0.0236989065861266,-0.000941256559102293,0.000114762315629209,0.0469742401109053,-0.00581219949313568,1.97208661365396,-0.000224522754194355,0
0.31,0.00082568994615641,0.000475461089409318,-0.0411700187735394,-0.0238067911530304,-0.000945813361968139,0.000115170391371209,0.0471984616953849,-0.00583429210846341,1.97208575480069,-0.000227832778458198,0
0.32,0.000825713755774816,0.00047551518892442,-0.0411746294753758,-0.0238095078691879,-0.000945856319727727,0.000115211647869035,0.0472037626218862,-0.00583502971235194,1.97208495666405,-0.000216127534928839,0
0.33,0.00082563412776238,0.00047551641361428,-0.0411739003186859,-0.0238095765363,-0.00094578341350734,0.000115244554218139,0.0472031140423009,-0.00583541146797286,1.97208424206422,-0.000205247186522181,0
0.34,0.000825560314697284,0.000475516321590774,-0.0411731204860499,-0.0238095585714868,-0.000945715354635699,0.00011527390558393,0.0472023854140123,-0.00583572970200632,1.97208360299182,-0.000195505554703977,0
0.35,0.000825494074379247,0.000475516209400818,-0.0411724085832106,-0.0238095588167658,-0.000945654266802109,0.000115300216466134,0.0472017268259695,-0.00583603497577069,1.97208303148516,-0.000186793532463482,0
0.36,0.000825434818980511,0.000475516108316012,-0.0411717678964648,-0.0238095590446276,-0.000945599620277664,0.000115323752038044,0.0472011341420787,-0.00583630956354013,1.97208252040114,-0.000179002581593802,0
0.37,0.000825381850009146,0.000475516017896388,-0.0411711929033367,-0.0238095592567969,-0.000945550771158669,0.000115344790787467,0.0472006022420524,-0.00583655592573633,1.9720820633514,-0.000172035330546223,0
0.38,0.000825334579635775,0.000475515937033573,-0.0411706805092662,-0.0238095397777903,-0.000945507177227955,0.000115363566718016,0.0472001205586172,-0.00583675742842314,1.97208165462387,-0.000165804693717669,0
0.39,0.000825292204458684,0.000475515864718221,-0.041170214031588,-0.0238095399645379,-0.000945468097927795,0.000115380397554305,0.0471996890775158,-0.00583695705959255,1.97208128910884,-0.000160232792405858,0
0.4,0.000825254369479138,0.000475515800046877,-0.041169796756884,-0.0238095401398446,-0.000945433205584819,0.000115395425456321,0.0471993031116687,-0.005837135637179,1.97208096223833,-0.000155249981649054,0
0.41,0.000825220492620529,0.00047551574221174,-0.0411694183769492,-0.0238095403051747,-0.000945401963578912,0.000115408880911258,0.0471989531485138,-0.00583729738187307,1.97208066992628,-0.000150793979709553,0
0.42,0.000825190108220105,0.00047551569049028,-0.0411690724253307,-0.0238095390065164,-0.000945373942538297,0.000115420948602728,0.0471986326460557,-0.00583744365348688,1.97208040851901,-0.000146809089604253,0
0.43,0.000825162983450154,0.000475515644236197,-0.0411687623029281,-0.0238095391548346,-0.00094534892750364,0.00011543172197209,0.0471983458530045,-0.00583757595760129,1.9720801747494,-0.000143245502927131,0
0.44,0.000825138769063245,0.000475515602872035,-0.0411684839629606,-0.0238095392958173,-0.000945326596410462,0.000115441339670732,0.0471980884589592,-0.00583769467408757,1.97207996569504,-0.00014005867727501,0
0.45,0.000825117342891091,0.000475515565880307,-0.0411682433423747,-0.0238095197579002,-0.000945306836293138,0.000115449851414291,0.0471978582302864,-0.00583777949845705,1.97207977874332,-0.000137208779500598,0
0.46,0.000825098017947693,0.000475515532799395,-0.0411680168288705,-0.0238095198870229,-0.000945289014290512,0.000115457527326613,0.0471976487853396,-0.00583787598433173,1.97207961155706,-0.000134660187825913,0
0.47,0.000825080672064763,0.000475515503215612,-0.0411678079421628,-0.023809520011116,-0.000945273017537263,0.000115464416723223,0.0471974556681211,-0.00583796474623486,1.97207946204648,-0.00013238104659489,0
0.48,0.000825065072411659,0.000475515476759197,-0.041167613628427,-0.0238095201307647,-0.000945258631339236,0.000115470611974896,0.0471972760567302,-0.00583804706571849,1.97207932834342,-0.000130342868098441,0
0.49,0.000825051218988379,0.000475515453099827,-0.0411674416046246,-0.0238095202459697,-0.000945245855374886,0.000115476114359395,0.0471971170453427,-0.00583812000747167,1.9720792087758,-0.000128520176493577,0
0.5,0.000825038878964282,0.000475515431941786,-0.041167287082569,-0.0238095203573303,-0.000945234475021944,0.000115481015961123,0.0471969742176616,-0.00583818551282539,1.97207910184986,-0.000126890189379433,0
0.51,4.61784327347691,0.0404104721755873,9.10916497379829,-2.01337717455139,-0.859094708327227,4.53740738602801,-3.74771923349787,8.54313611700927,0.195871751533201,60.3422158691532,4393.37640935395
0.52,4.60715469066558,-0.0265653791714985,9.64521927694358,1.35368888729262,-3.59395983265935,2.88271274745222,-6.63594863860522,7.12929969700371,0.889010569907043,128.996834622405,4393.37640935395
0.53,4.59852433084519,0.00364760826936661,10.078597454655,-0.147349531687679,-3.97542798509878,-2.31136575680154,-8.63476825917599,-5.2000591965663,2.09823004892875,202.301257919813,4393.37640935395
0.54,4.54031490245614,0.0544828227530005,12.9910303487334,-2.68837121389909,2.93700775942811,-3.46286199732237,10.5504564116888,-8.04251694499226,-2.4261775084689,275.574551134064,4393.37640935395
0.55,4.54568493011015,0.017339159728551,12.7246253753977,-0.803919835268342,0.725496982653971,4.48744986138571,1.18882332093275,12.6944506441736,-0.156471129387226,344.715841496321,4393.37640935395
0.56,4.52948415614375,0.0686676863790565,13.5368823988976,-3.37158866359668,-2.22963459286142,-3.94330718486724,-3.52362592302209,-13.4981056282978,2.64214490387987,416.664187698047,4393.37640935395
0.57,4.55990658437034,0.0245193288350539,12.01813978058,-1.1616097450689,1.48879662215664,4.31008513529901,2.7627173647619,11.7538254941888,-0.327213178766854,488.504597053118,4393.37640935395
0.58,4.5005694301221,0.0652919534819776,14.9874322107708,-3.19895858962118,1.54330755200065,-4.22818992412555,8.33135514426531,-12.8625418090938,-2.77710752410404,559.149312328458,4393.37640935395
0.59,4.44353128521047,0.0768607982755021,17.8419657975706,-3.77093674874929,-4.44379664080232,0.0595758352841442,-17.8271626854192,-3.84030963235336,1.57468612164461,629.488401089625,4393.37640935395
0.6,4.44768407469563,0.0551233302009879,17.6370051384027,-2.67021488248449,-0.652390575204172,4.39992258423013,-5.43910462499284,16.9885296199838,0.159593794327902,699.806586963714,4393.37640935395
0.61,4.4407457843388,0.0352834531413029,17.9867199645268,-1.65059855611729,3.02153743581488,3.25450143142658,10.9143560401451,14.3917824783698,-0.740350385029507,769.374902521938,4393.37640935395
0.62,4.38451599955546,0.0766338761238337,20.8010718928889,-3.68797658794026,3.99374626082629,1.81103398793717,17.2097064020973,12.2520108047593,-1.12758608142048,838.911685073464,4393.37640935395
0.63,4.42201486141279,0.0635511451635682,18.9291691361656,-3.06447434707218,3.75799702282983,2.33146146419136,14.2872084621234,12.7898444700965,-1.00114114946115,909.655368165585,4393.37640935395
0.64,4.3727815451393,0.117649892523412,21.3938866707289,-5.71748795168532,1.66648597043849,4.04448815662171,2.27240501032353,22.0278058559339,-0.363942805858752,978.61182081957,4393.37640935395
0.65,4.36636355661969,0.0734543124739444,21.7180145747625,-3.51426090111945,-3.03272512872372,3.14214966833301,-17.8303481545859,12.8880127031668,0.784500264814749,1048.33275659145,4393.37640935395
0.66,4.32799692367261,0.0847378904561495,23.6396628350042,-4.09408708882776,-2.85344245844975,-3.25524254360789,-12.1006805366804,-20.7163881647547,2.44145160479288,1118.09247432588,4393.37640935395
0.67,4.329639273135,0.109526839578895,23.5609685749789,-5.33490325307492,4.2937764259555,-0.566794819992181,23.993037228984,2.81328943399008,-1.67674973026868,1187.38013569282,4393.37640935395
0.68,4.34327357709914,0.0262704610189628,22.8827206904414,-1.15196098412878,-3.62949332388574,2.38568516668033,-19.8243682078032,11.4865288693822,0.995351172372162,1256.44204225132,4393.37640935395
0.69,4.27869865653783,0.138672324572253,26.1151035237404,-6.75179470221604,3.59992035820965,-2.31669281986383,25.8749012732987,-7.62068552386173,-2.11021825824442,1325.03467668258,4393.37640935395
0.7,4.25862448154492,0.0841096189038386,27.122547343585,-3.97581216138179,-4.25868379775426,0.0810506850756464,-27.1196845749614,-3.99529289316833,1.57151461327611,1393.44493798228,4393.37640935395
0.71,4.23333211429772,0.115370292373127,28.3910015375759,-5.611576630117,2.22731780037919,3.60186986306011,9.41728252210421,27.365188661531,-0.526577304943795,1462.61094362589,4393.37640935395
0.72,4.26102151896682,0.191350502320918,27.01040397792,-9.33558559047967,3.52922773881162,-2.39530185309481,27.897892086878,-6.19860455881143,-2.12220936616164,1530.5911314356,4393.37640935395
0.73,4.25077529643586,0.0594547118475335,27.5266758131883,-2.785580688324,-0.377139549805266,-4.23442927010511,0.719477934786267,-27.6579047036627,3.06674789935795,1599.43535662284,4393.37640935395
0.74,4.13638150460105,0.169452570893206,33.2504304687284,-8.27529954552285,-2.69730095761081,-3.1405307942225,-14.1203804686728,-31.2199706012641,2.47291630063115,1667.41521386669,4393.37640935395
0.75,4.16115941633604,0.166883079035638,32.0156720212119,-8.06647412824398,-2.99544827817274,-2.89316215636498,-16.2865288011777,-28.7196838325189,2.3789095404052,1735.24214862676,4393.37640935395
0.76,4.14722892580287,0.132634409830751,32.7164287831457,-6.34319226046874,-1.57834699373507,-3.83743669876842,-5.53078805141373,-32.8635236075844,2.78335150058598,1803.164309336,4393.37640935395
0.77,4.12439930464567,0.145649598707221,33.8622049952421,-6.98367452654174,-4.10342014284294,-0.440257380490152,-32.5309083512392,-11.7115600530307,1.71297728260534,1871.05915608037,4393.37640935395
0.78,4.05079027632132,0.111639628843617,37.5470459576529,-5.38712121356727,-0.232246845345307,-4.04566764234222,4.26635544980036,-37.6908469829443,3.11180226920091,1939.06317676056,4393.37640935395
0.79,4.07769032273783,0.108736074672165,36.2065099246018,-5.20389353031994,3.93396524156954,1.07856357263148,33.1410850883987,15.4809672811072,-1.27654490837911,2006.64294030293,4393.37640935395
0.8,4.08623724749423,0.182022034731269,35.7836810273374,-8.78106130604858,-3.58524135191665,1.96888580482562,-35.9808532242148,7.93454893389152,1.11311083363903,2073.77461653299,4393.37640935395
0.81,4.02986667740983,0.136755761983659,38.606803898204,-6.60879164154171,2.9520356330516,-2.74663670646985,33.4754698753229,-20.3360357695899,-2.28624425456031,2141.52115400133,4393.37640935395
0.82,3.97138683615042,0.255254155993225,41.5354481773161,-12.4330965436106,-3.40464555885215,2.06045060729176,-42.5827469122206,8.15383408974071,1.09075587434091,2208.4511971972,4393.37640935395
0.83,4.02110152352985,0.195475131567761,39.0543397979685,-9.4437545565784,3.94649524200436,0.795388769365307,35.551613775283,18.7218779814737,-1.32334339078865,2275.46002574666,4393.37640935395
0.84,4.03151120925126,0.227988818662868,38.5384815914142,-11.0949225587641,-0.647615413882438,-3.98568134795743,7.01104708399666,-39.4861632568008,3.03700641022218,2342.52585460524,4393.37640935395
0.85,4.02311555887462,0.221951073947472,38.9628360912669,-10.7925906789171,-4.0283257022681,0.0855167570229333,-38.5748036225925,-12.1064914535965,1.60468374048317,2409.399510778,4393.37640935395
0.86,4.00169509661646,0.221230214905304,40.0384031210033,-10.7268769928952,-2.28542233171187,3.29231699870835,-33.0731414670183,24.9861347151429,0.662029294726877,2476.1230384238,4393.37640935395
0.87,3.93560407971617,0.237451598473549,43.3474799062878,-11.4967595414178,-0.578836519387982,3.9000398738627,-20.1844897077718,40.0470457014754,0.207603670719933,2542.46570642663,4393.37640935395
0.88,3.86210282112828,0.144408468842583,47.0270004962987,-6.98244342124697,-0.777247794440028,3.78583912400918,-17.9547684268472,44.0218080336109,0.239864028246711,2609.03288491482,4393.37640935395
0.89,3.97528924823038,0.167493093016428,41.3721186172875,-8.03728099831246,3.7848264752121,1.22721925336829,35.9842786595341,21.9404141729763,-1.21513683671044,2674.97217816164,4393.37640935395
0.9,3.86642535611879,0.262704657388583,46.8196963538962,-12.8903759748684,1.08110939083844,3.72148643105049,-2.61044851644912,48.4915592447539,-0.214882097638494,2740.79343135926,4393.37640935395
0.91,3.89098727690143,0.24662814524253,45.5959842840359,-11.9445274146922,-3.6384877842643,1.40071912773191,-47.0803077050296,2.26056284807755,1.26661088666211,2806.13885053745,4393.37640935395
0.92,3.90363714724699,0.162166361391439,44.9678184026939,-7.78461505741179,0.172418184584103,-3.90319777563965,11.6034555353923,-44.1368864231259,-3.05592927788495,2871.51939319669,4393.37640935395
0.93,3.8891015925833,0.293065243241118,45.6988893379563,-14.3756799449412,2.49200160948862,3.00015439811621,14.7580241767878,45.576851394096,-0.6179241000008,2936.51503114002,4393.37640935395
0.94,3.77537372413261,0.177264730053957,48,-8.59124489656068,-2.94471901203896,-2.3692824824255,-30.2518504265444,-38.2444118093437,2.29524637492083,3001.29589354276,4393.37640935395
0.95,3.85195164198952,0.272421656573562,47.5649733083354,-13.3259754954016,2.40475861776901,3.0214038130415,15.9352779483004,46.7554833729383,-0.601635202467725,3065.61547816909,4393.37640935395
0.96,3.80226387276063,0.117932342241073,48,-5.53062954203868,0.31680295285788,-3.79087779867772,10.9728844657458,-47.0551131082762,-3.02721016803669,3129.71445005084,4393.37640935395
0.97,3.71622752499941,0.252841983605078,48,-12.2027479114203,2.51326223648184,2.74914332418499,20.3632431766862,45.1469310575682,-0.672671753246342,3193.50207590461,4393.37640935395
0.98,3.80874148936805,0.393528457917636,48,-19.4073504563045,2.94416243968483,-2.44811844255413,50.6751460474783,-10.6148398386679,-2.1615040711991,3257.38160326778,4393.37640935395
