t,iq,id,vq,vd,ia,ib,va,vb,theta_e,omega,r
0,0,0,0,0,0,0,0,0,0,0,0
0.01,0.000783066645784184,0.000444490258040543,-0.0383285459207942,-0.0222495231247519,0.000731956484457099,0.000524408873012124,-0.0362745705883142,-0.0254612301414271,-0.432840326354687,-0.00189250151169916,0
0.02,0.000872790191069248,0.000495170233789695,-0.0428372906385507,-0.0247863811820411,0.000815605546279978,0.000584588633943027,-0.0404690747284653,-0.0284895095074485,-0.432854478480085,-0.00201060572152741,0
0.03,0.000908092899206659,0.00051536174309684,-0.0445898537338884,-0.0257970830970033,0.000848751760971565,0.000608153671439247,-0.0421221236137199,-0.0296558806072885,-0.432868817614097,-0.00199017219369569,0
0.04,0.000887241577905491,0.00050406207781497,-0.0436125211085447,-0.0252314639005575,0.000829755530994072,0.000593954505530614,-0.0411990895776704,-0.029005409598547,-0.432882062990868,-0.00183660457974205,0
0.05,0.000907428476474457,0.00051580794334235,-0.0446271910608259,-0.0258194132296987,0.000848893977886272,0.000607341163301353,-0.0421588323745719,-0.0296793048152774,-0.432894966107859,-0.00178904100528608,0
0.06,0.000907834799829338,0.000516402061760896,-0.0446796736773489,-0.025849162005366,0.000849611221579821,0.00060745031511863,-0.042208219195501,-0.0297139470390351,-0.432907274529062,-0.00169617820000405,0
0.07,0.000930697579072872,0.000529848856659629,-0.0458204988101252,-0.0265222612410275,0.000871415907183395,0.000622552898397688,-0.0432981646273139,-0.0304666603429391,-0.432918768938707,-0.00166610236172114,0
0.08,0.000907838300017503,0.000517110590420802,-0.0447400000097602,-0.0258846278952778,0.000850269593884303,0.000607137018653815,-0.0422663941430647,-0.0297528736140468,-0.432929900163161,-0.00152360182889894,0
0.09,0.000906037290974051,0.000516461250499901,-0.0446801704974132,-0.0258521347518262,0.000848930872729377,0.000605765770930033,-0.0422121070187444,-0.0297117574024587,-0.432940287318113,-0.00143983251401877,0
0.1,0.000905400231301091,0.000516426185005297,-0.0446753149606285,-0.0258503590253059,0.000848637703352036,0.000605193879553136,-0.0422087493096686,-0.0297076809980538,-0.432950092180367,-0.00136343700793744,0
0.11,0.000904855345982261,0.000516422440989629,-0.0446734872848565,-0.0258501921552641,0.000848411298157049,0.000604692983149164,-0.0422081061495755,-0.0297057010676483,-0.432959353489724,-0.00129142070551917,0
0.12,0.000904344002029928,0.000516420396427513,-0.0446719221517344,-0.0258500794357874,0.000848200189232368,0.000604222259470827,-0.042207607023677,-0.0297039584045963,-0.432968101707329,-0.00122340197008182,0
0.13,0.000946751873861499,0.000540780623049567,-0.0467543379467576,-0.0270694538967034,0.000888110966716571,0.000632488500862976,-0.0441884443327503,-0.0310822270527193,-0.43297674490421,-0.00126431759706323,0
0.14,0.000986229488924011,0.000563959715891129,-0.0488140279110163,-0.0282297183417769,0.000925720303965785,0.000658590225251494,-0.0461060997057415,-0.0324646559889021,-0.432984919118953,-0.00130142838643187,0
0.15,0.000907360017922504,0.000518830207031697,-0.0448838735839048,-0.0259707057043924,0.000851667974575834,0.000605927922227369,-0.0424067651621878,-0.029844696868274,-0.432992726399681,-0.00104316660873104,0
0.16,0.000902739804383119,0.000516536026449558,-0.0446779128180256,-0.0258558600593825,0.000847651096340064,0.00060269083277536,-0.0422163049446824,-0.0297056390270105,-0.432999651328101,-0.000978703628571092,0
0.17,0.000902132210757855,0.000516418092294255,-0.0446657302576322,-0.0258499648984338,0.000847293027145149,0.00060218327599403,-0.0422060356315296,-0.0296967793029459,-0.433006168435469,-0.000927461470500854,0
0.18,0.000901760304664472,0.000516410794502914,-0.0446640281752678,-0.0258496044640135,0.000847134054773785,0.000601843541952739,-0.0422051770332239,-0.0296951257849043,-0.43301232319784,-0.000879576874174345,0
0.19,0.000901419889162374,0.000516409189532757,-0.0446629469787906,-0.0258495262970528,0.000846993254347572,0.000601530294084259,-0.0422048250359705,-0.0296939318093008,-0.433018136919655,-0.00083437295086388,0
0.2,0.000901098973238133,0.000516407941954554,-0.0446619549240314,-0.0258494626826099,0.000846860763431596,0.000601234870449652,-0.0422045140775251,-0.0296928262396128,-0.433023628560214,-0.000791674802395944,0
0.21,0.00090079586885631,0.00051640677695652,-0.0446610173951809,-0.0258493990695886,0.000846735635542428,0.00060095583875837,-0.0422042169565207,-0.0296917830067248,-0.433028815966227,-0.000751342191314944,0
0.22,0.00090050952827602,0.000516405677026898,-0.0446601284459567,-0.0258493325465654,0.000846617425755286,0.000600692240826367,-0.0422039290372065,-0.0296907972229563,-0.433033715992555,-0.000713243991733897,0
0.23,0.000900239006476742,0.000516404637920481,-0.0446592845373589,-0.0258492903958259,0.000846505743667091,0.000600443206961857,-0.0422036740726921,-0.0296898535550867,-0.433038344559543,-0.000677256414247817,0
0.24,0.000899983385837844,0.000516403656250286,-0.0446584810893153,-0.025849248231297,0.000846400210566583,0.000600207892755217,-0.0422034284536393,-0.0296889574435765,-0.433042716706296,-0.000643262531201784,0
0.25,0.000899741967867396,0.000516402728846753,-0.0446577222267978,-0.0258492060525988,0.000846300539343897,0.000599985653335557,-0.0422031943335997,-0.0296881120328653,-0.433046846638134,-0.000611151892882772,0
0.26,0.000908732689904181,0.00052162898724138,-0.0451045553791096,-0.0261108137840382,0.000854819553174851,0.00060595002561342,-0.0426282771542828,-0.0299837539222415,-0.433050695766116,-0.000604442966608504,0
0.27,0.000880080956580566,0.000505323492423465,-0.0437233903885958,-0.0252946008583197,0.00082799802136754,0.000586782411752644,-0.0413079266401082,-0.0290724422151063,-0.43305455598256,-0.000502809964254474,0
0.28,0.000877854566079414,0.000504056889379296,-0.0435107286153973,-0.0252312169716372,0.000825916089135351,0.000585290184972015,-0.0411612522004514,-0.0289058667367616,-0.433058046120351,-0.000470578936928646,0
0.29,0.000897761467198701,0.000515772423610932,-0.0445996471111147,-0.025817645406821,0.000844905915401092,0.000598440338767786,-0.0421506021634937,-0.0296480365967662,-0.433061205002154,-0.000496638141106213,0
0.3,0.000891855547123135,0.000512625744738309,-0.0443195089467944,-0.0256601419976696,0.000839572785066657,0.000594398022942733,-0.0418901521807854,-0.0294597506930421,-0.433063714278072,-0.000462617993247976,0
0.31,0.000898214388911738,0.000516206591895068,-0.0446360742407017,-0.0258393744058694,0.000845493327390342,0.000598664653460029,-0.0421857732600567,-0.0296717530280773,-0.433066641366505,-0.000456311166015224,0
0.32,0.000898401551064888,0.000516387914014035,-0.0446525922156494,-0.0258484613984203,0.000845738132139428,0.000598756074324824,-0.0422010364248336,-0.0296828144371885,-0.433069443754823,-0.00043540675958522,0
0.33,0.000898265722339478,0.000516396562403002,-0.044653016948882,-0.0258488817743009,0.000845690566254858,0.000598626915314739,-0.0422016748701573,-0.0296829117468698,-0.433072092906409,-0.000414856885502275,0
0.34,0.000898120391538947,0.00051639646958333,-0.0446525892813823,-0.0258488841661713,0.00084563099002754,0.000598492924102901,-0.0422015718460482,-0.0296824169482674,-0.433074595404267,-0.000395402264422492,0
0.35,0.000897982220252159,0.000516395962129039,-0.0446521400132363,-0.0258488632613358,0.000845573958430725,0.000598365722962109,-0.0422014344939073,-0.0296819181711922,-0.433076959270795,-0.00037702309752259,0
0.36,0.0008978517323764,0.000516395461429053,-0.0446517152137701,-0.0258488423393199,0.000845520078503928,0.000598245604047817,-0.0422013035057751,-0.0296814471383742,-0.433079192180344,-0.000359662002776315,0
0.37,0.000897728708780383,0.000516394987353664,-0.0446513237353338,-0.0258487999973638,0.000845469280753594,0.000598132353943912,-0.0422011633855941,-0.0296810205606831,-0.433081301387979,-0.000343262697623337,0
0.38,0.000897612307157944,0.000516394539459454,-0.0446509422711635,-0.0258487790457878,0.000845421215468294,0.000598025202463124,-0.042201043413883,-0.0296805990276526,-0.433083293746334,-0.000327771905733735,0
0.39,0.000897502308377995,0.00051639411635115,-0.0446505776493543,-0.0258487580792429,0.000845375793362348,0.000597923945784825,-0.0422009272193923,-0.0296801974468466,-0.433085175729107,-0.000313139296253261,0
0.4,0.000897398363194571,0.000516393716660931,-0.0446502292375306,-0.0258487370982763,0.000845332870346105,0.000597828262282405,-0.0422008147189175,-0.0296798149859367,-0.433086953450616,-0.000299317326308036,0
0.41,0.000897300108663155,0.000516393339093945,-0.0446498947401623,-0.025848737496185,0.000845292296437052,0.000597737818154146,-0.042200724538856,-0.029679440339229,-0.433088632687325,-0.000286261086858293,0
0.42,0.000897207339346616,0.000516392982426691,-0.0446495788729558,-0.0258487135757756,0.000845253987620739,0.000597652422807945,-0.0422006173422247,-0.0296790967347376,-0.433090218895207,-0.000273928156802849,0
0.43,0.000897119866930775,0.000516392645503068,-0.0446492864344557,-0.025848692552677,0.000845217866943271,0.000597571901423934,-0.0422005199989222,-0.0296787768887037,-0.433091717227618,-0.00026227846514836,0
0.44,0.000897037225750581,0.000516392327231182,-0.0446490074460781,-0.0258486715179025,0.00084518374093495,0.000597495827654669,-0.0422004258253986,-0.0296784727591464,-0.433093132553302,-0.000251274160817196,0
0.45,0.000896958936446823,0.000516392026579283,-0.0446487306302973,-0.0258486718568217,0.000845151410265775,0.000597423762929001,-0.0422003496361718,-0.0296781649406318,-0.433094469470641,-0.000240879489662506,0
0.46,0.000896885201038533,0.000516391742572228,-0.0446484780053967,-0.0258486507980639,0.00084512096146192,0.000597355887337181,-0.0422002619785579,-0.0296778911855227,-0.433095732323149,-0.000231060678299026,0
0.47,0.000896815598373958,0.000516391474289055,-0.0446482397487257,-0.0258486297289971,0.000845092219418595,0.000597291815516852,-0.0422001782647902,-0.0296776334290053,-0.43309692521433,-0.000221785824369838,0
0.48,0.000896749590886631,0.000516391220860007,-0.0446479996596074,-0.0258486300304651,0.000845064960079278,0.000597231056612796,-0.0422001112175544,-0.0296773678294118,-0.433098052019678,-0.000213024792895335,0
0.49,0.0008966874970101,0.000516390981463142,-0.044647783746316,-0.0258486089409378,0.00084503931854953,0.000597173896897755,-0.0422000330474968,-0.0296771357854748,-0.433099116400649,-0.000204749118358256,0
0.5,0.00089662859085739,0.000516390755321564,-0.0446475652097266,-0.025848609219971,0.000845014991566074,0.000597119674900327,-0.0421999714216769,-0.0296768948809206,-0.433100121815449,-0.000196931912218259,0
0.51,4.16470545427446,-0.0377629485228503,5.917122609944,1.89489833069135,-0.425523479406215,4.14308186373605,1.33550527091882,6.06789958190768,0.0932809917902806,28.4976697679719,527.884519473579
0.52,3.94344629124662,0.00888045563666856,5.98961867176303,-0.435364507133462,-1.58202044758506,3.61220968630862,-2.8136410844634,5.30551580291902,0.415052394425984,59.0422564872016,527.884519473579
0.53,3.74357320022218,0.029520541126845,5.38809835787595,-1.46396757767764,-3.04115325628125,2.18325413994342,-5.24597206849568,1.9116961158092,0.956040964644621,88.4343273793872,527.884519473579
0.54,3.47069534771015,0.0345046819580712,8.4233064855123,-1.70961590147837,-3.44136602162091,-0.451571339798027,-8.10113783374569,-2.8716623196531,1.71121091514135,117.69912845414,527.884519473579
0.55,3.27815680327257,0.0429545054852123,7.24493481494567,-2.1362519051179,-1.4907756417454,-2.91988785784015,-1.29441852717731,-7.44158137437412,2.68263590226251,146.874654652145,527.884519473579
0.56,3.12882500219331,0.00494265428558327,5.44445406736924,-0.229154625862125,2.04043731226251,-2.37195824139218,3.73055224634291,-3.97209917695333,-2.4296078729136,172.016233296152,527.884519473579
0.57,2.89744017280848,0.0134123513038119,8.65984919824311,-0.647201994754674,2.56706538220628,1.34369444802383,7.35088376216259,4.62345828071376,-1.08394717440733,195.051067570442,527.884519473579
0.58,2.73941711266274,0.0352592961812135,7.77045398650722,-1.7488149394202,-1.1176624432029,2.5012956638851,-4.84842376415359,6.3191056212059,0.433087843593673,219.027144670382,527.884519473579
0.59,2.60968754528719,0.0532615430392331,6.43799364177766,-2.64367147989417,-2.25668561094288,-1.31174537519954,-4.12390582478521,-5.60626094411221,2.11773681562571,240.015907008922,527.884519473579
0.6,2.4860568034916,-0.0123203024427827,5.32589715379555,0.645537578797844,1.8061561539257,-1.70834134986995,3.40520280524726,-4.14565955109485,-2.33332558964046,260.100776945591,527.884519473579
0.61,2.32925549301057,0.0324238137183576,5.82303245034348,-1.60209585203714,0.834301000009344,2.1749538608438,0.505975028506299,6.01817308719148,-0.352365118652727,279.647981866127,527.884519473579
0.62,2.18594864285949,0.0541347726564776,6.53124270240514,-2.68030383616156,-2.15651367073093,-0.361594843409614,-5.90406585152835,-3.87080951645513,1.7616863889862,297.319716029367,527.884519473579
0.63,2.05182218525929,0.0038330653600428,6.73539595433766,-0.170313219112186,1.55935830094106,-1.33356314496107,5.23742511599553,-4.23838924694885,-2.27643337046518,314.568448789418,527.884519473579
0.64,1.95319666483422,-0.00286039883618511,5.79026849329139,0.160090092059036,-0.172876446120546,1.94553312173752,-0.344563867070808,5.78222394961382,0.0871609002468231,330.609851289557,527.884519473579
0.65,1.84983154469752,-0.0276390248687356,5.38459564337253,1.40966889530793,-0.983210905045476,-1.56714293402145,-4.11227745645078,-3.75102796019862,2.56633576661073,345.32311840187,527.884519473579
0.66,1.74797341881102,0.0502583926367943,5.03161068457024,-2.50152265332691,1.60386224130974,0.696823427993924,3.49300272038452,4.40155127898965,-1.13219092848401,359.914077962118,527.884519473579
0.67,1.59144252172437,0.0188853859262501,8.01418197398431,-0.916287099371969,-1.59089024530928,0.0459802689616206,-8.02862184272298,-0.779696137711395,1.553768422841,372.892218482865,527.884519473579
0.68,1.51729934369038,0.04596785243302,6.91228707961224,-2.27939766430104,1.39379558596614,-0.601368611054696,7.26596175799558,-0.425636129036437,-1.94784027917948,385.529406258315,527.884519473579
0.69,1.45272753908779,0.0407080858962837,5.58095453436444,-2.02653219153971,-1.13317069620954,0.909944297379461,-5.67187630648823,1.75604823449905,0.922238876901177,397.648394501426,527.884519473579
0.7,1.36867103343167,-0.028240488453501,5.66561000465794,1.44165664740374,0.939271222091425,-0.995905364125472,2.73245785127727,-5.1682864379673,-2.4060823423779,408.601897912655,527.884519473579
0.71,1.29743499227824,-0.0250870451195062,5.22812609207084,1.28010281814702,-0.783239415034745,1.03465111885935,-2.03898120265102,4.98141760093004,0.628637841252127,419.007156684466,527.884519473579
0.72,1.17668460948843,0.0556640557425473,7.42314402610217,-2.77333999461974,0.614375815221958,-1.005100748671,6.46172904139504,-4.58699681203352,-2.54566575075266,429.028638096809,527.884519473579
0.73,1.10714476180834,0.012036952546354,7.34767001316969,-0.596949679108046,-0.645245227810662,0.899762750848142,-4.82793194740789,5.57096729958259,0.633000771965045,438.379216501502,527.884519473579
0.74,1.06517097712389,0.0500228414024703,6.15851428872284,-2.47892074889144,0.678145700510701,-0.822927642048734,5.97215967415073,-2.89925079117619,-2.40542153969335,446.967430572662,527.884519473579
0.75,0.954496852686248,0.000101101359426675,8.49562015362862,0.0175629642998601,-0.74878446141241,0.591934187521523,-6.65431866752063,5.28165819828795,0.901964396059583,455.172488478304,527.884519473579
0.76,0.938401284541894,0.0276537130576297,6.22583063232178,-1.36856254561639,0.835450305757381,-0.428234147734214,6.20976409623519,-1.4397084332352,-2.01499585585357,463.033522172602,527.884519473579
0.77,0.867685530889529,-0.0407627690060549,6.87607259621728,2.047567707169,-0.86265842386323,0.101785203197187,-6.448281949873,3.14524526211131,1.40640496067143,470.429147724755,527.884519473579
0.78,0.827722375091732,0.0490155206813777,6.18779079521924,-2.45236405808633,0.824324002534502,0.0895365307607021,5.69288169860002,3.44875953997066,-1.40345408431224,477.306517941803,527.884519473579
0.79,0.782466496783855,-0.000393451693061764,5.95879727292855,0.0201458149165113,-0.667841186735545,-0.407728000869565,-5.09792837166414,-3.08525478868458,2.11840978048029,483.658569836855,527.884519473579
0.8,0.687936817560478,-0.0204434088836485,8.28316039859426,1.04472108753557,0.369827103513575,0.580433382421085,5.5205168210935,6.26307291731507,-0.597001836739889,489.697456076405,527.884519473579
0.81,0.682800728874277,-0.0289637788680032,6.23177305840841,1.46992270982792,-0.0579480446466934,-0.680953566668964,-2.24911748402354,-5.99475927518632,3.01430514168273,495.414834740123,527.884519473579
0.82,0.590998079828486,0.000724556112184069,8.66846221645097,-0.0219416078703264,-0.220107470497864,0.548481500848979,-3.25863662391455,8.03268361044283,0.382855446789978,500.761755959124,527.884519473579
0.83,0.625601561578301,-0.028594767064561,4.9191946822293,1.44133420321742,0.518787835002044,-0.350790759294736,3.08395924134823,-4.09452268338328,-2.21102780981295,505.776034649134,527.884519473579
0.84,0.567022148510951,0.0485741068309751,5.95609235887781,-2.42780788325056,-0.563317096166922,0.0809160671465738,-6.08516626003389,-2.0832760002461,1.51358670786446,510.410155022346,527.884519473579
0.85,0.530429190105321,0.0292373247786927,5.99574934785532,-1.46463547936675,0.465296371420454,0.256338123615978,4.30808807103289,4.41979009704663,-1.01218751873204,514.785481035941,527.884519473579
0.86,0.529462595710587,0.0491753201214833,4.33956462139237,-2.46547147004419,-0.235038656405827,-0.476975557403717,0.752897443446422,-4.93391488703383,2.77635885753406,518.931806096502,527.884519473579
0.87,0.480265177347613,0.0133673300763124,5.1865738566867,-0.675002369828385,-0.134340821358925,0.461287187988906,-2.23080014339071,4.73071953199382,0.311217980696635,522.788212501825,527.884519473579
0.88,0.43182033551455,0.00220203616129888,6.09973705918672,-0.116512521618036,0.365670163369154,-0.229693236184113,5.24320488361428,-3.11916173151586,-2.12655336476254,526.382030938207,527.884519473579
0.89,0.383496056860255,0.078801257257145,7.06306265268464,-3.93354079509984,-0.391346463076386,0.0112609773231879,-6.27596715606947,-5.09625681048361,1.74468972312848,529.796368780188,527.884519473579
0.9,0.350418266927094,0.0120768030534665,7.3808824508039,-0.588062456908611,0.219898293160727,0.273099893140183,3.95775620309992,6.25774792098839,-0.643449443698758,532.890731433276,527.884519473579
0.91,0.330626758619488,0.0182607092914566,7.07353160853794,-0.897918272984716,0.0255654125957883,-0.330142267360396,1.82426021927117,-6.89298058131095,-3.00913479412546,535.870253954499,527.884519473579
0.92,0.329237763456902,0.00506865505332116,5.94552214682885,-0.238393576412175,-0.260739808059058,0.201091891043568,-4.90599827414194,3.36708271799539,0.929236119012921,538.602343989849,527.884519473579
0.93,0.264342780584803,0.0487852074107589,8.06104247238014,-2.42947122331983,0.268798216969608,-0.00214957283565147,7.51681905876207,3.79211911789265,-1.39629377557744,541.148964706556,527.884519473579
0.94,0.237706839967987,0.0218767515506678,8.31575097987761,-1.08462997442657,-0.14520206601862,-0.189471618059012,-3.51433490678552,-7.61430145868344,2.57948172688332,543.54722385778,527.884519473579
0.95,0.256879566123253,0.0270415577072715,6.35918263712801,-1.34456947027381,-0.0472261497030557,0.253944970651381,-3.09972402305386,5.71303613270961,0.288752629050867,545.722592732679,527.884519473579
0.96,0.260781918551864,0.00847447408795346,5.20967976263216,-0.416872540508514,0.235163539249569,-0.113035992331093,4.93454535865122,-1.72186179689975,-1.98637549926548,547.803944492206,527.884519473579
0.97,0.223080943659597,-0.0153566679072581,6.19032639346213,0.773534038105951,-0.192444039193675,-0.113869339385513,-5.8787400763335,-2.08780048869924,2.03636074332837,549.718130520228,527.884519473579
