t,iq,id,vq,vd,ia,ib,va,vb,theta_e,omega,r
0,0,0,0,0,0,0,0,0,0,0,0
0.01,0.00118867068103522,0.000664051105724322,-0.0582213820394422,-0.0332381898520723,-0.000755713477936454,0.00113260716854151,0.0366903451239184,-0.0561099382098469,1.09785511165453,-0.00442110203739005,0
0.02,0.00132857613901065,0.00074209111505073,-0.0653021150161937,-0.0371443877855805,-0.000844673142098811,0.00126583611229993,0.0412125111505068,-0.0628140167018725,1.09782274809259,-0.00449022121379812,0
0.03,0.0013814807788453,0.000773260823011003,-0.0679878760845614,-0.0387045364147033,-0.000877529770950164,0.00131771125206504,0.0428906789162489,-0.0654276860027161,1.09779155023656,-0.00422590620860388,0
0.04,0.00134591673232484,0.000756095107315615,-0.0663611511032966,-0.0378453487513065,-0.00085365574565159,0.00128625173647098,0.0418322447283125,-0.0639228918217344,1.09776445031577,-0.00366715250456037,0
0.05,0.00137483237848919,0.000774049414282878,-0.0678586505844215,-0.0387440148682325,-0.000871183547486171,0.00131542988839517,0.0427542489637023,-0.0654061873433867,1.09773944362548,-0.0034008198053672,0
0.06,0.00137333379439484,0.000775073709580818,-0.0678696768417688,-0.0387952955307775,-0.000869353190239122,0.00131567853092287,0.0427392242392314,-0.0654578238360792,1.09771689285364,-0.00304930494491065,0
0.07,0.00140499471134518,0.000794819892798134,-0.0694809277464646,-0.0397836644272078,-0.00088851320493835,0.00134769918214183,0.0437218555756066,-0.0670726369005417,1.09769714131986,-0.00287456378846318,0
0.08,0.00136961722133162,0.00077625508236564,-0.0678302239169194,-0.0388544314044188,-0.000865456605054347,0.00131506963718065,0.0426746733934055,-0.0654941094079939,1.09767891949936,-0.00245256913806304,0
0.09,0.00136496829076816,0.00077518415593173,-0.0676635233865654,-0.038800827074961,-0.000861785461342667,0.00131201171070557,0.0425496702298867,-0.0653711109138678,1.09766301229654,-0.00219010882018921,0
0.1,0.00136256354614261,0.000775118392664722,-0.0675992270535712,-0.0387975090862366,-0.000859656333765916,0.00131086953116624,0.0424930258287657,-0.0653394594824042,1.09764888167715,-0.00196392431692577,0
0.11,0.00136053536646823,0.000775110821624903,-0.067547412704057,-0.0387971397570002,-0.000857837959103237,0.00130994935212491,0.0424462512632954,-0.0653160529275124,1.09763631318489,-0.00176319409950297,0
0.12,0.00135873885345625,0.000775107009136372,-0.0675016897569972,-0.0387969361778963,-0.000856225925240637,0.00130913685779973,0.0424049145364443,-0.0652955097996678,1.09762513309145,-0.00158466688843502,0
0.13,0.00142203162759562,0.00081141192782865,-0.0706162974224483,-0.040614145449424,-0.000896005162193456,0.001370305811061,0.044348449633439,-0.0683329004751955,1.09761429884489,-0.00167425696709369,0
0.14,0.0014769140447639,0.000844366066843193,-0.0734924310457655,-0.0422636159682772,-0.000929825555868644,0.00142465911224779,0.0461561743469195,-0.0711122930679878,1.09760461371838,-0.00174749117513486,0
0.15,0.00136186295465757,0.000779075321165065,-0.0677623980782427,-0.038995589660011,-0.000857159829397156,0.00131411798944575,0.0425445259070186,-0.0655923922539284,1.09759580529697,-0.00114799688623194,0
0.16,0.0013534436267893,0.000775323758040821,-0.0673786123308295,-0.0388077914726801,-0.000851366534389412,0.00130694743765803,0.0422880571118366,-0.0652506115245005,1.09758902683776,-0.00101015838836546,0
0.17,0.00135201292973852,0.000775106507606249,-0.0673312545741683,-0.0387969176417913,-0.00085018427906794,0.0013061070981889,0.0422504703139815,-0.0652196014958905,1.09758306531309,-0.000913054686176109,0
0.18,0.00135113089149843,0.000775092425660484,-0.0673080822407228,-0.0387962336666172,-0.000849398668836348,0.0013056970765291,0.0422298106301587,-0.0652086556814323,1.09757776669813,-0.000828322643553849,0
0.19,0.0013503720422693,0.000775090188273322,-0.0672887172467405,-0.0387961020765009,-0.000848718080079061,0.00130535323688534,0.0422123264152458,-0.065199911837784,1.09757305365337,-0.00075305627201825,0
0.2,0.00134969827191594,0.000775088788569641,-0.0672715485170383,-0.0387960344647411,-0.000848113521089392,0.00130504847064183,0.0421968019639364,-0.0651922037830134,1.09756886123051,-0.000686110686001003,0
0.21,0.00134909924020202,0.000775087577119525,-0.067256288597887,-0.0387959695449948,-0.000847576007977251,0.00130477753767454,0.0421830055706257,-0.0651853484298964,1.09756513190495,-0.000626560363901852,0
0.22,0.00134856596238126,0.000775086501203051,-0.0672426902937033,-0.038795939491764,-0.000847097499965547,0.00130453634092447,0.0421706991891756,-0.0651792639485871,1.09756181452131,-0.000573588010252529,0
0.23,0.0013480920771361,0.00077508554406147,-0.0672306152115968,-0.0387958741865105,-0.000846672282552046,0.00130432200587443,0.0421597886134139,-0.0651738267995489,1.09755886357671,-0.000526466994770298,0
0.24,0.00134767020877263,0.00077508469250691,-0.067219854298242,-0.0387958408527848,-0.000846293743406493,0.00130413119433699,0.0421500544774158,-0.065169003267676,1.09755623859413,-0.000484550975823806,0
0.25,0.00134729502295727,0.000775083934900302,-0.0672102829716277,-0.0387958102675616,-0.000845957092444977,0.00130396149589166,0.0421413968544886,-0.0651647120963133,1.09755390356782,-0.000447265008396933,0
0.26,0.00136094663391363,0.000782884181202919,-0.0678806409078104,-0.0391862415951331,-0.000854550593432218,0.0013171281884476,0.0425600017165964,-0.0658178485996812,1.09755194738414,-0.000472420067042755,0
0.27,0.001319034449572,0.000759133338390417,-0.0658532255653271,-0.0379974268306141,-0.000828066970073231,0.00127688699487747,0.0412970995768638,-0.0638357370885958,1.0975496730229,-0.000268344498036927,0
0.28,0.00131658636044108,0.00075761313062111,-0.0655758125826419,-0.0379213301943634,-0.000826578718599269,0.00127441944513877,0.0410847544046795,-0.0636416328757432,1.09754802368512,-0.000233192364240546,0
0.29,0.00134424564278511,0.000774078441130244,-0.0670881877828029,-0.0387454675099167,-0.00084369198095339,0.0013016826120235,0.0420552080315963,-0.0650645500250466,1.09754687293064,-0.000327246021752092,0
0.3,0.00133438241244732,0.000768982263005972,-0.0666087291822373,-0.0384903832360999,-0.000837235666642248,0.00129265099000799,0.0417447146775529,-0.0646189693621322,1.09754697076231,-0.000288918741602744,0
0.31,0.00134522707620011,0.000774731014227923,-0.067139936316502,-0.0387781479706129,-0.000844266678691698,0.0013027117126208,0.0420863019807849,-0.0651172710899103,1.09754576921257,-0.000314301122074357,0
0.32,0.00134575110873961,0.00077506079841817,-0.0671697177952768,-0.0387946407806486,-0.000844581279137405,0.00130324508472088,0.0421052167770277,-0.0651455743865705,1.09754459771781,-0.000298469641606506,0
0.33,0.00134562866211065,0.000775079418789615,-0.067167640533147,-0.0387955579908657,-0.000844462436965203,0.00130320673505002,0.0421028814570487,-0.0651454881601664,1.09754354900346,-0.000281909116038901,0
0.34,0.0013454815132338,0.000775080204650277,-0.0671639338415245,-0.0387956139596719,-0.000844329886753275,0.00130314115445328,0.042099495857828,-0.0651438878183771,1.09754261570341,-0.000267018029665432,0
0.35,0.00134534821769545,0.000775079997599373,-0.0671605169430336,-0.0387956174890938,-0.000844210254233362,0.00130308091697416,0.04209639881848,-0.0651423685394618,1.09754178546813,-0.000253761504497617,0
0.36,0.0013452297276571,0.000775079761372432,-0.0671574785807497,-0.0387955830667459,-0.000844103932824471,0.00130302732406186,0.0420936619844339,-0.0651409841463334,1.09754104693924,-0.000241968632511587,0
0.37,0.00134512402254523,0.000775079548242274,-0.0671547574845731,-0.0387955835768997,-0.000844009086984437,0.00130297950990006,0.0420911969397167,-0.0651397720142312,1.09754038998841,-0.000231478360540333,0
0.38,0.00134503007538083,0.000775079358475103,-0.0671523378281981,-0.0387955840392353,-0.000843924790725311,0.00130293701429209,0.0420890049534803,-0.0651386941745359,1.09753980560452,-0.000222146843274302,0
0.39,0.00134494685918929,0.000775079189654695,-0.0671501999296273,-0.0387955523931834,-0.000843850120587636,0.00130289937380565,0.0420870825972139,-0.0651377134579995,1.09753928577175,-0.000213846087034763,0
0.4,0.00134487246979889,0.000775079039476737,-0.0671482767229849,-0.0387955527776964,-0.000843783373436356,0.0013028657245363,0.0420853404778199,-0.0651368566869752,1.09753882336011,-0.000206462233927184,0
0.41,0.00134480634589632,0.000775078905884077,-0.0671465651868775,-0.0387955531283733,-0.000843724042315355,0.00130283581418708,0.0420837901070892,-0.0651360942116926,1.09753841202647,-0.000199894002662265,0
0.42,0.00134474755615899,0.000775078787045137,-0.0671450409977974,-0.0387955534490275,-0.00084367129174123,0.00130280922141909,0.042082409465517,-0.0651354151870456,1.09753804612919,-0.000194051299494036,0
0.43,0.00134469553927331,0.000775078681331118,-0.0671436959014508,-0.0387955216833398,-0.00084362461629151,0.00130278569319076,0.0420812054898568,-0.0651347875294718,1.09753772064891,-0.000188853982446606,0
0.44,0.00134464897314474,0.00077507858729262,-0.067142481411897,-0.0387955219548074,-0.000843582834024805,0.00130276462939297,0.0420801055056454,-0.0651342464033064,1.09753743112116,-0.000184230762049388,0
0.45,0.00134460752928551,0.000775078503640347,-0.0671413967985488,-0.0387955192950244,-0.000843545647968386,0.00130274588251517,0.0420791245420589,-0.0651337605179118,1.09753717357507,-0.000180118223472302,0
0.46,0.00134457062562862,0.000775078429227,-0.067140426915639,-0.0387955195269486,-0.000843512535948048,0.00130272918922346,0.0420782462337659,-0.0651333283018047,1.09753694447727,-0.000176459956704188,0
0.47,0.0013445379129233,0.000775078363032415,-0.0671395666861088,-0.0387955197416235,-0.000843483183469639,0.00130271439208027,0.0420774671829183,-0.0651329449840216,1.09753674068618,-0.000173205782791912,0
0.48,0.00134450869267762,0.000775078304148932,-0.0671387922154338,-0.0387955199419381,-0.000843456965583505,0.00130270117427472,0.0420767659378202,-0.0651325997940079,1.09753655940584,-0.000170311065560076,0
0.49,0.00134448273206094,0.000775078251769556,-0.0671381016969518,-0.0387955201288451,-0.000843433672176979,0.00130268943106723,0.0420761407279534,-0.0651322920138645,1.09753639814972,-0.00016773609935666,0
0.5,0.0013444596818273,0.000775078205175689,-0.0671374863579493,-0.0387955203037598,-0.000843412989835562,0.00130267900450348,0.0420755836000973,-0.0651320177394689,1.09753625470603,-0.000165445564418555,0
0.51,4.73123544353493,0.0346595776586638,3.439323213892,-1.72675636890546,-0.706413431018644,4.67832984867048,-2.24387202281113,3.12660679849856,0.157190356348168,48.229915375746,1199.90759370866
0.52,4.68381110093357,0.000584009085013881,5.811715528119,-0.0105210337851177,-3.05213984222464,3.55281988761042,-3.79565224100987,4.40104216490233,0.709863897267591,102.746220635342,1199.90759370866
0.53,4.59940939667498,0.0273322851887614,10.0331148389711,-1.33785350348111,-4.57987758135956,-0.424305540614074,-9.85332361355021,-2.31630290234517,1.66912071963916,159.696039818389,1199.90759370866
0.54,4.62240150477355,-0.0241079370542305,8.88500997553233,1.23617288325718,-0.335213764768518,-4.61029376459586,-1.92296861090423,-8.76206125201636,3.06379512177577,220.245020773775,1199.90759370866
0.55,4.60979235229288,0.0759146919214779,9.51702219584592,-3.75238813312193,4.55726628687592,0.698049111604321,8.75316890854212,5.29491852971788,-1.40233822833391,274.903416160784,1199.90759370866
0.56,4.38870460729488,-0.029982434974499,13.2042090644506,1.54150763619014,-3.23020048027143,2.97109944864734,-8.60583639338935,10.1324707145082,0.820323983179682,332.53999823927,1199.90759370866
0.57,4.18257613694773,-0.0391145312118253,11.7142002700976,2.02252267737507,1.31236631948852,-3.971544753794,1.64498649233908,-11.7731518884483,-2.83179780359708,384.216036077085,1199.90759370866
0.58,4.00843911991635,0.0774489360610975,8.68081900370642,-3.8207284406219,-0.629657885492463,3.95943347753311,-5.28973196463852,7.87231351855153,0.177025732221087,435.605216379404,1199.90759370866
0.59,3.79596661059763,0.0269657739619191,8.45893732318401,-1.30039228128605,1.45879587869351,-3.50456905282865,4.50305079015415,-7.277855062041,-2.74004831567665,483.580473541292,1199.90759370866
0.6,3.51671407495087,0.110403926132635,12.3263303043915,-5.47721205851784,-2.8319864573606,2.08789837329053,-13.2563838201535,2.49129659408616,0.966885288563791,528.188507220869,1199.90759370866
0.61,3.32301519034148,-0.0124026102002666,12.3684517634637,0.699480206759781,3.18797596660586,0.937759572770878,12.0735769179626,2.77427684105545,-1.2884426803903,570.307085978233,1199.90759370866
0.62,3.15966906348504,0.0278527145143679,11.391887255873,-1.31154678987135,-0.34427897237086,-3.14098015810885,0.163597391442215,-11.4659707886448,3.04123454076348,610.265668648291,1199.90759370866
0.63,2.88329457335149,0.0169944156518077,16.526711234708,-0.792878837923592,-2.82355348612598,0.584142206887421,-16.359505843239,2.47536050951758,1.37268639257859,648.257401271048,1199.90759370866
0.64,2.80569616227599,0.0226809440032516,12.1859398323213,-1.09084263911488,0.098202383671139,2.80406877092421,-0.762400419698154,12.2108891101471,-0.0269233661628717,684.033914442983,1199.90759370866
0.65,2.61480748682868,0.00500448829946887,13.9244624311208,-0.202119292303273,2.41218353701226,1.00926400007405,12.7567383890343,5.58543927348198,-1.17261303177372,717.732105439536,1199.90759370866
0.66,2.51710993775528,0.0480266835295582,11.5306379840142,-2.33735616823021,2.17665418179713,-1.26503975192178,11.2136650918382,-3.55985412392765,-2.07818894042036,749.28113094884,1199.90759370866
0.67,2.31005624675483,0.0389364474470428,15.0592785968544,-1.86677680454393,0.829362493030884,-2.15639369440379,7.37277426796412,-13.2630662777997,-2.75757317834346,779.120095435326,1199.90759370866
0.68,2.21523540576085,-0.00258684800441211,13.2109204453393,0.165129589782748,-0.178149579580037,-2.20806189270466,-1.24237909057936,-13.1534094815678,3.05991786066115,807.824829550323,1199.90759370866
0.69,2.09384642993371,0.0465297158432123,13.0699987742745,-2.2680417177718,-0.751908158243627,-1.95473578986247,-2.28575342289987,-13.066912890304,2.79659864950877,834.372978133069,1199.90759370866
0.7,1.88308926405906,0.0238965005793049,17.8158921249954,-1.12041666510369,-0.78649863247791,-1.71114468127765,-6.21056614302,-16.7358959693256,2.72344619776146,859.682076825242,1199.90759370866
0.71,1.83315884310296,-0.0277275297469861,14.6806842085278,1.4326809577609,-0.533432537141397,-1.75404956836212,-5.8476267453757,-13.5417991789871,2.83124065416799,883.690270160593,1199.90759370866
0.72,1.66101551234091,0.0690392594080698,18.1182077869638,-3.38141018883877,-0.123772190907142,-1.65783575674275,2.7821399915033,-18.219854152667,3.10861258551399,906.089177079773,1199.90759370866
0.73,1.66695727720583,-0.0257947067110264,12.815931769941,1.33716372461211,0.680580970408479,-1.52191375368042,3.82121678707549,-12.3058691779319,-2.73655286609088,927.376934872764,1199.90759370866
0.74,1.53287883032494,0.0370723792332343,14.8875694626168,-1.83603883132595,1.26438687784146,-0.867420136325358,13.4781385526953,-6.58411301913366,-2.14791158494328,947.421080354075,1199.90759370866
0.75,1.46149619068735,0.0155293811024158,14.0125952488588,-0.717004000062561,1.44653057783626,0.209192649143662,13.7360747749403,2.86132314178163,-1.41654994363332,966.166725909437,1199.90759370866
0.76,1.43977422761138,-0.0231388667470167,10.8745431710795,1.18063942161524,0.733380942053137,1.23920846812856,6.69438894490669,8.6507083685589,-0.550448446199058,984.246105295445,1199.90759370866
0.77,1.23995101841806,0.0319201369761863,16.9514002899868,-1.53179168161054,-0.502316541640005,1.13409678388372,-8.64562770645857,14.6611554492998,0.442689763168995,1000.90156760431,1199.90759370866
0.78,1.16465553526705,0.0058902805155856,16.9626562282654,-0.242210802421092,-1.1644204324323,0.0241302251732072,-16.9643691547468,0.023485582740248,1.55513383056616,1016.64773176043,1199.90759370866
0.79,1.16839934812839,0.0486998877640265,13.2231896711419,-2.41661896458137,-0.458775829145202,-1.07566419219346,-2.41615794103528,-13.2232739177157,2.78010495207457,1031.70124025919,1199.90759370866
0.8,1.04464705344714,0.073913052347731,16.072055713328,-3.69871941303345,0.81996038763353,-0.651471847661141,15.348761829743,-6.03382220839271,-2.17154818383714,1045.83471254102,1199.90759370866
0.81,0.918970888061238,0.0198940761451451,19.2114538428414,-0.936537214842479,0.63421543302099,0.665337547330471,12.2596259311995,14.8208850186981,-0.739809586616936,1058.93694617648,1199.90759370866
0.82,0.987917136583284,-0.0311874503381797,12.7452550247586,1.6119645186435,-0.721280136405641,0.675801665165284,-7.88239657453755,10.1443471695925,0.786380735972683,1071.47878447163,1199.90759370866
0.83,0.832340417209137,-0.000530829891884355,17.6822920017538,0.0492512078902013,-0.560739972092824,-0.615110994534802,-11.9571002595819,-13.0266507398898,2.40176354403863,1083.29449262659,1199.90759370866
0.84,0.855243917596165,0.0583080803454065,13.8507654113505,-2.91488873684921,0.666842557448196,-0.53866779595104,13.0148194422785,-5.5636996426265,-2.18219658962153,1094.47198874425,1199.90759370866
0.85,0.727012044755746,-0.0904736696656153,17.7359735821936,4.51796202998958,0.202528856472649,0.704069641739065,11.1248249554943,14.5332380948744,-0.40390197829062,1104.94043309519,1199.90759370866
0.86,0.735479542550543,0.0162686913101381,14.9535868925586,-0.807224438901606,-0.237106594798338,0.696401673267977,-5.88968498163099,13.7685505070509,0.350279476155889,1114.6652419454,1199.90759370866
0.87,0.700589879369918,0.0858043721149496,14.4365769409843,-4.24113601894569,-0.590555557378348,-0.386565263570261,-8.2912276208702,-12.5561750960664,2.27225134068471,1123.85398652574,1199.90759370866
0.88,0.566887543046602,0.0434410225374164,18.9894255459097,-2.12775545388626,0.490784016152375,-0.287018568022794,18.00728575018,-6.39243973350967,-2.02349535192905,1132.47163597596,1199.90759370866
0.89,0.613500360609139,0.0125850995812053,14.634601831938,-0.587897126513704,-0.00307042765922089,0.613621748044349,-0.961059207055529,14.6148403689968,0.0255144582998945,1140.68619438531,1199.90759370866
0.9,0.514958648478931,0.002887327053581,17.6295413323255,-0.114544424109892,-0.437217000977867,-0.27208829514825,-14.8543044347185,-9.49544563324811,2.13307201026511,1148.45913315663,1199.90759370866
0.91,0.434599621619691,-0.0359492754444698,19.8453632326316,1.81821207610248,0.411887104180741,-0.143241735980001,17.406264648709,-9.70393157271181,-1.98801286216532,1155.65478979056,1199.90759370866
0.92,0.472560463034981,-0.0135066295882348,16.2576242575718,0.68919299707187,-0.118725000569334,0.457602660073651,-2.95981883073806,16.0007751679976,0.225278772928561,1162.45376263299,1199.90759370866
0.93,0.45457877267387,-0.0708109603426225,15.5471515344355,3.55114314495373,-0.220623333786319,-0.40370954566289,-12.283616869342,-10.1704127289834,2.4869172771988,1168.80239995635,1199.90759370866
0.94,0.387831589150395,0.0208493480772173,17.3806550670948,-1.04418966314658,0.3882477353954,0.0105703745680811,17.2393626485979,2.44578782482805,-1.48987013191205,1174.7115405214,1199.90759370866
0.95,0.429845923275507,0.0413756100275844,13.8228214778853,-2.07302417831196,-0.298511520939648,0.312042193826454,-11.8220917826555,7.45694097709117,0.859201671723652,1180.4045122679,1199.90759370866
0.96,0.331697471727834,0.00271345636514648,17.3596546897173,-0.143680432994284,0.0326947824481813,-0.330093360728066,1.99516817160489,-17.2452184381661,-3.03468724497497,1185.73129459273,1199.90759370866
0.97,0.233166260355926,-0.0618822738162794,21.0097990592514,3.08502653416565,0.0823803813994479,0.226736396596404,14.5323008782463,15.4835808652504,-0.607920592683932,1190.60289120624,1199.90759370866
0.98,0.215541935060983,-0.0612628207550773,20.6528730684587,3.05363505666677,-0.189820180114585,-0.11907878987447,-20.6830547553435,-2.84202375581824,1.85414121145025,1195.33366472347,1199.90759370866
