t,iq,id,vq,vd,ia,ib,va,vb,theta_e,omega,r
0,0,0,0,0,0,0,0,0,0,0,0
0.01,0.000444472632138524,0.000251478853780614,-0.0217614924412893,-0.0125823609875699,-0.000358970791108455,-0.000363232027428652,0.0178357995732922,0.0177133456714186,2.87698109314341,-0.00156005696217531,0
0.02,0.000527792324626296,0.000297214318305794,-0.0258867475274208,-0.0148706749410451,-0.00042491065950716,-0.000431685093995145,0.021123621927042,0.0210962856312206,2.87696881155666,-0.00176906741185054,0
0.03,0.000559213613407329,0.000314741639700222,-0.027440136437511,-0.0157476182130542,-0.000450051882031288,-0.000457422636804697,0.0223766106897082,0.0223659531684785,2.87695593269449,-0.00178431339523189,0
0.04,0.000547916579588833,0.000308624521267504,-0.0269119146043078,-0.015441566634017,-0.000441198325811314,-0.000448113501935855,0.0219433191781148,0.0219359037021437,2.87694377628246,-0.00164942960286218,0
0.05,0.000561011045284437,0.000316388815633224,-0.0275707146641318,-0.015830031249084,-0.000452122800082646,-0.000458715869830507,0.0224908449936362,0.0224698929216447,2.87693206104628,-0.00160684797974675,0
0.06,0.000562412758234135,0.00031751055333007,-0.0276591893991204,-0.0158861685956476,-0.000453577298445449,-0.000459770264844763,0.0225684238396862,0.0225403495149929,2.87692084763168,-0.00152551766472931,0
0.07,0.000572282713563525,0.000323572508289767,-0.028158685193481,-0.0161894602131702,-0.000462014967732104,-0.000467705935344065,0.0229920588317167,0.0229428726296048,2.87691038211441,-0.00148081689124516,0
0.08,0.000563030856898454,0.000318546609487539,-0.0277263997564141,-0.0159379982210819,-0.00045474844526645,-0.000460086448141608,0.0226364957813295,0.0225911949548833,2.87690024778791,-0.00136897412621523,0
0.09,0.000561105453299622,0.00031781755408075,-0.0276496866281026,-0.0159015275138606,-0.000453545408412198,-0.00045841453937747,0.0225814392635415,0.0225264810543797,2.87689078651222,-0.00128902340587921,0
0.1,0.000560331417486317,0.000317710468811344,-0.0276280499276498,-0.0158961711760394,-0.000453243626872126,-0.000457691439852604,0.022570809413165,0.0225067981573843,2.87688187565365,-0.00121751209447465,0
0.11,0.000559760995297533,0.00031769348861221,-0.0276154152030863,-0.0158953180035908,-0.000453081840567485,-0.0004571415210972,0.0225668693912542,0.022494637075361,2.87687347112321,-0.00115064562221576,0
0.12,0.000559247174478874,0.000317689632385765,-0.0276046780406148,-0.0158951286248831,-0.000452947304149398,-0.000456643016317779,0.0225640556305952,0.0224841445740545,2.87686554229824,-0.00108765298396612,0
0.13,0.000582038708018146,0.000330898926605133,-0.0287285259123496,-0.0165560239717566,-0.000471663428035673,-0.000475180773930827,0.0234961592696153,0.0233957395785385,2.87685780155141,-0.00111105303572553,0
0.14,0.000596366641693177,0.000339440746217959,-0.0294869848173801,-0.0169833998400879,-0.000483660227996268,-0.000486770968086637,0.0241072775591347,0.0240157721598857,2.8768503875561,-0.00110612390295395,0
0.15,0.000563656920850269,0.000320833156339823,-0.0278594534404643,-0.0160524067178085,-0.00045714533504202,-0.000460066496583591,0.0227830198585471,0.0226883871961051,2.87684332206336,-0.000932438180486953,0
0.16,0.000558310400985041,0.000318138996884821,-0.0276104157549363,-0.0159176080112255,-0.000453148901920452,-0.000455608382138922,0.0225878942126578,0.0224831567622797,2.87683703071233,-0.000864453777769541,0
0.17,0.000557175796280293,0.00031774803626124,-0.0275657463577922,-0.015898043023596,-0.000452477340139636,-0.000454612955346208,0.0225574540797706,0.0224450308460756,2.87683115257858,-0.000815005798403548,0
0.18,0.000556704218769695,0.000317690474119951,-0.0275527492090462,-0.0158951686478442,-0.000452300896477215,-0.000454170368461488,0.0225514029896657,0.0224331138836698,2.87682561569587,-0.000770605661090493,0
0.19,0.000556351154915852,0.00031768121956278,-0.027544955927359,-0.0158947078975883,-0.000452201943171675,-0.000453829667861037,0.0225490360297098,0.022425594982534,2.87682039331767,-0.000729061663136128,0
0.2,0.000556032201176507,0.000317679008517979,-0.0275382903688058,-0.0158945963123703,-0.000452118576751535,-0.000453520180096017,0.0225472944811605,0.022419079819424,2.87681546651502,-0.000689920179235967,0
0.21,0.000555733387348126,0.000317677865953824,-0.0275321025059374,-0.0158945341912943,-0.000452041382822999,-0.000453229977545472,0.0225457193755961,0.0224130190601922,2.87681081839566,-0.000653000570979541,0
0.22,0.000555451709607078,0.000317676924356871,-0.0275262745400454,-0.0158944940405583,-0.000451968745658561,-0.000452956380816181,0.0225442537142387,0.0224073058471412,2.87680643317124,-0.000618170314898852,0
0.23,0.000555186248776175,0.000317676055573529,-0.0275207889809974,-0.0158944406368964,-0.000451900308181895,-0.000452698529465278,0.0225428592663478,0.022401932179927,2.87680229596841,-0.000585310189957624,0
0.24,0.000554935712133028,0.000317675238602559,-0.0275156077465773,-0.0158944019147768,-0.000451835718537417,-0.000452455174879855,0.0225415533485784,0.022396853674683,2.87679839275913,-0.00055430860787399,0
0.25,0.000554699261740553,0.000317674468086993,-0.0275107138980154,-0.0158943617214644,-0.000451774758579078,-0.000452225503660159,0.0225403162413802,0.0223920579101114,2.87679471030898,-0.000525060427946573,0
0.26,0.000559111649430664,0.000320327777872699,-0.0277317252596866,-0.0160271129501168,-0.000455491928705682,-0.000455788135749404,0.0227263593377045,0.02257054555495,2.87679129730097,-0.000514832988074728,0
0.27,0.000547426376505111,0.000313670239719545,-0.0271688512821028,-0.015694022507467,-0.000446009735828623,-0.000446251019635042,0.0222576409720572,0.0221143899037007,2.87678785854143,-0.000445734588129887,0
0.28,0.000546978441434575,0.000313534129362106,-0.0271070427010488,-0.0156872061358358,-0.000445762514609192,-0.000445852942390583,0.0222349538073442,0.0220564509731271,2.87678476609268,-0.000420263254341179,0
0.29,0.000552794022289293,0.000317072865913792,-0.0274408852109555,-0.0158642648887854,-0.000450701251767728,-0.000450538361332932,0.0224932785265735,0.0223322525229403,2.87678193657998,-0.000419648437663138,0
0.3,0.000546267979800343,0.000313591838535538,-0.02712714976844,-0.0156900946849953,-0.000445634535025816,-0.000445149871552909,0.0222431166184473,0.0220749878568855,2.87677967213005,-0.000378406315202966,0
0.31,0.00055242704682807,0.000317080366861776,-0.0274316404567525,-0.0158646372257391,-0.000450614605514317,-0.00045018005110573,0.0224913254692538,0.0223231245816741,2.87677713517595,-0.000381298737580579,0
0.32,0.000553237408384915,0.000317584820517014,-0.0274755308712022,-0.015889877364622,-0.000451314683379547,-0.000450829019502184,0.0225272284053914,0.0223588233073308,2.87677466830266,-0.000365236154644329,0
0.33,0.000553235738451455,0.000317657414788468,-0.0274796450563554,-0.0158935075905015,-0.000451385364207102,-0.0004508073518141,0.0225318611979862,0.0223617912276117,2.87677232970386,-0.000347202646887217,0
0.34,0.000553116565209598,0.000317667529609876,-0.0274778011535896,-0.015894023154425,-0.000451364929656819,-0.000450688688956801,0.0225319255454234,0.0223598269108932,2.87677012164884,-0.000329747875886594,0
0.35,0.00055298636694655,0.000317668623909175,-0.0274751957508709,-0.0158940730687075,-0.000451332846693189,-0.000450561802798368,0.0225313383667031,0.0223572523282093,2.87676803821371,-0.000313212711611252,0
0.36,0.000552860825190296,0.00031766843353602,-0.0274726045729832,-0.0158940589539237,-0.000451300689060591,-0.000450439800360447,0.022530690470435,0.0223547108900954,2.87676607257374,-0.000297602389510383,0
0.37,0.000552741709286678,0.000317668076922189,-0.0274701253133189,-0.0158940463608697,-0.000451270002370807,-0.000450324093560241,0.0225300708420011,0.0223522795773793,2.87676421810098,-0.000282873373957562,0
0.38,0.000552629403679246,0.000317667714828161,-0.0274677885898086,-0.015894033744399,-0.000451241045307767,-0.000450215008506579,0.0225294861460447,0.0223499882030773,2.87676246851312,-0.00026897716383658,0
0.39,0.000552523536091852,0.000317667369473633,-0.0274655868885893,-0.0158940079330655,-0.000451213744612827,-0.000450112177391606,0.02252892183758,0.022347832828872,2.87676081787911,-0.000255866863018482,0
0.4,0.000552423512297938,0.000317667043085848,-0.0274635010969784,-0.0158939938211445,-0.000451187949477615,-0.000450015023581081,0.0225283970666237,0.0223457883660178,2.87675926060213,-0.000243498053340069,0
0.41,0.000552329192857175,0.000317666735054126,-0.0274615342260135,-0.0158939811441972,-0.000451163625243333,-0.000449923410259457,0.0225279028337917,0.0223438602880041,2.8767577914023,-0.000231828802131791,0
0.42,0.000552240170313417,0.000317666444409458,-0.0274596752823116,-0.0158939684484079,-0.000451140666612031,-0.000449836942169484,0.0225274349707394,0.0223420382527667,2.87675640529788,-0.000220819544271764,0
0.43,0.00055215621183602,0.000317666170180748,-0.0274579214679668,-0.0158939557344357,-0.000451119013858937,-0.000449755392720696,0.0225269928516221,0.0223403194536739,2.87675509758927,-0.000210432951747782,0
0.44,0.000552077026384091,0.000317665911443101,-0.0274562666414511,-0.0158939415480605,-0.000451098591942496,-0.000449678479251091,0.0225265735652015,0.0223386982438814,2.87675386384267,-0.000200633807660715,0
0.45,0.000552002322924492,0.000317665667322835,-0.0274547041147682,-0.0158939288005906,-0.000451079325755162,-0.000449605919206994,0.0225261782648268,0.0223371673121046,2.87675269987466,-0.000191388886905719,0
0.46,0.000551931868624003,0.000317665436994909,-0.0274532297335089,-0.015893916037602,-0.000451061155359586,-0.000449537486300782,0.0225258045481214,0.0223357229404152,2.87675160173873,-0.000182666843532858,0
0.47,0.000551865372444321,0.000317665219680915,-0.0274518360001541,-0.0158939032600027,-0.00045104400552369,-0.000449472898158697,0.022525450537154,0.0223343578084509,2.87675056571173,-0.000174438104465987,0
0.48,0.000551802601552156,0.000317665014646093,-0.0274505178488521,-0.0158938890134867,-0.000451027816195108,-0.000449411928666898,0.0225251135812522,0.0223330673284004,2.87674958828062,-0.0001666747692322,0
0.49,0.000551743346153591,0.000317664821197311,-0.0274492710693435,-0.0158938893629705,-0.000451012533299817,-0.000449354374027407,0.0225248081575761,0.0223318431569147,2.87674866613159,-0.000159350515364264,0
0.5,0.000551687560183221,0.000317664638680541,-0.0274480992615917,-0.0158938765441366,-0.000450998145572375,-0.000449300188536832,0.022524508482397,0.022330695965439,2.87674779613774,-0.000152440509148387,0
0.51,4.70169868092725,-0.0168207005629755,4.9158402347028,0.849378382705284,-0.458150513183475,4.67935375126418,0.384118867134493,4.9738698762675,0.0940202949956758,29.2597366499206,3380.83172487557
0.52,4.70999835530269,-0.00392711721938732,4.50169464727004,0.213466134099659,-1.9709670369654,4.27777849688358,-1.68643757953975,4.17932420110995,0.430920055689348,62.7506513380548,3380.83172487557
0.53,4.71441500732311,0.0343540391751334,4.28177132900153,-1.69203929599784,-3.99258283911205,2.50722383007759,-4.5319544317536,0.81114223263819,1.01735073834979,97.6784573360615,3380.83172487557
0.54,4.69296050205321,0.0255834675106215,5.35543117640175,-1.24736756469512,-4.49010913130401,-1.36508343211018,-4.74597253460087,-2.77710526041838,1.87138859646465,135.164742730247,3380.83172487557
0.55,4.67414449315375,0.0443137829242271,6.29715715501541,-2.17311671310524,-0.757847795739044,-4.61251094012036,1.185612613506,-6.55522289586209,2.9882253081687,169.121830894725,3380.83172487557
0.56,4.69083873179002,0.0426872939288028,5.46351141714573,-2.08663004506065,4.38035099286612,-1.67878390271684,5.84823279865409,0.0464228712823154,-1.92768315731982,204.916606239383,3380.83172487557
0.57,4.71843064991043,0.0242483109637859,4.08499966669761,-1.1491923668013,1.40685497683774,4.50387997761326,0.0992504622291486,4.2424067130087,-0.29762295955288,239.184361537511,3380.83172487557
0.58,4.69383129249408,0.0614522483944802,5.31608853543791,-3.00705129010278,-4.6942050834091,-0.0163467466357408,-5.26552275931032,-3.09474148340507,1.58737001932032,275.094007355844,3380.83172487557
0.59,4.64249994294248,0.0167300707987215,7.88383699701921,-0.763872931416741,2.55765133502692,-3.87446838468516,5.00300324789203,-6.14071218609877,-2.55452570202761,310.114487003908,3380.83172487557
0.6,4.62798256198922,0.0335309863677051,8.61093656507825,-1.59044297634192,0.750912481156952,4.56677975895114,-0.235665007846722,8.75341072913145,-0.155725867064849,344.700090832231,3380.83172487557
0.61,4.65308543451741,0.013796397736201,7.35705835645748,-0.588802867488978,-2.79730559315142,-3.71839694223631,-3.93381587329487,-6.24484500625095,2.49959379007374,379.552934169448,3380.83172487557
0.62,4.62505077908305,0.0358046287447469,8.76009714891775,-1.68950829683623,3.56460119605233,2.94720121363279,5.62131867043221,6.92780749941896,-0.872186738292438,414.649086275786,3380.83172487557
0.63,4.68730536450705,0.0674832030538771,5.6487077859756,-3.27017026137249,-3.55448803931078,-3.05630501442961,-2.06210647362607,-6.19270781493329,2.29537363921289,449.825867730331,3380.83172487557
0.64,4.67290216199118,0.0701054837090666,6.3702477747947,-3.38910988643786,2.55842430040851,3.91093268843471,0.543301098806356,7.19520301663987,-0.564301358272827,484.567770408171,3380.83172487557
0.65,4.6316700413994,0.0506821676309794,8.43327766056743,-2.40011731386464,-0.177691754881227,-4.62853774909093,2.16792254249865,-8.49593120677567,3.11416311275499,518.999864066373,3380.83172487557
0.66,4.66588285900861,0.0780929202877962,6.72419070461184,-3.77784818258096,-3.17356597829763,3.42126297433875,-7.38111157797613,2.23742472411593,0.7645919805613,554.239086961375,3380.83172487557
0.67,4.6532251548533,0.0716580032155474,7.35857740579416,-3.43302408358563,4.53589391578796,1.04081967501684,6.32676027508938,5.0898349891813,-1.32983962487476,588.60276842228,3380.83172487557
0.68,4.60361799675867,0.0762912933864217,9.84053682135709,-3.67213155139098,-0.206114334755699,-4.59963432269731,3.39310024930142,-9.94020048899399,3.11338209781362,623.715043843049,3380.83172487557
0.69,4.58018775519465,0.0689968336319285,11.013665797552,-3.28759901078311,-4.57297589943804,0.266029808565002,-11.144937120022,-2.81060814533512,1.52775054344708,658.169553319556,3380.83172487557
0.7,4.58673238327662,0.0746654812811338,10.6880817116602,-3.55725330894751,-0.823038461596763,4.51290334270808,-5.57717075236834,9.78694580439017,0.196669097203334,692.679369076334,3380.83172487557
0.71,4.58969372095084,0.0709054638510991,10.5417267328089,-3.36400466657388,3.58391373735274,2.86807921092738,5.98569494194697,9.30677097429066,-0.880446462497938,727.367655804219,3380.83172487557
0.72,4.58832797757905,0.0909662345402757,10.6117895982523,-4.36044478857356,4.53560013638898,-0.699542628043009,11.0968999931422,2.91245047579773,-1.70400129295038,761.970735617465,3380.83172487557
0.73,4.61142651757598,0.088171600204848,9.4586828808646,-4.20853657543101,3.45965516845346,-3.05021554541295,9.93558517829894,-2.90905639551179,-2.27426411276566,796.484310460125,3380.83172487557
0.74,4.5571103512548,0.13668506615572,12.1763338264245,-6.62669338067713,2.26633370391932,-3.95596626670438,12.0154369335218,-6.91414824187326,-2.59136069199993,831.025339133959,3380.83172487557
0.75,4.56346767085623,0.101513194999027,11.8603508325513,-4.88625585543558,2.0428482248921,-4.08194968633423,9.86245071889017,-8.20216337154056,-2.65533687626177,865.800355324451,3380.83172487557
0.76,4.58853299109623,0.0926644089725599,10.6090155799949,-4.42240359306492,2.79555323493503,-3.63979447410332,10.0829576997556,-5.51750207444164,-2.46644566751769,900.167905343798,3380.83172487557
0.77,4.56346301470983,0.147311807572688,11.8644798192423,-7.13313432777761,4.03546896781203,-2.13585712656557,13.7915689566242,1.20004684658787,-2.02531618660209,934.461970701286,3380.83172487557
0.78,4.55450800334586,0.115224179091593,12.3142959017307,-5.53998072909132,4.4522784826444,0.966455419029013,10.652386216748,8.29818883391556,-1.33174907806098,968.993615672604,3380.83172487557
0.79,4.53076936157005,0.097699087250348,13.5032928152806,-4.66757286511708,1.79829389337972,4.15975422259833,0.766557131682473,14.266658454952,-0.386483915687779,1003.34619489197,3380.83172487557
0.8,4.52335369823977,0.1505284651727,13.8761738669788,-7.27420677251466,-3.17499100449647,3.22534023314955,-15.0693123932228,4.28696971663967,0.810797456117385,1037.50663665783,3380.83172487557
0.81,4.56395079872004,0.13526856090178,11.8484901280067,-6.51152919676585,2.75253294252505,3.64300794358455,1.55020423906645,13.4306960955487,-0.617424037244536,1071.88730716694,3380.83172487557
0.82,4.57671096345276,0.168437003508486,11.2126559511976,-8.17054036584957,-3.96308892394038,2.29533885256201,-13.7350290792228,-1.95713043581858,1.08261337042341,1106.24295756237,3380.83172487557
0.83,4.54931434086207,0.150724729009442,12.5847393494157,-7.27984332764524,-0.639587063852232,-4.50665145131739,5.882778542007,-13.2952886389689,3.03373263932979,1140.47840901579,3380.83172487557
0.84,4.55823042538405,0.166843464378962,12.1411563985151,-8.07310276774839,4.03135797845361,2.13388242461042,6.4804030209255,13.0608975066115,-1.04738164440815,1174.67793938153,3380.83172487557
0.85,4.54225900413166,0.171125282189953,12.9420141912526,-8.26910237958768,-4.45220139086568,0.91613508719698,-14.1261622967277,-6.0270493823426,1.4055139267493,1208.7845130388,3380.83172487557
0.86,4.48150297805269,0.165784702368392,15.9821987208593,-7.99058027646451,3.59527188253562,-2.68055471880044,17.6934175977183,-2.49459872933735,-2.17448494016339,1242.9250312,3380.83172487557
0.87,4.47236436691178,0.138472292232512,16.4415242908565,-6.65443752895705,-3.04339123137059,3.28008954435012,-16.2862480429415,7.02590809201214,0.778935858417435,1277.21623701443,3380.83172487557
0.88,4.51875447602464,0.167326692464172,14.1244367571302,-8.05560273226028,3.25563293620907,-3.13815143377027,15.8971596961186,-3.41654250409263,-2.30080975500901,1311.11841429055,3380.83172487557
0.89,4.47428829370939,0.14542416925661,16.3502357352873,-6.99068047671192,-4.0292209282783,1.95084151979422,-17.780169904791,0.255695685749708,1.15238074075953,1345.35613210686,3380.83172487557
0.9,4.47545660829999,0.169922978906113,16.2942706869631,-8.16763658936658,4.45409630050769,0.46862758917936,14.9662829328356,10.4030726158332,-1.42801975999092,1379.23030904067,3380.83172487557
0.91,4.51246397927296,0.170750241912941,14.4464443585433,-8.2169715277,-2.75110870250741,-3.58090599099407,-1.66115649118526,-16.5365938089836,2.52432149617742,1413.30847446253,3380.83172487557
0.92,4.47567586935793,0.179241011769942,16.2884261333768,-8.6557924530932,-1.75516614808814,4.12106704877009,-14.798565960473,11.0108135215808,0.44265988636057,1447.38388210084,3380.83172487557
0.93,4.46468012460599,0.215121470244918,16.8408226533075,-10.4528462419729,-4.12175765895496,-1.72938129481565,-10.6943327783919,-16.6885154709307,2.01620764144628,1481.35979835269,3380.83172487557
0.94,4.47294724473289,0.210999233731179,16.4300859426213,-10.2404904069507,-1.68284967947919,4.14967404588306,-16.1831196717995,10.6264766289203,0.432408569273115,1515.30645199819,3380.83172487557
0.95,4.46152994132037,0.188598227792219,17.0036340540481,-9.11066072575865,3.61914823512015,2.61583347349392,7.70391428284918,17.6855142595961,-0.902700495886111,1549.20103459973,3380.83172487557
0.96,4.48385299701131,0.24795058387047,15.8902129809818,-12.0588199045383,3.99590401337738,-2.04918723076335,19.4199710126023,4.55836943881691,-1.98940649973189,1583.01265724667,3380.83172487557
0.97,4.4354266877266,0.233370593238266,18.3143014627792,-11.3027527360285,1.14597673535423,-4.29117805014108,16.4002315297946,-13.9355036956146,-2.8280619083119,1616.74097721387,3380.83172487557
0.98,4.35758574885139,0.190632223073191,22.2091515510786,-9.19202791322055,-1.37594104269578,-4.13904342210756,2.76286613184699,-23.8769001445685,2.8643749071247,1650.62684353653,3380.83172487557
