t,iq,id,vq,vd,ia,ib,va,vb,theta_e,omega,r
0,0,0,0,0,0,0,0,0,0,0,0
0.01,0.000712214370937599,0.000383554043272535,-0.0340699975077174,-0.019189392796754,0.0002032666358137,-0.000782972342452612,-0.00910680142553907,0.0380271441720225,-2.39359076707567,-0.00475297341355298,0
0.02,0.000864591361719398,0.000459884418278485,-0.041684689158703,-0.0230082462403372,0.000250921778685057,-0.000946599261523413,-0.0114850593680269,0.0462069920750808,-2.39362668815545,-0.00492543308619321,0
0.03,0.000914289443701651,0.000489214250476421,-0.0442952527618574,-0.0244756387580152,0.000263189177721956,-0.00100298914573565,-0.0121832707739251,0.049119183860269,-2.39366036042854,-0.00437989552111745,0
0.04,0.000887514547047524,0.000480561475248338,-0.0432525997218099,-0.0240427358586162,0.00025129560058708,-0.000977482441703895,-0.011790186971283,0.0480607118283166,-2.39368761241081,-0.00342967347868191,0
0.05,0.000899490980227912,0.000492617245095716,-0.0439968162154245,-0.024645880840124,0.000250580199707294,-0.000994467363562885,-0.0118530551324569,0.0490167763475564,-2.39371009379033,-0.00290443786454275,0
0.06,0.000894715140234651,0.000494603074666983,-0.0439196038842712,-0.0247452446550737,0.00024585804042498,-0.000992321121207008,-0.0117267933607726,0.0490279619795121,-2.39372853123965,-0.00236284217207246,0
0.07,0.000902690813934337,0.000503473554478504,-0.044410037268758,-0.0251890243255138,0.00024476436144274,-0.00100420452746848,-0.0117342580438165,0.049689491291871,-2.39374287050081,-0.00203038908525441,0
0.08,0.000884974913875405,0.00049638966123342,-0.0436733262369829,-0.0248346188378432,0.000237897965116284,-0.000986401466017636,-0.0114924844400457,0.0489084912752193,-2.39375506516849,-0.00156164190601873,0
0.09,0.000877668710004732,0.000495219423871391,-0.0434046014092095,-0.0247760680238412,0.000233778091346806,-0.000980251215917189,-0.0113522058693774,0.048671761752721,-2.39376447723917,-0.00124819937811728,0
0.1,0.000873269670224369,0.000495025115466202,-0.0432568298565138,-0.024766342815912,0.00023092174563347,-0.000976895556991481,-0.011258484060925,0.0485568903695506,-2.39377189654926,-0.00101144931767843,0
0.11,0.000870067093226466,0.000494992065785165,-0.0431530864451667,-0.0247646911092017,0.000228762356186959,-0.00097452638563438,-0.0111888599698289,0.0484797711221264,-2.39377777810841,-0.000825929657923987,0
0.12,0.000867583553415906,0.000494985822440613,-0.0430734939151888,-0.0247643856178188,0.000227073489480467,-0.00097270232699945,-0.0111347318793988,0.0484212599904602,-2.39378244755917,-0.000679092523150139,0
0.13,0.000902261032425906,0.000514951646062475,-0.0447428188672784,-0.0257632922450901,0.000236012284837682,-0.00101170567351499,-0.0115373260201101,0.0503245186345751,-2.39378695685941,-0.00081880598920842,0
0.14,0.000922034473110948,0.000527380352635336,-0.0458615060191013,-0.026385107081028,0.000240342207613604,-0.00103465609223073,-0.0118419589544578,0.0515676218002955,-2.39379094558711,-0.00085962084846478,0
0.15,0.000873541832580742,0.000500327048971459,-0.043449305033358,-0.0250316127628356,0.000227197584877526,-0.00098070573906082,-0.0111937897229891,0.0488786540018017,-2.39379434009175,-0.000398382165840365,0
0.16,0.000863023696462078,0.000495863670519166,-0.0429663708915255,-0.0248083035155745,0.000223315958694861,-0.000969959103770878,-0.011029034029292,0.0483727336346595,-2.39379590027911,-0.000275756655589277,0
0.17,0.000860481610160745,0.000495127155031945,-0.042854638848859,-0.0247714664561502,0.000222126310484314,-0.000967594648220774,-0.01098001353698,0.0482657738359393,-2.39379690371659,-0.000228953730929904,0
0.18,0.000859669493433048,0.000495005521145529,-0.042822341533472,-0.0247653692032039,0.000221662508744397,-0.000966916664517232,-0.0109624849341195,0.0482379557013927,-2.39379765181258,-0.00020228168274501,0
0.19,0.000859274611526049,0.000494985354968027,-0.042808379928876,-0.024764366429467,0.000221408200747182,-0.000966613556850907,-0.0109536977674204,0.0482270436789144,-2.39379823588367,-0.00018327605789855,0
0.2,0.000859012967899683,0.000494981949185819,-0.0427997141795378,-0.0247641984657918,0.000221232327744271,-0.000966419508391913,-0.0109479057353178,0.0482205808707636,-2.39379869771932,-0.000168632028585321,0
0.21,0.000858815934938171,0.000494981324715204,-0.0427933268057683,-0.0247641729128329,0.000221098444606846,-0.000966274701993681,-0.0109435632427735,0.0482158843402606,-2.3937990641316,-0.000157093803418853,0
0.22,0.000858661920826031,0.000494981171970785,-0.0427883616491955,-0.0247641471368054,0.000220993542389362,-0.000966161740654443,-0.0109401916944305,0.0482122295867429,-2.39379935509382,-0.000147948140395392,0
0.23,0.000858539917568954,0.000494981107273068,-0.0427844239170716,-0.0247641475650283,0.00022091040160672,-0.000966072295989558,-0.0109375024928388,0.0482093452948423,-2.39379958619522,-0.00014068750358859,0
0.24,0.000858443060021352,0.000494981065221691,-0.0427812894072317,-0.0247641479214716,0.000220844389818755,-0.000966001292810938,-0.0109353618456352,0.0482070493488957,-2.39379976976236,-0.000134920992622833,0
0.25,0.000858366051282768,0.000494981033358353,-0.0427787869039101,-0.0247641453108968,0.000220791904683735,-0.000965944841181629,-0.0109336549730065,0.0482052143536424,-2.39379991557478,-0.000130340646412366,0
0.26,0.000865261728822306,0.000498894255531294,-0.0431029717541848,-0.0249599261955778,0.000222612042862025,-0.000973661756432636,-0.011010566262948,0.0485760385406218,-2.39379984672534,-0.000184585632985229,0
0.27,0.000849177011672741,0.00048937473712495,-0.0423503129412727,-0.024483668093262,0.000218653118864455,-0.000955395229263998,-0.0108479005308208,0.0477003360952327,-2.39380046571198,-4.54904916173531e-05,0
0.28,0.000848530427691079,0.00048914207523269,-0.0421702787486815,-0.0244720268673785,0.000218383967641185,-0.000954762954433111,-0.0107340063438646,0.0475604206935669,-2.39380051383573,-3.9262173806699e-05,0
0.29,0.000856200089226398,0.000494017683464023,-0.0426794774690062,-0.0247159524857487,0.000220024976379194,-0.000963701755801963,-0.0109014396531339,0.0480996332397065,-2.39380027501061,-0.000104043436964505,0
0.3,0.000844454094825705,0.000488262946117671,-0.0421145799255073,-0.0244280470391579,0.000216258156648537,-0.000951176026034291,-0.0107284561354084,0.0474896573308323,-2.39379881797316,-5.47916532927756e-05,0
0.31,0.000855942276379242,0.000493872902203325,-0.0426555312352841,-0.024708716097931,0.000219957224759107,-0.000963413952203457,-0.0108905319301066,0.0480771391666744,-2.39379880700949,-0.000142321539896533,0
0.32,0.000858183440136749,0.000494798357968356,-0.0427632137143897,-0.0247550205331906,0.000220802470321195,-0.000965686543901894,-0.0109297954489958,0.0481875820126344,-2.39379907764413,-0.000151919885056116,0
0.33,0.000858534444325502,0.000494950987973407,-0.0427818898895699,-0.0247626380593155,0.000220928990478397,-0.000966047749210849,-0.0109368974109956,0.0482064582934828,-2.39379935060918,-0.000147102891549121,0
0.34,0.000858516459596082,0.00049497612886168,-0.0427828332159874,-0.024763898246616,0.000220898106284616,-0.00096605170988936,-0.0109366039028106,0.0482080093908551,-2.39379957947262,-0.000140693813487801,0
0.35,0.000858440557042129,0.000494980244944195,-0.0427806913796063,-0.0247641051572982,0.000220843294950815,-0.000965998898516496,-0.0109349868170029,0.0482065817339377,-2.39379976376554,-0.000135066698028786,0
0.36,0.000858367506467648,0.00049498089887339,-0.0427783843530195,-0.0247641403666259,0.000220792997578645,-0.000965945815576233,-0.0109333850908523,0.0482049157908998,-2.39379991067407,-0.000130485592522521,0
0.37,0.000858306854091716,0.000494980986785471,-0.0427764200510276,-0.0247641464398974,0.000220751575348671,-0.000965901431327761,-0.0109320392390106,0.048203480987947,-2.39380002747585,-0.000126823568527004,0
0.38,0.00085825807607195,0.00049498098542258,-0.0427748225374676,-0.024764146659048,0.000220718316588042,-0.000965865687243922,-0.0109309482607324,0.0482023108676739,-2.3938001202774,-0.000123909910660454,0
0.39,0.000858219193354523,0.000494980972593688,-0.042773538096799,-0.0247641468500539,0.000220691813692497,-0.000965837186300568,-0.0109300711194797,0.0482013700619854,-2.39380019399723,-0.000121594504811223,0
0.4,0.000858188343294289,0.000494980960465293,-0.0427725106701174,-0.024764147018156,0.000220670787312121,-0.000965814571963164,-0.0109293695010326,0.048200617515464,-2.39380025255634,-0.00011975509847528,0
0.41,0.000858163837869084,0.000494980950511193,-0.0427716855516042,-0.024764147168161,0.000220654085461978,-0.000965796608279454,-0.0109288060504088,0.0482000131556433,-2.39380029907177,-0.000118293957330794,0
0.42,0.00085814433830271,0.000494980942551264,-0.0427710193949946,-0.0247641473038935,0.000220640795483462,-0.000965782314094827,-0.0109283511689592,0.0481995252311042,-2.39380033602071,-0.000117133318117358,0
0.43,0.000858128796857271,0.00049498093621956,-0.042770478634721,-0.0247641474283339,0.000220630203259625,-0.000965770921402232,-0.0109279819343372,0.0481991291553922,-2.39380036537037,-0.000116211384084941,0
0.44,0.000858116515040838,0.000494980931189,-0.0427700432506984,-0.0247641475434785,0.000220621832530883,-0.000965761918195824,-0.010927684655649,0.0481988102683923,-2.39380038868347,-0.000115479062541098,0
0.45,0.000858106794361482,0.000494980927192445,-0.0427696901374946,-0.0247641476513182,0.000220615207303604,-0.000965754792439581,-0.0109274435593646,0.0481985516443232,-2.39380040720202,-0.000114897356457746,0
0.46,0.000858099052742593,0.000494980924017807,-0.0427693996301034,-0.0247641477535062,0.000220609930956241,-0.000965749117433063,-0.0109272452241159,0.0481983388768639,-2.3938004219119,-0.000114435289028255,0
0.47,0.000858092882730546,0.000494980921496198,-0.0427691588255777,-0.0247641478512071,0.000220605725778689,-0.000965744594492613,-0.0109270808370055,0.0481981625150325,-2.39380043359645,-0.000114068254353368,0
0.48,0.000858087935079376,0.000494980919493216,-0.0427689561822101,-0.024764147945422,0.000220602353773616,-0.000965740967599841,-0.0109269425186924,0.0481980141040245,-2.39380044287795,-0.000113776707182617,0
0.49,0.000858084035166102,0.000494980917902064,-0.0427687877287692,-0.0247641480366486,0.000220599695794738,-0.000965738108758984,-0.0109268275444742,0.0481978907379035,-2.39380045025045,-0.000113545122107774,0
0.5,0.000858080950160078,0.000494980916638288,-0.0427686455350105,-0.0247641481255508,0.000220597593194642,-0.000965735847289741,-0.0109267305021891,0.048197786607023,-2.39380045610682,-0.000113361166808269,0
0.51,4.68654342657583,0.0220757628638602,5.67357600767971,-1.09458497923824,-0.84598355249305,4.60960827591655,-2.1260806744133,5.37283556025858,0.186216714605345,57.3322868522254,4797.66415466519
0.52,4.69524919818494,0.00928178586750694,5.23923601284656,-0.441337527105618,-3.50381392922702,3.12549822171761,-4.209775471239,3.14994655397429,0.844380291836276,122.478241052473,4797.66415466519
0.53,4.68796185809979,-0.0200175702699901,5.6047162421571,1.03796990451107,-4.27003158361399,-1.93499802611189,-5.53922913000875,-1.34430886444778,1.99200319022691,191.91197353901,4797.66415466519
0.54,4.63005655994565,-0.0104371888207995,8.50127195163038,0.56139873116633,2.30997658130849,-4.01267253548213,3.73756138833521,-7.65620194348075,-2.62150895903342,261.892065823844,4797.66415466519
0.55,4.61420964018418,0.0129663318266436,9.294962770923,-0.585876380505066,2.08033462948757,4.11865348854264,3.64363062819211,8.57108743925639,-0.464909732801816,327.2710781452,4797.66415466519
0.56,4.63083460316326,0.0405024108105083,8.46526893956145,-1.96250162677015,-3.78591557560864,-2.66704196095592,-5.73335937127683,-6.52999090152287,2.1932581358105,396.092925178835,4797.66415466519
0.57,4.54932972632424,-0.00696260528771897,12.5422278971537,0.410845399669043,3.67706905353468,2.67873339700452,10.3901416196522,7.03713234848837,-0.942730300269733,464.078450919424,4797.66415466519
0.58,4.58201072642022,0.0335670236605146,10.9100154655487,-1.60851426033857,-1.99712917147632,-4.1240058334762,-3.23029564242501,-10.5442375564454,2.69793436026341,530.622825943376,4797.66415466519
0.59,4.57903285004385,0.0641273478491151,11.0608116138933,-3.1242083258731,-2.32828148703192,3.94344512776168,-8.42410175389597,7.81899871220725,0.547347859988304,597.357743167196,4797.66415466519
0.6,4.55299050414936,0.0205308218961584,12.3650171921696,-0.940086433148637,4.0935518404837,1.99323289527202,10.6772786081835,6.30659450001879,-1.11315796619041,664.37957695496,4797.66415466519
0.61,4.55992631615191,0.0825966119172055,12.0203707098832,-4.03078718992188,3.39337848159826,-3.04708593407879,11.7260599639217,-4.82038121894616,-2.28436635424553,731.012823399094,4797.66415466519
0.62,4.50905893254021,0.0590243358088198,14.5659669972299,-2.81822719576061,0.717987895269572,-4.45191977820633,5.28336223130196,-13.8634729640219,-2.96860405243278,796.708709839199,4797.66415466519
0.63,4.46255592969402,0.0946669921013619,16.8935188903826,-4.62092032260638,-0.209498935001873,-4.45864076387343,4.18456109145369,-17.0068613682679,3.11585045653786,863.358066605107,4797.66415466519
0.64,4.4571762000467,0.0290330822563707,17.1650088008923,-1.30186136149225,1.12575874248636,-4.31276359795475,5.70088767526795,-16.2429138350616,-2.87974678578211,929.172882252676,4797.66415466519
0.65,4.40922985354674,0.023970720444987,19.5649693392725,-1.07308336336405,3.77337527666851,-2.28112286347608,17.3481914510231,-9.10932415330851,-2.10910445623409,995.626865034908,4797.66415466519
0.66,4.44138721238054,0.107183381839159,17.9597807782259,-5.18362642323701,3.42360967844215,2.83130807531026,10.1610428761836,15.6900260090916,-0.855682209422777,1060.96490093271,4797.66415466519
0.67,4.38295596052038,0.0945723813169519,20.8841934269252,-4.53005404151308,-3.31709661565129,2.86637696920762,-18.9799819382565,9.81993942627506,0.879734450970737,1126.3002936613,4797.66415466519
0.68,4.39882607822962,0.121665256928932,20.0935777642775,-5.87403193305447,-0.324640512197867,-4.38851704327287,4.93999544607409,-20.3433665727278,3.09540368265593,1191.83598068992,4797.66415466519
0.69,4.38877857408114,0.117921959417236,20.5990049635705,-5.67594267166131,2.17920001927372,3.81134756179805,4.73925050829693,20.8344626837554,-0.492538151169585,1257.27939318619,4797.66415466519
0.7,4.37156054072501,0.0165066039582644,21.4630202162917,-0.665019128738209,-1.95669268770378,-3.90924132730185,-8.938348101381,-19.524585026706,2.68129699725612,1322.93841404181,4797.66415466519
0.71,4.372737293202,0.15067219216896,21.4073905435083,-7.33749935928994,-0.0647193375703244,4.37485370637659,-8.38219504806997,21.0203252331162,0.0492359589463821,1387.79586801199,4797.66415466519
0.72,4.34875990081227,0.132958336859852,22.6095463773508,-6.39585354802148,3.67161101653881,-2.33423716393261,22.7067475170611,-6.04170068720351,-2.10652635726169,1452.46342836287,4797.66415466519
0.73,4.31943656817626,0.138768626594902,24.0790924871153,-6.73117930343111,-2.70648002279209,-3.36923654326209,-9.08879754941495,-23.2917416464235,2.49696325989946,1517.59126003673,4797.66415466519
0.74,4.24493866935972,0.0648777542422256,27.8074739577065,-3.06265233847054,-4.06262492722425,1.23239284739775,-27.5744820131471,4.72052846209941,1.29155234113718,1582.32146577169,4797.66415466519
0.75,4.28488678788984,0.113900322939966,25.8136217237137,-5.41356987333709,-2.17899327421171,3.69123507508515,-18.2955456622537,18.9979686858589,0.559843726284106,1646.49267265045,4797.66415466519
0.76,4.25379998365898,0.193102245660933,27.37159516519,-9.37747277040387,-1.07708828434829,4.11970673786085,-17.0729217202587,23.3592928270664,0.301087800515366,1710.94176747246,4797.66415466519
0.77,4.24897678525115,0.157362354224967,27.6164836327406,-7.58125981629154,-1.95234926144659,3.77715488078784,-20.181341018051,20.3189355861147,0.514081480488947,1775.26434589321,4797.66415466519
0.78,4.22280308999875,0.151768462365812,28.9289958965916,-7.28275462858963,1.69919186982885,-3.86883013229832,19.1353949549997,-22.8858466848275,-2.69183109978038,1839.4207997732,4797.66415466519
0.79,4.13958668323194,0.134401785304316,33.0936726264811,-6.47375714706623,4.14176737473338,0.00218208120247448,32.8621889464746,7.56156314224116,-1.53781343940901,1903.77554196342,4797.66415466519
0.8,4.19392283372058,0.135325468599614,30.3808171604661,-6.52987745874178,-0.224890751473811,4.19007468520027,-9.11161119889757,29.7087847668662,0.0858766513675398,1967.90874381311,4797.66415466519
0.81,4.2232281539867,0.139918350286448,28.9195749797019,-6.66481876484296,-3.54786163504355,-2.29519302106792,-19.944616529632,-21.9766671190318,2.17812390756103,2031.42720848454,4797.66415466519
0.82,4.18343667341293,0.118531800478756,30.9132847807923,-5.68318878323635,4.18509902299374,-0.0117624792389098,30.7582289972415,6.47002006469242,-1.54528086448008,2095.50934746699,4797.66415466519
0.83,4.11428643370867,0.198204471055772,34.3749462143138,-9.56117175391362,-4.08015733250792,0.564760137516439,-35.0913310576482,-6.4537909128926,1.48139148593757,2158.9133533836,4797.66415466519
0.84,4.19017538251533,0.196820587394941,30.5847858575752,-9.49712628838957,4.09823929468893,0.894842311989968,27.0826823691638,17.0924793222732,-1.3088848900069,2222.3718755565,4797.66415466519
0.85,4.15971552936917,0.223215020658975,32.112120452838,-10.8434380203772,-2.16308632066007,-3.56007244309664,-5.62471980902681,-33.4235090190913,2.6492161689139,2285.90074016811,4797.66415466519
0.86,4.10934062048505,0.191204742551712,34.6352637752709,-9.2459495357991,-2.78059917241326,3.0317499618401,-31.0880071075434,17.8500670498032,0.78871093136288,2349.2626559203,4797.66415466519
0.87,4.15285765191561,0.15378936815162,32.4638030014569,-7.34162188626962,2.49744806523976,3.32154045711635,12.508918294605,30.8435549237965,-0.607697234387306,2412.53073133521,4797.66415466519
0.88,4.1025004319273,0.181827644202158,34.9861734146094,-8.70068390159864,4.10612914494277,-0.0572235197391193,34.7059681537287,9.75858622265673,-1.54043935816378,2475.58603196954,4797.66415466519
0.89,3.95830013270858,0.148983944247837,42.200767214324,-7.19327754321918,-1.34079766176664,3.72727753010767,-22.4403078346386,36.4565574290553,0.382933370481969,2538.85276113893,4797.66415466519
0.9,4.03730507771336,0.17845865493408,38.2551155999324,-8.59578351965874,-1.31163515931675,3.82247210465885,-22.0012266430212,32.454389380844,0.374722249331114,2601.7702379725,4797.66415466519
0.91,3.96831136099393,0.224235137557064,41.7094199926087,-10.8155913956876,-2.76932004426692,2.85107750633514,-38.0232594421775,20.2702855123246,0.827299038292558,2664.54565457399,4797.66415466519
0.92,4.02121131005443,0.230825523464481,39.0689913176318,-11.1651254882171,-4.00238121378135,-0.452067961663377,-36.6201689210694,-17.6070820392581,1.74060846310388,2727.28294515069,4797.66415466519
0.93,3.95307121648361,0.20225266306678,42.4805051504595,-9.81484801784756,-0.313119189383423,-3.94583762407283,8.6187313741345,-42.7392329008392,3.11352314445328,2790.14786191579,4797.66415466519
0.94,3.96578153373036,0.199057061673307,41.8494634084372,-9.67163393598919,3.90456307403771,0.722103931536131,38.4849999328276,19.074141415439,-1.33777248861068,2852.65349505678,4797.66415466519
0.95,3.86244129135657,0.120207570780076,47.0209252759017,-5.73009400931154,-3.07702405258062,2.33769663752365,-41.6307244194285,22.5983224039105,0.952211412413414,2915.09258414605,4797.66415466519
0.96,3.86938737089151,0.226004406138922,46.6780145206743,-11.0192309389267,1.85662626211485,-3.40237792439852,34.0588433668888,-33.7676720931043,-2.58372638111372,2977.42612413183,4797.66415466519
0.97,3.8996695536737,0.158883732655434,45.1682262417677,-7.63464351946426,-2.13614657629906,3.26642686630482,-32.4541741686338,32.3292904736369,0.619881669876078,3039.61250782331,4797.66415466519
0.98,3.95676220987156,0.238345776530447,42.317891961025,-11.5190193153992,-1.27863073062775,3.75205001956956,-26.6942688108352,34.79810050374,0.388604095819304,3101.37362799965,4797.66415466519
