t,iq,id,vq,vd,ia,ib,va,vb,theta_e,omega,r
0,0,0,0,0,0,0,0,0,0,0,0
0.01,0.00086818966790062,0.000456159459141599,-0.0404814728739828,-0.0228286895949463,-0.000258916067456059,-0.000945937218649755,0.0135953009115353,0.0444417203514245,-2.92499079672672,-0.00861144858480671,0
0.02,0.000977922373130698,0.000517650368674619,-0.046610578427287,-0.0259060111909337,-0.000295449424122052,-0.00106630376058818,0.0152864754867624,0.0510880720358839,-2.92504910116435,-0.00736084306311925,0
0.03,0.00100428500375899,0.000541895057374147,-0.0484486098905796,-0.0271193650618154,-0.000313514219481841,-0.00109724539468818,0.0160790262801737,0.0531431338515811,-2.92509509519917,-0.0056258562536283,0
0.04,0.000960724485691523,0.0005297701844602,-0.0469315656736375,-0.0265125653666533,-0.000311061707168323,-0.001052087734024,0.015813839215121,0.0515306750215667,-2.92512557595796,-0.00371730099380661,0
0.05,0.000973021519129393,0.000542909441245041,-0.0478011760377526,-0.0271701247837454,-0.000321276967744036,-0.00106691267125247,0.0162704492969178,0.0525208586281007,-2.92514788904399,-0.00286948551899752,0
0.06,0.000965710699217947,0.000544016395610055,-0.0477007552087866,-0.0272255287387352,-0.000323945029579934,-0.00106000500521791,0.0163469614422468,0.0524344191747937,-2.92516380747772,-0.00206468750242234,0
0.07,0.000981546335856299,0.000556672355097847,-0.048556077376386,-0.0278588900099647,-0.000332916146442925,-0.00107818558690084,0.0167824174460338,0.0534056258032425,-2.9251740176747,-0.00180365338755318,0
0.08,0.000956535552784336,0.000545175548779569,-0.0475530275283502,-0.0272835222074347,-0.000327066853219278,-0.0010512867906774,0.0164362912723301,0.05230228809877,-2.92518227330804,-0.00112246192997593,0
0.09,0.000950738597116903,0.000544203541147628,-0.0473647391689329,-0.0272348837758393,-0.000327367508584635,-0.0010454146969354,0.0164294787021278,0.0521078654370034,-2.92518728416765,-0.000825667266076883,0
0.1,0.000948201522348523,0.000544120831658893,-0.0472984124173038,-0.0272307559034361,-0.000327834952405856,-0.00104291794998949,0.0164398616048923,0.0520421447932526,-2.92519060454504,-0.000645215130847064,0
0.11,0.000946656833950155,0.000544113434975589,-0.0472611230836952,-0.0272303853974836,-0.000328161730765004,-0.00104140696648658,0.0164476228332037,0.0520056088048621,-2.92519284352081,-0.000525598073688008,0
0.12,0.000945632697002654,0.00054411253213338,-0.047236823917991,-0.0272303336710285,-0.000328382322252636,-0.0010404060244429,0.0164528684410573,0.051981840345991,-2.92519435822965,-0.000444933175507009,0
0.13,0.000991544375696791,0.000568761861058553,-0.0493338749380345,-0.0284639252692306,-0.000342601930526146,-0.0010905385003614,0.017207574783106,0.0542948029577214,-2.92519712912891,-0.000891451506602513,0
0.14,0.00102251556317308,0.000588044748368769,-0.051151027045335,-0.0294289463489767,-0.000354787705229479,-0.00112492683639126,0.0177600501408785,0.0562767364902854,-2.92519930807208,-0.00117877482836417,0
0.15,0.00095107650647116,0.000547822018663915,-0.0475772375271162,-0.0274159767478389,-0.000330843510149091,-0.00104651710788053,0.0165614444251104,0.0523540625959787,-2.9252011194088,-0.000209386395203708,0
0.16,0.000942906522864619,0.000544424697550277,-0.0471987729292857,-0.0272459479910232,-0.000329278675960323,-0.00103780851592246,0.0164765951328185,0.051947932208982,-2.92520025814302,-0.000146438928216879,0
0.17,0.000942383542372934,0.000544137893038445,-0.0471632709016656,-0.0272316104149496,-0.00032910997344305,-0.00103723643059622,0.0164701707143404,0.05191019364803,-2.92519941492641,-0.000177756759211911,0
0.18,0.000942653915619118,0.000544113778900233,-0.0471667510396866,-0.0272303962179937,-0.000329027744381265,-0.00103749551924262,0.0164682063012511,0.0519133418597583,-2.92519881164049,-0.000208172163461014,0
0.19,0.000942914627619621,0.000544111818045465,-0.0471725213559883,-0.0272302937240805,-0.000328969424006304,-0.00103774986561539,0.0164668458437525,0.0519189623869638,-2.92519839916565,-0.000229911899439051,0
0.2,0.000943100892127842,0.000544111703930015,-0.047176850217791,-0.0272302874703771,-0.00032892902944888,-0.00103793185357796,0.0164658957628784,0.051923193554685,-2.92519811940991,-0.000244773139546495,0
0.21,0.000943228075863535,0.000544111729169575,-0.0471798195141461,-0.0272302842893185,-0.000328901549851628,-0.00103805613885875,0.0164652452813664,0.0519260960374352,-2.925197929947,-0.000254852294561858,0
0.22,0.00094331451424307,0.000544111754913396,-0.0471818373154102,-0.027230287041314,-0.000328882882654818,-0.0010381406090281,0.0164648080661971,0.0519280694822509,-2.92519780166934,-0.000261678287705744,0
0.23,0.000943372954734538,0.000544111773072961,-0.0471831910680439,-0.0272302869601129,-0.000328870262470513,-0.00103819771902261,0.01646451281278,0.0519293930749382,-2.92519771482181,-0.000266299886584391,0
0.24,0.000943412535943899,0.000544111785428642,-0.0471841001501501,-0.0272302869309053,-0.000328861715009351,-0.00103823639910165,0.0164643145418336,0.0519302819170703,-2.92519765602448,-0.000269428827992125,0
0.25,0.000943439311467879,0.000544111793798527,-0.0471847063052129,-0.027230286936998,-0.000328855932878592,-0.00103826256504999,0.0164641823329632,0.0519308745919745,-2.92519761621758,-0.000271547182817993,0
0.26,0.000953431761010354,0.000549359373784243,-0.0476287973814178,-0.0274929002738971,-0.000331835375421588,-0.00104914876356346,0.0166253064967164,0.0524209985536411,-2.92519735678042,-0.000407411446812472,0
0.27,0.00092733936112782,0.000534577567781904,-0.0464726844126026,-0.0267531487883624,-0.000323001571969531,-0.0010204907893645,0.0161510846581583,0.0511330013882484,-2.92519828605339,-4.13476478681055e-05,0
0.28,0.000926934151443641,0.00053410366489868,-0.0460737639095538,-0.0267294322841337,-0.000322625595328159,-0.00101999331919866,0.0162135668946047,0.0507382944094455,-2.92519816006953,-4.19592545253386e-05,0
0.29,0.000941521555208653,0.000543266465482495,-0.0470966808879877,-0.0271879789997422,-0.000328441937606041,-0.00103620808000225,0.0164417538766507,0.05183582045473,-2.92519747766267,-0.000253918227824871,0
0.3,0.000932007216114927,0.000538769207708845,-0.0466311032012112,-0.026962929474245,-0.000326089574356297,-0.00102595092453862,0.0163217763282432,0.0513328254539522,-2.92519473109886,-0.000258813395048466,0
0.31,0.000943373252405311,0.000543660962697615,-0.0471476990899649,-0.0272077215245201,-0.000328427331270873,-0.00103810202956615,0.0164499656344396,0.0518899245582364,-2.92519523839339,-0.000377366383793647,0
0.32,0.000944366646957417,0.000544074024803549,-0.0472020651226201,-0.0272284013075633,-0.000328618184041458,-0.00103916071782416,0.0164585259659835,0.0519474514546463,-2.92519592988905,-0.000358704096672873,0
0.33,0.000944204016662096,0.000544108820467886,-0.0472020530194759,-0.0272301479205871,-0.000328687618301369,-0.00103900918338923,0.0164602610147712,0.051947806232372,-2.9251964414128,-0.000333742774110153,0
0.34,0.000943989929047844,0.00054411169480977,-0.0471974539765189,-0.0272302970034072,-0.000328736757995326,-0.00103880059035179,0.0164614123562953,0.0519433406703438,-2.92519679312774,-0.000315307534270861,0
0.35,0.000943831953469087,0.000544111893661552,-0.0471937572193174,-0.0272303091556775,-0.000328771119313945,-0.00103864626332466,0.0164622303620949,0.0519397288084465,-2.92519703191845,-0.000302635149277867,0
0.36,0.000943723454389307,0.000544111880697461,-0.0471911784661704,-0.0272303095321003,-0.000328794570549943,-0.00103854023872814,0.0164627928164724,0.0519372076157531,-2.92519719366792,-0.000294031864597931,0
0.37,0.0009436497634907,0.000544111859451236,-0.0471894138093178,-0.0272303098133454,-0.000328810485743535,-0.00103846822589651,0.0164631776694674,0.051935482372087,-2.92519730318578,-0.00028820431194904,0
0.38,0.000943600081027077,0.00054411184401256,-0.0471882214144135,-0.0272302875314206,-0.000328821215004176,-0.00103841967444393,0.0164634157776056,0.0519343117816463,-2.92519737733249,-0.000284258581993692,0
0.39,0.000943566320583799,0.000544111833471063,-0.0471873997011142,-0.0272302877044504,-0.000328828505551955,-0.00103838668259939,0.016463594983984,0.0519335084432315,-2.92519742753159,-0.000281587204548409,0
0.4,0.000943543386765434,0.00054411182632663,-0.047186831292854,-0.0272302878476237,-0.000328833457990709,-0.00103836427093923,0.0164637189318908,0.0519329527627344,-2.92519746151679,-0.000279778627431967,0
0.41,0.000943527903527654,0.000544111821488787,-0.0471864404153524,-0.0272302879702465,-0.000328836801567598,-0.00103834914019993,0.0164638041719948,0.0519325706488747,-2.92519748452584,-0.000278554186950394,0
0.42,0.000943517426148706,0.000544111818213539,-0.0471861677939019,-0.0272302880790644,-0.000328839064143941,-0.00103833890135103,0.016463863621857,0.0519323041524637,-2.925197500103,-0.00027772521826856,0
0.43,0.000943510324814085,0.000544111815995975,-0.0471859745896971,-0.0272302881785704,-0.000328840597657752,-0.00103833196169111,0.016463905749645,0.0519321153019434,-2.92519751064906,-0.000277163991308685,0
0.44,0.000943505551785898,0.000544111814494874,-0.047185837300529,-0.0272302882716572,-0.000328841628423004,-0.00103832729731035,0.0164639356887281,0.0519319811171013,-2.92519751778872,-0.000276784030391791,0
0.45,0.000943502292156891,0.000544111813478452,-0.0471857346928223,-0.0272302883605739,-0.000328842332324871,-0.00103832411189534,0.0164639580575154,0.0519318808419433,-2.92519752262235,-0.000276526789905596,0
0.46,0.00094350008026578,0.000544111812790547,-0.0471856567513679,-0.0272302884466036,-0.000328842809966718,-0.00103832195036652,0.0164639750463206,0.0519318046828461,-2.92519752589499,-0.000276352633393675,0
0.47,0.000943498566866599,0.000544111812324873,-0.0471855949542052,-0.0272302885307085,-0.000328843136754409,-0.00103832047143466,0.0164639885119928,0.0519317443085144,-2.92519752811032,-0.000276234726256304,0
0.48,0.000943497519128704,0.000544111812009461,-0.0471855437220974,-0.0272302886135248,-0.00032884336296364,-0.00103831944757141,0.016463999670821,0.0519316942643414,-2.9251975296101,-0.000276154900975295,0
0.49,0.000943496937052095,0.00054411181179567,-0.0471855071780751,-0.0272302886950575,-0.000328843488787016,-0.00103831887869028,0.0164640076495625,0.0519316585733934,-2.92519753062557,-0.000276100857796523,0
0.5,0.000943496471390809,0.000544111811651286,-0.0471854706123501,-0.0272302887762696,-0.000328843589342004,-0.00103831842363218,0.0164640156156146,0.0519316228665809,-2.925197531313,-0.000276064269575836,0
0.51,4.71624519892035,0.00760828209339637,4.18879209225805,-0.360555337486055,-1.90288019086368,4.31533007329848,-2.02591533703965,3.6839715512882,0.416922580357191,128.204871358357,1511.68631424108
0.52,4.57877352379869,0.0535967223774112,11.0637990250687,-2.63471396406612,-4.35544081978623,-1.41356812932004,-9.64012189504329,-6.03468444811019,1.89632814158094,277.501325006675,1511.68631424108
0.53,4.53736161616907,-0.0253850727081408,13.1361740341703,1.32853019823074,4.45393592833146,-0.866458068298146,12.6192248644599,-3.88319772401778,-1.76852873635576,432.717456871737,1511.68631424108
0.54,4.57365723417097,0.0276434383542806,11.3233889907525,-1.31592036313381,-4.27186182604282,-1.63410562527844,-10.0737990902387,-5.33566832997623,1.94219424833465,583.523702961072,1511.68631424108
0.55,4.51720705332994,0.0097234922780276,14.1481994001186,-0.403591486181551,-2.04117481397666,4.02974682675515,-6.77988162539784,12.4244773531456,0.471007957234016,732.278136123282,1511.68631424108
0.56,3.90872328558313,0.0200291627156239,17.7671459202118,-0.906965430973435,-0.300631175680461,3.8971964008538,-2.36116803512813,17.6328938621251,0.0821120797637718,873.98056283363,1511.68631424108
0.57,3.18058246163808,0.0366319226466951,16.9936710567222,-1.71030807544247,-1.88042249469897,2.56543523295106,-11.5712000088437,12.5625371662072,0.644038360523539,989.620441434769,1511.68631424108
0.58,2.6020103920998,0.00860605573265483,15.0557311535267,-0.360367078005587,-2.39058909217831,-1.02743171897149,-13.6692049716871,-6.32121352591333,1.98001768458956,1085.43372322585,1511.68631424108
0.59,1.97741175660246,-0.00724870720196791,21.8613957892743,0.400609555699869,1.42283084285928,-1.37323056749917,15.3950696318255,-15.526523915631,-2.34212275236558,1161.87051749935,1511.68631424108
0.6,1.60441164988679,0.0715419943368133,20.4584193850841,-3.48774874309143,-0.131962663027489,1.60057516374984,-6.0473712860776,19.852974980069,0.126822251656921,1223.67970895913,1511.68631424108
0.61,1.34566247059676,0.0493078901675639,17.1256037396044,-2.38812173798788,-0.230007176096108,-1.32677633825361,0.0609992547172529,-17.2912031962014,3.00656643094656,1274.14596589392,1511.68631424108
0.62,1.07125750703978,-0.0135049676038365,17.6737018031482,0.741734275087615,0.054055357783303,1.06997805997786,1.85443199427876,17.5917874913279,-0.0630831285961824,1315.13573441129,1511.68631424108
0.63,0.783521294918381,0.0181893380059094,21.3831617509583,-0.85448729790015,0.198417355695449,-0.758199857930939,6.71362415667669,-20.3198672656296,-2.86242658513989,1348.29858038124,1511.68631424108
0.64,0.654787517837983,0.0413501437729317,19.2132042078055,-2.0129283423469,-0.460301079117182,0.467524806261685,-15.6582258885118,11.3145507408203,0.840679400352972,1375.27208595278,1511.68631424108
0.65,0.44529944015068,0.073173366075488,22.7353355676566,-3.60834510261751,0.445938050082945,-0.0691750561224751,22.7020452347989,3.81218833620239,-1.56182389649816,1396.97659715866,1511.68631424108
0.66,0.336710960437026,-0.00201305661934514,22.5567369471153,0.149161604875956,-0.210025168670492,-0.263187674104067,-14.290813423406,-17.4528302169913,2.46209063474258,1414.51654067958,1511.68631424108
0.67,0.288373608181203,-0.0103588568213668,20.4442290307469,0.486536731007672,-0.10012079922542,0.270633459447561,-5.93850874189141,19.5687846473595,0.318429564858253,1428.72644296938,1511.68631424108
0.68,0.175003734994633,-0.0550566630902932,22.3744430365007,2.72474642869854,0.181538584648148,0.0264817993470415,21.6548910207499,-6.25345018160105,-1.73074322191085,1440.44329763427,1511.68631424108
0.69,0.183725503912818,0.0280466482576569,18.9226804789281,-1.41117261884334,-0.121477549613034,-0.140658736687489,-8.87044191265811,-16.7742214407089,2.58072256417275,1449.90583010052,1511.68631424108
0.7,0.128597735424908,0.0625002928523197,19.2941101379095,-3.10806288410301,-0.0310470984709527,0.139569845738882,-14.4344252964878,13.1746008389413,0.671280828607414,1457.46913506354,1511.68631424108
0.71,0.0935566666351914,0.0649683432307552,19.1106436067402,-3.21230800751068,0.111044275987555,-0.0253555568749214,16.5307618141398,10.1128401373271,-1.18830865285071,1463.68291982977,1511.68631424108
0.72,0.014992525320571,-0.00522512271452365,21.446421567494,0.230446596529664,0.00719884801605395,-0.014151123987569,2.66327122625735,-21.2816608858405,-3.00635111045309,1468.67977266571,1511.68631424108
0.73,0.0099601136021844,0.0506754403154929,20.4424694459947,-2.5765308051891,-0.00593171275570287,0.0513032055326111,-20.5820115143082,-0.955965514754602,1.4918325905282,1472.8658384957,1511.68631424108
0.74,-0.0288834497348772,-0.00618695972386939,21.3241384792862,0.297493666138451,-0.013539776267135,-0.026252744577432,5.87517876542948,20.5009672659466,-0.265150250951828,1476.33363076199,1511.68631424108
0.75,0.034544643020884,0.0868147814891777,17.296108235908,-4.31966292543353,0.024593671780666,0.0901403902520887,-16.4178762766538,6.94753096157905,0.92573667703317,1479.08726621403,1511.68631424108
0.76,-0.0667792979355721,0.0669532764847625,21.6346312788049,-3.31795307773297,-0.000293817296102422,-0.0945628337995931,13.0294974461939,17.5868780485767,-0.789806208150622,1481.44774027979,1511.68631424108
0.77,-0.0205830144491322,-0.0152641086360508,18.7544463647298,0.716289621572869,-0.000354061064413288,0.0256228050187526,10.8090760990356,-15.3429528825046,-2.4896799239976,1483.32017449384,1511.68631424108
0.78,-0.00110501899567505,-0.0725579823944907,17.3715720014231,3.60813624556224,0.0379540328187996,-0.0618496020110841,-16.7828284828321,-5.75559111499475,2.10596418469893,1484.80273060199,1511.68631424108
0.79,-0.0432125088478576,0.00185461926423724,19.1306499795587,-0.08006666315885,0.0196292809548746,-0.0385415602011134,-8.01599499139172,17.3704347558984,0.428168973503432,1486.02228598268,1511.68631424108
0.8,-0.0761841996446324,0.0212468215481212,20.4699132672061,-1.03027279962059,-0.0652107429153724,-0.0447550970261056,19.0353132947098,7.59839844841164,-1.24129103163784,1487.17366079895,1511.68631424108
0.81,-0.10000067982027,-0.00565150197865223,21.4021881856285,0.23083623862698,-0.0181340025870639,0.0985049916973918,4.83204199271356,-20.8508588476056,-2.90308418601789,1488.01450026928,1511.68631424108
0.82,-0.0189970407521154,-0.0236905768838548,17.1706463475761,1.15530469324696,0.0223867660257577,-0.0205173998678037,-17.1460572607607,-1.47598961326994,1.72385040235687,1488.80423619002,1511.68631424108
0.83,-0.0434573300992032,-0.0445105229467971,18.1948950823414,2.23488379913273,-0.0411937829270895,-0.0466132860942488,0.890636213266729,18.3099885250826,0.0736142867127129,1489.59826777364,1511.68631424108
0.84,-0.0573744845634795,0.0260590675026747,18.7334850116631,-1.27107613364249,-0.0573946528024244,-0.0260146171934754,18.7344639718632,1.25656472442913,-1.57157093062999,1490.22420899067,1511.68631424108
0.85,-0.108285514139169,-0.0187255082050679,21.1976464159584,0.885262793302464,0.0264232020119984,0.106668700307801,-2.39926226759624,-21.0800247713443,3.070001540062,1490.55593539753,1511.68631424108
0.86,-0.0480326081391994,-0.0865001804279109,18.1061226835874,4.29418741794508,0.0355610051521459,-0.0923299928045274,-17.3347975729068,6.76583456196654,1.43154194527021,1490.9463906633,1511.68631424108
0.87,-0.0612198039461546,-0.0121911129713432,18.7408765136834,0.613117662998206,-0.0243827623685288,-0.0574627577650561,4.41041514079228,18.2248348155938,-0.204731596639535,1491.20943179414,1511.68631424108
0.88,-0.0759433380828844,0.0347243661869333,19.394676844157,-1.70647767580536,-0.0824303569273171,-0.0133569630938555,19.1534619292686,-3.49434572865351,-1.83901198347797,1491.65977072731,1511.68631424108
0.89,-0.114085320573098,0.033844482770748,21.2046343173118,-1.7454806840821,0.00479648406542323,0.118902914703115,-5.19323835302236,-20.6328256610218,2.81288580074423,1492.04565743555,1511.68631424108
0.9,-0.0824546413657407,0.00259727962677365,19.6236969568561,-0.168602792611333,0.0773409217950194,-0.0287035809631702,-18.2370607572763,7.24758746698601,1.18393325117373,1492.1099993536,1511.68631424108
0.91,-0.0680908275438625,0.00188093479350182,18.9190015548823,-0.0936647173932371,-0.0275359413360846,-0.0623030548692529,8.038250501278,17.1267020115265,-0.443771152380419,1492.33615422918,1511.68631424108
0.92,-0.106825994715542,-0.0540882759106504,20.814315348707,2.7363132178726,-0.0678647618929812,0.0986494238764759,16.9603714764271,-12.3721030081115,-2.07031558658906,1492.51977107903,1511.68631424108
0.93,-0.170801884087855,0.00730385408683512,23.9517146463933,-0.419421392849293,0.0836331280440929,0.149104425776176,-12.2423257924879,-20.5909205233184,2.58768102638127,1492.72846315042,1511.68631424108
0.94,-0.0626265760497417,0.0204670725646305,18.5550698752918,-1.06327928940241,-0.0575830562926169,0.0320184433581841,13.3931441327198,-12.8858399479594,-2.39413370520246,1492.86180666502,1511.68631424108
0.95,-0.063977189523814,0.0175715386512918,18.6569786079541,-0.880070359375799,0.0378699561790109,0.0544766571013645,-13.7624069496847,-12.627491024205,2.26607910987568,1493.00599011686,1511.68631424108
0.96,-0.0425622081455809,-0.0305345951840477,17.5273081813223,1.56007199795046,0.00119608302959938,-0.0523686208589431,-9.29300218442938,14.9425723060666,0.645151576157562,1493.31666790106,1511.68631424108
0.97,-0.143307910071774,-0.0364662545015399,22.515164467983,1.77282850849022,-0.139043806744328,-0.0503365137107919,19.6226728638331,11.1815142811619,-0.974281755224201,1493.5193322444,1511.68631424108
