t,iq,id,vq,vd,ia,ib,va,vb,theta_e,omega,r
0,0,0,0,0,0,0,0,0,0,0,0
0.01,0.000499791354200411,0.000283270086380344,-0.024316322022038,-0.0141753033766619,-0.000572726438622907,-4.49195511300956e-05,0.0280849636975055,0.00185945062038531,2.16469945291994,-0.00166969282977364,0
0.02,0.000574498222011273,0.00032472827635419,-0.0280274045368674,-0.0162499419907032,-0.00065784138956904,-5.23580626833301e-05,0.0323215671892877,0.00221637411165113,2.16468660946086,-0.00183393093042756,0
0.03,0.000603080172341102,0.000340887385657454,-0.0294379144947894,-0.0170585748431618,-0.000690572446546297,-5.49508875488768e-05,0.03394308882269,0.00233506031126872,2.16467336450185,-0.00183518576183277,0
0.04,0.000589275907826216,0.00033339722693231,-0.0288006190024772,-0.0166837526015181,-0.000674941115394801,-5.34256232550148e-05,0.0332051986636863,0.0022886759271774,2.16466096331384,-0.00169563147748882,0
0.05,0.000603514575535217,0.000341752864728466,-0.0295159523035667,-0.0171018757366844,-0.000691418103546906,-5.44597972927438e-05,0.0340320522397816,0.0023420107702984,2.16464894595396,-0.00165620032485273,0
0.06,0.000604489258288888,0.000342588968832459,-0.0295898959297957,-0.0171437192150876,-0.000692694386080037,-5.43042580792509e-05,0.0341167769572131,0.00234831422805268,2.16463743248794,-0.00157447905826998,0
0.07,0.00061709580735005,0.000350145962125262,-0.0302234974549864,-0.0175218804847918,-0.000707371761120939,-5.50874015569445e-05,0.0348535296766534,0.00238905069296185,2.16462666490653,-0.00153862375115323,0
0.08,0.000604944844744793,0.000343427289051489,-0.0296614296178735,-0.0171856758952313,-0.000693542198882771,-5.38496649702435e-05,0.0341995906425273,0.00235284143867676,2.16461621072069,-0.00141919674165829,0
0.09,0.000603205224058079,0.000342751966635652,-0.0296002990213468,-0.0171518825894459,-0.000691723043448895,-5.34292441024783e-05,0.0341300395666512,0.00234631150832719,2.16460643421638,-0.00134089780871701,0
0.1,0.000602593276666605,0.000342682776236034,-0.0295923348250215,-0.017148418737658,-0.000691177629585467,-5.31378073808628e-05,0.0341215222737267,0.00234441108208789,2.16459719759618,-0.00127050139537581,0
0.11,0.000602123998053094,0.000342674449622979,-0.0295900872751691,-0.0171479944344501,-0.000690784485189931,-5.28761049694155e-05,0.0341194425282573,0.00234320712635607,2.16458846098512,-0.00120429546647638,0
0.12,0.000601691517949331,0.000342672301136072,-0.0295885117100587,-0.0171478901029574,-0.000690425267807772,-5.26302034066642e-05,0.0341180976445831,0.00234213008051981,2.16458019624858,-0.00114170563347435,0
0.13,0.000628030118822873,0.00035786464646385,-0.0308787298699127,-0.017908140870313,-0.000720756058304617,-5.47689670758832e-05,0.0356128495410706,0.0024336013180226,2.16457207885404,-0.00117307880872632,0
0.14,0.000646863146606227,0.000369007290245265,-0.0318845729036829,-0.0184657357695161,-0.000742600196012121,-5.60647801585029e-05,0.0367585174443026,0.00253392621375485,2.16456432364675,-0.00118109077655143,0
0.15,0.000605351347089061,0.000345309346869305,-0.0298195189002753,-0.0172798608085018,-0.000694935294535799,-5.24760408785697e-05,0.0343834559802418,0.00236119712430877,2.16455691357175,-0.000982306122467371,0
0.16,0.000600649111948307,0.00034293178357543,-0.0296079822883022,-0.0171608716208086,-0.000689708020686576,-5.18112928918159e-05,0.0341415686083889,0.00234124388498114,2.16455030473675,-0.000917142901467576,0
0.17,0.000599863602183159,0.000342692364931904,-0.0295845593598273,-0.0171488891942433,-0.000688923324977678,-5.15659820858331e-05,0.0341154652340096,0.00233785905876806,2.16454409525489,-0.000868519658349503,0
0.18,0.000599508501042372,0.000342667420712086,-0.0295811157566546,-0.0171476512098959,-0.000688615345536044,-5.13839462460796e-05,0.0341119321043796,0.00233675833817663,2.16453822556243,-0.000823901639507605,0
0.19,0.00059921386763983,0.000342664035058308,-0.0295798484851274,-0.0171474755805342,-0.000688369527978606,-5.12180929441573e-05,0.0341107964344925,0.00233600552069577,2.16453267328563,-0.000781839006641293,0
0.2,0.000598939385271132,0.000342662858936011,-0.0295788521214828,-0.0171474204513682,-0.000688141631798584,-5.10618909632561e-05,0.0341099520162587,0.00233531462742709,2.16452742085856,-0.00074206306807111,0
0.21,0.000598680211528248,0.000342661949401322,-0.0295779312996098,-0.0171473769594225,-0.000687926557438248,-5.09142299773181e-05,0.0341091760537489,0.00233466603336153,2.16452245204546,-0.000704436501639126,0
0.22,0.000598435124039675,0.000342661109195338,-0.0295770628391042,-0.0171473349196021,-0.000687723182388725,-5.07745787228729e-05,0.0341084436722964,0.00233405468811448,2.16451775152776,-0.000668841782840272,0
0.23,0.000598203191479559,0.000342660316251679,-0.0295762353812368,-0.0171472914213296,-0.000687530723316263,-5.06424241742738e-05,0.0341077438634099,0.0023334761542279,2.16451330481803,-0.000635169045095268,0
0.24,0.000597983889982314,0.00034265956619487,-0.0295754561206399,-0.0171472493736049,-0.000687348744447546,-5.05174671734278e-05,0.0341070842506517,0.00233293157710108,2.1645090982116,-0.000603314493182117,0
0.25,0.000597776299303895,0.000342658856539154,-0.0295747105452636,-0.0171472215729187,-0.000687176482460003,-5.03991857878412e-05,0.0341064599952086,0.00233240178831441,2.16450511874387,-0.000573179951105346,0
0.26,0.000603184897924758,0.00034585437888162,-0.0298444014984746,-0.0173071346314315,-0.000693447403864988,-5.07737190778833e-05,0.0344194694610376,0.00235060247029267,2.16450141254883,-0.000564548805408134,0
0.27,0.000587940838842738,0.000337166260258758,-0.0291173073686061,-0.0168723576440732,-0.000675951744394243,-4.94444768033657e-05,0.0335735790564275,0.00230408988739844,2.16449768358537,-0.000484100704432556,0
0.28,0.00058743427509425,0.000336959002538781,-0.0290255286003771,-0.0168619887147206,-0.000675416085464655,-4.93306035138337e-05,0.0334917127655754,0.00226122753717321,2.16449431411404,-0.000457437456160691,0
0.29,0.000596015904436254,0.000342084967349255,-0.0295220963188829,-0.0171184986082898,-0.000685396978199944,-4.98805122436817e-05,0.034046813131009,0.00232630206240934,2.16449122830436,-0.000464399803906215,0
0.3,0.000590187355300125,0.000338968600230706,-0.0292465815776623,-0.0169625584761332,-0.000678822555647777,-4.92012626092114e-05,0.0337312132037057,0.00230134305162067,2.16448873661,-0.000425762135648826,0
0.31,0.000596061693241117,0.000342285650771181,-0.0295366659755114,-0.0171285468631701,-0.000685547463321773,-4.97361478846204e-05,0.0340645232297167,0.00232594319037219,2.16448592227077,-0.00042533886057955,0
0.32,0.000596557855316734,0.000342617862786785,-0.029566944758393,-0.0171451671547665,-0.00068614470567907,-4.97364806683006e-05,0.0340989248883965,0.00232901278790912,2.16448320116561,-0.000406946639418934,0
0.33,0.000596490733054478,0.000342650766434857,-0.029569706063979,-0.0171468222003035,-0.000686107604278935,-4.96698873451947e-05,0.0341021455669018,0.00232909768210321,2.16448062076556,-0.000387641075015357,0
0.34,0.00059637068692064,0.000342653676414418,-0.0295695890105848,-0.0171469615852056,-0.000686009848815058,-4.95986442078136e-05,0.0341021322040677,0.00232883339801356,2.1644781790369,-0.000369175918208153,0
0.35,0.000596250942701985,0.00034265359951389,-0.0295691779889189,-0.0171469638689997,-0.000685910665830111,-4.95301366172653e-05,0.0341017981701796,0.00232852279900397,2.16447586908106,-0.000351686395580594,0
0.36,0.000596137182769443,0.000342653242954199,-0.0295687643053221,-0.0171469373746747,-0.000685816280228176,-4.94652945134843e-05,0.0341014455393649,0.00232823881945952,2.16447368384591,-0.000335138964296039,0
0.37,0.000596029312891132,0.000342652877156727,-0.0295683585524264,-0.0171469236249349,-0.000685726765558249,-4.94038363518536e-05,0.0341011063359355,0.00232795273779651,2.16447161660313,-0.000319484783266345,0
0.38,0.000595927321986431,0.000342652528228132,-0.0295679755508581,-0.0171469098593476,-0.000685642127596588,-4.93457298646387e-05,0.0341007857211634,0.00232768320439734,2.16446966098263,-0.000304675835665903,0
0.39,0.000595830860809373,0.000342652197827861,-0.0295676124851156,-0.0171468960788411,-0.000685562078119921,-4.92907741164296e-05,0.0341004813760123,0.0023274284377352,2.16446781095734,-0.000290666505270726,0
0.4,0.00059573974365142,0.000342651885216177,-0.0295672739208762,-0.017146866625394,-0.000685486463097091,-4.92388618745363e-05,0.034100188339153,0.00232720377609455,2.16446606082562,-0.00027741361858082,0
0.41,0.000595653352399269,0.000342651589460683,-0.0295669420300998,-0.0171468528192516,-0.000685414769952412,-4.91896443929247e-05,0.0340999093664927,0.0023269731011209,2.16446440519348,-0.00026487633112532,0
0.42,0.000595571734175171,0.00034265130965583,-0.0295666315415236,-0.0171468389996457,-0.000685347037516478,-4.91431452459368e-05,0.0340996479178067,0.00232675745912848,2.16446283895868,-0.000253016003630609,0
0.43,0.0005954944815255,0.000342651044942534,-0.0295663338863671,-0.0171468251678178,-0.000685282927834011,-4.90991338699576e-05,0.0340993969025071,0.00232655189091866,2.16446135729367,-0.000241796083153685,0
0.44,0.000595421198078452,0.000342650794507776,-0.0295660402997373,-0.0171468240649273,-0.000685222112144849,-4.90573860467633e-05,0.0340991561935327,0.0023263407764817,2.16445995563239,-0.000231181990452389,0
0.45,0.000595352036293483,0.000342650557582247,-0.0295657689120486,-0.0171468102082244,-0.000685164716622977,-4.9017984711508e-05,0.0340989265741428,0.00232615523315719,2.16445862965481,-0.000221141013415954,0
0.46,0.000595286716213994,0.000342650333437772,-0.0295655156190614,-0.0171467963403942,-0.000685110509023755,-4.89807710338283e-05,0.0340987117802298,0.00232598226320352,2.16445737527437,-0.000211642206247048,0
0.47,0.000595224888594019,0.000342650121385505,-0.0295652724199492,-0.0171467824624212,-0.000685059199677506,-4.8945547544994e-05,0.0340985051895348,0.00232581725822855,2.1644561886251,-0.000202656294089028,0
0.48,0.000595166378810576,0.000342649920773691,-0.0295650393853607,-0.0171467685747734,-0.00068501064366768,-4.89122145757194e-05,0.0340983068694389,0.00232566013259441,2.16445506604996,-0.000194155582802011,0
0.49,0.000595110906909886,0.000342649730985589,-0.0295648110010651,-0.0171467688662326,-0.000684964608777296,-4.888061364355e-05,0.0340981201944473,0.00232549592253586,2.16445400408912,-0.000186113873613217,0
0.5,0.000595058567136123,0.0003426495514376,-0.0295645998941031,-0.0171467535038688,-0.000684921172969967,-4.88507956939132e-05,0.034097938950319,0.00232535630843094,2.16445299946966,-0.000178506382369003,0
0.51,4.70879019604384,0.0279740322931289,4.56139120945103,-1.39304900126932,-0.472899356902106,4.68506711318876,-1.87019167771108,4.38739767678003,0.106537608438063,33.0907580054498,3826.03722496417
0.52,4.68053936158207,-0.0113110900134353,5.97494576929387,0.581285608128563,-2.20146585352171,4.13051143950169,-2.28388979958761,5.55173101721975,0.487262918267169,70.8350780750822,3826.03722496417
0.53,4.68387292912013,0.0255421555238085,5.80933726681919,-1.25400541879675,-4.26141151282439,1.94414246808739,-5.81262156223899,1.23869271581785,1.14823480592666,109.877319127322,3826.03722496417
0.54,4.66724029586792,0.0126023012384282,6.64206524972669,-0.602220932546198,-4.01706879824726,-2.37622580314205,-5.39961217202391,-3.91457395190778,2.10766643990177,152.219738677876,3826.03722496417
0.55,4.70572089582706,-0.00646956528787967,4.71916471046967,0.362537975226829,1.07056533389519,-4.5823291970962,0.714159539982723,-4.67888079560438,-2.91345509559042,191.372077968036,3826.03722496417
0.56,4.65555752319728,-0.00863408415522282,7.22850466400445,0.482359243317633,4.56143703554512,0.931441125335005,7.18065433940808,0.960288172939755,-1.37122106874554,230.136797940169,3826.03722496417
0.57,4.66380163249768,0.041741422397678,6.81755086395239,-2.03549838900022,-2.06854573040986,4.18018020841625,-4.89444435966081,5.16397791284829,0.468465813731708,270.68910165321,3826.03722496417
0.58,4.66454586838472,0.0208123888591627,6.78167102068786,-0.983928511437991,-2.44944759417119,-3.96971381804834,-2.6957203800275,-6.3001800594239,2.59320415896958,310.148379125464,3826.03722496417
0.59,4.63451878556106,0.0612388218945275,8.28435455523694,-2.99040844919785,4.44665159023761,1.30759481570659,7.0347886022694,5.29951152572475,-1.2715825041817,348.946026640583,3826.03722496417
0.6,4.64072230891153,0.0327719121284626,7.97556108399463,-1.56225538396655,-4.59406465675222,0.65722711160896,-8.11327476048613,-0.47433021211045,1.43576212592334,388.993560430987,3826.03722496417
0.61,4.64772690534197,0.0694637343103948,7.62676986476592,-3.3944344303355,4.44663321948385,-1.35412097258947,8.26858044802195,1.14907834656204,-1.8514567353481,428.781637954535,3826.03722496417
0.62,4.65346715356314,0.0304148391076509,7.3412654118532,-1.43423542432814,-4.60561696721196,0.666313712194431,-7.46841423022288,-0.417130657557314,1.43365492075712,468.241386728486,3826.03722496417
0.63,4.61597673768786,0.0239880759675177,9.21731331343903,-1.10563816382886,4.42307389487041,1.32069451092217,8.49634120620982,3.74078689249686,-1.2754350661875,507.565595829891,3826.03722496417
0.64,4.62063618467515,0.027384701764962,8.98599354682081,-1.26498317580096,-2.45618542339244,-3.91384489203834,-3.65596265851164,-8.30555232950423,2.58707872730292,546.650260596275,3826.03722496417
0.65,4.62586565386179,0.0434500929448077,8.72613589428681,-2.0545469871846,-1.99013728783043,4.17610758167723,-5.67413449640713,6.94051933826227,0.454107397537102,585.621647690506,3826.03722496417
0.66,4.590847291504,0.0857594436693225,10.4787654509517,-4.15972182692021,4.53252438163342,0.734476865521759,9.56876406237292,5.96209404253706,-1.39146854494704,624.817620619296,3826.03722496417
0.67,4.61822302818914,0.057338998670692,9.11171461458274,-2.74888939258958,0.828356343756037,-4.54368765064503,4.44336076658152,-8.41642924334876,-2.94884865279908,664.56086329049,3826.03722496417
0.68,4.56937493162853,0.111000195851531,11.555871896348,-5.41147558844587,-4.0769793042419,-2.0663368704201,-7.61473583541668,-10.2390449498951,2.0641807068295,703.213463594029,3826.03722496417
0.69,4.60047986032339,0.077378905102824,10.0024928628916,-3.739932936338,-4.0223999817205,2.23398765154398,-10.5854242366889,1.4091683965453,1.08064498551817,742.817278935318,3826.03722496417
0.7,4.59517919359391,0.0859647327484014,10.269370628447,-4.13889209110179,-1.64159871465703,4.29280973449223,-7.684338211371,7.9712826508322,0.383953660506082,781.404663290585,3826.03722496417
0.71,4.59627633606023,0.0764292025190476,10.2164635293943,-3.66744223117803,0.196378712521784,4.59271520798898,-3.39951458811041,10.3087128261338,-0.0261057368750125,820.709295009409,3826.03722496417
0.72,4.54550520009228,0.0577136906846019,12.7569963404113,-2.73683891541935,0.738727769118699,4.48544643009938,-0.792785718573905,13.0231614319506,-0.150532885183528,859.915821396059,3826.03722496417
0.73,4.55459895402096,0.107549294751869,12.3043076661826,-5.22620931613081,0.0579725479546357,4.55549971643662,-5.35981478903691,12.2466989996208,0.0108838025132835,898.817684749486,3826.03722496417
0.74,4.54482537726465,0.110835036418823,12.7950759882185,-5.37622148972537,-1.9092675617327,4.12582349269112,-10.4777004054818,9.10140215921904,0.457796878438366,937.607236914889,3826.03722496417
0.75,4.53652932769106,0.0991033668208317,13.2119889011905,-4.78596105229736,-4.17461668107741,1.77834062664792,-14.0443176489374,0.468204757594126,1.18993047945939,976.505414559006,3826.03722496417
0.76,4.5300363915637,0.0650958030195667,13.5388140993658,-3.08380908719017,-3.68265116792627,-2.63885345326971,-9.05863666985238,-10.523804796129,2.20692128977574,1015.44453143027,3826.03722496417
0.77,4.57431448834054,0.119690219466579,11.3270911473169,-5.80325343105521,1.52964902447767,-4.31263871067269,9.48120882656313,-8.49043128655903,-2.77458620221449,1054.28602712808,3826.03722496417
0.78,4.52106422013974,0.110261588435211,13.9918444965466,-5.31082124232436,4.23581775267271,1.58430655703204,11.0005276664389,10.1471634333629,-1.18849614531779,1092.84890745543,3826.03722496417
0.79,4.5046645801413,0.155667688786296,14.8141225038636,-7.56160086451227,-2.71623588247822,3.59698457595379,-15.2036773313484,6.74419964101838,0.681327438332257,1131.47443533885,3826.03722496417
0.8,4.47735119141171,0.0986423600789275,16.1821487594655,-4.73543058731623,-1.44475466674342,-4.23899610277728,-0.366951099721824,-16.8567964990734,2.8351429164001,1170.44934961585,3826.03722496417
0.81,4.5014791357829,0.160792257626658,14.9781438816377,-7.80506837861212,3.89962519753859,2.25434954670378,8.54638920006619,14.567879673269,-1.01093531454781,1208.77935505753,3826.03722496417
0.82,4.50709416451714,0.103960803894441,14.6998876507159,-4.98274117091469,-4.47832103971372,-0.51898585898678,-13.8716662002756,-6.9635682913382,1.70923210541636,1247.60617316377,3826.03722496417
0.83,4.44621833714814,0.14721860357428,17.7461458725246,-7.14793946231849,-2.61149754576403,-3.60147350223477,-4.01398670501706,-18.7057916864761,2.54730521898293,1286.12029526853,3826.03722496417
0.84,4.45978794027111,0.133568366182682,17.0701619767442,-6.4242982279419,2.06100783679936,3.95724597128912,1.64424230819404,18.1647599726989,-0.450223007062456,1324.49763877775,3826.03722496417
0.85,4.49989949863224,0.158588036916201,15.067133688244,-7.6791842275076,-0.265138398723823,-4.4948801199549,7.32011497194146,-15.2448123890384,3.11790216134348,1363.09432117259,3826.03722496417
0.86,4.48676379744488,0.160407056873634,15.7265576996322,-7.77314945028897,-2.71374510785385,3.5766419009395,-15.9680485576598,7.26415134180232,0.684807913177878,1401.60636439293,3826.03722496417
0.87,4.4419444793639,0.140971593199177,17.9701733039178,-6.79856629069235,4.43249128195562,0.322125415371,17.1649543535121,8.6320318710965,-1.4665243810795,1440.04837726504,3826.03722496417
0.88,4.45740098941968,0.154228265470417,17.2000355042077,-7.44856384163991,-1.01360176215145,-4.34336521675452,3.98050353445953,-18.3160562420284,2.94691468856448,1478.40044191994,3826.03722496417
0.89,4.48170630196153,0.176341800785579,15.9874759237774,-8.53426647910996,-4.34399328163417,1.1164722015631,-17.4265030263479,-4.97494552960233,1.35855285636497,1516.69783696275,3826.03722496417
0.9,4.41896980503829,0.143705936566453,19.1270696146955,-6.88971486090086,-0.0827488707172533,4.42053143393864,-7.86004833593462,18.7492027314949,0.0512258054634607,1555.04234829899,3826.03722496417
0.91,4.42394057720894,0.172028823283578,18.881328074847,-8.35088595210923,3.75838514523521,2.33995411211233,10.9429385453767,17.5069683853958,-0.975061577830506,1593.55695653278,3826.03722496417
0.92,4.45673842648146,0.156759536147759,17.2442806879307,-7.54388330326671,4.38330785079189,-0.8207942735155,18.1777540301082,4.88309841784199,-1.72074803213724,1631.64039312318,3826.03722496417
0.93,4.38529260159422,0.120331526461098,20.8194160180968,-5.75642533830303,3.51144710328223,-2.6296406824333,20.3234133848097,-7.317334514711,-2.18614518228522,1670.01125758725,3826.03722496417
0.94,4.45821601189129,0.1625023273027,17.1761662097334,-7.81729094894685,2.98858518540971,-3.3121678104547,17.5726380167462,-6.87990672736775,-2.37107164521154,1708.09756557377,3826.03722496417
0.95,4.3993983704484,0.176149086991981,20.1200251763503,-8.5358405013865,3.23492780604677,-2.98680039715036,20.8517513099592,-6.54831684249443,-2.27631684520105,1746.4190912757,3826.03722496417
0.96,4.41946931592191,0.213085496727422,19.11945828915,-10.3221303378222,-3.65760810667133,-2.48978260121301,-9.05607633038752,-19.7506339513376,2.2166384721479,1784.39587906448,3826.03722496417
0.97,4.3799056582527,0.207469860614684,21.1006856196737,-10.0436845429382,-1.37260108082206,-4.16444277078982,4.02733963092718,-23.0194497830753,2.87053888062155,1822.44821243433,3826.03722496417
0.98,4.40231457886806,0.215209580841201,19.983316526647,-10.4363447228924,2.53627041708633,-3.60472206784557,20.5153099957981,-9.34731439267524,-2.47961023195383,1860.56979864897,3826.03722496417
