t,iq,id,vq,vd,ia,ib,va,vb,theta_e,omega,r
0,0,0,0,0,0,0,0,0,0,0,0
0.01,0.000707395742684934,0.000403255171097669,-0.0343267073360165,-0.0201802856897321,-0.000714908638906392,0.000389780845864428,0.0347028714206339,-0.0195263279244892,1.58974293530929,-0.00186739343665259,0
0.02,0.000808163668141606,0.000459882821675413,-0.0393249418039066,-0.0230141364438731,-0.000816724914620329,0.000444500998890499,0.0397535767880299,-0.0222655486502367,1.58972853359984,-0.00206786929013438,0
0.03,0.000847295898987281,0.000482082311068078,-0.0412401535926738,-0.0241250688591064,-0.000856263388424159,0.00046596856624646,0.0416891256440142,-0.0233406516370376,1.58971350144185,-0.00209817850723643,0
0.04,0.000828118724053341,0.00047137479234711,-0.0403487773685235,-0.023589234023984,-0.000836880581522658,0.000455637694070972,0.0407874464874529,-0.0228223575908827,1.58969919314982,-0.00197415516534879,0
0.05,0.000848460150773997,0.000483138343922919,-0.0413580232151503,-0.0241779270856012,-0.00085743413726637,0.000467026751985677,0.0418073093465854,-0.0233924587767185,1.5896850856305,-0.00195821182379165,0
0.06,0.000850046780264391,0.000484221776754592,-0.0414642572682649,-0.0242321469204607,-0.000859034514256716,0.00046809182970541,0.041914226327163,-0.023445238462831,1.58967134253399,-0.00189329085911165,0
0.07,0.000868759761490436,0.000495193330677206,-0.0423929291892654,-0.0247811980100552,-0.000877944967961818,0.000478719741772392,0.0428527815094907,-0.0239772253807543,1.58965824457729,-0.00187802000826792,0
0.08,0.000851307446489938,0.00048533015082791,-0.0415814659325157,-0.0242876039614132,-0.000860303671492181,0.00046919858969197,0.0420318495840319,-0.023499566715766,1.58964533210359,-0.00176569963749265,0
0.09,0.000849313281438276,0.000484417946146781,-0.0415123176456235,-0.0242419628471506,-0.000858286902477809,0.000468334698278449,0.0419615646080035,-0.0234557535509334,1.58963302224703,-0.00169829614175569,0
0.1,0.000848811346356802,0.000484331873562704,-0.0415139401060799,-0.0242376601328299,-0.000857777888826834,0.000468268255268907,0.041962827960942,-0.0234519180743525,1.58962117765073,-0.00163727880577189,0
0.11,0.000848463779865525,0.00048432211154442,-0.0415220357455198,-0.0242371724995289,-0.000857424858376079,0.000468274818576977,0.0419706454639498,-0.0234517569184821,1.58960977016096,-0.00157888118396637,0
0.12,0.000848142115968795,0.000484319458643607,-0.0415304621226706,-0.0242370370345797,-0.000857098056225049,0.000468287634810171,0.0419788101253846,-0.0234519242023991,1.5895987826343,-0.00152266869015253,0
0.13,0.000885866314044501,0.000506029180544551,-0.0433689544115064,-0.025323462624073,-0.000895218414814526,0.000489294029902622,0.0438371361082939,-0.0245040703525568,1.58958786198205,-0.00156987206191086,0
0.14,0.000913942441851272,0.000522452324610981,-0.0448677792210183,-0.0261453290963949,-0.000923592831661725,0.000505196496238404,0.0453508715156363,-0.0252981085964363,1.58957726820767,-0.00159258140586683,0
0.15,0.000853576031283296,0.000487833311934011,-0.0418610307024516,-0.0244128841158927,-0.000862582075185133,0.000471726133453679,0.0423118752210811,-0.0236228706469656,1.58956698141772,-0.00137721769756842,0
0.16,0.000847548321306954,0.000484636915170375,-0.041591632185579,-0.0242529075110635,-0.000856490998669594,0.000468651539732939,0.0420392994611657,-0.0234683764119958,1.58955752128891,-0.00131323875958984,0
0.17,0.000846733104191169,0.000484340481784788,-0.0415721327316765,-0.0242380741237467,-0.000855666116195165,0.000468378212157885,0.0420193124568779,-0.023454292522684,1.58954845224511,-0.00126535215779878,0
0.18,0.000846425645132538,0.000484311731297369,-0.0415763225661995,-0.0242366523843491,-0.00085535408277892,0.000468362700141377,0.0420232701242231,-0.0234531593819473,1.5895397210945,-0.00122054353069295,0
0.19,0.000846175461796722,0.000484307735655719,-0.0415825665903371,-0.024236445736919,-0.000855099929811778,0.000468370585112641,0.0420293119525863,-0.0234531891859215,1.58953131168654,-0.00117751005254282,0
0.2,0.000845938957359936,0.000484306073811296,-0.04158879391272,-0.0242363540549178,-0.000854859641959259,0.000468380278469339,0.0420353464972282,-0.0234533213393752,1.58952321182321,-0.00113607247857678,0
0.21,0.000845711418586756,0.000484304674784738,-0.041594802311072,-0.0242362941988804,-0.000854628462653514,0.000468389808139402,0.0420411697444217,-0.0234534769770404,1.58951541007782,-0.00109616116369112,0
0.22,0.000845492261715038,0.00048430334571625,-0.0416005878831623,-0.0242362343537761,-0.000854405799491561,0.000468399002013401,0.0420467769392287,-0.0234536248136319,1.58950789547497,-0.00105771888960321,0
0.23,0.000845281368650738,0.000484302067135349,-0.0416061682821448,-0.0242361529107195,-0.000854191529095488,0.00046840785224113,0.0420521850797244,-0.0234537433484409,1.58950065744633,-0.00102069148847114,0
0.24,0.000845078102466418,0.000484300835634249,-0.0416115345846244,-0.0242360930896694,-0.000853985009826672,0.000468416376374282,0.0420573858138504,-0.0234538763798961,1.589493685812,-0.000985026876540078,0
0.25,0.000844882403276308,0.000484299649346596,-0.0416167056746041,-0.0242360332766431,-0.000853786177191313,0.000468424582361162,0.0420623973879813,-0.0234540023486125,1.58948697076794,-0.000950674895649325,0
0.26,0.000852728822781694,0.000488895225578381,-0.0420080717693961,-0.0244660099196146,-0.000861714087307088,0.000472878228017004,0.0424578416662182,-0.0236768962538538,1.58948056702494,-0.000939679499440731,0
0.27,0.000830494557596263,0.000476180607200637,-0.0409524004576398,-0.0238297412563243,-0.00083924319953058,0.000460586618251828,0.0413903191948885,-0.0230607274068166,1.58947415274072,-0.000847133372703016,0
0.28,0.000829754642540965,0.000475832429919176,-0.0408105207913198,-0.0238123106256433,-0.000838494147848104,0.0004602573543199,0.0412480003850248,-0.0230461972747753,1.58946814982565,-0.000814893654362043,0
0.29,0.00084277219477249,0.000483514210860879,-0.0415683593793835,-0.0241967437879915,-0.000851650205285211,0.000467699574752551,0.0420127518340352,-0.0234166520828034,1.58946248338023,-0.000821622896719913,0
0.3,0.00083506651251854,0.00047930575622199,-0.0412084982038512,-0.02398612268004,-0.000843865004366059,0.000463639884698978,0.041648906439226,-0.0232129920056708,1.58945750116679,-0.000775651169282433,0
0.31,0.000843010506971919,0.000483833108727794,-0.0416021874322161,-0.0242126936027634,-0.0008518896082518,0.000468022742309439,0.0420466303777666,-0.0234324007417511,1.58945218470534,-0.000770396954378387,0
0.32,0.000843634981812895,0.000484250097569525,-0.0416434694610454,-0.024233568104207,-0.000852519326225413,0.000468432426233182,0.0420881731192733,-0.0234527195714344,1.58944700350155,-0.000745992871827442,0
0.33,0.000843563733062122,0.000484287781668877,-0.0416508803003095,-0.0242354375013117,-0.000852446452027037,0.000468475691619087,0.042095500347264,-0.0234546607561097,1.58944200720614,-0.00072063466589162,0
0.34,0.000843430550802049,0.00048429049001942,-0.0416549117811284,-0.0242355753208954,-0.00085231108862325,0.000468484984774698,0.0420994208097309,-0.0234549260095524,1.58943719424464,-0.000696032387501835,0
0.35,0.000843296029553624,0.000484289998809256,-0.0416584926248799,-0.0242355516451229,-0.000852174409734115,0.000468490951675577,0.0421028918559366,-0.0234550307756759,1.58943255837071,-0.000672318606820575,0
0.36,0.000843165932067345,0.000484289239547213,-0.0416619144654215,-0.0242355134164153,-0.000852042228742131,0.000468496421523532,0.0421062076571907,-0.0234551168023286,1.5894280931144,-0.000649475981974463,0
0.37,0.000843040607606534,0.00048428848177675,-0.0416652076524334,-0.0242354737284843,-0.000851914896938306,0.000468501662782341,0.0421093986548149,-0.0234551968760512,1.58942379220071,-0.000627473920994032,0
0.38,0.000842919650403585,0.000484287749410961,-0.0416683653782241,-0.0242354541332278,-0.000851792006240787,0.000468506712193465,0.0421124583018066,-0.0234552929232524,1.58941964958139,-0.000606281627892153,0
0.39,0.00084280334812701,0.000484287043730005,-0.0416714150080914,-0.0242354129790325,-0.000851673841565822,0.000468511570755046,0.0421154130463638,-0.0234553630322579,1.5894156594309,-0.00058586931276425,0
0.4,0.000842691411426276,0.000484286363959335,-0.0416743546479568,-0.0242353732754047,-0.000851560110972251,0.000468516247967442,0.04211826129168,-0.02345543047756,1.58941181613729,-0.000566208269924497,0
0.41,0.000842583318115415,0.000484285709167031,-0.0416771702169337,-0.024235353656255,-0.000851450289817617,0.000468520757319558,0.0421209891793133,-0.0234555143770328,1.58940811429569,-0.000547270849027262,0
0.42,0.000842479530486064,0.000484285078438476,-0.0416798965408111,-0.0242353139412188,-0.000851344837859635,0.000468525093816682,0.0421236306590501,-0.0234555741260384,1.58940454869978,-0.000529030417282029,0
0.43,0.00084237946814625,0.000484284470890517,-0.0416825157203444,-0.0242352742223756,-0.000851243172443316,0.000468529271730919,0.0421261680911359,-0.0234556303553723,1.5894011143351,-0.000511461322103417,0
0.44,0.000842282899949116,0.00048428388567234,-0.041685027137954,-0.0242352531254597,-0.000851145060185337,0.000468533298699987,0.0421286010912679,-0.0234557019003884,1.58939780637223,-0.0004945388550434,0
0.45,0.000842189998836585,0.000484283321964659,-0.0416874496532219,-0.0242352334744524,-0.000851050671804198,0.00046853717472055,0.0421309480870165,-0.023455771431361,1.5893946201579,-0.000478239217045886,0
0.46,0.000842100588497162,0.00048428277897778,-0.0416897845731197,-0.0242351937383458,-0.000850959828907139,0.000468540906162995,0.0421332098796966,-0.0234558175837407,1.58939155121238,-0.000462539484975344,0
0.47,0.000842014323057398,0.000484282255950544,-0.0416920242722713,-0.0242351740729445,-0.000850872183645351,0.000468544502433813,0.0421353794907218,-0.0234558808284499,1.58938859521868,-0.00044741757937833,0
0.48,0.000841931317244207,0.000484281752150588,-0.0416941837011462,-0.0242351529438193,-0.000850787848766151,0.000468547964262437,0.0421374713700116,-0.023455939530462,1.58938574801986,-0.000432852233431248,0
0.49,0.000841851569374939,0.000484281266871729,-0.0416962718085956,-0.0242351131905989,-0.000850706820699502,0.000468551294435603,0.0421394940520388,-0.0234559765334043,1.58938300561201,-0.000418822963035427,0
0.5,0.000841774500744814,0.000484280799434023,-0.0416982682836913,-0.0242350935028145,-0.00085062851902215,0.000468554506360595,0.0421414278580353,-0.023456031058874,1.58938036413823,-0.000405310038004892,0
0.51,4.65818219893746,0.0548827468238183,7.09175572056203,-2.74284598058237,-0.351710055746728,4.64520974242105,-3.35107865517534,6.82542856677508,0.0873518465731926,26.9678519399219,2009.89631781678
0.52,4.72122464856265,0.0571452080636093,3.94064181350723,-2.85142646555362,-1.77066986950044,4.37698023416184,-4.15210037490649,2.53364426617522,0.396518570980131,57.4025306814557,2009.89631781678
0.53,4.71334903595573,-0.0207282096561782,4.33547398077222,1.05099958108108,-3.78962538153867,2.80264665290119,-2.84575363126041,3.43549429159091,0.929614113205149,88.1673277664741,2009.89631781678
0.54,4.6955252729269,0.0748993554477344,5.22775341106098,-3.72961644745198,-4.6701925750184,-0.492817222086154,-4.7389798776641,-4.33376444803577,1.69188107119505,120.080777439906,2009.89631781678
0.55,4.65968436294664,0.0504117107920949,7.02091114792427,-2.50323564230374,-2.05160828882707,-4.18402953288938,-0.763305658070136,-7.41463057072335,2.6965189730173,154.388302466624,2009.89631781678
0.56,4.67443122700761,0.0249704927039858,6.28470062666601,-1.22508915334911,3.36747873701907,-3.2420699833986,5.39563121581616,-3.4475308821503,-2.33188101029041,187.353900693364,2009.89631781678
0.57,4.63194397222857,0.0212682956454975,8.41026910287424,-1.03274431277887,3.48226143969483,3.05437597028898,5.61262279469635,6.34804320738235,-0.846172850985749,217.863659950674,2009.89631781678
0.58,4.63926627228742,-0.00849399544638713,8.04539951312519,0.463603196328216,-3.53842265167737,3.00040477789893,-5.8262954236506,5.56755447982225,0.865662824498615,249.854484073547,2009.89631781678
0.59,4.65672949791375,0.0609752140240374,7.17352730511425,-3.01448004540701,-1.52128766726914,-4.40165098876321,0.607443683486646,-7.75742200171996,2.82192062807844,283.075930861825,2009.89631781678
0.6,4.66308108062298,-0.0123970043918282,6.85728384009707,0.668447441309255,4.45638436409338,1.37299572091317,6.75376551379254,1.36228302131237,-1.27458688372284,313.663051999168,2009.89631781678
0.61,4.63263271601344,-0.0210995279535817,8.38106403829995,1.10013141372656,-4.23215342499729,1.8843058294347,-7.18881527108679,4.44673571732592,1.14735693270195,347.046130817528,2009.89631781678
0.62,4.66735985769201,0.0686905194396006,6.64605590765886,-3.37996818760255,2.81494561571079,-3.72357994532765,6.75140255148,-3.16430208178704,-2.47956025438775,377.761052380545,2009.89631781678
0.63,4.66653854478929,0.0715447459692218,6.68853105245322,-3.52623740330758,-1.80356817802877,4.30451419650138,-5.91002910664987,4.71618000320892,0.412103275294044,410.701884856917,2009.89631781678
0.64,4.60479305161694,0.0348681955063182,9.77724195926644,-1.68431076771368,1.73444013077664,-4.26580030850355,5.30648600616235,-8.38287357406037,-2.74784448879455,442.252691204625,2009.89631781678
0.65,4.59790962771456,-0.0246578230132131,10.1229098742001,1.30325354986973,-2.66332630995311,3.74807602905511,-4.75285600371941,9.03228287557106,0.612431887015656,473.761344721496,2009.89631781678
0.66,4.65570935558159,0.0816072716750665,7.23449058795508,-4.01712027140335,4.02949960571661,-2.33354285968137,8.27496775923039,-0.00423389040922162,-2.07819085528238,506.242985649864,2009.89631781678
0.67,4.61621610328063,0.0636894407109851,9.21068486430788,-3.12139291276919,-4.55598206850276,-0.746012632953861,-8.5213992556387,-4.68674344417061,1.74689555792105,538.273702508907,2009.89631781678
0.68,4.59492713062683,0.0586933933313989,10.2767221333674,-2.85681526619149,2.1621128901451,4.05488200820439,2.18122421253344,10.4410091565062,-0.477090252362514,569.624974008194,2009.89631781678
0.69,4.65189707214283,0.0276955640121606,7.42986363491551,-1.29489466698602,2.88247474970278,-3.65133574618973,5.64992101065599,-4.99580007660202,-2.46737648038598,601.123617964755,2009.89631781678
0.7,4.64264602666854,0.0393002663066475,7.89402329174835,-1.87250170560269,-4.11956597865824,-2.14123394036115,-6.09567787500156,-5.35393104292228,2.05860077482295,632.936904225524,2009.89631781678
0.71,4.63787207769213,0.0737711601723638,8.13436025345068,-3.59422477226101,-2.29844237144582,4.0289529977715,-7.23580149842479,5.17005271944556,0.534336641443425,664.775934475074,2009.89631781678
0.72,4.60295532625924,0.0471691743314477,9.88193647759076,-2.25900858013027,3.19596931149547,3.31288436660934,5.14594977293929,8.73355536117034,-0.757190404122885,696.511623825555,2009.89631781678
0.73,4.59427698259071,0.0715091524408455,10.3175949261234,-3.47173838581556,4.43906636955069,-1.18624800036487,10.852062352707,0.859345781436617,-1.81636022331503,728.223087547613,2009.89631781678
0.74,4.61285466363442,0.0762307071083158,9.39045124089096,-3.701817682753,2.13905966830006,-4.08762314847787,7.74186414985275,-6.47669423001566,-2.64295381316097,759.994838766457,2009.89631781678
0.75,4.57478257281262,0.013020532486911,11.2958949957965,-0.547501609042887,-0.449951722106532,-4.55261996772734,-0.53400432237999,-11.2965411145025,3.04592515254012,791.930552501661,2009.89631781678
0.76,4.61823388745259,0.0392981131347394,9.12514312717049,-1.86721677202897,-2.07499133846159,-4.12601981650849,-2.35507386236625,-9.01156826905797,2.68413377966512,823.870734162748,2009.89631781678
0.77,4.60084558003337,0.012550907292822,9.99643692436537,-0.51700921169852,-2.55924192406011,-3.82337787181957,-5.10743757452945,-8.60872412904962,2.55445105756937,855.317226327679,2009.89631781678
0.78,4.56045014254074,0.0264630402315488,12.0180704127278,-1.19748201333561,-2.15148589247887,-4.02113345333906,-4.54898108580643,-11.1881522468422,2.65610660397991,886.620066777527,2009.89631781678
0.79,4.56808992581039,0.0767337254596684,11.638015257294,-3.7315586557554,-0.768663427647514,-4.50360857201317,1.9233175819461,-12.0693321525811,2.9893405548943,918.544537284531,2009.89631781678
0.8,4.55444888119876,0.0970882227268084,12.321961386287,-4.73828547778359,1.74096399519391,-4.20968824283739,9.28970326369201,-9.37995175609516,-2.72813647154179,950.16758233853,2009.89631781678
0.81,4.53370547077994,0.0357737887601571,13.3610763471211,-1.6484363152093,4.22941326823733,-1.63334885012364,13.0832227976338,-3.17253599922426,-1.93144897254014,981.435578742949,2009.89631781678
0.82,4.62943928104201,0.0835629807603273,8.57634940350678,-4.05700630963432,3.68650175189824,2.801498824176,4.2210314990763,8.49682072137864,-0.902919190515645,1013.41479323859,2009.89631781678
0.83,4.57153574796089,0.0816523909667759,11.4736172547369,-3.93492613801845,-1.518650781521,4.31269127246787,-7.69115545882412,9.37942771857948,0.356434954904505,1044.49268042541,2009.89631781678
0.84,4.55304058391412,0.0558463499699561,12.4004081362445,-2.66107113317965,-4.39561218426831,-1.18823015408885,-11.2042802671174,-5.94268670023627,1.84707325857363,1076.34359915861,2009.89631781678
0.85,4.53566357678387,0.106349784520444,13.2713808651044,-5.180703846186,1.77948440723504,-4.17336669882228,10.206719884435,-9.93942209634066,-2.71510156665076,1107.69358885748,2009.89631781678
0.86,4.54145709100564,0.108057575875682,12.9838180300367,-5.25103145663143,3.21646674905013,3.20793556690349,5.17693693782252,13.0135385632597,-0.762936993473818,1139.00577240043,2009.89631781678
0.87,4.54981124482043,0.11274309832408,12.568275028649,-5.50002278513962,-4.48085117707518,0.797161275162127,-13.2536319032693,-3.54302543110548,1.41950902542548,1170.72423248215,2009.89631781678
0.88,4.51726125084899,0.0401796627697344,14.1979365851333,-1.87428349471543,2.846416665598,-3.50787339844642,10.4886090736651,-9.75107284322398,-2.4510225475096,1202.16780602427,2009.89631781678
0.89,4.52024346930296,0.142666402482414,14.0510566316716,-6.96483397263927,-0.723089372337337,4.46431366323942,-9.51970126196851,12.4625997534924,0.192127665825353,1233.27869100066,2009.89631781678
0.9,4.55549748871412,0.0881782124453008,12.2905744462497,-4.23527414518806,-0.434717138137143,-4.53556543075288,3.2873436651405,-12.5773263824616,3.06539227282798,1264.62757137361,2009.89631781678
0.91,4.54111659524031,0.0990210195840886,13.0118480158307,-4.78065354738705,0.617211992627001,4.50006604952014,-3.26269607559292,13.472848675968,-0.114503754224272,1296.07498081382,2009.89631781678
0.92,4.50393597524523,0.107665485682471,14.8731776125637,-5.21565409908786,0.239591376548155,-4.49884730772219,6.34583416505068,-14.4272259539342,-3.06448654379181,1327.47035921186,2009.89631781678
0.93,4.56511795633859,0.0441704375273599,11.8163325821209,-2.03315989493448,4.07064600308442,2.06690447297625,9.5457098542439,7.25526555187699,-1.09128598548596,1358.86041503991,2009.89631781678
0.94,4.54908305696981,0.048802267697849,12.6204099840031,-2.25988240195153,-1.98203319845706,-4.094884945973,-3.33163984938779,-12.3807105025902,2.70153275979294,1390.15378772904,2009.89631781678
0.95,4.51335616979717,0.133142896056446,14.4090947697455,-6.47343735368269,-1.80448781917477,4.13907413036616,-12.0005418495539,10.2720201797245,0.440611785533914,1421.41337038456,2009.89631781678
0.96,4.46129070717396,0.0998082672770741,17.0147732492242,-4.79674147872482,4.45836983348272,-0.189775899483796,17.1080658203574,4.45256346642624,-1.59096852527523,1452.63472328112,2009.89631781678
0.97,4.44259067578638,0.124934992371302,17.9521601521036,-6.04868026775394,-1.22759291417064,-4.2714442875895,1.38636452672594,-18.8929770154766,2.88985425459696,1483.97606408987,2009.89631781678
0.98,4.46436704888342,0.165004975201127,16.8658084169052,-8.09240744863448,-4.27950653678886,1.28203884129094,-18.3585579588694,-3.59247846775704,1.3166718948589,1515.42095176265,2009.89631781678
