t,iq,id,vq,vd,ia,ib,va,vb,theta_e,omega,r
0,0,0,0,0,0,0,0,0,0,0,0
0.01,0.000651631726060689,0.000364573084523894,-0.0308799235318024,-0.0182453128962782,-5.29132767068388e-05,0.000744807106247144,0.00169774398888557,-0.0358270677750952,0.581013999653983,-0.00322357117472825,0
0.02,0.000740747698488818,0.00041341249057762,-0.0353848263337341,-0.020689522029781,-6.09809507371957e-05,0.000846107773176242,0.00212624118546508,-0.0409343542139185,0.580989895737101,-0.0033701487902408,0
0.03,0.000774119438818201,0.000432687876906991,-0.0370905024742494,-0.0216541763942242,-6.31634214556193e-05,0.000884584697227182,0.00225501310436639,-0.0428896682780785,0.580966168424414,-0.00322605410222255,0
0.04,0.000754457022171521,0.000423000308440109,-0.0363136558964934,-0.0211693533273864,-6.04520434838008e-05,0.000862832666096375,0.00223305036583361,-0.0419742374669547,0.58094510572056,-0.00283663590484829,0
0.05,0.000771375048809633,0.000433479858164023,-0.0372275141264852,-0.0216938145795851,-6.09592924929622e-05,0.000882727714540969,0.00229532586937283,-0.0430260488332877,0.580925524757474,-0.00266136279876794,0
0.06,0.000771166689302781,0.000434349546979609,-0.0373344618907385,-0.021737329313471,-6.01021013430302e-05,0.000883031895837152,0.00231686919391158,-0.0431393746766408,0.580907605675294,-0.002417713914252,0
0.07,0.000787204901869017,0.000444494745102436,-0.0381835533418423,-0.0222450620398733,-6.040820585953e-05,0.000902007751970636,0.00235768667207841,-0.0441278579190451,0.580891682944811,-0.00228728943526625,0
0.08,0.000769589460206024,0.000435261827454744,-0.0374614572851698,-0.0217829940445789,-5.84467519931184e-05,0.000882215831234567,0.00234705591577938,-0.0432706706673581,0.580876821183155,-0.00199266409732419,0
0.09,0.000766667754759387,0.000434491151440146,-0.0374114257661253,-0.0217444121650549,-5.74761264864356e-05,0.000879351182265481,0.00235128503261267,-0.043207704138886,0.580863641153646,-0.00179876337071714,0
0.1,0.000765228847994212,0.000434425167472244,-0.0374217496680695,-0.0217411196836526,-5.67312759964507e-05,0.000878112736645842,0.00235919001932394,-0.0432145560635683,0.580851777254674,-0.00163054611092993,0
0.11,0.000764041866185793,0.000434418028198641,-0.0374361783715684,-0.0217407633473249,-5.60765231652788e-05,0.000877117107379829,0.00236694313277856,-0.0432264481793087,0.580841081616459,-0.00147947768622222,0
0.12,0.000762981777269035,0.000434415948543644,-0.0374496582160598,-0.0217406514601296,-5.54881117481376e-05,0.000876230265540009,0.00237401644759837,-0.0432376788497841,0.580831437678401,-0.00134331769570751,0
0.13,0.000797150383945274,0.000454126283092877,-0.0390984254773889,-0.0227270767031172,-5.77505941912242e-05,0.000915611426583575,0.00245364856729009,-0.0451573526569986,0.580822136186036,-0.00139871157299759,0
0.14,0.000822842543837104,0.00046963063038149,-0.040563991249941,-0.0235030032821724,-5.8878325938289e-05,0.000945598288743976,0.00260873985107034,-0.0468083649126578,0.580813641352827,-0.0014200489917503,0
0.15,0.000765873959411579,0.00043734350254424,-0.0377506431368714,-0.02188716449742,-5.46051220957619e-05,0.000880255952302136,0.0024155715754193,-0.0435697606253301,0.580805841958967,-0.0010122134643782,0
0.16,0.000760010023161633,0.000434654585139816,-0.0375187805075368,-0.0217525962239843,-5.36301150370243e-05,0.000873878512409092,0.00240057993852564,-0.0433020963605132,0.58079958386353,-0.000896393672406408,0
0.17,0.000758920429508318,0.000434429868161045,-0.0375043730473636,-0.0217413603475441,-5.3215268959119e-05,0.000872844581712645,0.00240182698529794,-0.0432838997153707,0.580794012479301,-0.000815202328122869,0
0.18,0.000758325702608217,0.000434410384872492,-0.0375093611081486,-0.0217403750703744,-5.29008614937756e-05,0.000872336948990772,0.00240517041691367,-0.0432875413278191,0.580788995430638,-0.000744137453915899,0
0.19,0.000757824832841939,0.000434408063657865,-0.0375154953238311,-0.0217402603558769,-5.26240391548381e-05,0.000871917171264518,0.00240843624505448,-0.0432926176684572,0.580784472234641,-0.00068025705160039,0
0.2,0.000757376641087334,0.000434407239760073,-0.0375211831417558,-0.0217402182941488,-5.23752595914889e-05,0.00087154222995987,0.00241141561566881,-0.0432973596257662,0.580780393786631,-0.000622675215002936,0
0.21,0.00075697286178371,0.000434406602355349,-0.0375263249570792,-0.0217401819676084,-5.21510444196805e-05,0.00087120449850358,0.0024141079386204,-0.0433016473084999,0.580776716310941,-0.000570756141963707,0
0.22,0.000756608630964777,0.000434406036265589,-0.0375309505670264,-0.0217401636021208,-5.19487860637183e-05,0.000870899849822516,0.0024165176442762,-0.043305512424938,0.580773400381581,-0.000523941577157602,0
0.23,0.00075628040520555,0.000434405526442406,-0.037535128065351,-0.0217401285735159,-5.17665213337456e-05,0.000870625315489147,0.00241870950967582,-0.0433089929874051,0.58077041045342,-0.000481729536823407,0
0.24,0.000755984335556905,0.000434405066705022,-0.0375388860408415,-0.0217401100480016,-5.16021151752424e-05,0.000870377676239373,0.00242067011086867,-0.0433121311678478,0.580767714476296,-0.000443667517043925,0
0.25,0.000755717369738481,0.000434404652091584,-0.0375422711869447,-0.0217400914494132,-5.14538714770322e-05,0.00087015437928754,0.00242243767898682,-0.0433149569755572,0.580765283550371,-0.000409347513013477,0
0.26,0.000762938782301232,0.000438603718553613,-0.0378915145555022,-0.0219502372073278,-5.19035645680389e-05,0.000878495775432913,0.00243827268241665,-0.0437222439393723,0.580763194555896,-0.000419387887611677,0
0.27,0.000742077458054003,0.000426738830395838,-0.0369367590434597,-0.0213564521647483,-5.03753496806217e-05,0.000854545087905871,0.00241076696900109,-0.0425982443337863,0.580760893833776,-0.000277559132591919,0
0.28,0.000741319133715641,0.00042634774715612,-0.0367075117745638,-0.0213368763134394,-5.02847316393598e-05,0.000853696611965846,0.00230127897399255,-0.0423958468081322,0.580759114535185,-0.000249451499294578,0
0.29,0.000753620877390828,0.000433732694507802,-0.0374939443522114,-0.0217064561596165,-5.08588205128336e-05,0.000868033327413391,0.00242371580292171,-0.0432561175303881,0.580757718490304,-0.000295826783105249,0
0.3,0.000746754772371494,0.000430171221471019,-0.0371776034120462,-0.021528223570438,-5.00688664019503e-05,0.000860338932316034,0.00239914520343079,-0.0428938539636509,0.580757284994025,-0.000253528547278519,0
0.31,0.000753950992732749,0.000434050737915877,-0.0375204989355122,-0.0217223869087504,-5.07725412271953e-05,0.000868483904045059,0.0024248915415725,-0.0432870631297023,0.5807559910173,-0.000274197319538305,0
0.32,0.000754488942423767,0.000434373517910541,-0.0375537287763528,-0.0217385346703703,-5.07967289432296e-05,0.000869110815506505,0.00242956805533577,-0.0433237075247174,0.580754722962989,-0.000259887118551816,0
0.33,0.000754424682841364,0.000434400211275013,-0.0375582141118227,-0.0217398794393093,-5.07381538344141e-05,0.000869071795297456,0.00243085471914049,-0.0433281981005402,0.580753570230655,-0.000243944168425501,0
0.34,0.000754316333038864,0.000434402272335685,-0.0375599186682825,-0.0217399739139877,-5.06760801489267e-05,0.000868982393032416,0.00243166587120882,-0.0433296775575316,0.580752529965673,-0.000229288195317685,0
0.35,0.000754213771151497,0.000434402298541315,-0.0375612262194008,-0.0217399830465294,-5.06189722394665e-05,0.000868896708028038,0.00243233498070755,-0.0433307780279793,0.580751591893329,-0.000216047231978429,0
0.36,0.000754121079070078,0.000434402169624904,-0.0375623929398805,-0.0217399654386137,-5.05674893871795e-05,0.000868819184807587,0.00243295317353609,-0.04333174586256,0.58075074603908,-0.000204105648990687,0
0.37,0.000754037260038531,0.000434402040675921,-0.0375634299477399,-0.0217399657838947,-5.05209471451445e-05,0.000868749075607783,0.00243348879143699,-0.0433326148994683,0.580749983343184,-0.000193337866265807,0
0.38,0.000753961913839866,0.000434401923340741,-0.0375643734512674,-0.0217399481271811,-5.04791090610287e-05,0.000868686052651712,0.00243399140669518,-0.0433333957034403,0.580749295630506,-0.000183628683128552,0
0.39,0.000753893752669075,0.000434401817447958,-0.0375652098926992,-0.0217399484245649,-5.04412622920496e-05,0.000868629039564033,0.00243442320059984,-0.043334096684547,0.580748675529628,-0.000174874043242664,0
0.4,0.000753832285379275,0.00043440172195468,-0.0375659605698156,-0.0217399487006136,-5.04071324459925e-05,0.000868577625498092,0.00243481059879623,-0.0433347258025967,0.580748116393068,-0.000166980103691513,0
0.41,0.000753776871686198,0.000434401635845568,-0.0375666348119138,-0.0217399489573695,-5.03763638559901e-05,0.00086853127489975,0.00243515845859356,-0.0433352908729394,0.580747612227338,-0.0001598622460477,0
0.42,0.000753727136856253,0.000434401558199217,-0.0375672511344168,-0.0217399297712253,-5.03487469862812e-05,0.000868489674248545,0.00243549294360512,-0.0433357967317528,0.580747157628021,-0.00015344417088958,0
0.43,0.000753682084126799,0.000434401488184486,-0.0375677933376715,-0.0217399299960261,-5.03237314149803e-05,0.000868451989995466,0.0024357724710201,-0.0433362511641643,0.580746747722248,-0.000147657080056163,0
0.44,0.000753641455179565,0.000434401425051162,-0.037568278791682,-0.021739930206626,-5.03011722172857e-05,0.000868418005988602,0.00243602262099563,-0.0433366580454528,0.580746378115456,-0.00014243893918217,0
0.45,0.000753604784353265,0.000434401368123253,-0.0375687115219327,-0.0217399304045173,-5.02808110262297e-05,0.00086838733274388,0.00243624542929193,-0.0433370207515435,0.580746044846431,-0.000137733812727513,0
0.46,0.000753571838817256,0.000434401316790952,-0.037569104535998,-0.0217399305904531,-5.02625175004764e-05,0.00086835977545177,0.00243644787709806,-0.0433373501665324,0.580745744342295,-0.000133491264378329,0
0.47,0.00075354203649493,0.000434401270504354,-0.0375694509473109,-0.0217399307662925,-5.02459699424875e-05,0.000868334847328645,0.002436626045031,-0.0433376405417077,0.58074547338196,-0.000129665816397305,0
0.48,0.000753515144555643,0.000434401228767614,-0.0375697591724026,-0.0217399309327844,-5.02310384981449e-05,0.000868312353592256,0.00243678442433084,-0.0433378989211972,0.580745229060418,-0.000126216462127307,0
0.49,0.000753491137513461,0.000434401191133449,-0.0375700459835706,-0.0217399131259823,-5.02177072815613e-05,0.000868292272823427,0.00243694712246978,-0.0433381294780376,0.580745008759337,-0.000123106226427966,0
0.5,0.000753469367848325,0.000434401157198794,-0.0375702952898597,-0.0217399132765418,-5.02056193162571e-05,0.000868274063559702,0.00243707516890186,-0.0433383384783027,0.580744810117,-0.000120301769319591,0
0.51,4.65821036498962,0.00272685526607727,7.09044821451374,-0.127854741066764,-0.820836621239329,4.58531988867394,-1.37935438397761,6.95616159968384,0.177723140174174,54.8762015362161,1763.04357103374
0.52,4.68822437367233,0.05714495875656,5.59087612393659,-2.84050396372135,-3.35052739303383,3.27973772011369,-6.00479137659606,1.80799312074977,0.808262943532359,117.314105700437,1763.04357103374
0.53,4.66724394085896,0.0186110338072407,6.64110989870506,-0.899847353795927,-4.41438730872032,-1.51548575139227,-5.97704112335314,-3.03134382024826,1.90548285477087,183.044690631033,1763.04357103374
0.54,4.66881538404136,0.00417018394859481,6.5638979108,-0.174418737686914,1.65169087355494,-4.36689497685836,2.49068201953911,-6.07549839577013,-2.7790999772726,251.953877347124,1763.04357103374
0.55,4.62046890339911,0.045151875267488,8.98261686914518,-2.20795618598411,3.02039402696559,3.49685451527354,4.11997182795681,8.28180587033524,-0.702648550021841,314.342948835232,1763.04357103374
0.56,4.62524951574705,0.0384609826980649,8.74511219850893,-1.87397047093414,-4.46004952859298,-1.22571225522387,-7.9013087335884,-4.19023543335724,1.84731073429984,381.805480758042,1763.04357103374
0.57,4.60012099612347,0.0725098376042079,10.0031583023562,-3.55380707725536,4.55109695814084,0.673711609760833,9.29525779300083,5.12746558506301,-1.40806955930804,444.892654451538,1763.04357103374
0.58,4.586611305127,0.0486309593631642,10.6803773042224,-2.35243693454108,-3.98759149655301,-2.26682206870003,-8.04430891701918,-7.40901565250794,2.0983109305066,509.848587385214,1763.04357103374
0.59,4.57608270160228,0.0501942750586635,11.2086358383224,-2.42666657717819,0.983172260833824,4.46949937495008,-0.0877588530423221,11.4679783055529,-0.205556816978596,575.140938129833,1763.04357103374
0.6,4.56956455271995,0.0622665129925037,11.5364193258055,-3.02377796577853,4.0560679238106,-2.10549526657024,11.6669785404721,-2.47261314873742,-2.03597954389185,639.91545784508,1763.04357103374
0.61,4.53947507977201,0.0396908725483405,13.0429032159843,-1.88228919305724,-1.16829256500024,-4.3867415980201,-1.42325326367167,-13.1009422201337,2.89005390386242,704.139786250875,1763.04357103374
0.62,4.58731462442156,0.0981524847936983,10.6529686509781,-4.78900826348438,-4.20334284515784,-1.83983648723561,-7.6517411682586,-8.82446589434286,2.00477451553874,768.125953739285,1763.04357103374
0.63,4.49881889057373,0.115192613823373,15.0798777424843,-5.62953236703979,-4.50021910116247,0.0258609743627292,-14.9651505951093,-5.92778331803071,1.59064927228303,832.640575968693,1763.04357103374
0.64,4.57956425318588,0.0957734721205337,11.0449211152776,-4.67430964513883,-4.5732919429699,-0.258035097199059,-10.6511258888764,-5.5129819880578,1.64806892746834,897.308098786683,1763.04357103374
0.65,4.49272099994606,0.0846329331995088,15.3893683089424,-4.08113635971962,-3.74792582291241,-2.47886198540472,-10.3586127736204,-12.0908011455443,2.1739764716497,960.479395351397,1763.04357103374
0.66,4.47871930964905,0.0797908305953103,16.0918430061601,-3.8596142580467,0.0437234680042906,-4.47921661561662,4.30181948652226,-15.9793110821837,-3.11401789235542,1025.16483348728,1763.04357103374
0.67,4.44050692637302,0.0653351069647461,18.0049577077537,-3.11838153817032,4.42085543021389,-0.422383362027021,18.1974790297367,1.65968745186935,-1.65133816807083,1088.59579601785,1763.04357103374
0.68,4.51475582576682,0.0831404880376645,14.2949692159699,-3.97587843260829,-1.16531261607886,4.36256564579308,-7.76439722591767,12.6438874526219,0.279435372170529,1152.02423350522,1763.04357103374
0.69,4.46697768069062,0.0647384833595192,16.6864590828254,-3.05585807865894,-2.05841726772579,-3.96497150342145,-4.74075346815761,-16.2880766781675,2.67723388234824,1215.79567935553,1763.04357103374
0.7,4.45406402371106,0.141998537777229,17.3348464383327,-6.91700919557261,3.11633217264497,3.18548641525684,6.62528648009635,17.4484238918266,-0.742555033702636,1279.31903114075,1763.04357103374
0.71,4.13902618033934,0.0933998601288992,15.0755087962453,-4.48375192094258,-2.27313161483962,-3.46022165720972,-4.18888146533863,-15.16008802163,2.58292132039282,1340.94182106531,1763.04357103374
0.72,3.5303179199214,0.0847409984424081,18.5695901723385,-4.06130894489166,-0.0945952193276881,3.53006761932623,-4.99881149667333,18.3394600011885,0.0507897660267791,1395.13800824403,1763.04357103374
0.73,3.03575196721091,0.0944221776281045,19.7756169117275,-4.61929700694631,2.55662277747718,-1.63962969225915,19.3418693487957,-6.18910487646651,-2.10995656439976,1442.69634033869,1763.04357103374
0.74,2.66376072177128,0.0812310545692603,17.7126708610126,-3.96047823036232,-1.97773516032254,-1.78627637914793,-10.0338963033264,-15.1243188877328,2.33585809959341,1483.80437023493,1763.04357103374
0.75,2.30150616339327,0.0317119105933625,18.0695419713335,-1.45834580057324,-1.59528294886405,1.65921926775044,-13.739174187656,11.8266737576158,0.779533083785912,1519.30720752449,1763.04357103374
0.76,2.01209319258458,0.0501135979133382,17.0595313967564,-2.44737304379739,1.06399945202851,1.7084892608454,6.54595852999558,15.9426369592988,-0.532094575390652,1550.70741515104,1763.04357103374
0.77,1.74916410209131,0.0224231325672428,16.6403258328277,-1.02870356848109,1.74470520805841,-0.126813208668849,16.6720592522837,0.0333937542133727,-1.63053469734512,1577.60787080719,1763.04357103374
0.78,1.50385412196078,0.045331905311547,17.2106631140246,-2.23374184140024,0.809117827538357,-1.26844808444698,11.5348034928605,-12.9670673561743,-2.54365009840609,1601.35123256047,1763.04357103374
0.79,1.30572404961625,0.0588992312561445,16.8038298299597,-2.8708829630573,-0.257479117726722,-1.28144017305666,0.272779069638606,-17.0451241568075,2.98838144056614,1621.80784785037,1763.04357103374
0.8,1.1086467309516,0.0627125032789315,17.7670026500043,-3.12034231305358,-1.0944996845882,-0.187352268610528,-16.6157094572379,-7.0228995826901,1.79683589510128,1639.81339817881,1763.04357103374
0.81,0.941384712972702,0.0481881355665683,18.3654102494222,-2.34142623759864,-0.89677156490865,0.290392896950613,-18.3450779802588,2.4957332297182,1.30877566448097,1655.29361109501,1763.04357103374
0.82,0.862075461065949,-0.0154584722156725,15.5434899821445,0.801601512508821,-0.699066280932531,0.504697334843836,-11.956413977906,9.9642767223124,0.927554393677708,1668.9271284013,1763.04357103374
0.83,0.74963131565342,0.0263069693841854,15.3437286158384,-1.32217870584851,-0.426010508595938,0.617376880529461,-10.2131671831089,11.5268981281421,0.639084244983059,1680.72346955405,1763.04357103374
0.84,0.630229268997803,0.0325878232840573,16.1373790542528,-1.58131285185092,-0.234161557480749,0.586019848406253,-8.18984514518885,13.9943556326789,0.431805758672116,1691.01110618539,1763.04357103374
0.85,0.509139650274552,0.0473552088061993,17.7357989931875,-2.36592586347377,-0.102688482327251,0.500919928611447,-7.41927936144677,16.282213144257,0.294941830576446,1699.97962205055,1763.04357103374
0.86,0.432239061519734,-0.0242150888673458,17.7725700759526,1.18796037840496,-0.11743459651737,0.416684643793261,-2.69702147852131,17.6068615065179,0.21874171623114,1707.72075688327,1763.04357103374
0.87,0.392004251253323,0.0231842768897181,16.3975891717281,-1.12034905846771,-0.0535000583892058,0.389027746372838,-4.28815163654418,15.8665644737475,0.195739328115584,1714.4604444068,1763.04357103374
0.88,0.32270100382232,0.0412125831951032,16.9375846498687,-2.05736262616572,-0.0298893724754111,0.323946045344857,-5.68845316228638,16.0858949196955,0.21902976048526,1720.34704676589,1763.04357103374
0.89,0.287524684245023,-0.00605265112753108,16.1332850568453,0.273934687128837,-0.0861043166690915,0.274395927970552,-4.24224974448466,15.5679556796536,0.283017253636396,1725.5656154427,1763.04357103374
0.9,0.225785182794863,0.0404025587130487,16.9490911044871,-1.9912251537444,-0.0468423353834573,0.224537549501402,-8.17695247177304,14.979122643048,0.382735588568005,1730.11308913495,1763.04357103374
0.91,0.206948993446345,0.0389151575695102,15.9855283601214,-1.92802582251943,-0.0676839399106684,0.19940200514359,-9.52677426835645,12.9805613347162,0.513103354679445,1733.96091600662,1763.04357103374
0.92,0.177384270008751,-0.0334809882748976,15.7749951915219,1.65950969588528,-0.136403838504167,0.118237678697319,-8.49614870257702,13.3947714779676,0.670064008560673,1737.3702683343,1763.04357103374
0.93,0.105814423716779,0.0317129264339731,17.8592865635257,-1.63032774632207,-0.0586187871257369,0.0936281996271859,-14.4992378289207,10.5538707353726,0.850560426845054,1740.37645509328,1763.04357103374
0.94,0.151116446071451,0.00534442655526501,14.3108529515956,-0.239124000647882,-0.128548349779444,0.0796245247235555,-12.5434287331688,6.89348156636359,1.05157623510442,1742.9944684327,1763.04357103374
0.95,0.102185491981452,0.051311129212075,15.6089132526126,-2.55774737138987,-0.0254352544660385,0.111479839355632,-11.9049336584907,10.414067367286,0.689676102252845,1745.30593746487,1763.04357103374
0.96,0.0665265681156101,-0.0241949403916685,16.4295238687478,1.18649972492634,-0.0676749583846136,0.0207672678375882,-12.3985764213504,10.844922262282,0.924233785959532,1747.24132054434,1763.04357103374
0.97,0.0194873415512346,-0.0197649529495636,17.9818782554846,0.940953549713809,-0.0256344407968268,-0.0106435563073118,-16.2044302791974,7.85173729211685,1.17187109952718,1748.85989930003,1763.04357103374
