t,iq,id,vq,vd,ia,ib,va,vb,theta_e,omega,r
0,0,0,0,0,0,0,0,0,0,0,0
0.01,0.00075531562692221,0.000425944997050592,-0.036461738244528,-0.0213178428944371,-0.00021858057793116,0.000839138467558603,0.0100080280857953,-0.0410335004029428,0.768294552292917,-0.00247244686598534,0
0.02,0.000853098423920216,0.000480257645013657,-0.0413765346086326,-0.0240360878409451,-0.000247457159286044,0.000947200760560982,0.0114678242204611,-0.0464568632450105,0.768275976187021,-0.00262055961449768,0
0.03,0.000890800093042751,0.000501834772851115,-0.0432641962657297,-0.0251159947968912,-0.000258121164283116,0.000989311078254273,0.0120020773598492,-0.0485649463317447,0.768257346863289,-0.00256062347386686,0
0.04,0.000869225097570845,0.000490568002899879,-0.0423171654070164,-0.0245521171108256,-0.000251214880248592,0.000965971179517229,0.0117486938173895,-0.0474922850186608,0.768240395947787,-0.00231309159302174,0
0.05,0.000889401282728427,0.000502587469269676,-0.0433572021759039,-0.0251536687865401,-0.000256575133740709,0.000988836693661702,0.0120380023237958,-0.0486584066117814,0.76822423731554,-0.00221784414871989,0
0.06,0.0008897787318752,0.000503470372905618,-0.0434482608933275,-0.0251978603342787,-0.00025618747838055,0.000989725509427829,0.0120687565873969,-0.0487547808375202,0.768209088589995,-0.0020645252268042,0
0.07,0.00090980810413517,0.000515613605232324,-0.0444700986936454,-0.0258055981759321,-0.000261357955092407,0.00101257108173235,0.0123410294439467,-0.0499120984061367,0.768195243121625,-0.00199238126002351,0
0.08,0.000889211486119939,0.000504424751833811,-0.0435515985467427,-0.025245614572047,-0.000255080207653709,0.000989987618596098,0.0121048963864333,-0.0488626060967966,0.768182044358987,-0.0017865255908696,0
0.09,0.000886597926641333,0.000503596784569291,-0.0434850814053158,-0.025204182118998,-0.00025384778412982,0.000987535775273797,0.0120878876488861,-0.0487861258279694,0.768169994052757,-0.00165450221281403,0
0.1,0.000885487898580144,0.000503533130112117,-0.0434858836482678,-0.0252009926081983,-0.000253111298532695,0.000986696053608951,0.0120901952972896,-0.0487846213758244,0.768158850986953,-0.00153693107432136,0
0.11,0.000884564304346757,0.000503526034131662,-0.0434915831036533,-0.0252006440684338,-0.000252464505880796,0.000986029486802087,0.012093902735896,-0.0487886029615581,0.768148535456222,-0.00142845082336608,0
0.12,0.000883717544395295,0.000503523286331838,-0.0434972547536905,-0.0252005022262412,-0.000251868738049941,0.000985420994775124,0.0120974794512592,-0.0487926989875391,0.768138985095745,-0.00132804586918572,0
0.13,0.000923869269313955,0.000526651259639855,-0.0454567765047211,-0.0263580119976834,-0.000263122727729765,0.00103037003363597,0.0126259894772136,-0.0510063497654113,0.768129672502409,-0.0013716670567751,0
0.14,0.000955894795895388,0.000545710172257713,-0.0471968771321854,-0.027311884845566,-0.000271657132123858,0.00106664748417257,0.0131485003215923,-0.0529207067615423,0.76812098625056,-0.00139361604160882,0
0.15,0.000887271534991564,0.000506628231654083,-0.0437928059775852,-0.025355898331291,-0.0002520790597834,0.0009901409442771,0.0121897819022861,-0.0491135485660717,0.768112835429808,-0.00107341078596738,0
0.16,0.000881252206264121,0.00050374435208674,-0.043539295060731,-0.0252115689612899,-0.000249964267139184,0.000983809782660368,0.0121171132536282,-0.048831024874295,0.768105881661838,-0.000981644513489323,0
0.17,0.000880256174416985,0.000503530177024393,-0.0435226051217175,-0.0252008484657056,-0.000249420008740899,0.000982946199449966,0.0121129160462719,-0.0488116500932756,0.768099490792966,-0.000912972727116667,0
0.18,0.000879698166679574,0.000503513001346318,-0.04352449721182,-0.0251999805963578,-0.000249038865403167,0.000982534401689266,0.0121145661789706,-0.048812479612225,0.768093577675804,-0.000850690362148268,0
0.19,0.000879210467155293,0.000503510456295296,-0.0435276244165422,-0.0251998611093279,-0.00024869648245833,0.00098218322362326,0.0121165575679298,-0.0488147121263664,0.768088103422763,-0.000793130513127062,0
0.2,0.000878761301165677,0.000503509084755094,-0.0435306301664305,-0.0251997939489273,-0.000248380429459877,0.000981860471308746,0.0121184467371235,-0.0488168887418529,0.768083035209207,-0.000739847984629828,0
0.21,0.000878345662790501,0.000503507887304103,-0.0435334211534167,-0.0251997296513411,-0.000248087916945578,0.000981561858155628,0.0121202029692386,-0.0488189083430374,0.768078342898198,-0.000690517980896902,0
0.22,0.000877960932685272,0.00050350678377985,-0.0435360070227753,-0.0251996682184653,-0.00024781715474152,0.00098128545207281,0.0121218316071923,-0.0488207782024697,0.768073998607971,-0.000644846749021838,0
0.23,0.000877604542195039,0.000503505762288048,-0.0435383892700737,-0.0251996247546966,-0.000247566340931932,0.000981029404236288,0.012123321569768,-0.0488225101989439,0.768069976526086,-0.000602562876532603,0
0.24,0.000877274636193664,0.000503504816407983,-0.0435405952475485,-0.0251995841429213,-0.000247334167361427,0.000980792382265682,0.0121247015693969,-0.0488241137896027,0.768066252755039,-0.000563415125157488,0
0.25,0.000876969417748962,0.000503503940530889,-0.0435426464432576,-0.0251995225672216,-0.000247119367536984,0.000980573095687011,0.0121260025871084,-0.0488255881496156,0.768062805169783,-0.000527170894018851,0
0.26,0.00088544202283611,0.000508455608366505,-0.0439616640992304,-0.0254473645348035,-0.00024944104197014,0.000990107998182171,0.012238696397069,-0.0492991945435329,0.768059690079583,-0.000524638440527195,0
0.27,0.000860211818319269,0.000494113134890698,-0.0427739586649659,-0.0247295447460694,-0.000242225477266137,0.000961997391166342,0.0119296945524552,-0.0479462648295483,0.768056492376798,-0.000404859649265791,0
0.28,0.000859075334299017,0.000493520398668973,-0.0425705676830552,-0.0246998738439213,-0.000241859619803601,0.000960768826623661,0.0118096013001454,-0.0477793921884196,0.768053754079308,-0.000372984473434321,0
0.29,0.000874597213093742,0.000502764924370904,-0.0434845236811435,-0.0251625548921797,-0.000245991662394961,0.000978356252272752,0.012111654543435,-0.0487582382033885,0.768051382649799,-0.000402389081160363,0
0.3,0.000867278832548018,0.000498916270086881,-0.0431430985203931,-0.0249699350704886,-0.000243674012128678,0.000970418978460526,0.0120129235787909,-0.0483788618557205,0.768049815595096,-0.00036111803437997,0
0.31,0.000874948373314872,0.000503161995765767,-0.0435191855884169,-0.0251824141247793,-0.000245946383372037,0.0009788856043765,0.0121212697422529,-0.0487970113353933,0.768047661644804,-0.000365620979218393,0
0.32,0.000875391015576892,0.000503474632515559,-0.0435502166790936,-0.0251980657810715,-0.000246027011184609,0.000979421689318236,0.0121314695756283,-0.0488302297541063,0.768045598860119,-0.0003460953213644,0
0.33,0.000875271117060937,0.000503497241007462,-0.0435537113128024,-0.0251992007840401,-0.00024592557668151,0.000979351627760476,0.0121329875035819,-0.0488335550980187,0.768043683610658,-0.000326132333080151,0
0.34,0.000875117922133956,0.000503498493216879,-0.0435549348780995,-0.025199264982009,-0.000245816510159547,0.000979242745004885,0.0121337047602087,-0.0488345012942805,0.768041909977573,-0.000307499923837316,0
0.35,0.000874972759743701,0.000503498201166155,-0.0435559070351573,-0.0251992505818696,-0.000245714263958679,0.000979138534303653,0.0121343103094504,-0.04883521046189,0.768040267857236,-0.00029023750826571,0
0.36,0.000874838191138539,0.00050349782370981,-0.0435567969624817,-0.0251992303269281,-0.000245619558544748,0.000979041853862923,0.0121348688882319,-0.048835854940462,0.7680387475274,-0.000274254465827929,0
0.37,0.000874713517835514,0.000503497466328754,-0.0435576145707991,-0.0251992100397018,-0.000245531823883991,0.000978952276846964,0.0121353827532839,-0.0488364460127331,0.768037339957372,-0.000259456782149011,0
0.38,0.000874598099545758,0.000503497134850295,-0.0435583698176854,-0.0251991868113528,-0.000245450602714795,0.000978869348870651,0.0121358605066547,-0.0488369889212134,0.768036036784709,-0.000245756610828606,0
0.39,0.000874491295994169,0.000503496827895062,-0.0435590696723218,-0.0251991664647128,-0.000245375443584103,0.000978792610390912,0.0121363024239466,-0.0488374928175986,0.768034830265944,-0.000233072556831,0
0.4,0.000874392226555607,0.000503496543686933,-0.0435597061201806,-0.025199166938387,-0.000245305728919087,0.000978721428561281,0.0121366896846443,-0.0488379644862871,0.768033713232844,-0.000221329256949429,0
0.41,0.000874300673410942,0.00050349628054417,-0.0435603016731105,-0.0251991465381567,-0.000245241302072226,0.000978655647205165,0.0121370675940529,-0.0488383912339594,0.76803267904802,-0.000210456937126833,0
0.42,0.00087421569022628,0.000503496036905941,-0.0435608399050434,-0.0251991469578666,-0.000245181500682125,0.000978594586098381,0.0121373944512648,-0.0488387902857082,0.768031721566931,-0.000200390998296955,0
0.43,0.00087413729201275,0.000503495811328137,-0.043561350195909,-0.0251991265111248,-0.000245126330621564,0.000978538256456216,0.0121377203736294,-0.0488391538823706,0.768030835100673,-0.000191071632590136,0
0.44,0.000874064474229183,0.00050349560247205,-0.0435618088338775,-0.0251991268839246,-0.000245075089800508,0.000978485936116357,0.0121379986470686,-0.0488394939924154,0.768030014382074,-0.000182443467978667,0
0.45,0.000873997310093982,0.000503495409099333,-0.0435622439720315,-0.0251991063972375,-0.000245027825184482,0.00097843767809758,0.0121382785709704,-0.0488398019696191,0.768029254534804,-0.000174455239285304,0
0.46,0.000873934853269318,0.00050349523006214,-0.0435626310014703,-0.0251991038194668,-0.00024498387572543,0.000978392802042584,0.0121385149433042,-0.0488400871011274,0.768028551044199,-0.00016705948357993,0
0.47,0.000873877235190258,0.000503495064298329,-0.0435629975425011,-0.0251990832986184,-0.000244943329393496,0.000978351402790519,0.0121387525360432,-0.0488403443973051,0.768027899730371,-0.000160212258173894,0
0.48,0.000873823800557716,0.000503494910824533,-0.0435633302761057,-0.0251990835959983,-0.000244905727848716,0.000978313009273732,0.0121389540269768,-0.0488405912531178,0.768027296723253,-0.000153872879531297,0
0.49,0.000873774207630782,0.000503494768729333,-0.0435636301520237,-0.0251990838777499,-0.000244870830817431,0.000978277375938638,0.0121391348864134,-0.0488408139214494,0.768026738440125,-0.000148003681545559,0
0.5,0.00087372869674496,0.000503494637169568,-0.0435639258600321,-0.0251990633125701,-0.000244838802617053,0.00097824467589004,0.012139329867301,-0.0488410186067218,0.768026221564056,-0.000142569791736733,0
0.51,4.63987155662199,0.0205824229854535,8.00748336951639,-1.02262721398324,-0.542884768312858,4.60804815799701,-1.98723066670378,7.82409551380687,0.121707690977132,37.465571043025,2279.31929035831
0.52,4.64412543159637,-0.0565936509370848,7.79593743064374,2.8495919762516,-2.48330404745343,3.92483182743261,-1.66129623084478,8.13246024810515,0.55194322612771,79.9971762274719,2279.31929035831
0.53,4.63730585754706,0.0585584377151098,8.13818936626226,-2.90364547809933,-4.45082856236968,1.30313461141287,-8.61920204516459,-0.608801550804035,1.29859913994213,124.218036601937,2279.31929035831
0.54,4.65668653166758,0.0282589704498553,7.17048628596866,-1.38432297902072,-3.22063434245264,-3.36348665165179,-3.92194659606664,-6.16040246940983,2.38395597298653,171.797938518364,2279.31929035831
0.55,4.64284966992899,0.0101999930555829,7.86373093196416,-0.467290239925264,2.84663533621039,-3.66780920442387,5.20357834411806,-5.91433823477191,-2.47939052649745,214.950695309116,2279.31929035831
0.56,4.60476602183327,0.0480075762952764,9.76946464703032,-2.35728438033683,3.15316398149715,3.35614835026716,4.88006546517726,8.78545332893753,-0.743799326793441,259.822104240607,2279.31929035831
0.57,4.63220691102476,0.0425778143743165,8.39897997785579,-2.06919015923158,-4.48297798165146,1.1670741848103,-8.65004347499768,0.0340655857632939,1.32530633245085,303.637668251579,2279.31929035831
0.58,4.60827163231804,0.0722014783730935,9.59737031155225,-3.5528600201172,2.44160368875239,-3.90895790688223,8.19473405485061,-6.13014396159531,-2.56760189164604,349.041520115085,2279.31929035831
0.59,4.57557636835523,0.0402623203006693,11.2337726174885,-1.94489426092561,-0.634458302909949,4.53155412843711,-3.57912810501525,10.8245139805677,0.147903927182138,392.842399762518,2279.31929035831
0.6,4.53131910880695,0.0865726138242973,13.4483657857365,-4.24081892657399,0.131627556816377,-4.53023419588766,4.88319576011294,-13.2286615590305,-3.09344240725506,436.534126018708,2279.31929035831
0.61,4.54052887709163,0.0727384074334894,12.9897128864454,-3.53979891343593,-1.15049013273872,4.39295638654537,-6.90130584871881,11.5600516781841,0.272160009072727,480.678219607088,2279.31929035831
0.62,4.55326749899121,0.0814639564343407,12.3547032731274,-3.9667801503845,3.2711497422985,-3.16835298807252,11.7351599777578,-5.53715251956649,-2.32234297514259,524.803761929463,2279.31929035831
0.63,4.56545221645345,0.0912569448284143,11.7473979670784,-4.44751405218892,-4.54423959388143,-0.448963566561339,-11.1394214099256,-5.80474210395497,1.68926105464457,569.086871747331,2279.31929035831
0.64,4.50803251963006,0.0329799626345086,14.6203758249641,-1.5507186271598,1.18685204237628,4.3491179686788,2.24682852199383,14.5296895739919,-0.259092358374758,613.645235207695,2279.31929035831
0.65,4.53327268366681,0.0637733735161485,13.3604570523667,-3.07382694431845,4.29188764929817,-1.46093417834314,13.6565761909265,-1.20339165410619,-1.88482133499019,657.380328184502,2279.31929035831
0.66,4.58159501614114,0.101615665932639,10.9464738066622,-4.93905375092959,-0.321994556824122,-4.57139564475313,4.40651390838701,-11.1714894230673,3.0934474454782,700.77907855203,2279.31929035831
0.67,4.52228904559799,0.0680342120498487,13.9140661119122,-3.28066827749863,-3.91507649402892,-2.26448733974095,-10.2531841486566,-9.96173854943936,2.11022646391538,745.123973603446,2279.31929035831
0.68,4.4773474092584,0.0899585635363804,16.1633950751607,-4.34070978495865,-4.43217964457632,0.640715197689113,-16.5749481273255,-2.31693685054933,1.44732025426652,788.308730764272,2279.31929035831
0.69,4.51610913183994,0.0910349579270882,14.2276030915461,-4.40483374966577,-3.99488494697347,2.10818009541349,-14.6911349374015,2.44904151533354,1.1053746398391,832.349239134253,2279.31929035831
0.7,4.48397285091611,0.0771041623973809,15.8368241250774,-3.71771529936724,-3.92508312808025,2.16925794161771,-15.7325863273891,4.13668138331109,1.08310279461484,876.186707307575,2279.31929035831
0.71,4.44201027128172,0.0861255523344634,17.9374354432642,-4.16149399583218,-4.34548206809014,0.925018084603908,-18.400817561794,-0.692485101784025,1.38044441672341,919.526243348307,2279.31929035831
0.72,4.47639853215813,0.100845416980144,16.2205785564646,-4.85163562756192,-4.11824847099104,-1.75736824485176,-12.7676202612594,-11.1190561574868,1.99665337527614,962.81928192729,2279.31929035831
0.73,4.43012893575135,0.11713800297313,18.5366138696751,-5.660667057913,-1.03910318576292,-4.30813512653204,1.66753069742243,-19.309804418148,2.93135256516512,1006.29601171552,2279.31929035831
0.74,4.42577954032352,0.149801185050164,18.7566963763796,-7.3295853429214,3.74817329622382,-2.35821158424417,19.8958068199163,-3.1134147233275,-2.09854909412597,1049.86952373315,2279.31929035831
0.75,4.49655962047563,0.0718502199735669,15.2203930743507,-3.42119458476265,2.32421886547898,3.84996331670236,4.70031881734202,14.875212292263,-0.527157316612673,1093.35107249796,2279.31929035831
0.76,4.41559478277694,0.151477005262333,19.271349404742,-7.38243083751321,-4.2879732698104,1.06475715832377,-20.3840195609962,-3.22132573442036,1.36169813170599,1136.48301919089,2279.31929035831
0.77,4.39763468432092,0.105716731646624,20.1720474371844,-5.05704203821807,1.72244632223029,-4.04765926321964,12.9467246492796,-16.2747501621395,-2.71522875709698,1179.60695970123,2279.31929035831
0.78,4.42095896153055,0.0651518716990398,19.0087345012025,-3.066981894811,0.906859246327235,4.32743910566908,0.613494743998204,19.2447912298209,-0.191835008103365,1223.11131209454,2279.31929035831
0.79,4.40799187653137,0.126074756946179,19.6599611949688,-6.06023511292268,-2.20014294733262,-3.82173497762575,-3.98127587572199,-20.1839036415896,2.64783194531354,1265.91703308405,2279.31929035831
0.8,4.40073573580973,0.115766935273971,20.0257244193637,-5.57482967066932,2.13297822890775,3.85101037063536,4.29271548775233,20.339148411831,-0.479513159552895,1309.25980154032,2279.31929035831
0.81,4.38932826033463,0.070495561127458,20.5991590374432,-3.32338673530249,-3.53038270452394,-2.60913207038455,-14.349321121162,-15.1481759893406,2.22331231527486,1352.2960069664,2279.31929035831
0.82,4.39823481676495,0.15910505617635,20.1568713609721,-7.68806258658758,1.34136562029745,4.19172067234785,-1.95686282990052,21.4843305053478,-0.27354720638366,1395.05339947601,2279.31929035831
0.83,4.40632700633594,0.166858320002597,19.7553437083875,-8.07027797850477,2.66270412016291,-3.51476402539161,18.760490362158,-10.1708894919886,-2.45541011510529,1437.97258145419,2279.31929035831
0.84,4.40732624953737,0.137839335266046,19.7084835395935,-6.61220260109364,-4.12861576818326,-1.54856584971912,-15.7132207308128,-13.6102990758136,1.96090297492785,1480.92584981734,2279.31929035831
0.85,4.31703556066507,0.171657849033457,24.2262382048309,-8.29954546287505,-1.55724325576576,4.03004415503771,-17.239668256478,18.9363911782082,0.408476887933391,1523.75582684985,2279.31929035831
0.86,4.34690958524093,0.14030914524372,22.7357647173915,-6.71992710691595,3.30308400670277,2.82930126412209,12.2471379550146,20.2997544201325,-0.830237416303725,1566.65918662986,2279.31929035831
0.87,4.35050513319369,0.0945718988935114,22.559238295902,-4.49430433875111,4.25969197098225,-0.88930482420504,23.0007489211783,0.289055436768925,-1.75487747213358,1609.6672323824,2279.31929035831
0.88,4.3679869195797,0.168081068661885,21.6884825457042,-8.13250817306337,2.93795848182651,-3.23665891535169,20.990925311024,-9.79331501113228,-2.36607110692274,1652.27603596818,2279.31929035831
0.89,4.29353390743517,0.149489079419356,25.4144287902527,-7.15854589398715,1.8407163236293,-3.8818222286815,18.0390230671712,-19.2803427571506,-2.66400325525059,1694.90540771007,2279.31929035831
0.9,4.35308378832572,0.1658795892108,22.4403335749559,-8.02711224213402,1.91302980569762,-3.91371581349661,17.6873645408493,-15.9737358655456,-2.64885618907971,1737.7637793238,2279.31929035831
0.91,4.24594695339498,0.177149109748987,27.800633029657,-8.53281104736329,2.98483509413903,-3.02493087506558,26.1529786997027,-12.7163582189461,-2.32116841352207,1780.21567456239,2279.31929035831
0.92,4.24170293769209,0.139303478331992,25.7811028626938,-6.6558705999193,4.20054456875217,-0.605701739000076,26.3573884394592,3.77544075720029,-1.68117561394062,1822.7730016726,2279.31929035831
0.93,3.85593574152318,0.105849675097102,25.6802097612433,-5.0468531573676,2.66814856017067,2.78575445029407,13.5081616235618,22.4159200062192,-0.736393678020885,1862.98524116991,2279.31929035831
0.94,3.48835590640729,0.110104090086961,26.3242648813241,-5.30229761694694,1.06730802088907,3.32289082411179,2.15863612813584,26.7660525970323,-0.27923702473426,1899.56153983161,2279.31929035831
0.95,3.14565023007604,0.0859882025547487,27.2699555473901,-4.11930425839588,-2.90334881369876,1.213703014312,-26.9223634015421,5.98376904677808,1.20216817312316,1932.79275846286,2279.31929035831
0.96,2.85016515381585,0.16877014264285,27.2963108610731,-8.25573480820024,-0.800561873528143,-2.74062501114744,1.9560441653395,-28.4503011420074,2.9165358224674,1963.11346968735,2279.31929035831
0.97,2.57831306142366,0.145088213798041,27.4638912352559,-7.10773984686984,2.57519489796875,0.192665694836022,26.3012897069171,10.6314367451235,-1.43990623504845,1990.76488918072,2279.31929035831
0.98,2.32472173787213,0.146220205255464,27.8894322932172,-7.19936202901171,-1.34912909105112,1.8988317994598,-23.1442553869956,17.1462733514967,0.680556612277615,2016.01767637409,2279.31929035831
