t,iq,id,vq,vd,ia,ib,va,vb,theta_e,omega,r
0,0,0,0,0,0,0,0,0,0,0,0
0.01,0.000497136405159535,0.000278095743940425,-0.0243115170296981,-0.0139174623928572,-8.16308659306928e-05,0.000563753713832671,0.00373981311801028,-0.0277625542337922,0.653827194929689,-0.00137208489973655,0
0.02,0.000565293130022404,0.000315436313477269,-0.0277332924021431,-0.0157862056259267,-9.34396546915978e-05,0.000640566484950447,0.00433737386436638,-0.0316152966692947,0.653816935655285,-0.00143416562371969,0
0.03,0.000590793561927263,0.000330168906915837,-0.0290187822467117,-0.0165235052295439,-9.72485192994549e-05,0.000669769561418526,0.00453365641064839,-0.0330841640018759,0.653806840810048,-0.0013721622283439,0
0.04,0.000575773494597116,0.00032277898367556,-0.028332533923465,-0.0161536686023005,-9.39732044357201e-05,0.000653353217051301,0.00440954891423645,-0.0323145380008782,0.65379788498532,-0.00120567731506055,0
0.05,0.000588673711445877,0.000330779276477272,-0.028998128159478,-0.0165540487817669,-9.54631557261288e-05,0.000668459762583433,0.00449627805381278,-0.0330864239754832,0.65378956488658,-0.0011305365882656,0
0.06,0.000588507252965589,0.000331447000397908,-0.0290262546959772,-0.0165874713622919,-9.48267982988049e-05,0.000668734460896306,0.00448660216214941,-0.033129112105657,0.65378195567361,-0.00102638453380468,0
0.07,0.000600712507699553,0.000339177450062291,-0.0296506577242829,-0.0169743407001347,-9.61089827407991e-05,0.000683125115168497,0.00455903807974204,-0.033860078521384,0.653775199218716,-0.000970486792370697,0
0.08,0.000587286155169451,0.000332146709448453,-0.0290291060953435,-0.0166224848532495,-9.35199877118214e-05,0.000668191945887955,0.00446011007718689,-0.0331527287186228,0.6537688963954,-0.000844863076059501,0
0.09,0.00058504335613174,0.00033155695088996,-0.0289468413190241,-0.016592961221542,-9.26203852857732e-05,0.00066605345466175,0.00443332915751688,-0.0330694961713883,0.653763311067114,-0.000762132541393212,0
0.1,0.000583936644881373,0.000331506380431267,-0.0289170348925575,-0.0165904425564656,-9.19841090052936e-05,0.000665144652833094,0.0044170348474796,-0.0330443262051585,0.653758287071733,-0.000690414204268519,0
0.11,0.000583024506929362,0.000331501054564516,-0.0288943009453853,-0.0165901681174694,-9.14305908549198e-05,0.000664417769113328,0.00440327702207672,-0.0330261329367403,0.653753760967044,-0.00062605408420086,0
0.12,0.00058221040720108,0.000331499622738304,-0.0288741923502695,-0.0165900967409246,-9.09339090587982e-05,0.000663771031540373,0.00439096960579117,-0.0330101451022957,0.653749682757757,-0.000568086197824609,0
0.13,0.00060826738986129,0.000346531855570512,-0.0301573435125729,-0.0173423903147269,-9.48454629816519e-05,0.000693597781603722,0.00457402707965899,-0.0344862602472086,0.653745750432548,-0.000591682437592166,0
0.14,0.000627815978730087,0.000358332639676232,-0.0311918892272741,-0.0179329750039496,-9.73640451779558e-05,0.00071629283572624,0.00473425977406191,-0.0356666837602057,0.653742160853361,-0.000600674033243133,0
0.15,0.00058442444555531,0.000333742580279765,-0.0290330693623048,-0.0167023533987669,-9.04927218431757e-05,0.000666893627010965,0.00439812392165341,-0.0332045814854439,0.653738866986317,-0.000427300938009219,0
0.16,0.000579933177148326,0.000331683961257158,-0.028827665832066,-0.0165993230406981,-8.9393735245794e-05,0.000662076657352754,0.0043549060845458,-0.0329788816628081,0.653736228701691,-0.000378058943374564,0
0.17,0.000579097216289118,0.000331511103183409,-0.0287982541852582,-0.0165906760999465,-8.90210060307915e-05,0.000661308141438582,0.00434380596628957,-0.0329502856937433,0.65373388204415,-0.000343615340603828,0
0.18,0.000578642057123061,0.000331496124131467,-0.0287862031197965,-0.0165899264768649,-8.87546938502838e-05,0.000660937905483817,0.00433700256146421,-0.0329402726057909,0.653731770407287,-0.000313500696339014,0
0.19,0.000578259541731418,0.000331494408802631,-0.0287766814219779,-0.0165898387800026,-8.85221708162002e-05,0.000660633382402693,0.00433121887543722,-0.0329326689999693,0.653729867962757,-0.000286451108390385,0
0.2,0.00057791748071589,0.000331493849089955,-0.0287682268286258,-0.0165898063122317,-8.83134582315897e-05,0.000660361658181827,0.00432604653431594,-0.0329259452365997,0.653728153773719,-0.000262085781733395,0
0.21,0.000577609429377142,0.000331493427160165,-0.0287606151773107,-0.0165897933826255,-8.81254321066295e-05,0.000660116999759739,0.00432137692400862,-0.0329199017516184,0.653726609191667,-0.000240131936878958,0
0.22,0.000577331978868573,0.00033149305378587,-0.0287537612014493,-0.0165897651712189,-8.79560788643527e-05,0.000659896648516563,0.0043171852721031,-0.0329144497598318,0.653725217433266,-0.000220350310270232,0
0.23,0.000577081902359647,0.000331492717852398,-0.0287475800214411,-0.0165897521288624,-8.78034347636103e-05,0.000659698037638366,0.00431339528412524,-0.0329095404694314,0.65372396337795,-0.000202525917083887,0
0.24,0.00057685656410495,0.000331492415141075,-0.0287420086921102,-0.0165897375791458,-8.76658910858753e-05,0.000659519073558264,0.0043099814659853,-0.032905113833037,0.653722833401009,-0.000186465099644026,0
0.25,0.000576653519385725,0.000331492142332118,-0.0287369870254548,-0.0165897244369835,-8.75419554948268e-05,0.000659357814753129,0.00430690449351087,-0.0329011238999518,0.653721815225836,-0.000171993366299197,0
0.26,0.000582160175002012,0.000334693730771923,-0.0290083504501613,-0.0167499479256177,-8.83487157125393e-05,0.000665676248042806,0.00434471425715978,-0.0332139821366531,0.653720941667385,-0.000176400430036362,0
0.27,0.000566273643808119,0.000325657241217101,-0.0282420057574432,-0.0162977102608726,-8.58601903372583e-05,0.000647569692113604,0.00423763304878856,-0.0323306157549562,0.653719976862086,-0.000116210005837214,0
0.28,0.000565700806511853,0.000325362319992827,-0.0281522260259417,-0.0162829603237876,-8.57454583665846e-05,0.000646935667689439,0.00419471899484713,-0.0322503792175537,0.653719233269843,-0.000104383949428615,0
0.29,0.000575054187126469,0.000330978334699026,-0.0286743742260654,-0.0165640115691272,-8.69751224382293e-05,0.000657776028940459,0.00428913449490249,-0.0328357966524837,0.653718651821782,-0.000124162407497205,0
0.3,0.000569798703699744,0.000328252421553762,-0.0284201620026483,-0.0164275936442077,-8.59428324203208e-05,0.000651946350974825,0.00424282394649838,-0.0325510351011302,0.653718479262721,-0.000106247720336237,0
0.31,0.000575306455605363,0.000331220039231771,-0.0286899890736293,-0.0165761035526667,-8.69361971566965e-05,0.000658123339408225,0.0042890081965404,-0.0328555488574412,0.653717939644307,-0.000115207293083692,0
0.32,0.000575721838946741,0.00033146827551459,-0.028712651831191,-0.0165885346610554,-8.6991403478432e-05,0.000658604091418878,0.00429290479423463,-0.0328811013472461,0.653717410096694,-0.000109223639571037,0
0.33,0.000575674326221664,0.000331488933777893,-0.0287126216934972,-0.0165895600680206,-8.69457930042558e-05,0.000658578979445011,0.0042920566471126,-0.0328817030809282,0.653716928923762,-0.000102527708854602,0
0.34,0.000575592195307689,0.000331490557126962,-0.0287106865448947,-0.0165896476769717,-8.68942713954805e-05,0.000658514806486625,0.0042907959890265,-0.0328802220446548,0.653716494986052,-9.63732592710305e-05,0
0.35,0.000575514604503762,0.000331490597842402,-0.0287087675805251,-0.0165896552443477,-8.68467954558798e-05,0.000658453271367133,0.00428961012435857,-0.0328787049942652,0.653716103948113,-9.08165113822322e-05,0
0.36,0.000575444447873439,0.000331490515512083,-0.0287070253824522,-0.0165896417967482,-8.68039637332733e-05,0.000658397559490485,0.00428854971380748,-0.0328773153193105,0.653715751597087,-8.58085153945306e-05,0
0.37,0.000575381117938461,0.000331490431361988,-0.028705448398571,-0.016589642051264,-8.6765308032179e-05,0.000658347262686457,0.00428758004656625,-0.0328760649788927,0.65371543410791,-8.12959221946114e-05,0
0.38,0.000575324016223192,0.000331490354700372,-0.0287040240694475,-0.016589642288607,-8.6730454725754e-05,0.000658301911835007,0.00428670426187995,-0.0328749356746829,0.653715148031708,-7.72298035200384e-05,0
0.39,0.000575272777082512,0.000331490285550625,-0.0287027498197706,-0.0165896287945708,-8.66991793775919e-05,0.000658261216966268,0.0042859315779589,-0.0328739170356538,0.653714890260225,-7.35659925746489e-05,0
0.4,0.000575226385576836,0.000331490223233974,-0.0287015890662176,-0.0165896290034752,-8.66708634515736e-05,0.000658224372225808,0.00428521787662811,-0.032872996716892,0.653714657993296,-7.02646851169497e-05,0
0.41,0.000575184650684026,0.000331490167080529,-0.0287005449974857,-0.0165896291994374,-8.66453896448242e-05,0.000658191225789951,0.00428457590204461,-0.032872168919424,0.653714448707197,-6.72900145161198e-05,0
0.42,0.000575146990327473,0.000331490116481043,-0.0286996000138403,-0.0165896293840694,-8.66224029563336e-05,0.00065816131541852,0.00428399487498519,-0.0328714196828537,0.653714260128167,-6.46096627846906e-05,0
0.43,0.000575113113467255,0.000331490070886436,-0.0286987499169361,-0.0165896281029929,-8.66017254773254e-05,0.000658134409921442,0.00428347332937269,-0.0328707447987873,0.653714090207613,-6.21945095239579e-05,0
0.44,0.000575082654461351,0.000331490029802101,-0.0286979857417189,-0.0165896145569835,-8.65831340212465e-05,0.000658110218902252,0.00428301432520303,-0.0328701305910288,0.653713937099283,-6.00183155545441e-05,0
0.45,0.000575055122237782,0.000331489992781699,-0.0286972913463775,-0.016589614714095,-8.65663292053325e-05,0.000658088352407361,0.00428258737703819,-0.0328695800450663,0.65371379913968,-5.8057437846377e-05,0
0.46,0.000575030325774272,0.000331489959423211,-0.0286966647541266,-0.0165896148635291,-8.65511941924822e-05,0.000658068658684124,0.00428220211746061,-0.0328690832600511,0.653713674830089,-5.62905726483111e-05,0
0.47,0.000575007974032517,0.00033148992936477,-0.0286960982414884,-0.0165896150060907,-8.65375513880547e-05,0.000658050906595379,0.0042818538044584,-0.0328686341111508,0.653713562820042,-5.46985240387741e-05,0
0.48,0.000574987892389533,0.000331489902279893,-0.0286955892221555,-0.0165896151422857,-8.65252940539546e-05,0.00065803495742777,0.00428154082475473,-0.0328682305508191,0.653713461892267,-5.32639953741795e-05,0
0.49,0.000574969731599357,0.000331489877874394,-0.0286951257923764,-0.0165896152730955,-8.65142093115546e-05,0.000658020533855756,0.004281255902391,-0.0328678631347989,0.653713370950733,-5.19714013676516e-05,0
0.5,0.000574953375246666,0.000331489855883314,-0.0286947070974635,-0.0165896153988482,-8.65042259232999e-05,0.00065800754339026,0.00428099848482903,-0.0328675311890597,0.65371328900697,-5.08066987674498e-05,0
0.51,4.67848362960157,-0.00514952775472935,6.0767977441743,0.267585045718945,-0.462303304382913,4.65558924786569,-0.327516394900979,6.07386249361684,0.0978755528429156,30.392019678546,2989.25624270277
0.52,4.64943057969263,-0.0147861325092139,7.53058986619716,0.762242805145024,-2.02686579867892,4.18440418449762,-2.57423291622018,7.11787346894529,0.447898178573505,65.2456690473281,2989.25624270277
0.53,4.65662674859981,0.0344792196557888,7.17199982107801,-1.69093362369948,-4.04580112070121,2.30583060611488,-7.08355617965412,2.02979550767668,1.0601834944465,102.496448731273,2989.25624270277
0.54,4.66348770109907,0.0314851520110366,6.83034741301222,-1.53441787641436,-4.34009238791908,-1.70666543804764,-5.76836761806466,-3.96661304197494,1.95220639894765,139.928461909715,2989.25624270277
0.55,4.60839164696608,0.0182258469693221,9.58657982987896,-0.85171217079035,-0.186789575818539,-4.60464063827895,0.500463048597677,-9.61131953446055,3.10500428216173,175.056133498572,2989.25624270277
0.56,4.63663584683506,0.00998015121086127,8.17588984052255,-0.433451723156204,4.5555260490255,-0.863524172345045,8.11591600999921,-1.07933423892023,-1.75597659459291,211.938225025169,2989.25624270277
0.57,4.6372043374252,0.0489377915426525,8.14910944651998,-2.37974529747348,0.37676522313222,4.6221322937703,-1.79746955233404,8.29700401715224,-0.0707805684781725,248.575330127969,2989.25624270277
0.58,4.57014482744071,0.0266065651377225,11.503791244503,-1.25507939441334,-4.36144160685292,-1.36556170241544,-10.5760900031256,-4.69667515687116,1.88004829335004,284.545515207817,2989.25624270277
0.59,4.59613607529458,0.0480219340993651,10.2060399748817,-2.31681759479304,3.72188481316393,-2.69709962113353,9.66617506211724,-4.01197649605884,-2.18743342494833,320.51581023769,2989.25624270277
0.6,4.55169380475239,0.0763178606869173,12.4300783777199,-3.72406448678185,-1.23876834900036,4.38054721303127,-7.14852527994745,10.8293162803531,0.292357939659208,356.551578792072,2989.25624270277
0.61,4.55712345955918,0.0915456766412976,12.1606144589027,-4.46850345701929,-0.573435982988532,-4.52182772891563,3.15610692038743,-12.5653116264798,3.03553667311621,392.254209408089,2989.25624270277
0.62,4.54787157907912,0.0804191468529454,12.6253171986455,-3.88391606460512,1.16924459792854,4.39573318221103,-0.741264308973226,13.1884026928038,-0.24229457477046,427.64845818347,2989.25624270277
0.63,4.50628860886169,0.0686244013405664,14.7067035232021,-3.31280313878121,-0.591261196791366,-4.46785815934042,1.58321802074205,-14.9918382413392,3.02524797194227,463.870725225144,2989.25624270277
0.64,4.53096411602522,0.0438664750033051,13.4752094979889,-2.0317937255512,-1.17241420931666,4.37687160082745,-5.56989768900262,12.4372704598687,0.27140276482,499.068678210126,2989.25624270277
0.65,4.51501934444954,0.0593573369949367,14.2748764748951,-2.81812116589661,3.55711591847719,-2.78133948246612,13.0665051065061,-6.40158961359113,-2.22126227657952,534.954005475901,2989.25624270277
0.66,4.46187858973317,0.086234564780705,16.9344437995227,-4.16805344396432,-4.33556431764507,-1.05767622514879,-15.3054337538971,-8.36012882173488,1.82940070731611,570.548341403433,2989.25624270277
0.67,4.43580623781291,0.0882130221779315,18.2406635435129,-4.26109209248256,0.720070736802646,4.37785982538297,-1.61551778950196,18.6619617028881,-0.143136476270789,605.923308288382,2989.25624270277
0.68,4.44986115117981,0.0983004013535353,17.5405518746731,-4.75669788034167,4.24244150404374,-1.34633477205807,18.1702988716378,-0.370639593545372,-1.85600563953793,641.329338977393,2989.25624270277
0.69,4.46693675584863,0.0881345449048564,16.6894826018652,-4.2330263338704,-0.833642469251182,-4.38934299323006,1.38343836087399,-17.1622679084923,2.97363172604673,676.667558935191,2989.25624270277
0.7,4.44943334545607,0.116050633629833,17.5674994879685,-5.59931345487023,-4.3776108884593,-0.80464138252073,-16.0338857980866,-9.1040570977768,1.77865182438375,711.713660662926,2989.25624270277
0.71,4.4094987921221,0.169453421206955,19.5671417293858,-8.24108162098682,-3.17486892038726,3.06473512689825,-20.0812221726789,6.89441642150704,0.841457376071419,746.805940909638,2989.25624270277
0.72,4.43871147518013,0.0880486043654716,18.1095490244986,-4.19526427539771,-0.629370162028645,4.39474746894227,-7.06257956820576,17.1952312590994,0.162076397903992,782.093368743239,2989.25624270277
0.73,4.37838947662491,0.147704684360452,21.128699788117,-7.14388382923134,1.26972026699295,4.19284170061179,-1.46466919852244,22.2556009813446,-0.260329391972272,817.041128435044,2989.25624270277
0.74,4.38273816625389,0.172011051085669,20.9144015905577,-8.34865248316065,1.96673786772956,3.92044943791814,1.03433531223602,22.4953849186354,-0.425748526452073,851.970524613594,2989.25624270277
0.75,4.41271003902569,0.101114268162569,19.4190330123536,-4.80912529756692,1.54556011975357,4.13442594563883,1.83923700634765,19.9209371390268,-0.334831590671924,887.020108648616,2989.25624270277
0.76,4.35252746377228,0.126524138548232,22.431492545175,-6.08383266992496,0.0749388021838527,4.35372115051648,-6.34921356399592,22.3578255847624,0.0118500481661505,921.915751231187,2989.25624270277
0.77,4.3485446380186,0.104898158223742,22.6340648637648,-4.98664228544918,-2.41896631469817,3.61516888413178,-17.113349828012,15.6301231986259,0.613814095384801,956.659675294171,2989.25624270277
0.78,4.33474212067983,0.173856142149487,23.3277099947427,-8.408510016214,-3.03986558210247,3.09506582380856,-22.7579687289452,9.84682454519933,0.81648683496266,991.271913242646,2989.25624270277
0.79,4.29351167420553,0.228202582158682,25.3928901177835,-11.1052893445721,-4.10368633512411,-1.28299547074754,-19.9279558165775,-19.2614354847459,1.9269135491014,1025.87564918118,2989.25624270277
0.8,4.29832248106939,0.083190200791956,25.1560841954497,-3.90206659585473,0.556865963882015,-4.26290945940024,7.59922771229113,-24.2962226270625,-2.99234599219524,1060.58531384573,2989.25624270277
0.81,4.27278948599659,0.226343219043324,26.4365556147558,-10.9961805834783,4.23550882001649,0.606981284729932,23.8006547607329,15.9165414948394,-1.37553398804445,1094.85530178177,2989.25624270277
0.82,4.30602554959007,0.181268025926146,24.7786862922723,-8.78069285724144,-1.88074151705672,3.87782483835524,-19.4735115003563,17.6597341789038,0.49364654962783,1129.39404415039,2989.25624270277
0.83,4.27400709511859,0.260984672172536,26.3836170552309,-12.7910507495043,-2.37488292815741,-3.56302971160493,-2.21165815463972,-29.2372159481795,2.6146689214983,1163.74493375057,2989.25624270277
0.84,4.24718963187204,0.298842862252193,27.7285987176364,-14.5972737986597,4.16907661905148,0.864133652786856,22.7309496850327,21.5698751877069,-1.29617143203521,1197.87167421559,2989.25624270277
0.85,4.22999474103493,0.291109467914048,28.5925592122499,-14.1998366673698,-4.03444796547997,1.30415867337026,-31.1757114353822,-6.87348675591781,1.32685476074008,1232.00189844459,2989.25624270277
0.86,4.21781452684674,0.297704533206345,29.2058856709516,-14.5235386943609,3.53008506159348,-2.32746360441696,32.5753879967001,-1.66163500677463,-2.08323129170359,1266.11641036279,2989.25624270277
0.87,4.19799938291001,0.288720422273466,30.2010364810121,-14.1574939615326,-3.4732238008755,2.37555777243631,-33.2110221359624,3.09277359062549,1.03958208138339,1300.24202779675,2989.25624270277
0.88,4.21440030632486,0.290794838413378,29.3854853867745,-14.2265330180078,3.93890098779145,-1.52669269611617,32.2815335692563,4.87889163087122,-1.87167087105817,1334.170508331,2989.25624270277
0.89,4.14415755659499,0.217051717846662,32.9022045652895,-10.4698477815059,-3.58431973126729,2.09136447472734,-34.0430472734105,5.76573587362471,1.09494299361296,1367.91134071424,2989.25624270277
0.9,4.10932180625847,0.128874256965458,34.6486548701044,-6.13664812667111,4.01254041879943,0.895909408925184,32.0383778544093,14.5509477009672,-1.31977096083182,1401.88311354931,2989.25624270277
0.91,4.17370493686082,0.294622352946836,31.4342456339267,-14.3256638587871,-1.68974043254941,-3.8277137434035,2.84207027470992,-34.4275918432093,2.7963456718459,1435.48097149332,2989.25624270277
0.92,4.17989095236055,0.299155855183618,31.1298351731406,-14.5805640305646,-3.02002695863843,2.90524005349185,-33.2502348968985,8.72246322189835,0.876216611069934,1469.1557691725,2989.25624270277
0.93,4.12987714788726,0.091938666408089,33.6354844031779,-4.24380796358189,3.0196002504244,2.81892750929484,21.1055860805238,26.5313013865846,-0.797496910103201,1502.80413447206,2989.25624270277
0.94,4.09803974323207,0.313809216597673,35.2323778908724,-15.3578592223453,3.06020082377664,-2.74364299421189,37.3011396708583,-9.26332936873839,-2.22527939647342,1536.35336428597,2989.25624270277
0.95,4.09887288948845,0.140235637000632,35.1958597991701,-6.65683988300988,-1.21294413065189,-3.91780442773571,-2.83075501062973,-35.7078267372948,2.8755537256644,1569.77984720067,2989.25624270277
0.96,4.09736040102225,0.335208517113553,35.2766796125184,-16.3767771710372,-3.94442113380545,-1.15856330211155,-27.0424309575088,-27.9526364213189,1.93811264605976,1603.11184949156,2989.25624270277
0.97,4.1081064828554,0.326132551886035,34.7446763462288,-15.8647884841079,-2.01879908324638,3.59268027764256,-32.5367154113402,20.0061540104822,0.591170207401992,1636.35122638251,2989.25624270277
