t,iq,id,vq,vd,ia,ib,va,vb,theta_e,omega,r
0,0,0,0,0,0,0,0,0,0,0,0
0.01,0.000881303290782552,0.000499133493368859,-0.043659212146228,-0.0249829342631927,0.000112872311722771,0.00100652350980646,-0.00582721068431223,-0.0499631606813359,0.403641414883331,-0.00168674711056143,0
0.02,0.000987315979408717,0.000558639308181107,-0.0489675987080991,-0.0279613546559587,0.000125971734982844,0.00112738717476574,-0.00648201070375421,-0.0560146999873261,0.403628769182555,-0.00179179196951225,0
0.03,0.00102888266228005,0.000582407609722488,-0.0510408011137353,-0.029151019757557,0.000131519416285163,0.00117494714763821,-0.00676255529107401,-0.0583884678440232,0.403615995807096,-0.00176666335690861,0
0.04,0.00100466359239333,0.000569430220251666,-0.0498638647031355,-0.0285014703226112,0.000129110231829034,0.00114757581782364,-0.00662810680743972,-0.0570509159771555,0.403604249605375,-0.00161847749827273,0
0.05,0.00102791128082577,0.000583050460198303,-0.0510301856030668,-0.0291831913656665,0.000132519247614425,0.0011743032357096,-0.00679765999751625,-0.0583911835770326,0.403592893280021,-0.00156867929839948,0
0.06,0.00102843302118092,0.00058386897390342,-0.0510733590733749,-0.0292241665998676,0.000133079757232126,0.00117510307460979,-0.00681901744699303,-0.0584469068604345,0.403582120461988,-0.00147831058671898,0
0.07,0.00105324341197007,0.000598598180512696,-0.052314610270253,-0.0299613910489653,0.000136894227220385,0.00120370321804222,-0.00701015327371304,-0.0598778853367128,0.403572132122695,-0.00144325038143656,0
0.08,0.00102829041157709,0.00058480048568183,-0.0510979865279858,-0.0292707902693781,0.000134015487438878,0.00117533511294507,-0.00685337087951965,-0.0584877311732631,0.403562508211138,-0.00131160313635204,0
0.09,0.00102588083542608,0.000583963627060557,-0.050993407602898,-0.0292288933025427,0.000134202545427771,0.00117278927477401,-0.00685642788792152,-0.0583750393512883,0.403553592493303,-0.00123112106552527,0
0.1,0.0010249709034076,0.000583909838767907,-0.0509619796572052,-0.0292262068398803,0.000134520193985569,0.00117193018992269,-0.00686678632307523,-0.0583450236303156,0.403545233758318,-0.00115836952388365,0
0.11,0.00102420404767533,0.000583903548054363,-0.050936782467507,-0.0292258863209525,0.000134824724354323,0.00117122140452085,-0.00687684343163825,-0.0583216706191112,0.403537390753245,-0.00109028073076916,0
0.12,0.00102348999870262,0.000583900312822224,-0.0509134105560918,-0.0292257329267684,0.000135110752257651,0.00117056244488816,-0.00688630896174081,-0.0583000650809534,0.403530031242152,-0.00102640056781469,0
0.13,0.00107089718408223,0.000611157157281497,-0.053266044866587,-0.0305900149064975,0.000141571955810038,0.00122486376021979,-0.00721765150291361,-0.0609993938862632,0.403522795173979,-0.00105995861034183,0
0.14,0.00111203190281814,0.000635420450616935,-0.0553643811212776,-0.0318044498559061,0.000147743189993535,0.00127222091311144,-0.00751104526579541,-0.0634060086000854,0.403515980636951,-0.00108452949051318,0
0.15,0.00102728381690678,0.000587004060861449,-0.0511338905728212,-0.0293810733760801,0.000136499618039476,0.00117526748539278,-0.00694379903310086,-0.0585636909085464,0.403509510650387,-0.000859869734698514,0
0.16,0.00102132259767834,0.000584077421279459,-0.0508486785867964,-0.0292345842561556,0.000136155308576828,0.00116863510751784,-0.00692139284427586,-0.0582438267265192,0.403503842068061,-0.000799827715917272,0
0.17,0.00102046118083391,0.000583898590307197,-0.0508146867655072,-0.0292256485092334,0.000136335250146838,0.00116777193189384,-0.00692682949218299,-0.0582090195334717,0.403498548809655,-0.000753185791047129,0
0.18,0.00101995733132948,0.000583885858976917,-0.0507978209792848,-0.0292249931031792,0.000136527167872657,0.00116730286835878,-0.00693313782095551,-0.058193216426659,0.403493583507624,-0.00071004292709291,0
0.19,0.00101950419362469,0.000583883278968307,-0.0507829640119201,-0.0292248654139339,0.000136708148871109,0.00116688446999236,-0.00693912479805872,-0.0581794700846913,0.40348892438687,-0.000669599639058201,0
0.2,0.00101907999747037,0.000583881423415283,-0.0507690713576276,-0.0292247911096681,0.00013687809404725,0.00116649301121938,-0.00694476542581427,-0.0581666335204302,0.403484552473556,-0.000631651962780696,0
0.21,0.00101868227348959,0.000583879716095044,-0.0507560500162281,-0.0292246924878056,0.000137037464323084,0.00116612599257587,-0.00695002580797983,-0.0581545905799797,0.403480450056849,-0.000596043646366738,0
0.22,0.00101830895082988,0.00058387811579883,-0.0507438244206723,-0.029224621041929,0.000137187054817036,0.00116578149129229,-0.00695498395768056,-0.0581432918747192,0.403476600524008,-0.000562630330195607,0
0.23,0.00101795856198227,0.00058387661402368,-0.0507323473064331,-0.0292245466554655,0.000137327452563571,0.00116545815244013,-0.00695963165672278,-0.0581326820096989,0.403472988286433,-0.000531276698758571,0
0.24,0.00101762994280192,0.000583875204609325,-0.0507215850674492,-0.0292244751488329,0.000137459126456361,0.00116515490111765,-0.00696398831748992,-0.058122732267101,0.403469598716688,-0.000501855787094192,0
0.25,0.00101732169630082,0.00058387388188122,-0.050711490854705,-0.0292244036122863,0.00013758263614172,0.00116487044856487,-0.00696807046821215,-0.0581133983273278,0.403466418088853,-0.000474248457290395,0
0.26,0.00102736864666773,0.000589729371048186,-0.0512123374971385,-0.0295174994361564,0.000139026894488042,0.00117640919319843,-0.00704116781860243,-0.0586890811023191,0.403463482697297,-0.000469465117610042,0
0.27,0.000996328877002328,0.000572075116701229,-0.0496843706242976,-0.028633846126469,0.000134979938532329,0.00114093014093381,-0.00682852359674095,-0.0569368518080832,0.403460521699419,-0.000382163641405513,0
0.28,0.00099444958285794,0.000571035434463817,-0.0495427770537026,-0.0285818129249392,0.000134764550270308,0.00113879320170523,-0.00683640788296846,-0.0567861806738822,0.403457888642028,-0.000356056379367271,0
0.29,0.00101484810529496,0.000583094097786412,-0.0506068760609976,-0.0291853825253725,0.000137849266783186,0.00116228782293434,-0.00697388646184253,-0.0580017876054076,0.403455535354591,-0.000376947397523491,0
0.3,0.0010073811133432,0.000579133713714374,-0.0502410350052731,-0.0289871436261958,0.000137140451459449,0.00115386527049508,-0.00693529560658583,-0.0575874792715921,0.403453752601078,-0.000346862365921039,0
0.31,0.00101532353481317,0.000583581714396407,-0.0506367095303993,-0.0292097730894327,0.000138115667114499,0.00116291597298381,-0.00698483507707192,-0.0580387738925305,0.403451590464588,-0.000344424424273996,0
0.32,0.00101564723731321,0.000583849577436149,-0.0506560203298509,-0.0292232013734052,0.000138237345367379,0.00116331856173625,-0.00698972396105964,-0.0580617916802181,0.403449522595215,-0.000327526096071422,0
0.33,0.00101549249804948,0.000583865000257556,-0.0506515036497196,-0.0292239626992809,0.000138314539472051,0.00116318203231101,-0.0069923101812001,-0.0580579229404257,0.403447579684888,-0.000310729524782647,0
0.34,0.00101531808334683,0.000583865221698441,-0.0506458220725503,-0.0292239645671937,0.000138385337399261,0.00116302145546544,-0.00699464828557116,-0.0580526855002434,0.4034457563794,-0.000294907874573568,0
0.35,0.00101515223740929,0.000583864568663208,-0.0506403816144966,-0.0292239440541634,0.000138451835791371,0.00116286843143296,-0.00699686460273176,-0.058047661812288,0.4034440454568,-0.000280057622680987,0
0.36,0.00101499668190502,0.000583863903840678,-0.0506352787899325,-0.0292238963968885,0.000138514160305803,0.0011627248814234,-0.00699891726584997,-0.058042938725189,0.403442439999387,-0.000266122528958568,0
0.37,0.00101485051014622,0.000583863276815742,-0.0506304790842535,-0.0292238699980301,0.000138572720147564,0.00116258999014655,-0.00700086472176655,-0.0580385034534,0.403440933506429,-0.000253046414785211,0
0.38,0.00101471341878725,0.000583862688213999,-0.050625977577718,-0.0292238464772048,0.000138627642150831,0.0011624634780444,-0.00700269235378238,-0.058034344214621,0.403439519877927,-0.000240776345477116,0
0.39,0.00101458470933121,0.000583862135850237,-0.0506217489526958,-0.0292238229264557,0.000138679205248738,0.00116234470107618,-0.00700440776121228,-0.0580304365430872,0.403438193388991,-0.000229262635289487,0
0.4,0.00101446403253211,0.000583861617505384,-0.0506177847594489,-0.0292237993465907,0.000138727550812213,0.00116223333644452,-0.00700601457570021,-0.0580267726309914,0.403436948668508,-0.000218458660329382,0
0.41,0.00101435080631337,0.00058386113108645,-0.0506140643234601,-0.0292237757398115,0.000138772911341118,0.00116212884730569,-0.00700752120996807,-0.0580233334299401,0.403435780675825,-0.000208320670665536,0
0.42,0.00101424444859321,0.00058386067462873,-0.0506105665121942,-0.0292237491974862,0.000138815519085986,0.00116203069690131,-0.00700893356108726,-0.0580200983296226,0.403434684681315,-0.000198807613223215,0
0.43,0.00101414472655128,0.000583860246287539,-0.0506072871076094,-0.0292237255410785,0.000138855468949524,0.00116193866977975,-0.00701025889794174,-0.0580170657054984,0.403433656246715,-0.000189880965543866,0
0.44,0.00101405117452115,0.00058385984433326,-0.0506042098371747,-0.0292237018618432,0.000138892947027224,0.00116185233641744,-0.00701150117637152,-0.0580142194208321,0.403432691207596,-0.000181504579795592,0
0.45,0.00101396355967219,0.000583859467140419,-0.0506013296014973,-0.0292236781604101,0.000138928047800865,0.00116177148150866,-0.00701266262663586,-0.0580115547589235,0.403431785656178,-0.0001736445363939,0
0.46,0.00101388102120935,0.000583859113184938,-0.0505986095084253,-0.0292236786117152,0.000138961112085716,0.00116169531226803,-0.00701378017956873,-0.0580090472545414,0.403430935925323,-0.000166269006644507,0
0.47,0.00101380376732377,0.000583858781035983,-0.0505960657488208,-0.0292236548696057,0.000138992060856751,0.00116162401914367,-0.00701480321453322,-0.0580066927953853,0.403430138574174,-0.00015934812385803,0
0.48,0.00101373128646615,0.000583858469350969,-0.0505936781609276,-0.0292236311093743,0.000139021097473891,0.00116155713068722,-0.00701576206905381,-0.0580044823066178,0.403429390373833,-0.000152853862405637,0
0.49,0.00101366295066722,0.000583858176869534,-0.050591420441316,-0.0292236285896049,0.000139048470841198,0.00116149406843493,-0.00701668679750999,-0.0580023999210277,0.403428688294541,-0.000146759924232122,0
0.5,0.00101359920095845,0.000583857902409297,-0.0505893194167308,-0.0292236047945555,0.000139074010052695,0.00116143523716015,-0.00701752793128063,-0.0580004536014166,0.40342802949329,-0.000141041632362882,0
0.51,4.64032832274929,-0.00236885226094161,7.98467265435365,0.125235850947437,-0.355305357651662,4.62670624280322,-0.482441120669831,7.97106843407032,0.0761335266120936,23.4397780364467,3594.2712395747
0.52,4.64420745969973,-0.0218550019983559,7.79191517000857,1.10883459628236,-1.5909068002529,4.36327355580097,-1.59114468168813,7.70789950508295,0.344927590802836,49.9318764417706,3594.2712395747
0.53,4.61572571329401,-0.0233143696684062,9.21727813495281,1.19091242743247,-3.35978241618472,3.16501651434752,-5.85618362278631,7.21675841379644,0.810188372059126,77.2622401288951,3594.2712395747
0.54,4.6331113253561,0.0391012726193289,8.34932845343751,-1.9310292441781,-4.61226156847439,0.440786441077292,-8.48534585041419,-1.19961050516865,1.48395662628544,106.908200864744,3594.2712395747
0.55,4.64722721278365,0.0301956565551746,7.64490314053905,-1.47534019321303,-3.25812172223137,-3.31395162729268,-4.26536808056363,-6.51366316685493,2.37118678008425,134.615102550254,3594.2712395747
0.56,4.58073927070653,0.0196414798446805,10.9707634039066,-0.933791985651307,1.39359346475736,-4.36365160260407,4.2706769364777,-10.1484449863612,-2.82817887552883,161.476496876799,3594.2712395747
0.57,4.62157389527913,-0.00360903830880654,8.9305788627327,0.229570948672505,4.61883582346224,0.159103521598123,8.93324664432591,0.0710354531363682,-1.53714418075778,190.21343332588,3594.2712395747
0.58,4.58237273812328,0.0805095218430312,10.8922463657052,-3.96420226243561,0.289076120906738,4.57395416357929,-3.46413184549353,11.0614520306222,-0.045548950034106,217.300584685782,3594.2712395747
0.59,4.61672933100388,-0.0147879910185741,9.17610856553856,0.810363809124626,-4.60040078623538,-0.388228034066014,-9.21158969145712,0.0653702220434735,1.65178377102844,244.972499148301,3594.2712395747
0.6,4.61797814078004,0.06815071420962,9.11541723962976,-3.34203805891408,1.7719752238663,-4.26502877300652,6.68816563994982,-7.03764805971172,-2.73306824311608,273.098487565729,3594.2712395747
0.61,4.54906991376487,0.0531803706853576,12.5626609926846,-2.591180151082,2.73237221178458,3.63744516500447,5.33742059910267,11.6639018831931,-0.632565354266218,300.727788106341,3594.2712395747
0.62,4.56762944498062,0.0797363104542457,11.6366232465458,-3.91400871136829,-4.55300617051593,-0.373806684133275,-11.1909108090699,-5.04915636895497,1.67016872340296,328.094716037501,3594.2712395747
0.63,4.54327666297499,-0.0169868514787574,12.8562070068282,0.933610362104027,3.91090632199208,-2.31224201373012,10.5640100950842,-7.38616122364012,-2.10848062916529,355.553148149882,3594.2712395747
0.64,4.56539559942251,0.0594324733638815,11.7522848802785,-2.88539635126626,-2.51962961855219,3.80760236676982,-8.99785639503096,8.09198939109066,0.597598966891744,383.103460064356,3594.2712395747
0.65,4.56571203796927,0.0927837460508631,11.7386219943257,-4.54630055519385,1.53605389752749,-4.30056666743806,8.42167285845012,-9.35625573234655,-2.77822135332376,410.517691820754,3594.2712395747
0.66,4.48460363850294,0.040379623722983,15.7961356869991,-1.90864839486553,-1.41475753407413,4.25579151607152,-6.923461177263,14.3257295334039,0.329942154448709,437.729837222128,3594.2712395747
0.67,4.55208097534407,0.0594495117157217,12.4244373159203,-2.83948591748534,2.11779587801082,-4.02987792242061,8.41901231198604,-9.56815314381296,-2.64467617835797,464.853172494528,3594.2712395747
0.68,4.48062845246402,0.0727827881111254,15.999341892693,-3.53166207594021,-3.36121329837755,2.96370947059344,-14.4632252096778,7.69848651048092,0.86440528810045,492.569558819742,3594.2712395747
0.69,4.55452192040867,0.0428319265968145,12.3069229974506,-2.00066574513595,4.50507367093613,-0.670683022639703,12.465248487779,0.283896507310062,-1.70917972942148,519.612969768328,3594.2712395747
0.7,4.57704324421335,0.0622904888908158,11.1831595825464,-2.99165175086809,-3.73660667636813,-2.64404529282809,-7.27899841465156,-9.00162321621337,2.20021725694443,547.163857799303,3594.2712395747
0.71,4.46178700299737,0.0903350061891341,16.9483805640853,-4.35901135396966,-0.028646087593489,4.46260944685114,-4.80929730059426,16.8261476043567,0.0266626534933172,574.06652142878,3594.2712395747
0.72,4.51681570295202,0.112044954396911,14.1993857912011,-5.45816651981694,4.15908339805867,-1.76527716074062,15.2115993598396,-0.146231053955316,-1.94739060238426,601.517601232874,3594.2712395747
0.73,4.49364716617135,0.0601364986900481,15.360277726864,-2.86802068001559,-2.51513668604367,-3.72432124057952,-6.0273560773747,-14.4164715927277,2.56099976743208,628.811414630468,3594.2712395747
0.74,4.44582265530367,0.0117265391601304,17.754074187124,-0.438804007952129,-3.69926174580215,2.46595602762436,-15.0410341867179,9.4428274257916,0.98547225766772,655.832471776184,3594.2712395747
0.75,4.42550531303907,0.0588594244175629,18.7725515294911,-2.75350450670984,1.74203746284279,4.06864439164104,4.61330537364293,18.4040183526693,-0.391246273897924,682.846583121785,3594.2712395747
0.76,4.48424045957789,0.107516386762969,15.8384420487281,-5.17923505353548,4.48439671850747,-0.100788609362879,15.8306538745003,5.20299146419218,-1.56929603728501,709.939646113007,3594.2712395747
0.77,4.40002211260006,0.0586517972003656,20.0520564321204,-2.77204328495204,2.40921328022969,-3.68229900945717,13.50035099083,-15.0834251499778,-2.54889328680617,737.086709966881,3594.2712395747
0.78,4.41331753867885,0.109855768873997,19.3899692984036,-5.33180631484029,-0.9348194949098,-4.31457442850414,1.60434323428522,-20.0455768377617,2.95311185097644,764.246722648723,3594.2712395747
0.79,4.47302933584227,0.0994161777301949,16.4070841202743,-4.78375546237034,-3.18909997385683,-3.13807526558023,-8.0059742529954,-15.0990430794104,2.37035232548106,791.223021164327,3594.2712395747
0.8,4.47405962023302,0.106990662821689,16.3583761943559,-5.12692727362317,-4.13778173177735,-1.70511548802428,-12.9050684434195,-11.284549767525,1.98558572242101,818.04927636284,3594.2712395747
0.81,4.3895250417649,0.121059877822353,20.5880068361924,-5.87899766884699,-4.30364257735108,-0.872494213568453,-18.7305697255471,-10.3727718973199,1.79839151905853,845.204316799557,3594.2712395747
0.82,4.38581837201129,0.0901664288242054,20.776256705243,-4.28869275455465,-4.28335895726468,-0.946767564072158,-19.1786697435256,-9.06776461394437,1.80888833029412,871.983994290767,3594.2712395747
0.83,4.42860456001166,0.106447257341915,18.6399539468596,-5.1347891886164,-4.42917183923342,-0.0794114984959431,-18.408160901481,-5.91215319302246,1.61275527423461,899.006211083914,3594.2712395747
0.84,4.44996728684567,0.0842188128945665,17.5747518280587,-3.95914580671059,-4.04968773453817,-1.84643735750041,-14.1398366766586,-11.1629635892117,2.01750706906646,925.720713051563,3594.2712395747
0.85,4.4129802949582,0.0973295504735726,19.4271102989544,-4.64353591385781,-2.28527346265004,-3.77642599900915,-5.66419899843837,-19.1544222062979,2.61945265981714,952.730330706145,3594.2712395747
0.86,4.30942765622282,0.0711415217496372,24.6078758909807,-3.35536580895034,1.10769560476204,-4.16524168416742,9.94400689112933,-22.7579164803581,-2.8651639275422,979.601060742224,3594.2712395747
0.87,4.33468749965739,0.138583185727837,23.3479697192548,-6.72740406144673,4.10115513637884,-1.41040687973577,24.2935878624851,-0.455240798838415,-1.87007096740652,1006.38092150388,3594.2712395747
0.88,4.32354404809035,0.133431614475173,23.9083016243628,-6.43317171401201,2.81742347490966,3.28221908082731,9.99698752246609,22.6506694236424,-0.67849283472356,1033.10880960642,3594.2712395747
0.89,4.35880151780904,0.139457535268336,22.1486479744651,-6.7304783456693,-2.73299966000883,3.39842786214289,-19.5324023104994,12.4236550917634,0.709277369918215,1059.86033410093,3594.2712395747
0.9,4.29179212854015,0.142599895163518,25.5023907596351,-6.91631417655487,-3.3144190783601,-2.7302821425088,-14.5622069583859,-22.0487973537577,2.29307140312585,1086.6316334765,3594.2712395747
0.91,4.32351682525557,0.183059172918259,23.9194389827253,-8.92922812636856,3.35934182702969,-2.72784363338999,24.5202346929041,-7.11538943319011,-2.21050698275166,1113.3719720929,3594.2712395747
0.92,4.38342000903239,0.141936066606053,20.927614835714,-6.83210303256043,1.15991287708602,4.22955304259908,-1.76509175167743,21.9437267953208,-0.235290661001132,1139.97111779435,3594.2712395747
0.93,4.35778895534988,0.165137796219819,22.2125498405861,-7.95102778701245,-4.13023087657238,-1.39956706781701,-17.9174149065491,-15.3486955913829,1.93538869769785,1166.52563044482,3594.2712395747
0.94,4.27858055852685,0.206344186350136,26.1763072733572,-10.0871191224035,3.84017470123998,-1.89786400540209,28.0266799624016,-1.20592078673887,-1.98161365958508,1193.3688898386,3594.2712395747
0.95,4.32448800447011,0.190384810219154,23.8844098928578,-9.21904487500567,-2.20978139640222,3.72213769988198,-20.7970381351985,14.9311429281388,0.579760399784342,1219.82277471438,3594.2712395747
0.96,4.28478701675656,0.111668755095557,25.8729744773203,-5.33755420580371,0.718394302361459,-4.22560993421835,10.2364472071356,-24.3539615212697,-2.94713737156169,1246.52799671832,3594.2712395747
0.97,4.33651033271016,0.224439223960986,23.2903187569024,-10.8937568108099,1.89478345407041,3.90710768896062,-0.968447546105796,25.6938707594171,-0.399832241000137,1272.94416971837,3594.2712395747
0.98,4.33878421995619,0.239236139208663,23.1802017817988,-11.6683717557824,-1.89344657404316,-3.91115616012561,1.82986709257878,-25.8867580144665,2.74581739089525,1299.55621697526,3594.2712395747
