t,iq,id,vq,vd,ia,ib,va,vb,theta_e,omega,r
0,0,0,0,0,0,0,0,0,0,0,0
0.01,0.000829815092618205,0.000462740609146747,-0.0409176003836364,-0.0231608596084075,-0.000586272045319684,0.000747667739150979,0.0287758338500073,-0.0371836903116419,1.17368393427965,-0.0027232404064253,0
0.02,0.000930874293395091,0.000518781814347827,-0.0460015490067984,-0.0259658080904488,-0.000657775911139663,0.000838446403609807,0.0323784908993913,-0.0417372618638661,1.17366396634887,-0.0027656326815719,0
0.03,0.000968767287967881,0.000541150793543793,-0.0479104048719177,-0.0270853957923974,-0.000684051290682117,0.000873743710309751,0.0337049233957477,-0.0435086623456603,1.17364476245562,-0.00259460282322134,0
0.04,0.00094337240075849,0.00052905188681383,-0.0467083232831136,-0.0264798281426998,-0.000665298577277424,0.000852774992906538,0.0328299273144721,-0.0424858168676706,1.17362814123069,-0.0022387318431349,0
0.05,0.000963658324681648,0.000541792110462315,-0.0477432125892117,-0.0271175155943791,-0.000679064117473055,0.000872380640573821,0.0335369350819983,-0.0434746821225399,1.17361289356261,-0.0020679320234828,0
0.06,0.000962532667960584,0.000542597361479525,-0.0477238091164877,-0.0271578075988241,-0.00067770265146892,0.000872697054978334,0.0335028606274599,-0.0435047905401084,1.17359920293728,-0.00184549600512895,0
0.07,0.000983961832241611,0.000556138234066802,-0.0488060077805103,-0.0278355442247477,-0.000692214792542358,0.000893481563147639,0.0342381053929545,-0.0445488053359465,1.17358728057259,-0.00173182964127917,0
0.08,0.00095967666730596,0.000543501294805181,-0.0476435007135986,-0.0272030435236867,-0.000674699358500688,0.000872441252386166,0.0334103098001043,-0.0435162031461767,1.17357632213635,-0.00147026322230251,0
0.09,0.000956144560647109,0.000542693874026883,-0.0474951194353712,-0.0271626462492299,-0.000671746340405088,0.000870336668142697,0.0332886964780841,-0.0434218655544758,1.17356681196467,-0.00130592598814844,0
0.1,0.000954308548505743,0.00054263934032906,-0.0474270288419215,-0.0271599086026968,-0.000670067077945595,0.000869581721563504,0.0332266021817992,-0.0433932783681039,1.17355841004279,-0.00116532679276935,0
0.11,0.00095277635684605,0.000542633060782712,-0.0473713056187151,-0.02715958846074,-0.000668650162931037,0.000868988138257102,0.0331750193972322,-0.0433716719688294,1.17355097634327,-0.001041259881399,0
0.12,0.000951427260458804,0.000542630172298563,-0.0473223226187169,-0.0271594422241013,-0.000667401525268271,0.000868467926812786,0.0331296221022767,-0.0433528045149856,1.17354439850768,-0.000931500844406885,0
0.13,0.000995398049055519,0.000567866161001508,-0.049495632795457,-0.0284225603181556,-0.000698178982159251,0.000908754841387487,0.0346447206875954,-0.045358603696988,1.17353803847327,-0.00098708630138899,0
0.14,0.00103193321254995,0.000589885631812466,-0.0513815159875992,-0.0295246473218613,-0.0007233444780642,0.000943198801863363,0.0359570856754047,-0.0471047022535523,1.17353236529721,-0.0010270708183851,0
0.15,0.000953864216657455,0.000545629405621462,-0.0474867114133401,-0.0273095723389665,-0.000668473372882598,0.000872187905124425,0.0332223784583403,-0.043555413805426,1.17352722717587,-0.000666259548805175,0
0.16,0.000947536241422903,0.000542812786457045,-0.047186494051788,-0.027168586296661,-0.000663724591438206,0.000867144922530997,0.0329999207840373,-0.0433093815530285,1.17352333297542,-0.000581531023014066,0
0.17,0.000946442351597918,0.000542632331074493,-0.0471417071455142,-0.0271595536996325,-0.000662782767939428,0.000866557542317927,0.032961969538704,-0.0432838361734054,1.17351993393163,-0.000523396927251112,0
0.18,0.000945798070497135,0.00054261971168951,-0.0471179400971197,-0.0271589182393613,-0.000662190944477113,0.000866298617523207,0.0329401693642659,-0.043274153500462,1.17351692956152,-0.000473164554802733,0
0.19,0.000945250854396983,0.000542617899445262,-0.0470980275727228,-0.0271588346673424,-0.000661684746088449,0.000866086981388405,0.0329217250080679,-0.0432664595757748,1.17351427130693,-0.000428801930639938,0
0.2,0.000944768481689753,0.000542616890618678,-0.0470804945743047,-0.0271587887178252,-0.00066123829604367,0.000865900969986931,0.0329054735722564,-0.0432597108516243,1.17351191909796,-0.000389552727540776,0
0.21,0.000944341755505274,0.000542616035569423,-0.0470649820928112,-0.027158742586234,-0.00066084333426471,0.000865736449969482,0.0328910970990935,-0.0432537347506543,1.17350983768515,-0.000354822484171046,0
0.22,0.000943964273005675,0.000542615281196438,-0.0470512577932883,-0.0271586992019218,-0.000660493949898858,0.000865590916221992,0.0328783788578851,-0.0432484451275224,1.17350799589243,-0.000324090545951118,0
0.23,0.00094363001259895,0.000542614613691105,-0.0470390981947775,-0.0271586752589311,-0.000660184571615784,0.000865462044846061,0.032867105114104,-0.0432437718315185,1.17350636613368,-0.000296896583528909,0
0.24,0.000943334285668245,0.000542614022938281,-0.0470283375023162,-0.0271586540808501,-0.000659910858610117,0.000865348028884877,0.0328571283771257,-0.0432396361516157,1.17350492399877,-0.000272833290026884,0
0.25,0.000943072869237529,0.00054261350011484,-0.0470188253353836,-0.0271586073785192,-0.000659668901421001,0.000865247240791205,0.0328483199864427,-0.0432359545370301,1.17350364788778,-0.000251540251208954,0
0.26,0.000952559227364678,0.000548033701298031,-0.0474868447617804,-0.0274298948018388,-0.000666318263681207,0.000873916466763771,0.0331748729075567,-0.0436672344193771,1.17350259601318,-0.000268641574560699,0
0.27,0.000924051365941507,0.000531862253595656,-0.0460918463538971,-0.0266204950880949,-0.000646286889102954,0.00084797502361322,0.0322016515827147,-0.0423811596631332,1.17350132976303,-0.00014661806650118,0
0.28,0.000922644644935327,0.000530991147917049,-0.045950343779029,-0.0265769126414602,-0.000645326040147839,0.000846628042236501,0.0320879962496636,-0.0422862492501325,1.17350044508238,-0.000127480618515128,0
0.29,0.00094087502099702,0.000541872721067242,-0.0469208367319237,-0.0271215410603363,-0.000657925585599645,0.000863716258262124,0.0327721415101998,-0.0431639855660571,1.17349985208624,-0.000183133517486652,0
0.3,0.000933512821410458,0.000538075408394087,-0.0465592886773975,-0.0269314775214331,-0.000652606251135345,0.000857365974269593,0.0325123021778435,-0.04284882788046,1.17350002059519,-0.000159525893539399,0
0.31,0.00094156546092584,0.000542323175364129,-0.0469558991854705,-0.0271440978979719,-0.000658387549713401,0.000864399084987892,0.0327957248841102,-0.0431983674267502,1.17349938366728,-0.000178126873362443,0
0.32,0.000942023371871328,0.00054259313641303,-0.046979985507469,-0.0271576000256059,-0.000658704791435859,0.00086482561396723,0.0328126834323762,-0.0432201582991022,1.17349875074331,-0.000169664571148969,0
0.33,0.000941949825066693,0.000542610093718809,-0.0469778266470899,-0.0271584364680687,-0.000658629923287138,0.000864813165313461,0.0328103446618196,-0.0432201128069647,1.17349818570667,-0.000160387107724241,0
0.34,0.0009418501736479,0.000542610981984215,-0.0469742178185781,-0.0271584922755231,-0.000658537257357769,0.000864775755928762,0.0328069737079607,-0.0432187843243194,1.17349768536181,-0.000152049224283613,0
0.35,0.00094175954432527,0.00054261086999369,-0.0469709007950317,-0.0271584956604724,-0.000658453347642274,0.000864740877108127,0.0328038946036338,-0.0432175185181923,1.17349724259295,-0.000144662004144011,0
0.36,0.000941679418568138,0.000542610713766429,-0.0469679657967603,-0.0271584736392463,-0.000658379184584531,0.000864709988004504,0.0328011798026679,-0.043216375427057,1.17349685079535,-0.000138124565605933,0
0.37,0.000941608230599114,0.000542610571885213,-0.0469653508062211,-0.0271584740310719,-0.000658313296617871,0.000864682540675885,0.0327987533616133,-0.0432153753422539,1.17349650410308,-0.000132339693448202,0
0.38,0.000941545249910247,0.000542610446101992,-0.0469630339248659,-0.027158474386981,-0.000658255004959009,0.000864658257517944,0.032796603549109,-0.0432144892611145,1.17349619732322,-0.000127220793603863,0
0.39,0.00094148980419592,0.000542610334780959,-0.046960994463014,-0.0271584493537146,-0.00065820368632327,0.000864636879924997,0.0327947208981959,-0.0432136859508992,1.17349592586104,-0.000122691200064238,0
0.4,0.000941440444099656,0.000542610236272277,-0.0469591713596148,-0.0271584496511345,-0.000658158001364593,0.000864617848262328,0.0327930293030214,-0.0432129886881948,1.1734956856507,-0.000118683069949719,0
0.41,0.000941396904769462,0.000542610149101654,-0.0469575615115799,-0.0271584499229065,-0.000658117703316761,0.000864601061067308,0.0327915355577274,-0.0432123730093029,1.1734954730942,-0.000115136370493513,0
0.42,0.000941358254882765,0.00054261007196476,-0.0469561273048762,-0.0271584501731511,-0.000658081931148698,0.000864586158881304,0.0327902048388302,-0.04321182446862,1.17349528500814,-0.000111997980104561,0
0.43,0.000941324028778281,0.000542610003706902,-0.0469548534034094,-0.0271584504039018,-0.000658050253479038,0.000864572962319753,0.0327890228821829,-0.0432113372265722,1.17349511857529,-0.000109220892743198,0
0.44,0.000941293877210044,0.000542609943305884,-0.0469537293444065,-0.0271584506167091,-0.000658022346503797,0.00086456133695023,0.0327879799315987,-0.0432109073180961,1.17349497130293,-0.000106763513878728,0
0.45,0.000941267360707973,0.000542609889858034,-0.046952739320536,-0.0271584283728291,-0.000657997803425005,0.000864551113349448,0.0327870699978869,-0.0432105080083301,1.17349484098511,-0.00010458903749319,0
0.46,0.000941243728397735,0.000542609842561934,-0.0469518513026872,-0.0271584285574963,-0.000657975930476722,0.000864542001528236,0.0327862460948521,-0.0432101683573447,1.17349472567003,-0.000102664894816437,0
0.47,0.000941222773639888,0.000542609800711099,-0.0469510598347827,-0.0271584287303179,-0.000657956535894337,0.000864533922018116,0.0327855117996299,-0.0432098656182293,1.17349462363053,-0.000100962266511333,0
0.48,0.00094120426360379,0.000542609763677568,-0.0469503575568722,-0.0271584288923098,-0.000657939403903859,0.000864526785157529,0.0327848602590951,-0.0432095969942836,1.17349453333831,-9.94556510298551e-05,0
0.49,0.000941187849043477,0.00054260973090673,-0.0469497307980075,-0.0271584290450161,-0.000657924211507523,0.000864520456191734,0.0327842788080969,-0.043209357241592,1.1734944534409,-9.81224826560858e-05,0
0.5,0.000941173297128306,0.000542609701908953,-0.0469491713188013,-0.0271584291894844,-0.000657910743164671,0.000864514845367967,0.0327837597968954,-0.0432091432123093,1.17349438274151,-9.69427935212623e-05,0
0.51,4.61942491732405,-0.00296405356743229,9.02979347204963,0.160748013897611,-0.617346350204864,4.57798851421632,-1.04169181245176,8.97094689760859,0.133400746685466,41.0238603868351,5044.98374442
0.52,4.61923550768843,0.0214814834909436,9.04058748798422,-1.04698632699304,-2.60823668280612,3.81246633245293,-6.00068553053747,6.8425269937652,0.604648287676213,87.8315345223304,5044.98374442
0.53,4.612838535029,-0.025152789132791,9.36184961185069,1.29469442775904,-4.57223461166248,0.611214094213545,-9.09386052337418,2.57335629044948,1.43245195253727,138.875978699191,5044.98374442
0.54,4.61806441618875,0.047457296043188,9.10211842068257,-2.31913856594782,-2.30990138175102,-3.99914075191174,-2.45126913633639,-9.06742758743847,2.62808312016003,186.380796372823,5044.98374442
0.55,4.63179508185928,0.0294856009176019,8.41727990391762,-1.41470634483644,3.95728424810556,-2.40713449160884,7.94655410472924,-3.11516819507819,-2.11091556540407,235.859027670653,5044.98374442
0.56,4.54271710056532,0.0498291024081048,12.8729721066986,-2.41527032789344,0.998982657744696,4.43179368255571,0.330961221371697,13.0934107965263,-0.210738669558421,283.456598697452,5044.98374442
0.57,4.53741221152802,0.0919766519740421,13.1401345898546,-4.4988583302263,-4.08062893106431,-1.98621167270584,-9.64540185531898,-9.99345217451652,2.04404898562142,331.352080500958,5044.98374442
0.58,4.53219958955128,0.0279543505499489,13.4027862226968,-1.29658369519808,4.52203935860305,-0.304589238956987,13.4569421669963,0.47593626052432,-1.63188348375451,379.732133808584,5044.98374442
0.59,4.49366696211325,0.057872072864094,15.3315650235472,-2.79016157669528,-4.34744427653625,1.13847275137259,-15.5522491683492,0.984598141834336,1.3275537298238,428.018264669376,5044.98374442
0.6,4.57050153987719,0.0608896469623303,11.4920158087991,-2.9062922357748,4.55337089636598,-0.400006694011808,11.6760526121875,2.04517904029042,-1.64509833374286,475.338446644428,5044.98374442
0.61,4.4891386531421,0.0869016210408837,15.5624693838863,-4.22265391691203,-4.09002828887301,-1.85245413845864,-12.2330114252929,-10.5059359837695,2.01543135035306,523.544952631145,5044.98374442
0.62,4.50457486701026,0.0964317239329811,14.7930060189788,-4.6504819449919,1.23684744219996,4.3325168452765,-0.742629189453084,15.4889803178005,-0.256678916631052,570.718874126742,5044.98374442
0.63,4.44765152109731,0.136662854266127,17.641690798273,-6.66508016876818,3.57031597558314,-2.65577194490626,18.2835824347638,-4.62202999007718,-2.17963112829903,618.460104672758,5044.98374442
0.64,4.49264531974937,0.0754173852140549,15.3945511584735,-3.58938507564265,-2.64601892564628,-3.63154699765543,-5.91941631216041,-14.6572985613118,2.5287008136776,666.054344626526,5044.98374442
0.65,4.42138493116664,0.101674056180443,18.9602641875866,-4.88572242049411,-4.23520473350924,1.27358674165073,-19.5768257139629,0.331355697580894,1.3016762377329,713.312460145335,5044.98374442
0.66,4.48491525725762,0.0672638455554881,15.7865480669859,-3.13208006769273,-1.77200470055886,4.12055683505256,-9.31181829914012,13.1268833081388,0.42112857787629,760.480030388683,5044.98374442
0.67,4.4390616313964,0.108415194060671,18.0821250802016,-5.23344241698491,0.608708210503457,4.39846522506482,-3.15928549816408,18.5572379973164,-0.11309942705452,808.046079926205,5044.98374442
0.68,4.34859803315105,0.174485480973328,22.6081770528717,-8.48380949472641,1.45875533021499,4.10033936687746,-1.38278684043355,24.1079363229358,-0.301697980045689,854.830702216312,5044.98374442
0.69,4.40626544272568,0.141568582306116,19.727829570022,-6.85795922859505,0.777259027052045,4.33947983289712,-3.93308646369397,20.5121840668909,-0.145116159950481,902.141545999415,5044.98374442
0.7,4.34699391459341,0.140037643879809,22.6944771933693,-6.79072731389589,-1.38357742694437,4.1233093673487,-14.2736143905519,18.9054808127665,0.355948123931818,949.169516965387,5044.98374442
0.71,4.36061303635536,0.14224447710722,22.0166517635096,-6.89159078503441,-4.01463252802922,1.70818769723632,-23.0193267517573,1.52891279013979,1.2011190896618,996.046654328535,5044.98374442
0.72,4.30491992970166,0.169152678379841,24.8045689595863,-8.22870174545067,-3.06389692812427,-3.0287759645732,-10.9317870616476,-23.7376116179629,2.38970276632588,1042.83187560197,5044.98374442
0.73,4.32679938259992,0.12255815054394,23.7139609139014,-5.85850614102794,2.95281762877409,-3.16497732199344,20.8303304386978,-12.7581883606242,-2.36254192119988,1089.37864574501,5044.98374442
0.74,4.37503081266209,0.202117834483599,21.3057777685702,-9.77995004582705,2.23634453886411,3.76570170542646,1.39170522610995,23.4018534690351,-0.489736169320191,1135.82069999245,5044.98374442
0.75,4.29292867240312,0.114282089815359,25.4143226050417,-5.44210020479581,-2.15060919435225,3.71714636186967,-17.9444053600119,18.801663872853,0.551123746322705,1182.66347413589,5044.98374442
0.76,4.23705871729279,0.146804801315315,28.2113661949073,-7.00968849313805,-0.295370334593205,-4.22929953880289,6.01558573474306,-28.4399304433387,3.10650075630386,1228.98401100956,5044.98374442
0.77,4.31682495093323,0.139281687080278,24.2266333098723,-6.60329002548019,1.32945073022244,4.10937194730127,0.365010954662972,25.1077670790255,-0.280636126290885,1275.31998157007,5044.98374442
0.78,4.24605120547042,0.173688200201365,27.7690064877769,-8.32660047987788,-0.957783303007456,-4.14026201765614,3.03464656157007,-28.8312489690622,2.95514070035675,1321.66126029933,5044.98374442
0.79,4.19889040048761,0.209819964589203,30.1308067858309,-10.1186176462563,-0.823721655536797,4.12264328399231,-17.1820260152914,26.7400434301452,0.24713613880971,1367.89587149326,5044.98374442
0.8,4.12675523061569,0.212893711611786,33.7413789399678,-10.2833157136444,3.40367575807971,-2.34316533768284,34.1281256901849,-8.91618033195441,-2.1221665436215,1414.17539855002,5044.98374442
0.81,4.17084667461046,0.161143854281108,31.5406935442428,-7.73694075470757,-3.62086991799026,-2.07635025028894,-22.6300954928387,-23.2927967294333,2.13007370345681,1460.40185600104,5044.98374442
0.82,4.2159064319051,0.264078795429596,29.2916427408069,-12.7917946395,-1.54482157381161,3.93155579355814,-23.985596327389,21.1263227603327,0.436952652027844,1506.26205335157,5044.98374442
0.83,4.14445869467881,0.204464378963156,32.8680513933481,-9.86546581811764,3.41874697463239,2.35170420708164,20.1441075392336,27.7822092291454,-0.918953272943505,1552.36941276112,5044.98374442
0.84,4.16628015643998,0.202395613609914,31.7810694723111,-9.78868938494657,3.81546177937588,-1.68555798965087,33.1760323316149,-2.28159930979782,-1.93824416545721,1598.33824723958,5044.98374442
0.85,4.17036536079863,0.211663179753,31.5809265186438,-10.2481055191053,-2.70271710306339,-3.18309107708543,-11.0558796304877,-31.3072852879783,2.48834022550695,1644.18646020012,5044.98374442
0.86,4.13430732922989,0.222763385330625,33.3880594220471,-10.7971421805039,-3.59976953184883,-2.04542903468706,-22.2681275262551,-27.1195738851222,2.14134322460289,1689.94715943951,5044.98374442
0.87,4.12530915208136,0.227585958419454,33.8422469779711,-11.0048464629665,-3.61864960916518,-1.99382696711741,-22.8625214922619,-27.2710365994277,2.12950893945443,1735.62496390541,5044.98374442
0.88,4.13293844363873,0.28284375044163,33.4650751175145,-13.6862666337743,-2.84629700016847,-3.00994587208854,-10.7162879707984,-34.5309472664532,2.45246150014184,1781.16999279322,5044.98374442
0.89,4.09823597931447,0.1854740404289,35.2045848478441,-8.90969017377073,-0.314840736587012,-4.09033178023568,7.79316538947213,-35.4684641127012,3.10999837760818,1826.90676787171,5044.98374442
0.9,4.04920127204944,0.266623833442341,37.660734599192,-12.8508407405106,3.16445078798691,-2.54034848407365,38.2228484128186,-11.0674702393742,-2.18147718765257,1872.30410925896,5044.98374442
0.91,4.07905923422235,0.271736325079285,36.1723343551121,-13.1531699322732,3.25937614109198,2.46759640896613,18.7057257838386,33.6383631418818,-0.856262635235858,1917.86792015733,5044.98374442
0.92,4.02013681181151,0.228111900039437,39.122998446754,-10.9987150981036,-2.73087609882852,2.95902868479992,-35.766728265146,19.2956443396217,0.802003389012572,1963.33715985725,5044.98374442
0.93,4.04158311597532,0.302763121324268,38.0552140973154,-14.7209978249461,-4.05154417136928,0.105116213851228,-37.2912565841973,-16.5610772393025,1.61962976816604,2008.74884539899,5044.98374442
0.94,4.07704184993403,0.27885193765698,36.2868672466971,-13.4701279167545,2.7363604479437,-3.03518700382331,35.4458442621867,-15.5490580169332,-2.33963481070448,2054.02239882168,5044.98374442
0.95,3.95946397579324,0.299977158418288,42.1703220109623,-14.4677774172128,-0.946480435357631,3.85636046767705,-26.867027409776,35.5783006910759,0.316293884109442,2099.18921583445,5044.98374442
0.96,3.96906353779055,0.238265100966375,41.6949002217259,-11.5036456695071,0.404997399443755,-3.95552938704805,18.0777278455563,-39.2936931851823,-2.97960194009593,2144.52318663578,5044.98374442
0.97,3.93874368459586,0.37234261847914,43.2154201116445,-18.0731571289228,-0.95687630965816,3.83884469163506,-31.3995088546279,34.7603565534188,0.338536759237163,2189.47805234751,5044.98374442
0.98,3.95521624980064,0.27470659547181,42.3962700072606,-13.2508750551895,2.77805491882945,-2.82871174994029,40.5190712768688,-18.1998423926367,-2.29588629331406,2234.66093747537,5044.98374442
0.99,3.9456660218068,0.27646843860227,42.8781927740473,-13.3784420452717,-1.68291037790297,3.57945915092355,-32.5909589554966,30.9087612415669,0.509444623901662,2279.7497055599,5044.98374442
