t,iq,id,vq,vd,ia,ib,va,vb,theta_e,omega,r
0,0,0,0,0,0,0,0,0,0,0,0
0.01,0.000805757530347176,0.000442112322417374,-0.0356723129105534,-0.0221343097469942,0.000517348592408162,0.000759643954282371,-0.025453347370961,-0.0333851566415003,-0.0960500167567654,-0.00919236925364227,0
0.02,0.000886167713940244,0.000489543098100841,-0.0405519941302126,-0.024508930416165,0.000572325284356222,0.000835098455880992,-0.0282874087835628,-0.0380128189219483,-0.0961134899005179,-0.00848560032703381,0
0.03,0.000913429589363545,0.000507740961810757,-0.042384895801174,-0.0254199961115927,0.000593103268845071,0.000860455118824136,-0.0293723781747913,-0.0397481948614878,-0.0961691670200426,-0.00728839586345246,0
0.04,0.000887255210729578,0.000497288513061146,-0.0418598490602514,-0.0248967087341414,0.000580221660043282,0.000835380451893609,-0.0288027778598778,-0.0392745853790239,-0.0962120598705115,-0.00573676448761823,0
0.05,0.000902687784067677,0.000507987185844605,-0.0429629720551605,-0.0254323322949721,0.000592384491966804,0.000849692197307099,-0.0294433714594713,-0.0403200740435081,-0.0962486944207415,-0.00491560358080041,0
0.06,0.000899269814220056,0.00050834196066997,-0.0432061911328599,-0.025450087948121,0.00059243449009911,0.00084623821863951,-0.0294856325068486,-0.0405595784550011,-0.0962786298450689,-0.0040307861228681,0
0.07,0.00092109414042013,0.00052227960345162,-0.0444029863330802,-0.026147871255118,0.000608425905575626,0.000866607360413214,-0.0302962108875087,-0.0416830417835543,-0.0963021112454492,-0.00366362975512459,0
0.08,0.000894129553557326,0.000508815227197741,-0.0435528185318241,-0.0254737830634421,0.000592448056524822,0.000841050470716754,-0.0295443202550564,-0.0409010362496596,-0.0963221755775902,-0.00274143537765108,0
0.09,0.000890904129156248,0.000508358893786333,-0.0436189980013928,-0.0254509405805174,0.000591696629061348,0.000837874711037847,-0.0295285835299392,-0.0409686479859165,-0.0963376794429757,-0.00226376660334472,0
0.1,0.000889084848721639,0.000508341213293774,-0.0437034380658392,-0.0254500491139382,0.000591514422839936,0.000836058218625775,-0.0295363283843381,-0.0410524153278349,-0.0963501026442614,-0.0018912193158087,0
0.11,0.000887656064798,0.000508338759602941,-0.0437725222666291,-0.025449938106896,0.000591382854526809,0.000834630399194188,-0.0295432740065824,-0.0411208951288681,-0.0963600765779062,-0.00159254839052257,0
0.12,0.000886510461181394,0.000508337183675418,-0.0438280475481643,-0.0254498524056123,0.000591277741077378,0.000833485526567521,-0.0295488605994217,-0.0411759344353901,-0.0963680849302482,-0.00135275494796029,0
0.13,0.000930005769822971,0.000532649539723431,-0.0457230336633907,-0.0266670465211139,0.000619669814442046,0.00087443443730274,-0.0309431065650067,-0.0429447474512245,-0.0963766014464873,-0.00169421984437838,0
0.14,0.000974866918668549,0.00055964355513589,-0.0484680830050184,-0.0280185006899276,0.000650861526451313,0.000916485510690112,-0.0325527409943777,-0.0455467946714781,-0.0963832473542049,-0.00210634530049679,0
0.15,0.000887308144199981,0.000510061135765587,-0.0441282358981893,-0.0255361737579731,0.000593087865327777,0.000834101246242346,-0.0296645311977685,-0.0414658047371597,-0.0963889679883653,-0.00077795161853486,0
0.16,0.000883336627711959,0.000508390840434902,-0.0439959792791347,-0.0254525326319363,0.000591045106421186,0.00083030748922987,-0.0295686496078134,-0.0413421403712989,-0.0963913780474206,-0.000657403477633032,0
0.17,0.00088292090369241,0.000508334243214933,-0.0440024708147928,-0.0254497174377713,0.000590950291928138,0.000829898052457029,-0.0295665484814107,-0.0413488181979302,-0.096393221870001,-0.000600171008853978,0
0.18,0.000882703449594865,0.000508332061012595,-0.0440124020717375,-0.0254496013835334,0.000590928416347798,0.0008296809452631,-0.0295674498622025,-0.0413586708605483,-0.0963946985179538,-0.000555871371892216,0
0.19,0.000882533725935933,0.000508331765822668,-0.044020561976437,-0.0254495753460495,0.00059091277076884,0.000829511337415616,-0.0295682583394237,-0.0413667603371195,-0.0963958840064452,-0.000520370916075813,0
0.2,0.000882397403594601,0.000508331577856959,-0.0440270969123233,-0.0254495760263234,0.000590900252554109,0.000829375103586146,-0.0295689273638654,-0.0413732367237224,-0.0963968358663162,-0.000491869332998771,0
0.21,0.000882287973192508,0.000508331428573805,-0.0440323325404704,-0.0254495765881979,0.000590890205339383,0.000829265743986818,-0.0295694634645034,-0.0413784253916763,-0.0963976001450722,-0.000468984602057659,0
0.22,0.00088220032234516,0.000508331308757597,-0.0440365344151557,-0.0254495560217522,0.000590882158664557,0.000829178149001183,-0.0295698728121451,-0.0413825915920579,-0.0963982138087607,-0.000450609709256051,0
0.23,0.000882129891075731,0.000508331212549962,-0.0440398928348643,-0.0254495564136163,0.000590875692491827,0.000829107762841537,-0.0295702168387677,-0.0413859198117479,-0.0963987065388404,-0.000435855907940891,0
0.24,0.000882073196809071,0.000508331135298982,-0.0440425695705785,-0.0254495538342902,0.000590870486802483,0.00082905110546282,-0.0295704882803297,-0.041388572669356,-0.0963991021674469,-0.000424009599038306,0
0.25,0.000882027678418415,0.000508331073269265,-0.0440447062036186,-0.0254495541158718,0.000590866307265498,0.000829005616679221,-0.0295707073595175,-0.0413906899618446,-0.0963994198297582,-0.00041449781073984,0
0.26,0.000891554398939222,0.000513460944754756,-0.0444369238621309,-0.0257063818333472,0.0005968893816042,0.000837994304386659,-0.0298640972476437,-0.0417563643636984,-0.0963995049692729,-0.000539196225124827,0
0.27,0.000860490347221741,0.000496115777452922,-0.0431746767708656,-0.0248379870608233,0.000576635666331768,0.000808743352747723,-0.0288782850504381,-0.0405835307489133,-0.0964005493465849,-9.55240783603722e-05,0
0.28,0.000857293316354364,0.00049378266339249,-0.0422815803672181,-0.0247211825739848,0.000574005823513469,0.000805785618825174,-0.0286760689248949,-0.0397058179266023,-0.0964007443740419,-4.74088178995514e-05,0
0.29,0.000880901209989933,0.000507840974806762,-0.0440071747664106,-0.0254250053378813,0.00059027064164994,0.000827931136665712,-0.0295426891307927,-0.0413556748980602,-0.0964001206115518,-0.000379821777988743,0
0.3,0.000876247337023082,0.000505466806350496,-0.0437798269551451,-0.0253061566718755,0.000587457224018773,0.000823529051042141,-0.0294023932994077,-0.041140905215988,-0.0963972879117807,-0.000397154724482415,0
0.31,0.000882003445640223,0.000508234908920272,-0.0440228122831695,-0.0254447476886986,0.000590766922386621,0.000828991703324143,-0.0295637493531915,-0.0413694079053881,-0.0963978099273977,-0.000459306462950042,0
0.32,0.00088216650340577,0.000508328027842163,-0.0440366972968465,-0.0254493939983393,0.000590875772282438,0.000829144707123369,-0.0295697339230689,-0.0413827645211833,-0.0963983758305889,-0.000445614127891297,0
0.33,0.000882110740745061,0.000508331077771435,-0.0440402440325773,-0.0254495514766965,0.000590873822753781,0.000829088637692257,-0.0295702510997162,-0.0413862660155965,-0.0963988363488507,-0.000431960842045716,0
0.34,0.000882058179232614,0.000508331111265929,-0.0440427626201101,-0.025449554699528,0.000590869103828804,0.000829036098353114,-0.0295705120353511,-0.0413887616580007,-0.0963992063698509,-0.000420886976028285,0
0.35,0.000882015687640313,0.000508331056810185,-0.0440447608331794,-0.0254495549677063,0.000590865206115406,0.000828993633729218,-0.029570716927931,-0.0413907417821238,-0.0963995034820046,-0.000411990757654284,0
0.36,0.000881981577951152,0.000508331010345184,-0.0440463530647551,-0.0254495551987968,0.000590862074556772,0.000828959545921408,-0.0295708802852556,-0.0413923195445332,-0.0963997420429257,-0.000404847498956225,0
0.37,0.000881954103935308,0.000508330972944104,-0.0440476144699245,-0.0254495554005027,0.000590859551721593,0.000828932089885528,-0.0295710098257603,-0.0413935694095006,-0.0963999335907775,-0.000399111935132799,0
0.38,0.000881932344159643,0.000508330942910042,-0.0440486295236856,-0.0254495345501933,0.000590857554919143,0.000828910343155221,-0.0295710931383396,-0.0413945772093403,-0.0964000873899457,-0.00039450666328249,0
0.39,0.000881914649030795,0.000508330918794162,-0.0440494206437943,-0.0254495347088526,0.000590855930104113,0.000828892659539238,-0.0295711745541634,-0.0413953609893455,-0.0964002108800737,-0.000390808940096855,0
0.4,0.000881900446361588,0.000508330899430708,-0.0440500433693764,-0.0254495348521238,0.000590854625995909,0.000828878466090196,-0.0295712387392617,-0.0413959778777962,-0.0964003100334102,-0.000387839917394238,0
0.41,0.000881889037660095,0.000508330883883375,-0.0440505304010729,-0.025449534982964,0.000590853578409722,0.000828867064815057,-0.0295712890425185,-0.041396460281391,-0.0964003896465359,-0.000385455992100595,0
0.42,0.000881879840849707,0.000508330871399592,-0.044050906908393,-0.0254495351039634,0.00059085273376373,0.000828857874136996,-0.0295713280484449,-0.0413968331386717,-0.0964004535699288,-0.000383541860630165,0
0.43,0.000881872506684461,0.000508330861376369,-0.0440511990086974,-0.0254495352166684,0.000590852060405961,0.000828850544662671,-0.0295713584003663,-0.0413971223541612,-0.0964005048954953,-0.000382004941954748,0
0.44,0.000881866685918392,0.000508330853328442,-0.0440514241944084,-0.0254495353226249,0.000590851526296075,0.000828844727347595,-0.029571381886229,-0.0413973452655125,-0.0964005461055928,-0.000380770899758661,0
0.45,0.000881861912890216,0.000508330846866461,-0.0440515872845447,-0.0254495354239227,0.000590851087879226,0.000828839957551697,-0.0295713990544892,-0.0413975066101995,-0.0964005791943996,-0.000379780046979176,0
0.46,0.000881858071184611,0.000508330841677967,-0.0440517049818644,-0.0254495355210768,0.000590850734965344,0.000828836118485063,-0.0295714115795346,-0.0413976229660778,-0.0964006057615697,-0.000378984458923795,0
0.47,0.000881855044386256,0.000508330837512199,-0.0440517896922756,-0.0254495356146054,0.000590850457165531,0.000828833093537307,-0.0295714207091886,-0.0413977066433844,-0.096400627092871,-0.000378345655288761,0
0.48,0.000881852599664507,0.00050833083416735,-0.044051844218094,-0.0254495357055464,0.000590850232723578,0.00082883065036883,-0.0295714267569046,-0.0413977604008252,-0.0964006442196796,-0.000377832738986089,0
0.49,0.000881850620604044,0.000508330831481773,-0.0440518744431335,-0.0254495357944168,0.000590850050960228,0.00082882867263083,-0.02957143032382,-0.0413977900703451,-0.0964006579705381,-0.00037742090173405,0
0.5,0.000881848990789545,0.000508330829325734,-0.0440518839440629,-0.0254495358817323,0.000590849901093192,0.000828827044067514,-0.0295714317822745,-0.0413977991922645,-0.0964006690113789,-0.000377090224157773,0
0.51,4.66610827602563,0.00716690292735345,6.69590420450673,-0.329325748547322,-2.66326301852584,3.83140286347508,-4.10036470488703,5.30382860314168,0.60897540428275,187.562821257898,720.360354410171
0.52,3.20200616257761,0.0399717953599896,9.94196124587779,-1.96819844376729,-1.30050967760575,-2.92628019643763,-2.11552683419469,-9.91165701295127,2.73586795727492,384.523928502923,720.360354410171
0.53,2.03750933178185,0.0137544892085206,8.23581523343763,-0.648931906598795,0.513296557781444,1.97184180573423,1.39180623985861,8.14325736848688,-0.247910919409968,504.752597668323,720.360354410171
0.54,1.27880989573312,-0.00570864791655279,7.25510014003418,0.312990415364409,0.756712208415017,-1.03090929364404,4.01374005626393,-6.05180401225753,-2.5128588071972,583.762826661828,720.360354410171
0.55,0.86061948827504,0.0306168155086835,3.84641566779252,-1.51459611179108,-0.806969025202873,-0.300673053920382,-2.97538535361025,-2.86984265575903,1.963017631858,633.387074909739,720.360354410171
0.56,0.540535365003352,0.00303105635344811,4.46641037206479,-0.139518776887328,-0.230682671419847,0.488848824513804,-2.05454660773338,3.96826477663013,0.446514912805748,664.752320067527,720.360354410171
0.57,0.284949281047297,0.0678114680428682,7.63724863437531,-3.38674048294862,0.263620963240103,0.127665483619735,3.77455203596928,7.45320969313696,-0.886174721696133,684.25699834755,720.360354410171
0.58,0.179676691181167,-0.00558618175715217,6.72781610761653,0.288381113514163,0.15761231546277,-0.0864481162021511,5.64892524320684,-3.66555818957996,-2.103556431883,696.949520871501,720.360354410171
0.59,0.163714879911968,0.00913027173261424,3.64499204793252,-0.446021575835847,-0.0262335531606712,-0.161857111227983,0.0616556155786794,-3.6716618663311,3.03662309552799,704.834289613124,720.360354410171
0.6,0.0716554359743303,-0.0166389825294147,5.81878821338514,0.844427681910166,-0.060828387265991,-0.041367433409678,-5.73161085844731,-1.31148440689735,1.93985474693877,709.858944323978,720.360354410171
0.61,0.044109419130964,0.00462124078156702,5.56746630685704,-0.219634757471841,-0.0308358965231196,0.0318770169251724,-4.40787980355928,3.40815436006826,0.873185165529694,713.148754148172,720.360354410171
0.62,0.0216187030532962,0.000766549336160434,5.82451819077859,-0.0304367289826308,0.00453342267449585,0.0211519265894559,0.988083262324836,5.7401768279292,-0.175689676986351,714.878111754389,720.360354410171
0.63,-0.0284531226878334,-0.00744618961408331,7.66805384150635,0.359989103674697,-0.0292597524838864,-0.0029820823327812,7.30914714843131,2.34627573690375,-1.21326947251665,716.290053740628,720.360354410171
0.64,-0.0147327104156472,0.0504217265092509,6.52408357499109,-2.53715824782218,-0.0428958120793183,-0.0303208272713794,6.68675094426289,-2.07079701500653,-2.24200926561226,717.244698676689,720.360354410171
0.65,-0.0187262197478748,-0.0188289201169251,6.56026415262776,0.9318683672084,0.0210020962270831,0.0162515074034252,-1.7367491895877,-6.39446218680844,3.01749160600205,717.50078668451,720.360354410171
0.66,-0.00512672687790519,0.0386616334892549,5.76856253127953,-1.94278431386482,-0.0112494937321001,0.0373423904337892,-4.45664982054635,-4.14596152231367,1.99523781385488,717.855327822991,720.360354410171
0.67,0.00142567973751122,-0.0034582243841217,5.23518045327454,0.170605063273811,-0.00311844206823626,-0.00206571964988919,-4.24077084956751,3.07442402206022,0.976085639552803,718.274866360393,720.360354410171
0.68,-0.0326769153978947,0.0393376545445195,6.88017452812215,-1.96820600524312,0.0379698501751392,-0.0342567123738196,-1.68548427086167,6.95483854515501,-0.0408647809712024,718.438707462251,720.360354410171
0.69,0.0434423807939612,-0.0137704553643317,3.01960177991746,0.696723152362695,0.0310739363825592,0.0333358120897218,2.97238279290399,0.876560661202184,-1.05725855276024,718.589558633674,720.360354410171
0.7,0.00255181491952657,0.0390394302944468,5.07499858589313,-1.94521729002626,-0.0165726306345762,-0.0354391985088319,5.38434119484051,-0.740507157141542,-2.07349105358127,718.577353783023,720.360354410171
0.71,0.00756099250856121,0.00598859721713343,4.78429936071934,-0.288877887318295,-0.00558559308306707,-0.00786339966261224,0.538318822652113,-4.76268660022255,-3.08934910810207,718.672460679802,720.360354410171
0.72,-0.0203903769593419,0.0102642757118538,6.20874333819394,-0.5062079608119,0.0108822735307962,0.0200673603454452,-4.80875240410315,-3.95987886875206,2.17833570743098,718.573875793329,720.360354410171
0.73,-0.0100760997476489,-0.0212154616734188,5.61248053819089,1.04962930536044,0.000848528115308304,-0.023471335713555,-4.73766604447523,3.18687620112068,1.16353179318111,718.826756325778,720.360354410171
0.74,-0.00749903846266456,0.0124248498547977,5.53488349654479,-0.634700183036353,0.0134022233322876,-0.00556712506867556,-1.45106891908812,5.37886406546277,0.149325647867343,718.68658239532,720.360354410171
0.75,-0.0220651496972423,0.0336045400928408,6.32706992011103,-1.69342074267049,0.00497707423102949,-0.0398919124398904,3.72066376940378,5.39037556212241,-0.865664262876355,718.620948813336,720.360354410171
0.76,-0.00659717892678047,-0.0457712897259644,5.57994547875228,2.28465285591392,0.00768324306556838,0.0456015516069961,4.61675856485486,-3.87826901745134,-1.8808627888987,718.551512709556,720.360354410171
0.77,0.0325035720199291,0.0191188510020773,3.44825007128953,-0.95893740114741,-0.0106059108893415,-0.0361873916150597,1.77168820154207,-3.10984089785703,-2.89498803985543,718.991439542436,720.360354410171
0.78,0.00235561179731593,0.0125390936067551,4.93605826891975,-0.625557143776513,-0.0106687126309908,0.00699688117777906,-2.97177236781175,-3.99055910471345,2.37543159458336,719.077018804603,720.360354410171
0.79,0.0359020280362339,0.0236409123791254,3.29471013385658,-1.17646600190762,-0.0302462469865707,0.0305452598361738,-3.46664003794042,-0.470737683992055,1.36279583411663,718.934832834975,720.360354410171
0.8,-0.0460125561651287,-0.0192100918380741,7.43637656024849,0.970113238089146,-0.0023038532001054,-0.049808384973905,-1.63332642019145,7.31936205182074,0.349276805677206,718.800117166954,720.360354410171
0.81,-0.00595711052337148,-0.0381211095781357,5.33497040827359,1.91910461363276,-0.0336843100161277,0.0188168387353799,4.80052141041662,3.01659840935995,-0.664453970592296,719.040573788508,720.360354410171
0.82,-0.00949629432798365,-0.0638726184628026,5.49945755972976,3.20250327056712,-0.00266979314793639,0.0645194792276385,5.12886283987659,-3.76760223736463,-1.67703463027222,719.104863975668,720.360354410171
0.83,-0.0568335532176343,-0.0166201157465108,7.8735867478115,0.818134068075602,-0.00989692199780013,0.0583809211449986,2.70612780121925,-7.4390580016644,-2.6891639289501,719.104422839151,720.360354410171
0.84,0.00743032275093669,-0.0443471868251279,4.6782332552,2.20807662458896,0.0336431493239982,-0.0298332227399093,-4.35425909521962,-2.79318751640712,2.58215069860117,719.081901443412,720.360354410171
0.85,-0.0066851166688716,-0.00505456104988184,5.42256761040715,0.242768888156614,0.00668150017029796,-0.00505934064456189,-5.42239260661744,0.246646796439789,1.57008117283577,718.968778149777,720.360354410171
0.86,-0.000242124457399082,0.031881741027674,5.07123401309137,-1.6026346674952,0.0271726269609046,0.0166779009246386,-4.04499276806028,3.45309800025025,0.558081546765557,719.13742692549,720.360354410171
0.87,-0.0273443708166289,0.04719798611349,6.35067951686303,-2.3655955730594,0.0304894478308568,-0.0452300572572704,0.649548250237192,6.74575865353895,-0.452566516521433,719.180274059511,720.360354410171
0.88,-0.0395066263653344,-0.019210094326508,6.97561591705339,0.963697082706436,-0.0413353054663759,0.0148725846040581,7.03868471915619,-0.211770899281775,-1.4635907080719,719.192734556938,720.360354410171
0.89,-0.0200208653563688,-0.059630000984178,6.03643603411745,2.99197776047319,0.0344839994961102,0.0526063289514027,1.3811619250944,-6.59415518848528,-2.47496096197607,719.100389199057,720.360354410171
0.9,-0.0153993157402693,0.0280124867909005,5.84140828242278,-1.39319075416574,-0.0211435336796235,0.0239747643370588,-0.66701991774018,-5.96809145613472,2.7961615938701,719.054212555354,720.360354410171
0.91,-0.000191933863854479,0.0789370569392792,5.04973816543324,-3.94163096559801,-0.0238531545222423,0.0752470784561177,-3.60973658111656,-5.29208012253623,1.8802050009309,719.254014190779,720.360354410171
0.92,-0.0167888621592552,-0.0215023276662446,5.85259889084229,1.07641986713371,-0.00105772364702548,-0.0272598093969041,-3.77504598692424,4.60006753255381,0.869095199879222,719.121707238888,720.360354410171
0.93,-0.00266009643146724,0.0135486825560935,5.15642902196729,-0.69122841984627,0.0130338687990468,-0.00455644336733515,0.0477453508659337,5.20233383862093,-0.142434771480468,719.173818100941,720.360354410171
0.94,0.0199880686980626,0.0368017704430579,4.04837417918323,-1.85432350565763,0.0331844722160311,-0.0255476809469169,2.94992975114701,3.33553048578628,-1.15364800902835,719.144345537892,720.360354410171
0.95,0.0200031831950853,0.0197268383335529,4.14417379181392,-0.996766927456069,0.00552369430028811,-0.0275456764275492,3.99151099767395,-1.49517914641541,-2.1652462254082,719.092443557554,720.360354410171
